#  HZ   S   DB   R     50.00 
! Rohde & Schwarz Vector Network Analyzer 
! Rohde-Schwarz,ZNB20-2Port,1311601062101988,3.16
! Created: UTC 1/12/2023, 6:39:33 PM
! freq[Hz]                db:S11                  ang:S11                 db:S21                  ang:S21                 db:S12                  ang:S12                 db:S22                  ang:S22
 7.874586023000000E9    -2.245687322394863       3.552588913958645E1    -5.292673503403804E1    -5.846129455960603E1    -5.255371965991988E1    -6.219932640649223E1    -2.204931741636313       1.147318094371052E1
 7.874646676550000E9    -2.247364490164963       3.538653137410781E1    -5.279216477319601E1    -5.719915632133995E1    -5.256266053399317E1    -6.024947660610684E1    -2.207944221500231       1.140242919064485E1
 7.874707330100000E9    -2.242485689451287       3.519282007208534E1    -5.255522584655256E1    -5.842331866463001E1    -5.275702171498234E1    -6.369313105560257E1    -2.197966582242474       1.118491917329930E1
 7.874767983650000E9    -2.244057016085732       3.504723465863810E1    -5.238292938796066E1    -5.696526034899156E1    -5.244516245156883E1    -6.131820522771417E1    -2.193624523133514       1.107001989337507E1
 7.874828637200000E9    -2.244391530920522       3.488919797308967E1    -5.249018842170454E1    -5.792363289321845E1    -5.221131597685216E1    -6.177748715158796E1    -2.194638096176821       1.085514150982144E1
 7.874889290750000E9    -2.237248234104014       3.472333147760312E1    -5.236097627170119E1    -5.720645091519808E1    -5.234394132923701E1    -6.261211016690170E1    -2.187604972502637       1.077304625973547E1
 7.874949944300000E9    -2.239379157321063       3.454912069933670E1    -5.220514794224464E1    -5.984685498557290E1    -5.215514427178684E1    -6.324512744811992E1    -2.194256670388055       1.060938572942688E1
 7.875010597850000E9    -2.238433054570438       3.437856203041826E1    -5.231629608361118E1    -5.978154441500215E1    -5.220751443914238E1    -6.352154342624200E1    -2.190064239003069       1.046704481604654E1
 7.875071251400000E9    -2.237662368093575       3.420516454460548E1    -5.193940737705048E1    -6.014131092945026E1    -5.195755408432810E1    -6.266700309150765E1    -2.187770136440030       1.034927489881381E1
 7.875131904950000E9    -2.238348860412458       3.405895853293042E1    -5.178359362080901E1    -5.966084387312382E1    -5.205396210098958E1    -6.142461315707845E1    -2.183185721874432       1.021158326775597E1
 7.875192558500000E9    -2.237662687770239       3.389619320571062E1    -5.175983896248340E1    -6.075351110532266E1    -5.200862655659115E1    -6.356837660945342E1    -2.179614815830553       1.003589259442328E1
 7.875253212050000E9    -2.231590079510685       3.370974031195109E1    -5.220840643266274E1    -6.189293348266352E1    -5.185353917746555E1    -6.185401208507738E1    -2.183356902499276       9.918157681737906
 7.875313865600000E9    -2.231290071375395       3.354281472470910E1    -5.169246903741457E1    -6.000100928182993E1    -5.175137581275812E1    -6.445894924858116E1    -2.179391313875254       9.745686406893389
 7.875374519150000E9    -2.231210117930627       3.338068460784937E1    -5.183334963470774E1    -5.842957064331819E1    -5.125969420226460E1    -6.383849419361797E1    -2.175999704651733       9.632462037895181
 7.875435172700000E9    -2.228402868995611       3.320471767063871E1    -5.121426707147911E1    -6.192243233700547E1    -5.137557207885713E1    -6.629746365908841E1    -2.173684869347069       9.490406395742836
 7.875495826250000E9    -2.230603588065266       3.304393069292919E1    -5.135536201688609E1    -6.166878019938179E1    -5.157907225447818E1    -6.379821099172356E1    -2.178876222578273       9.340899528565890
 7.875556479800000E9    -2.225603896703453       3.288158615121458E1    -5.122977496723473E1    -6.177201780259941E1    -5.135094987088213E1    -6.414566998235922E1    -2.169049917091832       9.150216361168315
 7.875617133350000E9    -2.225825144760810       3.272369560853227E1    -5.117260810541070E1    -6.274523403908040E1    -5.129070085007338E1    -6.600341224820842E1    -2.167498092779014       9.023605758895840
 7.875677786900000E9    -2.225833724221432       3.254739157135922E1    -5.115916691771545E1    -6.139024089174861E1    -5.116312091296986E1    -6.389048213468735E1    -2.176314537974018       8.902874845567354
 7.875738440450000E9    -2.224588746968711       3.239504920497166E1    -5.099563498834934E1    -6.201357635070028E1    -5.104018368633436E1    -6.574681872980538E1    -2.167162039916054       8.763754806908564
 7.875799094000000E9    -2.224594239258825       3.224071511047229E1    -5.084768804475880E1    -6.306720835749420E1    -5.093483692977992E1    -6.473297387517364E1    -2.165215971362014       8.611125235829268
 7.875859747550000E9    -2.225017322351275       3.206850154814422E1    -5.062718145561252E1    -6.360343297544009E1    -5.078843715271836E1    -6.590434468824802E1    -2.165801622182260       8.476331840658490
 7.875920401100000E9    -2.219959885429485       3.188661448179461E1    -5.073280068323851E1    -6.313262406545493E1    -5.075152468341369E1    -6.677894032681706E1    -2.161451507323929       8.332673518080233
 7.875981054650000E9    -2.218548077115166       3.172009425985053E1    -5.085643546946437E1    -6.389591606672492E1    -5.059531479986141E1    -6.673033441789205E1    -2.156053787896913       8.125653632983596
 7.876041708200000E9    -2.219111086066432       3.155977649437213E1    -5.045301019168637E1    -6.465798189280373E1    -5.063921367385066E1    -6.624130061451311E1    -2.160205356816036       8.057548233600725
 7.876102361750000E9    -2.217573644391510       3.140742073266273E1    -5.039201472501146E1    -6.391676072145389E1    -5.055210870341327E1    -6.768952172554054E1    -2.154787388616893       7.879504724813234
 7.876163015300000E9    -2.216597768572294       3.122632472641007E1    -5.020485160803289E1    -6.506339121735837E1    -5.020010019177242E1    -6.823364692519996E1    -2.154444487335842       7.711889988640118
 7.876223668850000E9    -2.217992713087159       3.105883353251077E1    -5.010497246245638E1    -6.441284027334025E1    -5.021683587447413E1    -6.812716539073024E1    -2.156342382888284       7.585497033008434
 7.876284322400000E9    -2.217521186378964       3.092127361159971E1    -5.003563271528165E1    -6.520089871893671E1    -5.012955215401838E1    -6.844049333350765E1    -2.153139870986998       7.479051183911563
 7.876344975950000E9    -2.212672352296053       3.072938004266753E1    -5.004307096353578E1    -6.435824669059343E1    -5.009347475825330E1    -6.821205902699887E1    -2.148290445760788       7.341415424394655
 7.876405629500000E9    -2.217737996070857       3.055208314339813E1    -4.976486403563592E1    -6.709424758174067E1    -4.987133509911985E1    -6.793946690400441E1    -2.145412974085044       7.181707281571059
 7.876466283050000E9    -2.211136094672324       3.041835304824571E1    -4.983297159572131E1    -6.519649832194060E1    -4.993711632037390E1    -7.000524160107015E1    -2.145037955942793       7.035381671992033
 7.876526936600000E9    -2.213682923400182       3.023920830554482E1    -4.970912872215547E1    -6.621069590252728E1    -4.979079760580744E1    -7.072584945523938E1    -2.147621019500731       6.912484877764432
 7.876587590150000E9    -2.216689959099494       3.007307986100862E1    -4.930327434878502E1    -6.656296492885207E1    -4.955085545516948E1    -7.020924768973642E1    -2.142371782587662       6.741564508530014
 7.876648243700000E9    -2.214254394935340       2.992956838474860E1    -4.937871414078940E1    -6.732198347400488E1    -4.947466351924532E1    -7.104971862542401E1    -2.143310127700299       6.586075899308270
 7.876708897250000E9    -2.211611648381553       2.975582663128962E1    -4.931557510675270E1    -6.762069839929006E1    -4.953720654975975E1    -7.003543027715826E1    -2.143932554630489       6.445718412121214
 7.876769550800000E9    -2.210348933928320       2.957537163250432E1    -4.914599306154866E1    -6.823087681598092E1    -4.948318599457302E1    -7.203913673484242E1    -2.140860150014748       6.305685670433617
 7.876830204350000E9    -2.207430010127042       2.940116061851096E1    -4.917522169024660E1    -6.697544983922465E1    -4.890782007819891E1    -7.138513766650614E1    -2.134535113919483       6.205184766526074
 7.876890857900000E9    -2.209279328280086       2.922690509486396E1    -4.884577694343096E1    -6.949812409527209E1    -4.915132796937897E1    -7.234197366115869E1    -2.132754266501911       6.042017243402621
 7.876951511450000E9    -2.209787454054772       2.906255729565555E1    -4.875535525737873E1    -6.846196919889060E1    -4.882382118987308E1    -7.257683614841528E1    -2.135250767612679       5.920712572507454
 7.877012165000000E9    -2.205384142559591       2.889652955924096E1    -4.859479740542753E1    -6.868383730081271E1    -4.870943344620193E1    -7.176542928171597E1    -2.130738275784165       5.743176866572237
 7.877072818550000E9    -2.207661827569531       2.875199419889833E1    -4.846697732965951E1    -6.933166651784312E1    -4.852023907638531E1    -7.333937990328296E1    -2.133337910796285       5.622037052844910
 7.877133472100000E9    -2.203479801314019       2.860557985012003E1    -4.835347004024393E1    -7.014532790312884E1    -4.840262139443227E1    -7.279502341378863E1    -2.123161589010440       5.475234879844464
 7.877194125650000E9    -2.204431104229745       2.842463157484131E1    -4.830935192168000E1    -6.969615334368861E1    -4.833034480519068E1    -7.283540556844927E1    -2.125896128722759       5.367407472741698
 7.877254779200000E9    -2.203885546010348       2.826393938415831E1    -4.786381903492340E1    -7.144496747418458E1    -4.814093390182632E1    -7.367890734979952E1    -2.122403115757962       5.186175762307299
 7.877315432750000E9    -2.203480263277236       2.809331403040635E1    -4.779405136343127E1    -7.142291117020778E1    -4.798372545560937E1    -7.420867460369945E1    -2.125794899267551       5.059761803351729
 7.877376086300000E9    -2.203308248280955       2.791979936681981E1    -4.768446615468707E1    -7.072456364290205E1    -4.771230208934935E1    -7.435739048879040E1    -2.118534335119339       4.882737513896096
 7.877436739850000E9    -2.199357735193661       2.776188688894206E1    -4.755057268251684E1    -7.207414261338140E1    -4.775561595001039E1    -7.574898119102907E1    -2.124372972470280       4.756705402984786
 7.877497393400000E9    -2.197786881861637       2.759426279883498E1    -4.742326395198361E1    -7.243723273791279E1    -4.746903401700607E1    -7.561504170775335E1    -2.121613155916276       4.587596780923346
 7.877558046950000E9    -2.200527942710587       2.741125508577706E1    -4.724031900737715E1    -7.255062791794427E1    -4.736598192990206E1    -7.636536632996470E1    -2.118871695969491       4.479476535357855
 7.877618700500000E9    -2.197307292501728       2.724351654612592E1    -4.718278018533255E1    -7.364089947369882E1    -4.717230801196443E1    -7.647491778353083E1    -2.117545288905366       4.313905984410664
 7.877679354050000E9    -2.199956639928818       2.706367393735930E1    -4.707251132998991E1    -7.414729526846639E1    -4.716103535468109E1    -7.632095502739300E1    -2.115630237820755       4.163545709701907
 7.877740007600000E9    -2.198985196083166       2.692621844207216E1    -4.683773442935657E1    -7.409545579384894E1    -4.694447778299936E1    -7.730133000944745E1    -2.116397093734221       4.068893947610317
 7.877800661150000E9    -2.198624942945978       2.676632931662702E1    -4.663092758213389E1    -7.471649184978946E1    -4.666169865159843E1    -7.777245649133324E1    -2.111120756659444       3.916724653997778
 7.877861314700000E9    -2.196491778300052       2.656274721275603E1    -4.656864444914276E1    -7.546439366311203E1    -4.656661729748996E1    -7.886687062280106E1    -2.110116708698605       3.768426145070558
 7.877921968250000E9    -2.196686211980610       2.643826074135042E1    -4.627263631577732E1    -7.577259813083060E1    -4.650420532113070E1    -7.871379163734164E1    -2.109176739019023       3.617897433643259
 7.877982621800000E9    -2.194864312811525       2.622283243896366E1    -4.628890596356283E1    -7.536858516965614E1    -4.617230251595176E1    -7.857230457535123E1    -2.117552509472048       3.489309842898255
 7.878043275350000E9    -2.194122741248203       2.607568233484824E1    -4.592044959595106E1    -7.702409684156805E1    -4.602916154063099E1    -8.014956460142285E1    -2.111948882589168       3.282830396788406
 7.878103928900000E9    -2.197333549926655       2.591237151920820E1    -4.565965426553018E1    -7.799737732952572E1    -4.596690724365710E1    -7.992179634751086E1    -2.115787592450987       3.168747670243860
 7.878164582450000E9    -2.195719709822267       2.574671397378016E1    -4.559026724589268E1    -7.744738517024942E1    -4.563637537364279E1    -8.072893067571559E1    -2.109655712350881       3.036785545410701
 7.878225236000000E9    -2.193733275832761       2.557020757953000E1    -4.541975160654438E1    -7.858716044675278E1    -4.551102501087297E1    -8.207587297429259E1    -2.112128882383698       2.887903038130906
 7.878285889550000E9    -2.196451639586657       2.543239945338023E1    -4.518057903369726E1    -7.791003753854127E1    -4.528797537673724E1    -8.156113973997782E1    -2.106451168739604       2.743241690853276
 7.878346543100000E9    -2.194590497417429       2.522384825288011E1    -4.496860577211652E1    -8.007938063992880E1    -4.490794378296528E1    -8.350409930184347E1    -2.108275741563024       2.610952266341349
 7.878407196650000E9    -2.197155013194951       2.506070219232076E1    -4.472221909779992E1    -8.018175318069260E1    -4.481680278642148E1    -8.378349827079744E1    -2.107612913146122       2.515724211810058
 7.878467850200000E9    -2.194320009939887       2.489219004236559E1    -4.459297172768959E1    -8.046725377692367E1    -4.464868291101646E1    -8.474409965425515E1    -2.099663019146465       2.307884675114607
 7.878528503750000E9    -2.191842176573175       2.473052130628358E1    -4.429259679823809E1    -8.115147042856995E1    -4.453553824374681E1    -8.461108584018871E1    -2.101004644628080       2.161758680118863
 7.878589157300000E9    -2.194733236174260       2.454897583674494E1    -4.417213291297869E1    -8.135688430675283E1    -4.421064216304764E1    -8.482386487290132E1    -2.105214405282095       2.077293844559879
 7.878649810850000E9    -2.193848988872794       2.436315235146036E1    -4.381752321706057E1    -8.241656778856483E1    -4.400955712315355E1    -8.596352148188211E1    -2.103028954631832       1.867457002723206
 7.878710464400000E9    -2.195745889006493       2.424397981933310E1    -4.357791143450713E1    -8.375790586648152E1    -4.384600826486472E1    -8.647516905810986E1    -2.103036135471096       1.720811725588570
 7.878771117950000E9    -2.194809533913640       2.405485131002439E1    -4.333109932602663E1    -8.454031762296081E1    -4.353150072883065E1    -8.763639695458514E1    -2.098057972839396       1.565336758027233
 7.878831771500000E9    -2.194705804964259       2.386586617706579E1    -4.320911939641235E1    -8.531864183484139E1    -4.337255231091756E1    -8.867995181528343E1    -2.108161731988084       1.380971237719804
 7.878892425050000E9    -2.198800631974169       2.367540573312277E1    -4.291079565301835E1    -8.598065858967136E1    -4.296142828866113E1    -8.895765662908750E1    -2.108519802811770       1.269556104121041
 7.878953078600000E9    -2.197071693106840       2.350145953376169E1    -4.261397275241692E1    -8.691215471525899E1    -4.269255456665636E1    -8.997770286076187E1    -2.103096641379115       1.138077762950677
 7.879013732150000E9    -2.192477039388229       2.332472956805762E1    -4.225822501459114E1    -8.766942383974775E1    -4.254422051296959E1    -9.103217039717951E1    -2.108531792578271       1.008838962115586
 7.879074385700000E9    -2.199929414185470       2.314348791236859E1    -4.209784352155967E1    -8.896212896014090E1    -4.229948104150765E1    -9.240071006346658E1    -2.107898467043703       8.484064846931467E-1
 7.879135039250000E9    -2.201797101179580       2.299628716794701E1    -4.193887731198848E1    -8.996079219859206E1    -4.204903480519145E1    -9.277323624699011E1    -2.105311898303686       7.167175940612439E-1
 7.879195692800000E9    -2.200410128276554       2.281674008236983E1    -4.152898465370907E1    -9.081679435280891E1    -4.170598969733131E1    -9.424566579949899E1    -2.113896623997569       5.486139854543226E-1
 7.879256346350000E9    -2.203968350166968       2.266241605487225E1    -4.116502992385567E1    -9.234514579405764E1    -4.145278043839059E1    -9.560980058176150E1    -2.106977377567105       4.061921720234420E-1
 7.879316999900000E9    -2.209384915619175       2.248002108485707E1    -4.085309394202801E1    -9.341610648717166E1    -4.109271279477326E1    -9.694285130559408E1    -2.113627505985665       2.662576680399869E-1
 7.879377653450000E9    -2.207292117774975       2.231982851274129E1    -4.059222331135071E1    -9.442620898170006E1    -4.081239707745695E1    -9.774928462576362E1    -2.114204648364237       1.168343592034353E-1
 7.879438307000000E9    -2.212925933601626       2.212419219920284E1    -4.030289039997982E1    -9.576489584418009E1    -4.052408804814650E1    -9.935414135466701E1    -2.115759951984252      -7.809540360256052E-2
 7.879498960550000E9    -2.212260676921335       2.196142196170152E1    -3.996986438618430E1    -9.768946832164458E1    -4.015800907121188E1    -1.008465157122792E2    -2.115179276804543      -2.125904424151658E-1
 7.879559614100000E9    -2.215659585144242       2.180137178904116E1    -3.974863795914543E1    -9.915939625746596E1    -3.983561925234415E1    -1.021705820140822E2    -2.123044693478133      -3.462962981497277E-1
 7.879620267650000E9    -2.224901520993933       2.163055056554060E1    -3.932010829036451E1    -1.007967358503200E2    -3.951011034741301E1    -1.040939829643141E2    -2.125196445785418      -4.970686942478442E-1
 7.879680921200000E9    -2.224336491415994       2.143377381695724E1    -3.890906337871542E1    -1.026147749294286E2    -3.912243119327015E1    -1.057576273747149E2    -2.139511870560117      -6.352722235788384E-1
 7.879741574750000E9    -2.231475614904295       2.127442009741991E1    -3.861721389324479E1    -1.043096257903681E2    -3.879071940159962E1    -1.077189225799470E2    -2.133474856167867      -7.899331851295308E-1
 7.879802228300000E9    -2.236580129365266       2.107857086221267E1    -3.835555793536084E1    -1.068021657348991E2    -3.842208426812733E1    -1.100198206443938E2    -2.142191943582702      -9.317414089844276E-1
 7.879862881850000E9    -2.243078697307080       2.092566829728954E1    -3.791878643327094E1    -1.085461730155039E2    -3.810985371141071E1    -1.124209977597372E2    -2.148059099657841      -1.084380151903703
 7.879923535400000E9    -2.251821621465135       2.078234035787183E1    -3.756025930235474E1    -1.115129569347742E2    -3.774232898929436E1    -1.147127952765426E2    -2.154831644483160      -1.231898551196210
 7.879984188950000E9    -2.258994241780715       2.062238211860272E1    -3.721429449751496E1    -1.134637063709353E2    -3.737463964146963E1    -1.171322500827369E2    -2.159872341933353      -1.337058122393777
 7.880044842500000E9    -2.267841364516841       2.049675248214633E1    -3.684771138359592E1    -1.166945074299585E2    -3.703531482019810E1    -1.200801615320182E2    -2.168690526144807      -1.528573465461019
 7.880105496050000E9    -2.274667165944268       2.031345227155609E1    -3.651902943219821E1    -1.197717100586773E2    -3.661749672024563E1    -1.229047604402738E2    -2.178224857007590      -1.609992498124389
