#  HZ   S   DB   R     50.00 
! Rohde & Schwarz Vector Network Analyzer 
! Rohde-Schwarz,ZNB20-2Port,1311601062101988,3.16
! Created: UTC 1/12/2023, 6:42:35 PM
! freq[Hz]                db:S11                  ang:S11                 db:S21                  ang:S21                 db:S12                  ang:S12                 db:S22                  ang:S22
 7.874829390000000E9    -2.237779426859952       3.493712102184630E1    -5.284998889094613E1    -5.804996559160021E1    -5.297101002349746E1    -5.986441566535244E1    -2.181311971440962       1.107287105565953E1
 7.874890043550000E9    -2.236378321706907       3.475555820161500E1    -5.274419427873631E1    -5.905728678837568E1    -5.239445300521365E1    -6.177367624307783E1    -2.175208229602555       1.092336080276754E1
 7.874950697100000E9    -2.232141458993309       3.459675677792707E1    -5.262110341565027E1    -5.826618692480859E1    -5.270676407067103E1    -6.250891285654646E1    -2.173532443986490       1.074695370916123E1
 7.875011350650000E9    -2.234048834729900       3.443346636189071E1    -5.245723549908963E1    -5.960696903967271E1    -5.243856460122377E1    -6.088593570943782E1    -2.173650506256865       1.059171012449318E1
 7.875072004200000E9    -2.234938501163329       3.427385631321869E1    -5.254262806730409E1    -5.792928245927237E1    -5.262285745860866E1    -6.094454807101295E1    -2.169241803969532       1.042033968955063E1
 7.875132657750000E9    -2.229552456590654       3.411745351569922E1    -5.214555705473187E1    -5.847730093665785E1    -5.259748734163699E1    -6.341246500095313E1    -2.172104094451371       1.029821499264808E1
 7.875193311300000E9    -2.228962108935690       3.393120079233469E1    -5.229185970495975E1    -5.686493738879943E1    -5.219741731124994E1    -6.009475228201332E1    -2.166636929478280       1.013737190370423E1
 7.875253964850000E9    -2.232997668430192       3.377509919777200E1    -5.228417706029561E1    -5.985115444137983E1    -5.237186475289460E1    -6.242497706609151E1    -2.160929771394291       1.001336704864044E1
 7.875314618400000E9    -2.227422177046004       3.360833052743222E1    -5.205634680759373E1    -5.766370919923121E1    -5.200993915654151E1    -6.190047773167387E1    -2.167685526930759       9.850798150845456
 7.875375271950000E9    -2.228067537019755       3.342178784128360E1    -5.213586115174047E1    -5.956843179218117E1    -5.184497527895964E1    -6.223193000690515E1    -2.166849885608169       9.707174326912682
 7.875435925500000E9    -2.225646703687553       3.328281918915717E1    -5.169006464111639E1    -5.788305007841905E1    -5.187635362293091E1    -6.367166350748158E1    -2.154688264563806       9.593383272009463
 7.875496579050000E9    -2.223860154641292       3.309927056951103E1    -5.172842997060109E1    -6.011411948237669E1    -5.176379603936194E1    -6.345255437331634E1    -2.158118470755694       9.445737377324907
 7.875557232600000E9    -2.226757852831049       3.293915248565141E1    -5.168956529343984E1    -5.992029613328151E1    -5.169152444475387E1    -6.440252350481222E1    -2.156125082927745       9.268399989726669
 7.875617886150000E9    -2.222274681371069       3.277514189453330E1    -5.141427371379579E1    -5.995527709795449E1    -5.157806946854824E1    -6.151016439876668E1    -2.158556785764169       9.102677066185020
 7.875678539700000E9    -2.221924920386315       3.262815641192614E1    -5.142621159034192E1    -6.119731585841208E1    -5.182783556138746E1    -6.363814579612753E1    -2.157174362240086       9.035997884236378
 7.875739193250000E9    -2.223040549770389       3.244240045245601E1    -5.162200894282609E1    -6.052852047823436E1    -5.137791852271189E1    -6.408735061847571E1    -2.150950187941995       8.802009423335727
 7.875799846800000E9    -2.221001674824308       3.228642990262229E1    -5.125934196939509E1    -6.099330350469345E1    -5.149140745618021E1    -6.470043641061730E1    -2.151150914228822       8.689733557333781
 7.875860500350000E9    -2.219939276731813       3.210197267411272E1    -5.130309823132020E1    -6.203815751665696E1    -5.119650443677972E1    -6.381202416661093E1    -2.147321618806523       8.552857229271023
 7.875921153900000E9    -2.218592776726086       3.194797747578760E1    -5.113929021884463E1    -6.152232791132086E1    -5.102883921444043E1    -6.586661544011699E1    -2.151302673475958       8.410927038397116
 7.875981807450000E9    -2.220986159023782       3.178171493928149E1    -5.098282123696650E1    -6.223870331580699E1    -5.078771905090739E1    -6.539988487650308E1    -2.144926138808555       8.278631265527467
 7.876042461000000E9    -2.214745725924670       3.160513023379047E1    -5.083712014015397E1    -6.331973929167710E1    -5.089723894361509E1    -6.457402070667510E1    -2.141160077057233       8.155587538921424
 7.876103114550000E9    -2.219380187084887       3.144404022938788E1    -5.089036921592963E1    -6.302850625035096E1    -5.110767390648667E1    -6.601513350146301E1    -2.137929926661695       7.958740620596256
 7.876163768100000E9    -2.212628236204266       3.126480500843687E1    -5.073997705268972E1    -6.223854151035210E1    -5.084158528870914E1    -6.584202631008176E1    -2.137771328066840       7.807434806986700
 7.876224421650000E9    -2.208775760986625       3.110814527646567E1    -5.064688215152802E1    -6.451238963322396E1    -5.068555192314733E1    -6.767408344181095E1    -2.136620281578537       7.738646221631889
 7.876285075200000E9    -2.211092790890213       3.094323039766120E1    -5.061358240428114E1    -6.216021305673102E1    -5.043880101903382E1    -6.722602242750239E1    -2.127952522760626       7.498263110092564
 7.876345728750000E9    -2.211583901822600       3.080728371856392E1    -5.007380469023705E1    -6.534551217357620E1    -5.032843411704300E1    -6.745404098744726E1    -2.134179999324826       7.383787729127064
 7.876406382300000E9    -2.211244398421167       3.063989273378148E1    -5.022932061714905E1    -6.468056034950754E1    -5.031771141220990E1    -6.745684613376793E1    -2.138737766613782       7.311651511352633
 7.876467035850000E9    -2.209435299376961       3.044441224950957E1    -5.021469147032818E1    -6.545754570720884E1    -5.021275735201620E1    -6.801464258098203E1    -2.128956310601971       7.138370323634184
 7.876527689400000E9    -2.210824005555290       3.030143449035894E1    -4.995541573515122E1    -6.458927220231931E1    -5.006731159928079E1    -6.894848146763331E1    -2.130936547594669       6.957117566242065
 7.876588342950000E9    -2.205169092002741       3.012041750134720E1    -4.995347954640149E1    -6.519932187362062E1    -4.994866956259447E1    -6.872175436473864E1    -2.129688767750785       6.814635481346638
 7.876648996500000E9    -2.206652739275789       2.997798271572168E1    -4.986879667732311E1    -6.581689684173605E1    -4.999958939666855E1    -6.760622784241217E1    -2.120911278306717       6.706583101752461
 7.876709650050000E9    -2.208393692816423       2.977448452115704E1    -4.971999694782829E1    -6.562062951175295E1    -4.983224520343306E1    -6.888461004434600E1    -2.119275770828470       6.597323679891623
 7.876770303600000E9    -2.205196506660399       2.961918117552712E1    -4.955705581819439E1    -6.485630785014912E1    -4.963178684735258E1    -6.863461081673057E1    -2.117535492013991       6.414627169862672
 7.876830957150000E9    -2.202277743310572       2.946564739575216E1    -4.937701708606497E1    -6.556075841607159E1    -4.944777094658195E1    -6.930167738936804E1    -2.124916090843477       6.284714181897812
 7.876891610700000E9    -2.203187226002925       2.929326133382272E1    -4.931364213138974E1    -6.536995859046168E1    -4.944158152376295E1    -6.870677909159323E1    -2.122054151783140       6.143363467056159
 7.876952264250000E9    -2.200627434251858       2.913398718449850E1    -4.889701891321185E1    -6.725370414732539E1    -4.936104100356798E1    -7.060379886588203E1    -2.119223876323528       5.970619061658521
 7.877012917800000E9    -2.203054036470739       2.895470559103111E1    -4.906428464743630E1    -6.735341667032105E1    -4.919696268036720E1    -7.034887489669576E1    -2.113414564432398       5.865180733888607
 7.877073571350000E9    -2.201651441593024       2.880186814238313E1    -4.877817170664831E1    -6.761512469372649E1    -4.903833365648880E1    -7.192380157278954E1    -2.114799884559719       5.682007929439909
 7.877134224900000E9    -2.196136586743299       2.862740547295854E1    -4.896289725197460E1    -6.782664733741046E1    -4.879056060913201E1    -7.189491704115338E1    -2.114347442050956       5.542529459285906
 7.877194878450000E9    -2.198965593213279       2.847237256115239E1    -4.874800718041232E1    -6.760977337571531E1    -4.873184619549399E1    -7.108678137732311E1    -2.111321403320932       5.414528920265743
 7.877255532000000E9    -2.202494126399113       2.832267256882091E1    -4.854168447855710E1    -6.884757056977040E1    -4.858715681292150E1    -7.228759081649659E1    -2.117377020327856       5.296263519074093
 7.877316185550000E9    -2.199754726597281       2.816508349092179E1    -4.845855786370444E1    -6.849292542634902E1    -4.848583048132535E1    -7.322517298940974E1    -2.109488690072437       5.129222575946834
 7.877376839100000E9    -2.196119252269813       2.797506008984301E1    -4.809861427399386E1    -6.967029389330763E1    -4.848687455101634E1    -7.244894135052790E1    -2.109707008867596       4.962145992762895
 7.877437492650000E9    -2.194398849115366       2.782940535475655E1    -4.806411976576346E1    -6.862634995356457E1    -4.826274428750459E1    -7.244797850493318E1    -2.105085627002356       4.870455088601384
 7.877498146200000E9    -2.197729815374167       2.766344301182971E1    -4.794685750526919E1    -7.025558439181211E1    -4.808119540014982E1    -7.303520022767668E1    -2.102511103249697       4.670188166035566
 7.877558799750000E9    -2.193693112086110       2.748797633555460E1    -4.797395409685298E1    -6.941512401563334E1    -4.792092074695966E1    -7.332664256429909E1    -2.103734924243859       4.535465530022175
 7.877619453300000E9    -2.193493198485919       2.730906867676103E1    -4.759845478381374E1    -7.069609522492929E1    -4.778823592764670E1    -7.413201377571400E1    -2.105434816686374       4.465727578629924
 7.877680106850000E9    -2.197660955975641       2.713418416160569E1    -4.767650808902267E1    -7.109090634512002E1    -4.753465429187423E1    -7.436954091605777E1    -2.097411008663888       4.328402046404125
 7.877740760400000E9    -2.194446788598879       2.697643072018029E1    -4.728881669634673E1    -7.057054714382718E1    -4.747169156662373E1    -7.498061322417099E1    -2.099703079639658       4.137988152541914
 7.877801413950000E9    -2.191113591091084       2.682757802329154E1    -4.728891694570871E1    -7.237774312561700E1    -4.733878673637602E1    -7.518636595594469E1    -2.098579738513217       3.994731565819736
 7.877862067500000E9    -2.192551563215263       2.664474145383744E1    -4.703314116039877E1    -7.212556193857098E1    -4.722850325828449E1    -7.569309832608280E1    -2.093983207104067       3.881522203988796
 7.877922721050000E9    -2.185939910189048       2.647559740799819E1    -4.668066983228061E1    -7.257453652758738E1    -4.696510834944774E1    -7.571140672542128E1    -2.091430986314790       3.735928902795069
 7.877983374600000E9    -2.189958167519575       2.631164281260851E1    -4.688824171422787E1    -7.342269146159079E1    -4.681325291242551E1    -7.678390759417881E1    -2.096521802498611       3.598021322162377
 7.878044028150000E9    -2.188249132686102       2.613072205802181E1    -4.649091780894099E1    -7.282407732109755E1    -4.672761769558694E1    -7.644865701742587E1    -2.097394257991313       3.425170621420014
 7.878104681700000E9    -2.188438777389819       2.599264292655632E1    -4.640513917805835E1    -7.357273886645382E1    -4.637830494892523E1    -7.717176020071126E1    -2.096768537747696       3.347234734105113
 7.878165335250000E9    -2.193137737926109       2.581500064837983E1    -4.613809115744467E1    -7.459717675274318E1    -4.625365634560387E1    -7.737762793492342E1    -2.094832454507945       3.167018070590259
 7.878225988800000E9    -2.189060765072772       2.564103671509003E1    -4.599500081361764E1    -7.446234949567680E1    -4.609885228589869E1    -7.784522774122311E1    -2.083776899433993       3.032144374825732
 7.878286642350000E9    -2.187339862424457       2.547731940889472E1    -4.576639184241516E1    -7.517049267977248E1    -4.595203847880001E1    -7.843646668524126E1    -2.087419917702222       2.837116248870442
 7.878347295900000E9    -2.188265557117673       2.529302909067081E1    -4.566217398866871E1    -7.528271684079898E1    -4.577780006775078E1    -8.010917316806908E1    -2.081531803006028       2.723065292126787
 7.878407949450000E9    -2.189033228339560       2.512824690844118E1    -4.542672872123255E1    -7.677743509677744E1    -4.555592095316123E1    -8.021720381913732E1    -2.092500572205590       2.550126249257941
 7.878468603000000E9    -2.187600878191861       2.495119739995511E1    -4.523854228288690E1    -7.647789522737429E1    -4.530486733413970E1    -8.091059110327100E1    -2.089456317977842       2.441888043514886
 7.878529256550000E9    -2.187239039543406       2.479179412243060E1    -4.494565117916566E1    -7.796591779036575E1    -4.520769932683035E1    -8.053402200456468E1    -2.092404967353053       2.260549484473553
 7.878589910100000E9    -2.185717798748557       2.460143886953289E1    -4.475036239217064E1    -7.784945806573164E1    -4.493618167723922E1    -8.168727691628173E1    -2.092309228207661       2.161361785177915
 7.878650563650000E9    -2.186495060183255       2.442926570036341E1    -4.455363516864844E1    -7.889204564313063E1    -4.470086962756172E1    -8.311081552511527E1    -2.080796695636184       1.988639042462952
 7.878711217200000E9    -2.187992552107441       2.425677689935614E1    -4.439378952716862E1    -7.969603065861686E1    -4.454622977821973E1    -8.280670795600004E1    -2.085839436516141       1.847881265395996
 7.878771870750000E9    -2.185179335631699       2.408931004356019E1    -4.425628480621292E1    -8.023415428339486E1    -4.428354601250336E1    -8.328833764319249E1    -2.081323532746204       1.718096667181732
 7.878832524300000E9    -2.185682640293012       2.395071533397823E1    -4.386559794150082E1    -8.001473031047239E1    -4.396308608148435E1    -8.440346131487472E1    -2.082106269048480       1.558464112736511
 7.878893177850000E9    -2.184030868642653       2.378860102929054E1    -4.384968715713597E1    -8.126988857037264E1    -4.381640686379800E1    -8.422501722572638E1    -2.084655227914588       1.433306882194621
 7.878953831400000E9    -2.188291581023559       2.362308156759269E1    -4.354473787512575E1    -8.196995178428968E1    -4.370853066316371E1    -8.521649957634459E1    -2.090772421174719       1.252314367754049
 7.879014484950000E9    -2.188467103537850       2.343406119087016E1    -4.312327095005607E1    -8.309203066755308E1    -4.327882790596398E1    -8.587195575816708E1    -2.088073468899974       1.086472180506241
 7.879075138500000E9    -2.185901585173236       2.325280324847698E1    -4.294493651474188E1    -8.350343429054861E1    -4.313554729696666E1    -8.718420502389336E1    -2.083521095262231       1.041559131441543
 7.879135792050000E9    -2.189650351102278       2.308456533675822E1    -4.259950256681530E1    -8.453757997547271E1    -4.290165260351453E1    -8.757002191147023E1    -2.081758638579965       8.225112420919846E-1
 7.879196445600000E9    -2.187580529258769       2.290601112660522E1    -4.259590981329627E1    -8.557320231925863E1    -4.266274727170497E1    -8.847950495963386E1    -2.078856028164488       6.581362098435913E-1
 7.879257099150000E9    -2.191125762009485       2.274331876487789E1    -4.218427098303386E1    -8.630103368418861E1    -4.225211268286105E1    -8.967786170289645E1    -2.082672567349815       5.693364371517931E-1
 7.879317752700000E9    -2.191544533194912       2.255659199579627E1    -4.188143482961245E1    -8.713660674246972E1    -4.205327726029903E1    -9.001496513825940E1    -2.083898685417526       3.363365812197490E-1
 7.879378406250000E9    -2.195036532339508       2.238346019470335E1    -4.149007274125603E1    -8.777658767574704E1    -4.173647124280120E1    -9.121650485928072E1    -2.092731599022978       1.792655183877727E-1
 7.879439059800000E9    -2.196686371869677       2.221156574408418E1    -4.121461947613951E1    -8.885548272206925E1    -4.143561804517166E1    -9.213569038365080E1    -2.082843722401766       1.130968439368454E-1
 7.879499713350000E9    -2.196712360274927       2.201295169600754E1    -4.095716069526361E1    -9.027067383320386E1    -4.123313859221631E1    -9.381815380926211E1    -2.087348671800747      -1.295833827068575E-1
 7.879560366900000E9    -2.199718734029002       2.186635958711992E1    -4.075479452235419E1    -9.109912315296667E1    -4.089261539367112E1    -9.450892294028290E1    -2.093007745949730      -2.302663837436396E-1
 7.879621020450000E9    -2.203785533710067       2.168484191651227E1    -4.033793423688185E1    -9.205986754689368E1    -4.047084361276831E1    -9.617584441809184E1    -2.091729357677053      -3.621882805335038E-1
 7.879681674000000E9    -2.199804525330052       2.148458349437752E1    -3.995812130650535E1    -9.398479342093570E1    -4.021959991509452E1    -9.724877192767268E1    -2.085340143244207      -5.721838934938633E-1
 7.879742327550000E9    -2.206419303648135       2.132235848134930E1    -3.973470592934522E1    -9.562628259007754E1    -3.982526651506431E1    -9.846381308769141E1    -2.099459588969666      -6.993362640485131E-1
 7.879802981100000E9    -2.208353087520591       2.114604030039696E1    -3.930000327850501E1    -9.684145710310970E1    -3.948219506024844E1    -1.004116378726884E2    -2.100214772233857      -8.455524660748651E-1
 7.879863634650000E9    -2.215997605604558       2.095981318478229E1    -3.898603533432306E1    -9.845133855444064E1    -3.919770469830050E1    -1.018901449165083E2    -2.102670506891247      -9.878376842408729E-1
 7.879924288200000E9    -2.220361771800057       2.077420516462548E1    -3.862301409055743E1    -1.001247849277353E2    -3.874930443762057E1    -1.038722868556390E2    -2.105296345173456      -1.185384904499030
 7.879984941750000E9    -2.222729670711844       2.061008496204378E1    -3.829411459698245E1    -1.018410438489261E2    -3.834217961667292E1    -1.055369587168725E2    -2.115697046722325      -1.359344976955681
 7.880045595300000E9    -2.228775788626653       2.043169728630627E1    -3.782394214708258E1    -1.041667146910597E2    -3.802645225074576E1    -1.071493672576106E2    -2.119829695487864      -1.510823929715429
 7.880106248850000E9    -2.235707628670178       2.025064784223336E1    -3.739256952916050E1    -1.062190471633170E2    -3.764177219260751E1    -1.095591133450741E2    -2.130128440493179      -1.634214799720151
 7.880166902400000E9    -2.244457086453843       2.007310527187432E1    -3.699260408483422E1    -1.088743222467481E2    -3.726335021013633E1    -1.120571704893851E2    -2.135815844999907      -1.759077896661821
 7.880227555950000E9    -2.250625888733317       1.995120266535957E1    -3.668552952311238E1    -1.111937483733727E2    -3.680970239914999E1    -1.146641348149769E2    -2.150300716217878      -1.910382800382580
 7.880288209500000E9    -2.260281856871790       1.975766526180364E1    -3.622058647406789E1    -1.142252217707298E2    -3.641396273373404E1    -1.177804582984377E2    -2.153978287686166      -1.993533391185917
 7.880348863050000E9    -2.277959882466670       1.961010020997248E1    -3.584848980701876E1    -1.172142321914964E2    -3.600583929389187E1    -1.210058976182818E2    -2.169243245920999      -2.189179624119463
