#  HZ   S   DB   R     50.00 
! Rohde & Schwarz Vector Network Analyzer 
! Rohde-Schwarz,ZNB20-2Port,1311601062101988,3.16
! Created: UTC 1/12/2023, 6:44:56 PM
! freq[Hz]                db:S11                  ang:S11                 db:S21                  ang:S21                 db:S12                  ang:S12                 db:S22                  ang:S22
 7.875029160000000E9    -2.235106016716138       3.442752214277303E1    -5.280028095015734E1    -5.955747322693398E1    -5.287971037039524E1    -6.081123145038212E1    -2.169986976504216       1.055997556559754E1
 7.875089813550000E9    -2.231958529486979       3.424993036891783E1    -5.282221530069862E1    -5.893650804746971E1    -5.269232712710212E1    -6.111781161432152E1    -2.167633485437195       1.045763194177028E1
 7.875150467100000E9    -2.232281004937883       3.409418565603660E1    -5.271006326084803E1    -5.787226523793579E1    -5.256269180384368E1    -6.089380461324058E1    -2.161848172359258       1.026396716712750E1
 7.875211120650000E9    -2.231796639629267       3.392437540152437E1    -5.247555884245457E1    -5.904440019281373E1    -5.267681355261811E1    -6.033460648974407E1    -2.159246432101123       1.015178168158964E1
 7.875271774200000E9    -2.230933287438239       3.377423001845793E1    -5.237779493907586E1    -5.718604781482134E1    -5.248991444343726E1    -6.155077578619240E1    -2.164848686677353       9.987974113818744
 7.875332427750000E9    -2.231289329292344       3.360866087254408E1    -5.238281861763539E1    -5.447995109409165E1    -5.238819464258795E1    -6.146149446099454E1    -2.158622559074329       9.843346983563286
 7.875393081300000E9    -2.224632291151401       3.343194667685508E1    -5.211173964890886E1    -5.901334667642234E1    -5.214493924985037E1    -6.228216447355737E1    -2.160466317127854       9.715820396355445
 7.875453734850000E9    -2.228681721936467       3.327445837061067E1    -5.214639715882551E1    -5.858867261557700E1    -5.244916403243633E1    -6.107417741206921E1    -2.153385973759182       9.630765547273539
 7.875514388400000E9    -2.224440506117626       3.309415051848745E1    -5.192831496456493E1    -5.960225846747669E1    -5.246834208377680E1    -6.309265868038332E1    -2.155393213679055       9.409060416689805
 7.875575041950000E9    -2.226864610311469       3.291156891737216E1    -5.181237124937397E1    -5.877470756085665E1    -5.210910564421964E1    -6.092021046163798E1    -2.155178319497229       9.250887109807012
 7.875635695500000E9    -2.222918055023087       3.275435848168973E1    -5.196701806192698E1    -5.994238528830008E1    -5.196535714338883E1    -6.254432900676818E1    -2.151690229503212       9.144031830720026
 7.875696349050000E9    -2.218134771485810       3.259525147585342E1    -5.185901736837310E1    -5.880375216836916E1    -5.185955062167736E1    -6.393769346035941E1    -2.141258232507857       9.016786279194720
 7.875757002600000E9    -2.224419302611455       3.243911514109902E1    -5.169053865467359E1    -6.110822251268581E1    -5.186275242777464E1    -6.154001414161971E1    -2.150484312571372       8.813742249978949
 7.875817656150000E9    -2.221144218467397       3.226787633156422E1    -5.183796812892098E1    -5.872420580766475E1    -5.185999634423594E1    -6.239356120753319E1    -2.140713371612160       8.698195398854191
 7.875878309700000E9    -2.220462951950265       3.210779768511982E1    -5.126643130581287E1    -5.875203915822530E1    -5.166707938600454E1    -6.476117358929264E1    -2.144035456369558       8.599142683018817
 7.875938963250000E9    -2.219928760321866       3.194733177743855E1    -5.155149447567379E1    -6.023950693031167E1    -5.139553299589384E1    -6.309746552181139E1    -2.151866496182690       8.423238093779384
 7.875999616800000E9    -2.216740426056063       3.177147898382142E1    -5.123267979734915E1    -5.927441247338700E1    -5.124324361156836E1    -6.357111093931341E1    -2.140313930050723       8.241587021952419
 7.876060270350000E9    -2.212937836673477       3.162031758331062E1    -5.150748586992793E1    -6.259775711353424E1    -5.139694326231031E1    -6.499810517645382E1    -2.139705783348708       8.101759067084735
 7.876120923900000E9    -2.212183195259894       3.144991486097793E1    -5.131748001037838E1    -6.112598076334829E1    -5.109488852181906E1    -6.401981563844956E1    -2.133726903745277       7.992413009616880
 7.876181577450000E9    -2.211883712059171       3.128442902454211E1    -5.088651647399145E1    -5.955686697013604E1    -5.111316355410040E1    -6.444455986305728E1    -2.135917796558230       7.773301714667036
 7.876242231000000E9    -2.213250496075688       3.111553048243571E1    -5.081162169364320E1    -6.270035656051952E1    -5.104682556207575E1    -6.522536838101360E1    -2.135891441117016       7.733810436256537
 7.876302884550000E9    -2.206561931669239       3.093748080866180E1    -5.085232464211515E1    -6.176385706914234E1    -5.092786221210700E1    -6.546415967760086E1    -2.129850627002164       7.567961812514100
 7.876363538100000E9    -2.210188579249786       3.078781317705530E1    -5.064087852283541E1    -6.114103722051622E1    -5.100898726010271E1    -6.573224600306277E1    -2.124023008190187       7.394877501191872
 7.876424191650000E9    -2.211971293112298       3.060917553555450E1    -5.052926683289068E1    -6.336235498888541E1    -5.062106972827826E1    -6.750070290704045E1    -2.124648726367724       7.250943141109356
 7.876484845200000E9    -2.207188473036871       3.046127447210401E1    -5.051482466386226E1    -6.362105155022948E1    -5.055539309362879E1    -6.546607638181993E1    -2.127662769276823       7.133623902923336
 7.876545498750000E9    -2.205038074929795       3.027739238770058E1    -5.032448223526232E1    -6.232437283852504E1    -5.033053854637490E1    -6.732571985134791E1    -2.120197014539654       7.014670617071579
 7.876606152300000E9    -2.203926811526707       3.012192921706631E1    -5.009894855167229E1    -6.349790359458063E1    -5.044251073867733E1    -6.719951162903345E1    -2.121699559068086       6.865835475473130
 7.876666805850000E9    -2.206177932527901       2.995539190784035E1    -5.048300624419191E1    -6.183939314787911E1    -5.016379829333611E1    -6.692116513432470E1    -2.120290939375704       6.733525435541788
 7.876727459400000E9    -2.203024636619592       2.977923403476745E1    -5.019916247453904E1    -6.409286000114081E1    -5.015613915378229E1    -6.774786837741404E1    -2.116158666396013       6.600049616040425
 7.876788112950000E9    -2.203289101249252       2.962678194778936E1    -5.009644403971289E1    -6.402666297496791E1    -5.015072332937741E1    -6.694133652963463E1    -2.107938562270887       6.430196217498125
 7.876848766500000E9    -2.205384722251093       2.943310408645518E1    -5.007651228093529E1    -6.258952839257916E1    -4.986499775314506E1    -6.776064518320230E1    -2.116096205114087       6.277479119760484
 7.876909420050000E9    -2.199857610950179       2.931776155467458E1    -4.975633373049499E1    -6.623255836022292E1    -5.000931077011654E1    -6.858481754949788E1    -2.110045723619550       6.165350530059197
 7.876970073600000E9    -2.200167330824431       2.912198937247234E1    -4.953192937732611E1    -6.594509086723586E1    -4.973177736683294E1    -6.860015677658690E1    -2.109372242501077       5.977225382569152
 7.877030727150000E9    -2.198489766906016       2.895060603650296E1    -4.948338651268678E1    -6.561831366973364E1    -4.954589480375697E1    -6.926381806915634E1    -2.108989450417859       5.871463418623867
 7.877091380700000E9    -2.198125860842620       2.880785544581072E1    -4.932483990742420E1    -6.625047077815982E1    -4.932908020803674E1    -6.957687885913637E1    -2.108980225038168       5.702923357309600
 7.877152034250000E9    -2.197179183742137       2.864120264507769E1    -4.927870155461127E1    -6.697813011075928E1    -4.925631300482858E1    -6.967166716940379E1    -2.109656453624327       5.590866765110546
 7.877212687800000E9    -2.200413391168013       2.846463304563665E1    -4.918237144541787E1    -6.715639574456966E1    -4.919017792815244E1    -6.922238974016955E1    -2.110235512340238       5.448251868194384
 7.877273341350000E9    -2.195050226555883       2.830802335048127E1    -4.882158473858911E1    -6.583021492901086E1    -4.905991842207318E1    -7.110097609579746E1    -2.101308069315017       5.270201890359175
 7.877333994900000E9    -2.197685430182724       2.813492681054795E1    -4.882191384408335E1    -6.584947509406958E1    -4.892229712752817E1    -7.088246714629814E1    -2.099100786861634       5.107440234309696
 7.877394648450000E9    -2.194215816239768       2.799384001231195E1    -4.850022575648821E1    -6.701071274609751E1    -4.871868647739753E1    -7.119906090977722E1    -2.099461132091851       5.000013401882507
 7.877455302000000E9    -2.195240691980699       2.780890783276233E1    -4.846672030952914E1    -6.877418222302637E1    -4.860630711622885E1    -7.140171046125411E1    -2.096556505488687       4.884756023543793
 7.877515955550000E9    -2.190478901328652       2.763469075863526E1    -4.830863140848635E1    -6.741542125802629E1    -4.852138447321170E1    -7.228583351336238E1    -2.092767263351202       4.720823622887757
 7.877576609100000E9    -2.191168493540731       2.747316512221427E1    -4.846728255580173E1    -6.899288094853947E1    -4.828875288020789E1    -7.159756444903788E1    -2.099288405907011       4.594926003859614
 7.877637262650000E9    -2.190149410341989       2.729816695283981E1    -4.821936299634559E1    -6.833882762166679E1    -4.830466904740918E1    -7.296116545561134E1    -2.096007070420029       4.433691172460871
 7.877697916200000E9    -2.192104976199627       2.716021696215503E1    -4.795649911276154E1    -6.880189241311705E1    -4.822239481442593E1    -7.339549803299681E1    -2.094529257196801       4.367748731567664
 7.877758569750000E9    -2.189583278540404       2.698084609800503E1    -4.796237024141406E1    -7.058957628006711E1    -4.792373380961177E1    -7.292208874440223E1    -2.090776372235231       4.200669091765724
 7.877819223300000E9    -2.191243860813288       2.682351486562481E1    -4.752042829333469E1    -6.981950907634314E1    -4.777281990306021E1    -7.326675949591051E1    -2.090471960499048       3.990801407145339
 7.877879876850000E9    -2.186061479363239       2.663980167057331E1    -4.765033898932156E1    -7.052515336899661E1    -4.781802553789363E1    -7.315229762799898E1    -2.091057549695003       3.891416678700129
 7.877940530400000E9    -2.186239337071133       2.646217628201445E1    -4.760853667000099E1    -7.116781856489446E1    -4.744942452731494E1    -7.373838634464386E1    -2.082542676114398       3.739416886752256
 7.878001183950000E9    -2.188270008199417       2.630692499542241E1    -4.720479823426719E1    -7.189631368542847E1    -4.743265872865830E1    -7.413536121673376E1    -2.086974340341122       3.572163291470960
 7.878061837500000E9    -2.186543476536715       2.613929021719640E1    -4.706690562995988E1    -7.194600681245809E1    -4.725847165065980E1    -7.452788502750373E1    -2.078038712691847       3.473489359822146
 7.878122491050000E9    -2.182759803049746       2.599356761654098E1    -4.692993644601553E1    -7.323273588024094E1    -4.700294006048991E1    -7.584456776175908E1    -2.078946437488293       3.321001861210223
 7.878183144600000E9    -2.187117315722703       2.581855575656783E1    -4.681444553362429E1    -7.211630823471413E1    -4.686994545695988E1    -7.465077211141623E1    -2.083803324844889       3.187189025077910
 7.878243798150000E9    -2.186487083791319       2.562614843585257E1    -4.660043242236557E1    -7.334807360322699E1    -4.674345579606847E1    -7.669499440415599E1    -2.075203726702934       3.045145057024592
 7.878304451700000E9    -2.187245798902248       2.545529570145113E1    -4.641658156767846E1    -7.303355222347726E1    -4.655504105196851E1    -7.662072843727508E1    -2.089555820245021       2.859200935572410
 7.878365105250000E9    -2.181153831544626       2.528483524417791E1    -4.620009713306136E1    -7.309748695026560E1    -4.625359452590504E1    -7.743664854261966E1    -2.077551467876831       2.736371426294228
 7.878425758800000E9    -2.181670918799986       2.513022083868882E1    -4.579456746142811E1    -7.422281598902734E1    -4.610834787537896E1    -7.788151539932306E1    -2.081157253707116       2.640178884757033
 7.878486412350000E9    -2.181644373183628       2.495027069075377E1    -4.585412710087045E1    -7.513224285879237E1    -4.582221156170033E1    -7.802540402222941E1    -2.072360268330160       2.458528916639246
 7.878547065900000E9    -2.183286103722661       2.479589554941261E1    -4.567901882739336E1    -7.506638858064255E1    -4.566109281141071E1    -7.925465855333135E1    -2.073075175737435       2.316101801473795
 7.878607719450000E9    -2.179592860248480       2.461240993630106E1    -4.536480356775873E1    -7.568207077025419E1    -4.567512355673714E1    -7.887440061353666E1    -2.078363968014470       2.188989967765069
 7.878668373000000E9    -2.183088060245919       2.447022657586126E1    -4.515664367389142E1    -7.600173638280947E1    -4.549470673579161E1    -7.975905856041675E1    -2.075049821709381       2.018614364179986
 7.878729026550000E9    -2.182165829669524       2.430077585104678E1    -4.497187545012497E1    -7.585175674283373E1    -4.515052843602871E1    -7.989024494092369E1    -2.073973873178129       1.912461571412474
 7.878789680100000E9    -2.176164630838588       2.413992201371101E1    -4.471555944182661E1    -7.659892006960258E1    -4.518388722499049E1    -8.044955126318560E1    -2.073708602653202       1.696590502999466
 7.878850333650000E9    -2.182989314721473       2.393593508746195E1    -4.465471417885435E1    -7.714941879509455E1    -4.475485524324068E1    -8.142291587303831E1    -2.075998589982459       1.635370402381009
 7.878910987200000E9    -2.180697438760938       2.380215919660168E1    -4.428924385520506E1    -7.812812141645121E1    -4.446615028604402E1    -8.188556076991996E1    -2.066518208132466       1.420509661176871
 7.878971640750000E9    -2.181200392424320       2.361073871689907E1    -4.412933853708157E1    -7.952987890866171E1    -4.441708289251588E1    -8.192443195496168E1    -2.071511582776056       1.292572256323947
 7.879032294300000E9    -2.179386126123703       2.342828554795813E1    -4.387918426304697E1    -7.922052425203260E1    -4.411859868626361E1    -8.313402803790379E1    -2.074392246723696       1.151290166420452
 7.879092947850000E9    -2.182600353143164       2.327300645192480E1    -4.357482957297880E1    -8.034582120612879E1    -4.381460056655426E1    -8.280551778678422E1    -2.074471950288274       1.018936492353629
 7.879153601400000E9    -2.182248702595485       2.311701012240132E1    -4.346019123544040E1    -8.088970917817954E1    -4.362849417712087E1    -8.413596438569252E1    -2.075651498945138       8.722668937624574E-1
 7.879214254950000E9    -2.181994600238811       2.292267774949282E1    -4.330488003103323E1    -8.130584583263931E1    -4.333023978743925E1    -8.460144148082709E1    -2.077435160099073       7.479676248036794E-1
 7.879274908500000E9    -2.180270347999858       2.275957388066086E1    -4.292819689757749E1    -8.160272539103498E1    -4.307049582302063E1    -8.558693396511869E1    -2.070140426507306       5.935300638591506E-1
 7.879335562050000E9    -2.181588773291000       2.258848589809926E1    -4.270094685340639E1    -8.263366628227658E1    -4.293604115948746E1    -8.659177083452477E1    -2.067561675300916       3.697570444074051E-1
 7.879396215600000E9    -2.181597173216832       2.239662459182330E1    -4.246483156155956E1    -8.297402366590485E1    -4.258816741955130E1    -8.713791623676140E1    -2.076662122715573       2.500184373047240E-1
 7.879456869150000E9    -2.182958701252224       2.224546908584048E1    -4.215630248883721E1    -8.474332603493599E1    -4.235434313918492E1    -8.742842781979520E1    -2.066821261656310       8.657438316642578E-2
 7.879517522700000E9    -2.186165543551533       2.206134393017584E1    -4.184355729731067E1    -8.486910767492381E1    -4.201655116181352E1    -8.866821662457362E1    -2.076921655434185       1.154218941840073E-2
 7.879578176250000E9    -2.186173384075909       2.186589463505514E1    -4.152103108050284E1    -8.629596243231587E1    -4.173384530984155E1    -8.972522017883577E1    -2.076585922253116      -1.943398356232396E-1
 7.879638829800000E9    -2.187232443347352       2.168968102825092E1    -4.135752542735873E1    -8.707611133701761E1    -4.140184697480895E1    -9.011288592578180E1    -2.073046639441606      -3.675565149425306E-1
 7.879699483350000E9    -2.189783218363859       2.154025725139664E1    -4.097242815505663E1    -8.778207831524089E1    -4.114743809206021E1    -9.112218864029180E1    -2.077724169919521      -4.737449643960679E-1
 7.879760136900000E9    -2.190310129305405       2.135439059048959E1    -4.056006010351796E1    -8.907878533126531E1    -4.082189727666591E1    -9.292396256521931E1    -2.081688160164090      -6.640348167774632E-1
 7.879820790450000E9    -2.193614919009521       2.118125916545115E1    -4.031018774965125E1    -9.043468919868815E1    -4.049246101759474E1    -9.431956456142191E1    -2.076325240593031      -8.249756736472087E-1
 7.879881444000000E9    -2.199964141321800       2.097195344213193E1    -3.996864559650324E1    -9.147562928550042E1    -4.020263898055265E1    -9.473673343126221E1    -2.081216627591370      -9.709242083709343E-1
 7.879942097550000E9    -2.200727504968630       2.082619922213101E1    -3.960206843907478E1    -9.278456331303033E1    -3.974896360625294E1    -9.640572718821720E1    -2.077998540677104      -1.103768929640994
 7.880002751100000E9    -2.202207507302330       2.063430313239530E1    -3.920668217262040E1    -9.388322722366038E1    -3.942879559391953E1    -9.752918141815063E1    -2.083709424425316      -1.275162401854705
 7.880063404650000E9    -2.207539662939632       2.041889425772036E1    -3.882854206307168E1    -9.549723927858720E1    -3.902828570377368E1    -9.898613817519292E1    -2.085972081912613      -1.445902553065495
 7.880124058200000E9    -2.210444243392355       2.024981327008356E1    -3.853529469278929E1    -9.731627222419002E1    -3.867665488923178E1    -1.008641785340448E2    -2.097341407747437      -1.588156902772337
 7.880184711750000E9    -2.217561810189261       2.009817161240991E1    -3.805396954902665E1    -9.863153274892109E1    -3.830283427784320E1    -1.022554897242027E2    -2.098296454978302      -1.742992781054495
 7.880245365300000E9    -2.221194125410960       1.990725273869318E1    -3.764851510809725E1    -1.005710670176477E2    -3.785867142514459E1    -1.042369913746731E2    -2.104441076817328      -1.919802362390299
 7.880306018850000E9    -2.229532412934302       1.973793002277882E1    -3.724843904249800E1    -1.030062471370500E2    -3.746040074235144E1    -1.064290314623059E2    -2.108396820895284      -2.060446623023519
 7.880366672400000E9    -2.236951486050981       1.954981079943518E1    -3.682196511841072E1    -1.053693717723834E2    -3.701735137888243E1    -1.086322605333381E2    -2.124765678445802      -2.222320442548455
 7.880427325950000E9    -2.245703140902728       1.937142447499351E1    -3.635887212412406E1    -1.081463817633990E2    -3.660996684451745E1    -1.113662014897931E2    -2.121410377536570      -2.334652906280038
 7.880487979500000E9    -2.254648868096471       1.921599125525375E1    -3.592792736774978E1    -1.105352272690421E2    -3.614275939832719E1    -1.140708650536747E2    -2.136145417140715      -2.560050068333033
 7.880548633050000E9    -2.270659217147137       1.903925898432013E1    -3.556211620670239E1    -1.136092936702029E2    -3.570673366709047E1    -1.169560754703097E2    -2.150999763897353      -2.680306605032210
