#  HZ   S   DB   R     50.00 
! Rohde & Schwarz Vector Network Analyzer 
! Rohde-Schwarz,ZNB20-2Port,1311601062101988,3.16
! Created: UTC 1/12/2023, 6:32:33 PM
! freq[Hz]                db:S11                  ang:S11                 db:S21                  ang:S21                 db:S12                  ang:S12                 db:S22                  ang:S22
 7.874971275000000E9    -2.225748619943520       3.463278711316104E1    -5.249825066253726E1    -5.780839906628814E1    -5.264445152846766E1    -6.179007228909704E1    -2.140612812272416       1.062383903671433E1
 7.875031928550000E9    -2.222969135455859       3.446087771430950E1    -5.234189257103213E1    -5.875020527779762E1    -5.249791403303809E1    -5.960079767597562E1    -2.133700635543876       1.044282944057201E1
 7.875092582100000E9    -2.224192506492979       3.429104264336353E1    -5.256558906314452E1    -6.018548291133139E1    -5.224028547270487E1    -6.197483014908429E1    -2.135748008420708       1.031697918431172E1
 7.875153235650000E9    -2.221909596158723       3.411483629736981E1    -5.246508161042821E1    -5.942797193195724E1    -5.244612761563960E1    -6.259908781821455E1    -2.129202097035384       1.017281710954630E1
 7.875213889200000E9    -2.219841476131489       3.396176107291792E1    -5.217223383081674E1    -5.777607871739144E1    -5.249448204061304E1    -6.241555951323613E1    -2.130733026722437       1.001979580944164E1
 7.875274542750000E9    -2.217987379794861       3.380661792277477E1    -5.238478054692645E1    -6.059112463772096E1    -5.210793613818382E1    -6.493042834869529E1    -2.123525413971497       9.859670092808971
 7.875335196300000E9    -2.220847985096071       3.362748667500652E1    -5.208370840798253E1    -6.164052918650293E1    -5.215384951626274E1    -6.380454057231200E1    -2.129543179278031       9.760302370137499
 7.875395849850000E9    -2.217239727794732       3.345850798134606E1    -5.203639532933512E1    -6.095206981428930E1    -5.204669546959592E1    -6.319573567356143E1    -2.123377911713042       9.595541725960436
 7.875456503400000E9    -2.215293923204755       3.329509908278384E1    -5.193986046648561E1    -6.057521985941412E1    -5.184785289472828E1    -6.407131455221202E1    -2.126502984812276       9.450736766061713
 7.875517156950000E9    -2.213638077646619       3.313202249935717E1    -5.198758482685510E1    -5.889247666089810E1    -5.205099607663715E1    -6.453741244718282E1    -2.122278485316158       9.301815239694919
 7.875577810500000E9    -2.216497321938659       3.296471044863812E1    -5.169721722618064E1    -6.153637336241647E1    -5.190060688849125E1    -6.427787067249959E1    -2.114739440980653       9.171182989254484
 7.875638464050000E9    -2.212110404256134       3.282128091783638E1    -5.186013671979974E1    -5.979423680373635E1    -5.156694610463842E1    -6.343631417779251E1    -2.114663003955948       9.045405040121610
 7.875699117600000E9    -2.211517841325319       3.263154966547562E1    -5.164403831289872E1    -5.988284880152219E1    -5.140272298711943E1    -6.481924012244878E1    -2.118735956648938       8.898217030244764
 7.875759771150000E9    -2.209095922567247       3.246466412955473E1    -5.131803312570423E1    -6.086930856434657E1    -5.140238206145651E1    -6.575589241239938E1    -2.111028891216938       8.699291518012451
 7.875820424700000E9    -2.208297204585033       3.233260680924160E1    -5.167531428396459E1    -6.237065651642063E1    -5.128337835415546E1    -6.568675938627668E1    -2.109886347552639       8.610030939368860
 7.875881078250000E9    -2.208385650481183       3.214284198247881E1    -5.152756241036302E1    -6.245752072150538E1    -5.143108055287074E1    -6.558275025421682E1    -2.109719387398236       8.466109741510612
 7.875941731800000E9    -2.210253751382654       3.196836356390278E1    -5.116073207031124E1    -6.126017310952192E1    -5.116375844102719E1    -6.566661951437766E1    -2.113330087711643       8.302261936506527
 7.876002385350000E9    -2.210831125244249       3.180672316656567E1    -5.120872300106102E1    -6.130762767377768E1    -5.135447856990241E1    -6.704613002663075E1    -2.109377012143945       8.159002661315206
 7.876063038900000E9    -2.206567367752440       3.165653265612774E1    -5.084229122156940E1    -6.188879371043598E1    -5.100134340951725E1    -6.585519905735902E1    -2.106240958579806       8.029378375314950
 7.876123692450000E9    -2.205277457585876       3.144860094143562E1    -5.093292408812975E1    -6.031561814876047E1    -5.089293701638211E1    -6.562645062994932E1    -2.103164365405360       7.857116162540629
 7.876184346000000E9    -2.204859941387642       3.130416318788629E1    -5.052581175612906E1    -6.367716399727722E1    -5.075412493165209E1    -6.620415114231963E1    -2.107592225593807       7.715245458821314
 7.876244999550000E9    -2.204299234209515       3.112342014632028E1    -5.079646168436576E1    -6.275824332256632E1    -5.084357478203781E1    -6.554569548044763E1    -2.098137761816044       7.645356249984515
 7.876305653100000E9    -2.203931710302812       3.096895580941601E1    -5.038072441639945E1    -6.423458279332598E1    -5.062618509384228E1    -6.639410407260219E1    -2.099730774585635       7.442700336970929
 7.876366306650000E9    -2.203879083116905       3.079913300957920E1    -5.011367167815179E1    -6.440145660806074E1    -5.033193923385053E1    -6.611218759819126E1    -2.097802555842891       7.338191373207713
 7.876426960200000E9    -2.200930957266008       3.066499414996562E1    -5.033960145571247E1    -6.428599797712700E1    -5.043234169041894E1    -6.765932161502126E1    -2.099306708472545       7.164131512637009
 7.876487613750000E9    -2.196093097012251       3.047491938123666E1    -5.022980636497756E1    -6.415330108039690E1    -5.030568540599826E1    -6.727953555061714E1    -2.095400060916261       7.025347528282664
 7.876548267300000E9    -2.199183006448330       3.032916370883803E1    -4.995334739019734E1    -6.486532462219414E1    -5.010828038551708E1    -6.899653887268923E1    -2.095891808852363       6.938839258667697
 7.876608920850000E9    -2.195445189917540       3.017211065607567E1    -5.006446436220362E1    -6.418349723527872E1    -5.011535470672051E1    -6.885253893852156E1    -2.082924604819180       6.752737391575078
 7.876669574400000E9    -2.198251653076436       2.998905852162985E1    -5.008838936781476E1    -6.490119929345565E1    -4.988817555873921E1    -6.954119567919327E1    -2.091788493225708       6.648110612228175
 7.876730227950000E9    -2.193740558569238       2.981794010237452E1    -4.982255208029479E1    -6.644732447585488E1    -4.984780764674809E1    -6.928747566061899E1    -2.092043159221427       6.482683567793766
 7.876790881500000E9    -2.191824803261986       2.966187208761682E1    -4.973901922833860E1    -6.657374633839359E1    -4.967373290716100E1    -6.913298363599976E1    -2.089189599522730       6.350956221989630
 7.876851535050000E9    -2.196287308005727       2.946737770245508E1    -4.971165893566985E1    -6.701609941885100E1    -4.962326890470152E1    -7.013830229726514E1    -2.093201767343352       6.173232241086478
 7.876912188600000E9    -2.192061690764860       2.933282388868986E1    -4.950958052195753E1    -6.606653302819259E1    -4.951675057880990E1    -6.927809717955601E1    -2.082654569045539       6.037090683146363
 7.876972842150000E9    -2.188321509800049       2.915149723876663E1    -4.923745864758766E1    -6.536130882916851E1    -4.951075942452785E1    -6.974342572500466E1    -2.082533513898338       5.872303810179607
 7.877033495700000E9    -2.186066602888046       2.897468437220560E1    -4.925669810805223E1    -6.634862698289689E1    -4.927955037398724E1    -7.021131993931598E1    -2.079337886887151       5.733242142426439
 7.877094149250000E9    -2.189482043521739       2.881143885337834E1    -4.907451770622528E1    -6.735317371334874E1    -4.906743902590384E1    -6.950499278109950E1    -2.076959006616910       5.607703061118842
 7.877154802800000E9    -2.188305994657755       2.865767756946300E1    -4.900377551701027E1    -6.772025550957116E1    -4.912942515798430E1    -7.091460278598004E1    -2.079382221495694       5.464714058519198
 7.877215456350000E9    -2.189570341059397       2.851577296110690E1    -4.888474160035403E1    -6.804749926865945E1    -4.890629497914265E1    -7.077504876235932E1    -2.073065896876797       5.330758326867302
 7.877276109900000E9    -2.188422394449646       2.833970823568715E1    -4.853504194358833E1    -6.874125877360035E1    -4.888041824280272E1    -7.180932503211156E1    -2.074152143025243       5.203277494000487
 7.877336763450000E9    -2.187708210773335       2.816258170093539E1    -4.859792596133267E1    -6.777805981327596E1    -4.865232287234128E1    -7.187469331141028E1    -2.071835428192256       5.104176404701445
 7.877397417000000E9    -2.185850257741558       2.799239657852030E1    -4.841704393228799E1    -6.786640602173520E1    -4.863702709816686E1    -7.199373896195489E1    -2.075025643487463       4.875985697297103
 7.877458070550000E9    -2.186565978363477       2.783010860254026E1    -4.818373051647733E1    -6.949076503401641E1    -4.827248313976526E1    -7.179957514488568E1    -2.071200424343521       4.778949707127497
 7.877518724100000E9    -2.188245996286521       2.766561336692272E1    -4.823243576152871E1    -7.069673986633561E1    -4.826412223842855E1    -7.375575206931741E1    -2.069966270998677       4.571450625311527
 7.877579377650000E9    -2.183025010978610       2.748800329446582E1    -4.790901622925732E1    -7.022609905201911E1    -4.808229235380434E1    -7.208695075589883E1    -2.065952395112986       4.484988054013275
 7.877640031200000E9    -2.182316598879196       2.735102038183467E1    -4.793783076577230E1    -6.991828972510686E1    -4.795215206335087E1    -7.378124890357036E1    -2.062453868284118       4.334536934841504
 7.877700684750000E9    -2.180281480202365       2.717760206319777E1    -4.767022903294023E1    -6.986352401591489E1    -4.784325204277297E1    -7.424711373826769E1    -2.065476382166884       4.183762886417260
 7.877761338300000E9    -2.184474582647701       2.697616598453086E1    -4.750644078117280E1    -7.111848076369277E1    -4.754809352522818E1    -7.455034714964830E1    -2.060393682013675       4.051655272847601
 7.877821991850000E9    -2.180335468767023       2.683616690045157E1    -4.738275008675392E1    -7.120133042154028E1    -4.754685977935586E1    -7.403583779801340E1    -2.061967780153568       3.901813176252944
 7.877882645400000E9    -2.181464416516361       2.665933448612624E1    -4.729773327794507E1    -7.186278452141651E1    -4.733163816278225E1    -7.467688728637211E1    -2.061743585999066       3.785221266916767
 7.877943298950000E9    -2.177787105746656       2.649536208882506E1    -4.712445454612394E1    -7.182960054809016E1    -4.710700256119308E1    -7.541592189775932E1    -2.063722971327233       3.665146261777899
 7.878003952500000E9    -2.178564741086841       2.634680342015410E1    -4.688649133888426E1    -7.304093263511236E1    -4.702384941547781E1    -7.588555782764446E1    -2.056436576042903       3.454117176887829
 7.878064606050000E9    -2.178884372907930       2.615357464026296E1    -4.666794124609119E1    -7.167952833157617E1    -4.683288612606571E1    -7.556190742014753E1    -2.047534291414863       3.373675806400828
 7.878125259600000E9    -2.179682148981488       2.601352859578097E1    -4.668250658870043E1    -7.378570498172871E1    -4.667273777425948E1    -7.575912070090634E1    -2.051264110936789       3.230757735772405
 7.878185913150000E9    -2.175977929624947       2.581906520989994E1    -4.638956729409191E1    -7.364314781751312E1    -4.656984399100287E1    -7.765326700574921E1    -2.056426712888598       3.092629635979465
 7.878246566700000E9    -2.175864208924608       2.566274297199945E1    -4.604847320666784E1    -7.447267426472146E1    -4.628970300685032E1    -7.753257612669388E1    -2.054306387504233       2.895764723517278
 7.878307220250000E9    -2.174001462351932       2.550051028355218E1    -4.601380666840795E1    -7.424071329794805E1    -4.610912700197623E1    -7.811671440345573E1    -2.050973117089016       2.749957921485803
 7.878367873800000E9    -2.176930143891419       2.531648734482421E1    -4.596248174366113E1    -7.617040298150353E1    -4.591187704313147E1    -7.813748594717134E1    -2.055042026517444       2.624423925505555
 7.878428527350000E9    -2.179880355501192       2.517468178643277E1    -4.575411934110758E1    -7.577224204757609E1    -4.596994980896257E1    -7.910697585070645E1    -2.045708646977259       2.505136330824039
 7.878489180900000E9    -2.176756244565933       2.501074720710777E1    -4.545921239736317E1    -7.607334966145076E1    -4.551589189830349E1    -7.978350737808046E1    -2.053323590036821       2.376146600407243
 7.878549834450000E9    -2.174956784246918       2.481556504428672E1    -4.526294919218948E1    -7.592123375822730E1    -4.538574313474896E1    -8.041159128691451E1    -2.049913013118443       2.213799763210411
 7.878610488000000E9    -2.177244708950429       2.462217445747520E1    -4.501884337928495E1    -7.770493337863086E1    -4.513778337506182E1    -7.966681259753767E1    -2.045573993674171       2.050226457121943
 7.878671141550000E9    -2.174118432429503       2.448595504804674E1    -4.482896570612933E1    -7.798899176982907E1    -4.500313664664047E1    -8.045177712408250E1    -2.045118832051201       1.937250127984636
 7.878731795100000E9    -2.173939171285861       2.431100492181712E1    -4.462847417649698E1    -7.768983366772760E1    -4.481799867034385E1    -8.133507054145254E1    -2.052215301420802       1.785636670203437
 7.878792448650000E9    -2.172361391181839       2.412307125218054E1    -4.440784394595758E1    -7.847075169261521E1    -4.464927193490163E1    -8.187492374507767E1    -2.044713181104752       1.653637986371691
 7.878853102200000E9    -2.176949464257451       2.397541980201839E1    -4.414565524680577E1    -7.914345967126597E1    -4.425291325572415E1    -8.234668400286952E1    -2.048785351507374       1.515453297710192
 7.878913755750000E9    -2.172202155335542       2.379680681460825E1    -4.396348411524630E1    -7.935481615767372E1    -4.407703006889846E1    -8.332549078315149E1    -2.050233558526414       1.342245778873583
 7.878974409300000E9    -2.175785083097214       2.362791014192747E1    -4.378883350332553E1    -7.918911193013744E1    -4.399695363574495E1    -8.282681059355312E1    -2.045106389400484       1.176865217091947
 7.879035062850000E9    -2.173897112653383       2.347693348965229E1    -4.351674580984906E1    -8.095863633875651E1    -4.367180639028697E1    -8.423933859457864E1    -2.045096502482489       1.060475982093501
 7.879095716400000E9    -2.175452783055922       2.328760707919045E1    -4.336209356472992E1    -8.078271337445689E1    -4.343915874821370E1    -8.431796537740370E1    -2.050251519667111       8.850181233200966E-1
 7.879156369950000E9    -2.174595656305953       2.312862031580404E1    -4.306915103645518E1    -8.179474603532258E1    -4.316130749560373E1    -8.558289617693697E1    -2.042417268491693       7.780727003937090E-1
 7.879217023500000E9    -2.171706196345112       2.291360181537000E1    -4.268266062058562E1    -8.216024497374022E1    -4.292848919802636E1    -8.627321903226195E1    -2.047706993142999       5.842316210702273E-1
 7.879277677050000E9    -2.177715197663755       2.275282460754926E1    -4.251823962442002E1    -8.400527113839463E1    -4.272094049707155E1    -8.657180612141853E1    -2.044693315539021       4.658316103647092E-1
 7.879338330600000E9    -2.175467399345490       2.258343008066303E1    -4.224585088512435E1    -8.391140532056548E1    -4.244623174945946E1    -8.770866607950008E1    -2.045428454651400       2.689135894629128E-1
 7.879398984150000E9    -2.177283017515042       2.241546144565183E1    -4.192386833449375E1    -8.476149492829265E1    -4.217972755966095E1    -8.799171327022815E1    -2.050354679877252       1.616559630398500E-1
 7.879459637700000E9    -2.179111203333515       2.222602361142732E1    -4.166624407834742E1    -8.565665850060883E1    -4.180700467776528E1    -8.918417333221565E1    -2.043688679339048       1.507743708800024E-2
 7.879520291250000E9    -2.176637310931775       2.206585809130094E1    -4.142753341174031E1    -8.745567792502275E1    -4.161206271115417E1    -9.010274303416482E1    -2.050171693841921      -1.462897695312671E-1
 7.879580944800000E9    -2.184039556875601       2.188550744403622E1    -4.109026901214365E1    -8.701987934794303E1    -4.121181412646398E1    -9.130710500637574E1    -2.052491639676129      -2.827251459708124E-1
 7.879641598350000E9    -2.179995904942587       2.169819541434975E1    -4.080376681503091E1    -8.889535594811097E1    -4.088871813063164E1    -9.238767041311586E1    -2.051754911914312      -4.324595981164826E-1
 7.879702251900000E9    -2.184149339473240       2.151284184551954E1    -4.044979368503466E1    -9.010093909008320E1    -4.067470119425864E1    -9.391150383154157E1    -2.049413306899267      -6.100775975645015E-1
 7.879762905450000E9    -2.188300029278477       2.134731568997617E1    -4.014016216342874E1    -9.136978674654887E1    -4.029213457226344E1    -9.446179349768228E1    -2.050603339235797      -7.601054540999095E-1
 7.879823559000000E9    -2.191474109971852       2.117529525311110E1    -3.979103987824056E1    -9.203183714981876E1    -3.998259588859974E1    -9.595923658709779E1    -2.056434589964000      -9.380077358172175E-1
 7.879884212550000E9    -2.191057343907655       2.098783226776739E1    -3.947038039426914E1    -9.378407350768759E1    -3.963474200846964E1    -9.669865341021030E1    -2.056420402808977      -1.061836755930636
 7.879944866100000E9    -2.194253410413727       2.080837937332007E1    -3.905442786458455E1    -9.526675658061187E1    -3.919993974968010E1    -9.844415316114028E1    -2.058583006346055      -1.240680694239430
 7.880005519650000E9    -2.201198398173638       2.061809005655063E1    -3.868588531462458E1    -9.643205689965394E1    -3.883692331412612E1    -9.981930727711472E1    -2.068898648675222      -1.372134401741190
 7.880066173200000E9    -2.206604688254436       2.044192988888337E1    -3.827869521267034E1    -9.831740690184927E1    -3.847778838009093E1    -1.017255778268103E2    -2.065968908454586      -1.521759127925862
 7.880126826750000E9    -2.209683280782848       2.027432741686565E1    -3.791103307959123E1    -1.000403331133440E2    -3.810608900939177E1    -1.036819978343928E2    -2.074378964828894      -1.718485188732036
 7.880187480300000E9    -2.219421407887175       2.009251179360190E1    -3.752078165134370E1    -1.024085104175284E2    -3.766917470129473E1    -1.057106867969841E2    -2.084149435273461      -1.877125890120693
 7.880248133850000E9    -2.224115530778962       1.991154552786150E1    -3.707524327085509E1    -1.044815651108021E2    -3.730369227821667E1    -1.079629931935521E2    -2.093433807323105      -2.047430542298526
 7.880308787400000E9    -2.231839274657944       1.973772365879905E1    -3.658146334146829E1    -1.065893399325510E2    -3.677968459986080E1    -1.103443308656982E2    -2.096634258297720      -2.160532121309453
 7.880369440950000E9    -2.241729288970463       1.955479498148325E1    -3.622843158124531E1    -1.093468181020948E2    -3.639952282556997E1    -1.128231029178763E2    -2.105647601121224      -2.307479532193180
 7.880430094500000E9    -2.250025932227913       1.939085559841153E1    -3.576339578550687E1    -1.121691843989075E2    -3.593765228561995E1    -1.158855709861561E2    -2.117794530058949      -2.452892498262834
 7.880490748050000E9    -2.268608761152784       1.924984017141555E1    -3.532601755318609E1    -1.155077693176606E2    -3.547603859330436E1    -1.185661179675696E2    -2.136575533620853      -2.586032643845924
