#  HZ   S   RI   R     50.00 
! Rohde & Schwarz Vector Network Analyzer 
! Rohde-Schwarz,ZNB20-2Port,1311601062101988,3.16
! Created: UTC 3/21/2024, 12:55:03 AM
! freq[Hz]                re:S11                  im:S11                  re:S21                  im:S21                  re:S12                  im:S12                  re:S22                  im:S22
 8.150795778000000E9     8.870103044381510E-2    5.350526795253245E-1   -2.628761375796007E-3    8.567286271766103E-4   -2.620420984110422E-3    9.252504734492931E-4    2.377818501629279E-1    4.562686966755221E-1
 8.150800551400000E9     8.908014282272703E-2    5.350471631045943E-1   -2.634245491437599E-3    8.557712123304450E-4   -2.672255606200736E-3    9.082641533530773E-4    2.381033041918234E-1    4.562112252268514E-1
 8.150805324800000E9     8.936019490080246E-2    5.349394221214688E-1   -2.642556063272904E-3    8.751027150685846E-4   -2.663698241416428E-3    9.206356051315523E-4    2.383724790859075E-1    4.560380568521254E-1
 8.150810098200000E9     8.975648747245213E-2    5.347774279093899E-1   -2.632326322511843E-3    8.698256812662856E-4   -2.640863147134380E-3    8.981498983436899E-4    2.386116217571224E-1    4.559289781694124E-1
 8.150814871600000E9     9.010175205470626E-2    5.347821773377092E-1   -2.638030031980603E-3    8.622748334403198E-4   -2.651834250667361E-3    9.116203004537380E-4    2.388777345605205E-1    4.558338633832461E-1
 8.150819645000000E9     9.047984593783627E-2    5.347576793982582E-1   -2.665497285113327E-3    8.865737709754319E-4   -2.658673452021474E-3    9.237374910056163E-4    2.391374485095180E-1    4.556526535378800E-1
 8.150824418400000E9     9.085197667280716E-2    5.347977006131600E-1   -2.631413466407967E-3    8.691248085457467E-4   -2.663510686596491E-3    9.270465219588502E-4    2.394377630644150E-1    4.556218881883373E-1
 8.150829191800000E9     9.119568948475683E-2    5.347347088197997E-1   -2.652434670313708E-3    8.623051290482860E-4   -2.671489144431457E-3    9.506570596530633E-4    2.396289229078827E-1    4.553022726179493E-1
 8.150833965200000E9     9.151250516759390E-2    5.346742312138492E-1   -2.663040964191486E-3    8.657366473585999E-4   -2.670281108012011E-3    9.310791821067715E-4    2.400223408243171E-1    4.551597807407687E-1
 8.150838738600000E9     9.180662284012663E-2    5.346041045975640E-1   -2.665181747250854E-3    8.692483642743951E-4   -2.667948061290536E-3    9.180029754329538E-4    2.403212766747384E-1    4.551498691920033E-1
 8.150843512000000E9     9.228446493679406E-2    5.345007753552988E-1   -2.634926715904752E-3    8.869205585922026E-4   -2.650502425402541E-3    8.994265595233477E-4    2.405635425176951E-1    4.548295322811447E-1
 8.150848285400000E9     9.252425415020436E-2    5.343869917271532E-1   -2.651593900800699E-3    8.923858967160828E-4   -2.638823431329800E-3    9.452343986744404E-4    2.407521358233988E-1    4.548051454801214E-1
 8.150853058800000E9     9.283068772220618E-2    5.345191231095678E-1   -2.664902652496412E-3    9.062615634242733E-4   -2.629470123588389E-3    9.342246155121276E-4    2.410385790839147E-1    4.546439461773773E-1
 8.150857832200000E9     9.314754193788173E-2    5.345104045333184E-1   -2.648608239404169E-3    8.868818094553005E-4   -2.681432970263297E-3    9.012815710671813E-4    2.413303910630638E-1    4.545977017503419E-1
 8.150862605600000E9     9.345827805013003E-2    5.342701719009157E-1   -2.666619976819458E-3    8.691076543313851E-4   -2.684546691739546E-3    9.121826400725351E-4    2.416151402980681E-1    4.542037485882022E-1
 8.150867379000000E9     9.394716542631402E-2    5.343210947863319E-1   -2.670115130241282E-3    8.848252429930953E-4   -2.646154102047398E-3    9.348186328665373E-4    2.419161173869335E-1    4.540271884069201E-1
 8.150872152400000E9     9.422813362343857E-2    5.341470616944282E-1   -2.652542963446447E-3    9.006033519901541E-4   -2.663202492914239E-3    9.686311617577201E-4    2.421851851421058E-1    4.538802186561106E-1
 8.150876925800000E9     9.442711789753735E-2    5.342112582856303E-1   -2.675719459997063E-3    9.113147218986328E-4   -2.697818280058506E-3    9.453336270133280E-4    2.424346579943453E-1    4.537603916617188E-1
 8.150881699200000E9     9.486558979738989E-2    5.341166929167953E-1   -2.652166569558277E-3    8.756756439097424E-4   -2.662873890860078E-3    9.274033685388366E-4    2.426852031188124E-1    4.536883229524335E-1
 8.150886472600000E9     9.521918599151995E-2    5.340954407424127E-1   -2.653765114653908E-3    9.159851868511493E-4   -2.651156988917846E-3    9.405121752643131E-4    2.428723739089662E-1    4.535764635341036E-1
 8.150891246000000E9     9.559182079882357E-2    5.339580806350404E-1   -2.657854770751909E-3    9.080658791369649E-4   -2.649761097352751E-3    9.428582814013330E-4    2.432998848425579E-1    4.534914301752506E-1
 8.150896019400000E9     9.597540419549749E-2    5.339779396464902E-1   -2.651034827117522E-3    9.037187073252428E-4   -2.677483088488418E-3    9.386889840187955E-4    2.435737860301944E-1    4.532434799388725E-1
 8.150900792800000E9     9.614883298940505E-2    5.339066420892419E-1   -2.644618550503618E-3    9.033729846140807E-4   -2.691493387315341E-3    9.702552647609082E-4    2.436806969481396E-1    4.530499363176222E-1
 8.150905566200000E9     9.653375147983854E-2    5.337944730892904E-1   -2.666710042851923E-3    9.137785507974279E-4   -2.670162421042060E-3    9.380594029400805E-4    2.440612805239702E-1    4.529826537590775E-1
 8.150910339600000E9     9.679569848865552E-2    5.337540723932993E-1   -2.656318020592635E-3    8.911511574901601E-4   -2.653918730530421E-3    9.569474555825108E-4    2.443391818418571E-1    4.527443678706494E-1
 8.150915113000000E9     9.720762003220927E-2    5.336520401934447E-1   -2.657042579395772E-3    9.183794168662475E-4   -2.673811494555501E-3    9.788495536527176E-4    2.444996987679039E-1    4.526419982308434E-1
 8.150919886400000E9     9.752803860334727E-2    5.337080970396362E-1   -2.671703093613785E-3    9.140586198681865E-4   -2.636344634423821E-3    9.593978159966308E-4    2.449909260958087E-1    4.524732931902917E-1
 8.150924659800000E9     9.781677625154145E-2    5.335893819288146E-1   -2.684048744966068E-3    9.235676369390152E-4   -2.682562535008871E-3    9.613260149059930E-4    2.450925320168746E-1    4.523689382722859E-1
 8.150929433200000E9     9.829139029519401E-2    5.334200727659067E-1   -2.654802842513039E-3    9.130883129277107E-4   -2.657632731734749E-3    9.469266631256015E-4    2.453611058222494E-1    4.522028002687099E-1
 8.150934206600000E9     9.858065972432693E-2    5.334039309810078E-1   -2.660163462571408E-3    9.219431814360178E-4   -2.674891089574133E-3    9.652581186037868E-4    2.456827359114603E-1    4.521653315585827E-1
 8.150938980000000E9     9.888665153870434E-2    5.334791147402465E-1   -2.646502644736759E-3    9.165077364365663E-4   -2.652967569202648E-3    9.845379815967745E-4    2.458835862961508E-1    4.519306591105718E-1
 8.150943753400000E9     9.928077995417388E-2    5.333284354100132E-1   -2.660381761171714E-3    9.234501577119699E-4   -2.643719072512574E-3    9.608194474858921E-4    2.461486205118146E-1    4.515906952876181E-1
 8.150948526800000E9     9.957729051863343E-2    5.333176119105520E-1   -2.682260307922359E-3    9.371397600100396E-4   -2.681885723595702E-3    9.430050762089979E-4    2.464155522061928E-1    4.516379007437361E-1
 8.150953300200000E9     9.991995466824830E-2    5.331881885855392E-1   -2.667121828660903E-3    9.001071161772072E-4   -2.671509577980038E-3    9.789754268759174E-4    2.467993146816731E-1    4.515079859607878E-1
 8.150958073600000E9     1.002658929767379E-1    5.333009040408540E-1   -2.631957649762181E-3    9.479263962543372E-4   -2.668850623834112E-3    9.945528439791499E-4    2.471425628264340E-1    4.511947074866664E-1
 8.150962847000000E9     1.007055414557140E-1    5.332073657630592E-1   -2.671513622029864E-3    9.447941569097422E-4   -2.700474126798969E-3    1.000670551101976E-3    2.471838021537360E-1    4.510156969892212E-1
 8.150967620400000E9     1.011031464025725E-1    5.330423136702445E-1   -2.699086973692357E-3    9.208875732648496E-4   -2.654214180265464E-3    9.756595338115987E-4    2.474322351840731E-1    4.509913806360006E-1
 8.150972393800000E9     1.013705494404868E-1    5.330030245515794E-1   -2.693753583145176E-3    9.224981735615712E-4   -2.693960655093770E-3    9.973830838633485E-4    2.477720883418294E-1    4.508719697687701E-1
 8.150977167200000E9     1.016619561660502E-1    5.330574684729751E-1   -2.655200046541986E-3    9.329729974278212E-4   -2.715805767934091E-3    1.050161388656510E-3    2.480073358421207E-1    4.506366824590965E-1
 8.150981940600000E9     1.019896626827867E-1    5.330452612035111E-1   -2.669797138246256E-3    9.687983840818886E-4   -2.678102608356903E-3    9.761825370573339E-4    2.483158657820816E-1    4.504926489523027E-1
 8.150986714000000E9     1.022835245268082E-1    5.328560032135082E-1   -2.657292657874286E-3    9.423875173599068E-4   -2.669670682225241E-3    9.996146789294025E-4    2.485874739224848E-1    4.503843314673839E-1
 8.150991487400000E9     1.026136082978722E-1    5.329246349320012E-1   -2.705008641950853E-3    9.418500830347185E-4   -2.677368784598999E-3    1.021492772864984E-3    2.489944694990440E-1    4.501636910577144E-1
 8.150996260800000E9     1.029845305350570E-1    5.327828360927086E-1   -2.685647151885363E-3    9.642955624945166E-4   -2.679959041517891E-3    9.936320872669449E-4    2.491678261296491E-1    4.499825956323548E-1
 8.151001034200000E9     1.033959591593649E-1    5.327461869965424E-1   -2.681513683977498E-3    9.265718952571757E-4   -2.688693985133310E-3    9.888385464696065E-4    2.493790968664517E-1    4.497222754056254E-1
 8.151005807600000E9     1.036277996849215E-1    5.326638923373352E-1   -2.688124555119666E-3    9.730651012689479E-4   -2.685242841307974E-3    1.026376347992604E-3    2.496630887693709E-1    4.497027320497751E-1
 8.151010581000000E9     1.039619489548887E-1    5.325547735522412E-1   -2.665797323326117E-3    9.617526485301528E-4   -2.699326276673413E-3    1.048566754548572E-3    2.498189432526838E-1    4.495868056727494E-1
 8.151015354400000E9     1.044494820817917E-1    5.324689074377542E-1   -2.670726536962092E-3    9.618350908330588E-4   -2.674170993518748E-3    1.015293186296550E-3    2.502272477241373E-1    4.496192115473047E-1
 8.151020127800000E9     1.045978956841823E-1    5.324767633937432E-1   -2.665676582590751E-3    9.781076693779849E-4   -2.690088288353315E-3    1.014608845554787E-3    2.505421860447383E-1    4.491828486483317E-1
 8.151024901200000E9     1.050585044578766E-1    5.323408774650755E-1   -2.704333167086343E-3    9.772649170765311E-4   -2.728027309823805E-3    1.033172428045245E-3    2.508626339881279E-1    4.491573587936528E-1
 8.151029674600000E9     1.053455741120883E-1    5.324300416023315E-1   -2.686462500297818E-3    9.832129370496356E-4   -2.728530715702656E-3    1.003287059025180E-3    2.510298170002839E-1    4.489527653644235E-1
 8.151034448000000E9     1.056963469937095E-1    5.323845503772493E-1   -2.694738113396160E-3    9.567964541417205E-4   -2.712653564021654E-3    1.006703640189735E-3    2.512309068044217E-1    4.488390503088304E-1
 8.151039221400000E9     1.060584298012670E-1    5.323529731435090E-1   -2.693890613218448E-3    9.749619067352247E-4   -2.722266593276465E-3    1.029883876778261E-3    2.515215815751891E-1    4.486273737243880E-1
 8.151043994800000E9     1.064303410606048E-1    5.321045502724704E-1   -2.682874893448162E-3    1.005747153485917E-3   -2.704128525202674E-3    1.017376926773822E-3    2.518026726930030E-1    4.484384428161562E-1
 8.151048768200000E9     1.067138953984915E-1    5.320500496306195E-1   -2.691156433242536E-3    9.981802822966711E-4   -2.715757339613844E-3    1.037239851220175E-3    2.519158367592851E-1    4.482800819725399E-1
 8.151053541600000E9     1.071391438550668E-1    5.319932364645062E-1   -2.692852549385121E-3    1.012017882079178E-3   -2.724501804919486E-3    1.067954111648848E-3    2.523305400444978E-1    4.482005721268915E-1
 8.151058315000000E9     1.074711978842541E-1    5.318320275943388E-1   -2.700044836606429E-3    9.841945799082975E-4   -2.706847969291429E-3    1.074565845240934E-3    2.526808005629967E-1    4.479309061243353E-1
 8.151063088400000E9     1.077977710494064E-1    5.318565649019382E-1   -2.710141183238308E-3    1.000299736950320E-3   -2.733859175844851E-3    1.036326765447382E-3    2.528190793112953E-1    4.478777231584968E-1
 8.151067861800000E9     1.080171835490340E-1    5.316943508535952E-1   -2.705810598059343E-3    9.824713173625277E-4   -2.719920466462226E-3    1.077214676189776E-3    2.530666708184640E-1    4.478174355669803E-1
 8.151072635200000E9     1.083925407613208E-1    5.317406490426997E-1   -2.702557221476464E-3    1.025420045199017E-3   -2.732779192034519E-3    1.053196912275486E-3    2.533249653817220E-1    4.475554774965006E-1
 8.151077408600000E9     1.087930749012299E-1    5.317496387420692E-1   -2.701798136423001E-3    9.886272934627948E-4   -2.692738111532437E-3    1.032342471207264E-3    2.536312078214342E-1    4.475036194593168E-1
 8.151082182000000E9     1.090640349465834E-1    5.315750748991286E-1   -2.704304414797567E-3    1.006003042635932E-3   -2.698114446561633E-3    1.074067532502630E-3    2.539241447371748E-1    4.471820549144123E-1
 8.151086955400000E9     1.093809072942910E-1    5.315434605158118E-1   -2.720385673450832E-3    1.014719298910930E-3   -2.736269516698793E-3    1.076094892748477E-3    2.541611841207049E-1    4.471019790431152E-1
 8.151091728800000E9     1.097441259293016E-1    5.314883076407455E-1   -2.709648223254829E-3    1.000927263817060E-3   -2.723453603830419E-3    1.101680286467706E-3    2.544346813326674E-1    4.468484788817192E-1
 8.151096502200000E9     1.101244472592977E-1    5.314052064407339E-1   -2.711165666154743E-3    1.034732564160556E-3   -2.747708614434697E-3    1.060550469153713E-3    2.547171672969015E-1    4.467372661042296E-1
 8.151101275600000E9     1.104578525304367E-1    5.313440128900211E-1   -2.699042244139123E-3    1.038355572914168E-3   -2.716102561592924E-3    1.074173815136380E-3    2.550008910967571E-1    4.466271437969351E-1
 8.151106049000000E9     1.107971359522658E-1    5.313724255929108E-1   -2.712372702785544E-3    1.034838307103150E-3   -2.751496080641853E-3    1.058292946297577E-3    2.553404774048194E-1    4.464814853676493E-1
 8.151110822400000E9     1.112156197060784E-1    5.313349031902908E-1   -2.712736434727665E-3    1.010375539182329E-3   -2.711258716574529E-3    1.073904419440188E-3    2.554908650146463E-1    4.461582091831655E-1
 8.151115595800000E9     1.115844672795235E-1    5.311113218340706E-1   -2.721371217866330E-3    1.028143647898363E-3   -2.709347424904377E-3    1.084268372487282E-3    2.558273041993193E-1    4.460758195065800E-1
 8.151120369200000E9     1.118090994375660E-1    5.311232405817753E-1   -2.711793962195729E-3    1.027042172138203E-3   -2.738360584525855E-3    1.109442258668674E-3    2.560579681042316E-1    4.459767456297530E-1
 8.151125142600000E9     1.121613757033379E-1    5.310181902917013E-1   -2.736373801701187E-3    1.031513575517188E-3   -2.718190047507214E-3    1.097818793778827E-3    2.563971421221067E-1    4.457370617776799E-1
 8.151129916000000E9     1.126010161955327E-1    5.309644747396955E-1   -2.725873708243830E-3    1.023034751062667E-3   -2.729069544476655E-3    1.112071672817151E-3    2.565370731645014E-1    4.456467304117682E-1
 8.151134689400000E9     1.129317415594970E-1    5.309722016863739E-1   -2.716144371615806E-3    1.036065460439303E-3   -2.725081750591554E-3    1.089541652717138E-3    2.567122410015916E-1    4.454882025201253E-1
 8.151139462800000E9     1.132497200733364E-1    5.309498625879624E-1   -2.722976098619607E-3    1.032829776760511E-3   -2.765466882541815E-3    1.101605353033059E-3    2.571103356206751E-1    4.453218508715833E-1
 8.151144236200000E9     1.135126098614892E-1    5.308202445958534E-1   -2.734424487468004E-3    1.049725326798063E-3   -2.753608375157836E-3    1.139799803718523E-3    2.573965595876662E-1    4.452007282742749E-1
 8.151149009600000E9     1.139246956405290E-1    5.307554844958020E-1   -2.712045036838849E-3    1.050509139492876E-3   -2.744316788709280E-3    1.099306942775690E-3    2.575765349571558E-1    4.450273279863888E-1
 8.151153783000000E9     1.142014675850285E-1    5.305947288948196E-1   -2.708219836497720E-3    1.061418575926613E-3   -2.750072904819215E-3    1.091143095293146E-3    2.578952270656644E-1    4.448833702459494E-1
 8.151158556400000E9     1.145926495586975E-1    5.305861719664999E-1   -2.734795188631117E-3    1.038645400431640E-3   -2.734514035444008E-3    1.097841000241428E-3    2.581541323585685E-1    4.447111531001210E-1
 8.151163329800000E9     1.148434450072036E-1    5.304436218842711E-1   -2.759440555859123E-3    1.063965888634203E-3   -2.756574383342124E-3    1.113166463397832E-3    2.584152224779011E-1    4.445842390870370E-1
 8.151168103200000E9     1.153250181489553E-1    5.306051223727968E-1   -2.765265200397559E-3    1.051075801336513E-3   -2.737919790791545E-3    1.145828591989031E-3    2.586653669329871E-1    4.442475899107443E-1
 8.151172876600000E9     1.155934533293132E-1    5.304572277162924E-1   -2.738943995277697E-3    1.075383497928299E-3   -2.788303969893532E-3    1.138439113621565E-3    2.590356426314623E-1    4.442172405137078E-1
 8.151177650000000E9     1.159399018475641E-1    5.303812803444899E-1   -2.737211815082191E-3    1.078958311407452E-3   -2.803201808842421E-3    1.152102448750447E-3    2.591033549002419E-1    4.440506365316049E-1
 8.151182423400000E9     1.162597772503823E-1    5.302000809714890E-1   -2.744676433960463E-3    1.079147615616971E-3   -2.769036547286235E-3    1.120758176219020E-3    2.596377121988378E-1    4.439171268643252E-1
 8.151187196800000E9     1.166418519086534E-1    5.300550324897801E-1   -2.768340879669466E-3    1.076645936668936E-3   -2.758709462214100E-3    1.162186594113730E-3    2.598678024477313E-1    4.434723673201649E-1
 8.151191970200000E9     1.169711653879032E-1    5.300444664540264E-1   -2.746445054491395E-3    1.083513548185028E-3   -2.779071743315091E-3    1.172712101998952E-3    2.599736104062096E-1    4.435213120834913E-1
 8.151196743600000E9     1.173543739746124E-1    5.300609906969459E-1   -2.760662352558136E-3    1.075436124655875E-3   -2.743602129612324E-3    1.140590788322918E-3    2.603391019482341E-1    4.433954367987678E-1
 8.151201517000000E9     1.175863579096911E-1    5.299460669252505E-1   -2.783280224751392E-3    1.113782361684754E-3   -2.763177866980048E-3    1.163912524142133E-3    2.605324911601131E-1    4.432694750434954E-1
 8.151206290400000E9     1.179900728427828E-1    5.299622341670310E-1   -2.765065957923999E-3    1.092729916670023E-3   -2.777445724582363E-3    1.157556960918829E-3    2.607722109899132E-1    4.430667197969919E-1
 8.151211063800000E9     1.183703209434216E-1    5.299033756396387E-1   -2.767205717371028E-3    1.106877360887909E-3   -2.768466447748032E-3    1.150175998149171E-3    2.610204050994294E-1    4.427511889404651E-1
 8.151215837200000E9     1.186089015998871E-1    5.297892159903786E-1   -2.775360391468862E-3    1.125257985381086E-3   -2.786941889424547E-3    1.170348501319926E-3    2.611677172765517E-1    4.427157651765928E-1
 8.151220610600000E9     1.190726476834589E-1    5.296344126586410E-1   -2.760759749489562E-3    1.099771500083276E-3   -2.746153615474465E-3    1.175014706039995E-3    2.614961399726239E-1    4.426705892672514E-1
 8.151225384000000E9     1.194355063003239E-1    5.297511607818781E-1   -2.776273921537155E-3    1.135624343774528E-3   -2.795930971311105E-3    1.168440884823036E-3    2.618141323123537E-1    4.423637750996409E-1
