#  HZ   S   RI   R     50.00 
! Rohde & Schwarz Vector Network Analyzer 
! Rohde-Schwarz,ZNB20-2Port,1311601062101988,3.16
! Created: UTC 3/21/2024, 12:55:53 AM
! freq[Hz]                re:S11                  im:S11                  re:S21                  im:S21                  re:S12                  im:S12                  re:S22                  im:S22
 8.150630779000000E9     7.662089142438794E-2    5.364603997750851E-1   -2.612073128089117E-3    7.682291233469243E-4   -2.638578967185147E-3    8.513022272394696E-4    2.270166476439913E-1    4.622316743964308E-1
 8.150636380325000E9     7.715547010478160E-2    5.363498952910382E-1   -2.632690153490172E-3    7.669491167805196E-4   -2.645007426153194E-3    8.112655417225759E-4    2.273861475942954E-1    4.619556033117730E-1
 8.150641981650000E9     7.737326003352224E-2    5.364177130241404E-1   -2.610590011891938E-3    7.800063019458841E-4   -2.643405868731924E-3    8.382757199834964E-4    2.276747517184241E-1    4.619354597549851E-1
 8.150647582975000E9     7.796975833497974E-2    5.363879086490874E-1   -2.645604313134584E-3    7.948661533020436E-4   -2.625265828433177E-3    8.456732266233720E-4    2.281214443047190E-1    4.616813895833943E-1
 8.150653184300000E9     7.822587358971947E-2    5.361878859057174E-1   -2.632496274399413E-3    7.869852169657798E-4   -2.639039791731556E-3    8.441546581335636E-4    2.283892514871924E-1    4.615675654726867E-1
 8.150658785625000E9     7.878089240626029E-2    5.362628103166334E-1   -2.630760861083607E-3    7.887508967581831E-4   -2.642344476106392E-3    8.661205315960767E-4    2.286825161956356E-1    4.612610334939182E-1
 8.150664386950000E9     7.914999432936182E-2    5.361687630905705E-1   -2.614846050358436E-3    7.709863664335326E-4   -2.655668158671106E-3    8.436041247040399E-4    2.290811190252130E-1    4.611684935970102E-1
 8.150669988275000E9     7.952773184739008E-2    5.360172778380493E-1   -2.600984185104355E-3    8.043369678274588E-4   -2.659070623529955E-3    8.681475468269998E-4    2.292707848506876E-1    4.609984182585985E-1
 8.150675589600000E9     8.002230002581330E-2    5.360955257181466E-1   -2.637124488881578E-3    7.819395776376540E-4   -2.640094046027415E-3    8.683556114163507E-4    2.297851179651729E-1    4.609295559409706E-1
 8.150681190925000E9     8.038517670598136E-2    5.359543248111404E-1   -2.597674379906461E-3    8.017177095554471E-4   -2.629704571848869E-3    8.417440270391072E-4    2.299944394630211E-1    4.605951718545960E-1
 8.150686792250000E9     8.068258123385391E-2    5.360918394740362E-1   -2.625566030914263E-3    7.949719882553386E-4   -2.641273278582960E-3    8.590213743267883E-4    2.302254983403172E-1    4.604610539872294E-1
 8.150692393575000E9     8.113225315432683E-2    5.359455273736857E-1   -2.649528357311997E-3    8.009778701578882E-4   -2.633590759678379E-3    8.774961632310043E-4    2.306039988024642E-1    4.603034706149978E-1
 8.150697994900000E9     8.156593763939046E-2    5.359006406664637E-1   -2.630121564776521E-3    8.199843890503614E-4   -2.662369079563646E-3    8.787177006275152E-4    2.310297591578500E-1    4.601748434640023E-1
 8.150703596225000E9     8.184720544320068E-2    5.357599832244987E-1   -2.622040756135488E-3    7.876711850883473E-4   -2.632190349646525E-3    8.401225860537413E-4    2.314277423421872E-1    4.599844384834337E-1
 8.150709197550000E9     8.237394835423532E-2    5.357236359634228E-1   -2.639392963586299E-3    8.220112850620473E-4   -2.632231143493414E-3    8.601567994430318E-4    2.316052477498752E-1    4.598015737483654E-1
 8.150714798875000E9     8.274902791818747E-2    5.356895037488839E-1   -2.628532118693952E-3    8.066192451080115E-4   -2.637266708258918E-3    8.178925881681258E-4    2.317770406669665E-1    4.596208108209297E-1
 8.150720400200000E9     8.312991483141885E-2    5.357245827237676E-1   -2.630324372309400E-3    8.189388704050378E-4   -2.651157975003902E-3    8.222262255405460E-4    2.321182864549612E-1    4.595490276951586E-1
 8.150726001525000E9     8.348641852387111E-2    5.354999295161382E-1   -2.618184786408782E-3    8.024092284063680E-4   -2.655538767709841E-3    8.916559630386188E-4    2.326168401571474E-1    4.593844929787342E-1
 8.150731602850000E9     8.390913813735024E-2    5.355606595822693E-1   -2.626246434091086E-3    8.366693622419550E-4   -2.640049058517005E-3    8.706221170191718E-4    2.328740748098059E-1    4.590650876625950E-1
 8.150737204175000E9     8.421670580830980E-2    5.355613880392437E-1   -2.664426115997569E-3    8.298610095238813E-4   -2.651796233751397E-3    8.850607062760582E-4    2.332920260734674E-1    4.589022454099149E-1
 8.150742805500000E9     8.476949188816266E-2    5.354794660903683E-1   -2.653238018009125E-3    8.311861095490215E-4   -2.644868690884903E-3    8.559705652341724E-4    2.335765389242568E-1    4.589035872104851E-1
 8.150748406825000E9     8.501441884381127E-2    5.354129782347067E-1   -2.648880446285415E-3    8.175038221012771E-4   -2.671382455275384E-3    8.533059610297098E-4    2.338122689410591E-1    4.585917583083653E-1
 8.150754008150000E9     8.545829355074824E-2    5.353142646106748E-1   -2.616471239298247E-3    8.421228937787789E-4   -2.642271716824735E-3    8.611757428791792E-4    2.340437562636036E-1    4.584995913683151E-1
 8.150759609475000E9     8.583235366149120E-2    5.352387859269290E-1   -2.633098409275629E-3    8.606359058494302E-4   -2.644447166608345E-3    8.800932162680131E-4    2.342710155430728E-1    4.583791690376802E-1
 8.150765210800000E9     8.623758153416552E-2    5.351348537326110E-1   -2.648078686470146E-3    7.918765265112530E-4   -2.650133161597836E-3    8.600651511810545E-4    2.348039828633666E-1    4.581193654851179E-1
 8.150770812125000E9     8.669921289123472E-2    5.352072875401351E-1   -2.616251812528822E-3    8.423171033709850E-4   -2.654764204077607E-3    8.936005411578307E-4    2.351173802609296E-1    4.578998412572658E-1
 8.150776413450000E9     8.704021989410621E-2    5.351355333466299E-1   -2.637055615269784E-3    8.546047676826220E-4   -2.636614188224713E-3    8.941938023181376E-4    2.354934275954343E-1    4.577577142362111E-1
 8.150782014775000E9     8.745002981740135E-2    5.351962287702239E-1   -2.645566500554722E-3    8.485057712697563E-4   -2.631678491505493E-3    9.006159596664239E-4    2.357771821235152E-1    4.574512743217063E-1
 8.150787616100000E9     8.786442895464722E-2    5.350445239892517E-1   -2.627490778999986E-3    8.565285217628541E-4   -2.655560134478173E-3    9.273041014835236E-4    2.360141781687597E-1    4.574204464246091E-1
 8.150793217425000E9     8.827824305510529E-2    5.349807583344061E-1   -2.630500221628235E-3    8.349327861511043E-4   -2.629617909503739E-3    9.011706340534606E-4    2.364225989549965E-1    4.572527677547704E-1
 8.150798818750000E9     8.866329644070900E-2    5.348784878473056E-1   -2.647023144699672E-3    8.391364244789531E-4   -2.647302185799929E-3    8.984179942404435E-4    2.368452086785393E-1    4.572228903917503E-1
 8.150804420075000E9     8.909932647570530E-2    5.348619867873068E-1   -2.663848660904672E-3    8.650357448379005E-4   -2.650446927737739E-3    8.793357195250350E-4    2.370927321171957E-1    4.570891312840344E-1
 8.150810021400000E9     8.935517106633512E-2    5.348192113044845E-1   -2.667781767485740E-3    8.487811840335916E-4   -2.649374071958621E-3    8.888626338556389E-4    2.372448926659544E-1    4.566638169501590E-1
 8.150815622725000E9     8.994490289706490E-2    5.347292298744137E-1   -2.644213904983757E-3    8.582124623828315E-4   -2.641229056891676E-3    8.768771800239935E-4    2.377100721803484E-1    4.566966646412889E-1
 8.150821224050000E9     9.020436415199257E-2    5.346899589490373E-1   -2.637474205247987E-3    8.425734211667395E-4   -2.670701778844073E-3    9.157392103006954E-4    2.379441365778481E-1    4.563845423803824E-1
 8.150826825375000E9     9.050560279928423E-2    5.346142297697353E-1   -2.639710448904895E-3    8.715884424804919E-4   -2.663474112623500E-3    9.226691935886317E-4    2.382600107231668E-1    4.563733216721758E-1
 8.150832426700000E9     9.103357235841431E-2    5.345369519396254E-1   -2.649876085199088E-3    8.756639910663714E-4   -2.652978781101645E-3    9.326929921250489E-4    2.386403631241056E-1    4.560381784568200E-1
 8.150838028025000E9     9.141621537975259E-2    5.344521381911483E-1   -2.635342464731924E-3    8.655496620354271E-4   -2.665044896470955E-3    9.161137457777237E-4    2.390078744818047E-1    4.559455230946343E-1
 8.150843629350000E9     9.181165991570994E-2    5.343190732340303E-1   -2.643212303074479E-3    8.932198261473038E-4   -2.645499631186469E-3    9.207135218825555E-4    2.392242125661713E-1    4.556483468661756E-1
 8.150849230675000E9     9.214438161554118E-2    5.342821623353834E-1   -2.666914650595984E-3    8.767983191540395E-4   -2.655142278034703E-3    9.308424232821218E-4    2.395575897377599E-1    4.554443990871257E-1
 8.150854832000000E9     9.249197365807735E-2    5.342253767707691E-1   -2.651847429697217E-3    8.982450711251053E-4   -2.647039883876272E-3    9.169817864325391E-4    2.399057849662265E-1    4.553728623630343E-1
 8.150860433325000E9     9.298480808565431E-2    5.342023424645931E-1   -2.644263746610672E-3    8.985109022967216E-4   -2.668230983519867E-3    9.121723385721377E-4    2.402072348129584E-1    4.551140980126876E-1
 8.150866034650000E9     9.348732906922445E-2    5.341852895344558E-1   -2.653235957289684E-3    8.902265138184444E-4   -2.676179035201872E-3    9.286321932160673E-4    2.405841354971339E-1    4.549011324564128E-1
 8.150871635975000E9     9.373528823506404E-2    5.340568224301387E-1   -2.649378662495918E-3    8.642521897396703E-4   -2.671913158113187E-3    9.527113906059340E-4    2.408440844715041E-1    4.548254096779820E-1
 8.150877237300000E9     9.416024752605189E-2    5.340431549782008E-1   -2.652969538462529E-3    9.022968143015453E-4   -2.665306174504648E-3    9.484385685088907E-4    2.412149273699314E-1    4.546831826483169E-1
 8.150882838625000E9     9.449967574460749E-2    5.341132135453739E-1   -2.649090761817253E-3    8.737795594545527E-4   -2.659759214244040E-3    9.241641225719904E-4    2.414353317042897E-1    4.545437956020815E-1
 8.150888439950000E9     9.485040504943582E-2    5.339968229285166E-1   -2.635184098618571E-3    8.819347088853957E-4   -2.661948957410011E-3    9.344741819095600E-4    2.417755915386973E-1    4.544114904308665E-1
 8.150894041275000E9     9.520079684822111E-2    5.338079543844484E-1   -2.654297888660216E-3    8.768747376779629E-4   -2.675859472579570E-3    9.559352538323157E-4    2.421429114352089E-1    4.541800995717313E-1
 8.150899642600000E9     9.575909994543355E-2    5.337552319751038E-1   -2.630837235436538E-3    9.020126397002489E-4   -2.650683847245232E-3    9.431668092973489E-4    2.423114098606761E-1    4.540067101584487E-1
 8.150905243925000E9     9.613222323266674E-2    5.337423224330222E-1   -2.661711941494213E-3    9.006119091751209E-4   -2.653271422773176E-3    9.522191147541927E-4    2.427382133791236E-1    4.538031933412440E-1
 8.150910845250000E9     9.649705634957663E-2    5.337127759564045E-1   -2.656409028907840E-3    9.053047708694143E-4   -2.651948893248971E-3    9.705797712200626E-4    2.430314112706476E-1    4.535992370278344E-1
 8.150916446575000E9     9.697294452435121E-2    5.336206440240017E-1   -2.658021894385136E-3    8.920239646356119E-4   -2.690544642519446E-3    9.466883939029477E-4    2.433532873888785E-1    4.535295627626850E-1
 8.150922047900000E9     9.729006343528045E-2    5.335844391089042E-1   -2.659664105413133E-3    9.194343174558831E-4   -2.671499091165970E-3    9.741300401348641E-4    2.436798589351089E-1    4.532038406616389E-1
 8.150927649225000E9     9.781252963816103E-2    5.334813681768684E-1   -2.655813806469938E-3    9.117824762862189E-4   -2.670989953374146E-3    9.477981432883665E-4    2.439659238586448E-1    4.531702765292587E-1
 8.150933250550000E9     9.808122931625196E-2    5.333974918172200E-1   -2.646928911863449E-3    9.040925167271135E-4   -2.662118555626483E-3    9.615058351364058E-4    2.443636254979134E-1    4.528121664451544E-1
 8.150938851875000E9     9.846302887798816E-2    5.333709130137050E-1   -2.645113465175902E-3    9.176449942137035E-4   -2.682576524588122E-3    9.693609575221741E-4    2.445241833770156E-1    4.526530209579471E-1
 8.150944453200000E9     9.883766159633961E-2    5.333032741378155E-1   -2.674861521762153E-3    9.423574073966671E-4   -2.646545399217957E-3    9.522878943448896E-4    2.449513442600266E-1    4.526343614252487E-1
 8.150950054525000E9     9.927419778075849E-2    5.332650149345907E-1   -2.662200432505576E-3    9.357088047855485E-4   -2.672993196422945E-3    9.785803008704899E-4    2.454126750168766E-1    4.523522316127322E-1
 8.150955655850000E9     9.974108417962843E-2    5.331813473861423E-1   -2.677336908859709E-3    9.176279132618784E-4   -2.684283053571077E-3    9.685670314117856E-4    2.456279258321637E-1    4.521175034814657E-1
 8.150961257175000E9     9.993447328636820E-2    5.331553488013553E-1   -2.674260544430657E-3    9.457224130346450E-4   -2.691003696179228E-3    1.015034032973116E-3    2.458867463645607E-1    4.519473631779994E-1
 8.150966858500000E9     1.005950296361579E-1    5.330893835882637E-1   -2.648836183084891E-3    9.222593422883071E-4   -2.659491640715320E-3    9.961268026546907E-4    2.461938676914927E-1    4.518676887122462E-1
 8.150972459825000E9     1.008746764499233E-1    5.330128479530932E-1   -2.658265311151751E-3    9.339178907561139E-4   -2.647486326679806E-3    9.717056061613576E-4    2.464641462513417E-1    4.516526698694148E-1
 8.150978061150000E9     1.011718380129413E-1    5.330051109943010E-1   -2.663095657354980E-3    9.345110365592306E-4   -2.679872038379158E-3    9.716546404596716E-4    2.467636774131870E-1    4.514644322739973E-1
 8.150983662475000E9     1.016917409195661E-1    5.328676356170627E-1   -2.670247428227291E-3    9.403348501864119E-4   -2.667871552975917E-3    9.902022688313972E-4    2.471869100598199E-1    4.513293178624816E-1
 8.150989263800000E9     1.020950291001432E-1    5.328316088242818E-1   -2.652733413285009E-3    9.406328541229197E-4   -2.702958208754311E-3    9.914842703081317E-4    2.473855103503153E-1    4.511208794467206E-1
 8.150994865125000E9     1.024293455264548E-1    5.325498010507015E-1   -2.668647344222559E-3    9.554519604349733E-4   -2.694806425735173E-3    9.939290807794809E-4    2.478737405768908E-1    4.509340318016766E-1
 8.151000466450000E9     1.028421812384949E-1    5.325789627062216E-1   -2.683044401894790E-3    9.360500862842918E-4   -2.703032734612487E-3    9.799015265778996E-4    2.481160654271381E-1    4.505614448120349E-1
 8.151006067775000E9     1.032594893787106E-1    5.326046129014077E-1   -2.668319113622129E-3    9.742875755718614E-4   -2.682049206784040E-3    9.561290353797589E-4    2.484047826329434E-1    4.507841168774782E-1
 8.151011669100000E9     1.036148702880732E-1    5.324886558667179E-1   -2.667536291609145E-3    9.880997703849387E-4   -2.687156168942577E-3    1.021709741252871E-3    2.486750626008549E-1    4.505106748601116E-1
 8.151017270425000E9     1.038805682634847E-1    5.324207987332383E-1   -2.668536593460410E-3    9.680932298860313E-4   -2.668597902124794E-3    1.042970943796663E-3    2.489822636274811E-1    4.502097852840706E-1
 8.151022871750000E9     1.043698825653478E-1    5.323824644566056E-1   -2.682899590693088E-3    9.631178852539796E-4   -2.692682764327953E-3    1.018202190035720E-3    2.491305699212284E-1    4.499803213417873E-1
 8.151028473075000E9     1.049043156716318E-1    5.322891249393609E-1   -2.681538968688215E-3    9.798032707110315E-4   -2.689155055906526E-3    1.023761636973603E-3    2.496445880677485E-1    4.497021867973736E-1
 8.151034074400000E9     1.051629747326072E-1    5.321491914307052E-1   -2.694629295029049E-3    9.948019851997833E-4   -2.661960409990904E-3    1.005177454183566E-3    2.499956856405293E-1    4.496007973846468E-1
 8.151039675725000E9     1.056529601635446E-1    5.321971103498040E-1   -2.681359034605581E-3    9.706295854620026E-4   -2.704643999572329E-3    1.032516647313292E-3    2.502661935575763E-1    4.494411686246879E-1
 8.151045277050000E9     1.059085041872816E-1    5.320061926916446E-1   -2.673921078154653E-3    9.862429735066091E-4   -2.672962876478717E-3    1.005055063697014E-3    2.505696107618435E-1    4.493445353966763E-1
 8.151050878375000E9     1.064342951082671E-1    5.320376429499204E-1   -2.707981602334893E-3    9.831799983072622E-4   -2.710164201118655E-3    1.048659114019086E-3    2.509391672637475E-1    4.490415858633501E-1
 8.151056479700000E9     1.068224718176806E-1    5.318574189021399E-1   -2.673382567004130E-3    9.793216642919400E-4   -2.690474630718150E-3    1.035861248140795E-3    2.513030267385526E-1    4.488771357509128E-1
 8.151062081025000E9     1.071953647788778E-1    5.318756627722078E-1   -2.702478559549835E-3    1.004037005774240E-3   -2.695448375672160E-3    1.050355137400088E-3    2.516762262173657E-1    4.487175850785594E-1
 8.151067682350000E9     1.075330831208371E-1    5.317478057426296E-1   -2.684271990640482E-3    1.003587371454073E-3   -2.686116087421363E-3    1.054607359921186E-3    2.519091742342886E-1    4.485001640185950E-1
 8.151073283675000E9     1.079700116467412E-1    5.317053213167477E-1   -2.673421672450877E-3    9.934412136251220E-4   -2.721952003788611E-3    1.060592814924659E-3    2.522582434576683E-1    4.483503435985769E-1
 8.151078885000000E9     1.084203210397388E-1    5.316663929793185E-1   -2.707319382733121E-3    9.929963870001009E-4   -2.711974683752707E-3    1.012810019186403E-3    2.524869208904167E-1    4.482762045388808E-1
 8.151084486325000E9     1.088097659056605E-1    5.316036849665017E-1   -2.691207433765579E-3    1.027015215167607E-3   -2.717496204811437E-3    1.070223892519319E-3    2.527688965253071E-1    4.479926277171902E-1
 8.151090087650000E9     1.091953951742894E-1    5.313936013180406E-1   -2.693987665558070E-3    1.007980935252654E-3   -2.746894020722509E-3    1.052248504749776E-3    2.529430089608024E-1    4.477382179236945E-1
 8.151095688975000E9     1.095962642119065E-1    5.313996546669124E-1   -2.694185092736303E-3    1.019344353639398E-3   -2.727341232910401E-3    1.071750746173248E-3    2.534732914589896E-1    4.478420988808386E-1
 8.151101290300000E9     1.099327802462069E-1    5.313574761654579E-1   -2.696602670417123E-3    1.019677053882975E-3   -2.718538222947757E-3    1.084950366972873E-3    2.535748115106928E-1    4.475607666420766E-1
 8.151106891625000E9     1.103243169524671E-1    5.312240231366097E-1   -2.724331138609648E-3    1.044926640449876E-3   -2.713195309503691E-3    1.097879775973982E-3    2.539905715184820E-1    4.472266168302436E-1
 8.151112492950000E9     1.107433222199800E-1    5.311932107484512E-1   -2.698575109777408E-3    9.947524000798230E-4   -2.715924570671431E-3    1.071070131830351E-3    2.543105873387739E-1    4.471656841945373E-1
 8.151118094275000E9     1.111297133387116E-1    5.311049691268539E-1   -2.703414947724431E-3    1.022524093039994E-3   -2.718269049815275E-3    1.077818026238455E-3    2.546081923615054E-1    4.469705000509556E-1
 8.151123695600000E9     1.114602841151153E-1    5.310265385045736E-1   -2.723742971457136E-3    1.021795883448300E-3   -2.738242616147144E-3    1.077233554374469E-3    2.549862488863480E-1    4.467487605518568E-1
 8.151129296925000E9     1.120420130050778E-1    5.309455928356905E-1   -2.733360109058035E-3    1.027099081240916E-3   -2.724668811460571E-3    1.114464771488102E-3    2.553818551451223E-1    4.465544275954992E-1
 8.151134898250000E9     1.123124751196316E-1    5.308892553272900E-1   -2.745782737992154E-3    1.040079749342560E-3   -2.713704064531816E-3    1.085419436932729E-3    2.554860121051617E-1    4.465110264901904E-1
