#  HZ   S   RI   R     50.00 
! Rohde & Schwarz Vector Network Analyzer 
! Rohde-Schwarz,ZNB20-2Port,1311601062101988,3.16
! Created: UTC 3/21/2024, 12:56:00 AM
! freq[Hz]                re:S11                  im:S11                  re:S21                  im:S21                  re:S12                  im:S12                  re:S22                  im:S22
 8.150605800000000E9     7.487948774715028E-2    5.367183269938709E-1   -2.621425117914218E-3    7.486863592064038E-4   -2.610361450302498E-3    7.828823246300717E-4    2.248880934107025E-1    4.630026028726212E-1
 8.150611525150000E9     7.535961853021007E-2    5.366660940885476E-1   -2.619974780099649E-3    7.534401621357712E-4   -2.587276282576527E-3    8.113433025523889E-4    2.253841820599422E-1    4.628134355264551E-1
 8.150617250300000E9     7.565715131127136E-2    5.365835325605037E-1   -2.625824011519180E-3    7.635143941246262E-4   -2.628665271158583E-3    8.174817562692729E-4    2.256298690525606E-1    4.626354942172458E-1
 8.150622975450000E9     7.607092313957241E-2    5.365358452960669E-1   -2.635269322357238E-3    7.914766403716843E-4   -2.621371225902868E-3    8.349653485438735E-4    2.260713654156180E-1    4.625452739274210E-1
 8.150628700600000E9     7.646384855188743E-2    5.364565092993379E-1   -2.631120045977009E-3    7.681656214940774E-4   -2.630210160018670E-3    8.088074457573349E-4    2.264743805283097E-1    4.623619402985679E-1
 8.150634425750000E9     7.690494257786863E-2    5.364038290147665E-1   -2.610484594596383E-3    7.826575245055145E-4   -2.599294565621686E-3    8.036910413988412E-4    2.266961633526299E-1    4.622926164965551E-1
 8.150640150900000E9     7.733906500119753E-2    5.363332978093011E-1   -2.608078550323876E-3    7.722570779298266E-4   -2.671212189102220E-3    8.482714259904385E-4    2.269929832785630E-1    4.618635248260601E-1
 8.150645876050000E9     7.769017877723575E-2    5.363620931682389E-1   -2.633220682578195E-3    7.899640614882528E-4   -2.618466329358128E-3    8.667510203928305E-4    2.274323901560665E-1    4.617844172623794E-1
 8.150651601200000E9     7.815450553203399E-2    5.362870467130790E-1   -2.634229065905248E-3    7.719869262897763E-4   -2.616396516958700E-3    8.388936365727204E-4    2.276345311140605E-1    4.615080234358435E-1
 8.150657326350000E9     7.855000525191377E-2    5.362200725636355E-1   -2.620481376132903E-3    7.790941819581739E-4   -2.647243140358542E-3    8.435965296538614E-4    2.280679708027436E-1    4.615880637457301E-1
 8.150663051500000E9     7.892354427011219E-2    5.361796821840736E-1   -2.627151888376695E-3    7.872415552448420E-4   -2.649242348161144E-3    8.525368447443320E-4    2.283898965859643E-1    4.613430632737416E-1
 8.150668776650000E9     7.940218046628590E-2    5.360573598058361E-1   -2.613633434611044E-3    8.106883254374084E-4   -2.629088221290708E-3    8.395879199790989E-4    2.286115100461768E-1    4.611197887435508E-1
 8.150674501800000E9     7.972902132382433E-2    5.360780766246586E-1   -2.602490461362261E-3    7.841475931305593E-4   -2.616150570247380E-3    8.366322073143775E-4    2.290916749177075E-1    4.609461209155927E-1
 8.150680226950000E9     8.019944911253768E-2    5.360217527008344E-1   -2.620004151407193E-3    7.827659655806504E-4   -2.625628169417621E-3    8.378876951010159E-4    2.293320846790937E-1    4.608094341391923E-1
 8.150685952100000E9     8.045236820583793E-2    5.359763065943510E-1   -2.633181674012341E-3    7.870005175334209E-4   -2.635408137964924E-3    8.650111335815985E-4    2.295208026357551E-1    4.604221471471757E-1
 8.150691677250000E9     8.091416089958176E-2    5.359122318389263E-1   -2.642779998796921E-3    8.010659554075662E-4   -2.682740547150241E-3    8.578003943366120E-4    2.299408728831591E-1    4.604706489433907E-1
 8.150697402400000E9     8.129704229208620E-2    5.357293024324294E-1   -2.647837659871448E-3    7.817341105391015E-4   -2.632098099404566E-3    8.474622350483703E-4    2.302978560860670E-1    4.603281225923745E-1
 8.150703127550000E9     8.175232024610357E-2    5.357622310947340E-1   -2.626859897557378E-3    7.987232019492674E-4   -2.646166042890165E-3    8.706253280843127E-4    2.307521310818828E-1    4.600560309436931E-1
 8.150708852700000E9     8.217150527815639E-2    5.357416269358536E-1   -2.632976618079917E-3    8.162320001487388E-4   -2.668463939498524E-3    8.479564446118823E-4    2.309297102908358E-1    4.598937188761285E-1
 8.150714577850000E9     8.267949941102627E-2    5.356668713715690E-1   -2.609759836267911E-3    7.996491869418500E-4   -2.610577879257077E-3    8.679673000084869E-4    2.311674576106268E-1    4.598342597103594E-1
 8.150720303000000E9     8.298413071467381E-2    5.355714821364496E-1   -2.644614956870804E-3    8.118604823731689E-4   -2.605783474168362E-3    8.519234531821512E-4    2.315082794309422E-1    4.596701105294208E-1
 8.150726028150000E9     8.340123990668614E-2    5.356635000504922E-1   -2.633518561265597E-3    8.152678289173728E-4   -2.630687934770134E-3    8.390654647609534E-4    2.320259696942934E-1    4.594881758779918E-1
 8.150731753300000E9     8.378870626054867E-2    5.355451998837721E-1   -2.635114040684600E-3    8.106936823988790E-4   -2.639227985597895E-3    8.536719231984826E-4    2.323144656672543E-1    4.591880278893070E-1
 8.150737478450000E9     8.418087193635075E-2    5.353860394739370E-1   -2.621865210036809E-3    8.444538359721306E-4   -2.634818201578188E-3    8.514856724715253E-4    2.326515220282845E-1    4.590271489387823E-1
 8.150743203600000E9     8.461499039290038E-2    5.353656842518324E-1   -2.650074392633150E-3    8.128753526935829E-4   -2.682267529010508E-3    8.814930065497594E-4    2.328431183074263E-1    4.589052887267775E-1
 8.150748928750000E9     8.504268561844718E-2    5.354304300937285E-1   -2.641048081297202E-3    8.104569587145772E-4   -2.618830930790946E-3    8.599627523319596E-4    2.331730818509488E-1    4.587541552698656E-1
 8.150754653900000E9     8.548616363012605E-2    5.353443934739363E-1   -2.620192105180405E-3    8.227002318830433E-4   -2.616133401589178E-3    8.611832285965870E-4    2.336267446549871E-1    4.585945418865093E-1
 8.150760379050000E9     8.572928539385721E-2    5.352051161642626E-1   -2.614001813526642E-3    8.469564945200989E-4   -2.636518249197429E-3    8.858614079942383E-4    2.338303222802508E-1    4.584152636492165E-1
 8.150766104200000E9     8.618852394664636E-2    5.352261441491457E-1   -2.624927336214293E-3    8.192124163463113E-4   -2.647049070011876E-3    9.230048567197988E-4    2.340820896814135E-1    4.583291003606949E-1
 8.150771829350000E9     8.676852703979603E-2    5.351476291328052E-1   -2.626931132611091E-3    8.360080068522442E-4   -2.636138176657503E-3    9.066349863062794E-4    2.346631060031689E-1    4.579992190604408E-1
 8.150777554500000E9     8.710802071562569E-2    5.350678642357994E-1   -2.650800628184295E-3    8.326196673779005E-4   -2.672053026993138E-3    8.967953417736096E-4    2.348184072736027E-1    4.578708511920608E-1
 8.150783279650000E9     8.739814546186851E-2    5.349948102821118E-1   -2.637923642850412E-3    8.365415456826683E-4   -2.663765701969046E-3    8.900131247434170E-4    2.352646275065227E-1    4.576552597801491E-1
 8.150789004800000E9     8.783735400317208E-2    5.349409073096755E-1   -2.633419621283210E-3    8.401094227983787E-4   -2.662855817057155E-3    8.802615546352101E-4    2.354769595060981E-1    4.574745441469109E-1
 8.150794729950000E9     8.815384474720898E-2    5.349523294833481E-1   -2.627246429645982E-3    8.362432003890454E-4   -2.620337890386904E-3    8.879821286426864E-4    2.358242119360581E-1    4.572930084923962E-1
 8.150800455100000E9     8.859638827278549E-2    5.348292913686913E-1   -2.626798875533168E-3    8.360201825914786E-4   -2.621831354245915E-3    8.757960453721456E-4    2.361528309724519E-1    4.570764456978074E-1
 8.150806180250000E9     8.903771709871390E-2    5.348763013360092E-1   -2.655198226209539E-3    8.752606435743240E-4   -2.652578007374612E-3    8.881561890569050E-4    2.365798370895046E-1    4.570040170235620E-1
 8.150811905400000E9     8.945710185186685E-2    5.347648341922988E-1   -2.611048800873333E-3    8.755812880158948E-4   -2.657204263289865E-3    8.645172822407905E-4    2.369207849360318E-1    4.567150674130231E-1
 8.150817630550000E9     8.989194990587274E-2    5.347189911824223E-1   -2.648874256727023E-3    8.669517042194377E-4   -2.658211481418840E-3    9.274266093774524E-4    2.370711346505503E-1    4.566357196087239E-1
 8.150823355700000E9     9.035055787584051E-2    5.346588560865260E-1   -2.634861093386872E-3    8.517301607438126E-4   -2.666880199539355E-3    9.158863824694406E-4    2.374522842418209E-1    4.565184476913826E-1
 8.150829080850000E9     9.056948300770515E-2    5.343613171590592E-1   -2.622525402181137E-3    8.758686542815851E-4   -2.647290594571794E-3    9.067410706308200E-4    2.378376052532786E-1    4.563651741848185E-1
 8.150834806000000E9     9.100707031742920E-2    5.344922066895255E-1   -2.651425019107696E-3    8.607741592882361E-4   -2.658830329444364E-3    9.276806081334678E-4    2.382411428344110E-1    4.561216936384475E-1
 8.150840531150000E9     9.141360936608553E-2    5.344543292952008E-1   -2.635092732946966E-3    8.834941554373908E-4   -2.632370150146550E-3    9.386483775026081E-4    2.384200093347590E-1    4.558595788767372E-1
 8.150846256300000E9     9.175002925360032E-2    5.343344225517970E-1   -2.652407779467657E-3    8.631811739449179E-4   -2.642349360169738E-3    9.229555108593263E-4    2.387407923469205E-1    4.556384211080478E-1
 8.150851981450000E9     9.222544806100950E-2    5.342487222163517E-1   -2.630937504862922E-3    8.680249282729506E-4   -2.643030372094843E-3    9.005276708406873E-4    2.390248706395762E-1    4.553764234685446E-1
 8.150857706600000E9     9.255758824364281E-2    5.341973166121234E-1   -2.640913282783553E-3    8.764090068656273E-4   -2.655574638286874E-3    9.120915343130287E-4    2.393032970485913E-1    4.552505571814850E-1
 8.150863431750000E9     9.302037417298040E-2    5.341237415561032E-1   -2.631986758678775E-3    8.621500894538663E-4   -2.670568634389669E-3    9.303414243233764E-4    2.397636404278592E-1    4.551658883181913E-1
 8.150869156900000E9     9.332067075283740E-2    5.340448088261869E-1   -2.645139480926775E-3    8.645815462295732E-4   -2.656086968179488E-3    8.944628918187166E-4    2.400454979024413E-1    4.549156558672387E-1
 8.150874882050000E9     9.389063705917632E-2    5.340467596449826E-1   -2.635312112664339E-3    8.844251653779457E-4   -2.670975967942619E-3    9.243963204073526E-4    2.402593021128427E-1    4.548234605208368E-1
 8.150880607200000E9     9.428212829641756E-2    5.338340669942457E-1   -2.657458338581035E-3    9.109303175227600E-4   -2.668416423805427E-3    9.577726945621433E-4    2.406068189364614E-1    4.546191941737269E-1
 8.150886332350000E9     9.464397896941261E-2    5.339727321862793E-1   -2.654377011898704E-3    8.888832919004125E-4   -2.688610628007949E-3    9.385855275001482E-4    2.410775781918742E-1    4.544548395886528E-1
 8.150892057500000E9     9.497999140895970E-2    5.338708520542608E-1   -2.645766596099227E-3    8.976200678504510E-4   -2.650787989714632E-3    9.599240465226063E-4    2.414189912319704E-1    4.541852287499396E-1
 8.150897782650000E9     9.548587032468088E-2    5.338194629189602E-1   -2.663907966443030E-3    9.098963898643830E-4   -2.647368203177947E-3    9.314019353362156E-4    2.417252778931054E-1    4.539907135514620E-1
 8.150903507800000E9     9.589492255580709E-2    5.336279882281859E-1   -2.639325013239641E-3    8.945178067504121E-4   -2.690788826209347E-3    9.420746143712427E-4    2.419797811370498E-1    4.538782165580338E-1
 8.150909232950000E9     9.624803960314281E-2    5.337009991906010E-1   -2.650470035983023E-3    8.946619442909257E-4   -2.629800972055877E-3    9.712473665759448E-4    2.423340881556540E-1    4.536906579605404E-1
 8.150914958100000E9     9.673735824150731E-2    5.336982293231697E-1   -2.691197744666393E-3    9.308114077856460E-4   -2.650322573482411E-3    9.527282570978616E-4    2.426783104286460E-1    4.534825555756257E-1
 8.150920683250000E9     9.706308987778803E-2    5.336617109775103E-1   -2.674883340459032E-3    8.816765282012915E-4   -2.695145660376487E-3    9.395278948482011E-4    2.429719601391284E-1    4.534877926364901E-1
 8.150926408400000E9     9.747853780630809E-2    5.334718901958911E-1   -2.628943596558310E-3    9.278269492289409E-4   -2.673041400855398E-3    9.717947850054890E-4    2.433532357015523E-1    4.532410447599156E-1
 8.150932133550000E9     9.777672235599248E-2    5.334337400221348E-1   -2.664896296773273E-3    9.174614432430587E-4   -2.667215298387547E-3    9.770661088272362E-4    2.435623628626553E-1    4.531625192515580E-1
 8.150937858700000E9     9.824226562999443E-2    5.333077944936183E-1   -2.657182183748977E-3    9.116625883021944E-4   -2.685207652528894E-3    9.946372430066433E-4    2.438861416430026E-1    4.528097809202672E-1
 8.150943583850000E9     9.879793513565678E-2    5.333133215816268E-1   -2.679756288301490E-3    9.185179669372590E-4   -2.670505884413398E-3    9.613646668329875E-4    2.442635691356270E-1    4.525560979431972E-1
 8.150949309000000E9     9.923501006392670E-2    5.332988617200950E-1   -2.661008013395653E-3    9.087219289196310E-4   -2.700338254678991E-3    9.840724651626245E-4    2.444548889395810E-1    4.524555845084395E-1
 8.150955034150000E9     9.941429587296791E-2    5.330339406356290E-1   -2.668907198595314E-3    9.349592770576850E-4   -2.661330640080978E-3    9.475968495913825E-4    2.448154310861627E-1    4.523532828701854E-1
 8.150960759300000E9     9.996141468223417E-2    5.331135392365488E-1   -2.652745260184752E-3    9.268153738093275E-4   -2.691117433491027E-3    9.734245221077682E-4    2.451751943488815E-1    4.521341151516923E-1
 8.150966484450000E9     1.004218016645635E-1    5.330998793748503E-1   -2.670052316784712E-3    9.285915345623901E-4   -2.664209437667874E-3    9.540004684151354E-4    2.454966038672615E-1    4.518557840210999E-1
 8.150972209600000E9     1.007370385970579E-1    5.329831214409398E-1   -2.666200885205406E-3    9.496888120427295E-4   -2.664626438797798E-3    1.009878446213522E-3    2.459480704525651E-1    4.516553522629866E-1
 8.150977934750000E9     1.012665040272304E-1    5.329484603633311E-1   -2.668573539680253E-3    9.419955956122301E-4   -2.654134397548259E-3    1.001489752094552E-3    2.461694070790534E-1    4.515592851710964E-1
 8.150983659900000E9     1.014578884170197E-1    5.327682655151090E-1   -2.701688652810140E-3    9.419108643162239E-4   -2.686857739126337E-3    9.846965879820699E-4    2.463572190271329E-1    4.514363177116014E-1
 8.150989385050000E9     1.019953578072209E-1    5.327936389813793E-1   -2.654674675504707E-3    9.530363221045512E-4   -2.665086956315324E-3    9.745523793613379E-4    2.468659959195892E-1    4.511566256380058E-1
 8.150995110200000E9     1.023057276587911E-1    5.326780103431280E-1   -2.691037838702921E-3    9.638729956457910E-4   -2.686195143561123E-3    9.963970819904119E-4    2.472197024733259E-1    4.509570111585879E-1
 8.151000835350000E9     1.027575164692139E-1    5.325666352215310E-1   -2.673817327426817E-3    9.453316718921229E-4   -2.676320054919947E-3    9.909123323420196E-4    2.475191132298734E-1    4.507253189586564E-1
 8.151006560500000E9     1.032261079980431E-1    5.325040108367665E-1   -2.682136072266498E-3    9.630690363572635E-4   -2.702946498775376E-3    9.968692495903699E-4    2.477408864749150E-1    4.506453195068422E-1
 8.151012285650000E9     1.035417255941344E-1    5.323983482782384E-1   -2.683862602977982E-3    9.703841635940024E-4   -2.707855229119625E-3    1.046966341411102E-3    2.480781999440075E-1    4.506224269063612E-1
 8.151018010800000E9     1.039663141884657E-1    5.325048350890931E-1   -2.663520502014058E-3    9.735865796547143E-4   -2.705442240941899E-3    1.018756774155806E-3    2.484188406037019E-1    4.502494554152008E-1
 8.151023735950000E9     1.042473655393335E-1    5.323186651308285E-1   -2.676611656089936E-3    9.691593908199886E-4   -2.671556331439960E-3    9.899565299785040E-4    2.487750713575756E-1    4.502739715697860E-1
 8.151029461100000E9     1.048489159845157E-1    5.323440905446574E-1   -2.676662694281589E-3    9.608456664264974E-4   -2.685850377813722E-3    1.029108613903266E-3    2.490092125107092E-1    4.499467464433067E-1
 8.151035186250000E9     1.052075099420026E-1    5.321937116713212E-1   -2.683526128703684E-3    9.875539098505711E-4   -2.687958155803558E-3    9.945822440630874E-4    2.493628661648743E-1    4.498429350976848E-1
 8.151040911400000E9     1.055831037233530E-1    5.319761562422750E-1   -2.676360696232523E-3    9.680726389262410E-4   -2.690928683369120E-3    1.026458957714726E-3    2.497184243217425E-1    4.496028833865359E-1
 8.151046636550000E9     1.060099507407836E-1    5.320766644520712E-1   -2.685223104028038E-3    9.829510802090847E-4   -2.692439052124279E-3    1.024676338245393E-3    2.500241136118388E-1    4.492380309789719E-1
 8.151052361700000E9     1.063794624647249E-1    5.318971912109005E-1   -2.660638386347604E-3    9.953725922300554E-4   -2.715498541212320E-3    1.048215788494295E-3    2.504218951759090E-1    4.490457094474911E-1
 8.151058086850000E9     1.067255755174303E-1    5.318779053760616E-1   -2.696874378545560E-3    9.667523350099553E-4   -2.679129807118923E-3    9.929146592799907E-4    2.504633324892342E-1    4.489968320788918E-1
 8.151063812000000E9     1.070719246202117E-1    5.318275887848798E-1   -2.696465175748793E-3    9.693951258715129E-4   -2.684996458790608E-3    1.014025167338693E-3    2.508723253372280E-1    4.487848652861589E-1
 8.151069537150000E9     1.075643939708574E-1    5.317682114262146E-1   -2.679318995928420E-3    9.934768496656088E-4   -2.682954520595118E-3    1.050694553383866E-3    2.513445787991153E-1    4.487639801212734E-1
 8.151075262300000E9     1.080380513729803E-1    5.316995523576759E-1   -2.693370652177748E-3    1.004979981571791E-3   -2.682230685428293E-3    1.064134875872537E-3    2.516104499559417E-1    4.484721440666698E-1
 8.151080987450000E9     1.084919499174617E-1    5.315644360715372E-1   -2.698022894700403E-3    9.921095882480734E-4   -2.702312728903296E-3    1.055384427379884E-3    2.518927894767737E-1    4.481343753264868E-1
 8.151086712600000E9     1.088216691739331E-1    5.315280648724641E-1   -2.682229734520794E-3    9.925816133168758E-4   -2.724326641167500E-3    1.066887378756576E-3    2.522311785246591E-1    4.479875887884787E-1
 8.151092437750000E9     1.092127025356833E-1    5.314357097503809E-1   -2.689031541587834E-3    1.008530816180978E-3   -2.711800897560164E-3    1.070690284031402E-3    2.526316642269515E-1    4.478925976657329E-1
 8.151098162900000E9     1.094834177352290E-1    5.313291302740495E-1   -2.695332741377334E-3    1.002867901509300E-3   -2.720233461578097E-3    1.073554761159430E-3    2.527189378070390E-1    4.475402953148593E-1
 8.151103888050000E9     1.099829826497778E-1    5.312663004490281E-1   -2.699329490129039E-3    1.000424228288098E-3   -2.716443745406806E-3    1.054244888001220E-3    2.533048860656031E-1    4.475587396193020E-1
 8.151109613200000E9     1.103644169877807E-1    5.312612140450791E-1   -2.706839662245532E-3    1.011606836165255E-3   -2.702595830470788E-3    1.056270089730221E-3    2.534551201582733E-1    4.471742553988049E-1
 8.151115338350000E9     1.108108353197284E-1    5.310291464415670E-1   -2.690620489393549E-3    1.004888987575133E-3   -2.728961474090674E-3    1.078013179820335E-3    2.538372093903088E-1    4.471435258441675E-1
 8.151121063500000E9     1.112213434962468E-1    5.310516806532366E-1   -2.702987262727143E-3    1.026729599458338E-3   -2.726403759194214E-3    1.049942652324321E-3    2.541877965535557E-1    4.468669462063706E-1
