#  HZ   S   RI   R     50.00 
! Rohde & Schwarz Vector Network Analyzer 
! Rohde-Schwarz,ZNB20-2Port,1311601062101988,3.16
! Created: UTC 3/21/2024, 12:50:49 AM
! freq[Hz]                re:S11                  im:S11                  re:S21                  im:S21                  re:S12                  im:S12                  re:S22                  im:S22
 8.151414623000000E9     1.374551820727871E-1    5.263493194036437E-1   -3.219783251959776E-3    1.483561920185119E-3   -3.216009860932712E-3    1.514123106588557E-3    2.780680649525203E-1    4.324476298322231E-1
 8.151416042575000E9     1.376007115783600E-1    5.263171263629948E-1   -3.236418332370156E-3    1.464423427481073E-3   -3.226607276841551E-3    1.529630892961815E-3    2.780399620315189E-1    4.324632173673025E-1
 8.151417462150000E9     1.376151269244572E-1    5.263635390002520E-1   -3.208407133904436E-3    1.458627257981914E-3   -3.244141435463886E-3    1.524178702207050E-3    2.782694792183570E-1    4.326245506636513E-1
 8.151418881725000E9     1.379084691921166E-1    5.262690238224330E-1   -3.231670513344864E-3    1.449502597095049E-3   -3.244698676401188E-3    1.490945145043023E-3    2.781685405315119E-1    4.323468681319041E-1
 8.151420301300000E9     1.378459083280815E-1    5.262352164423396E-1   -3.264891059574055E-3    1.481173573731760E-3   -3.234494829950620E-3    1.486264151195691E-3    2.784463914497961E-1    4.322568527815152E-1
 8.151421720875000E9     1.380758690132730E-1    5.262304614319198E-1   -3.251031234587550E-3    1.476385354232257E-3   -3.239724630277715E-3    1.559418040279903E-3    2.785039700571286E-1    4.322834418215413E-1
 8.151423140450000E9     1.380833903109062E-1    5.259819304818542E-1   -3.237998673351076E-3    1.463104680283428E-3   -3.249151907376687E-3    1.530931464951312E-3    2.785040285015151E-1    4.320790579858815E-1
 8.151424560025000E9     1.382208775787662E-1    5.261566902954593E-1   -3.242683319934594E-3    1.477063513709210E-3   -3.258304465222224E-3    1.535473295936025E-3    2.784886330775129E-1    4.321304826966081E-1
 8.151425979600000E9     1.383454988361592E-1    5.260319589146929E-1   -3.252207819221791E-3    1.496510321692802E-3   -3.277407535831417E-3    1.560992244836418E-3    2.786385285603645E-1    4.322514282660258E-1
 8.151427399175000E9     1.384896781750524E-1    5.260842881753470E-1   -3.269046920427170E-3    1.482004735819193E-3   -3.283219004339336E-3    1.549131097466907E-3    2.786722757565442E-1    4.320527910056425E-1
 8.151428818750000E9     1.386201054145733E-1    5.259826680048807E-1   -3.285228419450132E-3    1.465685999713254E-3   -3.268418404857764E-3    1.565074212777945E-3    2.788657026562320E-1    4.319263243942527E-1
 8.151430238325000E9     1.388416096526596E-1    5.260586823197912E-1   -3.297206527777020E-3    1.514826435783879E-3   -3.286880350521866E-3    1.582582795514163E-3    2.789446037975432E-1    4.319948100149362E-1
 8.151431657900000E9     1.389446658541270E-1    5.260183795764793E-1   -3.274423676719491E-3    1.479531217407401E-3   -3.280548626561194E-3    1.569016412136143E-3    2.789681014444275E-1    4.318763166274182E-1
 8.151433077475000E9     1.391005984748848E-1    5.259174466456464E-1   -3.285425853752216E-3    1.501588456402615E-3   -3.288480929584010E-3    1.589138106720237E-3    2.790774186180593E-1    4.318803254711156E-1
 8.151434497050000E9     1.392245395712179E-1    5.258634909070531E-1   -3.283066487386592E-3    1.498388796881411E-3   -3.276975909119124E-3    1.588745682132289E-3    2.791546658403853E-1    4.317811533486705E-1
 8.151435916625000E9     1.392814136227972E-1    5.258287556547844E-1   -3.318234090152672E-3    1.521562076600335E-3   -3.275712356292916E-3    1.574915162621737E-3    2.791597410067991E-1    4.316856573728004E-1
 8.151437336200000E9     1.394327194227212E-1    5.258058676831188E-1   -3.284978407761472E-3    1.518588605031952E-3   -3.309693350367806E-3    1.577899568752001E-3    2.792148157411234E-1    4.318050965309907E-1
 8.151438755775000E9     1.394905649794110E-1    5.259304102627986E-1   -3.298712498841911E-3    1.515097751772700E-3   -3.318707921899363E-3    1.614766964192186E-3    2.793747902262557E-1    4.316560734915133E-1
 8.151440175350000E9     1.396681003933528E-1    5.256872007600563E-1   -3.307498841633179E-3    1.508935537312022E-3   -3.326901444096343E-3    1.566072384417794E-3    2.793211275683254E-1    4.315572804138433E-1
 8.151441594925000E9     1.397949524511120E-1    5.256335214112731E-1   -3.265548485675964E-3    1.516794955703433E-3   -3.306735432023960E-3    1.569262236772565E-3    2.795306810810228E-1    4.315887406356829E-1
 8.151443014500000E9     1.400053297986602E-1    5.257035652070919E-1   -3.295338282830220E-3    1.541498408553236E-3   -3.330061019199551E-3    1.585027038951187E-3    2.794988430134697E-1    4.315404103390091E-1
 8.151444434075000E9     1.401114369542216E-1    5.254419405681001E-1   -3.323809062666359E-3    1.535004835383418E-3   -3.343276033140951E-3    1.580819182369216E-3    2.796528178553743E-1    4.315118030488731E-1
 8.151445853650000E9     1.401193992833335E-1    5.255635689482632E-1   -3.322759525935816E-3    1.537463683185442E-3   -3.296914944835229E-3    1.595358517112806E-3    2.796725231941546E-1    4.314059276428270E-1
 8.151447273225000E9     1.402657178516126E-1    5.255123166444006E-1   -3.341868509283728E-3    1.529145393401222E-3   -3.337873630370255E-3    1.623069378762067E-3    2.797042428543440E-1    4.313820371347015E-1
 8.151448692800000E9     1.403394350533951E-1    5.254546642451052E-1   -3.317532673853642E-3    1.562057212595710E-3   -3.320971969038900E-3    1.613641535871655E-3    2.798799494446630E-1    4.313431456405771E-1
 8.151450112375000E9     1.405829851426732E-1    5.255047430773071E-1   -3.305006645328490E-3    1.569898325636247E-3   -3.331033856794292E-3    1.605617326031923E-3    2.798917207860817E-1    4.310641371993236E-1
 8.151451531950000E9     1.406673385085391E-1    5.254405116094140E-1   -3.326658832230043E-3    1.576640884464839E-3   -3.334812508870746E-3    1.607459792001647E-3    2.799954296216300E-1    4.312243062899723E-1
 8.151452951525000E9     1.407966070198500E-1    5.255181710810855E-1   -3.359250823657638E-3    1.555890919924949E-3   -3.379811933467071E-3    1.634763743564302E-3    2.801374186042502E-1    4.311460527039556E-1
 8.151454371100000E9     1.409876961690077E-1    5.253930823705377E-1   -3.350927604525314E-3    1.547949004751710E-3   -3.322359043733534E-3    1.636853622054448E-3    2.802974766594564E-1    4.309340354261574E-1
 8.151455790675000E9     1.409105539849239E-1    5.254059390789603E-1   -3.362893447521498E-3    1.565278910752207E-3   -3.353929743317948E-3    1.632005998848349E-3    2.801540312205600E-1    4.309357936434562E-1
 8.151457210250000E9     1.411282123868502E-1    5.252109493457944E-1   -3.359296963121454E-3    1.590880716266645E-3   -3.367433034375287E-3    1.628836682837989E-3    2.804114315426955E-1    4.310263371468397E-1
 8.151458629825000E9     1.412965593241659E-1    5.252832483045933E-1   -3.364369341406946E-3    1.596788953166793E-3   -3.372115481630255E-3    1.629399745021094E-3    2.804932853617357E-1    4.307742169026255E-1
 8.151460049400000E9     1.415497827237240E-1    5.251452463007605E-1   -3.373576994127668E-3    1.576270715714800E-3   -3.376906352534915E-3    1.676224030117043E-3    2.803467716490780E-1    4.308730581555815E-1
 8.151461468975000E9     1.416164774454541E-1    5.252544022677291E-1   -3.398997907191634E-3    1.601455883853771E-3   -3.372305423628877E-3    1.658119795056787E-3    2.805561661388788E-1    4.307287503751465E-1
 8.151462888550000E9     1.417060081995317E-1    5.250363985775146E-1   -3.375466330502994E-3    1.574690284661158E-3   -3.388669060442477E-3    1.672824736435288E-3    2.805966641655971E-1    4.307457253379793E-1
 8.151464308125000E9     1.418698446805991E-1    5.251280364827962E-1   -3.378969789234292E-3    1.599599790070047E-3   -3.432431415017693E-3    1.636877053795501E-3    2.806497317132236E-1    4.307784398348518E-1
 8.151465727700000E9     1.419507477108738E-1    5.251285163527268E-1   -3.388999224558892E-3    1.619171485461551E-3   -3.393546598828668E-3    1.644500276984340E-3    2.808162125052827E-1    4.306572954904292E-1
 8.151467147275000E9     1.421436888808157E-1    5.249730868147447E-1   -3.389760566045445E-3    1.604666889119256E-3   -3.396402247121783E-3    1.665513339774426E-3    2.807519816191914E-1    4.304690586795267E-1
 8.151468566850000E9     1.421820775275955E-1    5.249380050010816E-1   -3.424892336740840E-3    1.608169839707646E-3   -3.388055752951454E-3    1.658041678838436E-3    2.809497449110925E-1    4.304787972842558E-1
 8.151469986425000E9     1.423631968250028E-1    5.248723859788906E-1   -3.412866915265248E-3    1.619258209927163E-3   -3.407784795084285E-3    1.699946826462810E-3    2.810349910453375E-1    4.304556674457582E-1
 8.151471406000000E9     1.424571455365520E-1    5.248183309512364E-1   -3.430182291995841E-3    1.639852406934646E-3   -3.432309606970069E-3    1.672516984907032E-3    2.810818522317405E-1    4.304129461840346E-1
 8.151472825575000E9     1.425411764627787E-1    5.249403175392869E-1   -3.412180607808919E-3    1.641153209925843E-3   -3.437477940616722E-3    1.689747394395197E-3    2.813820652932894E-1    4.303915350250092E-1
 8.151474245150000E9     1.427348745675639E-1    5.249196503831276E-1   -3.399449005119977E-3    1.634761281886371E-3   -3.451154588615685E-3    1.693975338109329E-3    2.812282377111430E-1    4.303439810258109E-1
 8.151475664725000E9     1.428165639614254E-1    5.248176138214080E-1   -3.462213597804457E-3    1.634728008600918E-3   -3.442625391870879E-3    1.704098093682677E-3    2.814258194178574E-1    4.303082721191187E-1
 8.151477084300000E9     1.430819655608995E-1    5.248282182976262E-1   -3.409523399871090E-3    1.667008580801714E-3   -3.438969852617180E-3    1.710684217029345E-3    2.813762735671910E-1    4.302170510527314E-1
 8.151478503875000E9     1.431760414087679E-1    5.247395371971925E-1   -3.456807155980319E-3    1.653859661594338E-3   -3.435157610770164E-3    1.711652692122001E-3    2.815716453227223E-1    4.302345982356072E-1
 8.151479923450000E9     1.433050693638322E-1    5.246463526577624E-1   -3.447998487397846E-3    1.665293785020322E-3   -3.474952697451355E-3    1.748634626440924E-3    2.816358726038564E-1    4.300124194087748E-1
 8.151481343025000E9     1.433112561899541E-1    5.246385713401527E-1   -3.447421236980857E-3    1.686275049833129E-3   -3.473017129149044E-3    1.714410031662565E-3    2.816749678066307E-1    4.299900377096276E-1
 8.151482762600000E9     1.434842646726187E-1    5.246118191703794E-1   -3.472691187399432E-3    1.684262740487023E-3   -3.491749700319549E-3    1.740214651796096E-3    2.818037246811427E-1    4.299920116065534E-1
 8.151484182175000E9     1.436744668442603E-1    5.245511224305909E-1   -3.497475144404787E-3    1.682064166521157E-3   -3.475878622936169E-3    1.739286039059458E-3    2.817449246450578E-1    4.300356472959769E-1
 8.151485601750000E9     1.437879165802191E-1    5.245215964969075E-1   -3.487839861956861E-3    1.672145573238707E-3   -3.489472896013786E-3    1.754418651462199E-3    2.817859487837506E-1    4.299691640576476E-1
 8.151487021325000E9     1.438932672915423E-1    5.243844618035316E-1   -3.478520342933280E-3    1.718437730931148E-3   -3.477714265595450E-3    1.747223224628423E-3    2.818882190088368E-1    4.297371851612670E-1
 8.151488440900000E9     1.441156287663617E-1    5.243612527568605E-1   -3.488118495902857E-3    1.710989852740868E-3   -3.508363511145176E-3    1.779994309174796E-3    2.819550433296890E-1    4.298834655163192E-1
 8.151489860475000E9     1.441510700276049E-1    5.244485156304033E-1   -3.504705221542091E-3    1.702143062298422E-3   -3.502210717948357E-3    1.761548058709866E-3    2.821702980744303E-1    4.298166834975020E-1
 8.151491280050000E9     1.443372541354871E-1    5.242685977734537E-1   -3.495647567199796E-3    1.705931198047697E-3   -3.514506512854697E-3    1.759827245505119E-3    2.821952672264027E-1    4.296576062253303E-1
 8.151492699625000E9     1.444985538628783E-1    5.243209796222755E-1   -3.535964748739993E-3    1.712132316327306E-3   -3.553168634944077E-3    1.747344274582057E-3    2.823082346012812E-1    4.295539612892847E-1
 8.151494119200000E9     1.445842721155280E-1    5.242553226071286E-1   -3.517696796361808E-3    1.735825107270105E-3   -3.525991373790437E-3    1.790966825581288E-3    2.822405577420688E-1    4.295601461828851E-1
 8.151495538775000E9     1.448302710604170E-1    5.241554644287600E-1   -3.533102942970908E-3    1.744171131706917E-3   -3.548094915016755E-3    1.778342989162750E-3    2.823018271656719E-1    4.294340094391685E-1
 8.151496958350000E9     1.448978382518802E-1    5.242023988151157E-1   -3.554967465482130E-3    1.716549787450833E-3   -3.560896079306852E-3    1.808546563441571E-3    2.824753758514938E-1    4.294892527816319E-1
 8.151498377925000E9     1.450075705475285E-1    5.240759926089292E-1   -3.548357271065425E-3    1.745898067541662E-3   -3.541829267519373E-3    1.811363204204500E-3    2.825867508872670E-1    4.294684367197224E-1
 8.151499797500000E9     1.452665769236386E-1    5.241470528645317E-1   -3.542555216010675E-3    1.753127779086679E-3   -3.540535860712640E-3    1.818436495204918E-3    2.824069235268639E-1    4.294056034211585E-1
 8.151501217075000E9     1.451817630651684E-1    5.241108774474899E-1   -3.558536968283586E-3    1.725750000588857E-3   -3.568848115529108E-3    1.813768769844009E-3    2.827074652405697E-1    4.293641342005072E-1
 8.151502636650000E9     1.454847504649209E-1    5.240420900539696E-1   -3.555083885257095E-3    1.776098053987092E-3   -3.587714778100961E-3    1.825055068127084E-3    2.827363535754785E-1    4.291989210153658E-1
 8.151504056225000E9     1.456206027073512E-1    5.238438211517403E-1   -3.555118349358757E-3    1.757939203454992E-3   -3.595085197943616E-3    1.832860051873886E-3    2.829075693526567E-1    4.292691588736778E-1
 8.151505475800000E9     1.458463323204423E-1    5.238458339725127E-1   -3.590078652977043E-3    1.771264833293519E-3   -3.553867452161462E-3    1.866666686875913E-3    2.828750762053444E-1    4.291403490962346E-1
 8.151506895375000E9     1.458700729437262E-1    5.237710777168127E-1   -3.596087295279072E-3    1.786723357155718E-3   -3.613567816125548E-3    1.821132687499873E-3    2.829438348301827E-1    4.289434337409622E-1
 8.151508314950000E9     1.459956047912349E-1    5.238548923342032E-1   -3.604856246998934E-3    1.798165164770451E-3   -3.600067545697788E-3    1.843740753443514E-3    2.830833346514530E-1    4.290579660503202E-1
 8.151509734525000E9     1.462291424592540E-1    5.238672866966014E-1   -3.615817538639543E-3    1.806204807532968E-3   -3.614860602879430E-3    1.858877855970940E-3    2.832129269991464E-1    4.289162651839782E-1
 8.151511154100000E9     1.462801591773364E-1    5.236759910089945E-1   -3.602781845974514E-3    1.832421754114168E-3   -3.603294875572946E-3    1.879926938050457E-3    2.833114712017917E-1    4.290183496145010E-1
 8.151512573675000E9     1.464630470181454E-1    5.236904267933642E-1   -3.625690963958997E-3    1.810524036639870E-3   -3.629380174877430E-3    1.870269322644305E-3    2.834325687268753E-1    4.288808164792750E-1
 8.151513993250000E9     1.465883317414045E-1    5.236488712126747E-1   -3.633202533170897E-3    1.845201193801947E-3   -3.650099479759468E-3    1.907505516129608E-3    2.832775643671808E-1    4.289413079378756E-1
 8.151515412825000E9     1.466985145054482E-1    5.235340166367297E-1   -3.643797152949432E-3    1.835270325054242E-3   -3.641779688977820E-3    1.898455324588668E-3    2.832932494347148E-1    4.288601466555352E-1
 8.151516832400000E9     1.469789763120823E-1    5.235417789728674E-1   -3.666344604890368E-3    1.835730455983330E-3   -3.635581108557636E-3    1.883220741080391E-3    2.835729384226718E-1    4.286403656578289E-1
 8.151518251975000E9     1.470207906523462E-1    5.233511784685175E-1   -3.642206545118439E-3    1.840453942387115E-3   -3.691466904017583E-3    1.902168927947849E-3    2.835887773205191E-1    4.286925288313053E-1
 8.151519671550000E9     1.472131483329353E-1    5.233799804099857E-1   -3.677735460029989E-3    1.839519825709339E-3   -3.654518350607298E-3    1.892041611706503E-3    2.837967999701447E-1    4.286014952645023E-1
 8.151521091125000E9     1.473696915189676E-1    5.233288257902521E-1   -3.667528625571730E-3    1.861671398297186E-3   -3.675666304767367E-3    1.912616793397984E-3    2.837684626703450E-1    4.285563600365162E-1
 8.151522510700000E9     1.474955192862579E-1    5.233158715764160E-1   -3.675090492488062E-3    1.865786946239160E-3   -3.721605093263165E-3    1.950937577110478E-3    2.838301531006678E-1    4.285697123117974E-1
 8.151523930275000E9     1.476233640956021E-1    5.231629627576169E-1   -3.694191698896925E-3    1.887940120610498E-3   -3.682229798573868E-3    1.940263197298200E-3    2.840684148060487E-1    4.284994290401328E-1
 8.151525349850000E9     1.478608032852409E-1    5.231521199669842E-1   -3.697811681547286E-3    1.879324435286157E-3   -3.704923355442365E-3    1.964286346394440E-3    2.839945981414859E-1    4.283945181792868E-1
 8.151526769425000E9     1.479609094616408E-1    5.232053749147347E-1   -3.706715114632282E-3    1.886540046958028E-3   -3.721996609958041E-3    1.969232974278736E-3    2.840906947208749E-1    4.283821191006218E-1
 8.151528189000000E9     1.481315700689424E-1    5.230714769948877E-1   -3.686874258414325E-3    1.924117664199283E-3   -3.718222895432380E-3    1.972487828719713E-3    2.842476654623473E-1    4.283705759590213E-1
 8.151529608575000E9     1.481966706158770E-1    5.230516561646947E-1   -3.736151575691245E-3    1.935725601031840E-3   -3.699742396939265E-3    1.984102372820762E-3    2.842186933672301E-1    4.282676897926966E-1
 8.151531028150000E9     1.484005971520268E-1    5.229598514410927E-1   -3.731990132150434E-3    1.918572995673536E-3   -3.721206289676595E-3    2.008265393427046E-3    2.843214938673315E-1    4.281824189710105E-1
 8.151532447725000E9     1.484994923091228E-1    5.229164385585220E-1   -3.777763530778619E-3    1.930274868614079E-3   -3.766493435880847E-3    1.978305089668091E-3    2.844015372584983E-1    4.281333356543652E-1
 8.151533867300000E9     1.486322138099662E-1    5.228343104377611E-1   -3.776008422695731E-3    1.930396605277757E-3   -3.767008348295269E-3    2.006828702806958E-3    2.844115611529228E-1    4.280723030208438E-1
 8.151535286875000E9     1.489613866745372E-1    5.228033544985182E-1   -3.779577880667232E-3    1.933831003025175E-3   -3.774693557269337E-3    2.018399481561321E-3    2.846556441333370E-1    4.279707752867919E-1
 8.151536706450000E9     1.490267580835611E-1    5.225350462305108E-1   -3.768921085882649E-3    1.946765376347743E-3   -3.782808830101236E-3    2.050510583954800E-3    2.846011171970407E-1    4.280880720781993E-1
 8.151538126025000E9     1.491348120093180E-1    5.226172060490724E-1   -3.784970387590077E-3    1.945989010552290E-3   -3.813650533019231E-3    2.034788514559608E-3    2.847734052949558E-1    4.280136091332453E-1
 8.151539545600000E9     1.492553794288804E-1    5.226749338046494E-1   -3.801270922476951E-3    1.985763954445184E-3   -3.797663476605948E-3    2.038788442730512E-3    2.847521149375857E-1    4.278619034222792E-1
 8.151540965175000E9     1.495218901605149E-1    5.226162856521145E-1   -3.823611965208148E-3    2.021144884535685E-3   -3.803067947452000E-3    2.031352071947371E-3    2.849262494783284E-1    4.278012679910331E-1
 8.151542384750000E9     1.497594607357741E-1    5.225199680285657E-1   -3.853651384244366E-3    1.995345902114013E-3   -3.846254486140293E-3    2.069207118823728E-3    2.848808725329908E-1    4.278357761794656E-1
