#  HZ   S   RI   R     50.00 
! Rohde & Schwarz Vector Network Analyzer 
! Rohde-Schwarz,ZNB20-2Port,1311601062101988,3.16
! Created: UTC 3/21/2024, 12:56:10 AM
! freq[Hz]                re:S11                  im:S11                  re:S21                  im:S21                  re:S12                  im:S12                  re:S22                  im:S22
 8.150568009000000E9     7.200152312360984E-2    5.369277636152724E-1   -2.604495850628206E-3    7.391553918304807E-4   -2.657368774839945E-3    7.944435183838857E-4    2.226002596819542E-1    4.642434502869308E-1
 8.150573919550000E9     7.251813972718126E-2    5.368260799167935E-1   -2.628448344878098E-3    7.396990196285993E-4   -2.616913129709059E-3    8.154930022019769E-4    2.230256454014500E-1    4.639610191070195E-1
 8.150579830100000E9     7.302596100564521E-2    5.367552710949601E-1   -2.602576799547862E-3    7.496450905585521E-4   -2.609780346975200E-3    8.008313310900480E-4    2.232772443826859E-1    4.638603756104782E-1
 8.150585740650000E9     7.344201209896695E-2    5.366839759676315E-1   -2.630179490494739E-3    7.450660058085593E-4   -2.636529251836518E-3    7.955943307164515E-4    2.235799829394748E-1    4.637028472963024E-1
 8.150591651200000E9     7.379886503735782E-2    5.366934931923830E-1   -2.613533796909847E-3    7.429619113523154E-4   -2.629160768506130E-3    7.915227900436686E-4    2.239794294081772E-1    4.636573124201152E-1
 8.150597561750000E9     7.427679966485741E-2    5.367364194781323E-1   -2.606502143157212E-3    7.493599539176326E-4   -2.614826990694449E-3    8.090750168007481E-4    2.242927748269317E-1    4.633641069748557E-1
 8.150603472300000E9     7.473707334499421E-2    5.368042386105945E-1   -2.589587481778440E-3    7.697556558328588E-4   -2.627931906442955E-3    8.309317691057041E-4    2.245917198293852E-1    4.631544414110270E-1
 8.150609382850000E9     7.512256252407971E-2    5.364925578173338E-1   -2.615412205093163E-3    7.276251413006062E-4   -2.616863483785213E-3    8.313523659948100E-4    2.249975010201928E-1    4.630332399793489E-1
 8.150615293400000E9     7.541157524346377E-2    5.364373842265543E-1   -2.600807328810302E-3    7.778689287584510E-4   -2.621206689503368E-3    8.132247239526443E-4    2.253448206037914E-1    4.629072507861345E-1
 8.150621203950000E9     7.601644159207599E-2    5.365481987498061E-1   -2.613059673868638E-3    7.908099200348307E-4   -2.627517057424421E-3    8.114976360476656E-4    2.256931231862487E-1    4.626889764388218E-1
 8.150627114500000E9     7.636270124447336E-2    5.365664347467527E-1   -2.604945730335992E-3    7.943411116370832E-4   -2.609977406323207E-3    8.124849720804957E-4    2.259477100078060E-1    4.625800988256020E-1
 8.150633025050000E9     7.686951714586911E-2    5.363463834361148E-1   -2.613411180046578E-3    7.696784330648131E-4   -2.626286967408732E-3    8.061235177810438E-4    2.263103797674017E-1    4.623515382021424E-1
 8.150638935600000E9     7.717391684182777E-2    5.364124319210128E-1   -2.623464727056500E-3    7.743862872293660E-4   -2.642467401506402E-3    8.325590262371370E-4    2.266958112086434E-1    4.622803155918875E-1
 8.150644846150000E9     7.764958406703130E-2    5.362763772768983E-1   -2.615966661398346E-3    7.580024510399046E-4   -2.647839065505250E-3    8.395532024950840E-4    2.268583256360141E-1    4.619686273450576E-1
 8.150650756700000E9     7.799540030139594E-2    5.362382388185098E-1   -2.587729404924921E-3    7.618253649779034E-4   -2.658840079328914E-3    8.250052754657850E-4    2.272957908016637E-1    4.617596364814470E-1
 8.150656667250000E9     7.840155216371721E-2    5.361562993379689E-1   -2.604714249167139E-3    7.835789742136967E-4   -2.645328887225637E-3    8.034198764109569E-4    2.277869316073520E-1    4.614775151642431E-1
 8.150662577800000E9     7.892840357713032E-2    5.361824897427500E-1   -2.619709050967972E-3    8.138430992153117E-4   -2.624182674153805E-3    8.482819048634652E-4    2.280144440022040E-1    4.615362220706917E-1
 8.150668488350000E9     7.915116222909684E-2    5.360168984327477E-1   -2.620672043898734E-3    7.797211610616909E-4   -2.596945336080695E-3    8.110118635488544E-4    2.284597469842915E-1    4.613360911892099E-1
 8.150674398900000E9     7.967948600917819E-2    5.360375653903761E-1   -2.633664079498910E-3    7.898003395983583E-4   -2.640247384726206E-3    8.347908298714943E-4    2.286906656239856E-1    4.612366614945356E-1
 8.150680309450000E9     8.004059141539506E-2    5.359911899368891E-1   -2.615683961115049E-3    7.864144333820437E-4   -2.660131165545823E-3    8.343926675355107E-4    2.290838525179330E-1    4.608599996900217E-1
 8.150686220000000E9     8.056217760384202E-2    5.358995130931293E-1   -2.622103480272125E-3    7.590749976849048E-4   -2.630963495731027E-3    8.315223367529512E-4    2.293707926097654E-1    4.608396784193791E-1
 8.150692130550000E9     8.087065554976011E-2    5.358025485721436E-1   -2.603870684251911E-3    7.982965482924700E-4   -2.630811418389832E-3    8.586541377020243E-4    2.297521580994758E-1    4.605665407548340E-1
 8.150698041100000E9     8.135235191657188E-2    5.359375699282708E-1   -2.624689956216450E-3    7.936813671519415E-4   -2.641886802310475E-3    8.564274919112684E-4    2.300923406147795E-1    4.602760818501158E-1
 8.150703951650000E9     8.173866219358071E-2    5.358063806084231E-1   -2.667093333505094E-3    8.154406855009353E-4   -2.606010294433984E-3    8.814037425701066E-4    2.303195991358207E-1    4.601836884678460E-1
 8.150709862200000E9     8.218887533916469E-2    5.356901613258037E-1   -2.636314347859344E-3    8.126176343498892E-4   -2.657083544762508E-3    8.511683150978639E-4    2.308720805596650E-1    4.600598248450440E-1
 8.150715772750000E9     8.259330184289569E-2    5.356945243443643E-1   -2.612305528904601E-3    8.000854385872225E-4   -2.619671069954517E-3    8.673948459715705E-4    2.311292117937511E-1    4.598767932575276E-1
 8.150721683300000E9     8.291920456678134E-2    5.355198339794688E-1   -2.632168785344626E-3    8.100565120107580E-4   -2.643116206911667E-3    8.909107067978873E-4    2.314694155664820E-1    4.598356732423884E-1
 8.150727593850000E9     8.340520803093397E-2    5.356905800306896E-1   -2.637700614992812E-3    8.082688035015533E-4   -2.654380211256979E-3    8.414269409016230E-4    2.319003108896567E-1    4.594323245651415E-1
 8.150733504400000E9     8.380279530244325E-2    5.354744179813201E-1   -2.627227435275321E-3    8.050539210384771E-4   -2.634552039317148E-3    8.682031549010423E-4    2.321108453062287E-1    4.593162698957328E-1
 8.150739414950000E9     8.423426414441956E-2    5.353881354916850E-1   -2.634236113302674E-3    8.226015801994038E-4   -2.678921951611642E-3    8.657213877584601E-4    2.324155777793599E-1    4.593142202606358E-1
 8.150745325500000E9     8.460229519610282E-2    5.353188242645016E-1   -2.645820729120034E-3    8.099346215611131E-4   -2.622896591284565E-3    8.714195217171868E-4    2.326939274711650E-1    4.591646341180624E-1
 8.150751236050000E9     8.496773969447280E-2    5.353781001982094E-1   -2.642149801710595E-3    8.193191692232772E-4   -2.650602070499152E-3    9.127770506276333E-4    2.330189201114762E-1    4.588895545816309E-1
 8.150757146600000E9     8.554352748965005E-2    5.353156550445105E-1   -2.622461814167067E-3    8.282623815823498E-4   -2.638365519087581E-3    8.894599290822194E-4    2.334513485922492E-1    4.586058595822396E-1
 8.150763057150000E9     8.584465589458480E-2    5.351478237348805E-1   -2.653667971248777E-3    8.341817015031402E-4   -2.656482394093288E-3    8.822924430367861E-4    2.338089239068842E-1    4.584886720264533E-1
 8.150768967700000E9     8.622852613681592E-2    5.351451259707271E-1   -2.629743351065514E-3    8.318402989902970E-4   -2.668147074385935E-3    9.119402601111033E-4    2.342354116892752E-1    4.582401044463901E-1
 8.150774878250000E9     8.666709198646214E-2    5.350221178728013E-1   -2.614653672704284E-3    8.410638248691639E-4   -2.628502051799059E-3    8.758517919907399E-4    2.344900812513136E-1    4.580525069598292E-1
 8.150780788800000E9     8.719770371018114E-2    5.349769658160010E-1   -2.649090104324570E-3    8.053938439425001E-4   -2.619517781123705E-3    9.111585790880545E-4    2.348779032487193E-1    4.578586044907386E-1
 8.150786699350000E9     8.754720478152014E-2    5.348909823853684E-1   -2.634954457812093E-3    8.308169579591026E-4   -2.633657947128888E-3    8.880573311159884E-4    2.351131161775527E-1    4.576022731228099E-1
 8.150792609900000E9     8.797312735222952E-2    5.349533721281292E-1   -2.628162814530726E-3    8.444452817607807E-4   -2.637887211482526E-3    8.774536953206735E-4    2.355074156883077E-1    4.575472486430697E-1
 8.150798520450000E9     8.848770399483795E-2    5.348748126091941E-1   -2.646617532945614E-3    8.531665408844958E-4   -2.651148689395408E-3    8.829436809297263E-4    2.358036435558337E-1    4.573048482135220E-1
 8.150804431000000E9     8.883100932815466E-2    5.348244389939960E-1   -2.645358150067492E-3    8.415965247007832E-4   -2.647303193237990E-3    8.958019583370340E-4    2.361009297915666E-1    4.572225406808200E-1
 8.150810341550000E9     8.918406304472527E-2    5.347861137957750E-1   -2.638730036594653E-3    8.495073784773052E-4   -2.657796592159149E-3    9.036683911948098E-4    2.364427649405811E-1    4.569347212902304E-1
 8.150816252100000E9     8.972165893982949E-2    5.347162720005141E-1   -2.635932560063290E-3    8.677594555690332E-4   -2.608033396704697E-3    8.743471976401953E-4    2.367642406256977E-1    4.567986868095923E-1
 8.150822162650000E9     8.999775101299748E-2    5.346508323603394E-1   -2.641056267995923E-3    8.469484993700915E-4   -2.667786743466635E-3    8.947543786918315E-4    2.371971692835600E-1    4.566716574385240E-1
 8.150828073200000E9     9.051429192981982E-2    5.344213638792481E-1   -2.656435102393559E-3    8.450552719721793E-4   -2.634716024389964E-3    8.993362750002569E-4    2.375320253520358E-1    4.564273403916098E-1
 8.150833983750000E9     9.090708731415216E-2    5.344490463247632E-1   -2.649188900206912E-3    8.589690147262655E-4   -2.622852065046275E-3    9.190478501265839E-4    2.377579018485834E-1    4.564070798550406E-1
 8.150839894300000E9     9.130405506241590E-2    5.343636168756850E-1   -2.637369524935321E-3    8.458022685007399E-4   -2.656652074829690E-3    9.330578566359375E-4    2.382473377341118E-1    4.561326710916833E-1
 8.150845804850000E9     9.170610313777959E-2    5.344430820648292E-1   -2.663786663548066E-3    8.473856467551890E-4   -2.646392993407272E-3    8.949616370435012E-4    2.385154055848767E-1    4.559339142439406E-1
 8.150851715400000E9     9.214812602101576E-2    5.343553357736486E-1   -2.658983764881918E-3    8.717074391363552E-4   -2.649941076340314E-3    9.038563496675659E-4    2.387245231400452E-1    4.557250852198506E-1
 8.150857625950000E9     9.250284326181504E-2    5.342022883990554E-1   -2.627778987957287E-3    8.436062670634435E-4   -2.653006072554346E-3    9.194819530084183E-4    2.390843826015055E-1    4.554466237247872E-1
 8.150863536500000E9     9.302707483226599E-2    5.341302991108371E-1   -2.643589596192453E-3    8.676583144147040E-4   -2.659516126622935E-3    9.259850428125689E-4    2.394370111960709E-1    4.552760059463388E-1
 8.150869447050000E9     9.332584986219127E-2    5.340905198408564E-1   -2.651045080659338E-3    8.707340761085745E-4   -2.701895657390078E-3    9.478025436741105E-4    2.397274433283219E-1    4.550743910009719E-1
 8.150875357600000E9     9.370060165416545E-2    5.339319673079451E-1   -2.667617351336478E-3    8.716191208866335E-4   -2.643239891033451E-3    9.524376316085304E-4    2.402297358640291E-1    4.549041014920995E-1
 8.150881268150000E9     9.418808180391833E-2    5.339648172460718E-1   -2.641540045985413E-3    8.935714572761805E-4   -2.659661709064816E-3    9.246408882376589E-4    2.404987631512367E-1    4.547301808941310E-1
 8.150887178700000E9     9.464116390593459E-2    5.339048294733540E-1   -2.644794922384917E-3    8.929739274511802E-4   -2.657720732643295E-3    9.281938419387478E-4    2.408176877614183E-1    4.545792457520926E-1
 8.150893089250000E9     9.510947493454459E-2    5.338417129707417E-1   -2.672460588480581E-3    8.933371658083955E-4   -2.642986023267656E-3    9.622865058940666E-4    2.412519700009605E-1    4.544263868051479E-1
 8.150898999800000E9     9.552329434808453E-2    5.338361696795989E-1   -2.634262693565781E-3    9.086764567171535E-4   -2.674812740417563E-3    9.229478047174889E-4    2.414541718419734E-1    4.541807690980497E-1
 8.150904910350000E9     9.577053001976160E-2    5.338016724717684E-1   -2.635942791658150E-3    8.841333613953530E-4   -2.657618263652925E-3    9.094286908431832E-4    2.417838701579301E-1    4.540415427153951E-1
 8.150910820900000E9     9.633660504367704E-2    5.337377069597867E-1   -2.657013532978803E-3    8.954495936414380E-4   -2.651068948729584E-3    9.426879805575653E-4    2.422847632016889E-1    4.538491218224487E-1
 8.150916731450000E9     9.668397080147657E-2    5.336420263229068E-1   -2.652632808756726E-3    9.272812001647485E-4   -2.669715523338350E-3    9.521714393529452E-4    2.424376387624980E-1    4.536774126520066E-1
 8.150922642000000E9     9.707596735556705E-2    5.335167242684156E-1   -2.658789710877091E-3    8.834849038110233E-4   -2.682468348457493E-3    9.711977555409678E-4    2.428656295826074E-1    4.534509905376512E-1
 8.150928552550000E9     9.747040878730906E-2    5.333932959059676E-1   -2.640551898800139E-3    9.001545099455776E-4   -2.666620022454538E-3    9.749301661637441E-4    2.431917197620900E-1    4.534146517975750E-1
 8.150934463100000E9     9.786504414129873E-2    5.333880328039130E-1   -2.681954096087652E-3    9.186010540372183E-4   -2.656998862123424E-3    9.634345217688813E-4    2.434852352481568E-1    4.531568090475626E-1
 8.150940373650000E9     9.827974526340512E-2    5.333978837021262E-1   -2.654592450442727E-3    9.052499726518575E-4   -2.698396256013566E-3    9.514876812572634E-4    2.437269006204288E-1    4.529164116134101E-1
 8.150946284200000E9     9.874877430093099E-2    5.332584386116511E-1   -2.622644489642870E-3    9.280578243229859E-4   -2.647387763849839E-3    9.911564754311849E-4    2.442032660940932E-1    4.527531025790197E-1
 8.150952194750000E9     9.922845268546340E-2    5.331295521358955E-1   -2.637704761082992E-3    9.463812466856113E-4   -2.671148947977696E-3    9.958947250415253E-4    2.445208446650637E-1    4.524518734191618E-1
 8.150958105300000E9     9.950977718766990E-2    5.331480522021960E-1   -2.626235499933326E-3    9.199623732883967E-4   -2.653603279253516E-3    9.705284865875830E-4    2.447903857915692E-1    4.524294301913172E-1
 8.150964015850000E9     1.000615896016808E-1    5.329774926808056E-1   -2.660411211204694E-3    9.423773687260918E-4   -2.660613261841297E-3    9.809447759003269E-4    2.452056753328329E-1    4.521110427916376E-1
 8.150969926400000E9     1.004743273462585E-1    5.330421767607114E-1   -2.662817501990986E-3    9.293118964288534E-4   -2.704086533024071E-3    9.905665860394544E-4    2.454118789212864E-1    4.520902396093081E-1
 8.150975836950000E9     1.007816121009179E-1    5.329225183019084E-1   -2.673816307594392E-3    9.460528009106542E-4   -2.644242291821865E-3    9.897374257160146E-4    2.458428558635392E-1    4.519054569657780E-1
 8.150981747500000E9     1.012603935351691E-1    5.327234335980758E-1   -2.657217015158561E-3    9.687878159364988E-4   -2.671515595847268E-3    1.006622409288067E-3    2.460917030586108E-1    4.516894441709843E-1
 8.150987658050000E9     1.017740941242671E-1    5.327853404037565E-1   -2.660298992340143E-3    9.365540504289859E-4   -2.707328442796546E-3    9.845752285152626E-4    2.465359001479830E-1    4.515189974698590E-1
 8.150993568600000E9     1.022239926789588E-1    5.326575954799103E-1   -2.657487555775324E-3    9.343053570730166E-4   -2.628480550335278E-3    1.008020745796114E-3    2.468372466691297E-1    4.511721208539558E-1
 8.150999479150000E9     1.025788588296872E-1    5.326327468083029E-1   -2.687727082058939E-3    9.420681895838351E-4   -2.673036612882288E-3    1.004385100076657E-3    2.470401395581718E-1    4.510918379492032E-1
 8.151005389700000E9     1.029059341429827E-1    5.325400215964746E-1   -2.680124148705033E-3    9.393033073745238E-4   -2.670413622793715E-3    9.804629231745219E-4    2.475488185486476E-1    4.507576576559686E-1
 8.151011300250000E9     1.033420225369026E-1    5.324654113914220E-1   -2.700169445610265E-3    9.542475819662835E-4   -2.673621941141739E-3    9.952377821784229E-4    2.478223248890774E-1    4.506359494559552E-1
 8.151017210800000E9     1.038023581623140E-1    5.324030714909322E-1   -2.708341916127014E-3    9.264889125304640E-4   -2.661119823560339E-3    1.008764260569329E-3    2.481299181384320E-1    4.502664663558284E-1
 8.151023121350000E9     1.041329242846995E-1    5.323334039039452E-1   -2.666394945772783E-3    9.703115752395557E-4   -2.685070355275358E-3    1.003737680451533E-3    2.486373326424505E-1    4.503417590242777E-1
 8.151029031900000E9     1.046961538934580E-1    5.322113077796786E-1   -2.704645351918071E-3    9.715009959361383E-4   -2.686470657753617E-3    1.002103446055230E-3    2.488265929077991E-1    4.501084883295563E-1
 8.151034942450000E9     1.050972643519121E-1    5.321948793229401E-1   -2.700625341212752E-3    9.471614733130681E-4   -2.672691160901578E-3    1.049554815709747E-3    2.491011490102343E-1    4.498725082833696E-1
 8.151040853000000E9     1.055232068029703E-1    5.320360093894448E-1   -2.665536708963879E-3    9.960494081864872E-4   -2.681228016248306E-3    1.014988014852642E-3    2.494468524881733E-1    4.496479818756458E-1
 8.151046763550000E9     1.058436281807152E-1    5.320220480365986E-1   -2.684997972184749E-3    9.644839209953232E-4   -2.706932575423504E-3    1.044302941791834E-3    2.496666071373596E-1    4.494329421864054E-1
 8.151052674100000E9     1.062598787390374E-1    5.318741873367182E-1   -2.707045172866149E-3    9.752369920568338E-4   -2.701077891970414E-3    1.032449141250974E-3    2.501440951130148E-1    4.493056553438968E-1
 8.151058584650000E9     1.067439171646725E-1    5.318497721598575E-1   -2.671035678991835E-3    9.796119985110217E-4   -2.680431312531092E-3    1.017621543314855E-3    2.505347367534815E-1    4.490160517588094E-1
 8.151064495200000E9     1.071473708680395E-1    5.317219883471478E-1   -2.691720515539214E-3    9.979528831623183E-4   -2.709376749164223E-3    1.051897791239492E-3    2.507304115009593E-1    4.489148158200565E-1
 8.151070405750000E9     1.076053935085904E-1    5.316378292891888E-1   -2.696336232465604E-3    9.946818941614873E-4   -2.690080554310106E-3    1.078011071154628E-3    2.511281634335507E-1    4.487712821670254E-1
 8.151076316300000E9     1.080608314687391E-1    5.316750444829649E-1   -2.713439210185480E-3    9.785793439170863E-4   -2.703003877667557E-3    1.044096834090851E-3    2.513855315810891E-1    4.485179515141510E-1
 8.151082226850000E9     1.084746435143035E-1    5.315775265336636E-1   -2.686153783383887E-3    1.011565152794112E-3   -2.701861538866696E-3    1.060890634335056E-3    2.518528649422573E-1    4.483194204546459E-1
 8.151088137400000E9     1.088066209007065E-1    5.313477657737635E-1   -2.696241307411534E-3    9.983901131004514E-4   -2.705294749368063E-3    1.050341576842080E-3    2.521566129314566E-1    4.481537165024592E-1
 8.151094047950000E9     1.091662384551482E-1    5.314011906294382E-1   -2.692342972054065E-3    1.003650743152585E-3   -2.684274785029974E-3    1.025179729280166E-3    2.523560626943518E-1    4.479535818031415E-1
 8.151099958500000E9     1.097075237822897E-1    5.313421361078643E-1   -2.683496901323964E-3    1.006701743967006E-3   -2.716258934373687E-3    1.064642298239207E-3    2.527262828607945E-1    4.477856201828516E-1
