#  HZ   S   RI   R     50.00 
! Rohde & Schwarz Vector Network Analyzer 
! Rohde-Schwarz,ZNB20-2Port,1311601062101988,3.16
! Created: UTC 3/21/2024, 12:56:12 AM
! freq[Hz]                re:S11                  im:S11                  re:S21                  im:S21                  re:S12                  im:S12                  re:S22                  im:S22
 8.150583156000000E9     7.312727885048724E-2    5.367420035653016E-1   -2.628993878184876E-3    7.502491751943408E-4   -2.640809482991480E-3    7.940867353262430E-4    2.232727501261957E-1    4.637280214054453E-1
 8.150588999800000E9     7.366874130561564E-2    5.367238416420116E-1   -2.620139959435559E-3    7.482052355281631E-4   -2.626206323934060E-3    7.902714893820001E-4    2.237685887417515E-1    4.635299020361252E-1
 8.150594843600000E9     7.396430121089100E-2    5.366794753035301E-1   -2.618269160212567E-3    7.617681624870038E-4   -2.645074762849379E-3    8.253387146268627E-4    2.241166648126619E-1    4.634696720214775E-1
 8.150600687400000E9     7.449776148641431E-2    5.366588195325060E-1   -2.605298862184890E-3    7.507496932476107E-4   -2.619657302703094E-3    7.988330405611917E-4    2.243987120671728E-1    4.632201172224755E-1
 8.150606531200000E9     7.487186095790312E-2    5.365817463103635E-1   -2.615642599707512E-3    7.665313469113768E-4   -2.630727327374879E-3    8.168907833796106E-4    2.247442851633616E-1    4.631742900606617E-1
 8.150612375000000E9     7.531051815900268E-2    5.364541392604243E-1   -2.611248680967063E-3    7.866695787934516E-4   -2.670025604103504E-3    8.014216501660325E-4    2.251602504027975E-1    4.630091564247131E-1
 8.150618218800000E9     7.574573056270971E-2    5.365449937532060E-1   -2.613375177390430E-3    7.547704034454397E-4   -2.635428174151685E-3    7.850642298093185E-4    2.253258047438526E-1    4.628541738244784E-1
 8.150624062600000E9     7.616516911259448E-2    5.364804118540876E-1   -2.600402239767521E-3    7.711933326626952E-4   -2.639945283665492E-3    8.177831395388253E-4    2.258049465526311E-1    4.626058352052791E-1
 8.150629906400000E9     7.648362118342500E-2    5.364002424497401E-1   -2.629158142767970E-3    7.663981873394839E-4   -2.623867103249144E-3    8.181068017868398E-4    2.259902958399090E-1    4.623526220154889E-1
 8.150635750200000E9     7.689329497823505E-2    5.362074891001433E-1   -2.618000654195745E-3    7.580377119312219E-4   -2.658241717322569E-3    8.127150963278837E-4    2.264886822627485E-1    4.623576490910605E-1
 8.150641594000000E9     7.725419204563508E-2    5.363679144961159E-1   -2.608779681846141E-3    7.705343543640905E-4   -2.621802726923531E-3    8.234144589558820E-4    2.267317372063554E-1    4.620843723723553E-1
 8.150647437800000E9     7.773507464680177E-2    5.363406572453802E-1   -2.610219095298483E-3    7.644544020660551E-4   -2.646347740429190E-3    8.276978953040899E-4    2.270158727273829E-1    4.619324236996943E-1
 8.150653281600000E9     7.807714830813837E-2    5.361847724011614E-1   -2.632751568455611E-3    7.452379823342903E-4   -2.639090043730059E-3    8.080957143767215E-4    2.275330422107639E-1    4.618443201535006E-1
 8.150659125400000E9     7.855060383923435E-2    5.361504231362488E-1   -2.626098047401792E-3    7.754481452873296E-4   -2.627722649969596E-3    8.253991946093392E-4    2.277944334655205E-1    4.617140669361048E-1
 8.150664969200000E9     7.890046916082027E-2    5.360100617877225E-1   -2.633696793608462E-3    7.895470448783367E-4   -2.627654353414607E-3    8.311749695185758E-4    2.281404481264198E-1    4.613893233274470E-1
 8.150670813000000E9     7.936558441790421E-2    5.359393103259568E-1   -2.612164877430925E-3    7.779091730892734E-4   -2.627055460688598E-3    8.469831807197039E-4    2.283996172949610E-1    4.613572395857047E-1
 8.150676656800000E9     7.982162103747317E-2    5.360456857462935E-1   -2.631550616478248E-3    7.772477496760922E-4   -2.622382855913468E-3    8.383501841138323E-4    2.288607523033908E-1    4.610530363545386E-1
 8.150682500600000E9     8.030940644014807E-2    5.360437356727590E-1   -2.621541739432452E-3    7.676106092106422E-4   -2.633683733487615E-3    8.318924237789307E-4    2.291226890693102E-1    4.608009282237472E-1
 8.150688344400000E9     8.060686071349009E-2    5.358916814678090E-1   -2.625664406061276E-3    7.938309377315946E-4   -2.618251972273433E-3    8.261984901834917E-4    2.294236380982637E-1    4.607834986681498E-1
 8.150694188200000E9     8.098266442418874E-2    5.358003806198547E-1   -2.636498477826207E-3    7.987351648851678E-4   -2.630157235216284E-3    8.634391968460224E-4    2.297951502285880E-1    4.605929672370997E-1
 8.150700032000000E9     8.153115306149225E-2    5.357203443220491E-1   -2.610277155153424E-3    7.754570313584612E-4   -2.650974754671541E-3    8.555023157816055E-4    2.302222332737894E-1    4.605187110967531E-1
 8.150705875800000E9     8.183078026065212E-2    5.357557739409264E-1   -2.611324065629585E-3    7.965598725300986E-4   -2.638770363148467E-3    8.563346928846775E-4    2.303972810826034E-1    4.602518203572101E-1
 8.150711719600000E9     8.222602868411316E-2    5.356800396638906E-1   -2.610668821810339E-3    7.953887434992662E-4   -2.647660928082381E-3    8.627136623280762E-4    2.307164613432640E-1    4.599347703182943E-1
 8.150717563400000E9     8.262812333240203E-2    5.356832015718934E-1   -2.639165607762614E-3    8.086377022201614E-4   -2.632643348180123E-3    8.642185755365221E-4    2.311627982853464E-1    4.598664722257705E-1
 8.150723407200000E9     8.312743019744764E-2    5.355881533296407E-1   -2.611621112835252E-3    8.188817560740694E-4   -2.644681792730148E-3    8.734601043213493E-4    2.314509297151045E-1    4.596483126738947E-1
 8.150729251000000E9     8.344050884842519E-2    5.354769111653652E-1   -2.631493039410473E-3    7.969768238038986E-4   -2.622186663985217E-3    8.488589801252269E-4    2.317006274274374E-1    4.595350555834569E-1
 8.150735094800000E9     8.397144168404398E-2    5.354688488799091E-1   -2.612033769338218E-3    8.039794209489571E-4   -2.642276849886219E-3    8.573571655978749E-4    2.320786736396226E-1    4.594419551696384E-1
 8.150740938600000E9     8.443085406073035E-2    5.354493596610200E-1   -2.617741875524020E-3    8.306113732616546E-4   -2.639748145531791E-3    8.957583021463388E-4    2.323844502359959E-1    4.591095172467405E-1
 8.150746782400000E9     8.475449071170708E-2    5.353352871769564E-1   -2.625557546312147E-3    8.302072500485102E-4   -2.609290452611811E-3    8.438262932256561E-4    2.327604489400584E-1    4.589101591086450E-1
 8.150752626200000E9     8.514587216364225E-2    5.353290418706589E-1   -2.617928555431886E-3    8.362545892460911E-4   -2.659740580475066E-3    8.653239176576739E-4    2.332099653202388E-1    4.588464282538833E-1
 8.150758470000000E9     8.553298082944168E-2    5.352502650989771E-1   -2.626287479546916E-3    8.364723536400772E-4   -2.632246115411979E-3    9.050825634554085E-4    2.334747650627357E-1    4.586057249452599E-1
 8.150764313800000E9     8.608330525563272E-2    5.352080503314230E-1   -2.620069675777249E-3    8.312138188994274E-4   -2.646383584266572E-3    8.397915304982292E-4    2.337295304884008E-1    4.585773871891126E-1
 8.150770157600000E9     8.649687004089801E-2    5.350628866871181E-1   -2.641216478705731E-3    8.347995198729045E-4   -2.636050004932612E-3    8.786594534333322E-4    2.341746853880692E-1    4.581525708770257E-1
 8.150776001400000E9     8.689755571194312E-2    5.350643392497597E-1   -2.637818294786598E-3    8.255461055679958E-4   -2.618870997240800E-3    8.876450698500028E-4    2.345393357354975E-1    4.580434800505941E-1
 8.150781845200000E9     8.720291553206537E-2    5.350966618469118E-1   -2.640341387878196E-3    8.185304715933987E-4   -2.602803195071628E-3    8.696770407359570E-4    2.347666359357363E-1    4.578644944867321E-1
 8.150787689000000E9     8.769406076455838E-2    5.350139024487808E-1   -2.622422771785517E-3    8.332148164857475E-4   -2.650406788859388E-3    9.039077454007986E-4    2.352823230476681E-1    4.577894385715728E-1
 8.150793532800000E9     8.803625973349836E-2    5.349993360913146E-1   -2.642174357308707E-3    8.380452048856004E-4   -2.662049491359409E-3    9.033438913758154E-4    2.353938520602024E-1    4.575106619829823E-1
 8.150799376600000E9     8.851751187704195E-2    5.349207914989548E-1   -2.632934268894843E-3    8.480412169021031E-4   -2.640445001012788E-3    9.245271524770365E-4    2.358195975036552E-1    4.573500483505182E-1
 8.150805220400000E9     8.878628154291784E-2    5.347746070747139E-1   -2.618884041404291E-3    8.586487426148072E-4   -2.663793655705382E-3    8.856448310177598E-4    2.360754868391188E-1    4.572316206009638E-1
 8.150811064200000E9     8.923180878207582E-2    5.347270701456902E-1   -2.647216351468880E-3    8.573875643315272E-4   -2.640075311453832E-3    9.204043372452532E-4    2.364561623570634E-1    4.570138075774322E-1
 8.150816908000000E9     8.968020625125465E-2    5.345832846164994E-1   -2.630804811477421E-3    8.675977082707879E-4   -2.659529897769236E-3    8.964614089913931E-4    2.367912161488976E-1    4.566876266199221E-1
 8.150822751800000E9     9.004506162916384E-2    5.345534796064392E-1   -2.617855063822493E-3    8.533674375233398E-4   -2.649979458399576E-3    8.961153640244679E-4    2.370691959212390E-1    4.566121419611586E-1
 8.150828595600000E9     9.047692226523836E-2    5.345626067361003E-1   -2.649802771132788E-3    8.383854287551227E-4   -2.636187725606761E-3    9.221142807132665E-4    2.373942271562232E-1    4.564909540531245E-1
 8.150834439400000E9     9.090224113189556E-2    5.344828706794367E-1   -2.668406700363438E-3    8.657868951077276E-4   -2.661696113505080E-3    9.415106195709227E-4    2.377118225059288E-1    4.563099029452064E-1
 8.150840283200000E9     9.138952424318192E-2    5.343954864599165E-1   -2.641638858807702E-3    8.518948253236445E-4   -2.659084946945264E-3    9.035116689709640E-4    2.380718118077233E-1    4.560231479867711E-1
 8.150846127000000E9     9.168190244682810E-2    5.344046176516375E-1   -2.620874902007804E-3    8.680981219357433E-4   -2.634270611342894E-3    8.979697829013176E-4    2.384749130340473E-1    4.560436486212910E-1
 8.150851970800000E9     9.210852913131104E-2    5.342343562039011E-1   -2.632537049832618E-3    9.025195966485306E-4   -2.669400373226536E-3    9.232076485313703E-4    2.386955648021510E-1    4.558224016628009E-1
 8.150857814600000E9     9.250671742885896E-2    5.342666223180281E-1   -2.647833599472188E-3    8.524825120202206E-4   -2.671541722224749E-3    9.476698441433157E-4    2.391703747748634E-1    4.556257597184147E-1
 8.150863658400000E9     9.289909823919763E-2    5.342051623736314E-1   -2.610073218589495E-3    8.799382242625661E-4   -2.645480577240436E-3    9.272745663312028E-4    2.393833947827780E-1    4.554215837633002E-1
 8.150869502200000E9     9.333977445748111E-2    5.340914572746569E-1   -2.631437227824113E-3    8.746328076408825E-4   -2.663217961833879E-3    9.157833348479464E-4    2.396563385188945E-1    4.553386854339160E-1
 8.150875346000000E9     9.376406308862426E-2    5.341443297331098E-1   -2.654918205636455E-3    8.673279307224827E-4   -2.676087021628039E-3    9.364120461801445E-4    2.400734367647351E-1    4.550009554990873E-1
 8.150881189800000E9     9.418819935900319E-2    5.339982659503605E-1   -2.619271529220555E-3    8.752092995753954E-4   -2.660743151670553E-3    9.440346046851866E-4    2.404865596906985E-1    4.549283241166963E-1
 8.150887033600000E9     9.465572047105195E-2    5.339093104516808E-1   -2.661484437383433E-3    8.772605329491989E-4   -2.641315820161074E-3    9.365817563797916E-4    2.407288438474418E-1    4.547595307272608E-1
 8.150892877400000E9     9.498261990039739E-2    5.337751155977327E-1   -2.644618441269360E-3    8.765427673696655E-4   -2.691010198341766E-3    9.441705878953135E-4    2.411018189645903E-1    4.543973039529042E-1
 8.150898721200000E9     9.539963563004093E-2    5.338657519791684E-1   -2.639438097197359E-3    8.990313577802364E-4   -2.647783631846757E-3    9.102171553248110E-4    2.414996122886960E-1    4.543853384298867E-1
 8.150904565000000E9     9.590977072992773E-2    5.337544766948028E-1   -2.641211965845348E-3    8.789597069826419E-4   -2.684784985328569E-3    9.444745065784320E-4    2.416559295736989E-1    4.541824097071918E-1
 8.150910408800000E9     9.622463029686637E-2    5.336623603267892E-1   -2.634156455736572E-3    8.968155683396631E-4   -2.667596698184141E-3    9.528255054855288E-4    2.420987456789060E-1    4.539888781368812E-1
 8.150916252600000E9     9.662951537764525E-2    5.335070561000876E-1   -2.642879603291708E-3    9.391265883885830E-4   -2.638121735837501E-3    9.539114629818363E-4    2.423367853498784E-1    4.536260040979984E-1
 8.150922096400000E9     9.710350069027940E-2    5.334097485243359E-1   -2.662329630543205E-3    8.929302984846579E-4   -2.676540669217809E-3    9.516669746685958E-4    2.426972718646833E-1    4.535784967525788E-1
 8.150927940200000E9     9.758914366816396E-2    5.335068465938106E-1   -2.638888512662307E-3    9.188697859000484E-4   -2.672797930735860E-3    9.469506651790164E-4    2.430364432384098E-1    4.534865100378123E-1
 8.150933784000000E9     9.797454782985260E-2    5.333780129271822E-1   -2.631930337606924E-3    9.152045284946985E-4   -2.668261874556898E-3    9.532641450095778E-4    2.433316662920413E-1    4.531831753396049E-1
 8.150939627800000E9     9.824111945959388E-2    5.333102916778807E-1   -2.658498836873600E-3    9.001548181893517E-4   -2.659390872645335E-3    9.826340584172199E-4    2.436290331647343E-1    4.529943215607208E-1
 8.150945471600000E9     9.868887438695398E-2    5.331913484209445E-1   -2.656004375208735E-3    9.167347817136398E-4   -2.662528463105311E-3    9.649736663667087E-4    2.440872476880345E-1    4.527945837991456E-1
 8.150951315400000E9     9.924231492646086E-2    5.331808284872017E-1   -2.663545161814120E-3    9.050113246599524E-4   -2.641301350036785E-3    9.584436236160321E-4    2.444140580672135E-1    4.525559872468027E-1
 8.150957159200000E9     9.960496377733725E-2    5.332170070266518E-1   -2.632802875561278E-3    9.037975061409394E-4   -2.687599138475475E-3    9.573396972214561E-4    2.445187940183076E-1    4.522598633231728E-1
 8.150963003000000E9     1.000425276212798E-1    5.330784800742101E-1   -2.671189325290881E-3    9.188990417526616E-4   -2.693216553613304E-3    9.708085449131340E-4    2.449521648310824E-1    4.522445287093758E-1
 8.150968846800000E9     1.004056058291758E-1    5.329118477849082E-1   -2.675994477405968E-3    9.197080122204378E-4   -2.665398833748364E-3    9.710041592572853E-4    2.453049458635248E-1    4.519245104539402E-1
 8.150974690600000E9     1.007146291407212E-1    5.328804067051587E-1   -2.649965787884446E-3    9.357240255738433E-4   -2.662399174953891E-3    9.771487789486163E-4    2.456811945896491E-1    4.519839344146926E-1
 8.150980534400000E9     1.012591293251564E-1    5.327737726713218E-1   -2.674363626609349E-3    9.491621643527442E-4   -2.690425369393055E-3    1.004390283966660E-3    2.459001733066948E-1    4.515377050670347E-1
 8.150986378200000E9     1.015798993807635E-1    5.326902315879496E-1   -2.648274207282061E-3    9.556753651031017E-4   -2.703784289629492E-3    9.925466765901266E-4    2.463099893445351E-1    4.514627992087887E-1
 8.150992222000000E9     1.020028764468767E-1    5.327473133752350E-1   -2.654780690180423E-3    9.509416892217231E-4   -2.665170839240480E-3    9.877338384550612E-4    2.466945410797310E-1    4.512495685315886E-1
 8.150998065800000E9     1.025673330697672E-1    5.327169509235745E-1   -2.687033164239052E-3    9.462399961305060E-4   -2.668065636470626E-3    9.820332961796377E-4    2.470707855455300E-1    4.511545365231571E-1
 8.151003909600000E9     1.028153817145209E-1    5.326066171705166E-1   -2.659657994711838E-3    9.552550847110513E-4   -2.683172761603373E-3    9.993063304530086E-4    2.473559870408950E-1    4.509914633648225E-1
 8.151009753400000E9     1.033090279318560E-1    5.324822155721478E-1   -2.668786510647987E-3    9.567431105789806E-4   -2.677478224298354E-3    9.987089022750492E-4    2.475996866313661E-1    4.507212036687750E-1
 8.151015597200000E9     1.037169947064108E-1    5.323618412172845E-1   -2.680447871383053E-3    9.825119718287359E-4   -2.679627827837627E-3    1.025173274683189E-3    2.478377145933932E-1    4.505364496271936E-1
 8.151021441000000E9     1.040997764756074E-1    5.322567154209707E-1   -2.684153259449540E-3    9.237299343420801E-4   -2.655800020525359E-3    9.945660055502574E-4    2.482903278795625E-1    4.503866279812000E-1
 8.151027284800000E9     1.044732283715147E-1    5.322359649966949E-1   -2.697589167556638E-3    9.644737825393845E-4   -2.681411925922972E-3    1.006955096839587E-3    2.485559227968375E-1    4.502290240352467E-1
 8.151033128600000E9     1.048094421543028E-1    5.321301102526770E-1   -2.674144215134024E-3    9.499575148861664E-4   -2.667153775850935E-3    9.923645251855141E-4    2.488499390111273E-1    4.499552534846156E-1
 8.151038972400000E9     1.053580142446868E-1    5.322038292210414E-1   -2.689280873695906E-3    9.756989108863130E-4   -2.704393045503197E-3    1.007795313296275E-3    2.492396320903995E-1    4.497782092096336E-1
 8.151044816200000E9     1.056638840639915E-1    5.320461166636845E-1   -2.692404421051872E-3    9.876126496740757E-4   -2.693308125608312E-3    1.038291125582606E-3    2.495096229238256E-1    4.495225084563350E-1
 8.151050660000000E9     1.061513758464403E-1    5.319407661380612E-1   -2.673763483207317E-3    9.615459589607496E-4   -2.700978142829402E-3    1.028789799983860E-3    2.500088159696723E-1    4.493741432454473E-1
 8.151056503800000E9     1.064843280751019E-1    5.317320572741744E-1   -2.688149985015434E-3    9.863663216676242E-4   -2.719584255565114E-3    1.049410056523459E-3    2.502647361156081E-1    4.493194834508503E-1
 8.151062347600000E9     1.070436316038136E-1    5.317673512289816E-1   -2.681974603284882E-3    9.715260552575511E-4   -2.660676399033735E-3    1.057921738117608E-3    2.506090330313067E-1    4.489786428083549E-1
 8.151068191400000E9     1.074605694031456E-1    5.317801719821768E-1   -2.682289291796342E-3    9.970895720145514E-4   -2.715542035240366E-3    1.049180881396773E-3    2.509731397235537E-1    4.487971158229160E-1
 8.151074035200000E9     1.077562080323333E-1    5.316953250017298E-1   -2.686604114529451E-3    9.773933296904098E-4   -2.686917933099752E-3    1.053722364556657E-3    2.511897315468320E-1    4.487274048846345E-1
 8.151079879000000E9     1.082852751850416E-1    5.314859289218833E-1   -2.679552863482832E-3    9.946810330038189E-4   -2.720408298413071E-3    1.059998419541570E-3    2.514907322602385E-1    4.486234883736398E-1
 8.151085722800000E9     1.085141416722398E-1    5.315124689234093E-1   -2.692397150511958E-3    1.004564772348431E-3   -2.684338043095248E-3    1.066988897049526E-3    2.518201658769622E-1    4.483108752224723E-1
 8.151091566600000E9     1.091482416972752E-1    5.314757409760015E-1   -2.696575485719947E-3    9.947263284159958E-4   -2.730303876087722E-3    1.051607186980714E-3    2.521142454845055E-1    4.480237683199991E-1
 8.151097410400000E9     1.094349659241186E-1    5.313189165398825E-1   -2.700980291415963E-3    1.003537466191737E-3   -2.700746594656855E-3    1.047936413513142E-3    2.525968397120957E-1    4.478682526416779E-1
 8.151103254200000E9     1.099858699880763E-1    5.311861371278844E-1   -2.711190921975146E-3    1.030733607112424E-3   -2.717288848832615E-3    1.065284673517633E-3    2.528621196820992E-1    4.477573122462952E-1
 8.151109098000000E9     1.102971745849515E-1    5.311644973102430E-1   -2.717936802795843E-3    1.041430784280255E-3   -2.695026819166963E-3    1.065859699749233E-3    2.532390786330502E-1    4.475430331026528E-1
