#  HZ   S   RI   R     50.00 
! Rohde & Schwarz Vector Network Analyzer 
! Rohde-Schwarz,ZNB20-2Port,1311601062101988,3.16
! Created: UTC 3/21/2024, 12:56:14 AM
! freq[Hz]                re:S11                  im:S11                  re:S21                  im:S21                  re:S12                  im:S12                  re:S22                  im:S22
 8.150535833000000E9     6.977831506387530E-2    5.371124808821622E-1   -2.615074540094568E-3    7.299776577253256E-4   -2.619546518512485E-3    7.780403645961497E-4    2.206839596882357E-1    4.652060644687194E-1
 8.150541895725000E9     7.032010473162087E-2    5.370696195863361E-1   -2.630880133127033E-3    7.495375151697110E-4   -2.622021822539192E-3    7.976480258159895E-4    2.209579203235909E-1    4.651805872586126E-1
 8.150547958450000E9     7.062941261897369E-2    5.370720017714672E-1   -2.607992829965350E-3    7.502725350059468E-4   -2.630184424236346E-3    7.867960359680914E-4    2.213041776032679E-1    4.649690420354924E-1
 8.150554021175000E9     7.111074432650474E-2    5.370615809692769E-1   -2.611201245403144E-3    7.368626817481222E-4   -2.616075659712577E-3    7.797353181576395E-4    2.215309298675729E-1    4.647362730615069E-1
 8.150560083900000E9     7.155597045496882E-2    5.370308929150440E-1   -2.623471643748483E-3    7.352425160074763E-4   -2.586221190599618E-3    7.747035882507060E-4    2.218537846657641E-1    4.645508697878165E-1
 8.150566146625000E9     7.202483811009044E-2    5.369539725241519E-1   -2.575412232134408E-3    7.352888431643211E-4   -2.643787957478260E-3    8.011915361017206E-4    2.223012863047143E-1    4.642569157593889E-1
 8.150572209350000E9     7.239248740999146E-2    5.368629810527948E-1   -2.614162591962428E-3    7.562568973186347E-4   -2.596813330829885E-3    7.992709623315104E-4    2.226888749481505E-1    4.642765606670496E-1
 8.150578272075000E9     7.289727475658889E-2    5.368428862649877E-1   -2.615777254135565E-3    7.475936240757683E-4   -2.625935933999068E-3    8.289931381430789E-4    2.230139706397659E-1    4.640346920048746E-1
 8.150584334800000E9     7.346066187291418E-2    5.368025574683917E-1   -2.617518186672882E-3    7.277056679405883E-4   -2.602007396007755E-3    7.849610852390125E-4    2.233749829579327E-1    4.639380030122751E-1
 8.150590397525000E9     7.368940957739294E-2    5.368081790223309E-1   -2.593544581516898E-3    7.630475743292851E-4   -2.601069360222985E-3    8.236004543830082E-4    2.237270380255706E-1    4.635410876943001E-1
 8.150596460250000E9     7.422898311312251E-2    5.366496346738532E-1   -2.609975406363098E-3    7.832095742785619E-4   -2.621600193457789E-3    7.830678586744350E-4    2.241547272585499E-1    4.634622758936209E-1
 8.150602522975000E9     7.458488367590438E-2    5.366135562422361E-1   -2.640494579913708E-3    7.663614180408802E-4   -2.622922090547318E-3    7.981502508174419E-4    2.244984118889821E-1    4.635067271010204E-1
 8.150608585700000E9     7.502045897952217E-2    5.365948360480693E-1   -2.611972091249562E-3    7.569736152844315E-4   -2.636021313626332E-3    7.592306943749750E-4    2.247663273737800E-1    4.632254242119615E-1
 8.150614648425000E9     7.545658353987159E-2    5.365209200072693E-1   -2.639401423080636E-3    7.799611914796541E-4   -2.611290289976872E-3    7.996958663971772E-4    2.251334501322534E-1    4.630145496698168E-1
 8.150620711150000E9     7.587553274404635E-2    5.365360447430449E-1   -2.611552653829697E-3    7.705096570544203E-4   -2.626491245868725E-3    7.976146219073210E-4    2.255927524359678E-1    4.629291358023883E-1
 8.150626773875000E9     7.628161210110078E-2    5.364475496812734E-1   -2.606754379587044E-3    7.577221987465127E-4   -2.618912778820909E-3    8.180512764770219E-4    2.258280792314367E-1    4.626429429770431E-1
 8.150632836600000E9     7.678333809924545E-2    5.363578274760101E-1   -2.598723181669263E-3    7.633202662011666E-4   -2.616993467378852E-3    7.963849614040134E-4    2.262859162712937E-1    4.624854114968379E-1
 8.150638899325000E9     7.714276922371421E-2    5.362208533263960E-1   -2.653778443351126E-3    7.578828758332181E-4   -2.623123375560167E-3    8.370181310612261E-4    2.264861834582706E-1    4.622006683223883E-1
 8.150644962050000E9     7.749660262692333E-2    5.362727626547390E-1   -2.628377843418357E-3    7.668972251717825E-4   -2.643497482595337E-3    8.238704926408996E-4    2.269097103434113E-1    4.621075699208483E-1
 8.150651024775000E9     7.805274296084312E-2    5.361382203937584E-1   -2.616466784756941E-3    7.964878017286542E-4   -2.622376766990776E-3    7.974639899927350E-4    2.271474984442118E-1    4.620276617758401E-1
 8.150657087500000E9     7.847377019510260E-2    5.361563221266196E-1   -2.617059751672551E-3    7.645013998135569E-4   -2.628900160029202E-3    8.178101890120909E-4    2.274943314461727E-1    4.617698244940685E-1
 8.150663150225000E9     7.891045793495316E-2    5.361165983549724E-1   -2.617189994352174E-3    7.597352249042591E-4   -2.619551866326913E-3    8.317273341126074E-4    2.279194175248951E-1    4.615337133825422E-1
 8.150669212950000E9     7.921550173383558E-2    5.361205814832245E-1   -2.614825155199669E-3    7.816942564613550E-4   -2.664613455173720E-3    8.303682443386101E-4    2.282408209131407E-1    4.613081653522945E-1
 8.150675275675000E9     7.973094324336198E-2    5.359767374942086E-1   -2.617001880110950E-3    8.056452072736679E-4   -2.637053398610356E-3    8.384664727621463E-4    2.286637772437347E-1    4.613536569385604E-1
 8.150681338400000E9     8.016099645332890E-2    5.359295274189986E-1   -2.633623848603952E-3    7.869056475974130E-4   -2.654809596530471E-3    8.601811273767147E-4    2.290158657750739E-1    4.609567631126951E-1
 8.150687401125000E9     8.050900953640730E-2    5.358534743032151E-1   -2.623707478470358E-3    8.031385006457161E-4   -2.658275228674057E-3    8.467765513316914E-4    2.292880006061143E-1    4.607064067805515E-1
 8.150693463850000E9     8.091464027261080E-2    5.358757363848672E-1   -2.630433585242631E-3    7.975140764793292E-4   -2.615298190583116E-3    8.266667243894591E-4    2.296128071943921E-1    4.606276307030100E-1
 8.150699526575000E9     8.147928257149167E-2    5.358188197761689E-1   -2.623488751011097E-3    8.025143058051965E-4   -2.663671016655575E-3    8.078770218065624E-4    2.300976512525719E-1    4.604237658455005E-1
 8.150705589300000E9     8.197137296654518E-2    5.357898683664778E-1   -2.642544572614332E-3    8.242452327549427E-4   -2.639755303142412E-3    8.445944001865866E-4    2.304475261372762E-1    4.602086135726460E-1
 8.150711652025000E9     8.224334430958144E-2    5.357183803015989E-1   -2.619517066540814E-3    7.964847461862848E-4   -2.626794839528028E-3    8.659453447902032E-4    2.308146455787607E-1    4.602061379367366E-1
 8.150717714750000E9     8.266802910571988E-2    5.356243513000287E-1   -2.632130285492593E-3    8.159618702716599E-4   -2.637739535512789E-3    8.513637296491412E-4    2.309501913584998E-1    4.599548169248059E-1
 8.150723777475000E9     8.317155050809058E-2    5.355859157785092E-1   -2.646942259080482E-3    7.977385112133894E-4   -2.644270685776699E-3    8.567775042006320E-4    2.314705007353057E-1    4.598311552040826E-1
 8.150729840200000E9     8.367311448643579E-2    5.355026476341186E-1   -2.627848303441716E-3    8.158009799500860E-4   -2.629756343565626E-3    8.592811545860813E-4    2.315822856609375E-1    4.595739341532242E-1
 8.150735902925000E9     8.394156170245451E-2    5.354050201977733E-1   -2.637157470822858E-3    8.210253750763010E-4   -2.624067943486232E-3    8.465828892509714E-4    2.321168217577259E-1    4.593399645371903E-1
 8.150741965650000E9     8.440057277735473E-2    5.353503660521136E-1   -2.619125309350566E-3    8.174029144273329E-4   -2.653124119903341E-3    8.535260414930995E-4    2.325048038357234E-1    4.590755818170201E-1
 8.150748028375000E9     8.489154046560737E-2    5.353196617571818E-1   -2.636120802586254E-3    8.273696420730360E-4   -2.628451782078863E-3    8.827735591612325E-4    2.327208452631790E-1    4.590282112115448E-1
 8.150754091100000E9     8.528877485680408E-2    5.352405155643719E-1   -2.628633424899665E-3    8.291772622270574E-4   -2.666973300254047E-3    8.678528245613558E-4    2.331152043430437E-1    4.587597857535013E-1
 8.150760153825000E9     8.572553633972259E-2    5.351818329228656E-1   -2.610932984601977E-3    8.337922972536018E-4   -2.627423539495033E-3    8.948561017063640E-4    2.333811294726550E-1    4.586022246152854E-1
 8.150766216550000E9     8.597899414232889E-2    5.351354981018449E-1   -2.593470714447815E-3    8.210655592055473E-4   -2.640400515519442E-3    8.883747189823877E-4    2.338408391404054E-1    4.584942190646876E-1
 8.150772279275000E9     8.642402620575097E-2    5.351046917648252E-1   -2.628734743174754E-3    8.382024206909253E-4   -2.648884359610055E-3    8.570654211859269E-4    2.341348854449911E-1    4.581950763840624E-1
 8.150778342000000E9     8.703546391820613E-2    5.350688549161043E-1   -2.610696984011363E-3    8.338127625874520E-4   -2.645075487319518E-3    8.906492673259922E-4    2.345477573253855E-1    4.580277841739369E-1
 8.150784404725000E9     8.735219072478757E-2    5.350377179280179E-1   -2.641905390587453E-3    8.489349857448737E-4   -2.633226048210272E-3    8.874161781541009E-4    2.348354830739597E-1    4.578622127502578E-1
 8.150790467450000E9     8.777497821307977E-2    5.348770521494578E-1   -2.632300198791791E-3    8.257975901554047E-4   -2.630635813627777E-3    8.986684376632018E-4    2.352548246134415E-1    4.576206477897469E-1
 8.150796530175000E9     8.816555564096155E-2    5.347427964638666E-1   -2.628281359740703E-3    8.562194093550915E-4   -2.644703988771903E-3    8.774263655543627E-4    2.355532585892260E-1    4.574760072647195E-1
 8.150802592900000E9     8.860667484505916E-2    5.347186290693554E-1   -2.625763457544573E-3    8.757610318389914E-4   -2.650517450352006E-3    9.018789715044943E-4    2.357566431399623E-1    4.573541535003418E-1
 8.150808655625000E9     8.923017364068241E-2    5.346793166390785E-1   -2.631540213614024E-3    8.531203999624816E-4   -2.667370149739892E-3    8.973196889739719E-4    2.362990891389765E-1    4.571584941153253E-1
 8.150814718350000E9     8.941764677417828E-2    5.347311330213621E-1   -2.634069499247154E-3    8.466778814976547E-4   -2.646212864364215E-3    8.993228703335195E-4    2.366244502281777E-1    4.568620339008637E-1
 8.150820781075000E9     8.999356753646801E-2    5.345744084044157E-1   -2.656655850011186E-3    8.834010786161467E-4   -2.641384871571931E-3    8.856311643414761E-4    2.368732658053619E-1    4.569601382955976E-1
 8.150826843800000E9     9.042067508642965E-2    5.344467738178597E-1   -2.624326929859107E-3    8.407983233731345E-4   -2.657448259978868E-3    8.931792782769645E-4    2.372952740964497E-1    4.566243331354900E-1
 8.150832906525000E9     9.086202665067855E-2    5.344909384151404E-1   -2.635213191547686E-3    8.618932236326076E-4   -2.653907391208384E-3    8.868165003193815E-4    2.376460407100833E-1    4.564237451881683E-1
 8.150838969250000E9     9.121384113210498E-2    5.343287844172490E-1   -2.628050868621763E-3    8.442934133681618E-4   -2.627111964054013E-3    8.918084796315374E-4    2.379287453000931E-1    4.561924893433823E-1
 8.150845031975000E9     9.163772121723945E-2    5.344435277344218E-1   -2.660066568105895E-3    8.417029841857746E-4   -2.642189459994152E-3    9.018715612551331E-4    2.381056083185172E-1    4.561798530614726E-1
 8.150851094700000E9     9.218720202017097E-2    5.343133621640080E-1   -2.637479339689973E-3    8.707049652889712E-4   -2.642798852266634E-3    9.443514435226027E-4    2.386763085277604E-1    4.558802989051581E-1
 8.150857157425000E9     9.240577962760259E-2    5.341589340118883E-1   -2.644249134161169E-3    8.664692613303881E-4   -2.627372231822376E-3    9.231433839289366E-4    2.388490445443759E-1    4.557080437111539E-1
 8.150863220150000E9     9.288186745277180E-2    5.341658435539641E-1   -2.647701618247536E-3    8.669690693103548E-4   -2.663458071279898E-3    9.291933092333950E-4    2.392816247150474E-1    4.554032382880409E-1
 8.150869282875000E9     9.331604309449132E-2    5.340455647257857E-1   -2.643097997297386E-3    8.902135389047272E-4   -2.663698896159441E-3    9.200575804245064E-4    2.397990346813922E-1    4.550557822470590E-1
 8.150875345600000E9     9.392834163296644E-2    5.339839336269498E-1   -2.633178474533178E-3    8.727675019256390E-4   -2.656410817292075E-3    9.296370201292532E-4    2.400194539336061E-1    4.551752213953938E-1
 8.150881408325000E9     9.425250680487553E-2    5.339094770447276E-1   -2.643189679397938E-3    8.959867427061079E-4   -2.673889302834406E-3    9.306364876063588E-4    2.403290890269696E-1    4.549708911593314E-1
 8.150887471050000E9     9.468290041022293E-2    5.338186121037486E-1   -2.644941642310925E-3    8.954096113443490E-4   -2.660530691383964E-3    9.151372128059258E-4    2.407389840346522E-1    4.548566064955098E-1
 8.150893533775000E9     9.500259620043022E-2    5.338282210225915E-1   -2.626133470055054E-3    8.925660276591579E-4   -2.682053425143633E-3    9.632581893082377E-4    2.410788823729058E-1    4.545599864367139E-1
 8.150899596500000E9     9.552427001877102E-2    5.337038043479025E-1   -2.641620925265402E-3    9.004759396708137E-4   -2.678827559098596E-3    9.577245562766883E-4    2.414129447827027E-1    4.543426904969682E-1
 8.150905659225000E9     9.590979763577659E-2    5.336482852463762E-1   -2.653959006551010E-3    8.742763373027055E-4   -2.652754747755703E-3    9.598402827760861E-4    2.417385505450155E-1    4.540486598658981E-1
 8.150911721950000E9     9.627650426347084E-2    5.336573574835144E-1   -2.631038941795855E-3    8.941791954860151E-4   -2.667424876841237E-3    9.817653341274869E-4    2.420371852608852E-1    4.540132104040813E-1
 8.150917784675000E9     9.677758254799282E-2    5.335516485492910E-1   -2.661431906755102E-3    8.675573791805266E-4   -2.658169728758368E-3    9.535513796490277E-4    2.424438059761607E-1    4.537913728720111E-1
 8.150923847400000E9     9.725794995978793E-2    5.334964096504398E-1   -2.626168826139438E-3    9.213703336359801E-4   -2.673847608887393E-3    9.481336810955999E-4    2.427158427433614E-1    4.536816807550222E-1
 8.150929910125000E9     9.764645418665757E-2    5.333919359392743E-1   -2.664761222852749E-3    8.957720121431127E-4   -2.654448795152452E-3    9.354587500925232E-4    2.428892893742476E-1    4.535170788212782E-1
 8.150935972850000E9     9.806619664251756E-2    5.333723139220053E-1   -2.659575581958412E-3    9.046481404917064E-4   -2.682146895906666E-3    9.819740300712940E-4    2.433392594526409E-1    4.532301121810699E-1
 8.150942035575000E9     9.837592550977875E-2    5.332121987546738E-1   -2.643293133294256E-3    9.434019327664235E-4   -2.703277326546758E-3    9.614880226372970E-4    2.438724733911027E-1    4.529958488172743E-1
 8.150948098300000E9     9.893760925614392E-2    5.330972688297037E-1   -2.670275657764990E-3    9.249242439411681E-4   -2.651265275950586E-3    9.847268065569946E-4    2.440544918016916E-1    4.527862535651005E-1
 8.150954161025000E9     9.935558761879772E-2    5.331903780906883E-1   -2.659352570679566E-3    9.132419169999102E-4   -2.652839422308972E-3    9.427296926374864E-4    2.445032389400251E-1    4.526595726370444E-1
 8.150960223750000E9     9.974772480183544E-2    5.331427372881004E-1   -2.666669801580899E-3    9.098134656663692E-4   -2.674452933440425E-3    9.441120126894237E-4    2.448382296703109E-1    4.523380500268774E-1
 8.150966286475000E9     1.002007626967107E-1    5.330404684436710E-1   -2.660367578073278E-3    9.284138768137783E-4   -2.657378181601865E-3    1.010727472877262E-3    2.451478861509372E-1    4.523184273634361E-1
 8.150972349200000E9     1.006060711112210E-1    5.329286965970342E-1   -2.642388153160984E-3    9.359445810939692E-4   -2.660149622226420E-3    9.880295945805082E-4    2.454084215914843E-1    4.520685938282613E-1
 8.150978411925000E9     1.009595535070886E-1    5.328155262122796E-1   -2.655730905661946E-3    9.596501818841470E-4   -2.677619373983035E-3    1.005328094195113E-3    2.457491842706307E-1    4.518919014901181E-1
 8.150984474650000E9     1.014435597607147E-1    5.328430124909709E-1   -2.661235149769881E-3    9.507963483349729E-4   -2.664445235585788E-3    9.896740650389602E-4    2.461255679610944E-1    4.517432353236768E-1
 8.150990537375000E9     1.018355291464578E-1    5.326989525211181E-1   -2.670844728550317E-3    9.497445395129961E-4   -2.640565218763177E-3    9.922288001821362E-4    2.464932563855413E-1    4.515418959847872E-1
 8.150996600100000E9     1.021581498396280E-1    5.325557465254159E-1   -2.678374308620334E-3    9.377045909964885E-4   -2.684460774703524E-3    9.927328933805421E-4    2.468349540956156E-1    4.513086421998343E-1
 8.151002662825000E9     1.028154096247728E-1    5.326621552333677E-1   -2.655903672856684E-3    9.565418272588161E-4   -2.681807962197442E-3    1.005041223499415E-3    2.471995250221116E-1    4.510280749941250E-1
 8.151008725550000E9     1.031987267025441E-1    5.326035769586863E-1   -2.644365249293837E-3    9.624970512715228E-4   -2.690297838064296E-3    1.003713878438233E-3    2.474316788056591E-1    4.508936240019422E-1
 8.151014788275000E9     1.036597946260698E-1    5.323010226949046E-1   -2.659526569826290E-3    9.608421968965675E-4   -2.689241858891267E-3    1.035657659943333E-3    2.478313267798500E-1    4.507979303856653E-1
 8.151020851000000E9     1.040577896691728E-1    5.323148942077259E-1   -2.678765659192153E-3    9.695940287157471E-4   -2.691672870919599E-3    9.983922791342737E-4    2.481784408107925E-1    4.505172079398079E-1
 8.151026913725000E9     1.044897447594185E-1    5.322287449257096E-1   -2.686821416684062E-3    9.581620522791403E-4   -2.706616151398512E-3    1.035094350850031E-3    2.485847332012950E-1    4.501906538125174E-1
 8.151032976450000E9     1.047849110249935E-1    5.321886566642499E-1   -2.675119165665213E-3    9.630637867381963E-4   -2.667345826804444E-3    1.035742226206599E-3    2.488815465885982E-1    4.500084064852349E-1
 8.151039039175000E9     1.052866552675306E-1    5.320657153654735E-1   -2.680218638265462E-3    9.850791087629908E-4   -2.711592056872533E-3    1.025578998117681E-3    2.492105343526906E-1    4.498728526112783E-1
 8.151045101900000E9     1.057550958001077E-1    5.319766564387802E-1   -2.667809458432402E-3    9.378590763498340E-4   -2.711542786944216E-3    1.030346623594648E-3    2.496063722855748E-1    4.497242423719833E-1
 8.151051164625000E9     1.061562399437384E-1    5.320549629653202E-1   -2.675862847957108E-3    9.921886515022100E-4   -2.671124186502237E-3    1.019618516599957E-3    2.498691947638725E-1    4.495283884006714E-1
 8.151057227350000E9     1.066570267734986E-1    5.318359124447537E-1   -2.682988542947705E-3    9.786269945888570E-4   -2.715384863746730E-3    1.008497912304391E-3    2.503286827590063E-1    4.493822966292770E-1
 8.151063290075000E9     1.069268762596153E-1    5.317956359218500E-1   -2.697978612121958E-3    9.868024741895773E-4   -2.706866994973378E-3    1.018138916684417E-3    2.504695971363103E-1    4.489082370072234E-1
 8.151069352800000E9     1.074559338565326E-1    5.316644625306937E-1   -2.675846454677000E-3    9.677406418142311E-4   -2.662464269378877E-3    1.038291612486555E-3    2.509069492255027E-1    4.490096143895024E-1
 8.151075415525000E9     1.078443186324226E-1    5.317402951391489E-1   -2.700941064002856E-3    1.016108728633178E-3   -2.690337354089534E-3    1.061498456934331E-3    2.513014757858028E-1    4.487671238432384E-1
 8.151081478250000E9     1.083753681830492E-1    5.316113092797250E-1   -2.693614515975396E-3    1.014111033424856E-3   -2.683394532162097E-3    1.075055720975040E-3    2.515662681058340E-1    4.486151059348740E-1
