#  HZ   S   RI   R     50.00 
! Rohde & Schwarz Vector Network Analyzer 
! Rohde-Schwarz,ZNB20-2Port,1311601062101988,3.16
! Created: UTC 3/21/2024, 12:56:24 AM
! freq[Hz]                re:S11                  im:S11                  re:S21                  im:S21                  re:S12                  im:S12                  re:S22                  im:S22
 8.150543290000000E9     7.017317190375051E-2    5.370542075298458E-1   -2.607277167707736E-3    7.421707157013321E-4   -2.631610618929820E-3    7.921974327129618E-4    2.207148664808287E-1    4.652344376022060E-1
 8.150549332150000E9     7.079946170369537E-2    5.369929293463818E-1   -2.631027484372998E-3    7.230754915474870E-4   -2.613806562195583E-3    7.767473911162863E-4    2.211448870779504E-1    4.649020453762517E-1
 8.150555374300000E9     7.107538634991402E-2    5.369592677221444E-1   -2.615140999554435E-3    7.280732709405061E-4   -2.620091365430509E-3    7.792030035380515E-4    2.215625027975328E-1    4.648110560729348E-1
 8.150561416450000E9     7.170683912329563E-2    5.369596643578958E-1   -2.614468440812037E-3    7.326504290879574E-4   -2.630388230101449E-3    7.843578270614219E-4    2.218306253009284E-1    4.646060281359509E-1
 8.150567458600000E9     7.198520788059021E-2    5.368711790207916E-1   -2.616847570916629E-3    7.330148853125952E-4   -2.629512650051190E-3    7.958171940546196E-4    2.221030399833785E-1    4.644723993426871E-1
 8.150573500750000E9     7.238596747376914E-2    5.369125721948340E-1   -2.603795877333070E-3    7.394606654430394E-4   -2.603141829526028E-3    7.972247960861945E-4    2.225077795536123E-1    4.642853609407564E-1
 8.150579542900000E9     7.282486185838692E-2    5.368469973321024E-1   -2.619543976715930E-3    7.398391722987392E-4   -2.654232271950875E-3    8.291278905114787E-4    2.229926786086423E-1    4.640551514169419E-1
 8.150585585050000E9     7.334200430736480E-2    5.366988503128798E-1   -2.601630071682026E-3    7.322656835877977E-4   -2.600857828543538E-3    7.884606503743481E-4    2.232227512346410E-1    4.639806197769087E-1
 8.150591627200000E9     7.381704422756150E-2    5.367336590108823E-1   -2.611882144504153E-3    7.781294383740208E-4   -2.626002240459173E-3    8.361785738720321E-4    2.235615760849290E-1    4.637324618018681E-1
 8.150597669350000E9     7.415813062993044E-2    5.366503473393922E-1   -2.609909184212932E-3    7.669790126262324E-4   -2.616980355099778E-3    7.919678645757013E-4    2.239949409819302E-1    4.635283825503789E-1
 8.150603711500000E9     7.454623319126916E-2    5.366947554166811E-1   -2.619629655073687E-3    7.484474209702914E-4   -2.621596247317615E-3    8.041005770054573E-4    2.241027105359735E-1    4.634680968313403E-1
 8.150609753650000E9     7.493958406866415E-2    5.366827991235521E-1   -2.609453004084820E-3    7.715442342894206E-4   -2.644931453945454E-3    8.285882976465316E-4    2.246457137275027E-1    4.632410978966104E-1
 8.150615795800000E9     7.539086929901551E-2    5.365453418925099E-1   -2.619556401687479E-3    7.517434023554415E-4   -2.613840991650296E-3    8.097132344119219E-4    2.249888070137143E-1    4.631323869953216E-1
 8.150621837950000E9     7.579996281170694E-2    5.365421361242233E-1   -2.621314546178530E-3    7.723862855336374E-4   -2.615998254421392E-3    8.274926420654298E-4    2.252992493603254E-1    4.629257202977395E-1
 8.150627880100000E9     7.630041436641836E-2    5.363963787855293E-1   -2.598434156690696E-3    7.553702301886634E-4   -2.607728322908189E-3    8.044235527613858E-4    2.256432236836213E-1    4.627030248785150E-1
 8.150633922250000E9     7.667255565768413E-2    5.363900823675823E-1   -2.630648405432695E-3    7.867945704246271E-4   -2.625781718053080E-3    8.204237508550517E-4    2.259590949269344E-1    4.626953912544753E-1
 8.150639964400000E9     7.727232876697081E-2    5.362370311404927E-1   -2.618210949477920E-3    7.819146774616419E-4   -2.631558221344556E-3    8.218065210951439E-4    2.262285115464035E-1    4.624394498590937E-1
 8.150646006550000E9     7.754069893695130E-2    5.362445206307113E-1   -2.606453183794382E-3    7.671551358440572E-4   -2.630040971633329E-3    8.300988153954032E-4    2.268545375624888E-1    4.622462621986476E-1
 8.150652048700000E9     7.800978598318851E-2    5.362202634719564E-1   -2.635510925188651E-3    8.012618395147685E-4   -2.619699648319601E-3    8.382236620521847E-4    2.270856381640235E-1    4.619720351666684E-1
 8.150658090850000E9     7.839785566701128E-2    5.361486265377420E-1   -2.608300422775562E-3    7.968262838871978E-4   -2.627226152036752E-3    8.295813406158743E-4    2.274051948153790E-1    4.618364653134754E-1
 8.150664133000000E9     7.882661717400431E-2    5.360323558036034E-1   -2.638394622773757E-3    7.924017585306060E-4   -2.619501847691699E-3    8.362237531188635E-4    2.276995506437994E-1    4.616606849496935E-1
 8.150670175150000E9     7.921986243357441E-2    5.360195190246320E-1   -2.622092210316466E-3    7.831078781741621E-4   -2.645283708141748E-3    8.377014417362979E-4    2.280526627060795E-1    4.614448604664806E-1
 8.150676217300000E9     7.966167705948267E-2    5.360947030268985E-1   -2.616274231061648E-3    7.772032586908247E-4   -2.654514343869720E-3    8.592511458727643E-4    2.284554951235259E-1    4.613771952916951E-1
 8.150682259450000E9     8.004980315037750E-2    5.359071492564241E-1   -2.640698186147735E-3    7.758951403650319E-4   -2.634820154687853E-3    8.507622507843412E-4    2.287103487638906E-1    4.611913365761673E-1
 8.150688301600000E9     8.048949676519103E-2    5.358495992083282E-1   -2.621762754076005E-3    7.642053915862724E-4   -2.638435673228899E-3    8.072930846743039E-4    2.290718251736911E-1    4.609529814111193E-1
 8.150694343750000E9     8.090065179668106E-2    5.357617442959051E-1   -2.632778492752450E-3    8.003175477616385E-4   -2.634434474464594E-3    8.592936807876472E-4    2.295210261197139E-1    4.607186641736848E-1
 8.150700385900000E9     8.131931235897293E-2    5.357290326222609E-1   -2.642082723394998E-3    7.993659965820047E-4   -2.611747811962441E-3    8.522368480587091E-4    2.298238873406968E-1    4.604298976998126E-1
 8.150706428050000E9     8.175918007566779E-2    5.356873817409837E-1   -2.598810453235253E-3    7.806060028027030E-4   -2.635625984951815E-3    8.329806561638052E-4    2.301531257133059E-1    4.604758121412257E-1
 8.150712470200000E9     8.223640543781285E-2    5.355744052953569E-1   -2.629437820835109E-3    8.045776962670234E-4   -2.608948967271595E-3    8.444381644053289E-4    2.305093400943372E-1    4.602343645739175E-1
 8.150718512350000E9     8.261413708784303E-2    5.355535350484240E-1   -2.638020729043373E-3    8.244076992256282E-4   -2.620756863421955E-3    8.845943232605201E-4    2.308253963044120E-1    4.599707638103614E-1
 8.150724554500000E9     8.310403464696776E-2    5.355175776629352E-1   -2.618758348369720E-3    8.103433013839992E-4   -2.618850834053293E-3    8.401080027134625E-4    2.312336134665971E-1    4.599207674071461E-1
 8.150730596650000E9     8.358804897877065E-2    5.353372735015778E-1   -2.625193744566691E-3    7.993386664279452E-4   -2.641135839586073E-3    8.191015752236375E-4    2.314802923059723E-1    4.598028143927625E-1
 8.150736638800000E9     8.388408148435884E-2    5.355392421385220E-1   -2.641876015476329E-3    8.130132193506191E-4   -2.649633107258498E-3    8.558714156511277E-4    2.317986321651419E-1    4.594029506987035E-1
 8.150742680950000E9     8.440995848909646E-2    5.354170007734820E-1   -2.612411105716764E-3    7.930379178511248E-4   -2.637968759893710E-3    8.714996521959952E-4    2.323301038286022E-1    4.595259265707322E-1
 8.150748723100000E9     8.468357769989715E-2    5.353160289183683E-1   -2.641975442241197E-3    8.333641913036402E-4   -2.650131935748993E-3    8.624030791836727E-4    2.324385632539926E-1    4.591413285547696E-1
 8.150754765250000E9     8.512275951907021E-2    5.352422561936878E-1   -2.612092184698883E-3    8.488641473608840E-4   -2.643942177920336E-3    8.717663009214405E-4    2.328503556474764E-1    4.588754163608279E-1
 8.150760807400000E9     8.550110638090912E-2    5.351860558104528E-1   -2.608155527832549E-3    8.232530866372892E-4   -2.667512724471060E-3    8.980270859777935E-4    2.331894708656967E-1    4.589186691398194E-1
 8.150766849550000E9     8.605869413559590E-2    5.352516529960994E-1   -2.614546267519051E-3    8.264550200545295E-4   -2.652537285865689E-3    8.636746335050127E-4    2.336678945449843E-1    4.585340943340855E-1
 8.150772891700000E9     8.647166512242038E-2    5.350826557800743E-1   -2.631563219320911E-3    8.428190711744050E-4   -2.635006386873556E-3    8.976677953817706E-4    2.339485562557700E-1    4.583118975569865E-1
 8.150778933850000E9     8.689789156502854E-2    5.350022430392071E-1   -2.634216695629264E-3    8.306413181798483E-4   -2.659925438702072E-3    8.928584356143486E-4    2.343828931597375E-1    4.581338737369213E-1
 8.150784976000000E9     8.727341830291541E-2    5.351500035250579E-1   -2.631608035054704E-3    8.221183587273296E-4   -2.631195787053367E-3    8.589228815895999E-4    2.347141633218501E-1    4.580586387883127E-1
 8.150791018150000E9     8.772723766367234E-2    5.349263648483619E-1   -2.605397883994534E-3    8.205242625217080E-4   -2.651335309405386E-3    9.028400773977438E-4    2.349802203592853E-1    4.578930608618180E-1
 8.150797060300000E9     8.814322866092825E-2    5.348508869062506E-1   -2.633674519900514E-3    8.373770314377432E-4   -2.653239126539580E-3    8.925627178083081E-4    2.353927656003972E-1    4.576182615110025E-1
 8.150803102450000E9     8.860736453200217E-2    5.348118084529924E-1   -2.648012786471422E-3    8.401591061167812E-4   -2.644419159245422E-3    8.818935540890072E-4    2.357128801618883E-1    4.575428868314076E-1
 8.150809144600000E9     8.899109782190755E-2    5.346534910861833E-1   -2.667827822388677E-3    8.345850811072854E-4   -2.625173025975195E-3    8.925140024924831E-4    2.360271755457456E-1    4.573325931455024E-1
 8.150815186750000E9     8.931021993381456E-2    5.345688441573572E-1   -2.625233909220402E-3    8.552210001475188E-4   -2.643426547145104E-3    8.734423530339242E-4    2.362337185206116E-1    4.570913674685896E-1
 8.150821228900000E9     8.987348396496292E-2    5.345834083036238E-1   -2.623902845656343E-3    8.497937842013038E-4   -2.644575702484913E-3    8.648979436935760E-4    2.367042191431231E-1    4.569665147108068E-1
 8.150827271050000E9     9.018710078069479E-2    5.345525278353139E-1   -2.634225882036877E-3    8.202861758299911E-4   -2.663435082149355E-3    9.104694613579174E-4    2.370574767178814E-1    4.568262861387978E-1
 8.150833313200000E9     9.059325583958261E-2    5.345165201801854E-1   -2.625495437588153E-3    8.463715148586451E-4   -2.658810708138173E-3    8.990973842964429E-4    2.373960575488378E-1    4.565248510039003E-1
 8.150839355350000E9     9.112186779868922E-2    5.343696199542294E-1   -2.631640924585682E-3    8.387062448253130E-4   -2.645723467285084E-3    9.108652223363404E-4    2.376879851905093E-1    4.564315616973654E-1
 8.150845397500000E9     9.157765088359461E-2    5.344295803812906E-1   -2.656660155017688E-3    8.798816044512194E-4   -2.634696059984444E-3    9.266270471850947E-4    2.380848038764774E-1    4.561129769328979E-1
 8.150851439650000E9     9.188227589608192E-2    5.343125180368054E-1   -2.638317442471669E-3    8.636128190250496E-4   -2.641661738256322E-3    9.203159562613873E-4    2.383588105434376E-1    4.560735095241613E-1
 8.150857481800000E9     9.232340752342005E-2    5.343605179798766E-1   -2.631583411786337E-3    8.595846013026587E-4   -2.639747163439294E-3    9.542395043477790E-4    2.387241001269844E-1    4.558718416417900E-1
 8.150863523950000E9     9.278151591222276E-2    5.342483252397788E-1   -2.641373675090145E-3    8.457977141107808E-4   -2.659135078939401E-3    9.354304402889708E-4    2.391348832727007E-1    4.555482825137440E-1
 8.150869566100000E9     9.326417293118028E-2    5.341055625015899E-1   -2.650481905450531E-3    8.565141186284724E-4   -2.650408341305649E-3    9.611035737588601E-4    2.393619827382101E-1    4.555602190746751E-1
 8.150875608250000E9     9.357647152523793E-2    5.338904920647932E-1   -2.635051485912477E-3    8.737310114268776E-4   -2.656248773280674E-3    9.028413395045799E-4    2.397317416623755E-1    4.553230998205158E-1
 8.150881650400000E9     9.407444115971672E-2    5.338046274231152E-1   -2.649028734913175E-3    8.903823813317234E-4   -2.686143045162765E-3    9.372666183225002E-4    2.400175178915013E-1    4.550065041902996E-1
 8.150887692550000E9     9.448541801399833E-2    5.340514770194492E-1   -2.658561733207874E-3    8.742880266347788E-4   -2.633720427425330E-3    9.278448739937906E-4    2.403817516228253E-1    4.549472388103135E-1
 8.150893734700000E9     9.493408745510398E-2    5.337893624009267E-1   -2.635769414806219E-3    8.932876904664268E-4   -2.678479311304838E-3    9.362798273443645E-4    2.407890632430142E-1    4.546945440629422E-1
 8.150899776850000E9     9.527975283891373E-2    5.337399380431623E-1   -2.652704032151251E-3    8.690849671755682E-4   -2.676522737219748E-3    9.628019309200009E-4    2.410844414367925E-1    4.544385131772656E-1
 8.150905819000000E9     9.583959657101608E-2    5.336091776806144E-1   -2.653648416103691E-3    8.937664079217620E-4   -2.670798263616797E-3    9.587976420573236E-4    2.414831648178868E-1    4.541926229810374E-1
 8.150911861150000E9     9.619140021104777E-2    5.335996752889589E-1   -2.634922925574774E-3    9.143168256554307E-4   -2.643774677107766E-3    9.477514438527822E-4    2.418522309539010E-1    4.541195544259670E-1
 8.150917903300000E9     9.659127970340441E-2    5.336554061239753E-1   -2.652695724682564E-3    9.240917240424591E-4   -2.651333664621089E-3    9.389929396500602E-4    2.420657946476116E-1    4.539761729557122E-1
 8.150923945450000E9     9.704591509177102E-2    5.334268771791105E-1   -2.651693409325390E-3    9.042190910466000E-4   -2.634368237424969E-3    9.475474005923228E-4    2.425348870530153E-1    4.537260556645962E-1
 8.150929987600000E9     9.751179305494799E-2    5.334213646674830E-1   -2.654400656768574E-3    9.218156013575593E-4   -2.697599865849788E-3    9.359270688291811E-4    2.428552007924910E-1    4.535673306895420E-1
 8.150936029750000E9     9.807242805889482E-2    5.333115090177922E-1   -2.671983278588558E-3    9.044319628507323E-4   -2.646964027155078E-3    9.617945114943429E-4    2.431268650432474E-1    4.532792515467080E-1
 8.150942071900000E9     9.841619698556864E-2    5.332454874057360E-1   -2.633654692136355E-3    9.347424224374042E-4   -2.666350475784468E-3    9.523201850681837E-4    2.434579187270997E-1    4.530949358415758E-1
 8.150948114050000E9     9.883059965620526E-2    5.332484088954250E-1   -2.684568360237680E-3    8.878911024338108E-4   -2.670231963299185E-3    9.561131753858454E-4    2.438402402481881E-1    4.530488456473575E-1
 8.150954156200000E9     9.916783551688553E-2    5.330909550608981E-1   -2.669565232697220E-3    9.213958055124975E-4   -2.697168886019363E-3    9.838521210636128E-4    2.441266390301948E-1    4.528153110130703E-1
 8.150960198350000E9     9.955908551122845E-2    5.331105547586553E-1   -2.646777290743058E-3    9.430194552257360E-4   -2.667887356001396E-3    9.556565308255243E-4    2.445309101089655E-1    4.526049474068596E-1
 8.150966240500000E9     1.000126518553536E-1    5.329875430814508E-1   -2.671852187329518E-3    9.210816047634634E-4   -2.676580596378398E-3    9.765185297728357E-4    2.449414816865300E-1    4.523611387672679E-1
 8.150972282650000E9     1.004354178308850E-1    5.329422169320052E-1   -2.661639335142186E-3    9.283379930558915E-4   -2.661495268105994E-3    9.667560322660209E-4    2.452669892916238E-1    4.522863855862414E-1
 8.150978324800000E9     1.009446351772200E-1    5.328150150643840E-1   -2.682199678589224E-3    9.351209564817315E-4   -2.673770071867684E-3    1.008037085416061E-3    2.455138185213250E-1    4.519508596334495E-1
 8.150984366950000E9     1.013174401647580E-1    5.327698306978927E-1   -2.669891284951129E-3    9.455296338678665E-4   -2.708904804337618E-3    9.886615331435784E-4    2.459093338114166E-1    4.517418728443530E-1
 8.150990409100000E9     1.017657684527906E-1    5.326932992815848E-1   -2.662792473660766E-3    9.384171653369737E-4   -2.684129765860113E-3    9.872950594188607E-4    2.462340507362648E-1    4.516892929179210E-1
 8.150996451250000E9     1.021845552923388E-1    5.325545722137045E-1   -2.672113032863217E-3    9.404269952359588E-4   -2.694772778935068E-3    9.767905113153218E-4    2.466451383192511E-1    4.514042121058630E-1
 8.151002493400000E9     1.026369272168501E-1    5.324354356366473E-1   -2.669813378721509E-3    9.545270668926287E-4   -2.700188233299966E-3    1.017356525931341E-3    2.468641125319850E-1    4.513271177467393E-1
 8.151008535550000E9     1.029806647549867E-1    5.324707279305690E-1   -2.686070287910508E-3    9.393369068459461E-4   -2.691870701840590E-3    9.987014616832253E-4    2.473338094541278E-1    4.510040769458556E-1
 8.151014577700000E9     1.034340426101227E-1    5.324506713018430E-1   -2.695628197765429E-3    9.784041997050851E-4   -2.651621006807781E-3    1.019262249113794E-3    2.475364206886736E-1    4.509245759740651E-1
 8.151020619850000E9     1.039784600933509E-1    5.323292609086723E-1   -2.656819675593401E-3    9.686693791158670E-4   -2.668425124652570E-3    1.017568387425706E-3    2.478589398178903E-1    4.507179862868785E-1
 8.151026662000000E9     1.043628835431250E-1    5.322079833194827E-1   -2.682077746556278E-3    9.775419518486034E-4   -2.691625138606069E-3    1.026945124861620E-3    2.481292703225203E-1    4.503300277450428E-1
 8.151032704150000E9     1.047910333029543E-1    5.321771299752490E-1   -2.693249188893011E-3    9.690617989008588E-4   -2.685259227337001E-3    9.997177589063648E-4    2.486509510489372E-1    4.502445375137162E-1
 8.151038746300000E9     1.051313170997499E-1    5.321585044820827E-1   -2.683937043908013E-3    9.879050769439463E-4   -2.678732044914592E-3    1.026511864413140E-3    2.488264097966236E-1    4.500456954394749E-1
 8.151044788450000E9     1.056824813874769E-1    5.320323910994169E-1   -2.689589742176103E-3    9.654341128271648E-4   -2.702818630499870E-3    1.001233236925718E-3    2.492478263361502E-1    4.498159172797360E-1
 8.151050830600000E9     1.060186721372414E-1    5.318557062673769E-1   -2.689535061227529E-3    9.761554670803752E-4   -2.682771207886021E-3    1.037139318889899E-3    2.496384725985682E-1    4.496424696912793E-1
 8.151056872750000E9     1.064335353860685E-1    5.317695971159023E-1   -2.682868270035659E-3    9.988490743609454E-4   -2.667064464629932E-3    1.035120095776715E-3    2.498891532651998E-1    4.495547036160851E-1
 8.151062914900000E9     1.069099546809255E-1    5.318638998882450E-1   -2.687067443122320E-3    1.006624045978698E-3   -2.700388386740432E-3    1.045462848541742E-3    2.503470799315150E-1    4.492781462889595E-1
 8.151068957050000E9     1.073800151082836E-1    5.316162027314316E-1   -2.693514538757365E-3    1.003897253530768E-3   -2.721952220257364E-3    1.033615424718751E-3    2.505395537016595E-1    4.491362306905303E-1
 8.151074999200000E9     1.077635221872605E-1    5.316893316420032E-1   -2.688112866410549E-3    9.972337778256248E-4   -2.721301242912972E-3    1.046805850762584E-3    2.509420676174194E-1    4.489480103860667E-1
 8.151081041350000E9     1.082300468032272E-1    5.315638662156460E-1   -2.681004320249777E-3    9.952198453837097E-4   -2.712834416681241E-3    1.039310226290896E-3    2.513309103212680E-1    4.486956389235346E-1
 8.151087083500000E9     1.086019770115554E-1    5.314536757758663E-1   -2.706520051302053E-3    9.899490273789599E-4   -2.706656714244449E-3    1.060991001330660E-3    2.515290648058395E-1    4.485277104055905E-1
