#  HZ   S   RI   R     50.00 
! Rohde & Schwarz Vector Network Analyzer 
! Rohde-Schwarz,ZNB20-2Port,1311601062101988,3.16
! Created: UTC 3/21/2024, 12:56:52 AM
! freq[Hz]                re:S11                  im:S11                  re:S21                  im:S21                  re:S12                  im:S12                  re:S22                  im:S22
 8.150439896000000E9     6.284391068714669E-2    5.377120450705493E-1   -2.603455144968415E-3    6.827195438371209E-4   -2.631169757781203E-3    7.619033985680819E-4    2.141016567580746E-1    4.685199474204886E-1
 8.150446448300000E9     6.323948099688928E-2    5.377475372906059E-1   -2.637337142860826E-3    7.025754082266843E-4   -2.609865371315708E-3    7.389567245959464E-4    2.145543250486024E-1    4.682888132167051E-1
 8.150453000600000E9     6.368957922233819E-2    5.376285794918919E-1   -2.605159893615959E-3    7.015360556888238E-4   -2.611402640249739E-3    7.722542843188380E-4    2.149225887905221E-1    4.680209656648959E-1
 8.150459552900000E9     6.424592817990563E-2    5.376586046771985E-1   -2.598739380932759E-3    6.883992025792406E-4   -2.624786454042435E-3    7.356260587391712E-4    2.154077435215119E-1    4.679258615271726E-1
 8.150466105200000E9     6.463347016505874E-2    5.374864550201081E-1   -2.604037016750448E-3    7.112196493972676E-4   -2.640977070414198E-3    7.463053624670831E-4    2.155578444486187E-1    4.676516983314917E-1
 8.150472657500000E9     6.512982070747050E-2    5.374908263333393E-1   -2.584709359712988E-3    6.857373542770347E-4   -2.625724591170300E-3    7.352843276439110E-4    2.160768165705947E-1    4.675402281933155E-1
 8.150479209800000E9     6.563982437531980E-2    5.374919984267020E-1   -2.594368736338166E-3    7.003436456208169E-4   -2.609051446361610E-3    7.815673935535570E-4    2.164931258478521E-1    4.674426367396090E-1
 8.150485762100000E9     6.612434365472232E-2    5.374042460573426E-1   -2.619731398490164E-3    6.942028725893517E-4   -2.608438182912334E-3    7.451011819285643E-4    2.167833187015964E-1    4.671782887858611E-1
 8.150492314400000E9     6.650022540586495E-2    5.374411851396138E-1   -2.605666828051903E-3    6.987110881502493E-4   -2.615194954449526E-3    7.552259669268195E-4    2.171438101386051E-1    4.670861364436933E-1
 8.150498866700000E9     6.700192392921771E-2    5.373555112308103E-1   -2.600811815971693E-3    7.032694116025208E-4   -2.596744229671535E-3    7.522785580062187E-4    2.177038905261303E-1    4.666912409827682E-1
 8.150505419000000E9     6.740257197919311E-2    5.372019332699587E-1   -2.611407174275286E-3    7.152368763974842E-4   -2.601431867572421E-3    8.065190664161393E-4    2.180877503734086E-1    4.666622300393428E-1
 8.150511971300000E9     6.791285425041417E-2    5.373168172250727E-1   -2.630545396256988E-3    7.271756472755632E-4   -2.656836854929206E-3    7.680757199089673E-4    2.184439558971212E-1    4.665826866561380E-1
 8.150518523600000E9     6.833156729604183E-2    5.371481477592973E-1   -2.601874743969397E-3    7.208684356923548E-4   -2.632296577856057E-3    7.943575572859885E-4    2.186939020600387E-1    4.661639594270809E-1
 8.150525075900000E9     6.874756236051414E-2    5.371548071861443E-1   -2.612204022709427E-3    7.360443062840119E-4   -2.593320848284170E-3    7.705916389501402E-4    2.191308717688499E-1    4.661035117802007E-1
 8.150531628200000E9     6.920997003779744E-2    5.371828883064593E-1   -2.609678921648850E-3    7.220686875835451E-4   -2.617969385801572E-3    7.807580525443187E-4    2.194457404734483E-1    4.657253701751381E-1
 8.150538180500000E9     6.965270624571336E-2    5.370047094858144E-1   -2.609127899946363E-3    7.210596950694009E-4   -2.619227408946552E-3    7.819910162958977E-4    2.198889577697558E-1    4.656376463316399E-1
 8.150544732800000E9     7.022739580031437E-2    5.368796633140042E-1   -2.618978914111204E-3    7.254260089367563E-4   -2.625445351008479E-3    7.594444601730713E-4    2.201465619452682E-1    4.654764439832927E-1
 8.150551285100000E9     7.056139386681713E-2    5.369542162630573E-1   -2.595388433378539E-3    7.356480032955842E-4   -2.606423727744365E-3    7.798916040922438E-4    2.207472564745545E-1    4.653451514885398E-1
 8.150557837400000E9     7.114211821995113E-2    5.369387161808156E-1   -2.603695407505495E-3    7.503470052837404E-4   -2.653877802727280E-3    7.815165711837917E-4    2.210571529552058E-1    4.652488881717098E-1
 8.150564389700000E9     7.164027792421629E-2    5.368818367037700E-1   -2.615639846485259E-3    7.313682795901529E-4   -2.627397796950091E-3    7.783230362336669E-4    2.214451688251089E-1    4.649741753008887E-1
 8.150570942000000E9     7.213684350302763E-2    5.367788433784370E-1   -2.600245841220259E-3    7.506288767172841E-4   -2.602150652746360E-3    7.925038512996089E-4    2.218847783659797E-1    4.648532451856692E-1
 8.150577494300000E9     7.255048132039160E-2    5.368108718819367E-1   -2.624132429404128E-3    7.469507724691532E-4   -2.629656759751993E-3    7.727194228280028E-4    2.220648061988542E-1    4.644376096662208E-1
 8.150584046600000E9     7.293569432628180E-2    5.367287257705435E-1   -2.612218156055642E-3    7.567409347553276E-4   -2.621015875928860E-3    7.922422445723588E-4    2.224899670862272E-1    4.644314126125031E-1
 8.150590598900000E9     7.355599610881387E-2    5.365844566337423E-1   -2.606298171866408E-3    7.401122652655058E-4   -2.658688925028660E-3    7.801841435138282E-4    2.229397456960777E-1    4.642806312240595E-1
 8.150597151200000E9     7.381822553685526E-2    5.366082075081930E-1   -2.603292799584037E-3    7.323961474088743E-4   -2.619917983100455E-3    8.161868102745378E-4    2.233083948348457E-1    4.641180413977593E-1
 8.150603703500000E9     7.430874746835731E-2    5.365178887778721E-1   -2.621045532974931E-3    7.564301755327750E-4   -2.633689368758508E-3    8.272743230544715E-4    2.236507048948665E-1    4.637863996254219E-1
 8.150610255800000E9     7.478623592908178E-2    5.364184385897148E-1   -2.612729453019369E-3    7.666517323173713E-4   -2.612902030031854E-3    8.127713710212892E-4    2.239395635025508E-1    4.637257510211018E-1
 8.150616808100000E9     7.515454501993256E-2    5.365425382773923E-1   -2.624231342882964E-3    7.474863556131555E-4   -2.611924108496062E-3    8.099050755113170E-4    2.244138493107100E-1    4.633972024047936E-1
 8.150623360400000E9     7.580488091440425E-2    5.363444632055108E-1   -2.609515019577129E-3    7.600160764988617E-4   -2.633556363102678E-3    8.156806865952270E-4    2.248262784453025E-1    4.631589444452160E-1
 8.150629912700000E9     7.617657357353318E-2    5.362219855964038E-1   -2.640721316160985E-3    7.768448333380441E-4   -2.628866715775228E-3    8.187997744359622E-4    2.251779001745325E-1    4.631694046794455E-1
 8.150636465000000E9     7.661999377790280E-2    5.362563810364352E-1   -2.607332039780566E-3    7.694463951096487E-4   -2.620353435662730E-3    8.242285703088091E-4    2.255107395782974E-1    4.629059192659864E-1
 8.150643017300000E9     7.714272673787730E-2    5.362588525673723E-1   -2.603198423198777E-3    7.731683986237888E-4   -2.652655241291117E-3    8.349599638812697E-4    2.259424251618309E-1    4.627902322886284E-1
 8.150649569600000E9     7.756786373055730E-2    5.361017538218285E-1   -2.602824665182385E-3    7.526744720303156E-4   -2.587753501147465E-3    8.101132585077333E-4    2.263783698734743E-1    4.624688910322725E-1
 8.150656121900000E9     7.819390553386593E-2    5.360482248070971E-1   -2.604120718439904E-3    7.654490119867292E-4   -2.631459171645747E-3    8.310155945425588E-4    2.266032053873494E-1    4.622447308309622E-1
 8.150662674200000E9     7.838884111335168E-2    5.360365257064648E-1   -2.625254592117383E-3    7.574710111758717E-4   -2.632858032306154E-3    8.433019033344190E-4    2.270516333849815E-1    4.621216559940104E-1
 8.150669226500000E9     7.898804063028285E-2    5.359588405312524E-1   -2.651404370839799E-3    7.687933532097551E-4   -2.657284796709835E-3    8.798551873418891E-4    2.274131620765907E-1    4.618686454795448E-1
 8.150675778800000E9     7.939195720401855E-2    5.359196580902560E-1   -2.618567452140275E-3    7.970554119223800E-4   -2.638192312478891E-3    8.158874672594555E-4    2.278108363145487E-1    4.616711582308778E-1
 8.150682331100000E9     7.981065728074520E-2    5.358665045466525E-1   -2.599036477355775E-3    7.641856875523685E-4   -2.639825505789460E-3    8.314686642332331E-4    2.281566963371366E-1    4.615926472139978E-1
 8.150688883400000E9     8.035246873190230E-2    5.357791852111068E-1   -2.605004300899045E-3    7.871985677287892E-4   -2.631411006281119E-3    8.409421951213135E-4    2.284159771203244E-1    4.614326186098987E-1
 8.150695435700000E9     8.066792225068378E-2    5.357864919226449E-1   -2.606330455604155E-3    7.554835882809264E-4   -2.615817511479170E-3    8.345361508804099E-4    2.288689635967652E-1    4.610541437228098E-1
 8.150701988000000E9     8.126659947137395E-2    5.357866257064970E-1   -2.620464988768584E-3    7.790658265950795E-4   -2.627443677372824E-3    8.284253062108874E-4    2.293947125794652E-1    4.609247234700637E-1
 8.150708540300000E9     8.165321163509373E-2    5.356936854860310E-1   -2.600061392921617E-3    7.864602662517854E-4   -2.638345723864617E-3    8.418127733685430E-4    2.296742850031057E-1    4.608515478666051E-1
 8.150715092600000E9     8.229434219278729E-2    5.354980296314118E-1   -2.626457258927592E-3    7.894887019148748E-4   -2.637778483102566E-3    8.290571925548651E-4    2.301193221597647E-1    4.605916386155840E-1
 8.150721644900000E9     8.274066653275355E-2    5.353815235324055E-1   -2.612795138918843E-3    7.923826597775539E-4   -2.632647823890895E-3    8.951135670677946E-4    2.303672465446789E-1    4.604030689979328E-1
 8.150728197200000E9     8.312604456692682E-2    5.354128971638478E-1   -2.614131856398244E-3    8.212608406764627E-4   -2.626813721187216E-3    8.535654318042891E-4    2.307299509483325E-1    4.601666520114560E-1
 8.150734749500000E9     8.352971646500973E-2    5.354306736836222E-1   -2.623287329214229E-3    8.365916759295323E-4   -2.649426411107803E-3    8.500339694524775E-4    2.312208953362998E-1    4.599973848062072E-1
 8.150741301800000E9     8.398665053375517E-2    5.352419927808916E-1   -2.626434436423077E-3    8.027102072434625E-4   -2.639704675600262E-3    8.713086465799318E-4    2.314570992905992E-1    4.597546470456349E-1
 8.150747854100000E9     8.449140868816785E-2    5.353411090866800E-1   -2.616310093486628E-3    8.221488094637147E-4   -2.623182062661219E-3    8.594359757928694E-4    2.319083728399740E-1    4.595143195515399E-1
 8.150754406400000E9     8.494737543063881E-2    5.351622890251121E-1   -2.617952096719752E-3    8.397990380234194E-4   -2.637246692070883E-3    8.663812380782536E-4    2.322614622722336E-1    4.594646662440497E-1
 8.150760958700000E9     8.536993540741976E-2    5.352168546485271E-1   -2.640533137731057E-3    8.127433820867860E-4   -2.642516898748914E-3    8.359547061056682E-4    2.326334313698979E-1    4.592063495766551E-1
 8.150767511000000E9     8.576745240577212E-2    5.350191775616893E-1   -2.625220145581505E-3    8.091713359567692E-4   -2.646282688980411E-3    8.914101820890625E-4    2.331455888003460E-1    4.590197008566190E-1
 8.150774063300000E9     8.610383660428532E-2    5.350638293218092E-1   -2.639735659134834E-3    8.410844573186768E-4   -2.607715502207251E-3    8.696231602175323E-4    2.334053010460257E-1    4.586354377326778E-1
 8.150780615600000E9     8.678603847097971E-2    5.349473964435386E-1   -2.633433048175147E-3    8.351986121549119E-4   -2.643794881590928E-3    8.679729316214175E-4    2.338631416923496E-1    4.585206845921428E-1
 8.150787167900000E9     8.709925223346830E-2    5.349143211038062E-1   -2.627032557525654E-3    8.570419714595839E-4   -2.657132735394033E-3    8.927456600624098E-4    2.342101311214741E-1    4.583237424146067E-1
 8.150793720200000E9     8.762234572962052E-2    5.348132626860025E-1   -2.639321416534841E-3    8.379852638843282E-4   -2.652259897999535E-3    9.060489091065376E-4    2.344538036901017E-1    4.582808739385597E-1
 8.150800272500000E9     8.819588891099070E-2    5.347868131545136E-1   -2.626118590333184E-3    8.021316327374568E-4   -2.636669437323236E-3    8.745278300045734E-4    2.348837107550606E-1    4.580449956372890E-1
 8.150806824800000E9     8.850790464083774E-2    5.346534292668859E-1   -2.638970884721602E-3    8.577954532215788E-4   -2.657233854343570E-3    9.041258654281185E-4    2.352542416802170E-1    4.576869774388780E-1
 8.150813377100000E9     8.893968053500566E-2    5.346724933514051E-1   -2.631007718347922E-3    8.340992785803499E-4   -2.645600473911093E-3    8.840558692020824E-4    2.357457237623048E-1    4.573902682601675E-1
 8.150819929400000E9     8.944209138550031E-2    5.344482959243324E-1   -2.643629981405270E-3    8.579422426522156E-4   -2.644811262299997E-3    9.067716932324900E-4    2.359658762059501E-1    4.573590737895294E-1
 8.150826481700000E9     8.993077522800733E-2    5.345390067917191E-1   -2.617518047541290E-3    8.869765163129284E-4   -2.631228527264184E-3    8.727255806647967E-4    2.364168070388706E-1    4.571846704381732E-1
 8.150833034000000E9     9.041313504665911E-2    5.345287363443583E-1   -2.638639119805556E-3    8.679242806025254E-4   -2.653329244330546E-3    8.935575723993342E-4    2.368834385229744E-1    4.570311777807006E-1
 8.150839586300000E9     9.093678555213795E-2    5.343319842419713E-1   -2.655782379173622E-3    8.721927470921251E-4   -2.658981915353838E-3    8.674673167500915E-4    2.370652780308452E-1    4.566878383940298E-1
 8.150846138600000E9     9.140928975015805E-2    5.341602711301257E-1   -2.627602224870959E-3    8.486494974860296E-4   -2.652996056541682E-3    9.211347358933763E-4    2.374814067576794E-1    4.565477228041672E-1
 8.150852690900000E9     9.175534806712324E-2    5.342514722151702E-1   -2.652796572056784E-3    8.623611792334001E-4   -2.641065675441134E-3    9.079953286887684E-4    2.379875157123479E-1    4.564336598024761E-1
 8.150859243200000E9     9.233457710865489E-2    5.341457286908825E-1   -2.647027180351202E-3    8.811874171985737E-4   -2.647735598459561E-3    9.193504659624836E-4    2.382708703013309E-1    4.561614141021941E-1
 8.150865795500000E9     9.267028496133302E-2    5.340552771200316E-1   -2.626117673468173E-3    8.866663101749225E-4   -2.630192425218476E-3    9.408317381345696E-4    2.385942389523027E-1    4.559066262701148E-1
 8.150872347800000E9     9.312431293179282E-2    5.339817509059710E-1   -2.654237928823892E-3    8.783620662541775E-4   -2.645089715194071E-3    9.219868759715615E-4    2.390330459844592E-1    4.557469734193553E-1
 8.150878900100000E9     9.353670914920936E-2    5.338936786548519E-1   -2.663729555308403E-3    8.802334065751007E-4   -2.654595474077600E-3    9.289560136397996E-4    2.392442433058860E-1    4.555633676815976E-1
 8.150885452400000E9     9.406738373032823E-2    5.338288726859349E-1   -2.621549324368884E-3    8.928064911379570E-4   -2.647360202956925E-3    9.348279725091827E-4    2.398080570399928E-1    4.552220506476197E-1
 8.150892004700000E9     9.450457097686751E-2    5.337790411863311E-1   -2.659342105929192E-3    8.840128536672961E-4   -2.642251779065580E-3    9.477940685677103E-4    2.402094122951001E-1    4.552234763872138E-1
 8.150898557000000E9     9.500222663133755E-2    5.338013917626071E-1   -2.621742635746293E-3    8.836851384152292E-4   -2.648832539920694E-3    9.485596266316861E-4    2.404650449847608E-1    4.549781154406362E-1
 8.150905109300000E9     9.556770912733256E-2    5.336370352640908E-1   -2.655954379158725E-3    9.085759170926840E-4   -2.671023059554062E-3    9.454969806236665E-4    2.407885118550468E-1    4.546608998036540E-1
 8.150911661600000E9     9.592821396181743E-2    5.335331025693149E-1   -2.654580362660133E-3    9.075047852523255E-4   -2.665918044589227E-3    9.422044410566710E-4    2.411072169327965E-1    4.545775986600603E-1
 8.150918213900000E9     9.637865548444019E-2    5.334938787062771E-1   -2.635690272760341E-3    9.031945020771833E-4   -2.706632585611666E-3    9.126408848103244E-4    2.415802090648926E-1    4.544879544694586E-1
 8.150924766200000E9     9.677929066206221E-2    5.333947285475543E-1   -2.642064408718232E-3    9.100273457386754E-4   -2.675353785548099E-3    9.658817011491815E-4    2.419873749316232E-1    4.540667107856406E-1
 8.150931318500000E9     9.717557699266363E-2    5.334099256268072E-1   -2.655970081540491E-3    9.050887610678001E-4   -2.695302231829528E-3    9.572741565306498E-4    2.422941649743355E-1    4.540369739524849E-1
 8.150937870800000E9     9.778169290969715E-2    5.333951123125945E-1   -2.653870399742555E-3    8.902905714101276E-4   -2.682110745899411E-3    9.728229767485529E-4    2.427290236496673E-1    4.537701931366179E-1
 8.150944423100000E9     9.823581583470545E-2    5.333463314475038E-1   -2.661005676192874E-3    9.316845995269839E-4   -2.672906864727927E-3    9.480418763416649E-4    2.430324305442329E-1    4.535519371477078E-1
 8.150950975400000E9     9.864680074647979E-2    5.331283640777476E-1   -2.661668782477499E-3    9.572660949775559E-4   -2.678162356345018E-3    9.617906705125872E-4    2.435263940523755E-1    4.532773168698048E-1
 8.150957527700000E9     9.918456152549640E-2    5.330472599397533E-1   -2.638110673878547E-3    9.246566063961911E-4   -2.659791751143791E-3    9.829029851861062E-4    2.438422504808133E-1    4.529178466783919E-1
 8.150964080000000E9     9.967135276649715E-2    5.328870095722569E-1   -2.665935114278546E-3    9.095273340841005E-4   -2.665488249404211E-3    9.690432865157286E-4    2.442205013369513E-1    4.526532806488985E-1
 8.150970632300000E9     1.001160764299525E-1    5.328996815666576E-1   -2.658141086879898E-3    9.397712187822646E-4   -2.684017016878417E-3    9.848595152735212E-4    2.445661703116200E-1    4.525885506072037E-1
 8.150977184600000E9     1.005746871679620E-1    5.327603307008598E-1   -2.680725307218192E-3    9.407825212865201E-4   -2.674744422001620E-3    9.798041472104499E-4    2.449348033189293E-1    4.524079321470330E-1
 8.150983736900000E9     1.010553591351741E-1    5.327706426415832E-1   -2.664168881277181E-3    9.255167996287520E-4   -2.665953247939340E-3    9.821676688286979E-4    2.453039923898369E-1    4.522146350848293E-1
 8.150990289200000E9     1.014497543334139E-1    5.326190473174083E-1   -2.649126250693256E-3    9.353362676128961E-4   -2.677796626271431E-3    9.828640608128211E-4    2.454900120166688E-1    4.521047764611387E-1
 8.150996841500000E9     1.019358227998388E-1    5.326148290476586E-1   -2.661891257828708E-3    9.626281169397904E-4   -2.682464437917659E-3    9.887974977489924E-4    2.459926148258424E-1    4.519480075352039E-1
 8.151003393800000E9     1.023332601477838E-1    5.324752375397015E-1   -2.674712635663792E-3    9.530523907619522E-4   -2.673432315008681E-3    1.000502775056698E-3    2.463148490908065E-1    4.514939316638583E-1
 8.151009946100000E9     1.029231768273891E-1    5.324869949372706E-1   -2.679050114610292E-3    9.601656043686659E-4   -2.687857057745211E-3    1.002492121041997E-3    2.467855205173902E-1    4.515270119235776E-1
 8.151016498400000E9     1.032879879252285E-1    5.322824932228758E-1   -2.677778508307543E-3    9.509285639744228E-4   -2.712663944032381E-3    1.001583734608938E-3    2.472037645270417E-1    4.509843052867086E-1
 8.151023050700000E9     1.037236208186666E-1    5.322980889009378E-1   -2.670860283315065E-3    9.652921676005922E-4   -2.714910017617367E-3    1.004461176709873E-3    2.475182295826672E-1    4.508999697592192E-1
 8.151029603000000E9     1.043175005521752E-1    5.320391203865356E-1   -2.695327644038724E-3    9.531340717875194E-4   -2.678383223039067E-3    1.005181455578015E-3    2.477977414562812E-1    4.507193025198378E-1
