#  HZ   S   RI   R     50.00 
! Rohde & Schwarz Vector Network Analyzer 
! Rohde-Schwarz,ZNB20-2Port,1311601062101988,3.16
! Created: UTC 3/21/2024, 12:57:14 AM
! freq[Hz]                re:S11                  im:S11                  re:S21                  im:S21                  re:S12                  im:S12                  re:S22                  im:S22
 8.150355788000000E9     5.656513972010150E-2    5.383551757012598E-1   -2.618669724682908E-3    6.155268219271720E-4   -2.586188581496352E-3    6.777428176283546E-4    2.091710169055929E-1    4.710801774813430E-1
 8.150362752350000E9     5.713034947756321E-2    5.382204363469308E-1   -2.616527778039788E-3    6.443761968145098E-4   -2.614551876673332E-3    6.980445251567147E-4    2.094338793649273E-1    4.708788747020510E-1
 8.150369716700000E9     5.770093683162773E-2    5.382312996078416E-1   -2.596717210097982E-3    6.648991820128912E-4   -2.623229762921442E-3    6.888752014204091E-4    2.098048518045490E-1    4.706326757453121E-1
 8.150376681050000E9     5.822260515940723E-2    5.381373925503600E-1   -2.617189768824410E-3    6.737366021585512E-4   -2.626127012623049E-3    7.026429054556515E-4    2.101820935202751E-1    4.705414787317431E-1
 8.150383645400000E9     5.882344989056449E-2    5.380699397041836E-1   -2.600124424575854E-3    6.564598278952173E-4   -2.631993141337576E-3    7.089186636263725E-4    2.106321412416132E-1    4.703305919714712E-1
 8.150390609750000E9     5.913410843134861E-2    5.381209106548765E-1   -2.606343428865066E-3    6.602919364686949E-4   -2.592336799546562E-3    7.037887332952621E-4    2.110025831665911E-1    4.700824697931383E-1
 8.150397574100000E9     5.965524230644812E-2    5.378997677862827E-1   -2.607507730519286E-3    6.496096103185666E-4   -2.653505014039036E-3    7.111367511545098E-4    2.113755772137421E-1    4.698646052118988E-1
 8.150404538450000E9     6.022659942359143E-2    5.380345242873520E-1   -2.621711580533477E-3    6.838550806849950E-4   -2.634205705247896E-3    7.379535298755231E-4    2.119424152077259E-1    4.696403785547776E-1
 8.150411502800000E9     6.058946013281901E-2    5.378280394744960E-1   -2.599830490573479E-3    6.837209149954871E-4   -2.642301393975865E-3    7.398686519407572E-4    2.122184183948673E-1    4.695064820384977E-1
 8.150418467150000E9     6.104229130209068E-2    5.379235657238562E-1   -2.612308855869159E-3    6.786812514105758E-4   -2.613145819214442E-3    7.470043080963262E-4    2.127417305332646E-1    4.693911119411703E-1
 8.150425431500000E9     6.164912294738096E-2    5.376978384836583E-1   -2.599022657873352E-3    6.636798018468673E-4   -2.635058369813112E-3    7.147800622881876E-4    2.131010403476559E-1    4.691350326184182E-1
 8.150432395850000E9     6.209840825936567E-2    5.378308158433556E-1   -2.583210748299103E-3    6.849266783506099E-4   -2.605762199874496E-3    7.033347369986085E-4    2.134137958108545E-1    4.687791710762932E-1
 8.150439360200000E9     6.259023118951634E-2    5.377194010817240E-1   -2.576770877573791E-3    6.938938356047530E-4   -2.636355160745662E-3    7.244393521331871E-4    2.138633251504009E-1    4.687410614080225E-1
 8.150446324550000E9     6.307830681564931E-2    5.378125093870773E-1   -2.585206555548399E-3    6.928401194524542E-4   -2.648196894248658E-3    7.100603336798889E-4    2.143372133400777E-1    4.685640740723055E-1
 8.150453288900000E9     6.345682716958802E-2    5.377928254336138E-1   -2.609016668702995E-3    6.735391061106551E-4   -2.588449042187554E-3    7.392577016955030E-4    2.147681867916768E-1    4.682360619003135E-1
 8.150460253250000E9     6.405746872914694E-2    5.376911715790884E-1   -2.629317179031354E-3    6.850864772571934E-4   -2.610727431252082E-3    7.110756322080103E-4    2.152947615868359E-1    4.680588778383349E-1
 8.150467217600000E9     6.442787240285812E-2    5.375522300397703E-1   -2.597583161238896E-3    6.863730721152630E-4   -2.624004091696354E-3    7.399400598827961E-4    2.154325942151849E-1    4.680948203696183E-1
 8.150474181950000E9     6.506431352024805E-2    5.375189481897503E-1   -2.609076489973686E-3    7.204954747808306E-4   -2.606514070101440E-3    7.903069017469785E-4    2.158693166260560E-1    4.676908015771733E-1
 8.150481146300000E9     6.547624086352753E-2    5.374690521208920E-1   -2.599192196656835E-3    7.207584489654348E-4   -2.628949610953275E-3    7.275092815973826E-4    2.163101670212911E-1    4.676848815225883E-1
 8.150488110650000E9     6.610928090488359E-2    5.374361426933612E-1   -2.614207478220070E-3    6.876130451098421E-4   -2.621846245835007E-3    7.566499230517686E-4    2.168017069559445E-1    4.672947151525598E-1
 8.150495075000000E9     6.662895913532012E-2    5.372891892153729E-1   -2.613480368131213E-3    7.258307560995668E-4   -2.616151711500972E-3    7.340367674640424E-4    2.171125016923742E-1    4.672581503675185E-1
 8.150502039350000E9     6.699184255276704E-2    5.373437407435094E-1   -2.603532622644432E-3    6.666396630456734E-4   -2.653437343810208E-3    7.648382336909930E-4    2.176213404974047E-1    4.669476685539671E-1
 8.150509003700000E9     6.749821428055154E-2    5.373247013006506E-1   -2.600904016477521E-3    6.995711857462841E-4   -2.599724855725856E-3    7.380995836041119E-4    2.177179770157929E-1    4.667058903895405E-1
 8.150515968050000E9     6.795904326791835E-2    5.370798176591440E-1   -2.622429469514128E-3    7.157995472655144E-4   -2.630685685781016E-3    7.633898719796266E-4    2.182279776991153E-1    4.665243866174586E-1
 8.150522932400000E9     6.849068639269415E-2    5.371568356179961E-1   -2.602888102514096E-3    7.230423477759692E-4   -2.622704007882444E-3    7.884430001660594E-4    2.187822477046899E-1    4.664135789967269E-1
 8.150529896750000E9     6.899221309742858E-2    5.371350319628311E-1   -2.604324553012707E-3    7.207730651747312E-4   -2.595621737874753E-3    8.048562471341337E-4    2.191785707718648E-1    4.662517301954913E-1
 8.150536861100000E9     6.946305121537415E-2    5.369387353216037E-1   -2.588238925957437E-3    7.383339272491519E-4   -2.622176358002235E-3    7.850584061329874E-4    2.194423116992278E-1    4.659049614421750E-1
 8.150543825450000E9     6.987400328704929E-2    5.370268580951867E-1   -2.613160188633331E-3    7.358591056097344E-4   -2.646189867615202E-3    7.796695357578963E-4    2.199803517003920E-1    4.658570528721915E-1
 8.150550789800000E9     7.040123367191346E-2    5.370084347094456E-1   -2.607960060250250E-3    7.266120974449964E-4   -2.616976824414404E-3    7.759459889844863E-4    2.204355795175708E-1    4.655582224123618E-1
 8.150557754150000E9     7.090819706494228E-2    5.369783577992743E-1   -2.617749391954256E-3    7.257469476767319E-4   -2.647548722760446E-3    7.627339221169475E-4    2.208447041461455E-1    4.654547797521779E-1
 8.150564718500000E9     7.131889365634193E-2    5.369338245635522E-1   -2.619497681785851E-3    7.515363022888170E-4   -2.633933720369510E-3    7.785861276255042E-4    2.211376969423474E-1    4.650823342836164E-1
 8.150571682850000E9     7.199650149685362E-2    5.367954825763205E-1   -2.621454218964290E-3    7.534998890475945E-4   -2.625115710461852E-3    8.023885844046166E-4    2.214875716610406E-1    4.649684718854042E-1
 8.150578647200000E9     7.239180038694286E-2    5.366026242711726E-1   -2.603597793825820E-3    7.750826304831904E-4   -2.614529009149230E-3    7.901728577508044E-4    2.218932562370743E-1    4.647860707292926E-1
 8.150585611550000E9     7.289128040327293E-2    5.366412759383686E-1   -2.594983632583050E-3    7.345003602011759E-4   -2.601430661736842E-3    8.280542417101604E-4    2.223893366760491E-1    4.645996085323890E-1
 8.150592575900000E9     7.335770492469790E-2    5.367309723024664E-1   -2.636318654268068E-3    7.744218493118904E-4   -2.622137142137492E-3    7.794849762873860E-4    2.227181067100377E-1    4.643692023758452E-1
 8.150599540250000E9     7.389932551440200E-2    5.366688565135428E-1   -2.609063910301474E-3    7.800065799413215E-4   -2.653113065592690E-3    7.869074490533247E-4    2.231356687458748E-1    4.641189332206817E-1
 8.150606504600000E9     7.430376660628786E-2    5.365389709242134E-1   -2.608000355780960E-3    7.623087460351337E-4   -2.595499814053054E-3    8.099726151890053E-4    2.235637212128327E-1    4.639330688567372E-1
 8.150613468950000E9     7.483146449482754E-2    5.364147243431862E-1   -2.604780066267288E-3    7.546881898237687E-4   -2.628409255357661E-3    7.946293002933734E-4    2.241024664648354E-1    4.637401785126807E-1
 8.150620433300000E9     7.519703792298157E-2    5.363960442899389E-1   -2.606971165846843E-3    7.698867302971397E-4   -2.634492802380100E-3    8.077859600140332E-4    2.243654712798626E-1    4.636034532011082E-1
 8.150627397650000E9     7.579725096877055E-2    5.364398927716425E-1   -2.608654882989676E-3    7.621817175357941E-4   -2.657419193265695E-3    8.086411304184536E-4    2.247942770094722E-1    4.633359919583561E-1
 8.150634362000000E9     7.626936035821918E-2    5.363217219028975E-1   -2.627429878724673E-3    7.700879862644590E-4   -2.624131158707242E-3    8.317869870342148E-4    2.252149803408278E-1    4.633406543989068E-1
 8.150641326350000E9     7.677451304270394E-2    5.363382047259148E-1   -2.626275314218672E-3    7.600571008255010E-4   -2.633487893439927E-3    8.222249426338498E-4    2.255888456075696E-1    4.629496534885008E-1
 8.150648290700000E9     7.734057564123012E-2    5.362325763751006E-1   -2.622573270633392E-3    7.815329162724374E-4   -2.643378880121024E-3    8.388539242175447E-4    2.259902046936583E-1    4.626324672130092E-1
 8.150655255050000E9     7.765728694389668E-2    5.361020779341987E-1   -2.648473243245416E-3    7.492180280889123E-4   -2.606845958734092E-3    8.399993926311985E-4    2.263879421796550E-1    4.625857179588494E-1
 8.150662219400000E9     7.832116189042755E-2    5.361006449807820E-1   -2.626431290920220E-3    7.626287745352398E-4   -2.617084623339828E-3    8.720752468595220E-4    2.268342805594039E-1    4.622847802373532E-1
 8.150669183750000E9     7.880762752620812E-2    5.359364166380737E-1   -2.617272988838277E-3    7.757545508203063E-4   -2.634954079001640E-3    8.046948761855904E-4    2.271657069937592E-1    4.621508443235504E-1
 8.150676148100000E9     7.911353006357806E-2    5.359499542386367E-1   -2.606158871659882E-3    7.938804098755457E-4   -2.625964357848982E-3    8.678792115446216E-4    2.276234325195727E-1    4.618399449262210E-1
 8.150683112450000E9     7.977602230216817E-2    5.358715246427180E-1   -2.626306831159751E-3    8.041451921414431E-4   -2.623468164037600E-3    8.422394778326909E-4    2.279997668891119E-1    4.617737055129461E-1
 8.150690076800000E9     8.011694881481012E-2    5.358326752051555E-1   -2.594342808211894E-3    7.860179822735677E-4   -2.630138323822845E-3    8.197781479903062E-4    2.283640361197204E-1    4.616584011709216E-1
 8.150697041150000E9     8.062369034827245E-2    5.358649501885687E-1   -2.623444111524461E-3    8.006580157193421E-4   -2.599600752141851E-3    8.508596716611585E-4    2.288307539612208E-1    4.612468741655097E-1
 8.150704005500000E9     8.104701530245892E-2    5.356792150315605E-1   -2.620324484945808E-3    7.707551253926707E-4   -2.618550760560365E-3    8.398088017388641E-4    2.291607096845140E-1    4.610456130558488E-1
 8.150710969850000E9     8.174140004048112E-2    5.356561856769452E-1   -2.632776142302015E-3    7.871308886543852E-4   -2.620887319182125E-3    8.432380020837717E-4    2.295563453425843E-1    4.606859694830753E-1
 8.150717934200000E9     8.216574490288411E-2    5.354819771402740E-1   -2.626426142467406E-3    8.029856172634371E-4   -2.633411228132368E-3    8.776481575503907E-4    2.300468702296671E-1    4.606313466141332E-1
 8.150724898550000E9     8.261628716386404E-2    5.354395096306204E-1   -2.648727159092759E-3    8.200310218578152E-4   -2.628792674609388E-3    8.755098241533089E-4    2.304297341207548E-1    4.603506781268143E-1
 8.150731862900000E9     8.324332195043910E-2    5.354215571544956E-1   -2.611696182341698E-3    8.050775496185806E-4   -2.629097254445970E-3    8.538535728078538E-4    2.308106172607751E-1    4.602048876635829E-1
 8.150738827250000E9     8.362712326692302E-2    5.353786904015370E-1   -2.624266948461462E-3    8.264666974125794E-4   -2.653372076382924E-3    8.507940986851922E-4    2.312312558420825E-1    4.599818806717932E-1
 8.150745791600000E9     8.416368154842664E-2    5.354002212240905E-1   -2.635019963601799E-3    8.256164649112881E-4   -2.639108665902986E-3    9.094645604010151E-4    2.316555008315843E-1    4.599283410348176E-1
 8.150752755950000E9     8.463707006376636E-2    5.352537664223238E-1   -2.628990365076030E-3    8.264564786040716E-4   -2.607046409557125E-3    8.709890719047088E-4    2.319976766303080E-1    4.596694689978786E-1
 8.150759720300000E9     8.496239148582201E-2    5.351371094607119E-1   -2.616063367646549E-3    8.262532084843836E-4   -2.642863737711770E-3    8.703410902500922E-4    2.324076733352813E-1    4.594441774068878E-1
 8.150766684650000E9     8.556923598154306E-2    5.349750375169610E-1   -2.617918078952080E-3    8.258086600535532E-4   -2.626064770874299E-3    8.900777339585015E-4    2.328307930841914E-1    4.592365991817153E-1
 8.150773649000000E9     8.603211474132451E-2    5.350525640178148E-1   -2.630434788183331E-3    8.290975445693826E-4   -2.634710106548505E-3    9.022812819156637E-4    2.330611526213779E-1    4.590236148619166E-1
 8.150780613350000E9     8.656263295894476E-2    5.349134918296027E-1   -2.638183212566051E-3    8.251467160687950E-4   -2.625751045793021E-3    9.001353481737573E-4    2.334859810907514E-1    4.586049500283133E-1
 8.150787577700000E9     8.694890883640191E-2    5.349086074714356E-1   -2.622042867518528E-3    8.539338120508802E-4   -2.676481735616197E-3    8.557090549494976E-4    2.339011447077348E-1    4.585833611834364E-1
 8.150794542050000E9     8.750290980686483E-2    5.347034522947076E-1   -2.634197946319938E-3    8.513345266011245E-4   -2.650134888312121E-3    8.921479494137136E-4    2.344980367241636E-1    4.582821147266960E-1
 8.150801506400000E9     8.800095162795649E-2    5.346420488831408E-1   -2.650591161043550E-3    8.438962992077350E-4   -2.648390135883013E-3    9.198514950976966E-4    2.347147811689722E-1    4.581028994610225E-1
 8.150808470750000E9     8.853511549655435E-2    5.347029411889842E-1   -2.644871786010775E-3    8.578386577103566E-4   -2.625252585574241E-3    8.758185298517273E-4    2.352273057039862E-1    4.579953552806437E-1
 8.150815435100000E9     8.901867572972809E-2    5.345701096637022E-1   -2.621767093551906E-3    8.517772790829475E-4   -2.657574056603703E-3    8.932098659656287E-4    2.355639124508787E-1    4.575707129378973E-1
 8.150822399450000E9     8.947606124593198E-2    5.344715514534790E-1   -2.645229315689072E-3    8.577101275855696E-4   -2.630172115897406E-3    8.801872195202637E-4    2.359902882408845E-1    4.575257005562149E-1
 8.150829363800000E9     9.005945160669993E-2    5.344439238340523E-1   -2.646520565358905E-3    8.482756040265175E-4   -2.640788454049062E-3    9.011655611005411E-4    2.361476552702213E-1    4.572370944120848E-1
 8.150836328150000E9     9.039368160367992E-2    5.343022625904387E-1   -2.635618034708715E-3    8.780338820408278E-4   -2.636924977616860E-3    9.092239337906065E-4    2.366312502705989E-1    4.569414998344534E-1
 8.150843292500000E9     9.103389721920062E-2    5.342693955122524E-1   -2.651981307099304E-3    8.581681488157597E-4   -2.674312030127011E-3    9.230537265166448E-4    2.371411507112833E-1    4.569219420795505E-1
 8.150850256850000E9     9.148303141122766E-2    5.341738651163083E-1   -2.624938363078577E-3    8.740584317163296E-4   -2.663722204254488E-3    9.121151682289663E-4    2.375127235856028E-1    4.566174949081643E-1
 8.150857221200000E9     9.196637167950880E-2    5.342774346635856E-1   -2.640012545907857E-3    9.012781005613167E-4   -2.652715017799987E-3    9.138429122075831E-4    2.380339129357619E-1    4.563941055808642E-1
 8.150864185550000E9     9.235462221499766E-2    5.340614313920218E-1   -2.642889817684806E-3    8.721201672133969E-4   -2.652974979461342E-3    9.078386821836025E-4    2.383654368153364E-1    4.561461008034183E-1
 8.150871149900000E9     9.288387482718963E-2    5.339871051328523E-1   -2.648662830636651E-3    8.703489979534577E-4   -2.668585112401417E-3    8.878694869874440E-4    2.386073059283909E-1    4.560178779268745E-1
 8.150878114250000E9     9.344788531260947E-2    5.340047675259060E-1   -2.658853555112191E-3    8.801977556459558E-4   -2.649683717820070E-3    9.223690861636125E-4    2.389199222071730E-1    4.559019338477054E-1
 8.150885078600000E9     9.394467825064448E-2    5.337964722552435E-1   -2.660343613204941E-3    8.778816435193644E-4   -2.646271097141284E-3    9.294890922184844E-4    2.394771832354779E-1    4.557223842443648E-1
 8.150892042950000E9     9.436175122739326E-2    5.338038033264745E-1   -2.637025508966653E-3    8.820253571191831E-4   -2.662917172968354E-3    9.450968003394269E-4    2.399664166116468E-1    4.552484069479977E-1
 8.150899007300000E9     9.481157936423976E-2    5.336912292669017E-1   -2.660852603068071E-3    8.879405916563248E-4   -2.635245422895246E-3    9.506671754323482E-4    2.403012882159349E-1    4.551767580246446E-1
 8.150905971650000E9     9.533101494682224E-2    5.336917615122644E-1   -2.637359414030772E-3    9.133979992346309E-4   -2.658548922461048E-3    9.305516459262397E-4    2.406265159336921E-1    4.549033319789226E-1
 8.150912936000000E9     9.573755378778316E-2    5.335757010189329E-1   -2.637386745440309E-3    8.952581736190379E-4   -2.672897581598114E-3    9.341559857573928E-4    2.409897382098641E-1    4.547967498307541E-1
 8.150919900350000E9     9.635370802971467E-2    5.334052325877336E-1   -2.636732321074688E-3    9.035599110115320E-4   -2.657921801340528E-3    9.449920641536163E-4    2.414509500552494E-1    4.544764509151904E-1
 8.150926864700000E9     9.682875921323145E-2    5.334242137466929E-1   -2.649376275808094E-3    9.146749462332013E-4   -2.659226467203676E-3    9.711567524872376E-4    2.419038560634777E-1    4.541159707425521E-1
 8.150933829050000E9     9.732059404654074E-2    5.332025884248717E-1   -2.663155790883581E-3    8.903722238747780E-4   -2.659511074468348E-3    9.616524571678719E-4    2.422562981222403E-1    4.540248915141847E-1
 8.150940793400000E9     9.778869072419846E-2    5.332005253764502E-1   -2.662898165308138E-3    9.031899855860893E-4   -2.663541487879049E-3    9.923802653695492E-4    2.426752629599806E-1    4.539300561619775E-1
 8.150947757750000E9     9.837698957782370E-2    5.331614891040134E-1   -2.678090404039054E-3    9.267242420848062E-4   -2.644543339591159E-3    9.508903035040474E-4    2.430164716851889E-1    4.535677019679542E-1
 8.150954722100000E9     9.880960314769358E-2    5.330430867221762E-1   -2.644936645853182E-3    9.099282873278754E-4   -2.662623067287858E-3    9.384735516200912E-4    2.434004087378626E-1    4.533898521870738E-1
 8.150961686450000E9     9.924461414803357E-2    5.329714562369489E-1   -2.672499889902572E-3    9.038630031917852E-4   -2.649940587720629E-3    9.726311419874103E-4    2.437684904197341E-1    4.532188830638001E-1
 8.150968650800000E9     9.979468863419221E-2    5.328330054204103E-1   -2.643010281109926E-3    9.247643566530287E-4   -2.657320537464916E-3    9.612498063122918E-4    2.442457593266645E-1    4.530068655051045E-1
 8.150975615150000E9     1.002482615536928E-1    5.328128941099730E-1   -2.647973300738965E-3    9.348668864308809E-4   -2.669815246988067E-3    9.975922452000205E-4    2.445574147935023E-1    4.527061720076299E-1
 8.150982579500000E9     1.007105978905888E-1    5.327184846272580E-1   -2.631684595949708E-3    9.369163302756122E-4   -2.669239609158362E-3    9.897157897450692E-4    2.450978462200339E-1    4.524042845453586E-1
