#  HZ   S   RI   R     50.00 
! Rohde & Schwarz Vector Network Analyzer 
! Rohde-Schwarz,ZNB20-2Port,1311601062101988,3.16
! Created: UTC 3/21/2024, 12:57:24 AM
! freq[Hz]                re:S11                  im:S11                  re:S21                  im:S21                  re:S12                  im:S12                  re:S22                  im:S22
 8.150284487000000E9     5.152560658698632E-2    5.387029976233174E-1   -2.612441516063332E-3    5.979201914168293E-4   -2.633560176748114E-3    6.938505357802898E-4    2.045973045114561E-1    4.729840994915807E-1
 8.150291791275000E9     5.204039573238616E-2    5.386153563169964E-1   -2.592374595301525E-3    6.010881073527187E-4   -2.630502974496548E-3    6.865916636398562E-4    2.051609396151197E-1    4.728195526707707E-1
 8.150299095550000E9     5.261090386759596E-2    5.385580895950782E-1   -2.587260001670748E-3    6.095673295542660E-4   -2.598996007984870E-3    6.620514234464484E-4    2.054620199095595E-1    4.725215296714053E-1
 8.150306399825000E9     5.321405306024350E-2    5.385665289934076E-1   -2.580841576851578E-3    6.205608425478930E-4   -2.606560260728643E-3    6.670536795809936E-4    2.059598213922219E-1    4.725588976013880E-1
 8.150313704100000E9     5.377871186647384E-2    5.385286810572731E-1   -2.569735305499616E-3    6.386753003059384E-4   -2.616877449562345E-3    6.935567036571539E-4    2.062675722676527E-1    4.723136917048694E-1
 8.150321008375000E9     5.415030568180364E-2    5.384659734574910E-1   -2.610506462853971E-3    6.397435287649614E-4   -2.606639682937513E-3    6.752762487605188E-4    2.068532945508120E-1    4.721711567702404E-1
 8.150328312650000E9     5.471574310885846E-2    5.383158500466154E-1   -2.608480066566160E-3    6.262348703601481E-4   -2.575372789637765E-3    6.858110498302404E-4    2.073804615079802E-1    4.718909331974418E-1
 8.150335616925000E9     5.518738170924741E-2    5.383255905913040E-1   -2.582919421963530E-3    6.472640243786914E-4   -2.625244319057579E-3    6.559459536826961E-4    2.076601376544114E-1    4.716901479376879E-1
 8.150342921200000E9     5.588171581728391E-2    5.382882412398767E-1   -2.617182297762111E-3    6.244634000783704E-4   -2.641889367570492E-3    6.984051832921484E-4    2.080855439358282E-1    4.713026993435383E-1
 8.150350225475000E9     5.626740590766975E-2    5.383011765476924E-1   -2.600519335365364E-3    6.654091210096490E-4   -2.610287885412610E-3    7.030883982870035E-4    2.084976495934882E-1    4.712823247776240E-1
 8.150357529750000E9     5.669642639477662E-2    5.381977410614577E-1   -2.597018316040820E-3    6.359561648194333E-4   -2.593188576560132E-3    6.868603547412329E-4    2.090033684338856E-1    4.710061835289613E-1
 8.150364834025000E9     5.719847913174741E-2    5.381965032446833E-1   -2.600040487721905E-3    6.385123515400164E-4   -2.607978908328887E-3    6.960717906595236E-4    2.093814929582226E-1    4.708748251199949E-1
 8.150372138300000E9     5.778844622578796E-2    5.380747922606648E-1   -2.647030136360760E-3    6.671058071246132E-4   -2.617205218127793E-3    7.400606358911139E-4    2.098555616297940E-1    4.706133328735643E-1
 8.150379442575000E9     5.829806761659512E-2    5.381394025169615E-1   -2.593909164751683E-3    6.480334320466537E-4   -2.595018549024677E-3    7.147584409432174E-4    2.101699797709907E-1    4.705395405113328E-1
 8.150386746850000E9     5.888108299034039E-2    5.380001555127729E-1   -2.597590041906755E-3    6.558011884243001E-4   -2.600166752080521E-3    7.243715975422547E-4    2.105521063722061E-1    4.702800446788904E-1
 8.150394051125000E9     5.936940117051348E-2    5.381373532553078E-1   -2.580786930902950E-3    6.807802969510048E-4   -2.597226589798554E-3    7.204771508545080E-4    2.110792989588648E-1    4.699516928314306E-1
 8.150401355400000E9     5.984640066072892E-2    5.379573956196533E-1   -2.602340886913032E-3    6.503064190005643E-4   -2.626026783943525E-3    7.257689359594079E-4    2.116044312608072E-1    4.698631836953514E-1
 8.150408659675000E9     6.039834477051530E-2    5.379016847424879E-1   -2.591512641973580E-3    6.607559042866099E-4   -2.634864314817626E-3    7.152722959769361E-4    2.119104051935953E-1    4.695383342871321E-1
 8.150415963950000E9     6.087923388192298E-2    5.377739366515517E-1   -2.609148622892934E-3    6.746346557816365E-4   -2.654737826289483E-3    7.226805038525435E-4    2.123467170090582E-1    4.693946310482647E-1
 8.150423268225000E9     6.140478793694780E-2    5.378885612850766E-1   -2.619074146711716E-3    6.747213067458703E-4   -2.642332609704136E-3    7.418328275415201E-4    2.128346114287339E-1    4.693194872802861E-1
 8.150430572500000E9     6.201788946617918E-2    5.378504085948171E-1   -2.617929685056093E-3    6.748190951715990E-4   -2.585952485187653E-3    7.059122165508843E-4    2.132691617139584E-1    4.690666383711866E-1
 8.150437876775000E9     6.244959259223059E-2    5.378586257863609E-1   -2.610674689491880E-3    6.899313679015630E-4   -2.615767267502220E-3    7.177630624482234E-4    2.135081991051295E-1    4.688155365194231E-1
 8.150445181050000E9     6.284685078740507E-2    5.377279855471461E-1   -2.617562469430311E-3    6.791449525194718E-4   -2.631716336567702E-3    7.292800567640797E-4    2.140362528590632E-1    4.684673590088335E-1
 8.150452485325000E9     6.349761711398533E-2    5.376475548746764E-1   -2.602963508686852E-3    7.161478584408506E-4   -2.612467174080502E-3    7.223701729916032E-4    2.143279496816003E-1    4.683289742643287E-1
 8.150459789600000E9     6.403693364613636E-2    5.376762688277711E-1   -2.587896062091421E-3    7.061232516099373E-4   -2.642872250015382E-3    7.485779621513490E-4    2.148295384264584E-1    4.682844895422696E-1
 8.150467093875000E9     6.449807760051379E-2    5.375403198534234E-1   -2.582366168513029E-3    6.879555513673184E-4   -2.618323548862822E-3    7.390038100406555E-4    2.153162416123894E-1    4.679611276645024E-1
 8.150474398150000E9     6.501757868430090E-2    5.375378045140972E-1   -2.594887974834399E-3    7.021754233918466E-4   -2.615460644367237E-3    7.398490836822770E-4    2.157135645691036E-1    4.677493730510687E-1
 8.150481702425000E9     6.556030379560485E-2    5.375262623141286E-1   -2.605685218559433E-3    7.086197761874620E-4   -2.636819183901070E-3    7.828184124776850E-4    2.162654911580161E-1    4.675295970231145E-1
 8.150489006700000E9     6.600849561023966E-2    5.372358223339643E-1   -2.589210522260932E-3    7.093624619529435E-4   -2.631333293681590E-3    7.443246116601996E-4    2.165135100365224E-1    4.673506018749934E-1
 8.150496310975000E9     6.649545525490547E-2    5.373015190214183E-1   -2.615649338386653E-3    7.008267124536231E-4   -2.622355894846986E-3    7.597621865035335E-4    2.170236281208797E-1    4.671489426658378E-1
 8.150503615250000E9     6.700159996851922E-2    5.374015613644325E-1   -2.614615342937386E-3    7.049245407868983E-4   -2.636586251934018E-3    7.714712214801582E-4    2.174640824341643E-1    4.670145535892623E-1
 8.150510919525000E9     6.755424706462715E-2    5.372384799879112E-1   -2.599972326185491E-3    7.235427023632862E-4   -2.615923310587206E-3    7.621181164402061E-4    2.177984948848945E-1    4.667199477870932E-1
 8.150518223800000E9     6.806823640414386E-2    5.372262684826188E-1   -2.610962791293823E-3    7.009255039009483E-4   -2.648419760914413E-3    7.621714929976588E-4    2.181872003169111E-1    4.665935866184966E-1
 8.150525528075000E9     6.859066466901957E-2    5.371192207225572E-1   -2.596670103117423E-3    7.208793113429913E-4   -2.616096928571305E-3    7.587847117200780E-4    2.187240886149256E-1    4.662795744353175E-1
 8.150532832350000E9     6.914915388272683E-2    5.371565554647841E-1   -2.602748008214494E-3    7.037001427077996E-4   -2.609551453181152E-3    7.768373083631514E-4    2.191796859179281E-1    4.661068155009451E-1
 8.150540136625000E9     6.963068921240158E-2    5.370487867595369E-1   -2.599589855861886E-3    7.056513221842197E-4   -2.637158997770734E-3    7.799560255653783E-4    2.195507489697767E-1    4.659426042213885E-1
 8.150547440900000E9     7.017359815394490E-2    5.369485231143248E-1   -2.618593928266527E-3    7.270955452202694E-4   -2.586710578467032E-3    7.801794122716022E-4    2.199312670508864E-1    4.657350699396362E-1
 8.150554745175000E9     7.062999672618739E-2    5.369156433111688E-1   -2.599495668590205E-3    7.473265640815656E-4   -2.581939257735657E-3    7.893781653821597E-4    2.204811762342392E-1    4.657301649788275E-1
 8.150562049450000E9     7.116868249332929E-2    5.368275246983574E-1   -2.619750088567620E-3    7.478562574202481E-4   -2.607147213202591E-3    8.111322449996045E-4    2.208925895364303E-1    4.653171627274188E-1
 8.150569353725000E9     7.171753887470662E-2    5.368048639695210E-1   -2.601959305334508E-3    7.445921302025102E-4   -2.626484534450974E-3    7.817619778087394E-4    2.213012485333044E-1    4.651373153898511E-1
 8.150576658000000E9     7.218401246125576E-2    5.367486904610156E-1   -2.612998260373699E-3    7.513052999090777E-4   -2.602657380173505E-3    7.897186480384629E-4    2.215731609929182E-1    4.647971181036111E-1
 8.150583962275000E9     7.261895896975061E-2    5.366309207129447E-1   -2.608025956303467E-3    7.613999767488599E-4   -2.610835268948521E-3    7.945691375655094E-4    2.221255412493969E-1    4.646969394409683E-1
 8.150591266550000E9     7.312476276021609E-2    5.366581310500200E-1   -2.610854076062535E-3    7.470685887717749E-4   -2.632613426779854E-3    7.815629949710540E-4    2.227288754493105E-1    4.646040200775783E-1
 8.150598570825000E9     7.365851266377166E-2    5.366015934329107E-1   -2.610035731252841E-3    7.519478783973384E-4   -2.618087075939702E-3    7.916052792284219E-4    2.229093095275166E-1    4.642451061150651E-1
 8.150605875100000E9     7.423708482279552E-2    5.365209748555558E-1   -2.601939962924847E-3    7.622194292375416E-4   -2.602321348192250E-3    8.148571879735663E-4    2.232354184220924E-1    4.639632162462854E-1
 8.150613179375000E9     7.472877234652511E-2    5.365239785673213E-1   -2.595863650963559E-3    7.693983407090315E-4   -2.613331360561356E-3    8.026288651792250E-4    2.237395434571561E-1    4.638902179093180E-1
 8.150620483650000E9     7.510303232801559E-2    5.364188847260766E-1   -2.590869312301823E-3    7.612075666934490E-4   -2.626241946310188E-3    7.893459947440488E-4    2.242215498117225E-1    4.636284279572888E-1
 8.150627787925000E9     7.578622923158063E-2    5.363856775223846E-1   -2.639659829463016E-3    7.673782276285934E-4   -2.685275477337769E-3    8.530754493429224E-4    2.247222513614822E-1    4.634519743443509E-1
 8.150635092200000E9     7.629290499602076E-2    5.363260544748466E-1   -2.602160109884941E-3    7.671859185178869E-4   -2.630201226525545E-3    8.247556978902786E-4    2.250424014593313E-1    4.633485034182765E-1
 8.150642396475000E9     7.686393958726075E-2    5.361755159040793E-1   -2.605086112023393E-3    7.723991185818354E-4   -2.654719690974314E-3    8.344690348494428E-4    2.255219712902369E-1    4.630421219866728E-1
 8.150649700750000E9     7.724078883730161E-2    5.361086300813557E-1   -2.609529318193974E-3    7.709642771075159E-4   -2.597916248873622E-3    8.135222100275808E-4    2.259207908727541E-1    4.627701102055622E-1
 8.150657005025000E9     7.766766192359835E-2    5.359743579971818E-1   -2.614191806219128E-3    7.598705287780472E-4   -2.610743758640985E-3    8.237787454160034E-4    2.263338519475681E-1    4.626241832791113E-1
 8.150664309300000E9     7.824307561802384E-2    5.360653195757027E-1   -2.596475192595341E-3    7.773454170517541E-4   -2.637134538046006E-3    8.559511025627744E-4    2.267499963789005E-1    4.624329450407254E-1
 8.150671613575000E9     7.884724271409316E-2    5.359762621480419E-1   -2.608196284658838E-3    7.771983487779769E-4   -2.646321687557715E-3    8.230994578899043E-4    2.270720998896391E-1    4.620846415020590E-1
 8.150678917850000E9     7.940488227952464E-2    5.359326861553750E-1   -2.628443879354255E-3    7.998788039969918E-4   -2.647436117205057E-3    8.112233535428698E-4    2.275087542776212E-1    4.618854801478518E-1
 8.150686222125000E9     7.983441053321529E-2    5.357807667642148E-1   -2.614157292679462E-3    7.876969455170294E-4   -2.627049850303152E-3    7.934915206681734E-4    2.280218790647024E-1    4.616799732779843E-1
 8.150693526400000E9     8.027747014565174E-2    5.357553647691300E-1   -2.604347389651873E-3    7.891989924546491E-4   -2.644122761805396E-3    8.621059468952729E-4    2.284044202588556E-1    4.615640168413513E-1
 8.150700830675000E9     8.085122806987201E-2    5.357272325598312E-1   -2.610662520660237E-3    8.032092264143983E-4   -2.616597825970030E-3    8.522103903048581E-4    2.286984605737984E-1    4.611307913937296E-1
 8.150708134950000E9     8.136711463852592E-2    5.355556939523447E-1   -2.627882085106973E-3    8.084602817842542E-4   -2.649395387185596E-3    8.582174536735897E-4    2.292151808534139E-1    4.610943540271353E-1
 8.150715439225000E9     8.186102548429763E-2    5.355381930893289E-1   -2.620200094938390E-3    7.872042003584097E-4   -2.621627866671538E-3    8.573068501999976E-4    2.297760282472043E-1    4.607696114051513E-1
 8.150722743500000E9     8.248468245807931E-2    5.354553118372339E-1   -2.606806661629564E-3    7.977346333022815E-4   -2.659253615318017E-3    8.417672494903935E-4    2.301759064441386E-1    4.605891944317194E-1
 8.150730047775000E9     8.296486651997564E-2    5.354099260877506E-1   -2.631632379273163E-3    8.093477194872786E-4   -2.665532659042312E-3    8.607658892118283E-4    2.305093366282147E-1    4.603837184554564E-1
 8.150737352050000E9     8.348836704114512E-2    5.353173531914927E-1   -2.636224155020033E-3    8.082503526610815E-4   -2.638725607412285E-3    8.586187846494515E-4    2.309804125786289E-1    4.602088937368600E-1
 8.150744656325000E9     8.396619440967119E-2    5.353362727659418E-1   -2.637393522821115E-3    8.400719858869047E-4   -2.624482285809603E-3    8.813172064497858E-4    2.314105475971212E-1    4.599452648204362E-1
 8.150751960600000E9     8.435300373747683E-2    5.352339536345714E-1   -2.626408792498377E-3    8.045621875770781E-4   -2.635322287081626E-3    8.651123520978948E-4    2.317263075761620E-1    4.597576281945508E-1
 8.150759264875000E9     8.489690801612182E-2    5.351110021912140E-1   -2.621334188885785E-3    8.298347164520633E-4   -2.673649690688831E-3    8.869300014056077E-4    2.321006768079096E-1    4.595764581751698E-1
 8.150766569150000E9     8.550962985300324E-2    5.350362375949083E-1   -2.632215610427800E-3    8.357974986890529E-4   -2.617593453890428E-3    8.688892796987252E-4    2.324565358366040E-1    4.592497667165811E-1
 8.150773873425000E9     8.589733003217419E-2    5.350699203917022E-1   -2.627326759577050E-3    8.162482653582333E-4   -2.675155872054079E-3    8.751919924347589E-4    2.330163441803621E-1    4.591146562444435E-1
 8.150781177700000E9     8.641634428141023E-2    5.348394050574912E-1   -2.615458549783614E-3    8.387041802307448E-4   -2.654267571218685E-3    8.971556152713943E-4    2.333999357039781E-1    4.586322048606477E-1
 8.150788481975000E9     8.700195953414860E-2    5.348656889177763E-1   -2.658333389352131E-3    8.509186301955398E-4   -2.609715167209840E-3    8.684217310288798E-4    2.337435569711771E-1    4.586646482308505E-1
 8.150795786250000E9     8.747180590793974E-2    5.347377808981142E-1   -2.623587566699021E-3    8.285669546831371E-4   -2.650051699085582E-3    8.909236478484321E-4    2.342826239922397E-1    4.583273422412335E-1
 8.150803090525000E9     8.801378187202900E-2    5.346789036749732E-1   -2.641821753051573E-3    8.444833783849523E-4   -2.671226506238252E-3    8.702971152592429E-4    2.347053110793300E-1    4.583199706712705E-1
 8.150810394800000E9     8.852738696141307E-2    5.346283661183541E-1   -2.635141909842612E-3    8.544851781694599E-4   -2.624437458433999E-3    9.036196305473884E-4    2.350891044467160E-1    4.579494786619767E-1
 8.150817699075000E9     8.897170384869564E-2    5.346482263041124E-1   -2.628417497805304E-3    8.459276711875496E-4   -2.632135058126903E-3    9.200484355406350E-4    2.354842629550888E-1    4.577154204166771E-1
 8.150825003350000E9     8.953580420803200E-2    5.344087760832581E-1   -2.646440632576930E-3    8.309316815687250E-4   -2.674189427263635E-3    8.765442662726567E-4    2.359625963597166E-1    4.574870315522720E-1
 8.150832307625000E9     9.001708814755514E-2    5.344558997508448E-1   -2.635971392126064E-3    8.533101310490538E-4   -2.638571419236005E-3    9.026832881318209E-4    2.363182841956794E-1    4.572533852105122E-1
 8.150839611900000E9     9.064430014200175E-2    5.342920976087486E-1   -2.632406216884613E-3    8.553021720611755E-4   -2.667129931294873E-3    9.049441677267018E-4    2.367308277139764E-1    4.571304554551799E-1
 8.150846916175000E9     9.112785932295855E-2    5.343119171498886E-1   -2.665458591402142E-3    8.550207336568916E-4   -2.667445535771861E-3    9.026161336677037E-4    2.371825014714462E-1    4.567415393176728E-1
 8.150854220450000E9     9.165672082597197E-2    5.341357903589269E-1   -2.631223708623537E-3    8.780222153154548E-4   -2.636575395491800E-3    9.219127105199550E-4    2.375511906470886E-1    4.565569033972372E-1
 8.150861524725000E9     9.206800556722809E-2    5.341083881746763E-1   -2.641538504448204E-3    8.680868314478288E-4   -2.666948734860496E-3    9.091964028325175E-4    2.379214304634263E-1    4.564514004320289E-1
 8.150868829000000E9     9.257299304444132E-2    5.339893822139852E-1   -2.636118085177326E-3    8.614661302750958E-4   -2.645612393020472E-3    9.438933035872532E-4    2.383889930059007E-1    4.560086297238301E-1
 8.150876133275000E9     9.318986163025415E-2    5.338913129703386E-1   -2.626590920497041E-3    8.585533271298169E-4   -2.638879837182113E-3    9.028800783224643E-4    2.387360005980559E-1    4.559281065856540E-1
 8.150883437550000E9     9.366166770804467E-2    5.338674473100475E-1   -2.652928167286408E-3    8.971070663353629E-4   -2.652377683803677E-3    8.933549783051954E-4    2.392204847049333E-1    4.557424518276647E-1
 8.150890741825000E9     9.427872550799984E-2    5.337791114363488E-1   -2.663985314656789E-3    8.819576893127937E-4   -2.645284463783751E-3    9.009883800593355E-4    2.396902605074874E-1    4.554384798005459E-1
 8.150898046100000E9     9.464048428671533E-2    5.336273823416089E-1   -2.630778847345977E-3    8.840558514376318E-4   -2.623740417089121E-3    9.497298319827825E-4    2.399353768171575E-1    4.552807956889107E-1
 8.150905350375000E9     9.509286973095755E-2    5.336004817363081E-1   -2.635475873920626E-3    8.819348715087588E-4   -2.677520565717360E-3    9.249485583590334E-4    2.404058814454310E-1    4.551045063884111E-1
 8.150912654650000E9     9.574777096408212E-2    5.334395842888103E-1   -2.651620205200088E-3    8.826607777202898E-4   -2.658949913173102E-3    9.504928461713172E-4    2.409106487503244E-1    4.547110804836281E-1
 8.150919958925000E9     9.621038416181923E-2    5.334800212914872E-1   -2.642010984707573E-3    8.776540246496525E-4   -2.658227017759195E-3    9.417022599128972E-4    2.413761280005098E-1    4.546333960694948E-1
 8.150927263200000E9     9.681813214368580E-2    5.333739602192803E-1   -2.638682579359717E-3    9.030647231974170E-4   -2.678525419172521E-3    9.796574102432592E-4    2.416801902755316E-1    4.542356162431124E-1
 8.150934567475000E9     9.729723303435463E-2    5.332936982050936E-1   -2.642050284381109E-3    8.953051363506626E-4   -2.659024589703175E-3    9.598271770843116E-4    2.421628273201883E-1    4.540478282773447E-1
 8.150941871750000E9     9.779713328060925E-2    5.332462084678131E-1   -2.670358370238786E-3    9.088126583746254E-4   -2.650719460306085E-3    9.597589033652009E-4    2.426004554013517E-1    4.539387362692222E-1
