#  HZ   S   RI   R     50.00 
! Rohde & Schwarz Vector Network Analyzer 
! Rohde-Schwarz,ZNB20-2Port,1311601062101988,3.16
! Created: UTC 3/21/2024, 12:57:44 AM
! freq[Hz]                re:S11                  im:S11                  re:S21                  im:S21                  re:S12                  im:S12                  re:S22                  im:S22
 8.150208757000000E9     4.604304031778046E-2    5.390400194764384E-1   -2.591730735378670E-3    5.879351009732563E-4   -2.618921440845767E-3    6.380986889908839E-4    1.998758055918795E-1    4.752571444520940E-1
 8.150216429975000E9     4.671740997986066E-2    5.389593504838259E-1   -2.592343387883731E-3    6.064059291758523E-4   -2.613103271845415E-3    6.088124178475529E-4    2.002596664823994E-1    4.751031309394923E-1
 8.150224102950000E9     4.715164158439906E-2    5.387811629431520E-1   -2.589533554422772E-3    6.088481241184917E-4   -2.592460798820985E-3    6.276626934851266E-4    2.007384657597974E-1    4.748751572461739E-1
 8.150231775925000E9     4.775522987504589E-2    5.388044658574971E-1   -2.620043926029188E-3    6.057178310603195E-4   -2.609060514220846E-3    6.550442353119378E-4    2.010984874090236E-1    4.747950571871839E-1
 8.150239448900000E9     4.830871682543699E-2    5.388353623711712E-1   -2.577501905256587E-3    6.106545116885513E-4   -2.585727863419684E-3    6.661654155912591E-4    2.015165464175483E-1    4.744601789348614E-1
 8.150247121875000E9     4.876376712824910E-2    5.387112547696856E-1   -2.594292111993787E-3    6.137636811408494E-4   -2.597333004084274E-3    6.534410593821025E-4    2.020752690105345E-1    4.741789648447420E-1
 8.150254794850000E9     4.935377692902675E-2    5.386945838962547E-1   -2.614591888136003E-3    6.028131677097599E-4   -2.600691408254796E-3    6.335626726194429E-4    2.023566179790984E-1    4.739822795975997E-1
 8.150262467825000E9     5.000979913314467E-2    5.386552482581773E-1   -2.602420844293201E-3    6.403663078985545E-4   -2.589797225185669E-3    6.546598051107611E-4    2.028995418699589E-1    4.737102051093259E-1
 8.150270140800000E9     5.056374972733534E-2    5.386349190670605E-1   -2.619655029904956E-3    6.116369216922824E-4   -2.594469921960117E-3    6.739460182019645E-4    2.033013527222256E-1    4.735593305119350E-1
 8.150277813775000E9     5.093997738080262E-2    5.385086019396561E-1   -2.611838089650324E-3    6.163324447581419E-4   -2.591463332572572E-3    6.635964405693793E-4    2.038348990542169E-1    4.734518043167715E-1
 8.150285486750000E9     5.167884176105346E-2    5.384808150726080E-1   -2.599376873949814E-3    6.081592936485347E-4   -2.632978020105015E-3    6.663194640039179E-4    2.044061449597794E-1    4.732109753022949E-1
 8.150293159725000E9     5.199813714299763E-2    5.384505033915725E-1   -2.590775117414629E-3    6.201238229970613E-4   -2.620106272074748E-3    6.851015576523295E-4    2.047795937369448E-1    4.730124272030706E-1
 8.150300832700000E9     5.267167643493501E-2    5.384265862606240E-1   -2.620357756995356E-3    6.262493827994094E-4   -2.617261696332175E-3    6.482908454990197E-4    2.050957599688621E-1    4.728926176175330E-1
 8.150308505675000E9     5.326242544906233E-2    5.384699283869918E-1   -2.594408597229156E-3    6.145128887629423E-4   -2.630115855600580E-3    6.842164245546631E-4    2.056346958113565E-1    4.725442868932845E-1
 8.150316178650000E9     5.380815504466543E-2    5.384064047103112E-1   -2.590870888428166E-3    6.233478856501926E-4   -2.612814022371964E-3    6.741843240918031E-4    2.060178661732006E-1    4.722592754812621E-1
 8.150323851625000E9     5.418235035120211E-2    5.383083114353698E-1   -2.633906728550820E-3    6.492515214371701E-4   -2.622789030795996E-3    6.825438083973800E-4    2.066056234877764E-1    4.721994877676856E-1
 8.150331524600000E9     5.481796767376481E-2    5.382598243055491E-1   -2.582964240499889E-3    6.205376653807488E-4   -2.600724148470071E-3    7.086107733921477E-4    2.069810893779668E-1    4.718284916948070E-1
 8.150339197575000E9     5.531719084712238E-2    5.382529793606828E-1   -2.610652397753222E-3    6.508154692045903E-4   -2.633208300116499E-3    6.648128701328185E-4    2.074367372917816E-1    4.717578186325355E-1
 8.150346870550000E9     5.589665496223362E-2    5.382327487216189E-1   -2.610782387245564E-3    6.440783132959389E-4   -2.638673629459189E-3    6.706880741134060E-4    2.079089531577310E-1    4.716075950605786E-1
 8.150354543525000E9     5.646136159011341E-2    5.382595697968167E-1   -2.597365866774985E-3    6.554529449170635E-4   -2.610408256264974E-3    7.208581406517953E-4    2.084009289686484E-1    4.714202271656504E-1
 8.150362216500000E9     5.696349016267259E-2    5.382715230220372E-1   -2.577124102739489E-3    6.576092650073536E-4   -2.599637889430715E-3    6.854660359326157E-4    2.089148539192374E-1    4.711168670149996E-1
 8.150369889475000E9     5.743050936570557E-2    5.379725394275749E-1   -2.608805854886567E-3    6.460421083278306E-4   -2.627309327762672E-3    7.000224430862792E-4    2.092950947010857E-1    4.709110372073070E-1
 8.150377562450000E9     5.801733409439144E-2    5.380997369380452E-1   -2.626739159258859E-3    6.687439286359461E-4   -2.634372587288509E-3    7.118594636391356E-4    2.097125022437770E-1    4.706572832537442E-1
 8.150385235425000E9     5.857469702247237E-2    5.380123078120116E-1   -2.621557716222076E-3    6.581657333126371E-4   -2.606573162447493E-3    7.451322879183669E-4    2.101596449781449E-1    4.704253805301709E-1
 8.150392908400000E9     5.924378553163102E-2    5.379807913840563E-1   -2.619775966959438E-3    6.794009901047799E-4   -2.579169434292814E-3    7.079137928424912E-4    2.106581825883266E-1    4.702435305046000E-1
 8.150400581375000E9     5.968385840318761E-2    5.379757235031711E-1   -2.600236690156963E-3    6.577428162929391E-4   -2.609439008018838E-3    7.113498922117143E-4    2.109347467095469E-1    4.700626571431517E-1
 8.150408254350000E9     6.027289910530469E-2    5.379270499801989E-1   -2.617269228516272E-3    6.811059966701196E-4   -2.628238826794265E-3    7.092587779272977E-4    2.114725158410726E-1    4.697871590331463E-1
 8.150415927325000E9     6.069325643865633E-2    5.378436829655722E-1   -2.579164859239756E-3    6.769507344642375E-4   -2.627605625740035E-3    7.489542190557304E-4    2.120042130353613E-1    4.695097109768603E-1
 8.150423600300000E9     6.127522299624198E-2    5.377076362887653E-1   -2.605186112328626E-3    6.821052095415429E-4   -2.617765494421456E-3    7.010697884353681E-4    2.123765075541303E-1    4.694596299282870E-1
 8.150431273275000E9     6.181835331202614E-2    5.376650535129122E-1   -2.614045309120692E-3    6.762425824366066E-4   -2.631351848293780E-3    7.350634983342787E-4    2.127805453507062E-1    4.691185733209171E-1
 8.150438946250000E9     6.239783489654049E-2    5.376846630851626E-1   -2.631908202377525E-3    6.781677448333997E-4   -2.636854064775446E-3    7.500295702751037E-4    2.132631645538043E-1    4.690175402317172E-1
 8.150446619225000E9     6.293731181848329E-2    5.375702647836835E-1   -2.624241318916935E-3    6.941271891705866E-4   -2.624149618304916E-3    7.533096436206289E-4    2.136938854134240E-1    4.688169395268839E-1
 8.150454292200000E9     6.345794031278613E-2    5.374520110775231E-1   -2.601153488411788E-3    6.723695245086067E-4   -2.599888645947034E-3    7.392003298489227E-4    2.141815345465140E-1    4.686828254195721E-1
 8.150461965175000E9     6.394449491007560E-2    5.375649984614096E-1   -2.622538694092118E-3    6.839585589523352E-4   -2.638593176605039E-3    7.418196269411684E-4    2.146711043668929E-1    4.683337294254361E-1
 8.150469638150000E9     6.450223957715073E-2    5.375216083739115E-1   -2.603739994125879E-3    6.810833174960763E-4   -2.600968938970757E-3    7.405527786825685E-4    2.151025013951126E-1    4.681685069493357E-1
 8.150477311125000E9     6.493483335628709E-2    5.372684793598529E-1   -2.590647748819924E-3    7.044571758542464E-4   -2.631478349104463E-3    7.600284225784115E-4    2.155556055517363E-1    4.679618440609881E-1
 8.150484984100000E9     6.555691364213968E-2    5.373697797768060E-1   -2.608625497750184E-3    6.908745310079909E-4   -2.588267146509254E-3    7.488047595108064E-4    2.160727531582541E-1    4.676629658909103E-1
 8.150492657075000E9     6.606921654279513E-2    5.373148374608151E-1   -2.611083822137370E-3    6.826601589509201E-4   -2.588085151773725E-3    7.650163068828266E-4    2.164190239281782E-1    4.674673492994920E-1
 8.150500330050000E9     6.668530966157037E-2    5.372877163543306E-1   -2.589216945660034E-3    7.016333170655032E-4   -2.604305738353130E-3    7.719591401071236E-4    2.168760772174512E-1    4.673080027850999E-1
 8.150508003025000E9     6.721866764505113E-2    5.371259312753504E-1   -2.598138569615876E-3    6.994047649844294E-4   -2.630043041874441E-3    7.720021645123754E-4    2.172633258623634E-1    4.669832639423794E-1
 8.150515676000000E9     6.769044729280931E-2    5.371475961876050E-1   -2.598809723237650E-3    7.073507709927534E-4   -2.610140669389530E-3    7.632611900974714E-4    2.177512691606854E-1    4.666595954640791E-1
 8.150523348975000E9     6.821551451362562E-2    5.369980232528747E-1   -2.617331815892689E-3    7.326624457338684E-4   -2.599798048751272E-3    7.771571536684207E-4    2.181876773170142E-1    4.667058946175466E-1
 8.150531021950000E9     6.869162616190540E-2    5.370613638387643E-1   -2.566744123318602E-3    7.008307492523136E-4   -2.607150326310144E-3    7.627917851410755E-4    2.186690415872370E-1    4.664730461831000E-1
 8.150538694925000E9     6.945495128300820E-2    5.369009633592760E-1   -2.612218012705761E-3    7.402128348640055E-4   -2.634800065508565E-3    7.988939113733067E-4    2.191175046806628E-1    4.661215310978981E-1
 8.150546367900000E9     6.985985054213713E-2    5.368556082330181E-1   -2.581356481210455E-3    7.118327267240450E-4   -2.618932838320842E-3    7.640180617040947E-4    2.196415327948765E-1    4.658414921035197E-1
 8.150554040875000E9     7.039848882300498E-2    5.369657225342761E-1   -2.607165103195140E-3    7.248771225683931E-4   -2.614316869819284E-3    7.608401964960868E-4    2.199012111279086E-1    4.656582353448855E-1
 8.150561713850000E9     7.088616390052108E-2    5.368969854628756E-1   -2.610915193128212E-3    7.308897863029355E-4   -2.629013244264536E-3    7.813682031373567E-4    2.204470833353594E-1    4.655308851742197E-1
 8.150569386825000E9     7.147306492597862E-2    5.367268757341316E-1   -2.616899196961803E-3    7.089643365519459E-4   -2.610730187986575E-3    8.006071378607875E-4    2.209566074557588E-1    4.653435012574790E-1
 8.150577059800000E9     7.200350093623721E-2    5.367169405571216E-1   -2.616650916042941E-3    7.205822458028581E-4   -2.616362108545421E-3    7.994359960948881E-4    2.213447558154524E-1    4.651792217850504E-1
 8.150584732775000E9     7.258223710115003E-2    5.365777214133484E-1   -2.618134745419364E-3    7.397132400533828E-4   -2.618207345687321E-3    7.782125606727990E-4    2.215341570823062E-1    4.648869263848630E-1
 8.150592405750000E9     7.310522980755332E-2    5.366147092286736E-1   -2.604574644964705E-3    7.216844747779459E-4   -2.632540749759016E-3    7.636453422589596E-4    2.221413879013547E-1    4.645632038856484E-1
 8.150600078725000E9     7.351089868738830E-2    5.365156826811723E-1   -2.613489379881119E-3    7.386277151447963E-4   -2.620380714780783E-3    7.825285906827556E-4    2.226420761066502E-1    4.643676916199511E-1
 8.150607751700000E9     7.418257730170214E-2    5.365013101650564E-1   -2.616643524591761E-3    7.405128282102908E-4   -2.648851683457156E-3    7.857007447859647E-4    2.231221572596425E-1    4.641693891832811E-1
 8.150615424675000E9     7.479117335512675E-2    5.363330875874162E-1   -2.603333364297165E-3    7.611207001522000E-4   -2.631095004453744E-3    8.246678907105456E-4    2.236752335723462E-1    4.639045131036570E-1
 8.150623097650000E9     7.527088581011714E-2    5.362435439425947E-1   -2.617309741372156E-3    7.684489333977649E-4   -2.624459712517166E-3    8.328451076281178E-4    2.239102992630307E-1    4.638268837330471E-1
 8.150630770625000E9     7.593353405860141E-2    5.363179189623670E-1   -2.642777176054606E-3    7.487763656786665E-4   -2.641568273730790E-3    8.121466535973410E-4    2.244264589208120E-1    4.634722120494275E-1
 8.150638443600000E9     7.631609579819038E-2    5.361782412783380E-1   -2.618583109654766E-3    7.795141347181637E-4   -2.620823151839645E-3    8.204027677256904E-4    2.248307365859446E-1    4.634318108077499E-1
 8.150646116575000E9     7.687248609271964E-2    5.361931551211873E-1   -2.587990313237876E-3    7.687677774745718E-4   -2.637311609610820E-3    8.432470441315517E-4    2.252851393043922E-1    4.630470407052992E-1
 8.150653789550000E9     7.733011936899765E-2    5.362262561025355E-1   -2.592220476424179E-3    7.445605373585899E-4   -2.625385276877784E-3    8.126742655675389E-4    2.257496143506908E-1    4.627859097327166E-1
 8.150661462525000E9     7.800458916828341E-2    5.359988232306860E-1   -2.613277706430087E-3    7.593940317046764E-4   -2.637010343948528E-3    8.150719245541642E-4    2.263904853363112E-1    4.626270174781458E-1
 8.150669135500000E9     7.840234768665710E-2    5.359136430967205E-1   -2.602559692882078E-3    7.720971758732258E-4   -2.624090750461545E-3    8.223920436165980E-4    2.265687120143893E-1    4.623259073301171E-1
 8.150676808475000E9     7.897130888883959E-2    5.358873951859844E-1   -2.605654875083673E-3    7.941887770189343E-4   -2.633050348778198E-3    8.288603522540219E-4    2.270273944473712E-1    4.621813187293800E-1
 8.150684481450000E9     7.953372230343352E-2    5.357448782050782E-1   -2.625420266460727E-3    7.779061898159292E-4   -2.627967593259688E-3    8.271945231482252E-4    2.274849226118506E-1    4.619280760035351E-1
 8.150692154425000E9     8.004447186804259E-2    5.358382990571423E-1   -2.615544607987068E-3    7.941435605446616E-4   -2.622111305022848E-3    8.275154492857559E-4    2.279130836353655E-1    4.617642309760823E-1
 8.150699827400000E9     8.063637423981793E-2    5.356120139453620E-1   -2.594321775242383E-3    7.773088507551099E-4   -2.623726577626673E-3    8.157598785162962E-4    2.282762249313643E-1    4.615725892213522E-1
 8.150707500375000E9     8.120645060887585E-2    5.356190187437213E-1   -2.625815627385579E-3    7.819317286115777E-4   -2.632136338436133E-3    8.202686997924813E-4    2.288892888848230E-1    4.611576843478383E-1
 8.150715173350000E9     8.175319358128928E-2    5.354517988538728E-1   -2.615874727705929E-3    7.967232747282026E-4   -2.625931958950591E-3    8.331919106667358E-4    2.292660569859546E-1    4.610313656605923E-1
 8.150722846325000E9     8.224702744144764E-2    5.354103412348572E-1   -2.629986673934945E-3    8.155182764807971E-4   -2.619223608078344E-3    8.454937371556471E-4    2.297257456425307E-1    4.607248914939557E-1
 8.150730519300000E9     8.286271505709963E-2    5.354738936412864E-1   -2.640643181998563E-3    7.693461784288556E-4   -2.632260784696759E-3    8.455485261931124E-4    2.301186568611270E-1    4.605755087815529E-1
 8.150738192275000E9     8.327659084705949E-2    5.351957754147147E-1   -2.625268019856677E-3    8.025637528791203E-4   -2.621956216387721E-3    8.661621400905237E-4    2.304729372086371E-1    4.603523707961566E-1
 8.150745865250000E9     8.378445810263707E-2    5.351873186121503E-1   -2.622137645568409E-3    8.302881852481511E-4   -2.626082981679450E-3    8.588745509878286E-4    2.309645603216938E-1    4.600659765822755E-1
 8.150753538225000E9     8.432583575104370E-2    5.351486261733142E-1   -2.636396197716807E-3    8.182966363730541E-4   -2.637054353500287E-3    8.690779149442008E-4    2.315003698179670E-1    4.598462012470819E-1
 8.150761211200000E9     8.491598788667967E-2    5.350817394674182E-1   -2.635638752168023E-3    7.979587096394489E-4   -2.616385748314764E-3    8.381291199045264E-4    2.319806791537323E-1    4.596095325743803E-1
 8.150768884175000E9     8.552274734050512E-2    5.350494849552597E-1   -2.632048388312192E-3    8.317765728024967E-4   -2.641297507501236E-3    8.431613305699147E-4    2.323038278545806E-1    4.595018121952140E-1
 8.150776557150000E9     8.592864317310824E-2    5.349871812237498E-1   -2.620193954589363E-3    8.455867232478816E-4   -2.632068609040216E-3    8.866535217291031E-4    2.328358604521145E-1    4.592825379289571E-1
 8.150784230125000E9     8.645551930439919E-2    5.347756348498176E-1   -2.625054079399890E-3    8.464292749538765E-4   -2.634116850615847E-3    8.560396200841338E-4    2.332184201277744E-1    4.588969514170464E-1
 8.150791903100000E9     8.714002544896209E-2    5.348706709020398E-1   -2.641438172665726E-3    8.401929784032857E-4   -2.640903876976210E-3    8.737952711035064E-4    2.337295751498799E-1    4.588013252917371E-1
 8.150799576075000E9     8.751222599454782E-2    5.347694147864142E-1   -2.612272449360562E-3    8.500286673538446E-4   -2.647782914676834E-3    8.676549597422615E-4    2.339040079585614E-1    4.585222732796626E-1
 8.150807249050000E9     8.809540276712913E-2    5.347015067876303E-1   -2.631672283569802E-3    8.303893874944495E-4   -2.652148640554702E-3    9.213524204367126E-4    2.344922509580070E-1    4.581969477378077E-1
 8.150814922025000E9     8.872445837885043E-2    5.345468036583131E-1   -2.639160407703586E-3    8.637161435787236E-4   -2.668550605888734E-3    8.960645865288884E-4    2.349050855183391E-1    4.581280800561431E-1
 8.150822595000000E9     8.917387368352508E-2    5.344284161270403E-1   -2.637797169965492E-3    8.470432859891370E-4   -2.630462487036178E-3    8.819579544791618E-4    2.354679917735213E-1    4.578688894952970E-1
 8.150830267975000E9     8.975524477947575E-2    5.343424812867708E-1   -2.651964862020504E-3    8.502847410964131E-4   -2.640755123028519E-3    8.723183998720338E-4    2.356839896282932E-1    4.575799890716564E-1
 8.150837940950000E9     9.016256640839039E-2    5.343096786859385E-1   -2.637425922481022E-3    8.724089736471477E-4   -2.626548369265570E-3    9.399837218673680E-4    2.362821459153076E-1    4.572742431555467E-1
 8.150845613925000E9     9.074172300300505E-2    5.342475320591377E-1   -2.673358539658408E-3    8.522334708698254E-4   -2.644377739888196E-3    9.182878902017601E-4    2.367314480226839E-1    4.570869282613561E-1
 8.150853286900000E9     9.145627585175217E-2    5.341051997538141E-1   -2.634801482963434E-3    8.749683956923772E-4   -2.656335846810413E-3    9.110330434806466E-4    2.370561647217269E-1    4.568450390419173E-1
 8.150860959875000E9     9.182056023211617E-2    5.340594291078695E-1   -2.621205436336046E-3    8.757760244509717E-4   -2.627280914515280E-3    9.025880625700957E-4    2.375896133901139E-1    4.567098794630023E-1
 8.150868632850000E9     9.247694445860659E-2    5.341091420014241E-1   -2.636418278964724E-3    8.576631816029346E-4   -2.666419264339001E-3    9.481470453989988E-4    2.381036459187884E-1    4.564300364811624E-1
 8.150876305825000E9     9.298815522619472E-2    5.338777652488964E-1   -2.677688883127307E-3    8.659328515416126E-4   -2.664649214957296E-3    9.313169451264003E-4    2.384676231673661E-1    4.560852033654176E-1
 8.150883978800000E9     9.355929004996598E-2    5.338930997248915E-1   -2.648186450858427E-3    8.843325269968448E-4   -2.669393223010893E-3    9.227675532835743E-4    2.388475616899564E-1    4.559276395144631E-1
 8.150891651775000E9     9.408628971393374E-2    5.337678711657216E-1   -2.641722961412240E-3    8.941211767515512E-4   -2.661998227400877E-3    9.188033211237203E-4    2.392411038944559E-1    4.557426217021332E-1
 8.150899324750000E9     9.455566189456435E-2    5.335920706996677E-1   -2.654752764650911E-3    8.935752549004680E-4   -2.653738039507479E-3    9.406318956061007E-4    2.397143606045817E-1    4.553756122288205E-1
