#  HZ   S   RI   R     50.00 
! Rohde & Schwarz Vector Network Analyzer 
! Rohde-Schwarz,ZNB20-2Port,1311601062101988,3.16
! Created: UTC 3/21/2024, 12:57:53 AM
! freq[Hz]                re:S11                  im:S11                  re:S21                  im:S21                  re:S12                  im:S12                  re:S22                  im:S22
 8.150184607000000E9     4.433062702757394E-2    5.390417306228157E-1   -2.610604627664887E-3    5.866079760091900E-4   -2.635311297006440E-3    6.375027467458567E-4    1.980294609408354E-1    4.760353519640444E-1
 8.150192404550000E9     4.504470228904515E-2    5.390347782461082E-1   -2.605254587446211E-3    5.627189733007469E-4   -2.600187690178219E-3    6.481659895637195E-4    1.985472135131393E-1    4.758575302087469E-1
 8.150200202100000E9     4.544398489965713E-2    5.388742364277309E-1   -2.605355470738596E-3    5.792479838529423E-4   -2.624805714197109E-3    6.443901028473059E-4    1.989142160400083E-1    4.755409571355603E-1
 8.150207999650000E9     4.611449621508899E-2    5.388454677013008E-1   -2.609781052464231E-3    5.918246161641079E-4   -2.637726719647572E-3    6.699092798579993E-4    1.993953683550843E-1    4.753970942046946E-1
 8.150215797200000E9     4.669467186075829E-2    5.389642104290324E-1   -2.609763036057022E-3    5.991192177452441E-4   -2.608848777672851E-3    6.338343443725942E-4    1.996969887917087E-1    4.752916579338807E-1
 8.150223594750000E9     4.720249641710455E-2    5.387688359992454E-1   -2.607449476549391E-3    6.070741678013533E-4   -2.625219655789602E-3    6.383155087758310E-4    2.002489241597938E-1    4.749496610806312E-1
 8.150231392300000E9     4.778168028261918E-2    5.388167409384074E-1   -2.585242480990993E-3    5.911565252933595E-4   -2.622896095573650E-3    6.343364309063304E-4    2.008338656679695E-1    4.747885805243938E-1
 8.150239189850000E9     4.820530001287489E-2    5.387712271294238E-1   -2.616459091589576E-3    6.156094090431199E-4   -2.615511323158638E-3    6.512307412873812E-4    2.013492483173028E-1    4.745163618498934E-1
 8.150246987400000E9     4.880479091941094E-2    5.387421570397051E-1   -2.614641707927485E-3    5.986474544771404E-4   -2.623615149970148E-3    6.458396949345974E-4    2.016093833818910E-1    4.744041894987740E-1
 8.150254784950000E9     4.940164671741886E-2    5.386662366711816E-1   -2.600901911647446E-3    6.040671925371468E-4   -2.627177947286034E-3    6.733920845297117E-4    2.022710197619014E-1    4.741634329706814E-1
 8.150262582500000E9     4.987750699103032E-2    5.386442047526255E-1   -2.623466119238381E-3    6.073303098545685E-4   -2.618410719144042E-3    6.591931904701904E-4    2.026577581355755E-1    4.740082518159819E-1
 8.150270380050000E9     5.057865054695936E-2    5.386126595579599E-1   -2.608587762106159E-3    6.157242577084559E-4   -2.609852285689756E-3    6.877340551249394E-4    2.030897661293001E-1    4.737648287504909E-1
 8.150278177600000E9     5.106981719171069E-2    5.385033507801139E-1   -2.599153550493694E-3    6.003690763428239E-4   -2.608920663990736E-3    6.703436894469428E-4    2.035670563458293E-1    4.734811532319299E-1
 8.150285975150000E9     5.152428817547067E-2    5.384900558007122E-1   -2.622428853783179E-3    6.566008408028034E-4   -2.637558495878505E-3    6.740137008415794E-4    2.039748909899098E-1    4.732972055442429E-1
 8.150293772700000E9     5.206801796988777E-2    5.385077822668161E-1   -2.614551722196032E-3    6.309509183377474E-4   -2.649323340502103E-3    6.763765776617919E-4    2.044932795428036E-1    4.731024579915500E-1
 8.150301570250000E9     5.261274763139111E-2    5.384466174776399E-1   -2.587764527985087E-3    6.321793813210785E-4   -2.630974492403141E-3    6.952758947083085E-4    2.049751429922872E-1    4.729751790956810E-1
 8.150309367800000E9     5.318401103415632E-2    5.383375039210850E-1   -2.589325233638786E-3    6.231452723425935E-4   -2.607485261638506E-3    7.108716410495174E-4    2.054424326415709E-1    4.729123353031821E-1
 8.150317165350000E9     5.391427323691094E-2    5.383245040455010E-1   -2.622559358866781E-3    6.396038411220187E-4   -2.612757125451716E-3    6.742554051396005E-4    2.060373686218414E-1    4.724455265621257E-1
 8.150324962900000E9     5.417275847296533E-2    5.383482889117825E-1   -2.603666722492432E-3    6.377176345016989E-4   -2.634873031312539E-3    6.630297691263480E-4    2.063183115343117E-1    4.722463996790590E-1
 8.150332760450000E9     5.480528876995351E-2    5.383219935931630E-1   -2.614120935570125E-3    6.435810096843383E-4   -2.585862277217932E-3    6.962064678895757E-4    2.067817789124255E-1    4.721926994562046E-1
 8.150340558000000E9     5.537988589502365E-2    5.382755149676991E-1   -2.594958447910147E-3    6.437038887745814E-4   -2.642887925894507E-3    7.006419712918284E-4    2.072840890199074E-1    4.719807769035595E-1
 8.150348355550000E9     5.593337480851632E-2    5.382358377826270E-1   -2.613429297670185E-3    6.200919420905360E-4   -2.639079763309302E-3    7.138854020408885E-4    2.077462883565745E-1    4.717029312285569E-1
 8.150356153100000E9     5.653680556033958E-2    5.381523252069601E-1   -2.612101057996479E-3    6.484852016945306E-4   -2.622450481289583E-3    6.705405744220392E-4    2.081108478790334E-1    4.713633797786554E-1
 8.150363950650000E9     5.704558639639905E-2    5.379547547099095E-1   -2.623204050981030E-3    6.421442547681013E-4   -2.609742292862089E-3    7.387053587610506E-4    2.086945743583715E-1    4.712300953826122E-1
 8.150371748200000E9     5.761896492003580E-2    5.380049865840364E-1   -2.594713086984057E-3    6.546894512261065E-4   -2.606189660745348E-3    7.084255485009273E-4    2.090057785657851E-1    4.709995612176889E-1
 8.150379545750000E9     5.804755780986179E-2    5.379224010078888E-1   -2.642156006820657E-3    6.469242821835409E-4   -2.621494748347572E-3    7.181624332076783E-4    2.095295089247429E-1    4.708788477002948E-1
 8.150387343300000E9     5.859800868072706E-2    5.379812382005681E-1   -2.608964562845672E-3    6.295756814365781E-4   -2.594509173791086E-3    6.830566707859207E-4    2.100027986527574E-1    4.706165993176609E-1
 8.150395140850000E9     5.917221419251174E-2    5.379448969926951E-1   -2.622822923550931E-3    6.675600495067018E-4   -2.626315402131213E-3    7.319216532175721E-4    2.105389407609827E-1    4.704130460445040E-1
 8.150402938400000E9     5.958865437080904E-2    5.379317289750033E-1   -2.618747771890422E-3    6.639132187099081E-4   -2.622924995466104E-3    7.035773086731598E-4    2.108893358300009E-1    4.701619959272473E-1
 8.150410735950000E9     6.029153572392538E-2    5.378243727421107E-1   -2.598110913533441E-3    6.690951612862574E-4   -2.638556235720332E-3    7.107535836965517E-4    2.113437410471433E-1    4.699709052381877E-1
 8.150418533500000E9     6.086471971926886E-2    5.377960793583717E-1   -2.615483349882068E-3    6.797426120871913E-4   -2.625365609923181E-3    7.209323377514125E-4    2.118947473262369E-1    4.697100734870956E-1
 8.150426331050000E9     6.137838268871324E-2    5.377585042317153E-1   -2.588712129137224E-3    6.901568164950799E-4   -2.620047556990597E-3    7.510851147984111E-4    2.122976748222967E-1    4.695081599289196E-1
 8.150434128600000E9     6.206625406261294E-2    5.376817437529205E-1   -2.569133447524487E-3    6.751314797612610E-4   -2.648995502572318E-3    7.287517881279177E-4    2.126301434655149E-1    4.692874495806922E-1
 8.150441926150000E9     6.240839027574519E-2    5.376699138828060E-1   -2.607370938455237E-3    6.838761366508204E-4   -2.631290382399691E-3    7.436606834262566E-4    2.131797027472258E-1    4.690935034013509E-1
 8.150449723700000E9     6.302086413915889E-2    5.375682251004836E-1   -2.608115033321670E-3    7.126285931945845E-4   -2.621640237275280E-3    7.368348243717032E-4    2.135846241366448E-1    4.689273913842544E-1
 8.150457521250000E9     6.363444896998943E-2    5.375009933087477E-1   -2.604547409172437E-3    7.013727654604403E-4   -2.615208000028343E-3    7.135871131490495E-4    2.140719782787174E-1    4.686961731862871E-1
 8.150465318800000E9     6.412242097833640E-2    5.374224877670599E-1   -2.611089762689986E-3    6.775450882889228E-4   -2.631154411747876E-3    7.320682970495694E-4    2.145280703608368E-1    4.684623313105808E-1
 8.150473116350000E9     6.470037436411395E-2    5.374568239525935E-1   -2.597864969546763E-3    7.155381826420430E-4   -2.625178208852926E-3    7.498714699478537E-4    2.151879845328121E-1    4.682288970177623E-1
 8.150480913900000E9     6.513658238839212E-2    5.373790004143709E-1   -2.616700431678103E-3    6.892441398809060E-4   -2.639972240640581E-3    7.590574224608803E-4    2.154415665215388E-1    4.679640162333547E-1
 8.150488711450000E9     6.581890798176128E-2    5.372774326663239E-1   -2.606946972256370E-3    6.785008377620772E-4   -2.622468506370989E-3    7.628987847570784E-4    2.157742782675138E-1    4.677948640330496E-1
 8.150496509000000E9     6.633311179027065E-2    5.372385766124482E-1   -2.583134722652520E-3    7.004529128787819E-4   -2.614817802508416E-3    7.650630021490217E-4    2.164373390051074E-1    4.674388388970971E-1
 8.150504306550000E9     6.677180847859632E-2    5.372380840773167E-1   -2.617375010064544E-3    6.953853776324642E-4   -2.601863575837549E-3    7.337620309647651E-4    2.167529415738746E-1    4.673362848841129E-1
 8.150512104100000E9     6.744853613847369E-2    5.372030093363104E-1   -2.603427199072277E-3    6.967759323877950E-4   -2.605338023769578E-3    7.494404685749846E-4    2.171612982677829E-1    4.669578292636668E-1
 8.150519901650000E9     6.780017633191121E-2    5.371707153364208E-1   -2.616020903266022E-3    6.732278414818533E-4   -2.620515301755169E-3    7.562413146239034E-4    2.176681720143428E-1    4.668409985083498E-1
 8.150527699200000E9     6.847728195958887E-2    5.368786179119659E-1   -2.618683857511045E-3    7.127442108708273E-4   -2.640927324288869E-3    7.840280356457967E-4    2.182040053108402E-1    4.667436627409632E-1
 8.150535496750000E9     6.908971718477142E-2    5.369941930370625E-1   -2.606008584974772E-3    7.148083382615613E-4   -2.633668375241107E-3    7.710340840922599E-4    2.186376135583827E-1    4.665005892297199E-1
 8.150543294300000E9     6.958520002635679E-2    5.368593587985762E-1   -2.612746066750094E-3    7.219946107445771E-4   -2.619512271059443E-3    7.417787525096944E-4    2.191232474556798E-1    4.663057986269464E-1
 8.150551091850000E9     7.013111367980081E-2    5.366968383686592E-1   -2.601185514776829E-3    7.099154327060065E-4   -2.620234029274595E-3    7.666879619803697E-4    2.195081641154407E-1    4.660097122852313E-1
 8.150558889400000E9     7.074012551297541E-2    5.366426635384404E-1   -2.601361664471892E-3    7.100679349238464E-4   -2.613837614693902E-3    8.078806809192271E-4    2.198059035650191E-1    4.658852243794656E-1
 8.150566686950000E9     7.117730776268269E-2    5.367846474039362E-1   -2.604188347325951E-3    7.323263147674480E-4   -2.613355079625200E-3    7.684006203613835E-4    2.204499082333563E-1    4.655638291956086E-1
 8.150574484500000E9     7.179821962775419E-2    5.366256619049397E-1   -2.635020752732957E-3    7.590970688377276E-4   -2.624244405260784E-3    7.880392763888678E-4    2.208547651240433E-1    4.653924876269744E-1
 8.150582282050000E9     7.230866971440573E-2    5.366234632302727E-1   -2.643388423308435E-3    7.230046830093667E-4   -2.636911972570442E-3    7.927091121926272E-4    2.213825250133502E-1    4.650952556019638E-1
 8.150590079600000E9     7.291222833656380E-2    5.366397815442253E-1   -2.598515368240741E-3    7.316777129028845E-4   -2.617573122345555E-3    7.775183031052612E-4    2.216942640602199E-1    4.647852836792020E-1
 8.150597877150000E9     7.351111370112572E-2    5.364590136237694E-1   -2.598076341971709E-3    7.327540290577012E-4   -2.628873889547709E-3    7.981202714209422E-4    2.222302317016323E-1    4.646427860848865E-1
 8.150605674700000E9     7.385723284190210E-2    5.364735318066344E-1   -2.599756430505999E-3    7.465960608783425E-4   -2.599490556151206E-3    8.062258763445395E-4    2.227197784580245E-1    4.645096339599240E-1
 8.150613472250000E9     7.455201985588915E-2    5.364869848262235E-1   -2.626874861427365E-3    7.242481744650732E-4   -2.613394175940330E-3    7.786321407802881E-4    2.231528609348628E-1    4.642574887405352E-1
 8.150621269800000E9     7.500218670104822E-2    5.363284699382831E-1   -2.616712585226810E-3    7.790342230786331E-4   -2.617581112638390E-3    8.306640129002534E-4    2.236208830640933E-1    4.639599878548759E-1
 8.150629067350000E9     7.560062812610530E-2    5.361257320771682E-1   -2.588358476771730E-3    7.663125029627554E-4   -2.641419096128866E-3    8.032891785827845E-4    2.240131482257976E-1    4.638677948476432E-1
 8.150636864900000E9     7.628519031363172E-2    5.361580311465503E-1   -2.595791200537058E-3    7.601559432785641E-4   -2.638553932973307E-3    8.202269575955708E-4    2.244268416340093E-1    4.635252945951731E-1
 8.150644662450000E9     7.669734230438266E-2    5.360423220213045E-1   -2.621834132418969E-3    7.584716077167045E-4   -2.628447039858262E-3    8.408117946828149E-4    2.249732652635680E-1    4.632609997805930E-1
 8.150652460000000E9     7.723827618017556E-2    5.359730024375950E-1   -2.624326956488068E-3    7.935001672449206E-4   -2.637623849289654E-3    8.171144171707327E-4    2.252403907688371E-1    4.630636879485353E-1
 8.150660257550000E9     7.769380374375064E-2    5.359823208646718E-1   -2.620849802396535E-3    7.772851999304393E-4   -2.630776752718622E-3    8.346678323925650E-4    2.258473778304166E-1    4.628123717081624E-1
 8.150668055100000E9     7.812365198919131E-2    5.359361797202152E-1   -2.595718595051218E-3    7.765648394183409E-4   -2.622370171813421E-3    8.563328700951146E-4    2.263191490437611E-1    4.625947166744931E-1
 8.150675852650000E9     7.876531952092969E-2    5.357873233771272E-1   -2.614804612672751E-3    7.692997960314776E-4   -2.631632957118178E-3    8.522836840000579E-4    2.267260989802193E-1    4.622357555923545E-1
 8.150683650200000E9     7.934307704272781E-2    5.357738933305507E-1   -2.621774249966752E-3    7.971044732195440E-4   -2.643900029341098E-3    8.339259668755605E-4    2.271089505299874E-1    4.622030617402460E-1
 8.150691447750000E9     7.993425170960569E-2    5.357115082738282E-1   -2.600516230325570E-3    7.954254054921025E-4   -2.631647540819931E-3    8.577508309284093E-4    2.275499339166142E-1    4.619292021321227E-1
 8.150699245300000E9     8.040280387663842E-2    5.355152197579630E-1   -2.622290958347957E-3    7.958839950574463E-4   -2.630325751101475E-3    8.182593619799798E-4    2.280969526037619E-1    4.616632622849036E-1
 8.150707042850000E9     8.106187224539452E-2    5.355388830686275E-1   -2.639471086754639E-3    7.862348328182674E-4   -2.625677646614962E-3    8.258058218833497E-4    2.284684341937241E-1    4.614295898571898E-1
 8.150714840400000E9     8.157250883779595E-2    5.354786477181719E-1   -2.584205544518373E-3    7.862099909303879E-4   -2.619626662125369E-3    8.341630801329267E-4    2.290238559192844E-1    4.611928695918092E-1
 8.150722637950000E9     8.212050432869968E-2    5.353194333020819E-1   -2.635418673004057E-3    8.167171643765443E-4   -2.655331421374403E-3    8.527319756483111E-4    2.294968557729753E-1    4.610035009584494E-1
 8.150730435500000E9     8.264251278361887E-2    5.353292863503537E-1   -2.620519132466124E-3    7.870168128096473E-4   -2.625105785792921E-3    8.609756928328805E-4    2.298995202680513E-1    4.608686624712064E-1
 8.150738233050000E9     8.333709096184741E-2    5.353013859689822E-1   -2.637683393264924E-3    8.125311421685916E-4   -2.663367781627446E-3    8.599757086344647E-4    2.301742919141432E-1    4.605851668206500E-1
 8.150746030600000E9     8.375407176724631E-2    5.352054468640457E-1   -2.628732773118073E-3    8.315509378957795E-4   -2.651581599676104E-3    8.597420838790795E-4    2.308545711058818E-1    4.603794644182060E-1
 8.150753828150000E9     8.429249644039166E-2    5.351510501773453E-1   -2.611871147566619E-3    8.141741027827215E-4   -2.649609858308671E-3    8.636867157974864E-4    2.312394332342032E-1    4.599930179541356E-1
 8.150761625700000E9     8.493238704999274E-2    5.351873101278437E-1   -2.657288897107050E-3    8.044270372475232E-4   -2.638915395908028E-3    8.653979606258937E-4    2.317605140523903E-1    4.596726342136717E-1
 8.150769423250000E9     8.535801940266044E-2    5.348837620755131E-1   -2.637943436495073E-3    8.243404213111199E-4   -2.633980399717131E-3    8.733689459872629E-4    2.320275429167933E-1    4.594574253041738E-1
 8.150777220800000E9     8.609420831228114E-2    5.349677126231785E-1   -2.625336098794667E-3    8.268329153657789E-4   -2.658255114784975E-3    8.657269875465020E-4    2.325158323849127E-1    4.593365163073386E-1
 8.150785018350000E9     8.655987382365991E-2    5.348923264722464E-1   -2.603042403030411E-3    8.272685739248299E-4   -2.644385096364951E-3    8.861042890243222E-4    2.329492461022719E-1    4.592130010272409E-1
 8.150792815900000E9     8.704745745457981E-2    5.348323077373254E-1   -2.607674382156897E-3    8.320664184351783E-4   -2.643827613767554E-3    8.885261519474109E-4    2.334826472780104E-1    4.587920614499313E-1
 8.150800613450000E9     8.747299670029635E-2    5.345989038046779E-1   -2.631042374209022E-3    8.390690476721294E-4   -2.650851115776905E-3    9.104269685584970E-4    2.339345084920996E-1    4.587170688956418E-1
 8.150808411000000E9     8.805982223366109E-2    5.345292463823613E-1   -2.633097294700393E-3    8.214067341601594E-4   -2.641786702392226E-3    8.992235224155022E-4    2.343707456027906E-1    4.583505559857686E-1
 8.150816208550000E9     8.860102573034570E-2    5.345123335424744E-1   -2.630373257889381E-3    8.566142738288749E-4   -2.659258607999699E-3    8.554966049051567E-4    2.348354536302912E-1    4.581620825343584E-1
 8.150824006100000E9     8.929287082909844E-2    5.343523975909159E-1   -2.622356553735385E-3    8.483613783230793E-4   -2.685889706580859E-3    8.957305930110194E-4    2.352662445239050E-1    4.579118008590669E-1
 8.150831803650000E9     8.978511498250977E-2    5.344061668269940E-1   -2.667203164435112E-3    8.575792714836037E-4   -2.643078087734233E-3    9.016112558674519E-4    2.356899974062333E-1    4.576431783728926E-1
 8.150839601200000E9     9.037658777718169E-2    5.343203339681281E-1   -2.621412212854387E-3    8.473437495286297E-4   -2.642357211643190E-3    9.397673029546389E-4    2.361503463391205E-1    4.574235590909465E-1
 8.150847398750000E9     9.092620460300790E-2    5.341246853677820E-1   -2.627777013593615E-3    8.583320017111273E-4   -2.643300605789741E-3    9.164921826256722E-4    2.365229287200249E-1    4.572370523328659E-1
 8.150855196300000E9     9.147957736326850E-2    5.342047036679383E-1   -2.627703129522576E-3    8.625447237535485E-4   -2.635344419454828E-3    9.209250345547282E-4    2.369007734359692E-1    4.569780124475494E-1
 8.150862993850000E9     9.194005452457735E-2    5.340187050254522E-1   -2.615409543297056E-3    8.678244774398933E-4   -2.674875774716132E-3    9.263203972414983E-4    2.374549594707680E-1    4.568366528529259E-1
 8.150870791400000E9     9.249663937582818E-2    5.338973869236976E-1   -2.635599273376575E-3    8.875626016820452E-4   -2.613147560567462E-3    9.428700802829128E-4    2.378643329867315E-1    4.564993849337121E-1
 8.150878588950000E9     9.303418645269410E-2    5.337000266505442E-1   -2.615123813880774E-3    8.760852391828568E-4   -2.682560058179155E-3    9.432456985186599E-4    2.382765687106722E-1    4.562402064155020E-1
 8.150886386500000E9     9.370860297979687E-2    5.338343018059792E-1   -2.639964888519413E-3    8.850112039407239E-4   -2.686279041100882E-3    9.236297875459568E-4    2.387669401588932E-1    4.559355703529996E-1
