#  HZ   S   RI   R     50.00 
! Rohde & Schwarz Vector Network Analyzer 
! Rohde-Schwarz,ZNB20-2Port,1311601062101988,3.16
! Created: UTC 3/21/2024, 12:57:56 AM
! freq[Hz]                re:S11                  im:S11                  re:S21                  im:S21                  re:S12                  im:S12                  re:S22                  im:S22
 8.150175809000000E9     4.378006875734918E-2    5.391244601985936E-1   -2.606477164541950E-3    6.003237425307161E-4   -2.623991527613817E-3    6.370349640917744E-4    1.974073704213484E-1    4.762053318450265E-1
 8.150183647950000E9     4.425079867016625E-2    5.390604131633563E-1   -2.589393713669399E-3    5.952113555025637E-4   -2.616158667167232E-3    6.421034930120753E-4    1.978012672548729E-1    4.760103192843063E-1
 8.150191486900000E9     4.475545508356274E-2    5.390470407154300E-1   -2.593387530557568E-3    5.700867767807943E-4   -2.603365246334567E-3    6.617345981828576E-4    1.984363484014602E-1    4.759289519560297E-1
 8.150199325850000E9     4.527980338624585E-2    5.388928194011460E-1   -2.595269673808909E-3    5.700083848282798E-4   -2.613313885183009E-3    6.460258207592703E-4    1.988195173323070E-1    4.756558803162098E-1
 8.150207164800000E9     4.601466658198545E-2    5.390654251315430E-1   -2.585732951522154E-3    5.889368877130438E-4   -2.615407001913207E-3    6.510690504068640E-4    1.993876846655653E-1    4.754510154245939E-1
 8.150215003750000E9     4.648657560042273E-2    5.387838819326694E-1   -2.612232481974151E-3    6.066392878043523E-4   -2.622631962152122E-3    6.389646178435809E-4    1.997282114075604E-1    4.752524882871675E-1
 8.150222842700000E9     4.707022750435021E-2    5.388295383155184E-1   -2.601745099080780E-3    5.829516951156570E-4   -2.628250458785793E-3    6.341812032994642E-4    2.002331850492740E-1    4.750330854654159E-1
 8.150230681650000E9     4.765222397462120E-2    5.387926071734781E-1   -2.594005584316846E-3    5.893581536645831E-4   -2.648361122210148E-3    6.791184885439886E-4    2.006504104585668E-1    4.747988584423450E-1
 8.150238520600000E9     4.823999005058396E-2    5.387668281248400E-1   -2.609923535629998E-3    6.319424011908815E-4   -2.617353320618628E-3    6.790678830794093E-4    2.011772185536305E-1    4.745047034495453E-1
 8.150246359550000E9     4.871315753359839E-2    5.388024119481249E-1   -2.608823252617839E-3    5.995063219258927E-4   -2.621016296023196E-3    6.535929645709556E-4    2.017419907940473E-1    4.744780663788548E-1
 8.150254198500000E9     4.930092881475422E-2    5.386268816694747E-1   -2.571780575905102E-3    6.111047647660821E-4   -2.625211928205575E-3    6.700911307168267E-4    2.019858531757593E-1    4.741966120384118E-1
 8.150262037450000E9     4.988978439705004E-2    5.387259435059838E-1   -2.617857206756455E-3    5.741261369851319E-4   -2.606541403539964E-3    6.696021019182192E-4    2.025186055117239E-1    4.739476710780857E-1
 8.150269876400000E9     5.041622252330452E-2    5.386107294092626E-1   -2.628129340666514E-3    5.989585649963827E-4   -2.599342027770789E-3    6.730469489606391E-4    2.030161838917600E-1    4.738480080417991E-1
 8.150277715350000E9     5.096620759882169E-2    5.385523863442712E-1   -2.609405884868915E-3    6.220095358147885E-4   -2.602525215950446E-3    6.841352333417090E-4    2.035380692078140E-1    4.734965422078559E-1
 8.150285554300000E9     5.149840785060087E-2    5.384994805960829E-1   -2.578513789867008E-3    6.151614853579299E-4   -2.595290724758130E-3    6.367631006048280E-4    2.038681441272927E-1    4.732163914681715E-1
 8.150293393250000E9     5.201913628822360E-2    5.383736458271389E-1   -2.599033893792255E-3    6.343105463850939E-4   -2.629483543756622E-3    6.796169483280455E-4    2.044157421803973E-1    4.731674520884276E-1
 8.150301232200000E9     5.261309893762906E-2    5.383748628911862E-1   -2.587410877728659E-3    6.472626773469304E-4   -2.641307322036257E-3    6.923709767136258E-4    2.047482962900234E-1    4.729699499786442E-1
 8.150309071150000E9     5.317688117856729E-2    5.385375300838819E-1   -2.604408391941808E-3    6.502175339744319E-4   -2.624330260685031E-3    6.390473498591141E-4    2.053083752628170E-1    4.727644304926680E-1
 8.150316910100000E9     5.367310303175904E-2    5.383096432093138E-1   -2.593825770607055E-3    6.214115353876441E-4   -2.613689393508904E-3    6.855362969930825E-4    2.057764919776558E-1    4.725771576520044E-1
 8.150324749050000E9     5.408296090664955E-2    5.382757014932845E-1   -2.604727132948505E-3    6.280033844169060E-4   -2.599778711092791E-3    6.581706634587600E-4    2.062892242974276E-1    4.723647639192101E-1
 8.150332588000000E9     5.485146337429692E-2    5.384356096612095E-1   -2.601814818253952E-3    6.271305115628092E-4   -2.593512752790263E-3    6.823588829816605E-4    2.066011474369679E-1    4.721762716690353E-1
 8.150340426950000E9     5.534150947742691E-2    5.381877878688285E-1   -2.623772226056142E-3    6.673011986800191E-4   -2.635699629964109E-3    6.971718463391710E-4    2.070191205737825E-1    4.719497647861398E-1
 8.150348265900000E9     5.599630812494409E-2    5.381712293079657E-1   -2.593640047480591E-3    6.319032668389057E-4   -2.651411764521514E-3    6.893284520913659E-4    2.075279317543632E-1    4.716300137659076E-1
 8.150356104850000E9     5.639412481676848E-2    5.381848051678605E-1   -2.611218276107982E-3    6.655515283242530E-4   -2.596024593570394E-3    6.871583678496402E-4    2.082523962307226E-1    4.714274681770934E-1
 8.150363943800000E9     5.697928977650783E-2    5.381150144485632E-1   -2.596800723602593E-3    6.325443767931887E-4   -2.621130962146948E-3    7.243978116480823E-4    2.085682849364692E-1    4.712982909404229E-1
 8.150371782750000E9     5.752067216217063E-2    5.379805592973762E-1   -2.599364016608942E-3    6.510024621441729E-4   -2.636192099610841E-3    6.867477171493896E-4    2.091062289470529E-1    4.711680852727528E-1
 8.150379621700000E9     5.808387567410094E-2    5.379840810462537E-1   -2.598939204863205E-3    6.579274297941664E-4   -2.609348365798101E-3    7.190040122724339E-4    2.094476980533305E-1    4.708506151630293E-1
 8.150387460650000E9     5.861600316618396E-2    5.379830080073226E-1   -2.588011720819553E-3    6.602686983769336E-4   -2.641561545924367E-3    7.101865299731155E-4    2.098292174309494E-1    4.706344760744611E-1
 8.150395299600000E9     5.921959833204914E-2    5.378973203514620E-1   -2.584946476957148E-3    6.689999169765706E-4   -2.621983996864518E-3    6.961116708543767E-4    2.104389940363203E-1    4.703525581217978E-1
 8.150403138550000E9     5.984094694197423E-2    5.377562750372471E-1   -2.607139959552417E-3    6.461568038341732E-4   -2.630485174291227E-3    7.375132601115212E-4    2.108713117345465E-1    4.702688878409002E-1
 8.150410977500000E9     6.033875519665636E-2    5.379462671613162E-1   -2.604682737055740E-3    6.753700177264577E-4   -2.631845354710872E-3    7.093707007032332E-4    2.113285046437086E-1    4.699021024444583E-1
 8.150418816450000E9     6.081850178914818E-2    5.377501080117320E-1   -2.602811859382457E-3    6.450984716215163E-4   -2.629202177093340E-3    7.297085991224293E-4    2.118221488482159E-1    4.698008722491033E-1
 8.150426655400000E9     6.138372463703382E-2    5.377459656367692E-1   -2.593184147275170E-3    6.632297392814242E-4   -2.617204454368670E-3    7.155976722843340E-4    2.122789066211424E-1    4.695312823292952E-1
 8.150434494350000E9     6.193555993591452E-2    5.376244375773716E-1   -2.615781245186776E-3    6.673258582832863E-4   -2.604238347778285E-3    7.195281353347755E-4    2.126749197041881E-1    4.693590541366224E-1
 8.150442333300000E9     6.243788925468248E-2    5.377219774199664E-1   -2.584177686321432E-3    6.611140544675308E-4   -2.632573974084348E-3    7.452574739384607E-4    2.130336361756304E-1    4.690167020313586E-1
 8.150450172250000E9     6.300165314686688E-2    5.376453593455965E-1   -2.608941120055028E-3    6.990803667684877E-4   -2.627443163224883E-3    7.211814949190400E-4    2.135199155596696E-1    4.689864110749057E-1
 8.150458011200000E9     6.353023335751444E-2    5.375392284068136E-1   -2.588258216822222E-3    6.746283188610526E-4   -2.623875541979436E-3    7.283874743911485E-4    2.140834789835045E-1    4.687106514885148E-1
 8.150465850150000E9     6.416538620866616E-2    5.374166308384540E-1   -2.603700484220491E-3    6.809517654469293E-4   -2.624879395011593E-3    7.437325738559030E-4    2.145558085460577E-1    4.685296743390210E-1
 8.150473689100000E9     6.470375623188125E-2    5.374131612959249E-1   -2.590847935061457E-3    6.978621319849315E-4   -2.629898308224750E-3    7.466728119336350E-4    2.149073898924103E-1    4.682829471223492E-1
 8.150481528050000E9     6.519861368856181E-2    5.372951159968443E-1   -2.619812098310354E-3    6.777019409421255E-4   -2.617492350349844E-3    7.547440547214455E-4    2.152758427035972E-1    4.680244463574343E-1
 8.150489367000000E9     6.583417624693372E-2    5.374189937849139E-1   -2.598961212219744E-3    7.040895948906035E-4   -2.629582208335068E-3    7.897287546661780E-4    2.159210257693236E-1    4.677235865192129E-1
 8.150497205950000E9     6.630858057547689E-2    5.371788787900110E-1   -2.608187664673594E-3    7.150656683705541E-4   -2.654114426937146E-3    7.606446497771602E-4    2.163013615670763E-1    4.675215704546193E-1
 8.150505044900000E9     6.696941806896081E-2    5.371650298255440E-1   -2.616727321739095E-3    7.124086511693283E-4   -2.630842343841990E-3    7.476547487052813E-4    2.168386426892252E-1    4.673149169914163E-1
 8.150512883850000E9     6.759077279039513E-2    5.371525586697597E-1   -2.599042811718419E-3    7.153055019647737E-4   -2.640924598398242E-3    7.692480935348292E-4    2.171842033032428E-1    4.672358074606768E-1
 8.150520722800000E9     6.797741752378007E-2    5.371440172651910E-1   -2.590854294039818E-3    7.388960927260759E-4   -2.586414576140678E-3    7.837144988048787E-4    2.176988677619254E-1    4.669278848228813E-1
 8.150528561750000E9     6.846737292809181E-2    5.370137759630328E-1   -2.605770223710803E-3    7.180588304482159E-4   -2.596595353437264E-3    7.701783475987828E-4    2.180537262294700E-1    4.668863512509084E-1
 8.150536400700000E9     6.908481532326904E-2    5.368952563865983E-1   -2.612822894823193E-3    7.057478007338380E-4   -2.622147988535902E-3    7.898060011916706E-4    2.187188361738657E-1    4.665528429618032E-1
 8.150544239650000E9     6.961798243257412E-2    5.369248348647572E-1   -2.590016517039492E-3    7.357559983939934E-4   -2.620472597304632E-3    7.759377990900112E-4    2.190694647363012E-1    4.663169238430692E-1
 8.150552078600000E9     7.014876511897526E-2    5.367725454166854E-1   -2.599061153030107E-3    7.304741081386870E-4   -2.638896700253757E-3    7.759817780562582E-4    2.195135144412413E-1    4.662135709897071E-1
 8.150559917550000E9     7.078220958418391E-2    5.367973974347170E-1   -2.613221600003408E-3    7.484673568918666E-4   -2.592013480885187E-3    7.706826167930222E-4    2.200662604669110E-1    4.656805911427688E-1
 8.150567756500000E9     7.138420412936299E-2    5.366506877101900E-1   -2.623152003340985E-3    7.110824444590370E-4   -2.639575011257492E-3    7.959156361685891E-4    2.203503112977610E-1    4.655247799500544E-1
 8.150575595450000E9     7.182384010501067E-2    5.366270026546763E-1   -2.616716094846115E-3    7.415203657511397E-4   -2.632582679006784E-3    7.803596319666040E-4    2.209397277561366E-1    4.651641754712909E-1
 8.150583434400000E9     7.232706516296654E-2    5.365884803199465E-1   -2.601900581841019E-3    7.587801620228673E-4   -2.630349562152600E-3    7.919603223642591E-4    2.214532341825127E-1    4.651584549675804E-1
 8.150591273350000E9     7.287317157656019E-2    5.365848558068941E-1   -2.616810965903052E-3    7.405269216516281E-4   -2.621546748824108E-3    7.752180035553250E-4    2.217502359223376E-1    4.648117746524326E-1
 8.150599112300000E9     7.346155943947022E-2    5.364268696332456E-1   -2.605491940219259E-3    7.364231043209712E-4   -2.612154601457300E-3    7.979028510789464E-4    2.221706758989377E-1    4.646539674534193E-1
 8.150606951250000E9     7.406479940205400E-2    5.363741201256635E-1   -2.621493608865895E-3    7.301324743418482E-4   -2.615103893094138E-3    8.290163188871241E-4    2.226288815705299E-1    4.644972253794819E-1
 8.150614790200000E9     7.460695232278799E-2    5.363433984351834E-1   -2.593317113367389E-3    7.483086001111321E-4   -2.647791722028653E-3    7.984668593907909E-4    2.231196388791563E-1    4.642494537498458E-1
 8.150622629150000E9     7.514679788940852E-2    5.362641166961634E-1   -2.623048062540571E-3    7.576153624187582E-4   -2.616826812862408E-3    7.813179689460570E-4    2.236360691833316E-1    4.639907664658696E-1
 8.150630468100000E9     7.561743475142688E-2    5.362626388126013E-1   -2.626701534406120E-3    7.408122429562197E-4   -2.598440059120073E-3    8.094426990511369E-4    2.240460612546981E-1    4.638339404945014E-1
 8.150638307050000E9     7.622486683690254E-2    5.361125341989501E-1   -2.624318069535934E-3    7.633566583870396E-4   -2.643104145115168E-3    8.085818245481580E-4    2.245347146993225E-1    4.635328006154450E-1
 8.150646146000000E9     7.678352445892871E-2    5.360575113406369E-1   -2.585541822862477E-3    7.826777839494997E-4   -2.599958679477908E-3    7.976446929365377E-4    2.248446347901207E-1    4.632775294588942E-1
 8.150653984950000E9     7.734439032493232E-2    5.360010690664290E-1   -2.614504552330628E-3    7.486196533235516E-4   -2.623493358323289E-3    8.052478245741377E-4    2.255074913316978E-1    4.631693962995643E-1
 8.150661823900000E9     7.783606475754047E-2    5.360045988296304E-1   -2.614626688618705E-3    7.424104461703106E-4   -2.613977160323931E-3    8.460197262868865E-4    2.258827813052826E-1    4.627376281533155E-1
 8.150669662850000E9     7.831171212089900E-2    5.358859501122155E-1   -2.607516291160407E-3    7.589455322767078E-4   -2.611421805244539E-3    8.215164499983077E-4    2.262563077686552E-1    4.626214601861827E-1
 8.150677501800000E9     7.898697258560364E-2    5.358339550906422E-1   -2.609720838810386E-3    7.959225147000467E-4   -2.625774186320891E-3    8.083199200485094E-4    2.267351000627125E-1    4.623808175408015E-1
 8.150685340750000E9     7.951434628924242E-2    5.358017421463793E-1   -2.607706001038371E-3    7.861484357573575E-4   -2.652807367209127E-3    8.418860142776818E-4    2.270994520452954E-1    4.622074450480391E-1
 8.150693179700000E9     8.011440746768163E-2    5.356062915120662E-1   -2.644456967931243E-3    8.063696019461596E-4   -2.616217083185894E-3    8.258590243213862E-4    2.276805475031645E-1    4.617784262562775E-1
 8.150701018650000E9     8.064872390578513E-2    5.356401650103075E-1   -2.630374662565826E-3    7.990089246405394E-4   -2.621976395324425E-3    8.751602686289231E-4    2.281809889250138E-1    4.617756076009951E-1
 8.150708857600000E9     8.110578965432091E-2    5.354721727079986E-1   -2.614396596495819E-3    8.128737645482938E-4   -2.639126026829131E-3    8.365847795260474E-4    2.286831955014795E-1    4.613558416604334E-1
 8.150716696550000E9     8.170648216410080E-2    5.353547595694970E-1   -2.602174432375381E-3    7.958422874821645E-4   -2.629552515748569E-3    8.649336127456215E-4    2.290702179193080E-1    4.612551515881902E-1
 8.150724535500000E9     8.215220237869766E-2    5.353590173563887E-1   -2.660961180355068E-3    7.946555427956681E-4   -2.647135447867166E-3    8.537352467845942E-4    2.294273441913615E-1    4.610639738219731E-1
 8.150732374450000E9     8.284001162164145E-2    5.353612997921873E-1   -2.618465553608037E-3    8.458914524093059E-4   -2.641568576921700E-3    8.311409326956997E-4    2.300233641126802E-1    4.607083901739142E-1
 8.150740213400000E9     8.335122301419669E-2    5.352641728038761E-1   -2.603796578469940E-3    8.207366566503143E-4   -2.648158228750633E-3    8.793046337233430E-4    2.304109387303781E-1    4.605887609310426E-1
 8.150748052350000E9     8.382820439122506E-2    5.351333806747524E-1   -2.631021947596384E-3    7.908592126508303E-4   -2.616681206985274E-3    8.423894092605235E-4    2.308210716093401E-1    4.602573892682871E-1
 8.150755891300000E9     8.445545815288792E-2    5.351180130987018E-1   -2.607063672779379E-3    8.000642173366010E-4   -2.649702063554342E-3    8.539453883298530E-4    2.310899647600398E-1    4.601402599353854E-1
 8.150763730250000E9     8.504121241541827E-2    5.350705010762139E-1   -2.640521049968043E-3    8.107576309930512E-4   -2.649475994073897E-3    8.692951256218283E-4    2.317495969746656E-1    4.598284608395509E-1
 8.150771569200000E9     8.550454562833010E-2    5.349181384059564E-1   -2.644807028390790E-3    8.182399576756508E-4   -2.636088464587996E-3    8.770576570794689E-4    2.321949069069750E-1    4.596108634990049E-1
 8.150779408150000E9     8.600790442113115E-2    5.349888793515185E-1   -2.629812467306766E-3    8.017831733791826E-4   -2.625713419451438E-3    8.640086143776117E-4    2.325571411905372E-1    4.594560420242467E-1
 8.150787247100000E9     8.652455722207776E-2    5.347175405287494E-1   -2.603757787393399E-3    8.256875323736645E-4   -2.621129585168919E-3    9.088768490370151E-4    2.329410190869638E-1    4.590404892684591E-1
 8.150795086050000E9     8.727611611893128E-2    5.346926351659477E-1   -2.626829096454032E-3    8.253111219348874E-4   -2.639079759626871E-3    8.544987008634959E-4    2.334515183750658E-1    4.588256602654069E-1
 8.150802925000000E9     8.766239003791870E-2    5.346884044871968E-1   -2.624192638279120E-3    8.443586739143445E-4   -2.633062367845568E-3    8.996768006438094E-4    2.337889819775202E-1    4.586054381561769E-1
 8.150810763950000E9     8.828918734073277E-2    5.345115964768498E-1   -2.618908543256612E-3    8.347734475557262E-4   -2.635356753057963E-3    8.993806289842742E-4    2.344277892815836E-1    4.583583416909951E-1
 8.150818602900000E9     8.879227596925994E-2    5.343664092084243E-1   -2.639129975698892E-3    8.465692253498251E-4   -2.635554784285721E-3    8.743722503882798E-4    2.348510274652751E-1    4.581535676705473E-1
 8.150826441850000E9     8.927857520176911E-2    5.344553914250673E-1   -2.645824801372969E-3    8.271779200258185E-4   -2.638787449036506E-3    8.727924467553943E-4    2.351531092714836E-1    4.580077425273157E-1
 8.150834280800000E9     8.992910291712926E-2    5.343817249524067E-1   -2.627350862462603E-3    8.578938756418255E-4   -2.638947657807522E-3    9.127161868005365E-4    2.358456015285555E-1    4.578293953234741E-1
 8.150842119750000E9     9.046519685400910E-2    5.342335177567459E-1   -2.638397591316094E-3    8.489819766022531E-4   -2.657746156794775E-3    8.856883200917720E-4    2.363528078973380E-1    4.575056281897145E-1
 8.150849958700000E9     9.103933622459548E-2    5.341273664872248E-1   -2.629656940989607E-3    8.626531454425193E-4   -2.629891398580450E-3    9.120955981754225E-4    2.365444499299445E-1    4.571756656866405E-1
 8.150857797650000E9     9.159701715018335E-2    5.340924024843083E-1   -2.643785902375669E-3    8.428106401189919E-4   -2.659555677323205E-3    9.075622321462408E-4    2.371404337255756E-1    4.570359535211735E-1
 8.150865636600000E9     9.215331860822322E-2    5.339485315915410E-1   -2.651951781519946E-3    8.424255607149070E-4   -2.657357000874753E-3    9.294020646685576E-4    2.374139255487342E-1    4.568227980618996E-1
 8.150873475550000E9     9.269530160233563E-2    5.339961460267885E-1   -2.630844046779276E-3    8.677495251518791E-4   -2.644128762248553E-3    9.060990823942929E-4    2.379004557429645E-1    4.565199181542380E-1
 8.150881314500000E9     9.323804292659928E-2    5.338119899903973E-1   -2.632768164052080E-3    8.710960452093398E-4   -2.625902824401968E-3    8.971216334378303E-4    2.383907670693601E-1    4.562258480725985E-1
