#  HZ   S   RI   R     50.00 
! Rohde & Schwarz Vector Network Analyzer 
! Rohde-Schwarz,ZNB20-2Port,1311601062101988,3.16
! Created: UTC 3/21/2024, 12:58:01 AM
! freq[Hz]                re:S11                  im:S11                  re:S21                  im:S21                  re:S12                  im:S12                  re:S22                  im:S22
 8.150133283000000E9     4.069922268503907E-2    5.391392506836372E-1   -2.621805222179268E-3    5.467673745343420E-4   -2.605658479746575E-3    6.103993921848848E-4    1.947167618298690E-1    4.772885127672410E-1
 8.150141320025000E9     4.120169368845050E-2    5.391882494032820E-1   -2.607423405788452E-3    5.603289495100870E-4   -2.624196652377016E-3    6.262026555062573E-4    1.953945404369756E-1    4.774171214700507E-1
 8.150149357050000E9     4.190544679488709E-2    5.391647521170255E-1   -2.592720628334906E-3    5.702874335308762E-4   -2.631387177535768E-3    6.041569145941963E-4    1.956236738984803E-1    4.769990300675683E-1
 8.150157394075000E9     4.244483252867662E-2    5.390754425608183E-1   -2.602694618099408E-3    5.906240313416843E-4   -2.612254247667028E-3    6.454159806121226E-4    1.961825972011752E-1    4.768065019742204E-1
 8.150165431100000E9     4.300785008755535E-2    5.389238078474791E-1   -2.609838846552169E-3    5.831692606559322E-4   -2.601350900466589E-3    5.795771701940328E-4    1.965705124961539E-1    4.766108071089060E-1
 8.150173468125000E9     4.357283079099956E-2    5.390908853045946E-1   -2.570574788598630E-3    5.706234824110537E-4   -2.618813969450862E-3    6.141559193196833E-4    1.972111787596678E-1    4.764818415002142E-1
 8.150181505150000E9     4.417611530855497E-2    5.389854245108114E-1   -2.583660713663085E-3    6.100342399046280E-4   -2.640453269522709E-3    6.235335814572707E-4    1.977238072950361E-1    4.761371046736305E-1
 8.150189542175000E9     4.471630889475883E-2    5.389096030205919E-1   -2.611659608525967E-3    5.661641315196939E-4   -2.618138311568736E-3    6.267837368815640E-4    1.980940323893762E-1    4.760559937030990E-1
 8.150197579200000E9     4.525426090878391E-2    5.390299145622881E-1   -2.588443016636193E-3    5.582346927835429E-4   -2.590325584662862E-3    6.431864172829362E-4    1.985686742603736E-1    4.757351334312293E-1
 8.150205616225000E9     4.587854333772647E-2    5.388943404586352E-1   -2.602851959559633E-3    5.726312995517988E-4   -2.608606758785703E-3    6.945546319990078E-4    1.989756021747535E-1    4.755118668707363E-1
 8.150213653250000E9     4.644719734721547E-2    5.389131235962322E-1   -2.604619804423223E-3    6.077968458222452E-4   -2.612808055089641E-3    6.322676510549682E-4    1.993961770650434E-1    4.754046394739550E-1
 8.150221690275000E9     4.697043058352690E-2    5.388289297823257E-1   -2.602161174792024E-3    5.994757164333758E-4   -2.641807415456889E-3    6.341254141636780E-4    2.000089323595802E-1    4.751573331783376E-1
 8.150229727300000E9     4.742338108789625E-2    5.387901354849945E-1   -2.596614217509914E-3    5.963995151560861E-4   -2.657028399470680E-3    6.374790226223310E-4    2.004524748816094E-1    4.750598417873406E-1
 8.150237764325000E9     4.801550293247161E-2    5.388828186980121E-1   -2.594896943682116E-3    5.999338182327314E-4   -2.597772435624261E-3    6.530165899534129E-4    2.009187581556613E-1    4.748490025981303E-1
 8.150245801350000E9     4.872638421030707E-2    5.387750400753798E-1   -2.589177496689585E-3    6.080937276390354E-4   -2.659014583299793E-3    6.647660539756072E-4    2.014715035112487E-1    4.744824953495735E-1
 8.150253838375000E9     4.934329681087359E-2    5.387279347178977E-1   -2.604576929833407E-3    6.200171195698807E-4   -2.599380129528807E-3    6.444422578701962E-4    2.018352485294851E-1    4.743127731009061E-1
 8.150261875400000E9     4.983940935178355E-2    5.386222357242952E-1   -2.610922854171674E-3    6.133929759952918E-4   -2.621501281946926E-3    6.808213755788572E-4    2.024355448511746E-1    4.740464769300051E-1
 8.150269912425000E9     5.048116658654821E-2    5.385593001547594E-1   -2.607775880048246E-3    6.108424766864663E-4   -2.587077047249341E-3    6.489652249970090E-4    2.028724472546863E-1    4.739480358546028E-1
 8.150277949450000E9     5.091094888307551E-2    5.385575822250454E-1   -2.595532851987740E-3    5.959775873824643E-4   -2.605338402074167E-3    6.828111718063923E-4    2.033815954364909E-1    4.736931360242855E-1
 8.150285986475000E9     5.148246849357491E-2    5.385377127668042E-1   -2.583824364901974E-3    6.067736291314403E-4   -2.607703848859759E-3    6.640457164880420E-4    2.036932929556248E-1    4.733514586324969E-1
 8.150294023500000E9     5.208123685642001E-2    5.384774578884252E-1   -2.594000364003766E-3    6.446923537382120E-4   -2.609918424301139E-3    6.490720313830489E-4    2.042830406079341E-1    4.732583978980281E-1
 8.150302060525000E9     5.271531122189949E-2    5.384777773761903E-1   -2.595081945732321E-3    6.493759676997262E-4   -2.638215853285686E-3    6.763313900509124E-4    2.046503092915084E-1    4.730292684616710E-1
 8.150310097550000E9     5.303438300977201E-2    5.384372592120457E-1   -2.611243405221697E-3    6.082077398112202E-4   -2.637110762291687E-3    6.753066769449857E-4    2.053608571145892E-1    4.727777623419220E-1
 8.150318134575000E9     5.376798804274577E-2    5.383959776601018E-1   -2.597559696436013E-3    6.230541272915702E-4   -2.621399784464191E-3    7.083961930240066E-4    2.057354278290354E-1    4.725375355152897E-1
 8.150326171600000E9     5.422034021488625E-2    5.383550541011634E-1   -2.611718531412082E-3    6.258950430798988E-4   -2.625029693248774E-3    6.921815288993161E-4    2.061639662992053E-1    4.722695696832724E-1
 8.150334208625000E9     5.490458479368791E-2    5.382293180360739E-1   -2.613120385863826E-3    6.493881089984781E-4   -2.628984130913499E-3    6.968060878126492E-4    2.066621440916647E-1    4.722042600543859E-1
 8.150342245650000E9     5.545502975638542E-2    5.382586919265614E-1   -2.608680610791745E-3    6.402977449168356E-4   -2.615467488496462E-3    6.918272422283682E-4    2.071442492538031E-1    4.720130301718452E-1
 8.150350282675000E9     5.602374336949081E-2    5.382500755122215E-1   -2.597781667705102E-3    6.477280070390591E-4   -2.609312326224073E-3    7.053911238217188E-4    2.075527627723503E-1    4.717324558174695E-1
 8.150358319700000E9     5.650809577246882E-2    5.382037953730119E-1   -2.607206895626674E-3    6.631328538623542E-4   -2.611741885064115E-3    7.135382449216727E-4    2.080596472068920E-1    4.715590532308473E-1
 8.150366356725000E9     5.711696944605393E-2    5.380925522513469E-1   -2.583507993608232E-3    6.794233685598044E-4   -2.616652726771785E-3    7.311477698840105E-4    2.085386870955019E-1    4.713974614856019E-1
 8.150374393750000E9     5.776467797905945E-2    5.381532830308020E-1   -2.600856435039827E-3    6.403957565142094E-4   -2.593520361937809E-3    7.094847632630493E-4    2.090477112566564E-1    4.710829109938537E-1
 8.150382430775000E9     5.825040617585490E-2    5.379953793493355E-1   -2.595051179312356E-3    6.815494015917225E-4   -2.637761638608347E-3    7.063458458567573E-4    2.093868776783507E-1    4.708820659909989E-1
 8.150390467800000E9     5.883232460544192E-2    5.380283810043159E-1   -2.617147462881860E-3    6.610290033777478E-4   -2.616796064932659E-3    7.112246290626054E-4    2.100162539296275E-1    4.705993138614235E-1
 8.150398504825000E9     5.934588512023417E-2    5.379587053817770E-1   -2.613988260082492E-3    6.760901765882507E-4   -2.642159816379260E-3    7.029953965118165E-4    2.104005237783149E-1    4.704329664037962E-1
 8.150406541850000E9     5.982703280847805E-2    5.377281007756722E-1   -2.610496609700717E-3    6.853183343955468E-4   -2.648203581203749E-3    7.559062095669806E-4    2.107933951600451E-1    4.702387580380931E-1
 8.150414578875000E9     6.050299756738432E-2    5.377560281605590E-1   -2.592672759065470E-3    6.893386539124492E-4   -2.616928360940854E-3    7.011062544558706E-4    2.114000416683476E-1    4.700502294910741E-1
 8.150422615900000E9     6.110115944863921E-2    5.376658130316848E-1   -2.602666985053023E-3    6.775569995987737E-4   -2.643487684344394E-3    7.593802746251164E-4    2.118504186933625E-1    4.697684112149397E-1
 8.150430652925000E9     6.163959130831055E-2    5.375747204949688E-1   -2.571329717379855E-3    6.819043031302720E-4   -2.609322060236822E-3    7.148821357310352E-4    2.122563854947828E-1    4.694518698260008E-1
 8.150438689950000E9     6.217442320614763E-2    5.375863273431231E-1   -2.631570497761762E-3    6.720581701857547E-4   -2.610204977259090E-3    7.031976892867422E-4    2.128937112520727E-1    4.694048990809110E-1
 8.150446726975000E9     6.283406873256404E-2    5.376182330344410E-1   -2.607765286330556E-3    6.971892296617916E-4   -2.631687269422302E-3    7.341951400413881E-4    2.132415049151507E-1    4.692386309256902E-1
 8.150454764000000E9     6.329483026291192E-2    5.374665893967442E-1   -2.623138000035552E-3    6.832326108665215E-4   -2.606336370423050E-3    7.433438694271244E-4    2.138089310773243E-1    4.688199323340123E-1
 8.150462801025000E9     6.388349286751746E-2    5.374989162109751E-1   -2.591110487860510E-3    6.661114359972306E-4   -2.606493290049655E-3    7.183626154659396E-4    2.142406706321193E-1    4.686356636865871E-1
 8.150470838050000E9     6.438168568960018E-2    5.374769918392350E-1   -2.585663580890821E-3    6.845921387575231E-4   -2.673048952513104E-3    7.616596815716315E-4    2.146116227506261E-1    4.684303381580529E-1
 8.150478875075000E9     6.494236320872361E-2    5.374212872021419E-1   -2.605305854138183E-3    6.855234433456764E-4   -2.638749915054699E-3    7.544775661555797E-4    2.149898344815993E-1    4.680989643151027E-1
 8.150486912100000E9     6.568539867789865E-2    5.372667387211328E-1   -2.609375385879387E-3    7.211751789909969E-4   -2.617585539372520E-3    7.583566950522609E-4    2.155174267227744E-1    4.678711544017096E-1
 8.150494949125000E9     6.604692538526644E-2    5.373088137661223E-1   -2.594032135902933E-3    7.258753697176546E-4   -2.627631464073892E-3    7.823529781696530E-4    2.160972315256796E-1    4.676620460055892E-1
 8.150502986150000E9     6.665506978036041E-2    5.372119355035099E-1   -2.610483239343595E-3    6.915739858541209E-4   -2.604381540660327E-3    7.693130738220924E-4    2.164425777601031E-1    4.675208894737243E-1
 8.150511023175000E9     6.719803344824239E-2    5.370868578990290E-1   -2.568715475591178E-3    6.899666785070271E-4   -2.650977074110079E-3    7.543448782388068E-4    2.169849595237625E-1    4.673303562817512E-1
 8.150519060200000E9     6.778608184837553E-2    5.371208543918169E-1   -2.608814007355241E-3    7.025603434435111E-4   -2.609313730448076E-3    7.490926485856745E-4    2.174190321390815E-1    4.670986823216672E-1
 8.150527097225000E9     6.846818256956408E-2    5.371194389808679E-1   -2.609793457195057E-3    7.408606358180762E-4   -2.633354251715663E-3    7.462363812253712E-4    2.178038445289014E-1    4.668681354278609E-1
 8.150535134250000E9     6.889749784638703E-2    5.368810014962150E-1   -2.617559284700607E-3    7.025833594594307E-4   -2.622320242838122E-3    7.868115452624114E-4    2.184699587068025E-1    4.665889852104180E-1
 8.150543171275000E9     6.946096117183365E-2    5.369914644646495E-1   -2.626489674749997E-3    7.145390417244894E-4   -2.633876004285694E-3    7.626451423803899E-4    2.187190958143569E-1    4.664552646120957E-1
 8.150551208300000E9     7.002741803504725E-2    5.368636013801131E-1   -2.610277871622348E-3    7.269681682792871E-4   -2.651880042278227E-3    7.784868471910995E-4    2.192723206068426E-1    4.662602527155217E-1
 8.150559245325000E9     7.057885253365254E-2    5.367246862006100E-1   -2.620540738431981E-3    7.259987648940913E-4   -2.624257538052480E-3    7.595731233343740E-4    2.197006784682992E-1    4.659207845633254E-1
 8.150567282350000E9     7.114839284864694E-2    5.366482814121915E-1   -2.630747776764668E-3    7.168548608175226E-4   -2.617290841141547E-3    7.600123357966392E-4    2.202850368064005E-1    4.657657792101605E-1
 8.150575319375000E9     7.179015632824522E-2    5.365681309184251E-1   -2.611085544416038E-3    7.327083715750308E-4   -2.656676483360704E-3    7.738567279415251E-4    2.206773507469569E-1    4.654203215767296E-1
 8.150583356400000E9     7.223254998923907E-2    5.365298457714102E-1   -2.626633790144324E-3    7.210131210265818E-4   -2.612996853293900E-3    8.080057462715465E-4    2.212379523006498E-1    4.651865308677304E-1
 8.150591393425000E9     7.292574155268514E-2    5.365085412301335E-1   -2.607784533726818E-3    7.439975185421433E-4   -2.613764997442233E-3    7.953827945885494E-4    2.216348821710654E-1    4.649650158014765E-1
 8.150599430450000E9     7.343337950567150E-2    5.365137998947649E-1   -2.597954307436010E-3    7.451715212124680E-4   -2.639275018575977E-3    8.048551153392115E-4    2.220359354372513E-1    4.646530328359518E-1
 8.150607467475000E9     7.392693951045061E-2    5.363537705675117E-1   -2.609542373600982E-3    7.477726838684973E-4   -2.605110368787869E-3    7.792440577782706E-4    2.226651897888091E-1    4.644628965026862E-1
 8.150615504500000E9     7.446949207879101E-2    5.362983926367151E-1   -2.628716359300777E-3    7.768382652993019E-4   -2.643037852938398E-3    7.881432595357980E-4    2.230891568492887E-1    4.642976664177186E-1
 8.150623541525000E9     7.509046774162283E-2    5.362127727810923E-1   -2.619147305508465E-3    7.815738176090112E-4   -2.649694548101541E-3    7.945500499603182E-4    2.234308772276645E-1    4.640534486811545E-1
 8.150631578550000E9     7.567962344088144E-2    5.361282969099264E-1   -2.614596116546325E-3    7.637114888826114E-4   -2.638262767326973E-3    7.915361635134564E-4    2.240370397634156E-1    4.639178018430798E-1
 8.150639615575000E9     7.625183352409717E-2    5.360584244381923E-1   -2.596069287083874E-3    7.641947380445406E-4   -2.622091976737935E-3    8.301345800456256E-4    2.243757052431625E-1    4.635919684317910E-1
 8.150647652600000E9     7.679751004075132E-2    5.362126976167447E-1   -2.601788885213543E-3    7.550589644793563E-4   -2.623535635634202E-3    7.983323996952186E-4    2.249087214502369E-1    4.633745712761936E-1
 8.150655689625000E9     7.734414727028495E-2    5.359567205133817E-1   -2.617866035266839E-3    7.585362666596652E-4   -2.645779566714806E-3    7.911629836211754E-4    2.251979544884244E-1    4.630362322902757E-1
 8.150663726650000E9     7.792894874072122E-2    5.359906657475662E-1   -2.614722727000710E-3    7.755746229545368E-4   -2.618634195302914E-3    8.441250278482574E-4    2.259431930426675E-1    4.629366432465080E-1
 8.150671763675000E9     7.844280752373285E-2    5.357448582666559E-1   -2.616440793132713E-3    7.842522272294470E-4   -2.654664613435018E-3    7.987353070132851E-4    2.262769707483196E-1    4.626861948903588E-1
 8.150679800700000E9     7.903843032505965E-2    5.358424860861504E-1   -2.611895261050555E-3    7.934596363203266E-4   -2.645715183963899E-3    8.449047494323218E-4    2.268050200574173E-1    4.623748459854323E-1
 8.150687837725000E9     7.960175112671168E-2    5.357715501521337E-1   -2.587080647168535E-3    7.785449232393144E-4   -2.618575749189609E-3    8.256066899970967E-4    2.270899573923007E-1    4.620925122704905E-1
 8.150695874750000E9     8.025366474085317E-2    5.356452198882433E-1   -2.618337131971221E-3    8.109927036605121E-4   -2.597062975819242E-3    8.196174229836524E-4    2.276708317515597E-1    4.619309632449001E-1
 8.150703911775000E9     8.080296258766670E-2    5.355177334902411E-1   -2.635153064624282E-3    8.085693021857237E-4   -2.652206404552874E-3    8.499977931287549E-4    2.280238524150909E-1    4.615794789453476E-1
 8.150711948800000E9     8.117742171086542E-2    5.355522834913490E-1   -2.618041331179276E-3    7.960608233667945E-4   -2.643168180165940E-3    8.420526645144913E-4    2.286045909347534E-1    4.615858769383510E-1
 8.150719985825000E9     8.187924492567367E-2    5.354065873775523E-1   -2.596132655443017E-3    7.934819634957375E-4   -2.620519594617645E-3    8.310044886987213E-4    2.290674189653851E-1    4.613236647411767E-1
 8.150728022850000E9     8.245300892406622E-2    5.355392990129453E-1   -2.625895939095915E-3    8.201692968323751E-4   -2.626760251910940E-3    8.429939110374650E-4    2.293914911621659E-1    4.609598620146280E-1
 8.150736059875000E9     8.303884829224215E-2    5.352798036058415E-1   -2.599068203941469E-3    8.048845355763082E-4   -2.654224068759301E-3    8.411230928567588E-4    2.299258842627707E-1    4.608264464758116E-1
 8.150744096900000E9     8.365271079109485E-2    5.351273766138532E-1   -2.597437717764334E-3    8.068614930981381E-4   -2.642769651130498E-3    8.819901315071024E-4    2.304591207266278E-1    4.605165149518124E-1
 8.150752133925000E9     8.419440554765344E-2    5.352038709812442E-1   -2.616748579413166E-3    8.117476235436643E-4   -2.616911957174575E-3    8.457455261888476E-4    2.309408147081761E-1    4.602975756347966E-1
 8.150760170950000E9     8.474751890673828E-2    5.351262613435437E-1   -2.619973663772313E-3    8.211899257689673E-4   -2.660659163044768E-3    8.573688789598603E-4    2.313319683212032E-1    4.599901633343275E-1
 8.150768207975000E9     8.531132848517553E-2    5.349369853022290E-1   -2.638499614820261E-3    8.423318698874905E-4   -2.666411991470765E-3    8.571304500885123E-4    2.318881005797778E-1    4.597966621047996E-1
 8.150776245000000E9     8.582041019292611E-2    5.347908192279207E-1   -2.637525527429922E-3    8.305048467296697E-4   -2.621741245584886E-3    8.906462834428076E-4    2.323622802362496E-1    4.594664701495198E-1
 8.150784282025000E9     8.653260907641702E-2    5.347594182482091E-1   -2.625636861967344E-3    8.281384793241746E-4   -2.651306019861188E-3    8.819913041787824E-4    2.327477671799664E-1    4.592655968539873E-1
 8.150792319050000E9     8.700381022959082E-2    5.346189744925922E-1   -2.623214411312320E-3    8.298711336070853E-4   -2.654140456504894E-3    8.743521202465373E-4    2.332757585610956E-1    4.590460006276046E-1
 8.150800356075000E9     8.755838953982302E-2    5.347102218336353E-1   -2.633311053246790E-3    8.384072405538364E-4   -2.633365547566508E-3    9.097382265768553E-4    2.335783297584177E-1    4.588798192550662E-1
 8.150808393100000E9     8.814834934040182E-2    5.345654203917287E-1   -2.627542717211610E-3    8.310820825656400E-4   -2.640457872057338E-3    8.888977558944935E-4    2.340891495065187E-1    4.586797162592861E-1
 8.150816430125000E9     8.865476155816006E-2    5.345113010228286E-1   -2.640699238206371E-3    8.502226942768311E-4   -2.638643104192868E-3    9.168407478999269E-4    2.345827067856003E-1    4.584156855389285E-1
 8.150824467150000E9     8.914953721044022E-2    5.343354872198482E-1   -2.617086398092096E-3    8.415295638828424E-4   -2.624101724901798E-3    9.147802653780272E-4    2.350476279135253E-1    4.580677130096493E-1
 8.150832504175000E9     8.975289880964825E-2    5.343653352700156E-1   -2.632921120716479E-3    8.437550101367580E-4   -2.670011510818212E-3    9.239690175630889E-4    2.355072688010199E-1    4.578759224306315E-1
 8.150840541200000E9     9.034315740134254E-2    5.341668782239244E-1   -2.654582083096817E-3    8.617064647717926E-4   -2.636547708045204E-3    9.290020202607503E-4    2.358325139718023E-1    4.576853074318588E-1
 8.150848578225000E9     9.087122248410558E-2    5.340639652971582E-1   -2.650024621079394E-3    8.576195571434274E-4   -2.631014620718343E-3    9.140852600110348E-4    2.364118216836248E-1    4.572333493563551E-1
 8.150856615250000E9     9.146294481872112E-2    5.339727774668575E-1   -2.649140987632755E-3    8.853353577469267E-4   -2.638634269349621E-3    9.071115827365805E-4    2.368702677440629E-1    4.571408753435747E-1
