#  HZ   S   RI   R     50.00 
! Rohde & Schwarz Vector Network Analyzer 
! Rohde-Schwarz,ZNB20-2Port,1311601062101988,3.16
! Created: UTC 3/21/2024, 12:51:01 AM
! freq[Hz]                re:S11                  im:S11                  re:S21                  im:S21                  re:S12                  im:S12                  re:S22                  im:S22
 8.151421564000000E9     1.376982993887170E-1    5.263222671627070E-1   -3.197380236953792E-3    1.442080610437517E-3   -3.176190021231849E-3    1.518258370599670E-3    2.781401965258875E-1    4.322767918148610E-1
 8.151423027200000E9     1.377595580970358E-1    5.262339363733938E-1   -3.182926693850742E-3    1.439256530253762E-3   -3.213984981102082E-3    1.536406133954136E-3    2.781591116592764E-1    4.323666893201287E-1
 8.151424490400000E9     1.378526042214745E-1    5.262320482998476E-1   -3.195221604093784E-3    1.447787065633938E-3   -3.210172890468531E-3    1.518780456618670E-3    2.783670059737170E-1    4.323599776064650E-1
 8.151425953600000E9     1.379229039807034E-1    5.261566138928272E-1   -3.188804877911936E-3    1.464830809883911E-3   -3.238112149943048E-3    1.494236740011015E-3    2.784393956122478E-1    4.322824794981699E-1
 8.151427416800000E9     1.381140354302916E-1    5.262113250491161E-1   -3.223059164513652E-3    1.457990981924330E-3   -3.232468100171836E-3    1.554078635942389E-3    2.785826440595142E-1    4.321467445534832E-1
 8.151428880000000E9     1.382539693655136E-1    5.261977458852773E-1   -3.204465058446999E-3    1.470063604220305E-3   -3.231871172667545E-3    1.526593217237685E-3    2.785368056628342E-1    4.320806765753091E-1
 8.151430343200000E9     1.383578383428544E-1    5.260940176448097E-1   -3.225546189429932E-3    1.489064423429909E-3   -3.236922565184006E-3    1.533141701114113E-3    2.786382061537254E-1    4.321470985089069E-1
 8.151431806400000E9     1.386018636770556E-1    5.261324102587182E-1   -3.211675251171401E-3    1.458328365214150E-3   -3.218417776327943E-3    1.516529258310994E-3    2.787375689845051E-1    4.319526698874717E-1
 8.151433269600000E9     1.385704234225588E-1    5.259048439776288E-1   -3.238067897262591E-3    1.472181412690040E-3   -3.220871800814265E-3    1.516378216424424E-3    2.788608719914411E-1    4.319646684914278E-1
 8.151434732800000E9     1.386846054086393E-1    5.259600760179020E-1   -3.250150871428272E-3    1.469207181553643E-3   -3.241308816045563E-3    1.530503613774843E-3    2.789203125677830E-1    4.318448917290059E-1
 8.151436196000000E9     1.388949219538228E-1    5.259514246096363E-1   -3.240835440433134E-3    1.489360132682955E-3   -3.249928792708873E-3    1.536243264777243E-3    2.789848206588130E-1    4.316849635316443E-1
 8.151437659200000E9     1.389515366471561E-1    5.259000864618854E-1   -3.232640523188204E-3    1.495358612957802E-3   -3.244377028068798E-3    1.555663162804315E-3    2.791435466283362E-1    4.319043387563949E-1
 8.151439122400000E9     1.392327028965663E-1    5.258429344598902E-1   -3.227142046709061E-3    1.506734056682216E-3   -3.247575623210176E-3    1.542757362683768E-3    2.792542250408850E-1    4.318262878073838E-1
 8.151440585600000E9     1.392933286991669E-1    5.257967957951267E-1   -3.247389228689463E-3    1.495454823279780E-3   -3.271046353072871E-3    1.545558904827859E-3    2.792384805998730E-1    4.315962320149400E-1
 8.151442048800000E9     1.394041520142858E-1    5.258444717708970E-1   -3.257407436391042E-3    1.491988777455665E-3   -3.261043267114214E-3    1.557668007173656E-3    2.792793012548632E-1    4.315531928706905E-1
 8.151443512000000E9     1.394125329248246E-1    5.257006615348192E-1   -3.246077067926414E-3    1.508286516283859E-3   -3.249852950613455E-3    1.566873663033678E-3    2.793367077178869E-1    4.315167388277297E-1
 8.151444975200000E9     1.396292069683739E-1    5.257968978404840E-1   -3.253570642312808E-3    1.493912808217346E-3   -3.265510679207833E-3    1.564454402489284E-3    2.795484060138269E-1    4.315827613178119E-1
 8.151446438400000E9     1.398269027125962E-1    5.258012982948231E-1   -3.271509597694208E-3    1.489415824278093E-3   -3.283311945413067E-3    1.565988940015719E-3    2.795012827425848E-1    4.314440563258397E-1
 8.151447901600000E9     1.399073460029309E-1    5.257142966545372E-1   -3.264922014273503E-3    1.487077030116471E-3   -3.296368191568990E-3    1.573354556055029E-3    2.796006680653610E-1    4.314097225173760E-1
 8.151449364800000E9     1.399030386814391E-1    5.255709778516022E-1   -3.269467392634649E-3    1.508805002414875E-3   -3.261963016175585E-3    1.576240833616921E-3    2.796508189108847E-1    4.314478977459060E-1
 8.151450828000000E9     1.401491319090609E-1    5.255985918386061E-1   -3.288800654769395E-3    1.530226753499578E-3   -3.310951292300397E-3    1.596969383063104E-3    2.798265317184586E-1    4.312495182942784E-1
 8.151452291200000E9     1.402608243183132E-1    5.255496021511206E-1   -3.279802357951474E-3    1.533063809002676E-3   -3.275714807480468E-3    1.584082899181429E-3    2.798310677893300E-1    4.313915281019743E-1
 8.151453754400000E9     1.404274277001431E-1    5.254343358590625E-1   -3.278649890681939E-3    1.508721831760277E-3   -3.283981237285254E-3    1.578164605078435E-3    2.800543538864249E-1    4.311070700762894E-1
 8.151455217600000E9     1.406479275030890E-1    5.255079175361077E-1   -3.294987687799905E-3    1.538829762720264E-3   -3.296025010253798E-3    1.578161296535483E-3    2.799588001800053E-1    4.312329966933357E-1
 8.151456680800000E9     1.407700079871273E-1    5.254210700990879E-1   -3.282150554191039E-3    1.536651654545996E-3   -3.296805129215601E-3    1.590469137814954E-3    2.801168396192840E-1    4.310461312860275E-1
 8.151458144000000E9     1.409030906358295E-1    5.254244503408151E-1   -3.309972340569852E-3    1.563362525537296E-3   -3.305324706840757E-3    1.606247594225210E-3    2.803051790896673E-1    4.309564389463391E-1
 8.151459607200000E9     1.409289838865867E-1    5.253764048839903E-1   -3.306633793897655E-3    1.546886297961885E-3   -3.311349778384198E-3    1.582514658346209E-3    2.803083524736786E-1    4.309605902046729E-1
 8.151461070400000E9     1.410946273889901E-1    5.253530441365410E-1   -3.317895141143698E-3    1.528937527543155E-3   -3.310102761727483E-3    1.592169537225870E-3    2.803486645019212E-1    4.309339949275333E-1
 8.151462533600000E9     1.411586094536114E-1    5.252803321545564E-1   -3.317465816988951E-3    1.554669504896438E-3   -3.318634318754552E-3    1.627342143420284E-3    2.803961642762873E-1    4.308495545093950E-1
 8.151463996800000E9     1.413650204931405E-1    5.252969217553719E-1   -3.352402557163119E-3    1.565693555010916E-3   -3.317715154522582E-3    1.627132596887554E-3    2.805188855140471E-1    4.308794948724312E-1
 8.151465460000000E9     1.413872790681793E-1    5.251940010903672E-1   -3.332581980841709E-3    1.559754978859337E-3   -3.330943954321020E-3    1.645733771322558E-3    2.804613188070323E-1    4.306799299914704E-1
 8.151466923200000E9     1.416292062263392E-1    5.251708927952544E-1   -3.380651090820370E-3    1.587139270867504E-3   -3.342555536668661E-3    1.632595003959342E-3    2.807959222556481E-1    4.306246141119180E-1
 8.151468386400000E9     1.415700763386255E-1    5.251213106679322E-1   -3.324500996735899E-3    1.573285732471702E-3   -3.330554326573165E-3    1.640195363085835E-3    2.807549788761398E-1    4.305710169984603E-1
 8.151469849600000E9     1.418834112609555E-1    5.252609353603517E-1   -3.353235784481363E-3    1.574478463909156E-3   -3.366128932063048E-3    1.651859239919268E-3    2.809030436762402E-1    4.306316141423844E-1
 8.151471312800000E9     1.419036984021925E-1    5.249484850738433E-1   -3.362434805099812E-3    1.566297048340797E-3   -3.364563248055685E-3    1.642806813906767E-3    2.809673954835986E-1    4.305033558183449E-1
 8.151472776000000E9     1.421794722069956E-1    5.250136142336086E-1   -3.358771589417439E-3    1.581595433685725E-3   -3.358161536161878E-3    1.663375324321680E-3    2.810558732592705E-1    4.303890613470142E-1
 8.151474239200000E9     1.422925213405460E-1    5.249942185927219E-1   -3.361645256428506E-3    1.596773390726650E-3   -3.344100686183940E-3    1.645301444661839E-3    2.810916687685208E-1    4.302731522368025E-1
 8.151475702400000E9     1.423387658283151E-1    5.249987000365334E-1   -3.369810876522187E-3    1.595351779706562E-3   -3.396912142281278E-3    1.663912810335584E-3    2.810856623165032E-1    4.304488571985894E-1
 8.151477165600000E9     1.424370052704243E-1    5.249674302109401E-1   -3.403133811827514E-3    1.598787035999150E-3   -3.345232690840032E-3    1.666143632263446E-3    2.812046457576985E-1    4.304009717762273E-1
 8.151478628800000E9     1.425183299099529E-1    5.249845798279776E-1   -3.383551497432774E-3    1.608013815743045E-3   -3.351330790537128E-3    1.662941291469350E-3    2.812116606372642E-1    4.302150259160515E-1
 8.151480092000000E9     1.427783157954426E-1    5.247823682072817E-1   -3.393628178684551E-3    1.603505279693338E-3   -3.381437595981120E-3    1.669872679946162E-3    2.813826375858691E-1    4.302305915330352E-1
 8.151481555200000E9     1.428312333804002E-1    5.248249231482305E-1   -3.373913205130198E-3    1.612279229082915E-3   -3.430071829468008E-3    1.671856023616811E-3    2.815360910557998E-1    4.301075884175485E-1
 8.151483018400000E9     1.429491294278667E-1    5.245694069021158E-1   -3.401260734272933E-3    1.627120553642143E-3   -3.388563849266330E-3    1.691650076808093E-3    2.816240226119522E-1    4.299709823846203E-1
 8.151484481600000E9     1.431197104998395E-1    5.246641688734774E-1   -3.388212534510722E-3    1.630484209075083E-3   -3.379244409763987E-3    1.689173207028576E-3    2.816483683646296E-1    4.301208504145227E-1
 8.151485944800000E9     1.433519083854299E-1    5.246766708604490E-1   -3.430204455978875E-3    1.636172550734175E-3   -3.414404719070914E-3    1.693333949525346E-3    2.816490905504793E-1    4.299521728664096E-1
 8.151487408000000E9     1.435291674276721E-1    5.247621335848045E-1   -3.418029770535219E-3    1.651381629769729E-3   -3.392918731781319E-3    1.713244130719652E-3    2.817258697023345E-1    4.299026784439593E-1
 8.151488871200000E9     1.436723690094041E-1    5.244544004553319E-1   -3.431392060449380E-3    1.646062893381386E-3   -3.422526746065575E-3    1.718825624204095E-3    2.818607571059685E-1    4.298338964997178E-1
 8.151490334400000E9     1.438085593987913E-1    5.245713877658761E-1   -3.412584076776769E-3    1.612282969239898E-3   -3.440702858483143E-3    1.713012204994309E-3    2.818740844843354E-1    4.297664077077918E-1
 8.151491797600000E9     1.439080114410683E-1    5.245112794337293E-1   -3.421304519377946E-3    1.658131458048173E-3   -3.469821438716534E-3    1.724581382646786E-3    2.818900793247386E-1    4.296622403216253E-1
 8.151493260800000E9     1.438516957999622E-1    5.244931948141082E-1   -3.448768949377022E-3    1.654440678710405E-3   -3.471190880140996E-3    1.754946698295746E-3    2.821417417148259E-1    4.296532388940902E-1
 8.151494724000000E9     1.441274592085174E-1    5.243958386692972E-1   -3.437795323526196E-3    1.639691064969484E-3   -3.463461836944740E-3    1.735702641283265E-3    2.821282322168571E-1    4.294048620497750E-1
 8.151496187200000E9     1.443340907452490E-1    5.243758050998156E-1   -3.469326379085015E-3    1.653775429456154E-3   -3.448809182167031E-3    1.754298151336470E-3    2.822903736761993E-1    4.296225674839454E-1
 8.151497650400000E9     1.444056163862774E-1    5.244400307516800E-1   -3.448838928365949E-3    1.683607019833619E-3   -3.430505373869081E-3    1.735233349119315E-3    2.823730282528624E-1    4.294384914619486E-1
 8.151499113600000E9     1.445834692594509E-1    5.243312885655808E-1   -3.454430670370101E-3    1.662513980440056E-3   -3.462421704906991E-3    1.756854306214416E-3    2.823468191896766E-1    4.295380125527709E-1
 8.151500576800000E9     1.446055929510136E-1    5.242387765830753E-1   -3.489361973851010E-3    1.690269228074230E-3   -3.481292168309297E-3    1.750259089315727E-3    2.825294694574384E-1    4.295177747159586E-1
 8.151502040000000E9     1.448543027403437E-1    5.241778336681024E-1   -3.492546015751834E-3    1.676464520769538E-3   -3.486848587273550E-3    1.746368234965261E-3    2.825188955295428E-1    4.294331801100694E-1
 8.151503503200000E9     1.449484199725036E-1    5.242380952606627E-1   -3.496133932994244E-3    1.723261885920331E-3   -3.496032466376629E-3    1.771544003412356E-3    2.825922702600851E-1    4.293306442603231E-1
 8.151504966400000E9     1.451560400256331E-1    5.242043155132717E-1   -3.492955324042616E-3    1.705787369450450E-3   -3.512103260917413E-3    1.770178181444699E-3    2.827054053185987E-1    4.292782003517084E-1
 8.151506429600000E9     1.452453050385555E-1    5.240682011094522E-1   -3.492943438795942E-3    1.675066551005261E-3   -3.494578146928201E-3    1.781895968804517E-3    2.826407214434397E-1    4.291972939419861E-1
 8.151507892800000E9     1.453610604216656E-1    5.239290872272584E-1   -3.524996417880401E-3    1.731807329198097E-3   -3.511132843229558E-3    1.771219800325461E-3    2.828764483234424E-1    4.291373205504125E-1
 8.151509356000000E9     1.456543417879633E-1    5.239771599999075E-1   -3.497702785662715E-3    1.724652425047524E-3   -3.511665716468868E-3    1.820037681095071E-3    2.829680040450726E-1    4.290157487747511E-1
 8.151510819200000E9     1.457250314069119E-1    5.239234888271869E-1   -3.521324336627621E-3    1.723552152084251E-3   -3.551732699462811E-3    1.809597766030173E-3    2.830055855927484E-1    4.291573096441156E-1
 8.151512282400000E9     1.458635588046925E-1    5.238794610510360E-1   -3.543203086608802E-3    1.725059791065104E-3   -3.534564562397821E-3    1.823816186465417E-3    2.832219544462265E-1    4.289808899809766E-1
 8.151513745600000E9     1.460011053760003E-1    5.239059439490825E-1   -3.558698189830674E-3    1.756522028673719E-3   -3.540005230094054E-3    1.847483398768236E-3    2.831833523878049E-1    4.289616776922280E-1
 8.151515208800000E9     1.461075550564011E-1    5.238184958806213E-1   -3.556283643223153E-3    1.763515486202259E-3   -3.561862530622455E-3    1.819367560366365E-3    2.833494923154293E-1    4.288946831729154E-1
 8.151516672000000E9     1.461332111076169E-1    5.239086321294534E-1   -3.550724415314857E-3    1.768332559824940E-3   -3.555013141917965E-3    1.827577551233881E-3    2.833379064173736E-1    4.289090227994072E-1
 8.151518135200000E9     1.465007419059949E-1    5.236921487177781E-1   -3.562217762795710E-3    1.786162149607733E-3   -3.551696480998182E-3    1.819228321890501E-3    2.834902618439552E-1    4.286678663147577E-1
 8.151519598400000E9     1.464896463038352E-1    5.235414681226908E-1   -3.579391480797921E-3    1.787013958920617E-3   -3.555877714174844E-3    1.855907354881871E-3    2.834529117315502E-1    4.286918835959301E-1
 8.151521061600000E9     1.466788734607866E-1    5.235584990426483E-1   -3.578546299376987E-3    1.794750748117264E-3   -3.564929124136851E-3    1.870270441041607E-3    2.836081367664907E-1    4.284999709646139E-1
 8.151522524800000E9     1.468345288922031E-1    5.235115091515972E-1   -3.586089895132344E-3    1.813021577611402E-3   -3.594820656248100E-3    1.896757377409938E-3    2.836068732477662E-1    4.286484661443092E-1
 8.151523988000000E9     1.469694318685517E-1    5.235662025433084E-1   -3.609625409226326E-3    1.832158808998851E-3   -3.587841780647154E-3    1.870689849984694E-3    2.837032000302780E-1    4.285894710108588E-1
 8.151525451200000E9     1.470659746940497E-1    5.234932261942408E-1   -3.579008090996628E-3    1.815406004563300E-3   -3.622038186984857E-3    1.872052196392136E-3    2.836998055332537E-1    4.285725581637208E-1
 8.151526914400000E9     1.472793592382909E-1    5.233669890169036E-1   -3.623556165698106E-3    1.803115853212044E-3   -3.635818683608771E-3    1.883433845221170E-3    2.838916597117798E-1    4.284485750454159E-1
 8.151528377600000E9     1.474814070682150E-1    5.233176511619262E-1   -3.632695845407490E-3    1.815909656218890E-3   -3.607123891455213E-3    1.914595517840866E-3    2.839288865060186E-1    4.284673810915275E-1
 8.151529840800000E9     1.475703100558392E-1    5.233060690891091E-1   -3.657478968330338E-3    1.831184147831886E-3   -3.642735614676559E-3    1.887168142890427E-3    2.842228664549460E-1    4.282931348399076E-1
 8.151531304000000E9     1.477283337901995E-1    5.232868897560459E-1   -3.635028163877260E-3    1.830625624382722E-3   -3.631088591256994E-3    1.912585396167574E-3    2.842124567590146E-1    4.282743422138578E-1
 8.151532767200000E9     1.478756356930434E-1    5.231797004929002E-1   -3.666976866819693E-3    1.855817933378172E-3   -3.647155321712810E-3    1.940606291062997E-3    2.842791635853509E-1    4.282034577874123E-1
 8.151534230400000E9     1.480202518230087E-1    5.231475402059191E-1   -3.664859480966729E-3    1.859649064328824E-3   -3.615394942056516E-3    1.908214320675233E-3    2.842008110623981E-1    4.281926202388922E-1
 8.151535693600000E9     1.481063387433153E-1    5.230951666003795E-1   -3.654968078867092E-3    1.864523562294162E-3   -3.672256428748891E-3    1.933426811178907E-3    2.843475824432151E-1    4.282185148776776E-1
 8.151537156800000E9     1.482146493237262E-1    5.230587117026061E-1   -3.667671810216378E-3    1.887172052510726E-3   -3.668790143060637E-3    1.942946536363402E-3    2.843351474674739E-1    4.281674155453164E-1
 8.151538620000000E9     1.484111065237313E-1    5.229514576146937E-1   -3.695145279771139E-3    1.883633640106272E-3   -3.673274332160410E-3    1.990349035343605E-3    2.846470269881868E-1    4.279557602917444E-1
 8.151540083200000E9     1.487708092518184E-1    5.229243513752522E-1   -3.683098572072590E-3    1.895893416906497E-3   -3.684856338949597E-3    1.961563121238157E-3    2.846550230344389E-1    4.278792050274473E-1
 8.151541546400000E9     1.487538953787665E-1    5.228714104846938E-1   -3.681529037617285E-3    1.923640276763755E-3   -3.715296954464014E-3    1.967883820645237E-3    2.845422799464970E-1    4.279151821233240E-1
 8.151543009600000E9     1.489853345386087E-1    5.227967948831578E-1   -3.726596509061079E-3    1.913447233117777E-3   -3.724576958752556E-3    1.999607759951828E-3    2.847635640396339E-1    4.277756755864604E-1
 8.151544472800000E9     1.491163641974110E-1    5.227786255282245E-1   -3.729030004557862E-3    1.916383924010490E-3   -3.722728057595240E-3    1.982093651632829E-3    2.848618995020179E-1    4.277439136985993E-1
 8.151545936000000E9     1.492822523419641E-1    5.226707614553839E-1   -3.739167702274735E-3    1.935486966019276E-3   -3.725452525711878E-3    1.994929470215824E-3    2.849388853826337E-1    4.276278463745786E-1
 8.151547399200000E9     1.494827566261280E-1    5.225385726790778E-1   -3.740529371308567E-3    1.954424265781014E-3   -3.721922006063228E-3    2.009204661876892E-3    2.850853760375668E-1    4.276348786752058E-1
 8.151548862400000E9     1.496632906557658E-1    5.225935420454250E-1   -3.743083039565478E-3    1.970817662262328E-3   -3.751867819454158E-3    2.032049280160521E-3    2.851922205842698E-1    4.276150210726782E-1
 8.151550325600000E9     1.497642627801671E-1    5.224716258922263E-1   -3.776572679517523E-3    1.948849782426628E-3   -3.744667229554050E-3    2.038008748443169E-3    2.850620380224220E-1    4.275128451911369E-1
 8.151551788800000E9     1.499074019231099E-1    5.224143011986964E-1   -3.763755826280832E-3    1.981155954060399E-3   -3.776315882974391E-3    2.061042483344767E-3    2.853922927669276E-1    4.274376608443070E-1
 8.151553252000000E9     1.501769396504588E-1    5.223425593155050E-1   -3.781150807927492E-3    1.993909584855456E-3   -3.786184011722631E-3    2.068294509153450E-3    2.854672695942854E-1    4.275823982552465E-1
