#  HZ   S   RI   R     50.00 
! Rohde & Schwarz Vector Network Analyzer 
! Rohde-Schwarz,ZNB20-2Port,1311601062101988,3.16
! Created: UTC 3/21/2024, 12:58:18 AM
! freq[Hz]                re:S11                  im:S11                  re:S21                  im:S21                  re:S12                  im:S12                  re:S22                  im:S22
 8.150095941000000E9     3.786684724153930E-2    5.392910826929269E-1   -2.597290113148353E-3    5.640377349090023E-4   -2.633363061288911E-3    6.261529088947542E-4    1.924436655229594E-1    4.785282101675046E-1
 8.150104169800000E9     3.846552287771764E-2    5.391566088816834E-1   -2.581775313388475E-3    5.683398153744743E-4   -2.631490268348353E-3    5.831796491629656E-4    1.927902350544544E-1    4.781993169013997E-1
 8.150112398600000E9     3.912523824616192E-2    5.392146013093768E-1   -2.596571387993060E-3    5.529816909313502E-4   -2.625028257267339E-3    5.931767999875297E-4    1.933295879809163E-1    4.779526838840733E-1
 8.150120627400000E9     3.974113218162531E-2    5.392164596652181E-1   -2.592386332449119E-3    5.599836696950682E-4   -2.605709551485381E-3    6.040748978807850E-4    1.937705445279221E-1    4.778052718371498E-1
 8.150128856200000E9     4.020905983735962E-2    5.391586545037244E-1   -2.609733369515953E-3    5.407537037299344E-4   -2.624781776317981E-3    6.182859260897173E-4    1.943806164756717E-1    4.775526211378978E-1
 8.150137085000000E9     4.094494959916629E-2    5.392565368055601E-1   -2.579828325570068E-3    5.636999044506976E-4   -2.619666374641868E-3    6.236082565246982E-4    1.948950860813330E-1    4.774494350963978E-1
 8.150145313800000E9     4.155522922334917E-2    5.390341974868560E-1   -2.624336805739871E-3    5.849719441402915E-4   -2.605584181392803E-3    5.970222331461935E-4    1.951802499274602E-1    4.772021971753438E-1
 8.150153542600000E9     4.208830872136453E-2    5.390718367001109E-1   -2.601059499684586E-3    5.735642991866023E-4   -2.641328509970361E-3    6.339473804178961E-4    1.958665882911564E-1    4.769270208768466E-1
 8.150161771400000E9     4.259000105253663E-2    5.389518089691365E-1   -2.615982482170891E-3    5.749728426726747E-4   -2.608322409556908E-3    6.220395819287620E-4    1.962935175356651E-1    4.767968229392692E-1
 8.150170000200000E9     4.317370153817528E-2    5.391074349368734E-1   -2.582339177276226E-3    5.826405403139049E-4   -2.594351335595170E-3    5.968708343762400E-4    1.967962789031406E-1    4.765692308779841E-1
 8.150178229000000E9     4.386793225730908E-2    5.389055932099002E-1   -2.616807372179246E-3    5.743219182481694E-4   -2.646679965100073E-3    6.417009763109927E-4    1.972624605639920E-1    4.763448030552194E-1
 8.150186457800000E9     4.426380265071318E-2    5.388894373460420E-1   -2.612620585090772E-3    5.853642049126676E-4   -2.594802331786196E-3    6.207152501462002E-4    1.977054650610046E-1    4.761648972412532E-1
 8.150194686600000E9     4.491973943523207E-2    5.389743885584728E-1   -2.585452345727503E-3    5.976098037389789E-4   -2.616976634116444E-3    6.232078122279094E-4    1.983094907261135E-1    4.758273265535246E-1
 8.150202915400000E9     4.545477566533267E-2    5.389786154658670E-1   -2.593899370223652E-3    5.741046743659402E-4   -2.613274420642612E-3    6.370467204178256E-4    1.987208350053636E-1    4.756202947319779E-1
 8.150211144200000E9     4.605121272687550E-2    5.388691426001982E-1   -2.602513523383739E-3    5.965913317648027E-4   -2.589004864535587E-3    6.704081245191352E-4    1.992862494729084E-1    4.755586720502277E-1
 8.150219373000000E9     4.672218068629921E-2    5.387892407864849E-1   -2.592519155552033E-3    5.909666669959436E-4   -2.585522724596806E-3    6.401773916605786E-4    1.997153173465496E-1    4.752986044650965E-1
 8.150227601800000E9     4.735073869221911E-2    5.387572279295761E-1   -2.609133646867473E-3    5.938430286272554E-4   -2.627504750910678E-3    6.556521211818710E-4    2.000355467627492E-1    4.750496561778337E-1
 8.150235830600000E9     4.788971470414138E-2    5.387417944707449E-1   -2.602243173945841E-3    6.134294085681902E-4   -2.607892181881685E-3    6.911151808315631E-4    2.008226430807712E-1    4.749018097357591E-1
 8.150244059400000E9     4.841886746696567E-2    5.386905898529440E-1   -2.575329104818186E-3    6.196793703715674E-4   -2.608985748307118E-3    6.559457381179323E-4    2.011402083823403E-1    4.745748043878542E-1
 8.150252288200000E9     4.909436121524934E-2    5.385969869058022E-1   -2.602322803597402E-3    6.098475556863815E-4   -2.601963453514081E-3    6.676932246163826E-4    2.016122000805116E-1    4.745449435216043E-1
 8.150260517000000E9     4.957200845242700E-2    5.386265545172708E-1   -2.592436051853331E-3    5.985489649467372E-4   -2.632352201960317E-3    6.674269142840465E-4    2.022458491484458E-1    4.742595149417585E-1
 8.150268745800000E9     5.023968626175326E-2    5.385241365098908E-1   -2.620646133479545E-3    6.277828498229061E-4   -2.612088175812547E-3    6.798620646050102E-4    2.025594219180292E-1    4.739547375854132E-1
 8.150276974600000E9     5.068520295142361E-2    5.385662707271770E-1   -2.623801606274584E-3    6.204480711103936E-4   -2.631999446109953E-3    6.660273907289863E-4    2.031166457560491E-1    4.738427182771250E-1
 8.150285203400000E9     5.131249318810627E-2    5.384532560839256E-1   -2.604911901941111E-3    5.878172020296326E-4   -2.619599217226231E-3    6.686174489874997E-4    2.035256916608965E-1    4.734803235128355E-1
 8.150293432200000E9     5.180615404674101E-2    5.384245333953720E-1   -2.605981498936314E-3    6.092680823736815E-4   -2.623707977708428E-3    6.603335692193519E-4    2.040636445507124E-1    4.733494678396816E-1
 8.150301661000000E9     5.250606637045670E-2    5.384127056343482E-1   -2.612846827867937E-3    6.224768098077024E-4   -2.616121364435104E-3    6.511244663662038E-4    2.045800026832288E-1    4.730122836043988E-1
 8.150309889800000E9     5.307322935290266E-2    5.383026827453702E-1   -2.596356479964493E-3    6.217504748188559E-4   -2.636633066244400E-3    6.790419758563694E-4    2.050283649481731E-1    4.729943102277930E-1
 8.150318118600000E9     5.356669012721856E-2    5.383029990587863E-1   -2.609231671619962E-3    6.406127921359802E-4   -2.600282720590033E-3    6.768317452747512E-4    2.054596714500009E-1    4.727538996994866E-1
 8.150326347400000E9     5.416412255891261E-2    5.381981712619559E-1   -2.599586202323049E-3    6.389266046473250E-4   -2.632267176275134E-3    6.625582478544854E-4    2.060701590452437E-1    4.724610561068817E-1
 8.150334576200000E9     5.475293594379225E-2    5.382962724325985E-1   -2.597624247769365E-3    6.278767653684310E-4   -2.619538456578272E-3    6.930600633327833E-4    2.065727223263845E-1    4.722150912345403E-1
 8.150342805000000E9     5.536353576904820E-2    5.380964218340445E-1   -2.593346051125559E-3    6.343718979499623E-4   -2.638064581879648E-3    6.416882896405544E-4    2.069401023113238E-1    4.720469391716657E-1
 8.150351033800000E9     5.590019400778080E-2    5.380527931512694E-1   -2.591254481737601E-3    6.365530279154457E-4   -2.627637364884241E-3    6.682132775067398E-4    2.075549235880240E-1    4.719109290143031E-1
 8.150359262600000E9     5.642591422082095E-2    5.381369626293886E-1   -2.619984581793251E-3    6.628060768043787E-4   -2.616354516991489E-3    6.764313182847700E-4    2.078863502660582E-1    4.715361216933737E-1
 8.150367491400000E9     5.711581457038893E-2    5.380420480748788E-1   -2.600329500158483E-3    6.482355392374846E-4   -2.582411577786378E-3    6.862921131444068E-4    2.085457363817629E-1    4.713448877618994E-1
 8.150375720200000E9     5.756490957881021E-2    5.379926154952794E-1   -2.617843629938241E-3    6.186391937608925E-4   -2.647473681004138E-3    6.851240175750490E-4    2.088840359589932E-1    4.711019497275908E-1
 8.150383949000000E9     5.822470216737593E-2    5.379253300887411E-1   -2.615557147900582E-3    6.588116683858511E-4   -2.635240025370733E-3    7.145615317194155E-4    2.094349057553011E-1    4.709575598761326E-1
 8.150392177800000E9     5.875635345186898E-2    5.378064709801746E-1   -2.613747715892348E-3    6.386688234132752E-4   -2.624878530635503E-3    7.029992973594760E-4    2.099189929112233E-1    4.706054217880253E-1
 8.150400406600000E9     5.939320159985068E-2    5.378648164732537E-1   -2.603594328598275E-3    6.503305400955449E-4   -2.621757667049333E-3    7.171174123474716E-4    2.103891922923684E-1    4.705455092771241E-1
 8.150408635400000E9     6.004683807830462E-2    5.378057996963631E-1   -2.631661411492649E-3    6.382939937257741E-4   -2.580851247515185E-3    7.044454907959544E-4    2.108589825476009E-1    4.701749185591658E-1
 8.150416864200000E9     6.050314660928133E-2    5.377262864443419E-1   -2.582773940969622E-3    6.787421576720227E-4   -2.648897709251512E-3    7.113124854435845E-4    2.112013494825164E-1    4.700499608012194E-1
 8.150425093000000E9     6.104298854439590E-2    5.376861617998240E-1   -2.603859492426029E-3    6.801493167915112E-4   -2.618413180099094E-3    7.151544382642429E-4    2.118006016800856E-1    4.697913667207757E-1
 8.150433321800000E9     6.155175022339567E-2    5.375998314086451E-1   -2.618568461786694E-3    6.803739747116647E-4   -2.641611789839641E-3    7.481088761176105E-4    2.121955737899626E-1    4.695410352234658E-1
 8.150441550600000E9     6.215986286691159E-2    5.375807237124389E-1   -2.628635668979907E-3    6.578384360727699E-4   -2.642141295073331E-3    7.253637688622979E-4    2.127719627411901E-1    4.691863721527900E-1
 8.150449779400000E9     6.282052105949454E-2    5.374658386943506E-1   -2.596692432240582E-3    6.931292286953962E-4   -2.624966890039339E-3    7.423469291462679E-4    2.132258296247365E-1    4.692802645641171E-1
 8.150458008200000E9     6.341457967456694E-2    5.374683915167275E-1   -2.604786015179078E-3    6.899398134319684E-4   -2.624424388863539E-3    7.313757425512242E-4    2.137464189557699E-1    4.688198594402431E-1
 8.150466237000000E9     6.403835551521977E-2    5.373934628461370E-1   -2.597088378291073E-3    6.694154713163951E-4   -2.628977921177459E-3    7.317726888213886E-4    2.142079741090605E-1    4.685541253050567E-1
 8.150474465800000E9     6.446443941743410E-2    5.373185674370948E-1   -2.616101705816005E-3    6.902746186418909E-4   -2.622683971719819E-3    7.513325454429656E-4    2.147876501110126E-1    4.683760606569615E-1
 8.150482694600000E9     6.508769941171383E-2    5.373222856238661E-1   -2.598570674997972E-3    7.104889436724173E-4   -2.615135991255985E-3    7.091783935542156E-4    2.152568450048194E-1    4.681713278539248E-1
 8.150490923400000E9     6.563314004109130E-2    5.371066838135716E-1   -2.598326074222650E-3    6.965315374291522E-4   -2.596648081268875E-3    7.474382041090423E-4    2.156208125769551E-1    4.678975235729099E-1
 8.150499152200000E9     6.634393282212549E-2    5.370993394829546E-1   -2.608326038145117E-3    7.096240688095940E-4   -2.628768681009750E-3    7.964295087991638E-4    2.161005982220506E-1    4.676376659568259E-1
 8.150507381000000E9     6.683135598764289E-2    5.371419882094624E-1   -2.602034753129582E-3    7.167356551183833E-4   -2.660101599782129E-3    7.841170758127171E-4    2.165900465619925E-1    4.675237821679133E-1
 8.150515609800000E9     6.737846250241961E-2    5.370504732529162E-1   -2.608046111969779E-3    6.950989762991748E-4   -2.621394474104235E-3    7.636632920958871E-4    2.172055877887026E-1    4.672297163061976E-1
 8.150523838600000E9     6.810742172157684E-2    5.370122923284725E-1   -2.582303073257863E-3    7.006384610139221E-4   -2.634473211315322E-3    7.830787844156256E-4    2.174636140262662E-1    4.671125851775532E-1
 8.150532067400000E9     6.858506963566220E-2    5.368861640307249E-1   -2.612828889960171E-3    7.075295659650007E-4   -2.624823648919025E-3    7.973986399769744E-4    2.179552728258451E-1    4.665871232404061E-1
 8.150540296200000E9     6.917661051075601E-2    5.367948956027964E-1   -2.606473528579470E-3    7.369315257372231E-4   -2.634173356150704E-3    7.580345048145875E-4    2.185954165668337E-1    4.664980874646746E-1
 8.150548525000000E9     6.962493837813767E-2    5.367921139132390E-1   -2.599521912673563E-3    7.005660879031626E-4   -2.629640659132113E-3    7.798652060068161E-4    2.190725679471112E-1    4.663867867633734E-1
 8.150556753800000E9     7.038535869728717E-2    5.367648136208070E-1   -2.611512683746659E-3    7.148998536351134E-4   -2.604104240847809E-3    8.049339205897054E-4    2.194649402781314E-1    4.660611342099426E-1
 8.150564982600000E9     7.092155627577043E-2    5.367765111598821E-1   -2.603528542906646E-3    7.180773084050570E-4   -2.626784906658214E-3    7.703317399503113E-4    2.198382281112662E-1    4.658101204333105E-1
 8.150573211400000E9     7.136521319811795E-2    5.365118903963459E-1   -2.621601161053762E-3    7.374424430894484E-4   -2.612882272455301E-3    7.906212974548994E-4    2.204762066455677E-1    4.655181375808850E-1
 8.150581440200000E9     7.205416652163647E-2    5.365069379077206E-1   -2.619056439683575E-3    7.376154193569482E-4   -2.635694436356071E-3    7.625051649358644E-4    2.209946510323680E-1    4.653763288608228E-1
 8.150589669000000E9     7.266101338565392E-2    5.364546390238670E-1   -2.601878889428692E-3    7.458078202456383E-4   -2.617615413164835E-3    7.985351387922525E-4    2.212740769857170E-1    4.650774545200102E-1
 8.150597897800000E9     7.314876576240101E-2    5.364578760445817E-1   -2.615272863621910E-3    7.218268567611892E-4   -2.642222990038215E-3    8.113214878400949E-4    2.219387537156405E-1    4.647087731605419E-1
 8.150606126600000E9     7.373149526828103E-2    5.363202073399691E-1   -2.627216615927322E-3    7.560661037760143E-4   -2.606106861438680E-3    7.802157426316796E-4    2.222649640800477E-1    4.645876613332710E-1
 8.150614355400000E9     7.428647930746858E-2    5.362768920724148E-1   -2.617493703405588E-3    7.489925157783907E-4   -2.614977610382631E-3    8.369272005125874E-4    2.227797517390918E-1    4.643756154660321E-1
 8.150622584200000E9     7.491071421852007E-2    5.362382088866132E-1   -2.617112010039587E-3    7.567371448709628E-4   -2.619134830517492E-3    8.271203471408520E-4    2.233245413950051E-1    4.642455991319626E-1
 8.150630813000000E9     7.548503457364544E-2    5.361298456022784E-1   -2.623197020881189E-3    7.337045641186699E-4   -2.669201494879514E-3    8.076270708806402E-4    2.236573501912325E-1    4.640818472366735E-1
 8.150639041800000E9     7.610364157389099E-2    5.360613290619846E-1   -2.620596733487625E-3    7.845696525276084E-4   -2.631441281937319E-3    8.117188865291640E-4    2.242338498901733E-1    4.636378033459454E-1
 8.150647270600000E9     7.655143907056861E-2    5.360525251103034E-1   -2.618760934755728E-3    7.499152071454095E-4   -2.644933613561087E-3    8.105978910378343E-4    2.247498945540499E-1    4.634219969047102E-1
 8.150655499400000E9     7.705032904647068E-2    5.359982180132016E-1   -2.629791545495418E-3    7.891444313454592E-4   -2.622789446746223E-3    8.139960764055592E-4    2.251172588960030E-1    4.633009977466205E-1
 8.150663728200000E9     7.784155151663924E-2    5.359270095038793E-1   -2.642674599572626E-3    7.685180013078307E-4   -2.638497041318322E-3    8.036060358999576E-4    2.256273862679765E-1    4.629125521805187E-1
 8.150671957000000E9     7.838371920381262E-2    5.358018192209348E-1   -2.618234087733129E-3    7.883994651920116E-4   -2.632711812421327E-3    8.387420671183146E-4    2.259865951924735E-1    4.628407077620361E-1
 8.150680185800000E9     7.893093293812027E-2    5.357415442917852E-1   -2.630665060172830E-3    7.555141505235660E-4   -2.616642515808924E-3    8.221756972613877E-4    2.266729692364940E-1    4.625294913382808E-1
 8.150688414600000E9     7.948145021703218E-2    5.357808909087716E-1   -2.602582870364671E-3    7.708168830663525E-4   -2.624153913378262E-3    8.388303377290935E-4    2.270676215279753E-1    4.621320131564464E-1
 8.150696643400000E9     8.010289555241720E-2    5.355513711692300E-1   -2.618235211902297E-3    7.917568264369158E-4   -2.627333978127677E-3    8.187573651920347E-4    2.275618806641414E-1    4.619023742240436E-1
 8.150704872200000E9     8.060547523372834E-2    5.355636727817977E-1   -2.638720733426947E-3    7.867650756195598E-4   -2.608007538719715E-3    8.479643681927488E-4    2.280432505385731E-1    4.617067329286766E-1
 8.150713101000000E9     8.126937532251990E-2    5.354399960408190E-1   -2.631926743674069E-3    7.956883045132293E-4   -2.628755402504566E-3    8.497541737636517E-4    2.285676637464269E-1    4.614404409072962E-1
 8.150721329800000E9     8.176507498141465E-2    5.353953186253791E-1   -2.631755420025829E-3    7.739990481912982E-4   -2.629361754211057E-3    8.537538951264928E-4    2.289327018848421E-1    4.612944248023484E-1
 8.150729558600000E9     8.240847916933747E-2    5.352623480642592E-1   -2.610875888984960E-3    8.031012233501187E-4   -2.638421163223788E-3    8.652870985530023E-4    2.293808595478036E-1    4.609638356631008E-1
 8.150737787400000E9     8.294334817834369E-2    5.352402943381581E-1   -2.604934278905490E-3    8.151462248387113E-4   -2.634866195943056E-3    8.817285559075225E-4    2.298986099320211E-1    4.606399855431523E-1
 8.150746016200000E9     8.357324544761632E-2    5.351431755757917E-1   -2.616187961144588E-3    8.190778202384712E-4   -2.653598723990911E-3    8.710654820930733E-4    2.304738034827474E-1    4.605488364126290E-1
 8.150754245000000E9     8.411871284685912E-2    5.350486969068590E-1   -2.635871012771069E-3    8.059238545873851E-4   -2.658581834599902E-3    8.602157438407908E-4    2.309070444469650E-1    4.602843114342047E-1
 8.150762473800000E9     8.468793534413961E-2    5.348893146948123E-1   -2.621840711010327E-3    7.905519194028455E-4   -2.631219403919405E-3    8.554654093086147E-4    2.312788027748987E-1    4.600485509335016E-1
 8.150770702600000E9     8.528580959294195E-2    5.348980343868964E-1   -2.627623897408896E-3    8.341565472096923E-4   -2.643247621675460E-3    8.749294145277237E-4    2.319066756094698E-1    4.597874127892373E-1
 8.150778931400000E9     8.592276762600840E-2    5.349365374470151E-1   -2.644135280063362E-3    8.263376337268754E-4   -2.636676514780989E-3    8.810928180891123E-4    2.321633038709014E-1    4.596267478732608E-1
 8.150787160200000E9     8.637674406541536E-2    5.346888882670263E-1   -2.625684186236246E-3    8.229512656215235E-4   -2.627127655660101E-3    8.889168675859340E-4    2.327245590095005E-1    4.594095532388335E-1
 8.150795389000000E9     8.704101546792130E-2    5.346099701438470E-1   -2.653913409809926E-3    8.120370640804752E-4   -2.647999852855622E-3    8.759846229760674E-4    2.332275749035375E-1    4.590487944350667E-1
 8.150803617800000E9     8.753314301921888E-2    5.346494610053504E-1   -2.623305330305554E-3    8.276274897912861E-4   -2.674297977553009E-3    8.779695695262952E-4    2.336758945475512E-1    4.587328583766730E-1
 8.150811846600000E9     8.818482949439550E-2    5.345218607922680E-1   -2.652569971146606E-3    8.464052420301299E-4   -2.640566860528513E-3    8.655034086721799E-4    2.341881352845956E-1    4.584978014987285E-1
 8.150820075400000E9     8.876663931264232E-2    5.343340579802722E-1   -2.627086189491926E-3    8.331012103406844E-4   -2.674723063197295E-3    8.944392810381751E-4    2.347044219797182E-1    4.582780568948857E-1
 8.150828304200000E9     8.931670391235115E-2    5.344441111940067E-1   -2.631161860672896E-3    8.520727293855986E-4   -2.653610406530851E-3    8.985602948749216E-4    2.351138261483519E-1    4.580536384168344E-1
 8.150836533000000E9     8.984448000897408E-2    5.343031496023487E-1   -2.632493758504936E-3    8.695040859123394E-4   -2.635297025138796E-3    8.729472682684884E-4    2.355414649003556E-1    4.577598147064657E-1
