#  HZ   S   RI   R     50.00 
! Rohde & Schwarz Vector Network Analyzer 
! Rohde-Schwarz,ZNB20-2Port,1311601062101988,3.16
! Created: UTC 3/21/2024, 12:58:53 AM
! freq[Hz]                re:S11                  im:S11                  re:S21                  im:S21                  re:S12                  im:S12                  re:S22                  im:S22
 8.149914053000000E9     2.489772130781734E-2    5.396063214013164E-1   -2.609366159109422E-3    4.789039800653033E-4   -2.674317514040843E-3    5.167125327925798E-4    1.811897854698287E-1    4.830209406760467E-1
 8.149923153750000E9     2.565705843662590E-2    5.395295073494295E-1   -2.585281772459420E-3    4.997028593738475E-4   -2.631315098766801E-3    5.249768341414813E-4    1.815447044936669E-1    4.827858048304511E-1
 8.149932254500000E9     2.634039986031036E-2    5.396405413171165E-1   -2.631385650429516E-3    5.096999651062798E-4   -2.571898348890842E-3    5.233603219265844E-4    1.821619682748141E-1    4.826744366155332E-1
 8.149941355250000E9     2.691516763656507E-2    5.395339121595605E-1   -2.583327188949583E-3    4.845156973849472E-4   -2.591123064279591E-3    5.633270038085636E-4    1.828001372102959E-1    4.822433533427868E-1
 8.149950456000000E9     2.743010470963811E-2    5.395245573020891E-1   -2.583428333506352E-3    4.921492508831976E-4   -2.635848151221428E-3    5.163714678499108E-4    1.832393293086854E-1    4.822607507932302E-1
 8.149959556750000E9     2.817628642414017E-2    5.395404148679592E-1   -2.594846384781679E-3    4.907913943747792E-4   -2.627867812919809E-3    5.405674555832886E-4    1.838268402901268E-1    4.818280844012367E-1
 8.149968657500000E9     2.873543300207625E-2    5.394992992652029E-1   -2.586806281323897E-3    4.790758821924280E-4   -2.620038716475634E-3    5.651770802659401E-4    1.843817806921231E-1    4.816096591015168E-1
 8.149977758250000E9     2.940224571054798E-2    5.394676040538261E-1   -2.609714320568900E-3    5.088476901231726E-4   -2.609389795895449E-3    5.394580357628312E-4    1.848915255997914E-1    4.814794543202049E-1
 8.149986859000000E9     3.016065032385747E-2    5.394723658948526E-1   -2.595448051755964E-3    5.042052600834616E-4   -2.646224074911524E-3    5.552211576944439E-4    1.854285184997000E-1    4.812805951552386E-1
 8.149995959750000E9     3.071592088554264E-2    5.393239004054324E-1   -2.602704894679502E-3    4.903299132524538E-4   -2.621709743227080E-3    5.537854721316231E-4    1.859984145709151E-1    4.809549184555199E-1
 8.150005060500000E9     3.129688139865094E-2    5.394003974398790E-1   -2.611639741414008E-3    5.126084332798504E-4   -2.635310696227891E-3    5.698868678535295E-4    1.864439019746508E-1    4.808802212633021E-1
 8.150014161250000E9     3.197154085335383E-2    5.393499378366210E-1   -2.609993714396807E-3    5.307633563601014E-4   -2.597159165213127E-3    5.364166728612234E-4    1.871069259023162E-1    4.804687194551206E-1
 8.150023262000000E9     3.255364484323919E-2    5.391994256700740E-1   -2.608371273136264E-3    5.201777916636964E-4   -2.620432468720406E-3    5.690557346146687E-4    1.876499924911960E-1    4.803912618797466E-1
 8.150032362750000E9     3.327831351853225E-2    5.394434071528587E-1   -2.585424878895707E-3    5.397401188872583E-4   -2.609205449253189E-3    5.885079454302748E-4    1.882602845194820E-1    4.801442107587492E-1
 8.150041463500000E9     3.399869844985178E-2    5.393865137211050E-1   -2.613804301104000E-3    5.196876057421069E-4   -2.634155844923859E-3    5.561339393024434E-4    1.886915006954054E-1    4.799683572234745E-1
 8.150050564250000E9     3.461150396826262E-2    5.392274115431718E-1   -2.619270451695388E-3    5.281399157154285E-4   -2.617004304160203E-3    5.540818517508334E-4    1.892619701714705E-1    4.795956290099430E-1
 8.150059665000000E9     3.526389447737885E-2    5.392198455065267E-1   -2.614241228441209E-3    5.281644173885348E-4   -2.650406883833054E-3    5.913752037883676E-4    1.897439874524428E-1    4.795624929563311E-1
 8.150068765750000E9     3.577796128840197E-2    5.392931831431794E-1   -2.581123429964149E-3    5.371012387632407E-4   -2.611710283324311E-3    6.009614761139543E-4    1.903066269322314E-1    4.792416388653465E-1
 8.150077866500000E9     3.647486056651048E-2    5.392032551893491E-1   -2.592394641191283E-3    5.355017722488239E-4   -2.599488533606940E-3    5.755608319630539E-4    1.909037701631645E-1    4.789475682405845E-1
 8.150086967250000E9     3.712013639153849E-2    5.391634692564833E-1   -2.626738757637261E-3    5.568931853732821E-4   -2.615730758605322E-3    5.868437287921143E-4    1.913560506935464E-1    4.787860445889754E-1
 8.150096068000000E9     3.783419518838654E-2    5.391079336976348E-1   -2.595549129282949E-3    5.412783284483455E-4   -2.631548694617756E-3    6.151987071126334E-4    1.918268816214945E-1    4.785397369246484E-1
 8.150105168750000E9     3.852498618376075E-2    5.392409173525523E-1   -2.614698370752429E-3    5.322505900835922E-4   -2.628591230069758E-3    5.961922293053959E-4    1.925111687397250E-1    4.783066080042966E-1
 8.150114269500000E9     3.904512285592108E-2    5.391596162431710E-1   -2.591332521380699E-3    5.365669700888474E-4   -2.624993659841658E-3    5.823062661682032E-4    1.929725686252907E-1    4.780543511786379E-1
 8.150123370250000E9     3.975042552437612E-2    5.390263446276242E-1   -2.598120318754930E-3    5.434475418839086E-4   -2.575098732403661E-3    6.211137506338562E-4    1.936118343908503E-1    4.779032556664055E-1
 8.150132471000000E9     4.035780080737576E-2    5.389913498154684E-1   -2.599427073408773E-3    5.490437428594488E-4   -2.631350988947919E-3    6.152481805365087E-4    1.943230321984432E-1    4.775715058190257E-1
 8.150141571750000E9     4.108621554678592E-2    5.390175861055502E-1   -2.604101883936713E-3    5.668199745337198E-4   -2.649567961793861E-3    6.008655203980528E-4    1.945365972939112E-1    4.773535005687998E-1
 8.150150672500000E9     4.151779448131768E-2    5.390206711805717E-1   -2.605958367711109E-3    5.730101430778276E-4   -2.616506360787889E-3    6.259818940353071E-4    1.953264397558399E-1    4.771843622939752E-1
 8.150159773250000E9     4.221518614949893E-2    5.389127741425417E-1   -2.593590310465206E-3    5.785519504659302E-4   -2.650005233345899E-3    6.129529310542932E-4    1.958248603824564E-1    4.770179581966552E-1
 8.150168874000000E9     4.291878171208690E-2    5.388958764552612E-1   -2.617835528413021E-3    5.993883823724233E-4   -2.602746073814020E-3    6.335696818721236E-4    1.963612882814823E-1    4.766822355698387E-1
 8.150177974750000E9     4.352456895823133E-2    5.388841477905657E-1   -2.603853384355436E-3    5.826426450151506E-4   -2.593732049182493E-3    6.197634656033415E-4    1.967882991447635E-1    4.764326555653475E-1
 8.150187075500000E9     4.408733872463372E-2    5.388221239257396E-1   -2.625780192446082E-3    5.821980997517224E-4   -2.612203647568503E-3    6.249036563185364E-4    1.974813963053603E-1    4.763407037588945E-1
 8.150196176250000E9     4.466011558651292E-2    5.387784978102306E-1   -2.611999558754479E-3    5.869021745704787E-4   -2.611953942944111E-3    6.502916344089485E-4    1.977678882611043E-1    4.761168216455471E-1
 8.150205277000000E9     4.541349927377857E-2    5.386740309111444E-1   -2.602706629927206E-3    5.843926357441229E-4   -2.605810948854606E-3    6.430137924603280E-4    1.986717557897078E-1    4.757646288037987E-1
 8.150214377750000E9     4.609685455727779E-2    5.387805721799058E-1   -2.597897214837369E-3    5.935000717289996E-4   -2.665061605184410E-3    6.295439426786836E-4    1.988853966643069E-1    4.755015819282972E-1
 8.150223478500000E9     4.673130580268212E-2    5.387170873574105E-1   -2.611865897748830E-3    5.614703429744284E-4   -2.624581302183196E-3    6.462636212868902E-4    1.996592342394162E-1    4.753349780346438E-1
 8.150232579250000E9     4.736676364793510E-2    5.386509479290932E-1   -2.614538459185345E-3    5.900913931949290E-4   -2.581244135392154E-3    6.768999047004648E-4    1.999655640392161E-1    4.750829761915771E-1
 8.150241680000000E9     4.796773400758205E-2    5.385662165070816E-1   -2.607688431559481E-3    6.159634528617249E-4   -2.646218968675237E-3    6.412555090778287E-4    2.007558914520402E-1    4.748803952816052E-1
 8.150250780750000E9     4.868353085109414E-2    5.386027311386818E-1   -2.615670604980588E-3    5.914642874181206E-4   -2.648026018963438E-3    6.421332451039995E-4    2.011991623083233E-1    4.745409865223359E-1
 8.150259881500000E9     4.925471036640668E-2    5.384791902035623E-1   -2.588509567337504E-3    6.038141585498876E-4   -2.619017069120508E-3    6.569090624827042E-4    2.016884741084988E-1    4.743418753036541E-1
 8.150268982250000E9     4.976645199793948E-2    5.384150821250485E-1   -2.572278849802053E-3    6.000748250633532E-4   -2.619213126538213E-3    6.637375499150279E-4    2.022280444549782E-1    4.741269917342348E-1
 8.150278083000000E9     5.062231264911501E-2    5.383659852345901E-1   -2.602090523706857E-3    6.110727632473504E-4   -2.619395092204563E-3    6.539366336604797E-4    2.028590426758748E-1    4.737543905612787E-1
 8.150287183750000E9     5.110088448939522E-2    5.383569414630351E-1   -2.598112411226346E-3    6.149072517886055E-4   -2.619344358556418E-3    6.577593124135322E-4    2.033134901734785E-1    4.735286638295995E-1
 8.150296284500000E9     5.169927553809451E-2    5.383610144792388E-1   -2.593080829694123E-3    6.118664498131785E-4   -2.643044881895374E-3    7.052694143542342E-4    2.038095206738173E-1    4.732869362573908E-1
 8.150305385250000E9     5.239051120563214E-2    5.381847616916532E-1   -2.601909171832115E-3    6.297765784464650E-4   -2.632831108486213E-3    6.540631602747317E-4    2.044361854174213E-1    4.731475671959365E-1
 8.150314486000000E9     5.300657123331387E-2    5.381989454515191E-1   -2.611559709633705E-3    6.594267214367564E-4   -2.641833559885926E-3    6.781746467733122E-4    2.049017112936146E-1    4.729120098762330E-1
 8.150323586750000E9     5.369415211484928E-2    5.381173906036030E-1   -2.615769838119971E-3    6.371293152662732E-4   -2.617007550128947E-3    6.733494026973169E-4    2.055360509954047E-1    4.725443045106887E-1
 8.150332687500000E9     5.430480338184867E-2    5.381681683842224E-1   -2.595466941145859E-3    6.535129477206325E-4   -2.633727117940837E-3    6.740235827136856E-4    2.060238043375748E-1    4.724369629384058E-1
 8.150341788250000E9     5.487106492648602E-2    5.381422072881360E-1   -2.600176279275733E-3    6.154506963506470E-4   -2.599738974664141E-3    6.924188047350509E-4    2.063906190888339E-1    4.722699542049178E-1
 8.150350889000000E9     5.557334037785447E-2    5.380311270058141E-1   -2.609419447339832E-3    6.310311989615213E-4   -2.610285094763697E-3    6.896276740607993E-4    2.072301685884453E-1    4.719011820500259E-1
 8.150359989750000E9     5.615860918378487E-2    5.379474206156691E-1   -2.606033366564835E-3    6.511346808101923E-4   -2.643819616907005E-3    6.691954441042225E-4    2.077036657586720E-1    4.715605711858380E-1
 8.150369090500000E9     5.691579968476093E-2    5.379666186494346E-1   -2.566474340214415E-3    6.349639623566570E-4   -2.606182310332346E-3    7.160382074949598E-4    2.081554112449928E-1    4.714177073408503E-1
 8.150378191250000E9     5.746328039537653E-2    5.378474261241089E-1   -2.604665082845683E-3    6.718488179739805E-4   -2.629341459485323E-3    7.197664379350420E-4    2.087483448929640E-1    4.710873623403687E-1
 8.150387292000000E9     5.817394332597645E-2    5.377991722437824E-1   -2.606253109392152E-3    6.262735380399500E-4   -2.631244536512472E-3    6.929992042818905E-4    2.092706815571306E-1    4.708332871587602E-1
 8.150396392750000E9     5.884841090412259E-2    5.377238502547580E-1   -2.598912090672820E-3    6.782167058171388E-4   -2.633408111523076E-3    7.277353232271258E-4    2.097597448517120E-1    4.706680713941258E-1
 8.150405493500000E9     5.937966671272161E-2    5.377373878995212E-1   -2.629371581592964E-3    6.350314512975452E-4   -2.616222253671123E-3    7.136231290152014E-4    2.103239729908234E-1    4.704642255724617E-1
 8.150414594250000E9     6.006525688067666E-2    5.377505382793161E-1   -2.615528242026159E-3    6.550427494080266E-4   -2.644653060754597E-3    7.028808827619570E-4    2.108337042791151E-1    4.700865312684561E-1
 8.150423695000000E9     6.069673759218330E-2    5.375834990056534E-1   -2.633877002790222E-3    6.792445133259647E-4   -2.611262221430173E-3    7.265491099320204E-4    2.112993040373453E-1    4.698375768662501E-1
 8.150432795750000E9     6.144051436880500E-2    5.376144624062433E-1   -2.607857080471435E-3    6.723036174464235E-4   -2.607133558663363E-3    7.482515506055462E-4    2.117660923397447E-1    4.697307327642499E-1
 8.150441896500000E9     6.199552155299407E-2    5.374685486087417E-1   -2.616906301049097E-3    6.937578627464564E-4   -2.634892017982932E-3    7.395425094872882E-4    2.122934249239185E-1    4.694665371084731E-1
 8.150450997250000E9     6.261129260018235E-2    5.374431298659520E-1   -2.578670666799460E-3    7.035829624039679E-4   -2.619816551512199E-3    7.243134490389246E-4    2.128816052203399E-1    4.691246571711331E-1
 8.150460098000000E9     6.322968623993075E-2    5.373641687830788E-1   -2.615726166520713E-3    6.755562383141078E-4   -2.629647467594204E-3    7.549917341010032E-4    2.133914722205877E-1    4.690182840014680E-1
 8.150469198750000E9     6.375654512715172E-2    5.373972411995124E-1   -2.603711333884325E-3    7.060599674863047E-4   -2.640889208018971E-3    7.372406105461323E-4    2.139798743120851E-1    4.687909905846702E-1
 8.150478299500000E9     6.451650956281314E-2    5.371885042481046E-1   -2.599867720254910E-3    6.861746743194165E-4   -2.620591796852268E-3    7.119676129104527E-4    2.145682247872740E-1    4.682970234717835E-1
 8.150487400250000E9     6.516153991430267E-2    5.371410170068285E-1   -2.609830242369473E-3    6.800692820005205E-4   -2.615310304197055E-3    7.527831470670714E-4    2.150749988728275E-1    4.680886811534714E-1
 8.150496501000000E9     6.592513908079332E-2    5.371344193580686E-1   -2.589575754602696E-3    7.132179118846024E-4   -2.673672340575942E-3    7.617866919089439E-4    2.155630013803229E-1    4.679111626976508E-1
 8.150505601750000E9     6.641136878161358E-2    5.370595270223987E-1   -2.604339141017849E-3    7.138305522973250E-4   -2.607457378007340E-3    7.454270616551490E-4    2.161202766418104E-1    4.675826463618615E-1
 8.150514702500000E9     6.699460536103888E-2    5.370283927158418E-1   -2.600058460833727E-3    7.195957871674565E-4   -2.621991035532469E-3    7.634301153838407E-4    2.168065981559211E-1    4.673829093979363E-1
 8.150523803250000E9     6.774532738104758E-2    5.369141934576700E-1   -2.621603928627417E-3    7.064571127513487E-4   -2.644450791108117E-3    7.612386959321655E-4    2.171634151339738E-1    4.670332343743830E-1
 8.150532904000000E9     6.834970664281384E-2    5.368567679349412E-1   -2.607910483183705E-3    7.511680837310417E-4   -2.614214635568996E-3    7.921862926304682E-4    2.178069961112042E-1    4.667641113053974E-1
 8.150542004750000E9     6.901291370650800E-2    5.368263069724111E-1   -2.595271918480960E-3    7.168164710967226E-4   -2.595875284025804E-3    7.635388793423624E-4    2.183096257872230E-1    4.665789694393707E-1
 8.150551105500000E9     6.960092246704641E-2    5.368285038822521E-1   -2.606791235893976E-3    7.379210110500828E-4   -2.638498778221762E-3    7.799265325061614E-4    2.189254612061984E-1    4.663285920002870E-1
 8.150560206250000E9     7.031609626531229E-2    5.365991227299943E-1   -2.616565115042859E-3    7.305032885553213E-4   -2.605048700343854E-3    7.995473630821660E-4    2.193027529575397E-1    4.660971339880666E-1
 8.150569307000000E9     7.095833327435490E-2    5.365952235720538E-1   -2.603032551021572E-3    7.260133972015536E-4   -2.617235288644158E-3    7.687147487597927E-4    2.199132000674312E-1    4.657704450696070E-1
 8.150578407750000E9     7.160848871403652E-2    5.364765755145970E-1   -2.601287752246862E-3    7.442258645220005E-4   -2.647620954334298E-3    7.888531717840583E-4    2.204139974907922E-1    4.654168605857313E-1
 8.150587508500000E9     7.219022501142731E-2    5.363638767823260E-1   -2.607108213032031E-3    7.162375733643276E-4   -2.625760208897066E-3    7.784226178861879E-4    2.209429255303451E-1    4.653464997743464E-1
 8.150596609250000E9     7.291637267857846E-2    5.363992745590839E-1   -2.610136623962839E-3    7.379191396890486E-4   -2.639992777365925E-3    7.899441663241903E-4    2.214347393870610E-1    4.648480547082786E-1
 8.150605710000000E9     7.338586738862460E-2    5.362840999674912E-1   -2.623466689503642E-3    7.588489238062239E-4   -2.609895223388170E-3    8.000709242014833E-4    2.219514378355835E-1    4.647710956546313E-1
 8.150614810750000E9     7.407062806370468E-2    5.362821375300423E-1   -2.603928666118919E-3    7.461416920864749E-4   -2.630321086599092E-3    8.144736296521354E-4    2.225352644990819E-1    4.646890297705878E-1
 8.150623911500000E9     7.482212002758926E-2    5.361943841655930E-1   -2.614115460767067E-3    7.558253299704089E-4   -2.619437230198770E-3    8.007021790048274E-4    2.229985551108766E-1    4.642141426807230E-1
 8.150633012250000E9     7.532997872743138E-2    5.360317964935055E-1   -2.607835845068724E-3    7.302046339965402E-4   -2.625826687517841E-3    7.988619014100291E-4    2.236309439891799E-1    4.639677897899950E-1
 8.150642113000000E9     7.587112160012568E-2    5.359959971103849E-1   -2.638912310073710E-3    7.709974070766924E-4   -2.603132601767873E-3    8.042421935677622E-4    2.240322153519647E-1    4.635845711285434E-1
 8.150651213750000E9     7.661154022016951E-2    5.359214260709945E-1   -2.622513233544643E-3    7.561730741427368E-4   -2.626653668612769E-3    8.044309119809603E-4    2.245204365449440E-1    4.633102405290811E-1
 8.150660314500000E9     7.722758581721710E-2    5.357728127134445E-1   -2.659459451824391E-3    7.932548766476959E-4   -2.629188892101499E-3    8.269353369615244E-4    2.251331558146842E-1    4.631621688497925E-1
 8.150669415250000E9     7.790998280227152E-2    5.357568018464189E-1   -2.599758267225560E-3    7.802711290394415E-4   -2.641572244714645E-3    8.176077041166611E-4    2.256073130608017E-1    4.629746262984024E-1
 8.150678516000000E9     7.858114101729570E-2    5.356473623220812E-1   -2.620189735632454E-3    7.697675722832977E-4   -2.619075690712374E-3    8.166291480504718E-4    2.261436325697176E-1    4.626246541625056E-1
 8.150687616750000E9     7.924324085477827E-2    5.355612960994389E-1   -2.614593684821245E-3    8.001794566626036E-4   -2.635567549949521E-3    8.186609465765817E-4    2.266976400868267E-1    4.623354021675281E-1
 8.150696717500000E9     7.986539465964951E-2    5.355667519868917E-1   -2.598965691218688E-3    7.854446170858090E-4   -2.631032897113504E-3    8.243205410075760E-4    2.271530771367394E-1    4.619905178801865E-1
 8.150705818250000E9     8.044439934318978E-2    5.354993741420594E-1   -2.597100560253112E-3    7.684801206834288E-4   -2.624304857841959E-3    8.666151124680452E-4    2.276490125203091E-1    4.617809259083568E-1
 8.150714919000000E9     8.103131503338373E-2    5.353189563448225E-1   -2.615009198526144E-3    7.598391887673501E-4   -2.618875637195933E-3    8.376718958510587E-4    2.280970311939046E-1    4.615946708563384E-1
 8.150724019750000E9     8.171007900268398E-2    5.352555553263612E-1   -2.631834790600568E-3    7.989815103992914E-4   -2.657077472530262E-3    8.500898430944856E-4    2.288347664452074E-1    4.612775557232981E-1
 8.150733120500000E9     8.229140050937463E-2    5.352706943551041E-1   -2.612971969665875E-3    8.169780208251809E-4   -2.623989954743747E-3    8.817906366343977E-4    2.292579151429230E-1    4.609648206277707E-1
