#  HZ   S   RI   R     50.00 
! Rohde & Schwarz Vector Network Analyzer 
! Rohde-Schwarz,ZNB20-2Port,1311601062101988,3.16
! Created: UTC 3/21/2024, 12:58:58 AM
! freq[Hz]                re:S11                  im:S11                  re:S21                  im:S21                  re:S12                  im:S12                  re:S22                  im:S22
 8.149908321000000E9     2.454135262036435E-2    5.395400690623298E-1   -2.626380113050862E-3    4.593307594022325E-4   -2.626679740481382E-3    5.225531704956202E-4    1.807229244634980E-1    4.830560845260382E-1
 8.149917452450000E9     2.499918628160357E-2    5.394940946922780E-1   -2.612686107052439E-3    4.885572499086146E-4   -2.667784876031826E-3    5.323253274199427E-4    1.812618213824780E-1    4.828190774961056E-1
 8.149926583900000E9     2.576270901337386E-2    5.397281805786485E-1   -2.612495104007226E-3    4.812749102846577E-4   -2.641221104638952E-3    5.248670180656789E-4    1.816951549445334E-1    4.826956741451151E-1
 8.149935715350000E9     2.643979829904430E-2    5.395163152777283E-1   -2.596300842723269E-3    4.967806403839759E-4   -2.652329510703563E-3    5.091137327759049E-4    1.823493724241138E-1    4.824873878523870E-1
 8.149944846800000E9     2.707291734273599E-2    5.396010321038831E-1   -2.602609484645797E-3    4.718911343087281E-4   -2.589427995327704E-3    5.586586171294615E-4    1.829921296167488E-1    4.822297199657585E-1
 8.149953978250000E9     2.773244503244528E-2    5.395668905077577E-1   -2.588893525225016E-3    5.089899196001748E-4   -2.584150039362555E-3    5.193804073082204E-4    1.833830870138768E-1    4.820032372504335E-1
 8.149963109700000E9     2.833329274334347E-2    5.394502104953464E-1   -2.618670802292531E-3    4.824161729085008E-4   -2.611512158571669E-3    5.372738023125566E-4    1.839940576952794E-1    4.818595831906196E-1
 8.149972241150000E9     2.901139214364035E-2    5.396084639193744E-1   -2.577839192601208E-3    4.942607718455987E-4   -2.629160027653750E-3    5.641120260055777E-4    1.845746232865916E-1    4.816321340156690E-1
 8.149981372600000E9     2.961483097640282E-2    5.395333005691192E-1   -2.610901107882069E-3    5.200805761874316E-4   -2.624554883934390E-3    6.077074102632995E-4    1.851016314245326E-1    4.814858301834645E-1
 8.149990504050000E9     3.040624899899203E-2    5.394634669928388E-1   -2.596367304504943E-3    5.106488313351098E-4   -2.612649443764950E-3    5.800539042752865E-4    1.857200939816596E-1    4.811763087382515E-1
 8.149999635500000E9     3.097576824620774E-2    5.394179967957933E-1   -2.590374439565255E-3    5.044416548616305E-4   -2.632031041321251E-3    5.330279456646287E-4    1.862195759730620E-1    4.809823297345517E-1
 8.150008766950000E9     3.167236479036015E-2    5.394421650340480E-1   -2.611572281847406E-3    5.152580602173014E-4   -2.621847402185555E-3    5.675761732372444E-4    1.867136263630049E-1    4.807027455803403E-1
 8.150017898400000E9     3.222524750476854E-2    5.393717055735178E-1   -2.629392657465335E-3    5.099767765553484E-4   -2.603053849359853E-3    5.629418814926517E-4    1.872789458922784E-1    4.804517772583110E-1
 8.150027029850000E9     3.284785972887608E-2    5.394074270873542E-1   -2.598857959837227E-3    5.280436444281908E-4   -2.617963409673654E-3    5.897174658838742E-4    1.877539418225559E-1    4.802933611604026E-1
 8.150036161300000E9     3.360166243764191E-2    5.393527536943368E-1   -2.594164558953300E-3    5.307972976313422E-4   -2.619110939921759E-3    5.635150922754571E-4    1.885527540604136E-1    4.799420801450484E-1
 8.150045292750000E9     3.410168395971688E-2    5.392126279636658E-1   -2.589736310104495E-3    5.151469609709051E-4   -2.613189655497559E-3    5.910219262772528E-4    1.889264651271494E-1    4.798004624734536E-1
 8.150054424200000E9     3.471679132934932E-2    5.392848389360608E-1   -2.606874395508370E-3    5.207784375605463E-4   -2.646933867691591E-3    5.787856002770602E-4    1.894555436023145E-1    4.796952985497280E-1
 8.150063555650000E9     3.548222847477536E-2    5.393713921913769E-1   -2.597746010498621E-3    5.255672464725625E-4   -2.629868782697107E-3    5.699574064233118E-4    1.901861323097467E-1    4.793614653243581E-1
 8.150072687100000E9     3.612939103088746E-2    5.392651706593191E-1   -2.607773056849145E-3    5.287156433380377E-4   -2.637693639317288E-3    6.112163456146791E-4    1.904712383399286E-1    4.792465793779697E-1
 8.150081818550000E9     3.673865292789408E-2    5.392103797031851E-1   -2.608526953757873E-3    5.289883767022418E-4   -2.638657873251395E-3    5.905166424003088E-4    1.911416503591788E-1    4.789987430858407E-1
 8.150090950000000E9     3.728189146419572E-2    5.391320239180750E-1   -2.578225459090210E-3    5.715009449265770E-4   -2.603828151147781E-3    5.699285011309399E-4    1.916707573279399E-1    4.787074384637762E-1
 8.150100081450000E9     3.792396920907330E-2    5.390685672973782E-1   -2.612943877054437E-3    5.563877040465544E-4   -2.596303250894333E-3    5.929527805297619E-4    1.921827141273079E-1    4.785146000192861E-1
 8.150109212900000E9     3.865467162690683E-2    5.390867566475336E-1   -2.618040283182993E-3    5.489622901810451E-4   -2.607373066814770E-3    5.922305701113214E-4    1.927304847873938E-1    4.782876491153348E-1
 8.150118344350000E9     3.936521196969130E-2    5.390359117186310E-1   -2.600078491357812E-3    5.440714371372364E-4   -2.624036202242522E-3    5.916533094495871E-4    1.932104806049918E-1    4.780714239196320E-1
 8.150127475800000E9     3.998517669382570E-2    5.389713394607398E-1   -2.607453255634701E-3    5.454840984969728E-4   -2.650661960877479E-3    5.929285248227173E-4    1.937452087322696E-1    4.777729286802183E-1
 8.150136607250000E9     4.043682305740608E-2    5.390527610299505E-1   -2.585090579236996E-3    5.728988155365082E-4   -2.600681684719908E-3    6.066611270803923E-4    1.942055898385753E-1    4.775174627792817E-1
 8.150145738700000E9     4.113766112420903E-2    5.390809825553216E-1   -2.612186428569873E-3    5.764930765428524E-4   -2.629087075336490E-3    6.021725767599534E-4    1.948797121188755E-1    4.772215539319714E-1
 8.150154870150000E9     4.179844829166655E-2    5.389330353228877E-1   -2.624061590430032E-3    5.529922750142399E-4   -2.622166135337465E-3    6.244904592868218E-4    1.953599332873644E-1    4.770763086578432E-1
 8.150164001600000E9     4.250116359696144E-2    5.387135276514936E-1   -2.625125753592642E-3    5.612965608475374E-4   -2.624350793899000E-3    6.292076240834432E-4    1.959437619983900E-1    4.767995709841661E-1
 8.150173133050000E9     4.322151207907385E-2    5.390011700087255E-1   -2.604150260277124E-3    5.718654405186953E-4   -2.627327444670071E-3    6.350390641277756E-4    1.965529250103336E-1    4.765663538256484E-1
 8.150182264500000E9     4.382587698625687E-2    5.388068587894406E-1   -2.624975228797074E-3    5.977469416215586E-4   -2.626489352462605E-3    6.101372802801565E-4    1.970159995485804E-1    4.763448526015352E-1
 8.150191395950000E9     4.448574481026917E-2    5.388524412670983E-1   -2.618782853053958E-3    5.619099524633934E-4   -2.654268906046761E-3    6.024443335828299E-4    1.976768843812492E-1    4.762642965874770E-1
 8.150200527400000E9     4.501471157102704E-2    5.387713466002075E-1   -2.596839360525210E-3    5.946109271772231E-4   -2.607729101433239E-3    6.311526779884994E-4    1.981505511176455E-1    4.757909779877381E-1
 8.150209658850000E9     4.565799801694472E-2    5.387197242494698E-1   -2.619891322126542E-3    5.946910221009268E-4   -2.609702570189966E-3    6.485774387082813E-4    1.986193851976907E-1    4.757817894888446E-1
 8.150218790300000E9     4.626281686577846E-2    5.386894050935727E-1   -2.596387492664845E-3    5.725879251283032E-4   -2.605817653869539E-3    6.348814279056084E-4    1.991616030095178E-1    4.754921147502741E-1
 8.150227921750000E9     4.686971395906150E-2    5.385510848847543E-1   -2.626778319129437E-3    5.825278734140481E-4   -2.634788827702503E-3    6.651247676471834E-4    1.998075823363077E-1    4.751198166867277E-1
 8.150237053200000E9     4.760570998789172E-2    5.386070324332198E-1   -2.606027140559001E-3    5.842590054252831E-4   -2.624199559111065E-3    6.572456780809062E-4    2.004128586299400E-1    4.750612516524123E-1
 8.150246184650000E9     4.829440488228000E-2    5.385920117754397E-1   -2.580482081974882E-3    5.700658290888517E-4   -2.591154529153195E-3    6.323302497582016E-4    2.009636202119894E-1    4.747713667779612E-1
 8.150255316100000E9     4.881657794430099E-2    5.384048176691398E-1   -2.608910570539008E-3    6.190292559072426E-4   -2.641702292686600E-3    6.304497456841111E-4    2.014455172145302E-1    4.744426220839219E-1
 8.150264447550000E9     4.949034032835496E-2    5.384810358838878E-1   -2.622990229387947E-3    6.293159779246520E-4   -2.608050580513961E-3    6.286700456809888E-4    2.019237206513994E-1    4.742945965669542E-1
 8.150273579000000E9     5.014725071811340E-2    5.384233953463743E-1   -2.620570605109984E-3    6.150537364653533E-4   -2.595023759190658E-3    6.836308231774655E-4    2.024715170902749E-1    4.740830585221094E-1
 8.150282710450000E9     5.080696436634968E-2    5.383944852368108E-1   -2.603683304720327E-3    5.964536245874691E-4   -2.604582243754500E-3    6.477876658033754E-4    2.029400766422439E-1    4.736857751835832E-1
 8.150291841900000E9     5.148793918727328E-2    5.382974567680705E-1   -2.580445995775603E-3    6.146394081285985E-4   -2.603140713640149E-3    6.583114251004096E-4    2.034374953570788E-1    4.734520514323504E-1
 8.150300973350000E9     5.215933066232475E-2    5.382674810361171E-1   -2.580072727375761E-3    6.157701854990268E-4   -2.598812754243373E-3    7.020419150912474E-4    2.040225515977619E-1    4.733384082874681E-1
 8.150310104800000E9     5.273910407117548E-2    5.382004664958300E-1   -2.582064599349562E-3    6.449666453706000E-4   -2.594551493622447E-3    6.677733012471122E-4    2.045913953538206E-1    4.729674977128589E-1
 8.150319236250000E9     5.342549299187772E-2    5.381968895295594E-1   -2.622798173482624E-3    6.424046449183953E-4   -2.620104077420736E-3    7.206583026957529E-4    2.051986420421830E-1    4.728995594065658E-1
 8.150328367700000E9     5.392677651328570E-2    5.381597726730218E-1   -2.584321105779593E-3    6.240450811576913E-4   -2.603851607664421E-3    6.748069417581254E-4    2.058521990707436E-1    4.724727178415691E-1
 8.150337499150000E9     5.467536576288926E-2    5.380253976376400E-1   -2.603999970345661E-3    6.456434533021082E-4   -2.598536357228131E-3    7.000911033572172E-4    2.062866064000790E-1    4.723320360558822E-1
 8.150346630600000E9     5.528417851100473E-2    5.380579628652806E-1   -2.603302880704634E-3    6.522074067845354E-4   -2.620520515997614E-3    6.958151696581367E-4    2.068225560368837E-1    4.720712029581372E-1
 8.150355762050000E9     5.587994215019253E-2    5.380001034217793E-1   -2.621011105726268E-3    6.489901346140135E-4   -2.586672392986404E-3    7.064830961117036E-4    2.073488621330630E-1    4.718525288345480E-1
 8.150364893500000E9     5.657470594323672E-2    5.380043976645105E-1   -2.589701294614689E-3    6.367837957355232E-4   -2.646327432054016E-3    6.724152587914526E-4    2.078890553714259E-1    4.715617396278343E-1
 8.150374024950000E9     5.717649650757871E-2    5.378944367521301E-1   -2.606859579617749E-3    6.500659782102066E-4   -2.605519737963904E-3    7.102030191699316E-4    2.084214294093561E-1    4.713269741600154E-1
 8.150383156400000E9     5.791745409582248E-2    5.378324917556780E-1   -2.580314208373524E-3    6.614716234656023E-4   -2.624515523219147E-3    7.098717288704392E-4    2.090416739940660E-1    4.710998655799993E-1
 8.150392287850000E9     5.848575334858842E-2    5.377319783484884E-1   -2.609365847459598E-3    6.513756848148612E-4   -2.644224665893523E-3    7.031936634008559E-4    2.093939543712486E-1    4.708510131702531E-1
 8.150401419300000E9     5.907592163131928E-2    5.377068120175652E-1   -2.611939003574846E-3    6.637686863678799E-4   -2.627255533882335E-3    7.083813083812390E-4    2.100294670145103E-1    4.706150396993927E-1
 8.150410550750000E9     5.971324774067758E-2    5.376237460835918E-1   -2.593305156380572E-3    6.600863792602551E-4   -2.609476705094405E-3    7.203189445625433E-4    2.105113460025109E-1    4.702819065227309E-1
 8.150419682200000E9     6.030578151865838E-2    5.375249068052951E-1   -2.579089118772871E-3    6.611083707290633E-4   -2.610547006730540E-3    7.270146393169739E-4    2.110785414274692E-1    4.700154815750515E-1
 8.150428813650000E9     6.115460668258589E-2    5.375896698711591E-1   -2.607601173773851E-3    6.842644492787480E-4   -2.639154245634449E-3    7.141296453615512E-4    2.116255703582567E-1    4.697678991143885E-1
 8.150437945100000E9     6.170355587961186E-2    5.373789134328092E-1   -2.611853725783463E-3    7.170800617056399E-4   -2.602308281921894E-3    7.618358762539684E-4    2.120489576882607E-1    4.693724416658628E-1
 8.150447076550000E9     6.243491818566665E-2    5.374737357535057E-1   -2.620810043626010E-3    6.931032136763578E-4   -2.607181808504878E-3    7.320351071532299E-4    2.126550235510088E-1    4.694194646178779E-1
 8.150456208000000E9     6.289692108106031E-2    5.372320373986496E-1   -2.627819689480919E-3    6.572064590576163E-4   -2.611467482635157E-3    7.494103283554185E-4    2.131721371452119E-1    4.690475306991052E-1
 8.150465339450000E9     6.354160838576371E-2    5.374136172367444E-1   -2.615261958191786E-3    6.848295736683422E-4   -2.610185508479633E-3    7.252560124307185E-4    2.137850819878463E-1    4.687686777693808E-1
 8.150474470900000E9     6.420722913542096E-2    5.371645643656950E-1   -2.619411750893030E-3    6.822939256870785E-4   -2.591468288415047E-3    7.507034479165656E-4    2.142985653653723E-1    4.685068343185730E-1
 8.150483602350000E9     6.489221666916713E-2    5.371151608510171E-1   -2.622858306609876E-3    6.950861331464597E-4   -2.621132589320575E-3    7.529638783871436E-4    2.147442465361398E-1    4.682704209730505E-1
 8.150492733800000E9     6.544913531055876E-2    5.371561632999148E-1   -2.616913096994737E-3    6.893666077465068E-4   -2.645001832549650E-3    7.405989711293134E-4    2.154081922570830E-1    4.680387632524783E-1
 8.150501865250000E9     6.614785513470063E-2    5.370456478495441E-1   -2.610699077934740E-3    6.743909300481699E-4   -2.615255589456539E-3    7.728715060478274E-4    2.159050051849174E-1    4.677573973959431E-1
 8.150510996700000E9     6.672557169597591E-2    5.370311113896727E-1   -2.614434802151382E-3    7.005028731486055E-4   -2.590829092379278E-3    7.589901681529662E-4    2.163285064644135E-1    4.674218460729026E-1
 8.150520128150000E9     6.739700067038162E-2    5.369084461380151E-1   -2.599540569244365E-3    7.125978423029300E-4   -2.621089004730797E-3    7.747400337977443E-4    2.169293046227395E-1    4.672852419941659E-1
 8.150529259600000E9     6.801258744903664E-2    5.367793854438396E-1   -2.624411050874160E-3    7.090710402515263E-4   -2.625396437628561E-3    7.723148050962443E-4    2.175356187720646E-1    4.669814638229006E-1
 8.150538391050000E9     6.876194831649420E-2    5.367707641069780E-1   -2.603568524806676E-3    7.029949121841623E-4   -2.620886060093205E-3    7.711297005406965E-4    2.180246051069411E-1    4.668993821517004E-1
 8.150547522500000E9     6.930545394650993E-2    5.366107209321197E-1   -2.638581550714455E-3    7.150480095474686E-4   -2.639424171488665E-3    7.872316856871669E-4    2.186311963298245E-1    4.664809775916931E-1
 8.150556653950000E9     6.993920515706721E-2    5.366655920849411E-1   -2.644826974231840E-3    7.345617101761458E-4   -2.598511060054332E-3    7.530321174945870E-4    2.192175589276004E-1    4.662703814645363E-1
 8.150565785400000E9     7.044485982469663E-2    5.365861451963416E-1   -2.594996687181382E-3    7.270800280398358E-4   -2.622761365214713E-3    7.826236779420570E-4    2.195343509643423E-1    4.659520674309035E-1
 8.150574916850000E9     7.124995196146069E-2    5.363441783306683E-1   -2.622733371074407E-3    7.288006097413818E-4   -2.612164050880065E-3    7.687069010074314E-4    2.201272587382064E-1    4.655069811055176E-1
 8.150584048300000E9     7.183029947063484E-2    5.364500366356406E-1   -2.613558082165692E-3    7.603120040587331E-4   -2.628142729756036E-3    8.010168085462386E-4    2.205978773405260E-1    4.653848267379205E-1
 8.150593179750000E9     7.250051184075229E-2    5.363242215299773E-1   -2.628869954337076E-3    7.501251195596003E-4   -2.641529332831594E-3    7.745229459985343E-4    2.209410782067705E-1    4.651209099538284E-1
 8.150602311200000E9     7.313937637191681E-2    5.362780489744630E-1   -2.609877369247881E-3    7.208314404330162E-4   -2.616978825083439E-3    8.140563153697972E-4    2.216998564911063E-1    4.648068210137103E-1
 8.150611442650000E9     7.375491011345273E-2    5.362132805437304E-1   -2.615289412797646E-3    7.447231313910199E-4   -2.642999314792287E-3    8.213231394064945E-4    2.222341303660503E-1    4.647439278856987E-1
 8.150620574100000E9     7.446221245411758E-2    5.360818906469519E-1   -2.606511729716158E-3    7.624840190425838E-4   -2.645312838853069E-3    7.895481700757353E-4    2.227878767636945E-1    4.643424208472521E-1
 8.150629705550000E9     7.506864288252446E-2    5.360720324027962E-1   -2.610499758803679E-3    7.538447946915512E-4   -2.606640090536998E-3    8.199335713764777E-4    2.232018679285803E-1    4.639795116695978E-1
 8.150638837000000E9     7.561179744598359E-2    5.359947691816475E-1   -2.625658558324297E-3    7.664697605030051E-4   -2.632180181744674E-3    8.234010631474600E-4    2.238888452788915E-1    4.638759838705830E-1
 8.150647968450000E9     7.628216453218663E-2    5.358143249733095E-1   -2.624139943035133E-3    7.752231329232723E-4   -2.615700318737475E-3    7.987194463143244E-4    2.242819114005339E-1    4.636183695285628E-1
 8.150657099900000E9     7.689735849587902E-2    5.358652858849030E-1   -2.628908591260368E-3    7.522832824220142E-4   -2.645410443169465E-3    8.351566527508833E-4    2.248803175942231E-1    4.632753218683087E-1
 8.150666231350000E9     7.752569945672200E-2    5.356770595657451E-1   -2.619387508507627E-3    8.214262263994037E-4   -2.614157948710929E-3    8.207794344653952E-4    2.253989125237669E-1    4.628701528895742E-1
 8.150675362800000E9     7.835377140149864E-2    5.356858205352082E-1   -2.596286463727535E-3    7.826851989185734E-4   -2.643446193018612E-3    8.320774311573357E-4    2.258848012839662E-1    4.627303551137642E-1
 8.150684494250000E9     7.890547402058756E-2    5.355404935825488E-1   -2.628936870978830E-3    7.608877406005262E-4   -2.650386210567526E-3    8.121820100644360E-4    2.265660214224885E-1    4.624896456602280E-1
 8.150693625700000E9     7.956521012282312E-2    5.354722333582704E-1   -2.630263251758760E-3    7.963200927090137E-4   -2.634228282548432E-3    8.317592250640293E-4    2.270045501413068E-1    4.621103154503386E-1
 8.150702757150000E9     8.015228528402030E-2    5.353396487119284E-1   -2.592317874588360E-3    7.892045534992680E-4   -2.630979752028376E-3    8.589501217755889E-4    2.274062690682601E-1    4.618914671193266E-1
 8.150711888600000E9     8.086145207533550E-2    5.353976919314869E-1   -2.598914118201097E-3    7.871254148003264E-4   -2.627925389049557E-3    8.692623088639717E-4    2.281204883494125E-1    4.618560446680928E-1
 8.150721020050000E9     8.127310850129736E-2    5.353088166737259E-1   -2.605303633362878E-3    7.969449650130752E-4   -2.626104519574327E-3    8.261819886996544E-4    2.285479759506669E-1    4.614037991381189E-1
 8.150730151500000E9     8.211954457103930E-2    5.353328655272592E-1   -2.627268163312971E-3    7.902468926448565E-4   -2.652688500696347E-3    8.841697136756697E-4    2.291964138894151E-1    4.611027239262366E-1
