#  HZ   S   RI   R     50.00 
! Rohde & Schwarz Vector Network Analyzer 
! Rohde-Schwarz,ZNB20-2Port,1311601062101988,3.16
! Created: UTC 3/21/2024, 12:59:05 AM
! freq[Hz]                re:S11                  im:S11                  re:S21                  im:S21                  re:S12                  im:S12                  re:S22                  im:S22
 8.149909296000000E9     2.440799216254414E-2    5.396059620882590E-1   -2.633572517018339E-3    4.917055502352129E-4   -2.616953147936710E-3    5.263699816689194E-4    1.805206880502584E-1    4.830598596313898E-1
 8.149918433000000E9     2.514564892063790E-2    5.396678255854160E-1   -2.591149009071765E-3    4.947400524462842E-4   -2.626099382202447E-3    5.509467882253311E-4    1.809876997289006E-1    4.829166346507996E-1
 8.149927570000000E9     2.586732415692152E-2    5.394940634204591E-1   -2.605518538228034E-3    4.841112924099156E-4   -2.610393948027618E-3    5.153616498619025E-4    1.816440490659255E-1    4.827159828999869E-1
 8.149936707000000E9     2.647751869402403E-2    5.395571288193752E-1   -2.593065179360126E-3    4.880142299759646E-4   -2.617602307867572E-3    5.229667389825906E-4    1.822506225673444E-1    4.825279690985426E-1
 8.149945844000000E9     2.701288673783415E-2    5.395002971939368E-1   -2.590751868628625E-3    4.511237730456295E-4   -2.615767226059399E-3    5.237833994315792E-4    1.828630206329989E-1    4.822379038298317E-1
 8.149954981000000E9     2.782150477671063E-2    5.394169198735366E-1   -2.586236452849867E-3    5.035822388984119E-4   -2.606644942787362E-3    5.351930144832169E-4    1.833994283887818E-1    4.820991831120171E-1
 8.149964118000000E9     2.840556880471817E-2    5.394889982105799E-1   -2.601936049099040E-3    4.683701807290986E-4   -2.623420388266994E-3    5.217720302343447E-4    1.839202803392302E-1    4.818829754002083E-1
 8.149973255000000E9     2.898458838294270E-2    5.394243938487502E-1   -2.594796890655309E-3    4.936524052472673E-4   -2.647973926201166E-3    5.609501709733613E-4    1.843895627103933E-1    4.816377620765812E-1
 8.149982392000000E9     2.971986462820767E-2    5.394550224879532E-1   -2.601640704955735E-3    4.916831151767974E-4   -2.598690397154353E-3    5.414084217744762E-4    1.848943762571081E-1    4.814254503248578E-1
 8.149991529000000E9     3.032597440534670E-2    5.395190490954375E-1   -2.605294854520558E-3    5.033983210565732E-4   -2.632039112677672E-3    5.618744682196326E-4    1.855552667416545E-1    4.811781061978748E-1
 8.150000666000000E9     3.106598301917164E-2    5.394563775435217E-1   -2.611855833552036E-3    5.167017138560820E-4   -2.618232122387502E-3    5.696548021830267E-4    1.859874689850340E-1    4.810086875004816E-1
 8.150009803000000E9     3.152710581355284E-2    5.393048839255709E-1   -2.623760003290846E-3    5.150839267380994E-4   -2.637464238961353E-3    5.605185760773872E-4    1.865120061811784E-1    4.806595182639923E-1
 8.150018940000000E9     3.224275470215428E-2    5.394596929781129E-1   -2.585102290220122E-3    5.227775876439878E-4   -2.629590750090015E-3    5.510226197546477E-4    1.872248951080097E-1    4.804914702846544E-1
 8.150028077000000E9     3.281659425524714E-2    5.393137326579353E-1   -2.604850322801003E-3    5.300672544384218E-4   -2.612142688837658E-3    5.647410284417556E-4    1.877494318805786E-1    4.803639263496816E-1
 8.150037214000000E9     3.358847221679262E-2    5.392546462272844E-1   -2.585184943412165E-3    4.918058056318953E-4   -2.621646190227703E-3    5.718976038708763E-4    1.883002101710393E-1    4.801078233819758E-1
 8.150046351000000E9     3.417930765717110E-2    5.393031045897138E-1   -2.605438739473988E-3    5.222144231560525E-4   -2.628863232885226E-3    5.982473246861214E-4    1.887336702589135E-1    4.798542406935213E-1
 8.150055488000000E9     3.493095801051826E-2    5.393448087680290E-1   -2.606668269860646E-3    5.319426504869146E-4   -2.619660233466217E-3    5.684106835697412E-4    1.891761214172981E-1    4.796660531286233E-1
 8.150064625000000E9     3.536600840707640E-2    5.392716514679886E-1   -2.581809807977805E-3    5.504848526751601E-4   -2.620611129568792E-3    5.726985914597620E-4    1.898488218228224E-1    4.794308136700872E-1
 8.150073762000000E9     3.619140049597113E-2    5.392954492311474E-1   -2.588030183191857E-3    5.553649213645334E-4   -2.614243164424093E-3    5.950522191792966E-4    1.904114502109853E-1    4.791589497371980E-1
 8.150082899000000E9     3.674040602169455E-2    5.391058931110007E-1   -2.618114319607763E-3    5.490670654009522E-4   -2.600940251884127E-3    5.687009803808818E-4    1.910158582275118E-1    4.790393524820806E-1
 8.150092036000000E9     3.741499177531778E-2    5.390921000235936E-1   -2.606890850649875E-3    5.193546580229499E-4   -2.639484330558651E-3    5.567284852350358E-4    1.915163652636259E-1    4.789486982261418E-1
 8.150101173000000E9     3.807472276743558E-2    5.390015472699800E-1   -2.603811191927693E-3    5.368892866443493E-4   -2.604170551264378E-3    5.712877249593133E-4    1.921930330401629E-1    4.784093482210038E-1
 8.150110310000000E9     3.855152404104601E-2    5.390391269701845E-1   -2.603649661958133E-3    5.540104946001805E-4   -2.587452724400668E-3    6.012964843582077E-4    1.925183119286514E-1    4.782509355538712E-1
 8.150119447000000E9     3.928865524583269E-2    5.390788240176841E-1   -2.594134280122211E-3    5.714867123380013E-4   -2.635893958462414E-3    6.249463989574188E-4    1.930773315456852E-1    4.780613306003108E-1
 8.150128584000000E9     3.992531041340849E-2    5.389346866854350E-1   -2.615130064053533E-3    5.531309928024053E-4   -2.600907617366937E-3    6.185531642699767E-4    1.936165876926283E-1    4.778278993701951E-1
 8.150137721000000E9     4.063601325965067E-2    5.389787101005912E-1   -2.604092323918337E-3    5.637396194578244E-4   -2.603289714632914E-3    6.221184164777478E-4    1.942006747538431E-1    4.776481799111989E-1
 8.150146858000000E9     4.122022642176672E-2    5.389289903736363E-1   -2.603913258007045E-3    5.660388788779220E-4   -2.632810065945089E-3    6.127729892320002E-4    1.947434561675116E-1    4.773107414459026E-1
 8.150155995000000E9     4.185152174772801E-2    5.388516047139795E-1   -2.584563153789903E-3    5.837808671142605E-4   -2.615536389914999E-3    6.054353172602561E-4    1.953518232224105E-1    4.770193576955289E-1
 8.150165132000000E9     4.256221578594721E-2    5.388841770696010E-1   -2.587432145646500E-3    5.541280019121701E-4   -2.603750012976747E-3    5.885466068237048E-4    1.958765738559362E-1    4.769984152782362E-1
 8.150174269000000E9     4.312731508122519E-2    5.389162125506040E-1   -2.617753932208194E-3    5.831468815081351E-4   -2.616709732138296E-3    6.365719104542416E-4    1.963871180282738E-1    4.766825343252287E-1
 8.150183406000000E9     4.392800635300402E-2    5.389162481012848E-1   -2.627704734505158E-3    5.555712791006710E-4   -2.599112037298647E-3    6.473296595599230E-4    1.970446334640966E-1    4.763909122165855E-1
 8.150192543000000E9     4.437340492194141E-2    5.387498395707999E-1   -2.602058609342736E-3    5.840763971934784E-4   -2.602826505868930E-3    6.402964645344751E-4    1.975257743595479E-1    4.761904507516641E-1
 8.150201680000000E9     4.511772693232563E-2    5.386457415577101E-1   -2.613475291341529E-3    5.897132749482965E-4   -2.590914299368387E-3    6.237185050410413E-4    1.980285693472104E-1    4.759778607997681E-1
 8.150210817000000E9     4.568758381522447E-2    5.387047300326768E-1   -2.593909799073935E-3    6.030806691965739E-4   -2.619497591217552E-3    6.317772607009089E-4    1.986180904058995E-1    4.756350424071347E-1
 8.150219954000000E9     4.634104836147118E-2    5.387656785068534E-1   -2.598522757041813E-3    5.883996674941584E-4   -2.643332957131125E-3    5.840377130044308E-4    1.990611706575847E-1    4.753661804938893E-1
 8.150229091000000E9     4.699762940583725E-2    5.385528507289942E-1   -2.605942996885261E-3    6.039875451232014E-4   -2.575558191171430E-3    6.859362497975278E-4    1.996968335719272E-1    4.751815379894282E-1
 8.150238228000000E9     4.767993608144502E-2    5.384957483165916E-1   -2.613049865965551E-3    5.930714446948522E-4   -2.606992134062416E-3    6.383121181775442E-4    2.003313481588978E-1    4.748355828154205E-1
 8.150247365000000E9     4.835736882352835E-2    5.386599340473354E-1   -2.610500673591266E-3    6.139807998170760E-4   -2.622119241787129E-3    6.688646443743073E-4    2.008392747164133E-1    4.747616949372964E-1
 8.150256502000000E9     4.886063776884481E-2    5.384524437873188E-1   -2.619474543059117E-3    5.869008228901763E-4   -2.628438176123439E-3    6.511522660571764E-4    2.013687543968763E-1    4.744309314950557E-1
 8.150265639000000E9     4.948470591518007E-2    5.383953802323330E-1   -2.585683628492093E-3    6.171747985740804E-4   -2.621423390611167E-3    6.407446963401568E-4    2.018500624337208E-1    4.742174001067130E-1
 8.150274776000000E9     5.015639419909448E-2    5.383654894584824E-1   -2.587051176925540E-3    5.756093923331570E-4   -2.610868244430872E-3    6.692096386175938E-4    2.025441280129921E-1    4.738851327976422E-1
 8.150283913000000E9     5.081888245586423E-2    5.384137906332853E-1   -2.614419732037700E-3    6.282863165316832E-4   -2.622105375233742E-3    6.441882583921686E-4    2.028633005295172E-1    4.736800490753276E-1
 8.150293050000000E9     5.146785478564484E-2    5.383625229756747E-1   -2.573531401534707E-3    6.174080681999630E-4   -2.606420491675537E-3    6.774456444824973E-4    2.034700467985310E-1    4.735076779719997E-1
 8.150302187000000E9     5.209063088364885E-2    5.382220836248184E-1   -2.612076751888803E-3    6.170161179516513E-4   -2.630682704887037E-3    6.387103502745821E-4    2.039924581324370E-1    4.732313017649881E-1
 8.150311324000000E9     5.271617088850841E-2    5.382189203853878E-1   -2.596622257135532E-3    6.182725840735926E-4   -2.613286654020175E-3    6.739981078227098E-4    2.044707440247340E-1    4.731028997537597E-1
 8.150320461000000E9     5.343859010326746E-2    5.381112538306524E-1   -2.594982243020873E-3    6.127543454173533E-4   -2.602371046776816E-3    6.735005593121030E-4    2.050348667102399E-1    4.726821559212228E-1
 8.150329598000000E9     5.402613449035685E-2    5.380878502539975E-1   -2.594558079153548E-3    6.307877402729530E-4   -2.640599975741936E-3    6.857228864366322E-4    2.055640522210542E-1    4.724887133764382E-1
 8.150338735000000E9     5.466686087733240E-2    5.380007858767589E-1   -2.585797978687220E-3    6.182215577782840E-4   -2.590097662658356E-3    6.793288170239814E-4    2.060499477303660E-1    4.722632351036775E-1
 8.150347872000000E9     5.524697447958744E-2    5.380922241194737E-1   -2.602194074178077E-3    6.404126186521028E-4   -2.604642798185579E-3    6.937429049026361E-4    2.066073544858072E-1    4.721122105489043E-1
 8.150357009000000E9     5.594520213318079E-2    5.379498026385982E-1   -2.593694922888602E-3    6.388527614707961E-4   -2.616398813666101E-3    6.906024107710711E-4    2.073675833960850E-1    4.719208078332822E-1
 8.150366146000000E9     5.643771751723410E-2    5.378787633948853E-1   -2.606521794759162E-3    6.646486334827627E-4   -2.633655541553440E-3    6.873349207156995E-4    2.077024716319691E-1    4.716444053623853E-1
 8.150375283000000E9     5.719768929860807E-2    5.377891038982805E-1   -2.632352853624326E-3    6.782675297921771E-4   -2.615342274447174E-3    6.946000930239707E-4    2.083564401330857E-1    4.712346595129804E-1
 8.150384420000000E9     5.776953398080566E-2    5.378359690364075E-1   -2.620403860990851E-3    6.272413852360096E-4   -2.595760920172037E-3    7.012115455782716E-4    2.089801115355394E-1    4.711179905782203E-1
 8.150393557000000E9     5.850251604462580E-2    5.377332811480559E-1   -2.632546309419026E-3    6.671797867465713E-4   -2.618239896204270E-3    6.944888443638652E-4    2.094031611968282E-1    4.708230704713258E-1
 8.150402694000000E9     5.907376532650923E-2    5.376644842733468E-1   -2.623145271027250E-3    6.617844129527099E-4   -2.604196092092032E-3    7.009826002818132E-4    2.099166031141999E-1    4.704234078651876E-1
 8.150411831000000E9     5.983036477156022E-2    5.376460911154602E-1   -2.598841846878610E-3    6.838714370141978E-4   -2.627411973185647E-3    7.387851115830861E-4    2.106130866709058E-1    4.702990748427900E-1
 8.150420968000000E9     6.044842576386850E-2    5.375114158046065E-1   -2.617808341333050E-3    6.723855325029902E-4   -2.637720509602752E-3    6.970463772583610E-4    2.111644663090414E-1    4.699976078680426E-1
 8.150430105000000E9     6.106568649208305E-2    5.373924123567146E-1   -2.625974736794867E-3    6.898603508829899E-4   -2.625613967800240E-3    7.203295950986333E-4    2.116716834435482E-1    4.698126408224313E-1
 8.150439242000000E9     6.174324723011761E-2    5.374944676951352E-1   -2.614929509304070E-3    6.655115675731973E-4   -2.622384674197437E-3    7.600240892917617E-4    2.120116391592212E-1    4.697220344430597E-1
 8.150448379000000E9     6.217895452354511E-2    5.373450404172920E-1   -2.600701199128670E-3    7.098282186936022E-4   -2.616376865829925E-3    6.953740901486374E-4    2.126754581431910E-1    4.692700467615701E-1
 8.150457516000000E9     6.288952402133670E-2    5.373331794463923E-1   -2.604371010733317E-3    6.702606992444494E-4   -2.614430450927122E-3    7.271066723318543E-4    2.131225479640591E-1    4.690085021954211E-1
 8.150466653000000E9     6.364135452104960E-2    5.372392688946579E-1   -2.600523794274560E-3    7.046911490724170E-4   -2.628070164147882E-3    7.498888730230222E-4    2.136986147592620E-1    4.688823403269620E-1
 8.150475790000000E9     6.428148669232332E-2    5.372297831013146E-1   -2.625073404618772E-3    6.857892048053281E-4   -2.628157285866442E-3    7.174002391460233E-4    2.141374522130682E-1    4.685513257824553E-1
 8.150484927000000E9     6.479590970532498E-2    5.371866973914275E-1   -2.598684104201286E-3    6.883724177600830E-4   -2.625174329875193E-3    7.579286510209237E-4    2.147838306579374E-1    4.682589077440755E-1
 8.150494064000000E9     6.550658082614164E-2    5.371702214410629E-1   -2.595867403072119E-3    6.987228719728447E-4   -2.620836291914579E-3    7.777254835705930E-4    2.153404645640997E-1    4.679854664060918E-1
 8.150503201000000E9     6.608590851289059E-2    5.369261840138320E-1   -2.619270302467433E-3    7.110555849373486E-4   -2.620833137291672E-3    7.807177584563618E-4    2.157626029583968E-1    4.678133801883934E-1
 8.150512338000000E9     6.686059807330455E-2    5.370101714583391E-1   -2.642517157342306E-3    6.966922763282318E-4   -2.616443591001996E-3    7.761918110463810E-4    2.163065505210466E-1    4.675986945989060E-1
 8.150521475000000E9     6.735537011283632E-2    5.368817543555559E-1   -2.604923032684640E-3    6.768403311161027E-4   -2.626595964585641E-3    7.443217561013717E-4    2.168358139209573E-1    4.673893057310990E-1
 8.150530612000000E9     6.804249438963182E-2    5.369220233703156E-1   -2.619205457390871E-3    6.949705930416666E-4   -2.631839287458540E-3    7.581142580024112E-4    2.173591403395155E-1    4.670964805176369E-1
 8.150539749000000E9     6.868252077828083E-2    5.367237210431891E-1   -2.592133560936366E-3    7.100231968425909E-4   -2.623819232109651E-3    7.624253001696315E-4    2.178419736782976E-1    4.667462652940118E-1
 8.150548886000000E9     6.938701765107236E-2    5.366432714094599E-1   -2.615567786358543E-3    7.081923626811387E-4   -2.631255966826940E-3    7.800548401116586E-4    2.184756612083273E-1    4.665437094066093E-1
 8.150558023000000E9     7.007984239379562E-2    5.366426953581358E-1   -2.627435925791674E-3    7.003090585177690E-4   -2.676510776975876E-3    7.668233857945484E-4    2.190058936264868E-1    4.662243357826977E-1
 8.150567160000000E9     7.077132444149034E-2    5.366113190422385E-1   -2.618778815900462E-3    7.368452443780745E-4   -2.619919104278339E-3    7.779901287047339E-4    2.196228669636702E-1    4.660600187497125E-1
 8.150576297000000E9     7.121005685317672E-2    5.364993283851383E-1   -2.606779803705796E-3    7.360372075629872E-4   -2.609047712080577E-3    7.615341892673985E-4    2.200298039488056E-1    4.657226348184144E-1
 8.150585434000000E9     7.194325494157099E-2    5.363800137553276E-1   -2.623823400851702E-3    7.301188891275052E-4   -2.609737354864240E-3    7.650170927162872E-4    2.206012426439926E-1    4.654126418379630E-1
 8.150594571000000E9     7.258461657904146E-2    5.363673555872400E-1   -2.629435175620754E-3    7.361313274017397E-4   -2.645287873024265E-3    8.057848761458170E-4    2.210590901744650E-1    4.652200007713314E-1
 8.150603708000000E9     7.309582262045240E-2    5.362578153529850E-1   -2.601019245538258E-3    7.411199374303926E-4   -2.627123971477744E-3    8.180981448037394E-4    2.216799352346931E-1    4.647356149336623E-1
 8.150612845000000E9     7.375090481142188E-2    5.361887079541787E-1   -2.599327406623182E-3    7.629916324519717E-4   -2.597625258482414E-3    7.816630541309983E-4    2.221434902003718E-1    4.645657398500336E-1
 8.150621982000000E9     7.440334531613658E-2    5.361448267496054E-1   -2.585886213710445E-3    7.621649487136116E-4   -2.623523665747928E-3    8.063566967806932E-4    2.226698226370317E-1    4.643663101614716E-1
 8.150631119000000E9     7.506142225294593E-2    5.359622254158157E-1   -2.621328849561701E-3    7.527861910590337E-4   -2.628667646148027E-3    8.093636731645344E-4    2.232655856299612E-1    4.639985823220372E-1
 8.150640256000000E9     7.569803022109357E-2    5.359817285100572E-1   -2.621099545504742E-3    7.590408266396324E-4   -2.612682877655230E-3    8.292132141021325E-4    2.236886574300002E-1    4.638628055252189E-1
 8.150649393000000E9     7.624189260573347E-2    5.359458922747176E-1   -2.613250454378090E-3    7.455705080798340E-4   -2.651930957114827E-3    7.984758905404705E-4    2.242989892500010E-1    4.635101474198204E-1
 8.150658530000000E9     7.688643730922305E-2    5.358200027035361E-1   -2.618005754712057E-3    7.796110197345434E-4   -2.659274654393370E-3    8.285513821431840E-4    2.248703488301425E-1    4.632896599779319E-1
 8.150667667000000E9     7.753705138458725E-2    5.358491760107603E-1   -2.651294575037348E-3    7.504581651157545E-4   -2.633166158381401E-3    8.334173493360299E-4    2.253100786832929E-1    4.629639748443763E-1
 8.150676804000000E9     7.826797275292632E-2    5.356770263074503E-1   -2.628359177312803E-3    7.755149986061583E-4   -2.602474249040637E-3    8.298408768850537E-4    2.258620056367567E-1    4.628024281968984E-1
 8.150685941000000E9     7.890852002115060E-2    5.355339207182676E-1   -2.614074363681822E-3    7.568568788458938E-4   -2.652141169477285E-3    8.268996363232060E-4    2.263474797647614E-1    4.625906424602855E-1
 8.150695078000000E9     7.959111904467120E-2    5.355337349858552E-1   -2.602685753554246E-3    8.009444656544203E-4   -2.627062270117936E-3    8.529700731471676E-4    2.268377052572133E-1    4.621121784422189E-1
 8.150704215000000E9     8.029101150274627E-2    5.354430472052427E-1   -2.631833893765850E-3    7.818754852412582E-4   -2.652644007598524E-3    8.518216913361383E-4    2.273780079849925E-1    4.618503078012188E-1
 8.150713352000000E9     8.087353780292764E-2    5.353266012736212E-1   -2.628262406134895E-3    8.018286984708352E-4   -2.640976599527996E-3    8.550112898932845E-4    2.278717516325444E-1    4.617610518096588E-1
 8.150722489000000E9     8.142772957224850E-2    5.352179894508470E-1   -2.625992542704938E-3    7.898117063617189E-4   -2.626520351718358E-3    8.905076415557842E-4    2.283849982820207E-1    4.614068477427782E-1
 8.150731626000000E9     8.212294726564273E-2    5.351530205778173E-1   -2.615289122342217E-3    8.154703721985661E-4   -2.640435279172492E-3    8.270723923232636E-4    2.288768921196368E-1    4.612038299163062E-1
