#  HZ   S   RI   R     50.00 
! Rohde & Schwarz Vector Network Analyzer 
! Rohde-Schwarz,ZNB20-2Port,1311601062101988,3.16
! Created: UTC 3/21/2024, 12:51:09 AM
! freq[Hz]                re:S11                  im:S11                  re:S21                  im:S21                  re:S12                  im:S12                  re:S22                  im:S22
 8.151415547000000E9     1.368668062944993E-1    5.264292734111966E-1   -3.176751950691478E-3    1.415810592841513E-3   -3.175286267114019E-3    1.475838208194593E-3    2.777771323217329E-1    4.326879784288168E-1
 8.151417062000000E9     1.371427767800404E-1    5.263911147072257E-1   -3.160894077700560E-3    1.419851731359563E-3   -3.142567632805251E-3    1.501524414493334E-3    2.777924782869218E-1    4.324535884515137E-1
 8.151418577000000E9     1.371704571590026E-1    5.262512814591748E-1   -3.169783574557825E-3    1.436959130732898E-3   -3.192332206549900E-3    1.457130473061895E-3    2.779661089097419E-1    4.325530265148638E-1
 8.151420092000000E9     1.373324514705567E-1    5.264055801551534E-1   -3.180132851671701E-3    1.426732681394035E-3   -3.193936241880044E-3    1.499970121935852E-3    2.778392485688644E-1    4.324760089621415E-1
 8.151421607000000E9     1.375986758217492E-1    5.262684671270393E-1   -3.154638316017520E-3    1.460044849446067E-3   -3.172455208774261E-3    1.501554238728687E-3    2.781679884360559E-1    4.325091401009765E-1
 8.151423122000000E9     1.376972457074551E-1    5.262795812771650E-1   -3.177840283724472E-3    1.449489647648656E-3   -3.198350743261456E-3    1.502928982064166E-3    2.780966334229180E-1    4.324349635087776E-1
 8.151424637000000E9     1.377798183032904E-1    5.263304402547833E-1   -3.165166050241856E-3    1.455411267083980E-3   -3.140374922281398E-3    1.517468985473835E-3    2.782463809873108E-1    4.322916005900183E-1
 8.151426152000000E9     1.379183515963373E-1    5.261401542549448E-1   -3.181754155250541E-3    1.485294761105449E-3   -3.204577191546955E-3    1.513939105888817E-3    2.783754557680597E-1    4.321969618208870E-1
 8.151427667000000E9     1.379523047010742E-1    5.261200594493673E-1   -3.201551895377530E-3    1.437546564755697E-3   -3.203384610671351E-3    1.538145983881111E-3    2.782927736656359E-1    4.320558964132781E-1
 8.151429182000000E9     1.381671890301369E-1    5.261277666622352E-1   -3.190041150814782E-3    1.466185143845027E-3   -3.185133782029162E-3    1.506901425569411E-3    2.785248385204696E-1    4.321436395179506E-1
 8.151430697000000E9     1.382402263478352E-1    5.261219001162774E-1   -3.194215691030904E-3    1.468041581092427E-3   -3.209623691326086E-3    1.525997740724932E-3    2.785501837495785E-1    4.320235963953620E-1
 8.151432212000000E9     1.384089523232937E-1    5.259164306919616E-1   -3.211900823387886E-3    1.456150353108362E-3   -3.221031313162142E-3    1.534349994808688E-3    2.785885830488126E-1    4.319818530445936E-1
 8.151433727000000E9     1.387329499815348E-1    5.259890184071302E-1   -3.190533646348315E-3    1.457870581339226E-3   -3.180887961505104E-3    1.533367023450625E-3    2.786180024745558E-1    4.320382243305670E-1
 8.151435242000000E9     1.387198907419896E-1    5.258777011842544E-1   -3.211388292991865E-3    1.477259422724534E-3   -3.229802780094672E-3    1.514912764929247E-3    2.786987749881068E-1    4.319172253235206E-1
 8.151436757000000E9     1.388969837653379E-1    5.259666783726890E-1   -3.225243009512961E-3    1.446035322362783E-3   -3.221436527323924E-3    1.513512325938897E-3    2.788135381341169E-1    4.317641603132554E-1
 8.151438272000000E9     1.390066174137446E-1    5.258450258375198E-1   -3.244741692579676E-3    1.478147090639650E-3   -3.233250532889462E-3    1.520652257516485E-3    2.790121392157845E-1    4.319151205268781E-1
 8.151439787000000E9     1.390549828833931E-1    5.258886674888527E-1   -3.232066374135241E-3    1.491858861044941E-3   -3.233052327364139E-3    1.522206032769359E-3    2.791055259256200E-1    4.317382959052962E-1
 8.151441302000000E9     1.391201910160347E-1    5.257652922572370E-1   -3.251885115100463E-3    1.483879522541326E-3   -3.243725107713964E-3    1.531779263644593E-3    2.792950875702523E-1    4.317577184476871E-1
 8.151442817000000E9     1.392975130647438E-1    5.257234884487230E-1   -3.228589300836185E-3    1.472287337179677E-3   -3.226717133635149E-3    1.574649569241182E-3    2.792740818016379E-1    4.316479451648679E-1
 8.151444332000000E9     1.394621970524890E-1    5.256549511442437E-1   -3.232164929587610E-3    1.481722786143769E-3   -3.246006990139199E-3    1.559209911515519E-3    2.791942770797318E-1    4.317261458671676E-1
 8.151445847000000E9     1.395382689878480E-1    5.257142998982939E-1   -3.250592914205722E-3    1.493979047416546E-3   -3.267017926240578E-3    1.548115729044176E-3    2.792044526974675E-1    4.315763582254874E-1
 8.151447362000000E9     1.396731350296363E-1    5.257300747350127E-1   -3.266857668580247E-3    1.497746309594768E-3   -3.239588461495801E-3    1.569734609399558E-3    2.795503159930952E-1    4.315656421627306E-1
 8.151448877000000E9     1.398714317436490E-1    5.255969952300792E-1   -3.267157860075294E-3    1.508743972786987E-3   -3.268167168560164E-3    1.571223973643180E-3    2.795769035079156E-1    4.313778849038195E-1
 8.151450392000000E9     1.399423841667415E-1    5.255871527996654E-1   -3.277245640284229E-3    1.514007581690062E-3   -3.286565396497194E-3    1.569338975294813E-3    2.795891724908702E-1    4.314568895142732E-1
 8.151451907000000E9     1.401562650360099E-1    5.255549444216870E-1   -3.245164434564296E-3    1.501003770401076E-3   -3.264559994471272E-3    1.598182785017614E-3    2.797289864395334E-1    4.312359113044351E-1
 8.151453422000000E9     1.403166953011299E-1    5.254851376369887E-1   -3.257874435672847E-3    1.499063335668165E-3   -3.259229435147866E-3    1.577724160706564E-3    2.796325287678847E-1    4.313467687289891E-1
 8.151454937000000E9     1.404392157184142E-1    5.255211425841957E-1   -3.283961576949358E-3    1.503630324361751E-3   -3.271617971492141E-3    1.602932690380762E-3    2.799131742582383E-1    4.311761246459297E-1
 8.151456452000000E9     1.404596454135430E-1    5.254464335419832E-1   -3.276405200093662E-3    1.525233847970294E-3   -3.278761844239650E-3    1.574018980179775E-3    2.800612146697152E-1    4.311511455438254E-1
 8.151457967000000E9     1.406118306017234E-1    5.254401159150138E-1   -3.280794988891775E-3    1.513862118382363E-3   -3.274355488770288E-3    1.599033784366050E-3    2.800456760553916E-1    4.311262238889575E-1
 8.151459482000000E9     1.408651457421914E-1    5.252671308699159E-1   -3.273385489353059E-3    1.517325895523422E-3   -3.273161964469944E-3    1.586276787513373E-3    2.801450814275308E-1    4.310579615025337E-1
 8.151460997000000E9     1.409359369669449E-1    5.253573086082770E-1   -3.291367945577921E-3    1.536283538714271E-3   -3.320527155801825E-3    1.607941177641193E-3    2.800422819329679E-1    4.309897741169553E-1
 8.151462512000000E9     1.409652553452822E-1    5.253902690944232E-1   -3.286699000946423E-3    1.542141511385056E-3   -3.308311761825925E-3    1.589429570746092E-3    2.801727810628920E-1    4.309863888233608E-1
 8.151464027000000E9     1.411926576906496E-1    5.252635288932718E-1   -3.285225827328560E-3    1.545816137998776E-3   -3.315216424306457E-3    1.628430480653091E-3    2.803886049786439E-1    4.307929409736249E-1
 8.151465542000000E9     1.413231715252851E-1    5.251291136720934E-1   -3.300134352322638E-3    1.561473589741678E-3   -3.315006324337058E-3    1.614947077175060E-3    2.804371264661631E-1    4.308126836105941E-1
 8.151467057000000E9     1.414957559878018E-1    5.250359658797942E-1   -3.321404264789282E-3    1.533764859569533E-3   -3.311604975694023E-3    1.612586271646963E-3    2.806094490078621E-1    4.307415484881050E-1
 8.151468572000000E9     1.416831269527567E-1    5.251417353808561E-1   -3.309273904413249E-3    1.567876199257925E-3   -3.326901590898846E-3    1.617657336399912E-3    2.806478436040890E-1    4.306372045771797E-1
 8.151470087000000E9     1.418121466051829E-1    5.251697719554543E-1   -3.300627036093705E-3    1.567081856872771E-3   -3.324267291256262E-3    1.623346515291429E-3    2.805365355306494E-1    4.307648023629973E-1
 8.151471602000000E9     1.418265724912663E-1    5.250824402530871E-1   -3.319380878286239E-3    1.569237580447340E-3   -3.338173185577123E-3    1.615448426014555E-3    2.808825180596625E-1    4.306348775974818E-1
 8.151473117000000E9     1.420076057860036E-1    5.249376127719662E-1   -3.325058130693764E-3    1.610172619625258E-3   -3.352234166822992E-3    1.663333447529005E-3    2.806969371693140E-1    4.305226093199113E-1
 8.151474632000000E9     1.421487974831417E-1    5.249606885358121E-1   -3.322378326884171E-3    1.562157645681245E-3   -3.369203242100265E-3    1.649034552581562E-3    2.808950784075069E-1    4.305055274611567E-1
 8.151476147000000E9     1.421523964039487E-1    5.248723181435825E-1   -3.335684019638312E-3    1.598253386943083E-3   -3.302767823256890E-3    1.636698562855086E-3    2.809766273584767E-1    4.304579359876525E-1
 8.151477662000000E9     1.423646999516120E-1    5.248271226125951E-1   -3.375069372438195E-3    1.590607585844050E-3   -3.360696442165245E-3    1.637740750443874E-3    2.810504613326537E-1    4.303521925457455E-1
 8.151479177000000E9     1.425726877138391E-1    5.248937563163276E-1   -3.337319065857751E-3    1.588980485774676E-3   -3.352142149358537E-3    1.661839018076191E-3    2.811900835631749E-1    4.303146750186831E-1
 8.151480692000000E9     1.426987906658506E-1    5.248136214448899E-1   -3.377445818645047E-3    1.578315527916667E-3   -3.381496063588040E-3    1.679312648272078E-3    2.812379889095826E-1    4.301310865182823E-1
 8.151482207000000E9     1.427458947429955E-1    5.247809209409942E-1   -3.380141871289705E-3    1.617545220611081E-3   -3.382699196048520E-3    1.638059921348248E-3    2.813596795639831E-1    4.303350005041592E-1
 8.151483722000000E9     1.429831033715316E-1    5.248089770864038E-1   -3.379120975382410E-3    1.609644459834763E-3   -3.407219054662557E-3    1.697781832915311E-3    2.813228064678471E-1    4.301298161758924E-1
 8.151485237000000E9     1.431399809266043E-1    5.246223482280430E-1   -3.406676134170495E-3    1.618176452897965E-3   -3.389067666861458E-3    1.703069081110479E-3    2.814812053261075E-1    4.301135251897698E-1
 8.151486752000000E9     1.431469109489195E-1    5.246633042497284E-1   -3.383282848636925E-3    1.652685708974533E-3   -3.383506871344400E-3    1.683418800512461E-3    2.816426189114537E-1    4.300151007112438E-1
 8.151488267000000E9     1.434258317552053E-1    5.245508065786478E-1   -3.387164920476961E-3    1.646233092128023E-3   -3.394274174595737E-3    1.678070875225461E-3    2.816426223940400E-1    4.299852134704845E-1
 8.151489782000000E9     1.435213801718804E-1    5.245842995596337E-1   -3.391333475553215E-3    1.613814643590731E-3   -3.395416346862949E-3    1.685451879621591E-3    2.818210576936662E-1    4.298014065474562E-1
 8.151491297000000E9     1.435310591884906E-1    5.244752615680494E-1   -3.391923297261470E-3    1.651316877235041E-3   -3.389843058030718E-3    1.705378603269499E-3    2.818806855266283E-1    4.297356542817828E-1
 8.151492812000000E9     1.437421537404996E-1    5.244712716989641E-1   -3.410845371246860E-3    1.637099613135005E-3   -3.391469378789157E-3    1.698530017686909E-3    2.819860926010602E-1    4.297573307348833E-1
 8.151494327000000E9     1.437170076467155E-1    5.244716853771465E-1   -3.414606351594210E-3    1.659344568754611E-3   -3.392095180353009E-3    1.714722860763081E-3    2.821252823668272E-1    4.296849143833770E-1
 8.151495842000000E9     1.440052028437426E-1    5.245062699155950E-1   -3.435694122857655E-3    1.645243228926897E-3   -3.413198729786722E-3    1.726175929326280E-3    2.820528687804544E-1    4.296787401340881E-1
 8.151497357000000E9     1.442174584587062E-1    5.243774106239943E-1   -3.427881501114902E-3    1.676732368378065E-3   -3.433438339490682E-3    1.760186511667485E-3    2.821236266417405E-1    4.296470982369499E-1
 8.151498872000000E9     1.443778521261107E-1    5.243047371166112E-1   -3.426944076671890E-3    1.665705768307706E-3   -3.447634584679544E-3    1.733638459254693E-3    2.822301874808151E-1    4.295220401264642E-1
 8.151500387000000E9     1.444347078649994E-1    5.242901555588920E-1   -3.422314288760139E-3    1.664901719479052E-3   -3.444930488476622E-3    1.734224422886293E-3    2.822173794173076E-1    4.294824459934538E-1
 8.151501902000000E9     1.445985488984480E-1    5.240595475897374E-1   -3.445498610888717E-3    1.659222093084577E-3   -3.447148666770167E-3    1.747782814496935E-3    2.824149351327295E-1    4.295450767932049E-1
 8.151503417000000E9     1.447982423536117E-1    5.242414726024111E-1   -3.435767451101173E-3    1.691579168926128E-3   -3.461389580179186E-3    1.777182644526517E-3    2.825430264926983E-1    4.294285244867465E-1
 8.151504932000000E9     1.448152163409152E-1    5.241691992918539E-1   -3.461150627627688E-3    1.683567402262118E-3   -3.484026761191899E-3    1.792299028164222E-3    2.825983330158979E-1    4.293060863392769E-1
 8.151506447000000E9     1.450286705772572E-1    5.241011296539354E-1   -3.482088488998535E-3    1.694492307450953E-3   -3.469342210984865E-3    1.789078767354762E-3    2.825636819188659E-1    4.292951058048257E-1
 8.151507962000000E9     1.451652146876349E-1    5.241643146819445E-1   -3.490171603638611E-3    1.712546618676109E-3   -3.507514594967957E-3    1.787885632442608E-3    2.827123002418057E-1    4.293082076160225E-1
 8.151509477000000E9     1.452870801644102E-1    5.239736886142671E-1   -3.478869988572515E-3    1.708855712673179E-3   -3.467918040122931E-3    1.788329456483437E-3    2.828673635153656E-1    4.292376042577519E-1
 8.151510992000000E9     1.454694703032297E-1    5.239194964820210E-1   -3.494902842913670E-3    1.740567806723516E-3   -3.503574494271746E-3    1.793453449675519E-3    2.829793586296868E-1    4.291745815246059E-1
 8.151512507000000E9     1.456109011910251E-1    5.238815729204291E-1   -3.511403896884455E-3    1.722744324656281E-3   -3.491251430590504E-3    1.800899913264667E-3    2.829267468830732E-1    4.290422860468829E-1
 8.151514022000000E9     1.456934677822301E-1    5.237748105810228E-1   -3.495737011999946E-3    1.736914497829167E-3   -3.518769558997514E-3    1.826210619220567E-3    2.830009985555938E-1    4.288807221064055E-1
 8.151515537000000E9     1.459322439249531E-1    5.237700934129151E-1   -3.509902444487279E-3    1.753456609622809E-3   -3.512851766399900E-3    1.818847376158959E-3    2.830774873978328E-1    4.288331386421749E-1
 8.151517052000000E9     1.461117059778791E-1    5.238127639695134E-1   -3.539564629295615E-3    1.785754936951008E-3   -3.516948096879246E-3    1.820812950102277E-3    2.833230071733923E-1    4.289726944856254E-1
 8.151518567000000E9     1.462663355672250E-1    5.236924038015016E-1   -3.525010091258746E-3    1.775145228306179E-3   -3.505049452700078E-3    1.808223217280097E-3    2.832879855402040E-1    4.288175949197380E-1
 8.151520082000000E9     1.463401531708673E-1    5.236221224601603E-1   -3.536411513604225E-3    1.771845277271100E-3   -3.522295135538105E-3    1.835015866574625E-3    2.834956941601404E-1    4.288402488676149E-1
 8.151521597000000E9     1.466663130955966E-1    5.236034406515279E-1   -3.560210305325575E-3    1.775146946854445E-3   -3.532871648597122E-3    1.811713376820290E-3    2.835157197677817E-1    4.286635283753868E-1
 8.151523112000000E9     1.466230634597842E-1    5.235103907441219E-1   -3.548399599631383E-3    1.805753844654219E-3   -3.569756855911485E-3    1.861264859329907E-3    2.835344743596500E-1    4.285664624887411E-1
 8.151524627000000E9     1.469209106242169E-1    5.234857125801911E-1   -3.579485205623852E-3    1.784116902112335E-3   -3.566031419082810E-3    1.867814072082974E-3    2.835490338788440E-1    4.284909553979053E-1
 8.151526142000000E9     1.470248401555444E-1    5.234995226020963E-1   -3.567515390662580E-3    1.805049496000386E-3   -3.554159348289740E-3    1.866246033569809E-3    2.836596764038543E-1    4.285919764121670E-1
 8.151527657000000E9     1.470616051245227E-1    5.233797230217844E-1   -3.593859488085160E-3    1.819371337338996E-3   -3.598329040071166E-3    1.865669795177321E-3    2.836723596730241E-1    4.284509322378837E-1
 8.151529172000000E9     1.472687052667828E-1    5.234462673846879E-1   -3.610984553047770E-3    1.805478684784315E-3   -3.571499904672986E-3    1.859154909355983E-3    2.839724730380230E-1    4.284605865650842E-1
 8.151530687000000E9     1.473653490652188E-1    5.232756170992858E-1   -3.580096482055992E-3    1.812535634561909E-3   -3.607793437838201E-3    1.894158589342993E-3    2.839373774939180E-1    4.284445507193622E-1
 8.151532202000000E9     1.476820762682852E-1    5.232604305373462E-1   -3.596062036871524E-3    1.827427192072584E-3   -3.623365726079960E-3    1.864572170917978E-3    2.839672074269082E-1    4.282919750838200E-1
 8.151533717000000E9     1.476821032157866E-1    5.231856432408273E-1   -3.644754686549661E-3    1.834478898147948E-3   -3.622762761434792E-3    1.899145301995435E-3    2.840282982984227E-1    4.282720019289539E-1
 8.151535232000000E9     1.478470255225159E-1    5.231326934564147E-1   -3.633619998491181E-3    1.826898458740706E-3   -3.620780400199157E-3    1.896166337864747E-3    2.842054517219383E-1    4.283033949436721E-1
 8.151536747000000E9     1.480663950580381E-1    5.229770917743124E-1   -3.643175404971383E-3    1.855484532274271E-3   -3.667545936022413E-3    1.912033680485260E-3    2.841780292605796E-1    4.281647825612072E-1
 8.151538262000000E9     1.481573013910634E-1    5.229950826887126E-1   -3.625329070106418E-3    1.842317512730569E-3   -3.650264868237474E-3    1.962227211595306E-3    2.843964123429965E-1    4.281442658543293E-1
 8.151539777000000E9     1.483658232808478E-1    5.228147786934335E-1   -3.650849605250756E-3    1.901072641399338E-3   -3.660597902059133E-3    1.936964860039423E-3    2.844030060414814E-1    4.281256650364729E-1
 8.151541292000000E9     1.484788537616213E-1    5.228994254551815E-1   -3.631563876064084E-3    1.868234874972608E-3   -3.622828816718807E-3    1.980717429219051E-3    2.845976499949877E-1    4.279353780942018E-1
 8.151542807000000E9     1.486344724394436E-1    5.227408838940037E-1   -3.683737603214070E-3    1.878459987078517E-3   -3.680375313616373E-3    1.959043749768214E-3    2.845300975643660E-1    4.280423923118850E-1
 8.151544322000000E9     1.488777794098274E-1    5.227703847343104E-1   -3.674300632534347E-3    1.908873488444047E-3   -3.703119657628793E-3    1.988303519585849E-3    2.847947637999024E-1    4.278085389307610E-1
 8.151545837000000E9     1.489264034240050E-1    5.227546454358647E-1   -3.674544183031305E-3    1.897066223644752E-3   -3.702263651588697E-3    1.977829761913050E-3    2.847811170739887E-1    4.277923314583973E-1
 8.151547352000000E9     1.492217581177407E-1    5.226513771592416E-1   -3.704176085335912E-3    1.956117029911385E-3   -3.700612347763506E-3    1.962270440222236E-3    2.848982440623111E-1    4.277923204805427E-1
 8.151548867000000E9     1.494080791208184E-1    5.227214121607376E-1   -3.697812919952517E-3    1.953560855652109E-3   -3.716810204088589E-3    1.964701576807730E-3    2.850065577236475E-1    4.276106297582961E-1
 8.151550382000000E9     1.495085809560201E-1    5.224293042676481E-1   -3.718308054015163E-3    1.928945973254714E-3   -3.692179028732315E-3    1.991767304101204E-3    2.850734152451283E-1    4.275583971901784E-1
 8.151551897000000E9     1.496808413235017E-1    5.225049377881953E-1   -3.727244061623570E-3    1.975161753003704E-3   -3.725075390783377E-3    2.044758996465963E-3    2.851323717634325E-1    4.275568981208339E-1
