#  HZ   S   RI   R     50.00 
! Rohde & Schwarz Vector Network Analyzer 
! Rohde-Schwarz,ZNB20-2Port,1311601062101988,3.16
! Created: UTC 3/21/2024, 12:59:45 AM
! freq[Hz]                re:S11                  im:S11                  re:S21                  im:S21                  re:S12                  im:S12                  re:S22                  im:S22
 8.149701189000000E9     9.602774065903269E-3    5.395256205920871E-1   -2.609728180576130E-3    4.047918283927432E-4   -2.612875003452562E-3    4.564964040021722E-4    1.674754079531258E-1    4.879808816606203E-1
 8.149711317550000E9     1.031023297735264E-2    5.395590471530698E-1   -2.605358437526460E-3    4.334646971701711E-4   -2.644864833299565E-3    4.229775347065463E-4    1.680116673672169E-1    4.877036476498827E-1
 8.149721446100000E9     1.105535676304915E-2    5.396387205437743E-1   -2.604745466526782E-3    4.016495885422530E-4   -2.619207135041851E-3    4.430759857952076E-4    1.686211146791991E-1    4.874342199958536E-1
 8.149731574650000E9     1.164780310946176E-2    5.395825302333142E-1   -2.600937909170756E-3    4.241073063594339E-4   -2.627250289314800E-3    4.569260196697169E-4    1.692743912752140E-1    4.874134054456568E-1
 8.149741703200000E9     1.252596447059678E-2    5.395199566087066E-1   -2.608057214319571E-3    4.289368423446657E-4   -2.627434978432111E-3    4.725616372928343E-4    1.698884322998911E-1    4.871778175295011E-1
 8.149751831750000E9     1.323417794472127E-2    5.395846732346373E-1   -2.630156021651340E-3    4.424429422332444E-4   -2.634498830386514E-3    4.811121257546101E-4    1.704584957393431E-1    4.868552335835670E-1
 8.149761960300000E9     1.386316870400411E-2    5.395785787921482E-1   -2.616333448683690E-3    4.327162077666690E-4   -2.610939315616278E-3    4.905345317218168E-4    1.710507455262542E-1    4.866735527887153E-1
 8.149772088850000E9     1.462780705431769E-2    5.395577601907906E-1   -2.594776015505419E-3    4.252117315767475E-4   -2.604385537680030E-3    4.762267316428632E-4    1.716770459275730E-1    4.863799838568564E-1
 8.149782217400000E9     1.529642885582264E-2    5.395378083950574E-1   -2.609220869718573E-3    4.234750666689939E-4   -2.638145679989003E-3    4.354918225924985E-4    1.724280831703349E-1    4.862087409119847E-1
 8.149792345950000E9     1.604059064740191E-2    5.396121367884886E-1   -2.593709885485988E-3    4.326240493146623E-4   -2.643505361141397E-3    4.948487417991364E-4    1.729998932341693E-1    4.859830068605894E-1
 8.149802474500000E9     1.677083239606160E-2    5.396100587726061E-1   -2.614550529124527E-3    4.192686082771423E-4   -2.618890312220822E-3    5.041411148176502E-4    1.735835874347133E-1    4.856096166792215E-1
 8.149812603050000E9     1.748421186173663E-2    5.395148029474286E-1   -2.627966106976046E-3    4.014303514091320E-4   -2.660662181183640E-3    4.798933446888496E-4    1.741577314768009E-1    4.854383150526833E-1
 8.149822731600000E9     1.819381675761608E-2    5.395687930260884E-1   -2.607306155433567E-3    4.400109287426651E-4   -2.619778431325428E-3    4.724345784757455E-4    1.747922786262666E-1    4.853501832915141E-1
 8.149832860150000E9     1.877393583860580E-2    5.395401628544373E-1   -2.619664581762061E-3    4.369803118710856E-4   -2.617444690654151E-3    5.376578401927699E-4    1.754272665965983E-1    4.850034332454656E-1
 8.149842988700000E9     1.970594783788698E-2    5.394901869644820E-1   -2.615053817867513E-3    4.484824596215580E-4   -2.634152137661252E-3    4.836607876682581E-4    1.759940038059769E-1    4.847653692970213E-1
 8.149853117250000E9     2.035024997854594E-2    5.396891659187777E-1   -2.608486308587730E-3    4.622925729929186E-4   -2.658765665443254E-3    5.055828323209569E-4    1.766691949278103E-1    4.845256900144378E-1
 8.149863245800000E9     2.096913847421921E-2    5.395768274191078E-1   -2.571749116082666E-3    4.396340616263469E-4   -2.666236856478740E-3    5.347947452151555E-4    1.773246230179958E-1    4.843630550595982E-1
 8.149873374350000E9     2.158602932397260E-2    5.395742697764329E-1   -2.607875268847655E-3    4.482951660127050E-4   -2.629190903391589E-3    5.037144222008898E-4    1.779144733711695E-1    4.840917064245214E-1
 8.149883502900000E9     2.237915929064365E-2    5.394548151100947E-1   -2.596793610378086E-3    4.805733230021166E-4   -2.620102837926345E-3    5.087563439401230E-4    1.784123141496743E-1    4.838855954442552E-1
 8.149893631450000E9     2.305295139846045E-2    5.394918443942958E-1   -2.591489388720732E-3    4.856102524004390E-4   -2.629544052229273E-3    5.127375067798129E-4    1.790847135917213E-1    4.835677389711119E-1
 8.149903760000000E9     2.393004141262909E-2    5.395083385529622E-1   -2.629309335022433E-3    4.674549884233667E-4   -2.614689328839549E-3    5.081949750337246E-4    1.796711642308556E-1    4.832925059320829E-1
 8.149913888550000E9     2.463722753053288E-2    5.395483530876787E-1   -2.615749678973899E-3    4.890533843222642E-4   -2.651880948655840E-3    5.029534960444298E-4    1.803319268281010E-1    4.831463116135327E-1
 8.149924017100000E9     2.521551969974779E-2    5.394427787120826E-1   -2.599002403920661E-3    4.908185308078586E-4   -2.624578070972378E-3    5.445272245050704E-4    1.809205910663820E-1    4.827762654772045E-1
 8.149934145650000E9     2.605558264466944E-2    5.394067443576417E-1   -2.591411970755451E-3    4.804249031331860E-4   -2.618035550423147E-3    5.408102156883248E-4    1.814400113547748E-1    4.826759913360766E-1
 8.149944274200000E9     2.671026471761712E-2    5.394645767942838E-1   -2.590938111304733E-3    4.927345017381235E-4   -2.636411745538080E-3    5.615034896265311E-4    1.821418019590597E-1    4.823587959859071E-1
 8.149954402750000E9     2.744408913433512E-2    5.393298772092385E-1   -2.595015057308212E-3    4.828393854008960E-4   -2.647902437940337E-3    5.405585444541061E-4    1.826650648124025E-1    4.822924585008559E-1
 8.149964531300000E9     2.809346645030697E-2    5.393799824168342E-1   -2.583544151445822E-3    4.943577722715727E-4   -2.628312768918700E-3    5.332253425130674E-4    1.834139178384535E-1    4.818814639813648E-1
 8.149974659850000E9     2.876132435695214E-2    5.392562637817131E-1   -2.618410297842883E-3    5.088694327791885E-4   -2.610722747680561E-3    5.502233345734154E-4    1.840144567920990E-1    4.817514400868241E-1
 8.149984788400000E9     2.958507055509151E-2    5.392327771191924E-1   -2.622344321922718E-3    5.016554954160378E-4   -2.631234946401636E-3    5.664978246677349E-4    1.845989406463422E-1    4.814363069832583E-1
 8.149994916950000E9     3.018959584043824E-2    5.392329501624941E-1   -2.604392703606240E-3    4.794968028722877E-4   -2.594780652522870E-3    5.833911559516654E-4    1.852254300825958E-1    4.811225701045956E-1
 8.150005045500000E9     3.093550028728559E-2    5.393117830683214E-1   -2.598242695224702E-3    4.964039125593622E-4   -2.609651441572974E-3    5.637070380734319E-4    1.858638802541361E-1    4.809342834847627E-1
 8.150015174050000E9     3.177200991497393E-2    5.393363106287714E-1   -2.617702929149221E-3    5.068234512728356E-4   -2.637676570550239E-3    5.689986719437302E-4    1.864523603002664E-1    4.806494922299118E-1
 8.150025302600000E9     3.241929177127639E-2    5.392462094584134E-1   -2.618110753083221E-3    5.254737043090709E-4   -2.583487049650549E-3    6.012137094455837E-4    1.870514407983734E-1    4.803794337123417E-1
 8.150035431150000E9     3.315002865016158E-2    5.391265889706610E-1   -2.608308089128690E-3    5.279515924368707E-4   -2.638082543424387E-3    5.572970658611600E-4    1.875656587254202E-1    4.801701182989550E-1
 8.150045559700000E9     3.386210830734342E-2    5.392031669513813E-1   -2.597980111262638E-3    5.089984756452819E-4   -2.613942341538303E-3    5.729131781815791E-4    1.882666315788679E-1    4.799926326577914E-1
 8.150055688250000E9     3.446313905031918E-2    5.391721524826226E-1   -2.622650632833502E-3    5.360397398004971E-4   -2.611991601922323E-3    6.025559385393985E-4    1.888431106174623E-1    4.795667345023021E-1
 8.150065816800000E9     3.512038994809025E-2    5.390687909726039E-1   -2.582657907734021E-3    5.397555805531960E-4   -2.596352153568591E-3    5.848045004276254E-4    1.894524867063848E-1    4.794617269215634E-1
 8.150075945350000E9     3.594827966370388E-2    5.390856211779264E-1   -2.592523155892716E-3    5.364609381768406E-4   -2.627473721011593E-3    5.787748266012624E-4    1.901080766970477E-1    4.791692662072987E-1
 8.150086073900000E9     3.658555329663917E-2    5.391477899405903E-1   -2.599929582567375E-3    5.399019886349204E-4   -2.624099614894617E-3    5.717359817768901E-4    1.905871709325683E-1    4.788749920581641E-1
 8.150096202450000E9     3.736649624346637E-2    5.390039576587041E-1   -2.593759074059864E-3    5.369319295778213E-4   -2.655513857122194E-3    5.968587787852415E-4    1.914030757910995E-1    4.786118124144634E-1
 8.150106331000000E9     3.798574153493881E-2    5.390868800470617E-1   -2.591259401534924E-3    5.456989045104106E-4   -2.629232292387401E-3    6.166055703376647E-4    1.919547151765588E-1    4.785428916285507E-1
 8.150116459550000E9     3.886576768161248E-2    5.391048851031427E-1   -2.605353683221764E-3    5.619438102788511E-4   -2.627905724269661E-3    6.002742369088357E-4    1.924894414426034E-1    4.781427903709494E-1
 8.150126588100000E9     3.943634502685969E-2    5.390124292292396E-1   -2.620563502026866E-3    5.413022925355815E-4   -2.642437950155228E-3    6.338950003648549E-4    1.931217283468282E-1    4.778660488152171E-1
 8.150136716650000E9     4.025997694332304E-2    5.389091916226922E-1   -2.591361956034312E-3    5.649892109586282E-4   -2.604937446947193E-3    5.986276654412063E-4    1.937453443070579E-1    4.774905398351020E-1
 8.150146845200000E9     4.085018825477608E-2    5.388462193943646E-1   -2.624702462570698E-3    5.493430932995436E-4   -2.620043013952669E-3    5.893963318787897E-4    1.943119922970702E-1    4.773832017557679E-1
 8.150156973750000E9     4.158481855363969E-2    5.387508751337130E-1   -2.594413656044782E-3    5.522515566723563E-4   -2.613513939396633E-3    6.276737152156784E-4    1.950008913348532E-1    4.771690858514709E-1
 8.150167102300000E9     4.234825014733734E-2    5.388341164155619E-1   -2.599551869810417E-3    5.619418731904595E-4   -2.628089614708284E-3    5.940897201826346E-4    1.955070627818340E-1    4.769400178084165E-1
 8.150177230850000E9     4.296019607732982E-2    5.387596964423124E-1   -2.596268824108025E-3    5.723721237113028E-4   -2.611583868430966E-3    5.943883231914656E-4    1.961380732264864E-1    4.765821549353435E-1
 8.150187359400000E9     4.365888718713588E-2    5.387700256487402E-1   -2.607669811949136E-3    5.546907045695538E-4   -2.587961463137027E-3    6.149889476103255E-4    1.967637543211913E-1    4.763571536737355E-1
 8.150197487950000E9     4.446259071172318E-2    5.386786185976207E-1   -2.575072319520632E-3    5.695876489283041E-4   -2.636210099314607E-3    6.084598703867528E-4    1.973582942200320E-1    4.760536390882406E-1
 8.150207616500000E9     4.515487879773860E-2    5.385489144447670E-1   -2.602648068877453E-3    5.744874756105594E-4   -2.607587364475508E-3    6.250043208901573E-4    1.979473762238071E-1    4.758600481883792E-1
 8.150217745050000E9     4.587717942670384E-2    5.386583641568472E-1   -2.609820795765734E-3    5.989685425664627E-4   -2.633773984198045E-3    6.484932012517233E-4    1.985852229264829E-1    4.756022791095484E-1
 8.150227873600000E9     4.645676503145942E-2    5.385038510480593E-1   -2.604665586814624E-3    5.984015071010558E-4   -2.616121968399306E-3    6.509645084368714E-4    1.989241395212500E-1    4.753144193898535E-1
 8.150238002150000E9     4.729599177694978E-2    5.385264151977001E-1   -2.606100403010500E-3    5.887616222774925E-4   -2.576076202041754E-3    6.556986146782578E-4    1.997099107637850E-1    4.750552239059590E-1
 8.150248130700000E9     4.791125550314614E-2    5.384059845794701E-1   -2.607139849306512E-3    5.942188906612738E-4   -2.631290632702761E-3    6.391990999452437E-4    2.003178541588485E-1    4.747808486833042E-1
 8.150258259250000E9     4.872725949244083E-2    5.382710814108576E-1   -2.618027052514368E-3    6.096129373658741E-4   -2.620751076321981E-3    6.737259066472524E-4    2.008429360346085E-1    4.745047813202555E-1
 8.150268387800000E9     4.932000791024138E-2    5.383073471757398E-1   -2.614845165390180E-3    6.374282103924609E-4   -2.632866067318070E-3    6.645658656752164E-4    2.015983771256472E-1    4.741429836051755E-1
 8.150278516350000E9     5.008200847660723E-2    5.384699091574638E-1   -2.584510513447428E-3    6.016156334467882E-4   -2.593178177658986E-3    6.897336073510456E-4    2.020855512018168E-1    4.740484166863934E-1
 8.150288644900000E9     5.078823748427213E-2    5.382607913819020E-1   -2.603641923424487E-3    6.211615100508659E-4   -2.593750450816878E-3    6.822159326716775E-4    2.026967055488109E-1    4.737571035983044E-1
 8.150298773450000E9     5.143726342960262E-2    5.382201447250363E-1   -2.614980383256633E-3    6.106584192472347E-4   -2.617870989556275E-3    6.752967220846983E-4    2.033404007568264E-1    4.733966129147556E-1
 8.150308902000000E9     5.220436329561287E-2    5.381615534073236E-1   -2.589353296840906E-3    6.191162729472811E-4   -2.631889879449364E-3    6.952096869994632E-4    2.038865508443659E-1    4.732159295628848E-1
 8.150319030550000E9     5.280669672071082E-2    5.380577197972074E-1   -2.619218997901331E-3    6.093082601289384E-4   -2.640448070571582E-3    6.992340568129292E-4    2.046014081248869E-1    4.730335772379787E-1
 8.150329159100000E9     5.360449304785466E-2    5.380697191211112E-1   -2.609172499433576E-3    6.461607808927196E-4   -2.628030760642008E-3    7.043079428531862E-4    2.050661274930141E-1    4.725566982565171E-1
 8.150339287650000E9     5.436360498981523E-2    5.378955412077200E-1   -2.620032676928070E-3    6.127956963284892E-4   -2.599026785956508E-3    7.043878644493685E-4    2.057941249998214E-1    4.723723483104035E-1
 8.150349416200000E9     5.503293013419866E-2    5.378657534299195E-1   -2.610075916394249E-3    6.683445764741536E-4   -2.581032045860259E-3    6.875449102248336E-4    2.064859833409272E-1    4.720214512637305E-1
 8.150359544750000E9     5.569735885658676E-2    5.378104237483088E-1   -2.604411666502307E-3    6.454809362730809E-4   -2.618843345011162E-3    6.690726475341291E-4    2.068297905815080E-1    4.717761397070245E-1
 8.150369673300000E9     5.645697525511460E-2    5.379373294275069E-1   -2.609752912182766E-3    6.760401804062195E-4   -2.633213278439710E-3    7.151355794665146E-4    2.074027538870129E-1    4.716114797813563E-1
 8.150379801850000E9     5.715705994091441E-2    5.377192391782469E-1   -2.593257360171256E-3    6.761748771888901E-4   -2.602087566547340E-3    7.193638294136672E-4    2.082354656198159E-1    4.712716818170692E-1
 8.150389930400000E9     5.781936316904028E-2    5.375504675049548E-1   -2.611284578854200E-3    6.775783099120125E-4   -2.649676313297455E-3    7.265118242753722E-4    2.086448668434745E-1    4.710719341967579E-1
 8.150400058950000E9     5.864376036667639E-2    5.376530485964635E-1   -2.600167670803663E-3    6.675100506834886E-4   -2.573935011172358E-3    7.218883316564064E-4    2.092698755115457E-1    4.706129886105849E-1
 8.150410187500000E9     5.940275518253379E-2    5.375315528582717E-1   -2.615170433707861E-3    6.602133638148928E-4   -2.630574968815550E-3    6.790282692016927E-4    2.098487142166492E-1    4.704335297245315E-1
 8.150420316050000E9     5.993518861146004E-2    5.374461072044771E-1   -2.597461567609453E-3    6.746420945885557E-4   -2.618946781529893E-3    7.176263220980619E-4    2.104137214119793E-1    4.702088160134257E-1
 8.150430444600000E9     6.079078594718272E-2    5.374149737827245E-1   -2.593798724170373E-3    6.780258932184403E-4   -2.625502929276431E-3    7.237118705482869E-4    2.110065378546337E-1    4.697812451498112E-1
 8.150440573150000E9     6.129355965974963E-2    5.374840883517580E-1   -2.578654292438748E-3    6.656437461138893E-4   -2.644685374651944E-3    6.892064512429668E-4    2.117916600334770E-1    4.695212476440161E-1
 8.150450701700000E9     6.217905582265520E-2    5.373759705362998E-1   -2.602005999369663E-3    6.677421861060376E-4   -2.620861248382879E-3    7.080356610598766E-4    2.122932783668213E-1    4.692702982137724E-1
 8.150460830250000E9     6.288333753685005E-2    5.372477645961182E-1   -2.616187967952122E-3    6.891733397461790E-4   -2.627997696575396E-3    7.495497734018342E-4    2.128527102469315E-1    4.691109826981953E-1
 8.150470958800000E9     6.349449924290486E-2    5.371921460218855E-1   -2.593990641610361E-3    6.794707305378299E-4   -2.654305659722910E-3    7.333687164390895E-4    2.133693006926655E-1    4.687352377633438E-1
 8.150481087350000E9     6.415522694825657E-2    5.371082914506045E-1   -2.625373950624860E-3    6.804412753588725E-4   -2.665274375141683E-3    7.697286177263768E-4    2.140879325081436E-1    4.683266199293556E-1
 8.150491215900000E9     6.499277005518536E-2    5.370400306001207E-1   -2.627557640311629E-3    7.034742429323311E-4   -2.639654106971452E-3    7.358455547989376E-4    2.146773872686461E-1    4.681549937340801E-1
 8.150501344450000E9     6.554622698337592E-2    5.369148560087381E-1   -2.584750890873217E-3    6.997436015907253E-4   -2.610054670396757E-3    7.740106980094879E-4    2.150534396932540E-1    4.679726640723353E-1
 8.150511473000000E9     6.637925663652092E-2    5.368636695617427E-1   -2.597580415120164E-3    6.955617117293766E-4   -2.633105794048509E-3    7.688658142560018E-4    2.156733910533331E-1    4.676676452498564E-1
 8.150521601550000E9     6.699193766061115E-2    5.368162105202842E-1   -2.604864873554974E-3    7.175120894879371E-4   -2.618219866093016E-3    7.715379832807974E-4    2.163270880790141E-1    4.673428821456503E-1
 8.150531730100000E9     6.777424887547412E-2    5.368524620880613E-1   -2.623512135053656E-3    7.166702741962063E-4   -2.590601380662718E-3    7.850658598879929E-4    2.169609436046819E-1    4.670543440222742E-1
 8.150541858650000E9     6.854008645176465E-2    5.365626762121798E-1   -2.632331172290617E-3    7.259268789568301E-4   -2.625462505188720E-3    7.331612004010306E-4    2.175973507060725E-1    4.668036360965889E-1
 8.150551987200000E9     6.919371966667040E-2    5.365322379588314E-1   -2.607437030630494E-3    7.232954561181443E-4   -2.605868281303208E-3    7.630867827916896E-4    2.180829465746427E-1    4.664218256502439E-1
 8.150562115750000E9     6.989630844003904E-2    5.364019170405738E-1   -2.629551212621917E-3    7.310810215329167E-4   -2.622742801606862E-3    7.715309987125947E-4    2.186170228852027E-1    4.662230774838319E-1
 8.150572244300000E9     7.057794384391648E-2    5.365090749987317E-1   -2.627956569110030E-3    7.519073360869896E-4   -2.630804470106410E-3    7.894630516768063E-4    2.193320534152026E-1    4.658406038492345E-1
 8.150582372850000E9     7.119350089825595E-2    5.363990809280793E-1   -2.623254218059794E-3    7.282759890423141E-4   -2.618306879819863E-3    7.601744816212117E-4    2.197924299919031E-1    4.655917857132356E-1
 8.150592501400000E9     7.204252711919465E-2    5.362344791970066E-1   -2.619557945739627E-3    7.178109741256560E-4   -2.626854036784945E-3    7.819596997018014E-4    2.204258469934275E-1    4.655185129189562E-1
 8.150602629950000E9     7.261952562194796E-2    5.361473259825889E-1   -2.636815097510611E-3    7.474233811653934E-4   -2.623408497163673E-3    7.766434259322405E-4    2.209678208304767E-1    4.651248193784731E-1
 8.150612758500000E9     7.343962778651623E-2    5.361470893373536E-1   -2.613333038711406E-3    7.551568746286124E-4   -2.652378542649205E-3    7.869170790074008E-4    2.216511509339492E-1    4.645262187824958E-1
