#  HZ   S   RI   R     50.00 
! Rohde & Schwarz Vector Network Analyzer 
! Rohde-Schwarz,ZNB20-2Port,1311601062101988,3.16
! Created: UTC 3/21/2024, 12:59:47 AM
! freq[Hz]                re:S11                  im:S11                  re:S21                  im:S21                  re:S12                  im:S12                  re:S22                  im:S22
 8.149625097000000E9     4.305122657444811E-3    5.394447057872642E-1   -2.630860799340641E-3    3.722703290458573E-4   -2.628690123253711E-3    4.195767083483094E-4    1.628348328766258E-1    4.895996687352479E-1
 8.149635575200000E9     5.153528560773276E-3    5.394594242612812E-1   -2.596924068584895E-3    3.854567239773064E-4   -2.633669597228253E-3    4.332104917818465E-4    1.634060840489225E-1    4.893744114143740E-1
 8.149646053400000E9     5.707268178930066E-3    5.395002447371390E-1   -2.612590317613365E-3    3.949501503718905E-4   -2.634075536605609E-3    4.387663696403767E-4    1.639457161759813E-1    4.891903933129971E-1
 8.149656531600000E9     6.521374000404186E-3    5.395576388969801E-1   -2.606216235228742E-3    3.959061874459126E-4   -2.622730424779173E-3    4.250049609969291E-4    1.646684098313773E-1    4.889779540189678E-1
 8.149667009800000E9     7.300581450327063E-3    5.395878715606123E-1   -2.619774061216825E-3    3.997773887927925E-4   -2.640371222182752E-3    4.047816762212368E-4    1.652674797501284E-1    4.886511773708024E-1
 8.149677488000000E9     8.035098631373742E-3    5.395126990020018E-1   -2.597899450501507E-3    3.631571307629358E-4   -2.590551191538334E-3    4.477286934421233E-4    1.658422842250893E-1    4.884379271884298E-1
 8.149687966200000E9     8.717162693989741E-3    5.395029093305841E-1   -2.610983007278309E-3    3.941875611736038E-4   -2.644550098855852E-3    4.504566610971592E-4    1.667160483833741E-1    4.882224711830995E-1
 8.149698444400000E9     9.355596896260986E-3    5.396285709932792E-1   -2.615889640232389E-3    4.125957711594339E-4   -2.621220787689040E-3    4.698675242621710E-4    1.670709729370347E-1    4.880229179389652E-1
 8.149708922600000E9     1.015063724886535E-2    5.395381520139070E-1   -2.606048005079102E-3    3.966096516457853E-4   -2.599735231805771E-3    4.370914190632820E-4    1.678428055651808E-1    4.878636129469104E-1
 8.149719400800000E9     1.097946944183734E-2    5.395491679274580E-1   -2.609475700312670E-3    4.061208076714738E-4   -2.637643796002193E-3    4.754729231703038E-4    1.684108212891921E-1    4.874531582277836E-1
 8.149729879000000E9     1.171873412223798E-2    5.394631833643072E-1   -2.609004987887273E-3    4.317877492243054E-4   -2.600601642370674E-3    4.585960680488645E-4    1.692079929335985E-1    4.874625126274220E-1
 8.149740357200000E9     1.236857129356102E-2    5.395577468599454E-1   -2.613476611982261E-3    4.152061845984192E-4   -2.614279328902124E-3    4.491567429750186E-4    1.698285198141335E-1    4.871987691121916E-1
 8.149750835400000E9     1.320748178299615E-2    5.395689619921147E-1   -2.652770845393203E-3    4.223134752951771E-4   -2.621076887239176E-3    4.749651909105595E-4    1.703429123798778E-1    4.868838067129862E-1
 8.149761313600000E9     1.394922419276483E-2    5.395114111192243E-1   -2.598075739705057E-3    4.271895625658896E-4   -2.628454789028941E-3    4.779197740714044E-4    1.710763543336357E-1    4.866799838361010E-1
 8.149771791800000E9     1.464370259362521E-2    5.395045542305097E-1   -2.599239957853481E-3    4.102438338568118E-4   -2.605492914739158E-3    5.028755408057323E-4    1.716813446053629E-1    4.864113853733819E-1
 8.149782270000000E9     1.534220597844147E-2    5.395386377873258E-1   -2.596878164330764E-3    4.299715640034631E-4   -2.655861337241956E-3    4.933415973333153E-4    1.723444310241018E-1    4.862980344010823E-1
 8.149792748200000E9     1.612708281723123E-2    5.395567719112060E-1   -2.594639170656716E-3    4.512230796383369E-4   -2.637463599033605E-3    4.745824490950405E-4    1.729944215278704E-1    4.859027288419097E-1
 8.149803226400000E9     1.695702188535123E-2    5.396756401811047E-1   -2.617019460969725E-3    4.311406393446489E-4   -2.616467041457962E-3    4.755661595625765E-4    1.735804313359963E-1    4.856738859730619E-1
 8.149813704600000E9     1.751821260280570E-2    5.395937972810598E-1   -2.614993308990173E-3    3.992060903718992E-4   -2.611708151257555E-3    4.982928355566510E-4    1.742302198477380E-1    4.854159458009368E-1
 8.149824182800000E9     1.838181318239256E-2    5.395475121276123E-1   -2.611453283209800E-3    4.568398709555636E-4   -2.640653360637645E-3    5.277179172989112E-4    1.748270714220150E-1    4.852469671658869E-1
 8.149834661000000E9     1.903757306553095E-2    5.395354027639158E-1   -2.635824281155123E-3    4.475326651266082E-4   -2.627169004306137E-3    5.168339645936147E-4    1.754046358520750E-1    4.850924800832180E-1
 8.149845139200000E9     1.979117587130065E-2    5.395432800152171E-1   -2.608986935743714E-3    4.348262939395795E-4   -2.588319737094940E-3    4.921788146537750E-4    1.763137226183008E-1    4.847196991617067E-1
 8.149855617400000E9     2.054404514112429E-2    5.396029217446328E-1   -2.632772144228691E-3    4.391736973830971E-4   -2.603901956406570E-3    5.249147248045578E-4    1.767759568370185E-1    4.845739881610340E-1
 8.149866095600000E9     2.115886219341004E-2    5.394441022145465E-1   -2.610434262076434E-3    4.741884520082169E-4   -2.625238420158276E-3    5.255254804899529E-4    1.773397718105178E-1    4.842707993259194E-1
 8.149876573800000E9     2.195163113306757E-2    5.395246061036417E-1   -2.599707232967962E-3    4.519716453129787E-4   -2.622722584036549E-3    5.125436043381418E-4    1.779436174762500E-1    4.840116890902834E-1
 8.149887052000000E9     2.272129573850947E-2    5.394345787600446E-1   -2.606633772477536E-3    4.365553721110994E-4   -2.642353929685730E-3    4.768270604906140E-4    1.787608811516460E-1    4.837515226692096E-1
 8.149897530200000E9     2.349908705936231E-2    5.395579773113943E-1   -2.588590136199896E-3    4.531416130173371E-4   -2.638693337801369E-3    5.178409596248123E-4    1.794126619803834E-1    4.835833071195405E-1
 8.149908008400000E9     2.414493014421209E-2    5.394855138619585E-1   -2.606851399889820E-3    4.610572558199445E-4   -2.627592627101475E-3    5.543724747742889E-4    1.799210224224835E-1    4.832850096391542E-1
 8.149918486600000E9     2.502113264085025E-2    5.393692822956211E-1   -2.632057869874070E-3    4.821505484785373E-4   -2.618500933607710E-3    5.202066410276672E-4    1.805382967376374E-1    4.830281040154941E-1
 8.149928964800000E9     2.570141957100827E-2    5.393677799407066E-1   -2.605971255420522E-3    4.720318793248391E-4   -2.634670785062994E-3    5.332167550812022E-4    1.812922398575812E-1    4.826977049061817E-1
 8.149939443000000E9     2.632967482843332E-2    5.393330424062561E-1   -2.591668321451584E-3    4.779864285941822E-4   -2.643248323086286E-3    5.091338879244587E-4    1.818202171659428E-1    4.824835225287616E-1
 8.149949921200000E9     2.709366132420366E-2    5.393684658045051E-1   -2.598029298632210E-3    4.889497708177953E-4   -2.616533737917369E-3    5.610464749506504E-4    1.824956032567709E-1    4.823328067474045E-1
 8.149960399400000E9     2.785551753708596E-2    5.393893119685598E-1   -2.607850613276493E-3    4.999100094075805E-4   -2.629534516425934E-3    5.254080733349931E-4    1.831190384776229E-1    4.820633239613678E-1
 8.149970877600000E9     2.857778228512853E-2    5.394197500060306E-1   -2.597156801246341E-3    4.748901193089583E-4   -2.626358712499152E-3    5.438134727575753E-4    1.837078127580689E-1    4.818009407589034E-1
 8.149981355800000E9     2.932340541356291E-2    5.393357616779728E-1   -2.621932723081888E-3    4.932106971638848E-4   -2.610782708929442E-3    5.448601732158397E-4    1.843746524208112E-1    4.814655065536935E-1
 8.149991834000000E9     3.005044935575352E-2    5.392502532800379E-1   -2.610915857499940E-3    5.510221613980969E-4   -2.691221269784824E-3    5.217671013424014E-4    1.849113935925938E-1    4.811406974745884E-1
 8.150002312200000E9     3.077839697923978E-2    5.392635158487384E-1   -2.605281844192227E-3    5.115562435019354E-4   -2.619541245594198E-3    5.443680625158675E-4    1.856213883959850E-1    4.809788612794602E-1
 8.150012790400000E9     3.149882651416845E-2    5.393452810319234E-1   -2.625013166914381E-3    4.923651397312876E-4   -2.626758343173984E-3    5.577417252957434E-4    1.861864844747020E-1    4.807774810956756E-1
 8.150023268600000E9     3.216884239410591E-2    5.391136858685166E-1   -2.606473602657682E-3    5.233402881539785E-4   -2.629059337476088E-3    5.615506451046038E-4    1.870139810243552E-1    4.804525241200386E-1
 8.150033746800000E9     3.297338051290515E-2    5.392243956297457E-1   -2.617440702242958E-3    5.049631228725173E-4   -2.615527538014175E-3    5.705082868279510E-4    1.875343244865309E-1    4.802297417325024E-1
 8.150044225000000E9     3.371574248222765E-2    5.392096963055890E-1   -2.595526174663420E-3    5.108296029417326E-4   -2.619013829731622E-3    6.005528357186907E-4    1.880471593209007E-1    4.799438622636800E-1
 8.150054703200000E9     3.435378561578210E-2    5.391282736658541E-1   -2.593218022211891E-3    5.299856603888481E-4   -2.596631651286404E-3    5.716054396409594E-4    1.888227309190793E-1    4.796531765697227E-1
 8.150065181400000E9     3.512746158633618E-2    5.392154992567423E-1   -2.608830923265376E-3    5.195183530362124E-4   -2.656819936894194E-3    6.049584991164335E-4    1.895293322138357E-1    4.794884970635058E-1
 8.150075659600000E9     3.581202499992584E-2    5.390516052487577E-1   -2.580392643923851E-3    5.471022038040208E-4   -2.635173149431610E-3    5.869681179071173E-4    1.900252435408542E-1    4.791680740108425E-1
 8.150086137800000E9     3.663364686280483E-2    5.390392972951153E-1   -2.598574025475931E-3    5.338972839497571E-4   -2.613049989693236E-3    5.985249869649231E-4    1.906491023049076E-1    4.789155581063794E-1
 8.150096616000000E9     3.739376396625391E-2    5.389887660810425E-1   -2.615331500408606E-3    5.441697654824126E-4   -2.602326884151357E-3    5.957347814551097E-4    1.911281871446014E-1    4.787411056775245E-1
 8.150107094200000E9     3.817903822862304E-2    5.389393285055988E-1   -2.596207641386598E-3    5.355282902802811E-4   -2.616013446940212E-3    5.886021097254144E-4    1.918790727851640E-1    4.784407210787694E-1
 8.150117572400000E9     3.888244554118869E-2    5.389309412899655E-1   -2.591826498743868E-3    5.434603758473559E-4   -2.594974439802707E-3    6.029821385279732E-4    1.924896091434417E-1    4.781740307234364E-1
 8.150128050600000E9     3.960102356222158E-2    5.389825310258292E-1   -2.610003705782311E-3    5.576276798559540E-4   -2.594814735410719E-3    6.057695742713474E-4    1.931533857559297E-1    4.780050481934706E-1
 8.150138528800000E9     4.029677089352236E-2    5.389358984482818E-1   -2.582454416867187E-3    5.589064893498789E-4   -2.586840163645727E-3    6.065797563712329E-4    1.938044727218822E-1    4.777053437516936E-1
 8.150149007000000E9     4.095443639968828E-2    5.389146793820954E-1   -2.624080480369927E-3    5.785562908770999E-4   -2.622719179729985E-3    6.108746791489328E-4    1.943376326476645E-1    4.774794271187700E-1
 8.150159485200000E9     4.177551406251286E-2    5.388837736978250E-1   -2.612553607651861E-3    5.920233256744768E-4   -2.599474769308852E-3    6.091254579564273E-4    1.950652835788834E-1    4.770034082756833E-1
 8.150169963400000E9     4.255095896170653E-2    5.387394022035591E-1   -2.606730591855966E-3    5.470992942535104E-4   -2.636853324574595E-3    6.240773244006767E-4    1.956344230769758E-1    4.768539651911444E-1
 8.150180441600000E9     4.319393278247705E-2    5.386612160812484E-1   -2.619470794335551E-3    5.674004090140121E-4   -2.619132324298807E-3    5.966378108687361E-4    1.963105710496120E-1    4.764576622803252E-1
 8.150190919800000E9     4.387289231758219E-2    5.387076104724383E-1   -2.600801188267191E-3    5.771431178921786E-4   -2.635356481156572E-3    6.363003828533033E-4    1.969698019308896E-1    4.763542415986868E-1
 8.150201398000000E9     4.475299599852018E-2    5.386818263977228E-1   -2.592656158866923E-3    5.642449895021990E-4   -2.620914993080799E-3    6.213330443968727E-4    1.974819872242553E-1    4.759116390550177E-1
 8.150211876200000E9     4.535999865559843E-2    5.386491346983350E-1   -2.600424702907810E-3    6.033015446974433E-4   -2.616326931951675E-3    6.225922384783821E-4    1.981233135259458E-1    4.757015175018645E-1
 8.150222354400000E9     4.615733633114967E-2    5.386049533589763E-1   -2.604711802313984E-3    5.782418981457446E-4   -2.617315901526923E-3    6.581738880461545E-4    1.987541856206119E-1    4.754261884246049E-1
 8.150232832600000E9     4.694401641356748E-2    5.385447471573542E-1   -2.587598308279742E-3    5.885731869134966E-4   -2.611714801661435E-3    6.231733010502442E-4    1.995710885881913E-1    4.752199782508898E-1
 8.150243310800000E9     4.758466413731709E-2    5.384570290478721E-1   -2.638628670974267E-3    6.025101313024730E-4   -2.602706198365282E-3    6.380763588152585E-4    1.999269070520062E-1    4.749160009218212E-1
 8.150253789000000E9     4.835837586239070E-2    5.384034133219595E-1   -2.622063429988688E-3    6.030136961248928E-4   -2.624363972104670E-3    6.710853728885930E-4    2.006148078032290E-1    4.747481262222524E-1
 8.150264267200000E9     4.902052646017679E-2    5.383510191651513E-1   -2.590194331300138E-3    6.154660572064377E-4   -2.606732799055273E-3    6.412286146498036E-4    2.012182223223742E-1    4.743954792012260E-1
 8.150274745400000E9     4.982629638830458E-2    5.383324144956598E-1   -2.605349681551994E-3    5.935719982024144E-4   -2.605919318061261E-3    6.646111370232514E-4    2.019307958372729E-1    4.739928603240519E-1
 8.150285223600000E9     5.057075341514533E-2    5.381757593027049E-1   -2.589936758956009E-3    6.134903421215276E-4   -2.637502499261169E-3    6.581555014595444E-4    2.024098190695324E-1    4.738513956650964E-1
 8.150295701800000E9     5.128371880915101E-2    5.381284846071135E-1   -2.640053198018982E-3    6.316333423255481E-4   -2.643903365323541E-3    7.106767622377380E-4    2.031597449359319E-1    4.735026381056421E-1
 8.150306180000000E9     5.202095406448057E-2    5.381364673146964E-1   -2.606751114265637E-3    6.278682957720617E-4   -2.621786595715657E-3    6.869054738352268E-4    2.036867429358906E-1    4.732800758478642E-1
 8.150316658200000E9     5.269505084355296E-2    5.380973408438472E-1   -2.598227190542745E-3    6.386270833498387E-4   -2.665666985296119E-3    6.999687982305579E-4    2.043645307958166E-1    4.730181546162677E-1
 8.150327136400000E9     5.345269953849935E-2    5.379968409892300E-1   -2.597712907226455E-3    6.425392435928207E-4   -2.623413234869260E-3    6.815882471210713E-4    2.049533006627191E-1    4.726398982067566E-1
 8.150337614600000E9     5.410386987868276E-2    5.379468082199942E-1   -2.626215769232386E-3    6.437321449522867E-4   -2.620563666940200E-3    6.667133791395369E-4    2.055074581386736E-1    4.724327591914630E-1
 8.150348092800000E9     5.500007691869657E-2    5.378973594312161E-1   -2.600373980778383E-3    6.541910543210595E-4   -2.633500978074245E-3    7.054149275229385E-4    2.063110465776361E-1    4.721815803477328E-1
 8.150358571000000E9     5.579955416666344E-2    5.379415226731276E-1   -2.591182284026158E-3    6.310537274971148E-4   -2.641998653279696E-3    7.113419504331500E-4    2.067574924240399E-1    4.719198056188658E-1
 8.150369049200000E9     5.641926046156524E-2    5.378134486429456E-1   -2.612643592448394E-3    6.387644291951457E-4   -2.615992052131697E-3    7.137618052138683E-4    2.074855234438493E-1    4.714250742321182E-1
 8.150379527400000E9     5.700241237617033E-2    5.376720680278764E-1   -2.607895163092979E-3    6.429262375089541E-4   -2.625816876705398E-3    7.086753684965559E-4    2.080028398365869E-1    4.712322554246952E-1
 8.150390005600000E9     5.773514551899031E-2    5.376758010943246E-1   -2.590342607864360E-3    6.425148119508595E-4   -2.623432589355881E-3    6.939112683878806E-4    2.086418074940509E-1    4.709916119462847E-1
 8.150400483800000E9     5.849431658553638E-2    5.375909834675161E-1   -2.612407675783988E-3    6.908457240848409E-4   -2.617281385559314E-3    6.842168595294152E-4    2.093737173358528E-1    4.707275818181044E-1
 8.150410962000000E9     5.934999025774237E-2    5.375695472545255E-1   -2.608401749886071E-3    6.615135136263109E-4   -2.626738970630574E-3    7.155575490507801E-4    2.098084709221555E-1    4.704315148318007E-1
 8.150421440200000E9     6.007189911639473E-2    5.373905443049097E-1   -2.596108111989828E-3    6.634095862802801E-4   -2.622394551592229E-3    7.161777613312753E-4    2.104759835343101E-1    4.701330530817701E-1
 8.150431918400000E9     6.079177201949913E-2    5.374876099488549E-1   -2.593446555527760E-3    6.674614807312640E-4   -2.610427673476237E-3    6.911085408699213E-4    2.110908842813973E-1    4.699549414486787E-1
 8.150442396600000E9     6.137388438684312E-2    5.373681794313860E-1   -2.604128157259765E-3    6.829290942255285E-4   -2.631036318256423E-3    7.128906688076486E-4    2.118186319794384E-1    4.695827244303958E-1
 8.150452874800000E9     6.221758041102490E-2    5.372767130852264E-1   -2.593685467501910E-3    6.844960698828435E-4   -2.652886671554437E-3    7.349595808473690E-4    2.124181812796440E-1    4.693353097641762E-1
 8.150463353000000E9     6.288616355975908E-2    5.371414870106284E-1   -2.598723288138990E-3    6.517289790557790E-4   -2.609188580338877E-3    7.297648488492203E-4    2.129655345468629E-1    4.688973710295301E-1
 8.150473831200000E9     6.362498160150977E-2    5.372175028654061E-1   -2.614351408373000E-3    6.974298852357338E-4   -2.629385058182828E-3    7.214651497602215E-4    2.136554944728087E-1    4.686591949752300E-1
 8.150484309400000E9     6.447108931272610E-2    5.369420618957949E-1   -2.604941712198714E-3    6.798636984684592E-4   -2.628240951032714E-3    7.234017835898699E-4    2.141672749311865E-1    4.684512946072341E-1
 8.150494787600000E9     6.514673205386343E-2    5.368975929623884E-1   -2.616456441446339E-3    7.108154498042073E-4   -2.634782325523745E-3    7.529233562005045E-4    2.147673595871718E-1    4.681104742936876E-1
 8.150505265800000E9     6.583081543506356E-2    5.369364713342912E-1   -2.606666477912784E-3    6.932339413235953E-4   -2.622670650352284E-3    7.680869675996093E-4    2.153319200467808E-1    4.678877728328128E-1
 8.150515744000000E9     6.669597993382539E-2    5.369957286760374E-1   -2.614719083251547E-3    7.173085649595774E-4   -2.646130078345359E-3    7.543052803799000E-4    2.159875836920961E-1    4.676163237572218E-1
 8.150526222200000E9     6.740217559968786E-2    5.368515474926230E-1   -2.615810871003695E-3    7.100595394476907E-4   -2.620523998400687E-3    7.569924196939532E-4    2.166459700804430E-1    4.671504779270255E-1
 8.150536700400000E9     6.809022616046476E-2    5.367963984078254E-1   -2.613164077735560E-3    7.054227258143828E-4   -2.633625075974506E-3    7.472703784023813E-4    2.171108327506484E-1    4.669606021713135E-1
 8.150547178600000E9     6.882946139466567E-2    5.366348063816314E-1   -2.617432966726507E-3    7.189022829899549E-4   -2.625244517857736E-3    7.447413981722897E-4    2.178829739368181E-1    4.665221598142852E-1
 8.150557656800000E9     6.946395579086637E-2    5.365006024812554E-1   -2.605513420830669E-3    7.181381820233647E-4   -2.614610026792363E-3    7.621075731439249E-4    2.185610327943509E-1    4.664394564514873E-1
 8.150568135000000E9     7.034755106304579E-2    5.364771298407458E-1   -2.637448074241029E-3    7.381279468836455E-4   -2.633971253450387E-3    7.779226507721265E-4    2.189905375665321E-1    4.661501547151482E-1
