#  HZ   S   RI   R     50.00 
! Rohde & Schwarz Vector Network Analyzer 
! Rohde-Schwarz,ZNB20-2Port,1311601062101988,3.16
! Created: UTC 3/21/2024, 1:00:07 AM
! freq[Hz]                re:S11                  im:S11                  re:S21                  im:S21                  re:S12                  im:S12                  re:S22                  im:S22
 8.149535352000000E9    -2.205812767179240E-3    5.393547636298810E-1   -2.623612998600210E-3    3.464384381449480E-4   -2.617352527393679E-3    4.005429810321274E-4    1.570996299348120E-1    4.914702068705873E-1
 8.149546259550000E9    -1.399161054071864E-3    5.393542721795201E-1   -2.605838850099448E-3    3.550095002262508E-4   -2.643761407938240E-3    3.879566594217037E-4    1.578988572177618E-1    4.912453342614867E-1
 8.149557167100000E9    -5.198107648868352E-4    5.393417593274673E-1   -2.603895882233843E-3    3.543805588766354E-4   -2.652937840818887E-3    3.758947406036929E-4    1.583894120652663E-1    4.911464555093896E-1
 8.149568074650000E9     1.541767524102148E-4    5.393668430389814E-1   -2.610798809475720E-3    3.396991692727732E-4   -2.661207415775994E-3    4.124797235746603E-4    1.591434206687966E-1    4.907407799031809E-1
 8.149578982200000E9     8.354754597657986E-4    5.393758527558243E-1   -2.621086334745819E-3    3.638524178226111E-4   -2.638007207430227E-3    4.280251539113127E-4    1.598056688647886E-1    4.905894450431049E-1
 8.149589889750000E9     1.801538074908885E-3    5.394549189179868E-1   -2.599187168062284E-3    3.263592220418072E-4   -2.634315770404377E-3    4.242920361314470E-4    1.603882747463239E-1    4.904075490266579E-1
 8.149600797300000E9     2.394572899340012E-3    5.393895260191321E-1   -2.623040543335675E-3    3.413444988530521E-4   -2.636988332045351E-3    4.132922528649996E-4    1.611019333686979E-1    4.899645203044619E-1
 8.149611704850000E9     3.317030416226667E-3    5.394254925614933E-1   -2.600393754008165E-3    3.508329253672233E-4   -2.621115580543180E-3    4.225101942237444E-4    1.617847822566598E-1    4.898082549163112E-1
 8.149622612400000E9     4.051581107511061E-3    5.393738458506095E-1   -2.602574174383395E-3    3.537089272282420E-4   -2.628170193179942E-3    4.034841025723141E-4    1.624935057663909E-1    4.895921832753977E-1
 8.149633519950000E9     4.823615093658824E-3    5.394605029292276E-1   -2.611708543792750E-3    3.783055590605340E-4   -2.624151285140310E-3    4.007893404780828E-4    1.630640318323560E-1    4.893550551909502E-1
 8.149644427500000E9     5.657842965120109E-3    5.394427359284629E-1   -2.606659242727893E-3    3.693795273434469E-4   -2.608990560333491E-3    4.382730184388998E-4    1.637599686615293E-1    4.891808535911975E-1
 8.149655335050000E9     6.276607247059924E-3    5.395261854485062E-1   -2.623842243773286E-3    3.972281347308990E-4   -2.639979886397481E-3    4.462930702569220E-4    1.643424799474896E-1    4.887700530486747E-1
 8.149666242600000E9     7.057139312520003E-3    5.395336171193620E-1   -2.622810549288616E-3    3.986201628347771E-4   -2.631292449025018E-3    4.323028645927726E-4    1.650629884893287E-1    4.885285223794162E-1
 8.149677150150000E9     7.775513211999491E-3    5.395497052308357E-1   -2.596210637021733E-3    3.866488655276906E-4   -2.647845484577833E-3    4.769033412409645E-4    1.657365333092662E-1    4.883917709166983E-1
 8.149688057700000E9     8.605643380293251E-3    5.395408997973645E-1   -2.600136866747707E-3    3.718424670333215E-4   -2.660329697407676E-3    4.125330744059372E-4    1.664146081022348E-1    4.881135575691644E-1
 8.149698965250000E9     9.421814709820260E-3    5.395646405160249E-1   -2.604759878290589E-3    4.001612407195258E-4   -2.644882926762307E-3    4.765621322038786E-4    1.670671439280020E-1    4.879547804340025E-1
 8.149709872800000E9     1.018503569237633E-2    5.394769731478241E-1   -2.626398296115206E-3    3.692199273038577E-4   -2.615440270127859E-3    4.711350041418750E-4    1.678167736426024E-1    4.876121603526971E-1
 8.149720780350000E9     1.080957216949471E-2    5.393962444315875E-1   -2.604356059151840E-3    4.022510212478393E-4   -2.627836242660512E-3    4.619327046832304E-4    1.686326449934288E-1    4.874348151037473E-1
 8.149731687900000E9     1.151036906337655E-2    5.395356115657962E-1   -2.632326092310901E-3    3.844099443857476E-4   -2.621998361842728E-3    4.425260316789911E-4    1.689906170887902E-1    4.871123557466125E-1
 8.149742595450000E9     1.242389316782652E-2    5.395483098057183E-1   -2.618314593761741E-3    3.964274318912497E-4   -2.615655745636867E-3    4.519774908115221E-4    1.696777792719928E-1    4.868745157946259E-1
 8.149753503000000E9     1.329262215068933E-2    5.395371448175642E-1   -2.610427045324336E-3    4.248527064225464E-4   -2.640191616364692E-3    4.685061793597778E-4    1.704062648375073E-1    4.867547041441193E-1
 8.149764410550000E9     1.396008398916986E-2    5.395620919857740E-1   -2.602386384884645E-3    4.234045327214767E-4   -2.621231991509109E-3    4.677946701164988E-4    1.710153455002472E-1    4.865144074242910E-1
 8.149775318100000E9     1.487497337155064E-2    5.395595186964983E-1   -2.603983829535360E-3    4.206699165396368E-4   -2.646340796563437E-3    4.955844752428197E-4    1.718018375890579E-1    4.862695937456562E-1
 8.149786225650000E9     1.562778889953507E-2    5.394808287838444E-1   -2.594468244694071E-3    4.222561085143446E-4   -2.634327963880894E-3    4.919372330846714E-4    1.725371926141358E-1    4.859055128250344E-1
 8.149797133200000E9     1.629751083100394E-2    5.395340739195038E-1   -2.608879294167314E-3    4.308363326995218E-4   -2.630534529937746E-3    4.822126989211575E-4    1.730606406932198E-1    4.857311823937834E-1
 8.149808040750000E9     1.703883877740967E-2    5.394990054974375E-1   -2.609934411860108E-3    4.119065080429768E-4   -2.659602185809333E-3    4.862918522537040E-4    1.738062842366829E-1    4.855769584916493E-1
 8.149818948300000E9     1.778917180243596E-2    5.396414490272601E-1   -2.613074639838458E-3    4.246268138411296E-4   -2.633330920240875E-3    5.084152897980579E-4    1.743679024378910E-1    4.852123849565937E-1
 8.149829855850000E9     1.853578842236268E-2    5.394492885967626E-1   -2.590391606125920E-3    4.418396012904922E-4   -2.635024088780714E-3    4.911968333078333E-4    1.750675514128224E-1    4.850548803079617E-1
 8.149840763400000E9     1.937389406467737E-2    5.395596351355795E-1   -2.614577044533562E-3    4.224103475618893E-4   -2.604738557871977E-3    4.669796983598090E-4    1.756160433493659E-1    4.848260148290629E-1
 8.149851670950000E9     1.998896990584616E-2    5.396018499464033E-1   -2.587125322650766E-3    4.253287627900751E-4   -2.608403049319271E-3    4.887518845520887E-4    1.764072593813996E-1    4.844657714443757E-1
 8.149862578500000E9     2.088362549799853E-2    5.394778387395329E-1   -2.608707665105633E-3    4.372174684299599E-4   -2.630434377948353E-3    5.498380903612594E-4    1.770614797235294E-1    4.843254686117303E-1
 8.149873486050000E9     2.164947800796889E-2    5.393855280867105E-1   -2.619647167843834E-3    4.436581090477910E-4   -2.637200353579612E-3    5.090768700686604E-4    1.778286822035890E-1    4.839747353051870E-1
 8.149884393600000E9     2.235700931067218E-2    5.395587472904578E-1   -2.623222168392507E-3    4.578714286605640E-4   -2.640394889808607E-3    5.244986694407665E-4    1.783846490519963E-1    4.836685846613786E-1
 8.149895301150000E9     2.307063233529825E-2    5.394024938468880E-1   -2.617350691519020E-3    4.357668358686152E-4   -2.634431911388175E-3    5.316691278969542E-4    1.790684777879998E-1    4.835259199843958E-1
 8.149906208700000E9     2.391358251428929E-2    5.393008713029491E-1   -2.577858272095357E-3    4.693168342095692E-4   -2.626978077803544E-3    5.393605196470315E-4    1.797696754226017E-1    4.831226948332725E-1
 8.149917116250000E9     2.464520709578958E-2    5.393415536340290E-1   -2.616036968790886E-3    4.714485115005816E-4   -2.600208700190496E-3    5.388671623316831E-4    1.804798745037935E-1    4.828705192407562E-1
 8.149928023800000E9     2.539881373142473E-2    5.393896126889898E-1   -2.598273849247228E-3    4.650600386157167E-4   -2.647361767656843E-3    5.171906167909012E-4    1.810493300193373E-1    4.826978745109708E-1
 8.149938931350000E9     2.618119205419171E-2    5.392822234946915E-1   -2.605853173921706E-3    4.694939813660997E-4   -2.618242634209038E-3    5.578432482792090E-4    1.816873290574617E-1    4.824697214158624E-1
 8.149949838900000E9     2.691030014859084E-2    5.393528307187732E-1   -2.591644823611786E-3    4.717820226735059E-4   -2.641524349724175E-3    5.358293164358994E-4    1.823408965249527E-1    4.821806500877379E-1
 8.149960746450000E9     2.760567559185878E-2    5.393122670872154E-1   -2.597204333211388E-3    4.795700190639769E-4   -2.639819331697764E-3    5.384112823619861E-4    1.829050065057943E-1    4.819209039513052E-1
 8.149971654000000E9     2.857680339007258E-2    5.392851166234705E-1   -2.613560355081474E-3    5.107175418153689E-4   -2.642480781991122E-3    5.353016045210825E-4    1.836299219217639E-1    4.816817313981664E-1
 8.149982561550000E9     2.915910665652640E-2    5.392314260121439E-1   -2.611364760543103E-3    4.937137895861382E-4   -2.635823596036337E-3    5.732805649798508E-4    1.843166229676466E-1    4.813192926439466E-1
 8.149993469100000E9     2.996174335617543E-2    5.392581126910784E-1   -2.610880241532184E-3    5.176639907715072E-4   -2.624570013069246E-3    5.537763948657348E-4    1.849519491604171E-1    4.810359995512700E-1
 8.150004376650000E9     3.081336297435931E-2    5.391997476714765E-1   -2.607814032224863E-3    5.164378216825765E-4   -2.634289657193706E-3    5.604257187059262E-4    1.856674069255908E-1    4.809620470433899E-1
 8.150015284200000E9     3.155009140702064E-2    5.392413368342202E-1   -2.604945840911920E-3    5.172011835046358E-4   -2.629146441450780E-3    5.610625511844605E-4    1.862389369076112E-1    4.807078152633533E-1
 8.150026191750000E9     3.222396323062652E-2    5.392277528852809E-1   -2.617380025726989E-3    5.414015600272358E-4   -2.622168516470950E-3    5.984900603885581E-4    1.868830895025243E-1    4.803077640424676E-1
 8.150037099300000E9     3.305674154283490E-2    5.391577503686883E-1   -2.594951705218689E-3    5.211420958239776E-4   -2.652055866267477E-3    5.381929848812415E-4    1.874916488775838E-1    4.800595403016565E-1
 8.150048006850000E9     3.384225386659614E-2    5.392249366310506E-1   -2.589493220375237E-3    4.953729132972821E-4   -2.622207963237980E-3    5.842213775461412E-4    1.882297683585786E-1    4.797590236827480E-1
 8.150058914400000E9     3.459679437912409E-2    5.391382386498721E-1   -2.580383439375917E-3    5.251404458065047E-4   -2.620550489475112E-3    5.508629296811809E-4    1.889964558121304E-1    4.795819519251623E-1
 8.150069821950000E9     3.537762136901768E-2    5.390868067980462E-1   -2.611172542906120E-3    5.401956741763847E-4   -2.614015718398821E-3    5.559045640545013E-4    1.894996775443991E-1    4.791919375546296E-1
 8.150080729500000E9     3.605479990685313E-2    5.391096779299359E-1   -2.611352578593205E-3    5.219953674470962E-4   -2.614751078573417E-3    5.689254761462972E-4    1.902345083558754E-1    4.790074964824701E-1
 8.150091637050000E9     3.686181482124527E-2    5.389536555956129E-1   -2.589379249145420E-3    5.192683934395307E-4   -2.606170128813227E-3    6.099508449673837E-4    1.910805659340601E-1    4.787088349027630E-1
 8.150102544600000E9     3.765211657234358E-2    5.389109176275124E-1   -2.597306653172488E-3    5.029321170406117E-4   -2.619038983910952E-3    5.982993895737044E-4    1.916239317691633E-1    4.784585058876614E-1
 8.150113452150000E9     3.841663819700688E-2    5.388838404294102E-1   -2.634425379171075E-3    5.396511039244913E-4   -2.618280916534048E-3    6.013245329604792E-4    1.921267336086659E-1    4.780611540938208E-1
 8.150124359700000E9     3.901564125438346E-2    5.389348589457976E-1   -2.589605368818844E-3    5.223090463541341E-4   -2.603922728863999E-3    6.042178788462774E-4    1.928004987300794E-1    4.777144019924152E-1
 8.150135267250000E9     3.991416061235453E-2    5.390133073097607E-1   -2.604026399106119E-3    5.322854900649063E-4   -2.612415155407910E-3    6.167470658130711E-4    1.933936552203506E-1    4.775198316137909E-1
 8.150146174800000E9     4.065300235031667E-2    5.388092458819966E-1   -2.601594932399249E-3    5.472136250642523E-4   -2.618088400137527E-3    6.041812788500617E-4    1.941745842451644E-1    4.771901814599176E-1
 8.150157082350000E9     4.148049177756064E-2    5.388046626142167E-1   -2.625841896119579E-3    5.691712316680416E-4   -2.620450496230446E-3    6.467843557399031E-4    1.947831819403245E-1    4.771262900975563E-1
 8.150167989900000E9     4.217862177047675E-2    5.386707455156253E-1   -2.607536351526337E-3    5.742832394314103E-4   -2.614778402557984E-3    6.021751741750258E-4    1.953850247119319E-1    4.766638624659737E-1
 8.150178897450000E9     4.297423295021688E-2    5.387110171587889E-1   -2.611286171263183E-3    5.743207689483255E-4   -2.632913384488533E-3    6.114333383979878E-4    1.960817613395055E-1    4.764583400579515E-1
 8.150189805000000E9     4.373459615399877E-2    5.386195146208673E-1   -2.584138350267149E-3    5.705638828595704E-4   -2.620012877927630E-3    6.257522253112895E-4    1.968424452071160E-1    4.762382425652117E-1
 8.150200712550000E9     4.447542378989201E-2    5.386292905821122E-1   -2.605646847102723E-3    5.698795287863591E-4   -2.608952235318005E-3    6.571288135930858E-4    1.973369584796615E-1    4.758945959712900E-1
 8.150211620100000E9     4.529596261506451E-2    5.385178670468216E-1   -2.615541543355216E-3    5.974738332607777E-4   -2.621007656598185E-3    6.371470686766677E-4    1.979598641196798E-1    4.756927181672125E-1
 8.150222527650000E9     4.592413335999146E-2    5.385174383333768E-1   -2.589795752264762E-3    5.807908929533001E-4   -2.614889114350936E-3    6.512715333004909E-4    1.985777858143902E-1    4.753879644716783E-1
 8.150233435200000E9     4.689246905027259E-2    5.383820754411933E-1   -2.623777374807472E-3    6.028902200214602E-4   -2.632905472778828E-3    6.419589750531319E-4    1.993223759808042E-1    4.749652684455111E-1
 8.150244342750000E9     4.747509332295399E-2    5.383816396562049E-1   -2.623774665779019E-3    5.985375367936114E-4   -2.640953784986849E-3    6.417546268134252E-4    1.999137227966165E-1    4.747664310421000E-1
 8.150255250300000E9     4.821974170620007E-2    5.383949997530866E-1   -2.585435592705956E-3    6.093424287749012E-4   -2.609785050946957E-3    6.756240942758045E-4    2.005925708065933E-1    4.744477039429084E-1
 8.150266157850000E9     4.907432928111689E-2    5.383019999678308E-1   -2.613612777437998E-3    6.032219735367864E-4   -2.636406585295448E-3    6.550268819855648E-4    2.011882000558447E-1    4.741538255033085E-1
 8.150277065400000E9     4.975294491419326E-2    5.382313949042506E-1   -2.602852429946789E-3    6.033320152687040E-4   -2.624732558224849E-3    6.830367569645539E-4    2.017395333438031E-1    4.738960208940506E-1
 8.150287972950000E9     5.056960524588219E-2    5.381076997159189E-1   -2.622733685253022E-3    6.343997053163292E-4   -2.644419555777438E-3    6.975449769226037E-4    2.025843971090712E-1    4.736808645876776E-1
 8.150298880500000E9     5.131838000673486E-2    5.381767811271569E-1   -2.615075109455450E-3    6.237308682072454E-4   -2.626305013283209E-3    6.501840581720785E-4    2.031796584527763E-1    4.733543591983764E-1
 8.150309788050000E9     5.209527811722699E-2    5.381168829473525E-1   -2.612202178241233E-3    6.293134337218234E-4   -2.659739926820754E-3    6.608016852769540E-4    2.038482746939461E-1    4.730603978588137E-1
 8.150320695600000E9     5.284655159091909E-2    5.380431543685200E-1   -2.584301211725260E-3    6.009050239705123E-4   -2.617814421653489E-3    6.950257099273782E-4    2.043217948681900E-1    4.727017178877108E-1
 8.150331603150000E9     5.363946704832961E-2    5.380900425462001E-1   -2.606403927063794E-3    6.267391569598713E-4   -2.631321106567931E-3    7.159629084426154E-4    2.050907566729128E-1    4.724517162627295E-1
 8.150342510700000E9     5.428484572778122E-2    5.380270216049315E-1   -2.606616957221975E-3    6.250758192774641E-4   -2.601624270925155E-3    6.783861728378109E-4    2.057321165243593E-1    4.722443979136289E-1
 8.150353418250000E9     5.512890578652412E-2    5.378346381864304E-1   -2.597184660081005E-3    6.130939873868781E-4   -2.636071386929994E-3    7.194635985228861E-4    2.064918053432075E-1    4.719799029520621E-1
 8.150364325800000E9     5.593115512505947E-2    5.379040429633174E-1   -2.623546961672302E-3    6.436709001637807E-4   -2.625042680588783E-3    7.115150907099115E-4    2.070545717698232E-1    4.715496096914145E-1
 8.150375233350000E9     5.662441333452627E-2    5.376716003330223E-1   -2.598896976083498E-3    6.951005821264181E-4   -2.620490723488960E-3    7.171546552348476E-4    2.075289368362025E-1    4.713385337345714E-1
 8.150386140900000E9     5.740891878782116E-2    5.377070793256018E-1   -2.611786442574986E-3    6.878604495220653E-4   -2.634685951641365E-3    7.181384097565773E-4    2.082109693126637E-1    4.710304822357363E-1
 8.150397048450000E9     5.819892374514961E-2    5.375415686286709E-1   -2.597733494322452E-3    6.694160027352072E-4   -2.633693391938966E-3    6.936687950819334E-4    2.089569580433945E-1    4.705594902489331E-1
 8.150407956000000E9     5.883792343755453E-2    5.375132582917125E-1   -2.593385068785951E-3    6.711985175824024E-4   -2.583440733254963E-3    6.830420400871468E-4    2.092945414760949E-1    4.703750104596463E-1
 8.150418863550000E9     5.969598924486514E-2    5.373952930620373E-1   -2.601992025416877E-3    6.802068102088085E-4   -2.658483842422801E-3    7.229859272612976E-4    2.103149681000686E-1    4.700562984679242E-1
 8.150429771100000E9     6.043237091451580E-2    5.374601002332370E-1   -2.620131099223859E-3    6.701352945706453E-4   -2.630831521143605E-3    7.144936392388933E-4    2.109279766736151E-1    4.697596030830279E-1
 8.150440678650000E9     6.118374973863015E-2    5.373412808677445E-1   -2.597475687444196E-3    6.913872982010559E-4   -2.608970088915812E-3    7.244209739933706E-4    2.115345695831766E-1    4.694960680375654E-1
 8.150451586200000E9     6.196838892710802E-2    5.371805234676155E-1   -2.625360430868316E-3    6.715893325735504E-4   -2.622591567352993E-3    7.350867963071400E-4    2.120477846078508E-1    4.691350129056002E-1
 8.150462493750000E9     6.269451581083114E-2    5.372659116100990E-1   -2.614622700115270E-3    6.877329254002820E-4   -2.626054166118003E-3    7.073275267038912E-4    2.127935938040720E-1    4.690266463577011E-1
 8.150473401300000E9     6.347872316943949E-2    5.371516336316263E-1   -2.607404893690378E-3    6.871347732991579E-4   -2.635434950592618E-3    7.497708806507029E-4    2.133893182001950E-1    4.686941574482550E-1
 8.150484308850000E9     6.433428492018689E-2    5.369918219052386E-1   -2.608583869907213E-3    6.891210805461899E-4   -2.616251832331673E-3    7.658959211514345E-4    2.140880056362646E-1    4.683768539296501E-1
 8.150495216400000E9     6.506113282749673E-2    5.371266981203046E-1   -2.609874927578423E-3    6.994985810689671E-4   -2.620225497958862E-3    7.230263591258868E-4    2.147133970915076E-1    4.680193869842907E-1
 8.150506123950000E9     6.580244130891649E-2    5.370172439037590E-1   -2.587387080387696E-3    6.829158151055218E-4   -2.631113293966915E-3    7.332776235462879E-4    2.153119561788844E-1    4.677177578655483E-1
 8.150517031500000E9     6.658580447627267E-2    5.367884225913252E-1   -2.619993530331806E-3    7.195714288790424E-4   -2.632043509678136E-3    7.405037802718189E-4    2.160654531583220E-1    4.673349337737999E-1
