#  HZ   S   RI   R     50.00 
! Rohde & Schwarz Vector Network Analyzer 
! Rohde-Schwarz,ZNB20-2Port,1311601062101988,3.16
! Created: UTC 3/21/2024, 1:00:14 AM
! freq[Hz]                re:S11                  im:S11                  re:S21                  im:S21                  re:S12                  im:S12                  re:S22                  im:S22
 8.149580035000000E9     9.566385091266379E-4    5.393672686513821E-1   -2.608967807580429E-3    3.417589617657683E-4   -2.615131620704184E-3    4.102364075105443E-4    1.597612628792082E-1    4.904989902233579E-1
 8.149590745150000E9     1.701419027317321E-3    5.394252809518348E-1   -2.642603830006667E-3    3.571825043414383E-4   -2.633899003717372E-3    4.248429630858225E-4    1.604947769627985E-1    4.901885340186927E-1
 8.149601455300000E9     2.419064731680701E-3    5.393933984513642E-1   -2.606274660554763E-3    3.455218742113787E-4   -2.639710430023371E-3    4.239580536679071E-4    1.610644620326790E-1    4.900200601843409E-1
 8.149612165450000E9     3.236171281162037E-3    5.394259208314088E-1   -2.617290837397068E-3    3.697128977420825E-4   -2.628052144742890E-3    4.143403739662962E-4    1.618428524267619E-1    4.897502150820150E-1
 8.149622875600000E9     3.994628057266990E-3    5.394956309399607E-1   -2.611262298052959E-3    3.612950476907484E-4   -2.615000096669852E-3    4.184941768435162E-4    1.624843864830563E-1    4.896035101721802E-1
 8.149633585750000E9     4.663255666957079E-3    5.394469451926814E-1   -2.595753477596031E-3    3.712169088203736E-4   -2.617521323731116E-3    4.425578310137241E-4    1.629888724794571E-1    4.893167132952513E-1
 8.149644295900000E9     5.491422640624170E-3    5.394978528521307E-1   -2.592583525257591E-3    3.472707224225687E-4   -2.635464152651872E-3    4.254541537063888E-4    1.638508110331852E-1    4.890008511498367E-1
 8.149655006050000E9     6.236483746792092E-3    5.394592635276936E-1   -2.619098133819722E-3    3.988496032913313E-4   -2.616983427252016E-3    4.300397865288462E-4    1.643102279686044E-1    4.887624391582049E-1
 8.149665716200000E9     6.966126461236667E-3    5.393491029261758E-1   -2.607976512347170E-3    3.884527104382097E-4   -2.620517540320728E-3    4.638059518312532E-4    1.651134705244944E-1    4.886375528990189E-1
 8.149676426350000E9     7.738715351662584E-3    5.396050137100421E-1   -2.595980187498750E-3    3.848362313375100E-4   -2.642106330764075E-3    4.294502254282579E-4    1.658863333047138E-1    4.882671548586036E-1
 8.149687136500000E9     8.355905745887163E-3    5.395546573616145E-1   -2.611344742490000E-3    3.954410598057072E-4   -2.610025497946410E-3    4.608143065657812E-4    1.663190957254370E-1    4.880819165499636E-1
 8.149697846650000E9     9.262510415614137E-3    5.394661283346815E-1   -2.603836744408820E-3    3.866493236785188E-4   -2.637239984854744E-3    4.404889243037152E-4    1.667505783309764E-1    4.879846060066925E-1
 8.149708556800000E9     9.926988029922987E-3    5.394805400741368E-1   -2.605318317775499E-3    4.028691937433765E-4   -2.629100555639467E-3    4.527251807537034E-4    1.677319128576125E-1    4.876759260713777E-1
 8.149719266950000E9     1.065047980365324E-2    5.393989203355217E-1   -2.610212519262620E-3    4.275774777048049E-4   -2.657073905214908E-3    4.553933177876741E-4    1.683991340295855E-1    4.874313107807125E-1
 8.149729977100000E9     1.143821676861690E-2    5.395020975469845E-1   -2.630014364168675E-3    4.016207384797953E-4   -2.623020721227654E-3    5.049247923472409E-4    1.690014332073018E-1    4.871267511417134E-1
 8.149740687250000E9     1.217952943101149E-2    5.395739539131036E-1   -2.606756945030213E-3    4.226390740614617E-4   -2.640744120352534E-3    4.658797077131379E-4    1.695971246802581E-1    4.869453996446169E-1
 8.149751397400000E9     1.298894200177101E-2    5.394997039232955E-1   -2.632891083995250E-3    4.163489535718912E-4   -2.639765639667489E-3    4.695398013814540E-4    1.702469894836141E-1    4.867852366144395E-1
 8.149762107550000E9     1.378758746101259E-2    5.396444847351652E-1   -2.601190954014066E-3    4.267775755591559E-4   -2.632205735591136E-3    4.721266735482154E-4    1.709339100473637E-1    4.863746858277494E-1
 8.149772817700000E9     1.451948425658711E-2    5.395001367516464E-1   -2.606330092460302E-3    4.088900185948735E-4   -2.627035245770412E-3    5.049286116640662E-4    1.715676074143152E-1    4.861439749597294E-1
 8.149783527850000E9     1.529871200655395E-2    5.394632483824375E-1   -2.616119948500978E-3    4.207527404839751E-4   -2.630868979075222E-3    4.602491586262526E-4    1.721498727720257E-1    4.860198332255302E-1
 8.149794238000000E9     1.611510211602584E-2    5.394503397020550E-1   -2.625380211382344E-3    4.227841963747104E-4   -2.630328928957988E-3    4.607569021417816E-4    1.729981309624224E-1    4.857112427374342E-1
 8.149804948150000E9     1.659068923832814E-2    5.395025236053727E-1   -2.610801399747730E-3    4.416108487180888E-4   -2.605368886167284E-3    5.169419836664420E-4    1.735976633847340E-1    4.854192534933942E-1
 8.149815658300000E9     1.752673778208199E-2    5.394386629296535E-1   -2.606430253119559E-3    4.314118896908693E-4   -2.622574837985332E-3    4.828055880795927E-4    1.742878733938059E-1    4.852660736963714E-1
 8.149826368450000E9     1.835718319820805E-2    5.394408702721767E-1   -2.616188551545016E-3    4.338059624165691E-4   -2.640908246507509E-3    4.787634488748535E-4    1.748945347181239E-1    4.850299138160187E-1
 8.149837078600000E9     1.911370951621308E-2    5.394731552119174E-1   -2.614324564036379E-3    4.422719735201881E-4   -2.632364578810568E-3    4.690119318289423E-4    1.754897462825174E-1    4.847173790199995E-1
 8.149847788750000E9     1.972495514784389E-2    5.394978419493882E-1   -2.593139680740110E-3    4.507233546165889E-4   -2.636817135131425E-3    4.774935519708264E-4    1.761855194756988E-1    4.843267351075587E-1
 8.149858498900000E9     2.047241712962887E-2    5.394686539047473E-1   -2.593626491174556E-3    4.409268659916951E-4   -2.655083315501224E-3    5.006773245897338E-4    1.768881195515491E-1    4.843366915020773E-1
 8.149869209050000E9     2.125055776833164E-2    5.394948566848193E-1   -2.615195081817980E-3    4.702231742463730E-4   -2.619249451861067E-3    5.021623434258380E-4    1.774522194523123E-1    4.839542692242191E-1
 8.149879919200000E9     2.208502408695849E-2    5.394214901918072E-1   -2.605490741909207E-3    4.686761478466844E-4   -2.642396797403884E-3    5.138900677539174E-4    1.780158940835140E-1    4.837966086568108E-1
 8.149890629350000E9     2.274349495027485E-2    5.393709436350427E-1   -2.611565945651864E-3    4.639760317412925E-4   -2.635039163979364E-3    5.200364221761733E-4    1.787647792401890E-1    4.835467407591105E-1
 8.149901339500000E9     2.346098010599233E-2    5.393734302540230E-1   -2.599860878792918E-3    4.820369520209424E-4   -2.616661353147910E-3    5.617194896503354E-4    1.793618753323312E-1    4.832217440095183E-1
 8.149912049650000E9     2.425436706089464E-2    5.393259402074834E-1   -2.618037247146092E-3    4.595753415652446E-4   -2.613061757417104E-3    5.162607925083147E-4    1.801461876783671E-1    4.829600943955963E-1
 8.149922759800000E9     2.488745904553420E-2    5.394257244355474E-1   -2.589507951981722E-3    4.771016016506640E-4   -2.627436241826894E-3    5.212388260438915E-4    1.806603199162389E-1    4.827980487705258E-1
 8.149933469950000E9     2.575635943078839E-2    5.393440360809546E-1   -2.603379614789016E-3    4.852893123512450E-4   -2.606732828453116E-3    5.571138235852956E-4    1.812763056564659E-1    4.825466245223841E-1
 8.149944180100000E9     2.649914281032290E-2    5.392642407549716E-1   -2.590845538116113E-3    4.828431131209387E-4   -2.611959387497700E-3    5.149163338650471E-4    1.819166487774255E-1    4.822486247946861E-1
 8.149954890250000E9     2.721815124189775E-2    5.393864744995678E-1   -2.610264314011397E-3    4.892656067634496E-4   -2.627345370491121E-3    5.413164598518280E-4    1.825494085120052E-1    4.818895218114873E-1
 8.149965600400000E9     2.792978771252253E-2    5.393274353965550E-1   -2.591745140788730E-3    5.018754118012416E-4   -2.654964506584469E-3    5.277063852082355E-4    1.831079322055222E-1    4.817647873281800E-1
 8.149976310550000E9     2.875560018969823E-2    5.391004532649034E-1   -2.617129972346954E-3    4.954551257939863E-4   -2.598239232001631E-3    5.243678842094822E-4    1.838955425747562E-1    4.814813795199591E-1
 8.149987020700000E9     2.951539222817370E-2    5.392663038565969E-1   -2.601616848114196E-3    5.135567524475798E-4   -2.620928908289542E-3    5.360075419643361E-4    1.845322789035111E-1    4.812807976116013E-1
 8.149997730850000E9     3.022189918600490E-2    5.391823268745329E-1   -2.606678587157431E-3    5.103270364322012E-4   -2.620364923215386E-3    5.734672571541580E-4    1.851994357415163E-1    4.809501361118788E-1
 8.150008441000000E9     3.098208627602896E-2    5.391377282031418E-1   -2.587664036264840E-3    5.056234012837938E-4   -2.608308320442371E-3    5.606865542923233E-4    1.858779541997843E-1    4.805963621492654E-1
 8.150019151150000E9     3.169400312542886E-2    5.391677400438750E-1   -2.634304519822481E-3    5.230488707094164E-4   -2.632459590429164E-3    5.388027471835354E-4    1.865757694979272E-1    4.804246730738019E-1
 8.150029861300000E9     3.257842084531395E-2    5.389927576694453E-1   -2.604348003952634E-3    4.971739839370045E-4   -2.608354693994033E-3    5.721894946500797E-4    1.870778518465937E-1    4.800127566539829E-1
 8.150040571450000E9     3.322565577269684E-2    5.391413489318265E-1   -2.593183967528489E-3    5.349803946750403E-4   -2.638663700608549E-3    5.694438990239820E-4    1.876842369166625E-1    4.799280923559772E-1
 8.150051281600000E9     3.401821181525660E-2    5.390521012967284E-1   -2.611831122970463E-3    5.167805474811308E-4   -2.632927376591764E-3    6.057128764547935E-4    1.883651487718176E-1    4.796985941899878E-1
 8.150061991750000E9     3.475269933061363E-2    5.389997298785978E-1   -2.617719559941193E-3    5.252677018992315E-4   -2.606840109371559E-3    6.071946029426057E-4    1.890174763085653E-1    4.794088936419709E-1
 8.150072701900000E9     3.555973801208837E-2    5.389724786179079E-1   -2.610498796347000E-3    5.178194424668542E-4   -2.616886301276771E-3    5.728760940582790E-4    1.897968141832655E-1    4.790670512016689E-1
 8.150083412050000E9     3.618050255987049E-2    5.388773207566825E-1   -2.611160082023372E-3    5.070495694534456E-4   -2.609690826532806E-3    6.061692430116684E-4    1.903089815952350E-1    4.788050676386613E-1
 8.150094122200000E9     3.689149909623505E-2    5.388797022998886E-1   -2.604258201636683E-3    5.305649633937800E-4   -2.610290557788906E-3    5.863307249037885E-4    1.908864896444160E-1    4.784924624070303E-1
 8.150104832350000E9     3.766564603897646E-2    5.388669726941436E-1   -2.595846722628328E-3    5.347052661172789E-4   -2.608999580095600E-3    5.769411035537271E-4    1.916051968308392E-1    4.783744541716561E-1
 8.150115542500000E9     3.842444211631901E-2    5.388819456700912E-1   -2.609797721588218E-3    5.569043873670363E-4   -2.617283958376640E-3    5.736809579148829E-4    1.922159354526638E-1    4.781935255508540E-1
 8.150126252650000E9     3.920219480776310E-2    5.389227687361794E-1   -2.602977740819207E-3    5.593487647154527E-4   -2.624190068933514E-3    5.654777714402832E-4    1.928410836590226E-1    4.777285226518995E-1
 8.150136962800000E9     3.999301105085896E-2    5.388134263609070E-1   -2.591035683750209E-3    5.308175554921390E-4   -2.618007829978895E-3    6.070610560485142E-4    1.936701557163585E-1    4.775582965719765E-1
 8.150147672950000E9     4.066620269546750E-2    5.387529708877660E-1   -2.608907801067211E-3    5.698512240903557E-4   -2.643026468819685E-3    6.237150658280110E-4    1.941890852057116E-1    4.771435960201928E-1
 8.150158383100000E9     4.130124753193485E-2    5.387636085748999E-1   -2.594849974026150E-3    5.647593894250219E-4   -2.626077924146967E-3    6.259629873005935E-4    1.948776238759658E-1    4.770027464989667E-1
 8.150169093250000E9     4.214633473603255E-2    5.386130586280955E-1   -2.593639394435904E-3    5.971008724955507E-4   -2.627000112402318E-3    6.246922247220002E-4    1.954483456392289E-1    4.766740080506255E-1
 8.150179803400000E9     4.309398273284087E-2    5.386400267786806E-1   -2.590098002743161E-3    5.929896085972386E-4   -2.620256694257940E-3    6.160391500693201E-4    1.960489519240355E-1    4.763380653968007E-1
 8.150190513550000E9     4.371628896913278E-2    5.387325042852750E-1   -2.590537624206356E-3    5.790660952015327E-4   -2.633203930028112E-3    6.118986572358472E-4    1.966839230413977E-1    4.761870225808901E-1
 8.150201223700000E9     4.444081377666227E-2    5.385177939354061E-1   -2.580367614324318E-3    5.886728808893293E-4   -2.615726011796441E-3    6.393049769142208E-4    1.972697716117293E-1    4.759184681408101E-1
 8.150211933850000E9     4.523155825228181E-2    5.384799060152821E-1   -2.632554368203568E-3    5.669173033904591E-4   -2.601407653270840E-3    6.487619774735045E-4    1.981174793977517E-1    4.756548526383418E-1
 8.150222644000000E9     4.591047611978664E-2    5.386232013540204E-1   -2.586063944360397E-3    5.930621287658148E-4   -2.619282113754327E-3    6.508305257612791E-4    1.986788504826382E-1    4.752428995975392E-1
 8.150233354150000E9     4.674861816607420E-2    5.385561008969326E-1   -2.596262167823303E-3    5.992431247044841E-4   -2.600910259150316E-3    6.581482583208578E-4    1.991734101520490E-1    4.750178623498726E-1
 8.150244064300000E9     4.751838007266996E-2    5.383499995940081E-1   -2.601261565133211E-3    5.833955228639459E-4   -2.602730694810429E-3    6.462248322805777E-4    1.998821859110818E-1    4.746452810316938E-1
 8.150254774450000E9     4.817959426875584E-2    5.383812187909756E-1   -2.596139148472895E-3    6.030463343734901E-4   -2.605872863808866E-3    6.639355740678054E-4    2.005962401670574E-1    4.744938305708459E-1
 8.150265484600000E9     4.893894891961001E-2    5.382879537925552E-1   -2.608315617489134E-3    5.959947314816516E-4   -2.603884422281320E-3    6.680620377674800E-4    2.012744654699995E-1    4.740795237350438E-1
 8.150276194750000E9     4.961230250091860E-2    5.383125569071046E-1   -2.600542306218617E-3    5.750929879468559E-4   -2.603990379990618E-3    6.632335929718862E-4    2.018650318551825E-1    4.738186799002365E-1
 8.150286904900000E9     5.053527611058008E-2    5.380979528769407E-1   -2.613166891368568E-3    6.101302171699390E-4   -2.608679570110072E-3    6.483337340110002E-4    2.025949249287896E-1    4.735369561357329E-1
 8.150297615050000E9     5.118541161161185E-2    5.381145509345042E-1   -2.613481629691306E-3    6.182301647298124E-4   -2.606698037385495E-3    6.773278435915234E-4    2.031351822808865E-1    4.732592366159508E-1
 8.150308325200000E9     5.184954407820636E-2    5.380430816686144E-1   -2.611924361368314E-3    6.101629356306874E-4   -2.624439515439959E-3    7.073265884288911E-4    2.036468752211852E-1    4.731337685713412E-1
 8.150319035350000E9     5.269395389770077E-2    5.380293068808705E-1   -2.612351616717835E-3    6.314583015275311E-4   -2.621699739664815E-3    6.774167219334162E-4    2.043760485576676E-1    4.727096787673053E-1
 8.150329745500000E9     5.344410499885932E-2    5.380850989874697E-1   -2.598116543939153E-3    6.371718879904935E-4   -2.643533018224932E-3    6.651309132611592E-4    2.049493627641145E-1    4.725110704410910E-1
 8.150340455650000E9     5.408654516536265E-2    5.378983553837761E-1   -2.598694587825547E-3    6.687698750428651E-4   -2.602754500317071E-3    6.600399098212690E-4    2.056591934195248E-1    4.720700843026756E-1
 8.150351165800000E9     5.486605498177798E-2    5.377766566788463E-1   -2.594210208322570E-3    6.542978136759084E-4   -2.619132861325159E-3    7.132127563413837E-4    2.061603950506125E-1    4.719307852224676E-1
 8.150361875950000E9     5.568256885086157E-2    5.377764704389462E-1   -2.621160497341576E-3    6.722193969272192E-4   -2.627156553898782E-3    6.755351222030062E-4    2.068383268197315E-1    4.716350045663893E-1
 8.150372586100000E9     5.642536914795734E-2    5.376794032348686E-1   -2.608706522532314E-3    6.527850856139424E-4   -2.613281140512660E-3    6.832504310956093E-4    2.075235056837637E-1    4.713463978789388E-1
 8.150383296250000E9     5.717513389895207E-2    5.376584808118996E-1   -2.614200976495939E-3    6.470403905369897E-4   -2.628437091629908E-3    6.931389851623725E-4    2.080778103238702E-1    4.709501774390851E-1
 8.150394006400000E9     5.790030429607736E-2    5.375834103635264E-1   -2.600366334874816E-3    6.792963084108896E-4   -2.630224638437355E-3    6.903472254357806E-4    2.086912959849938E-1    4.707870535256977E-1
 8.150404716550000E9     5.865695533079029E-2    5.374446397287479E-1   -2.634780683314085E-3    6.518821163632974E-4   -2.629013176851617E-3    7.059267930110577E-4    2.093457163646977E-1    4.703765966167695E-1
 8.150415426700000E9     5.930497197056405E-2    5.375022606964808E-1   -2.595159208993483E-3    6.782037476715389E-4   -2.640089819414607E-3    7.186270485151089E-4    2.099946834306029E-1    4.702622803420486E-1
 8.150426136850000E9     6.016913027728011E-2    5.373702501774777E-1   -2.624844009016141E-3    6.790978396001886E-4   -2.627005221714987E-3    7.250384364595138E-4    2.106113991544260E-1    4.697905742950090E-1
 8.150436847000000E9     6.091450787560265E-2    5.372971017992133E-1   -2.614923222381245E-3    6.863670456932665E-4   -2.628186095621455E-3    7.165125104690396E-4    2.113362964497121E-1    4.694651255132923E-1
 8.150447557150000E9     6.168116963353371E-2    5.372507298598945E-1   -2.588034490189101E-3    6.787828018646146E-4   -2.626550101618352E-3    6.978688052062993E-4    2.118601704132534E-1    4.691772460270066E-1
 8.150458267300000E9     6.239695939091044E-2    5.370787977825596E-1   -2.602803604362854E-3    6.724294495909651E-4   -2.627046173463206E-3    7.399743817322137E-4    2.124568732543981E-1    4.690434323502336E-1
 8.150468977450000E9     6.298522432899843E-2    5.370513397464227E-1   -2.600321785737770E-3    6.750809790419692E-4   -2.635096746620054E-3    7.478300132086579E-4    2.130775360586087E-1    4.686050000962313E-1
 8.150479687600000E9     6.395868002524906E-2    5.371201195014835E-1   -2.608138727570175E-3    6.866057477887126E-4   -2.620586553392155E-3    7.556810188507364E-4    2.139030122916086E-1    4.683671512735131E-1
 8.150490397750000E9     6.456524157775489E-2    5.369537771527553E-1   -2.623436467429179E-3    6.885832481086992E-4   -2.661937014853730E-3    7.211402390789897E-4    2.143519605557321E-1    4.681380485065418E-1
 8.150501107900000E9     6.543839085267451E-2    5.369171627753586E-1   -2.612899031134657E-3    6.787490857782294E-4   -2.659340931715553E-3    7.635495618355094E-4    2.148615601897865E-1    4.678319519028901E-1
 8.150511818050000E9     6.622559525069223E-2    5.367617046545068E-1   -2.602177492258268E-3    7.056000261346611E-4   -2.596820476225436E-3    7.305808530173496E-4    2.155982237048421E-1    4.675206948939292E-1
 8.150522528200000E9     6.689026669928406E-2    5.367839641727961E-1   -2.597823265086137E-3    7.113090786036174E-4   -2.605420890571867E-3    7.434644508136492E-4    2.161832362855826E-1    4.672358950632610E-1
 8.150533238350000E9     6.767010060583327E-2    5.367971935040378E-1   -2.618886467412662E-3    7.300417212560750E-4   -2.626365465842022E-3    7.940632494175505E-4    2.168891353772898E-1    4.668789583255056E-1
 8.150543948500000E9     6.842226053384916E-2    5.367035978264941E-1   -2.608744700542190E-3    7.386847204262271E-4   -2.636428568508405E-3    7.507217882568284E-4    2.175789743134988E-1    4.665212130928582E-1
