#  HZ   S   RI   R     50.00 
! Rohde & Schwarz Vector Network Analyzer 
! Rohde-Schwarz,ZNB20-2Port,1311601062101988,3.16
! Created: UTC 3/21/2024, 1:00:19 AM
! freq[Hz]                re:S11                  im:S11                  re:S21                  im:S21                  re:S12                  im:S12                  re:S22                  im:S22
 8.149461207000000E9    -7.450278448533075E-3    5.391026337511347E-1   -2.608216287112690E-3    2.854105130851860E-4   -2.617079436692243E-3    3.526341667651056E-4    1.524502847385152E-1    4.928363288975547E-1
 8.149472465750000E9    -6.608524411690995E-3    5.391410224901658E-1   -2.614882403330007E-3    3.381536410662687E-4   -2.603844450910493E-3    3.585028551530198E-4    1.532246555591407E-1    4.927232728961491E-1
 8.149483724500000E9    -5.824101525685473E-3    5.390858051744216E-1   -2.617007688620195E-3    3.254039485809010E-4   -2.675162571651834E-3    3.859127435908502E-4    1.538496613317149E-1    4.926066886842841E-1
 8.149494983250000E9    -4.951500357509135E-3    5.391081947814295E-1   -2.631152952608689E-3    3.096155491701596E-4   -2.639743843360981E-3    3.501177806832579E-4    1.544628713285290E-1    4.922950511561673E-1
 8.149506242000000E9    -4.240212647778701E-3    5.391506331567262E-1   -2.630240850092043E-3    3.330627650896507E-4   -2.627740241757989E-3    3.637181141639503E-4    1.551344335095582E-1    4.919364887538609E-1
 8.149517500750000E9    -3.464630239716576E-3    5.392895837689767E-1   -2.619215811222993E-3    2.936449186361004E-4   -2.618498998931174E-3    3.793422477134507E-4    1.558691458853855E-1    4.918064388233883E-1
 8.149528759500000E9    -2.636234787096100E-3    5.391965317100907E-1   -2.608364831190621E-3    3.418436056296072E-4   -2.634600513370395E-3    4.031818110846872E-4    1.565454837341756E-1    4.916233334376787E-1
 8.149540018250000E9    -1.820294369744178E-3    5.392597095120640E-1   -2.609406643253969E-3    3.684022735356667E-4   -2.613497468954702E-3    3.863460191391414E-4    1.573253137338322E-1    4.912729908415994E-1
 8.149551277000000E9    -1.083355433262977E-3    5.391919810138273E-1   -2.614612015701020E-3    3.316031748487541E-4   -2.623346366875286E-3    3.961379053523869E-4    1.578773496605918E-1    4.910672838809865E-1
 8.149562535750000E9    -3.122668473271122E-4    5.393065211982850E-1   -2.607222953636185E-3    3.467981201764738E-4   -2.656373765434352E-3    3.974869916477301E-4    1.587932138771239E-1    4.907911889325766E-1
 8.149573794500000E9     5.635241189501361E-4    5.393117739505167E-1   -2.617666980702364E-3    3.189719870465413E-4   -2.643581979814189E-3    3.989590900206226E-4    1.593555833573063E-1    4.905338658211115E-1
 8.149585053250000E9     1.440720328178187E-3    5.394126591436462E-1   -2.642701563657044E-3    3.735543124768084E-4   -2.655074382028695E-3    4.124274111880793E-4    1.601415697877607E-1    4.903466849038048E-1
 8.149596312000000E9     2.135706083629087E-3    5.392362670046942E-1   -2.592328678618137E-3    3.581161732106539E-4   -2.645419117419019E-3    3.990737923682199E-4    1.607409219550721E-1    4.900222784721543E-1
 8.149607570750000E9     2.910346418177921E-3    5.393909038795505E-1   -2.624432776433573E-3    3.548438468456389E-4   -2.630661807730408E-3    4.394170064162818E-4    1.614030872102183E-1    4.899759678143348E-1
 8.149618829500000E9     3.693073704197029E-3    5.394313017959984E-1   -2.643166158698995E-3    3.797917105592088E-4   -2.661599790412471E-3    4.491738236829292E-4    1.621322430613582E-1    4.896595277529288E-1
 8.149630088250000E9     4.657892344854094E-3    5.393348659321315E-1   -2.626676638529113E-3    3.785634699878598E-4   -2.618542136451003E-3    4.386147590892408E-4    1.627862484370438E-1    4.894062934278192E-1
 8.149641347000000E9     5.254290440673323E-3    5.393554067851843E-1   -2.622547494683927E-3    3.774433193504872E-4   -2.654752961871101E-3    3.998704110588029E-4    1.634213809111745E-1    4.891951074947101E-1
 8.149652605750000E9     6.078490253612495E-3    5.394962250590376E-1   -2.616139171928062E-3    4.138410454886017E-4   -2.644918024151370E-3    4.240264142567436E-4    1.642451170020698E-1    4.890321344045371E-1
 8.149663864500000E9     6.815842065817267E-3    5.393484614668619E-1   -2.613095657042778E-3    3.786954624134437E-4   -2.615497476701880E-3    4.326396441695352E-4    1.649550532105016E-1    4.887382609002831E-1
 8.149675123250000E9     7.631890835676791E-3    5.394498362142062E-1   -2.620317985439799E-3    3.802524338817450E-4   -2.603851940722589E-3    4.802741650281506E-4    1.655495995699428E-1    4.883695525510519E-1
 8.149686382000000E9     8.338518351537046E-3    5.394303251125346E-1   -2.591735433002715E-3    3.830370102124108E-4   -2.637260391298789E-3    4.371596110086437E-4    1.662461409353163E-1    4.880372020524054E-1
 8.149697640750000E9     9.112854249139298E-3    5.393859743763553E-1   -2.607711331819711E-3    3.788190791703428E-4   -2.599385898795926E-3    4.487203404578363E-4    1.667814773951198E-1    4.879711230018906E-1
 8.149708899500000E9     1.005827635075223E-2    5.393856462000166E-1   -2.620015841514898E-3    3.958425493707408E-4   -2.637697591791878E-3    4.582069542137747E-4    1.676683308028448E-1    4.875729515276531E-1
 8.149720158250000E9     1.079508773644596E-2    5.394973579119151E-1   -2.619934974139902E-3    3.873244162828442E-4   -2.602027969805763E-3    4.308552058025417E-4    1.684200109434949E-1    4.874100339865493E-1
 8.149731417000000E9     1.162446586603539E-2    5.394904455577521E-1   -2.579007167268312E-3    4.321370759638445E-4   -2.625031047674544E-3    4.690126347811479E-4    1.690301304534620E-1    4.872162354974481E-1
 8.149742675750000E9     1.238770951381376E-2    5.393767044809529E-1   -2.615163908398646E-3    4.027031777900390E-4   -2.623832023884633E-3    4.418973765725676E-4    1.698383113532385E-1    4.869760780104306E-1
 8.149753934500000E9     1.299907033858241E-2    5.393835364578420E-1   -2.607028897623746E-3    4.120422248895581E-4   -2.645656291638900E-3    4.951584328726812E-4    1.704545766327949E-1    4.866303924457119E-1
 8.149765193250000E9     1.396206685565211E-2    5.395165077054062E-1   -2.589769465814968E-3    4.386430029502271E-4   -2.654155239081046E-3    4.871079447569151E-4    1.711019583152414E-1    4.863232545376086E-1
 8.149776452000000E9     1.470207696156392E-2    5.396431147015985E-1   -2.631050062606654E-3    4.162216715667349E-4   -2.624900455883636E-3    4.808700521448448E-4    1.717640663112291E-1    4.861755093465757E-1
 8.149787710750000E9     1.547751990815449E-2    5.395161048683134E-1   -2.619726647345840E-3    4.179940120191237E-4   -2.636688415112725E-3    4.702836298244177E-4    1.723739031904892E-1    4.859685456855002E-1
 8.149798969500000E9     1.628475552921933E-2    5.394844772808092E-1   -2.610710128009070E-3    4.350703226227040E-4   -2.651412394075114E-3    4.904215618155716E-4    1.732325874389854E-1    4.857133773541690E-1
 8.149810228250000E9     1.711342861596499E-2    5.394268009900918E-1   -2.623255707890125E-3    4.221147000289451E-4   -2.636738578106795E-3    5.040368632248113E-4    1.738150671711337E-1    4.854640316686293E-1
 8.149821487000000E9     1.774921938454988E-2    5.394651286639265E-1   -2.620859732197833E-3    4.212347501080718E-4   -2.615676745661849E-3    5.164270318288617E-4    1.744744601938265E-1    4.851332360492998E-1
 8.149832745750000E9     1.858838324441527E-2    5.393950854485817E-1   -2.609642904966323E-3    4.508527813652269E-4   -2.615603282112158E-3    4.908444992934213E-4    1.751969946807358E-1    4.848226289251765E-1
 8.149844004500000E9     1.946147631810596E-2    5.394586509731667E-1   -2.590181057764256E-3    4.161887227180066E-4   -2.645023929716775E-3    5.047996844685443E-4    1.760108789856253E-1    4.846066979494189E-1
 8.149855263250000E9     2.026261213390264E-2    5.394382400716338E-1   -2.619383274839006E-3    4.524534534536762E-4   -2.623298227759373E-3    5.158307478123494E-4    1.764162060467944E-1    4.843155736777299E-1
 8.149866522000000E9     2.105252481351970E-2    5.394130896326043E-1   -2.619640570892755E-3    4.492353211166296E-4   -2.632168242089796E-3    4.962492375945334E-4    1.771369565924422E-1    4.839746346595548E-1
 8.149877780750000E9     2.189986047292876E-2    5.394491735414929E-1   -2.581393460264983E-3    4.718071266229256E-4   -2.637385521480529E-3    5.030118228869098E-4    1.778974190208738E-1    4.838025673314072E-1
 8.149889039500000E9     2.252662042917930E-2    5.394309851594952E-1   -2.608218419840724E-3    4.304676877207703E-4   -2.636241037798138E-3    5.479771832166157E-4    1.786052719412949E-1    4.834357552677042E-1
 8.149900298250000E9     2.328362591537090E-2    5.394091698145315E-1   -2.603710793124836E-3    4.607736387173119E-4   -2.624753944489289E-3    5.164232613376144E-4    1.794070536156528E-1    4.832633171796390E-1
 8.149911557000000E9     2.411110119345098E-2    5.392184372977634E-1   -2.586472300527620E-3    4.580591974875506E-4   -2.627521225396264E-3    5.419766222251209E-4    1.800744573220223E-1    4.832022789036856E-1
 8.149922815750000E9     2.487589016323756E-2    5.393078503707528E-1   -2.615007937737746E-3    5.100191496787661E-4   -2.656508250801767E-3    5.446602911909688E-4    1.804618799760435E-1    4.827810795142629E-1
 8.149934074500000E9     2.568850642320111E-2    5.393591481852041E-1   -2.617581239020946E-3    4.765773942613820E-4   -2.627830065285240E-3    5.409761729222839E-4    1.813920452645198E-1    4.825397529157527E-1
 8.149945333250000E9     2.645719392266241E-2    5.393807040746699E-1   -2.624352144071460E-3    4.813752291743748E-4   -2.635755256680474E-3    5.388603497220382E-4    1.819829376382572E-1    4.822130670154561E-1
 8.149956592000000E9     2.726612874887459E-2    5.392821699877408E-1   -2.606551154663972E-3    4.775221634408344E-4   -2.622198728365441E-3    5.562388737663873E-4    1.825928888918929E-1    4.820131036267111E-1
 8.149967850750000E9     2.812240181781189E-2    5.392713148462419E-1   -2.607849266436547E-3    4.877380260246838E-4   -2.661637338839661E-3    5.601070198175543E-4    1.832988235880502E-1    4.816839697448799E-1
 8.149979109500000E9     2.894917012263571E-2    5.392089882766650E-1   -2.597997329529208E-3    5.078353392638833E-4   -2.628520493788994E-3    5.499267974621279E-4    1.840257944458124E-1    4.813056009910731E-1
 8.149990368250000E9     2.959471345806271E-2    5.392466173306594E-1   -2.616431044095131E-3    4.991724798293806E-4   -2.624999289772750E-3    5.506570219384680E-4    1.845653781723689E-1    4.810322495849989E-1
 8.150001627000000E9     3.045082537334799E-2    5.391956176575653E-1   -2.605483694684156E-3    5.168555620502522E-4   -2.644571549060217E-3    5.629120522294958E-4    1.853944203155286E-1    4.809010189579078E-1
 8.150012885750000E9     3.121283839739847E-2    5.391031368477049E-1   -2.593521722449317E-3    5.083843061063726E-4   -2.638515496980423E-3    5.509108062069548E-4    1.860358815459557E-1    4.804774340243161E-1
 8.150024144500000E9     3.195711066384846E-2    5.389774474907035E-1   -2.589338702773379E-3    5.215885408400277E-4   -2.627523172408920E-3    5.690649200585920E-4    1.867652955075433E-1    4.802723911766663E-1
 8.150035403250000E9     3.282458016368282E-2    5.391864657388430E-1   -2.618120715902895E-3    5.178422051475816E-4   -2.589116879854377E-3    5.615145778767722E-4    1.873337168083756E-1    4.800046256012529E-1
 8.150046662000000E9     3.354604040797559E-2    5.390124772682229E-1   -2.621130240833840E-3    5.363165221678791E-4   -2.593862089532433E-3    5.973509972331438E-4    1.882210370629670E-1    4.798185144758937E-1
 8.150057920750000E9     3.443708107574345E-2    5.389829945823863E-1   -2.605920645078763E-3    4.915758853728054E-4   -2.639308938579562E-3    5.937394265948508E-4    1.887977941292592E-1    4.795606834335354E-1
 8.150069179500000E9     3.512622160686966E-2    5.390180822053418E-1   -2.610442400520135E-3    5.153454290845724E-4   -2.635199222990970E-3    6.148422707844361E-4    1.893648812214964E-1    4.790977403167685E-1
 8.150080438250000E9     3.605712630162411E-2    5.389330613926441E-1   -2.606588239926600E-3    5.374472447801952E-4   -2.648372578617229E-3    5.894765288467510E-4    1.900416549671677E-1    4.789555267739755E-1
 8.150091697000000E9     3.669635924846680E-2    5.388807008766413E-1   -2.602484170703695E-3    5.431327041579944E-4   -2.608784163079268E-3    5.861099474094764E-4    1.908520493042837E-1    4.787253864571482E-1
 8.150102955750000E9     3.747292198345898E-2    5.389022372536254E-1   -2.591252279846547E-3    5.343362609358013E-4   -2.610506528029122E-3    6.082181097404276E-4    1.914559815229163E-1    4.783500802380733E-1
 8.150114214500000E9     3.840526943606141E-2    5.389044632094093E-1   -2.612668880379115E-3    5.351424456257760E-4   -2.616202929546749E-3    6.220766451869981E-4    1.921928392617503E-1    4.781529465734212E-1
 8.150125473250000E9     3.910774164329978E-2    5.388863698574162E-1   -2.616608096153561E-3    5.406175366571951E-4   -2.620696273984768E-3    6.205684915440288E-4    1.928106341430461E-1    4.779774387147859E-1
 8.150136732000000E9     3.987897769357248E-2    5.387240693847439E-1   -2.611359877844600E-3    5.461659124527857E-4   -2.612195491736471E-3    6.138216451239303E-4    1.934233982200080E-1    4.774713404770372E-1
 8.150147990750000E9     4.073608606772876E-2    5.387416759662880E-1   -2.638755402753531E-3    5.468036472488323E-4   -2.607322261800742E-3    6.120875391297746E-4    1.941623328273684E-1    4.770094022671592E-1
 8.150159249500000E9     4.151957609424226E-2    5.386809307408534E-1   -2.599829088482456E-3    5.533377302863203E-4   -2.636878323112118E-3    6.254780283764034E-4    1.947787314939273E-1    4.769904029714963E-1
 8.150170508250000E9     4.226184334563866E-2    5.386550950591315E-1   -2.600415657593052E-3    5.442469837668580E-4   -2.652450368811969E-3    6.283383344856258E-4    1.955755283753174E-1    4.766910087283666E-1
 8.150181767000000E9     4.309089822789705E-2    5.385522831124427E-1   -2.620240669743327E-3    5.641494616577791E-4   -2.611727971821728E-3    6.120120884404488E-4    1.963359293908705E-1    4.763794710160472E-1
 8.150193025750000E9     4.384584553177939E-2    5.385335394875653E-1   -2.592815642887700E-3    5.977661729536304E-4   -2.632712015164381E-3    6.242949476881427E-4    1.967911218391025E-1    4.759521488370040E-1
 8.150204284500000E9     4.471767209705351E-2    5.385111508152639E-1   -2.601835939688949E-3    5.824936873224264E-4   -2.639169928816031E-3    6.447145881628191E-4    1.975119918687885E-1    4.757119294028649E-1
 8.150215543250000E9     4.539001370559391E-2    5.385169591680833E-1   -2.605634595692808E-3    5.859429023627756E-4   -2.613000235541164E-3    6.204582840150761E-4    1.980652134761298E-1    4.753979088499651E-1
 8.150226802000000E9     4.615402676033142E-2    5.382429370731009E-1   -2.596928800453571E-3    6.016088748004010E-4   -2.605203745980607E-3    6.207045137831001E-4    1.987781229656415E-1    4.752493018981134E-1
 8.150238060750000E9     4.705362738330264E-2    5.383709100374148E-1   -2.603189719429262E-3    5.856758061056948E-4   -2.625360013457572E-3    6.395349714534797E-4    1.994463699021243E-1    4.748515373746544E-1
 8.150249319500000E9     4.767013090019546E-2    5.382916100192426E-1   -2.601619421663394E-3    6.063707653655694E-4   -2.635725977932962E-3    6.477396704338164E-4    2.001612962889179E-1    4.744300245738715E-1
 8.150260578250000E9     4.853180761938453E-2    5.382279602136466E-1   -2.604899764086156E-3    6.091942350500160E-4   -2.632364536296822E-3    6.696922526225702E-4    2.008669379674609E-1    4.743810837916367E-1
 8.150271837000000E9     4.936502471281038E-2    5.382356532141446E-1   -2.610328748293161E-3    6.305773946639050E-4   -2.618028239779763E-3    6.749920063955304E-4    2.016247863136158E-1    4.741068264171399E-1
 8.150283095750000E9     5.001897048286288E-2    5.382891751136001E-1   -2.610478720640732E-3    6.042392256940260E-4   -2.613083995494977E-3    6.646074781223842E-4    2.020838866802688E-1    4.737084946848321E-1
 8.150294354500000E9     5.093847796406790E-2    5.381019768306258E-1   -2.605373373949110E-3    6.025392532476152E-4   -2.635615216449927E-3    6.215263587479758E-4    2.026744214034913E-1    4.734252581116564E-1
 8.150305613250000E9     5.162445894692357E-2    5.379973397823490E-1   -2.613227047051798E-3    6.352040342351410E-4   -2.619463522852097E-3    6.782783270767692E-4    2.035649762407537E-1    4.730241762612870E-1
 8.150316872000000E9     5.254177179247350E-2    5.379644650627640E-1   -2.601523502469972E-3    5.963401177828716E-4   -2.590958158115587E-3    6.811981625718336E-4    2.040921374818524E-1    4.727165070128003E-1
 8.150328130750000E9     5.318758996515075E-2    5.378470378420139E-1   -2.614004165927409E-3    6.141907009233290E-4   -2.639109876469488E-3    6.709628489936902E-4    2.047003839864360E-1    4.725364242659038E-1
 8.150339389500000E9     5.398419346814681E-2    5.377900458509214E-1   -2.601491931918156E-3    6.553374216534609E-4   -2.631008814632377E-3    6.679689040797648E-4    2.055221966308552E-1    4.721960740654944E-1
 8.150350648250000E9     5.485744145755175E-2    5.378517453509061E-1   -2.629428327611162E-3    6.260324987767670E-4   -2.635480779096110E-3    6.958420611285784E-4    2.061464486577043E-1    4.717910522513265E-1
 8.150361907000000E9     5.569768037155545E-2    5.377447628144771E-1   -2.599911128228422E-3    6.651322612234849E-4   -2.656672753884839E-3    6.863545886448929E-4    2.068905742544569E-1    4.715151932548575E-1
 8.150373165750000E9     5.644057013515046E-2    5.376051112483348E-1   -2.595761518843915E-3    6.451273046230108E-4   -2.626070789969329E-3    6.904724624356670E-4    2.074752889000072E-1    4.712421505366441E-1
 8.150384424500000E9     5.723880993034376E-2    5.376432109362254E-1   -2.601896285301109E-3    6.569732699174325E-4   -2.622764255992788E-3    6.849103974063815E-4    2.081677473456913E-1    4.711118557926508E-1
 8.150395683250000E9     5.796120137541001E-2    5.375496419258835E-1   -2.600122797976319E-3    6.690256376837527E-4   -2.623854129721515E-3    7.029846210176707E-4    2.088612780411135E-1    4.707081080460826E-1
 8.150406942000000E9     5.880275826647934E-2    5.375176545772375E-1   -2.623197992620524E-3    6.516300716168571E-4   -2.638661054434809E-3    7.092557864414351E-4    2.095268790994421E-1    4.703921049490217E-1
 8.150418200750000E9     5.952193927416041E-2    5.373097237375108E-1   -2.608025170900718E-3    6.748305645374196E-4   -2.613171013143889E-3    7.331344389988884E-4    2.099647269783485E-1    4.700546990346430E-1
 8.150429459500000E9     6.025431839817610E-2    5.373945864357110E-1   -2.623330540061073E-3    6.764095494606970E-4   -2.640475815998470E-3    7.468254409205410E-4    2.107080668650808E-1    4.697936925011734E-1
 8.150440718250000E9     6.116994096983875E-2    5.371835865648079E-1   -2.610676632551586E-3    6.679484742884679E-4   -2.606141788311111E-3    7.656874487329433E-4    2.113851215242612E-1    4.695219923666322E-1
 8.150451977000000E9     6.191041903117154E-2    5.373208744858072E-1   -2.616255571640246E-3    6.719627163941770E-4   -2.617498822423288E-3    7.367716433688225E-4    2.120934845270687E-1    4.692148471619246E-1
 8.150463235750000E9     6.272831594750454E-2    5.370518268980776E-1   -2.631432723257355E-3    7.081969638951185E-4   -2.642269204255699E-3    7.296228401976288E-4    2.127061469424792E-1    4.687244308420791E-1
 8.150474494500000E9     6.353408367393215E-2    5.370561339290844E-1   -2.596149278344100E-3    6.623426801354996E-4   -2.645496364597376E-3    7.528462515818847E-4    2.133629283495906E-1    4.686120032399870E-1
