#  HZ   S   RI   R     50.00 
! Rohde & Schwarz Vector Network Analyzer 
! Rohde-Schwarz,ZNB20-2Port,1311601062101988,3.16
! Created: UTC 3/21/2024, 1:00:21 AM
! freq[Hz]                re:S11                  im:S11                  re:S21                  im:S21                  re:S12                  im:S12                  re:S22                  im:S22
 8.149484280000000E9    -5.851525505823644E-3    5.391984916937659E-1   -2.624228809546380E-3    3.209340405194170E-4   -2.614544768986337E-3    3.598832964445463E-4    1.537428157920579E-1    4.924405646836212E-1
 8.149495436975000E9    -4.996890103131244E-3    5.391779112389320E-1   -2.594459876830699E-3    3.291587659315579E-4   -2.626810134629734E-3    3.861381554135122E-4    1.546760829289361E-1    4.921862341170837E-1
 8.149506593950000E9    -4.231594252557696E-3    5.390750808085477E-1   -2.641069823542242E-3    3.137395417977047E-4   -2.670296521503442E-3    3.953809931836099E-4    1.553018448349737E-1    4.919685948083689E-1
 8.149517750925000E9    -3.481768066426121E-3    5.391805678764930E-1   -2.638432823041800E-3    3.461419679185942E-4   -2.629697857309389E-3    3.720524319361586E-4    1.559861277220824E-1    4.916780012878148E-1
 8.149528907900000E9    -2.627089262406593E-3    5.392764077997680E-1   -2.621378690720251E-3    3.451229434742163E-4   -2.628133565450250E-3    4.021292730402610E-4    1.566053957902895E-1    4.914256804278471E-1
 8.149540064875000E9    -1.857129407026567E-3    5.393120232824216E-1   -2.584363687945594E-3    3.298126143873774E-4   -2.641036212028829E-3    3.519036765764256E-4    1.573031621983893E-1    4.912295119730816E-1
 8.149551221850000E9    -1.025439451715284E-3    5.393501733407622E-1   -2.621669502741620E-3    3.258270367758800E-4   -2.648484852528468E-3    4.113147382595376E-4    1.579391367517143E-1    4.909867913079477E-1
 8.149562378825000E9    -2.158894703162582E-4    5.393227400037028E-1   -2.599382960399700E-3    3.554151267638708E-4   -2.648327390010748E-3    4.050201644208163E-4    1.586645401447873E-1    4.908457229249127E-1
 8.149573535800000E9     6.510437291198596E-4    5.392675837992728E-1   -2.591593242359298E-3    3.618131071232907E-4   -2.633711182570108E-3    4.200268532532718E-4    1.593465501464501E-1    4.904849145542810E-1
 8.149584692775000E9     1.352272598063562E-3    5.392876254890423E-1   -2.595671812423699E-3    3.513936784197475E-4   -2.634437499950466E-3    4.095737661769731E-4    1.599941246253057E-1    4.902871513897335E-1
 8.149595849750000E9     2.081823570301084E-3    5.393762112497397E-1   -2.614024848379063E-3    3.572827961848625E-4   -2.622635826489550E-3    3.996441064212415E-4    1.606850356986380E-1    4.900598968307395E-1
 8.149607006725000E9     2.785956101508143E-3    5.393591609112320E-1   -2.620791985193193E-3    3.555769889857355E-4   -2.594915566086094E-3    4.370168609081886E-4    1.612618824329877E-1    4.897734807967779E-1
 8.149618163700000E9     3.654397148038079E-3    5.393135106644369E-1   -2.622838749061517E-3    3.687417359517235E-4   -2.638779469654100E-3    3.903879848326158E-4    1.619679102874783E-1    4.895608088688366E-1
 8.149629320675000E9     4.416444312563149E-3    5.393066173191491E-1   -2.593365738725861E-3    3.767424987863713E-4   -2.636935833072073E-3    3.882001551785816E-4    1.627588392619826E-1    4.893796959241256E-1
 8.149640477650000E9     5.155804325332755E-3    5.394908364248675E-1   -2.618234596392759E-3    4.051229606052715E-4   -2.670621958936297E-3    4.257396606083053E-4    1.633844733324520E-1    4.890574894194883E-1
 8.149651634625000E9     6.114913712273649E-3    5.394102368203343E-1   -2.584451432304664E-3    3.851227197706758E-4   -2.631460871101678E-3    4.505660918691209E-4    1.640398634506781E-1    4.890357465847870E-1
 8.149662791600000E9     6.745519592748807E-3    5.395278946421593E-1   -2.604345984954035E-3    3.687678994027372E-4   -2.632345716426099E-3    4.475574250830949E-4    1.648310452719060E-1    4.886320636092535E-1
 8.149673948575000E9     7.457651119010283E-3    5.395055658547847E-1   -2.627629312153307E-3    3.849321721758224E-4   -2.637310478927163E-3    4.552157395434296E-4    1.654444716197225E-1    4.883764757663481E-1
 8.149685105550000E9     8.320016047783015E-3    5.395461413305171E-1   -2.622265544457433E-3    3.898095495486774E-4   -2.635054424299264E-3    4.640665907744854E-4    1.663120538479682E-1    4.880399809737491E-1
 8.149696262525000E9     9.107394723561821E-3    5.393637330450165E-1   -2.610802595525908E-3    3.959977248149838E-4   -2.635214858477849E-3    4.395620667375218E-4    1.667929696322999E-1    4.877789900620292E-1
 8.149707419500000E9     9.838153917238449E-3    5.394917433863504E-1   -2.604442980190997E-3    3.786174614324158E-4   -2.599232968887100E-3    4.461356662324053E-4    1.674648635881866E-1    4.877868552829531E-1
 8.149718576475000E9     1.068290855804260E-2    5.395317783233508E-1   -2.614515084206573E-3    3.859380266004353E-4   -2.619900702151348E-3    4.500146395813868E-4    1.681176909029082E-1    4.875212135421663E-1
 8.149729733450000E9     1.140585896329496E-2    5.394859183896815E-1   -2.593185054421478E-3    4.021708209896482E-4   -2.642444700821012E-3    4.496602434347566E-4    1.689522811163591E-1    4.871927346388648E-1
 8.149740890425000E9     1.228671004810045E-2    5.394443304017261E-1   -2.611812149851089E-3    4.158709347934856E-4   -2.630097461127949E-3    4.464903828161654E-4    1.695227220103115E-1    4.869145397788040E-1
 8.149752047400000E9     1.305803076133432E-2    5.394071249378933E-1   -2.597386445039263E-3    4.027384342474045E-4   -2.632318126595722E-3    4.639791455428497E-4    1.702882961646092E-1    4.867586011889247E-1
 8.149763204375000E9     1.376624488545555E-2    5.394357641756143E-1   -2.602496808427076E-3    4.067290437934260E-4   -2.629929406801952E-3    4.717875717065670E-4    1.708787192101228E-1    4.865180859668611E-1
 8.149774361350000E9     1.458653578261248E-2    5.394415636012719E-1   -2.620375697560760E-3    4.217311836598511E-4   -2.612879479846665E-3    4.704661665499998E-4    1.716989630843706E-1    4.861727392694515E-1
 8.149785518325000E9     1.528405898858096E-2    5.394072722775662E-1   -2.617139166847525E-3    4.343135042633842E-4   -2.628042360784818E-3    4.736728328100090E-4    1.721936440651844E-1    4.858554964345962E-1
 8.149796675300000E9     1.626373172366011E-2    5.395254042977976E-1   -2.607411493119581E-3    4.205191304873677E-4   -2.643479190093501E-3    4.688932927671707E-4    1.729540818645002E-1    4.855613015953919E-1
 8.149807832275000E9     1.685760488143542E-2    5.394616485300434E-1   -2.611544433075381E-3    4.167165814438597E-4   -2.624396037267347E-3    4.841936410559224E-4    1.736824489663349E-1    4.853703578572519E-1
 8.149818989250000E9     1.770109161893850E-2    5.393274564003663E-1   -2.602835480959833E-3    4.574061180674546E-4   -2.622711787788898E-3    4.932615631329629E-4    1.743827484932865E-1    4.851263763817003E-1
 8.149830146225000E9     1.847546486996593E-2    5.395267098173658E-1   -2.626870034044853E-3    4.238479879603655E-4   -2.584195872708626E-3    4.920792189468705E-4    1.750239137411577E-1    4.849411515206296E-1
 8.149841303200000E9     1.913777137270101E-2    5.394354877833445E-1   -2.605759204450440E-3    4.811719472486713E-4   -2.619354278155154E-3    4.843926459130036E-4    1.757026962749938E-1    4.845580895824069E-1
 8.149852460175000E9     2.006845993935216E-2    5.395396830443323E-1   -2.608022734800243E-3    4.624144969974526E-4   -2.624700879204449E-3    4.961931272228359E-4    1.762951780746101E-1    4.843662265273926E-1
 8.149863617150000E9     2.080197054196250E-2    5.394080038299054E-1   -2.584029190601914E-3    4.642090129314088E-4   -2.650591206399889E-3    5.072977205464866E-4    1.770028721612436E-1    4.842295582366187E-1
 8.149874774125000E9     2.162694970359238E-2    5.393398755856268E-1   -2.624766185992903E-3    4.471024991890608E-4   -2.615128570592135E-3    5.435809748326304E-4    1.776174605020212E-1    4.838242443421759E-1
 8.149885931100000E9     2.230981184715299E-2    5.393026265032430E-1   -2.629190276368959E-3    4.560185132624010E-4   -2.627911879609831E-3    5.061614211847851E-4    1.784434645915755E-1    4.835280105240488E-1
 8.149897088075000E9     2.323562399102349E-2    5.392943615258511E-1   -2.632560656135017E-3    4.619351647833520E-4   -2.599876655981464E-3    5.164595525271351E-4    1.791331781828030E-1    4.832050082320265E-1
 8.149908245050000E9     2.401185484494707E-2    5.392234982989275E-1   -2.618068862424934E-3    4.950142281492143E-4   -2.641457147398127E-3    5.108522206085177E-4    1.796758724342057E-1    4.830781778994111E-1
 8.149919402025000E9     2.469910780227826E-2    5.393704984950149E-1   -2.614069420433852E-3    4.643447468759272E-4   -2.606059266194836E-3    5.460135012053429E-4    1.803935439707079E-1    4.826434538573908E-1
 8.149930559000000E9     2.538813586110397E-2    5.392970730204419E-1   -2.612493825802508E-3    4.851012853269709E-4   -2.617646706150791E-3    5.210033964982446E-4    1.809844824946971E-1    4.825146807026219E-1
 8.149941715975000E9     2.628473503450871E-2    5.392405611266706E-1   -2.618611265647793E-3    4.675031700393194E-4   -2.631436983786892E-3    5.312175129404134E-4    1.818081451664331E-1    4.823749663076299E-1
 8.149952872950000E9     2.712939361685676E-2    5.391766902566616E-1   -2.636996121016854E-3    5.021348889566007E-4   -2.629536199826879E-3    5.554504034633100E-4    1.823533864964850E-1    4.819798209213633E-1
 8.149964029925000E9     2.772640913347558E-2    5.392872673878990E-1   -2.609166160284261E-3    5.014940870573086E-4   -2.635237456371377E-3    5.072907284266450E-4    1.831125188627470E-1    4.817262443917542E-1
 8.149975186900000E9     2.856498517252531E-2    5.392121425652667E-1   -2.601115769778724E-3    4.876865627822580E-4   -2.651172811358665E-3    5.671603163483458E-4    1.838055235534482E-1    4.814387764274948E-1
 8.149986343875000E9     2.935596640615024E-2    5.391523511194423E-1   -2.623650574844406E-3    5.094318725101748E-4   -2.646693546292591E-3    5.681551414995588E-4    1.845006308626081E-1    4.810821600254271E-1
 8.149997500850000E9     3.017592922178526E-2    5.392173481307952E-1   -2.592719777934698E-3    5.186569346246847E-4   -2.604923310159380E-3    5.329430200870125E-4    1.850954368607030E-1    4.810471757901812E-1
 8.150008657825000E9     3.092912492803198E-2    5.392134628373629E-1   -2.604393766641466E-3    5.063051314716201E-4   -2.643505408047784E-3    5.640082080767433E-4    1.857431397877165E-1    4.806625201822268E-1
 8.150019814800000E9     3.169356523685016E-2    5.391612731685280E-1   -2.618616639900761E-3    4.998353462362410E-4   -2.612079948929267E-3    5.658890950069572E-4    1.863764676288611E-1    4.803407941139333E-1
 8.150030971775000E9     3.248291698003416E-2    5.390475291060509E-1   -2.605218822735079E-3    5.370211241595403E-4   -2.627041434855995E-3    5.708689455727036E-4    1.871266410544998E-1    4.801008232707669E-1
 8.150042128750000E9     3.335400307633320E-2    5.390292084493576E-1   -2.609663635498405E-3    4.818623023000133E-4   -2.614991507897399E-3    5.769662888929170E-4    1.878327889368624E-1    4.799200591264239E-1
 8.150053285725000E9     3.407867149898861E-2    5.391122474771745E-1   -2.598267411532395E-3    5.341192922604752E-4   -2.614035345411343E-3    5.860669434588710E-4    1.884428090434240E-1    4.795427247406237E-1
 8.150064442700000E9     3.485065750950840E-2    5.390241170861121E-1   -2.615058004251994E-3    5.447486225984360E-4   -2.627045729865917E-3    6.155635225590745E-4    1.890275638971248E-1    4.791662696002059E-1
 8.150075599675000E9     3.562328273867521E-2    5.388677920468152E-1   -2.620521989852975E-3    5.266303594250957E-4   -2.633668091625140E-3    6.087188227181869E-4    1.897774341731797E-1    4.790157242074479E-1
 8.150086756650000E9     3.636579823160171E-2    5.389009280036638E-1   -2.613927653791420E-3    5.231125713535149E-4   -2.620882106600020E-3    5.972098777770605E-4    1.904980496639550E-1    4.787087070441378E-1
 8.150097913625000E9     3.708584417815812E-2    5.388765098977150E-1   -2.615166791758514E-3    5.112644627770598E-4   -2.647690187681701E-3    5.944435394314644E-4    1.911850316947673E-1    4.785138437714879E-1
 8.150109070600000E9     3.786077694110893E-2    5.388944028967381E-1   -2.617156853598923E-3    5.367275124509231E-4   -2.617883959980990E-3    6.124626817349429E-4    1.917474479384836E-1    4.781611443792208E-1
 8.150120227575000E9     3.870982101247063E-2    5.388965297811295E-1   -2.600786440035424E-3    5.487105246206214E-4   -2.625989681706369E-3    5.858687793416427E-4    1.922933215499446E-1    4.778813503586375E-1
 8.150131384550000E9     3.950476687632508E-2    5.387802179764350E-1   -2.625569430773197E-3    5.408379816451913E-4   -2.610642275841991E-3    6.211112293202664E-4    1.929202220460275E-1    4.777486089268441E-1
 8.150142541525000E9     4.028963552699148E-2    5.387287414279827E-1   -2.618176481859777E-3    5.413886009381837E-4   -2.625884092456344E-3    6.216025736110563E-4    1.937816262778677E-1    4.774537637490922E-1
 8.150153698500000E9     4.118244209724926E-2    5.387945521215477E-1   -2.620308811249552E-3    5.819617612459319E-4   -2.634238582215310E-3    6.295672955342839E-4    1.945241068415982E-1    4.769793931241418E-1
 8.150164855475000E9     4.190771968656747E-2    5.388093822834734E-1   -2.587093767257455E-3    5.669967842262576E-4   -2.639386715303625E-3    5.996643787253192E-4    1.950776479521431E-1    4.767801719932731E-1
 8.150176012450000E9     4.248924185520300E-2    5.386797779935318E-1   -2.617442968292629E-3    5.651187160542721E-4   -2.638295827941513E-3    6.050842520798858E-4    1.957431872029310E-1    4.765932161187376E-1
 8.150187169425000E9     4.333843427906340E-2    5.387004732663384E-1   -2.599482053496855E-3    5.680896394924814E-4   -2.603802915580921E-3    6.150821464828363E-4    1.965364528712288E-1    4.762841008437668E-1
 8.150198326400000E9     4.409382891485423E-2    5.385690614124032E-1   -2.588094171858942E-3    5.618170755483585E-4   -2.598048000940137E-3    6.483722510301391E-4    1.972291132432768E-1    4.758667977113125E-1
 8.150209483375000E9     4.497045309293511E-2    5.384984539227713E-1   -2.607694127321513E-3    5.793878632513780E-4   -2.613932748348145E-3    6.566250447980729E-4    1.977456921630955E-1    4.757113924143013E-1
 8.150220640350000E9     4.570313147958914E-2    5.384662691435035E-1   -2.610374064404852E-3    5.800322831529817E-4   -2.619275055256564E-3    6.333964086344355E-4    1.984299234498139E-1    4.753370787668391E-1
 8.150231797325000E9     4.656800022710002E-2    5.384242333720430E-1   -2.613476379437930E-3    6.090365542768079E-4   -2.643468287906046E-3    6.388371939432642E-4    1.990440119234146E-1    4.750459854946580E-1
 8.150242954300000E9     4.737172603866381E-2    5.382558010455345E-1   -2.607092054556942E-3    6.145711662433837E-4   -2.613889826876397E-3    6.221145581242636E-4    1.998100776933528E-1    4.747796760655886E-1
 8.150254111275000E9     4.802352753529492E-2    5.382812780029410E-1   -2.617282461489851E-3    6.121609627661762E-4   -2.595825518042696E-3    6.659470460360203E-4    2.001768638734322E-1    4.744014923769355E-1
 8.150265268250000E9     4.886913427270755E-2    5.382066172735538E-1   -2.617496374001493E-3    5.838754164462314E-4   -2.636205682867509E-3    6.824186442717095E-4    2.011867693556363E-1    4.742167481954915E-1
 8.150276425225000E9     4.967622203601495E-2    5.382360063060084E-1   -2.604470407108164E-3    6.097886733139112E-4   -2.643024235672606E-3    6.603727977444301E-4    2.018689057453305E-1    4.738641219640343E-1
 8.150287582200000E9     5.036383189162812E-2    5.380875013172761E-1   -2.606360653727994E-3    6.261931989172022E-4   -2.626475539633580E-3    6.391689154529972E-4    2.023987227399953E-1    4.735842375015265E-1
 8.150298739175000E9     5.110205880816464E-2    5.379562028428821E-1   -2.613901966701932E-3    6.172603913660827E-4   -2.621011146185431E-3    6.790643955591558E-4    2.031234722140006E-1    4.733084663983757E-1
 8.150309896150000E9     5.198094345146829E-2    5.380707205957747E-1   -2.612300431124081E-3    6.337518934148480E-4   -2.622289714616587E-3    6.671600075006476E-4    2.037861129030472E-1    4.730924011564125E-1
 8.150321053125000E9     5.278791906180957E-2    5.380459777245512E-1   -2.589071933022741E-3    6.263768872091229E-4   -2.641919256636851E-3    6.925964616423747E-4    2.043215712058513E-1    4.726901047988504E-1
 8.150332210100000E9     5.349477882395948E-2    5.379152853213101E-1   -2.614129967498020E-3    6.253010750712853E-4   -2.592845589083508E-3    6.761288806938670E-4    2.050592095433676E-1    4.724008771321960E-1
 8.150343367075000E9     5.423271967896424E-2    5.378876208173787E-1   -2.600592761577039E-3    6.674458479043689E-4   -2.626401268968175E-3    6.880918555252950E-4    2.057813332463689E-1    4.720826226768767E-1
 8.150354524050000E9     5.506926227535808E-2    5.378161484560604E-1   -2.611299226629824E-3    6.210456722959522E-4   -2.638716958344037E-3    6.884339871772280E-4    2.063096336157633E-1    4.717316134283159E-1
 8.150365681025000E9     5.596101180490854E-2    5.378026801298430E-1   -2.605558480468357E-3    6.365197738952876E-4   -2.605485425868038E-3    7.282659487339871E-4    2.070353773179428E-1    4.714959620231544E-1
 8.150376838000000E9     5.660153741489235E-2    5.377774878428629E-1   -2.609938238175527E-3    6.641584419522624E-4   -2.614314008199385E-3    6.843689764202456E-4    2.076573514794725E-1    4.711741830310147E-1
 8.150387994975000E9     5.746597162408621E-2    5.374618480970991E-1   -2.612835154653370E-3    6.689895322326126E-4   -2.613340440962328E-3    7.270537376193428E-4    2.083313628420099E-1    4.708563786169831E-1
 8.150399151950000E9     5.815556242408866E-2    5.375932201078146E-1   -2.605647598628948E-3    6.662954645361751E-4   -2.584342647062077E-3    7.195339803727662E-4    2.091125631970003E-1    4.705744693383157E-1
 8.150410308925000E9     5.904561558108683E-2    5.374560380057797E-1   -2.605471214738695E-3    6.627010543038435E-4   -2.616696632543704E-3    7.383180331870681E-4    2.094885997364329E-1    4.703177641295925E-1
 8.150421465900000E9     5.966427169848947E-2    5.373770875046058E-1   -2.599185703922744E-3    6.706794260886042E-4   -2.649435690966054E-3    6.991069391336565E-4    2.102891106522539E-1    4.698033606136522E-1
 8.150432622875000E9     6.059719068317070E-2    5.372086570998603E-1   -2.605694692384373E-3    6.652654816594006E-4   -2.631292676561449E-3    7.485357775571510E-4    2.110047710198039E-1    4.696696735864541E-1
 8.150443779850000E9     6.121116134950129E-2    5.372428477150251E-1   -2.588017777528254E-3    6.796315796581236E-4   -2.616662712126236E-3    7.431812566323059E-4    2.115334299278337E-1    4.694034580736960E-1
 8.150454936825000E9     6.213421681376991E-2    5.371046347866760E-1   -2.594813790130629E-3    6.818300649251064E-4   -2.588353738692718E-3    7.206331062555526E-4    2.120804046517595E-1    4.691683120223215E-1
 8.150466093800000E9     6.278457294246235E-2    5.370285402349365E-1   -2.604881528139394E-3    6.995919601489346E-4   -2.596506935393995E-3    7.218591556803489E-4    2.128885909843305E-1    4.687388478185047E-1
 8.150477250775000E9     6.366105364731744E-2    5.371140934883257E-1   -2.636359482722471E-3    6.825595846814325E-4   -2.637698410385855E-3    7.659784771275447E-4    2.134955162346812E-1    4.683787287456284E-1
 8.150488407750000E9     6.435511812028973E-2    5.369526476198758E-1   -2.611251873468032E-3    6.839099116193691E-4   -2.650220621045543E-3    7.523971406643735E-4    2.143101533343919E-1    4.682059983978664E-1
