#  HZ   S   RI   R     50.00 
! Rohde & Schwarz Vector Network Analyzer 
! Rohde-Schwarz,ZNB20-2Port,1311601062101988,3.16
! Created: UTC 3/21/2024, 1:00:26 AM
! freq[Hz]                re:S11                  im:S11                  re:S21                  im:S21                  re:S12                  im:S12                  re:S22                  im:S22
 8.149420819000000E9    -1.029671251949972E-2    5.389201628396511E-1   -2.613639989118019E-3    2.924243396489474E-4   -2.647892356324448E-3    3.784626992375909E-4    1.498847198139349E-1    4.935494760538928E-1
 8.149432269775000E9    -9.379081834308335E-3    5.389683584330091E-1   -2.620854325957721E-3    2.700438791822222E-4   -2.630038791020188E-3    3.337050723457358E-4    1.505299968460992E-1    4.933543981148875E-1
 8.149443720550000E9    -8.718114387660156E-3    5.390152312756825E-1   -2.622169222460883E-3    2.896755182921359E-4   -2.633668434537658E-3    3.701187508930496E-4    1.512558980306740E-1    4.932375565575368E-1
 8.149455171325000E9    -7.758271527829568E-3    5.391348685530342E-1   -2.622866196403989E-3    3.078412607550480E-4   -2.622718317719556E-3    3.404335514483211E-4    1.520513926173815E-1    4.929445513098732E-1
 8.149466622100000E9    -6.913331488498681E-3    5.391578882100054E-1   -2.606204878997044E-3    2.857375257003985E-4   -2.658389040529736E-3    3.785155539451799E-4    1.528467037709742E-1    4.927548369380522E-1
 8.149478072875000E9    -6.129542155693837E-3    5.392045553617056E-1   -2.614923934830878E-3    3.147417789906978E-4   -2.618926688430906E-3    3.832073023138461E-4    1.534414918579792E-1    4.924821583108971E-1
 8.149489523650000E9    -5.413872326709567E-3    5.391747540611302E-1   -2.623534329734209E-3    3.351091322208076E-4   -2.622131296755943E-3    3.858847619473254E-4    1.541991673992485E-1    4.922961756438856E-1
 8.149500974425000E9    -4.635402855679846E-3    5.391704755121094E-1   -2.631021650970901E-3    3.317271281553842E-4   -2.641417589188804E-3    3.692616479966162E-4    1.548866709188570E-1    4.921061708672467E-1
 8.149512425200000E9    -3.790258304743346E-3    5.391207528934518E-1   -2.603094526483696E-3    3.199669050628793E-4   -2.633659471307488E-3    4.079402069487740E-4    1.555473530310960E-1    4.918711936497732E-1
 8.149523875975000E9    -3.029816508672367E-3    5.391943227621909E-1   -2.609934991922029E-3    3.438971586185447E-4   -2.642695188270112E-3    3.756233773803669E-4    1.563113826960852E-1    4.914814397656176E-1
 8.149535326750000E9    -2.152068280257420E-3    5.392410557111956E-1   -2.613499183362506E-3    3.524039655473125E-4   -2.631669346303931E-3    3.744322361520186E-4    1.571374836644801E-1    4.914404828105221E-1
 8.149546777525000E9    -1.347084594729448E-3    5.392419096592141E-1   -2.614755524279748E-3    3.449309866809645E-4   -2.656542432465803E-3    4.053038202932182E-4    1.577825055586430E-1    4.910934977612893E-1
 8.149558228300000E9    -5.470070687998463E-4    5.392116589334908E-1   -2.616275487787912E-3    3.551863786542891E-4   -2.635077952703340E-3    4.050969951623646E-4    1.583918908514065E-1    4.907697687326704E-1
 8.149569679075000E9     2.054796307895717E-4    5.394177621864988E-1   -2.613140316728735E-3    3.429127025293961E-4   -2.646243965001014E-3    4.039835301700110E-4    1.590723947417012E-1    4.906835944920959E-1
 8.149581129850000E9     1.130915520757861E-3    5.393064246588259E-1   -2.636232399160036E-3    3.374815063408968E-4   -2.630737396918294E-3    3.898481254809901E-4    1.597892994593879E-1    4.903417149087603E-1
 8.149592580625000E9     1.878269085164415E-3    5.393830175608394E-1   -2.624460876095494E-3    3.506970281657705E-4   -2.651910586978384E-3    4.047710297000069E-4    1.603813819559091E-1    4.901035660546271E-1
 8.149604031400000E9     2.673318345744899E-3    5.393813756249195E-1   -2.607836564263593E-3    3.559811552599853E-4   -2.649297843467350E-3    3.922898474024832E-4    1.612320214670317E-1    4.898289545343824E-1
 8.149615482175000E9     3.348314026697673E-3    5.393766078992066E-1   -2.605648287272601E-3    3.680312349984932E-4   -2.598009784744385E-3    4.166717682305204E-4    1.619380660883305E-1    4.896181891951661E-1
 8.149626932950000E9     4.185702071377284E-3    5.394835122963759E-1   -2.619549265462949E-3    3.928085991276221E-4   -2.647022748009656E-3    4.072981454613955E-4    1.625810773599149E-1    4.893625767397455E-1
 8.149638383725000E9     4.994801461879707E-3    5.394582287127122E-1   -2.603085622329137E-3    3.790750212605027E-4   -2.642157357451584E-3    3.908460328518597E-4    1.632723849455551E-1    4.891327441659737E-1
 8.149649834500000E9     5.721881652404823E-3    5.394255500197876E-1   -2.614126540246342E-3    3.481056354168791E-4   -2.620570129545899E-3    4.009976860866826E-4    1.640570444773008E-1    4.887213181172032E-1
 8.149661285275000E9     6.583409229179426E-3    5.395247724830596E-1   -2.604281222158221E-3    3.852143834647225E-4   -2.619296523320744E-3    4.075622282315563E-4    1.647909609248469E-1    4.886574925836021E-1
 8.149672736050000E9     7.440365655682628E-3    5.394314629646718E-1   -2.622100721441862E-3    3.927920202545636E-4   -2.636558002498105E-3    4.576802104148903E-4    1.654955244911251E-1    4.884162647315336E-1
 8.149684186825000E9     8.255935951463829E-3    5.394941938819355E-1   -2.609022204772213E-3    4.075701495115703E-4   -2.626575928303804E-3    4.620205435729936E-4    1.661752207988580E-1    4.882087057751596E-1
 8.149695637600000E9     9.073273294316512E-3    5.393427146915808E-1   -2.617138038624474E-3    3.921329538034099E-4   -2.625154189535425E-3    4.301252083090841E-4    1.668459809159931E-1    4.880000526295899E-1
 8.149707088375000E9     9.737962342259475E-3    5.394854204991082E-1   -2.601289627451210E-3    4.338676929674122E-4   -2.630924836921421E-3    4.430727912333386E-4    1.674944218514888E-1    4.877576426680083E-1
 8.149718539150000E9     1.055741968311746E-2    5.395382541496839E-1   -2.627834149559234E-3    3.979816090327890E-4   -2.620605839234849E-3    4.288595449363438E-4    1.683170057809965E-1    4.874810419083315E-1
 8.149729989925000E9     1.143797461666283E-2    5.393728650402894E-1   -2.589544415445632E-3    4.040889623131976E-4   -2.640134847084221E-3    4.522567772996138E-4    1.688521041795565E-1    4.871097541315774E-1
 8.149741440700000E9     1.218110389362934E-2    5.394706189478679E-1   -2.605132591748383E-3    4.144820883306605E-4   -2.582216537853653E-3    4.650705639142470E-4    1.696427480625072E-1    4.869090099707557E-1
 8.149752891475000E9     1.302795087613747E-2    5.394380839611400E-1   -2.641560435698870E-3    4.045203905250784E-4   -2.624659573310069E-3    4.355514712907907E-4    1.702526864964221E-1    4.866014335436662E-1
 8.149764342250000E9     1.387563261753275E-2    5.393752863317453E-1   -2.586799328059362E-3    4.169385413298644E-4   -2.627161707237321E-3    4.764165436117589E-4    1.710393958676337E-1    4.862838881003088E-1
 8.149775793025000E9     1.464105071187438E-2    5.394504430409678E-1   -2.596878455435538E-3    4.324198731154204E-4   -2.620513497237149E-3    4.859521657375939E-4    1.716780844430490E-1    4.860138937875525E-1
 8.149787243800000E9     1.538847949156285E-2    5.394458077650672E-1   -2.615834389839687E-3    4.274064956504411E-4   -2.629287505876774E-3    4.490321532529489E-4    1.724759603911230E-1    4.858007227311215E-1
 8.149798694575000E9     1.620108443446936E-2    5.395824699968478E-1   -2.594760347387368E-3    4.320651380105742E-4   -2.629219694134446E-3    4.630338576731083E-4    1.731625563273294E-1    4.856291312566733E-1
 8.149810145350000E9     1.704860354911061E-2    5.394083697795135E-1   -2.608494935799185E-3    4.501461540140374E-4   -2.655225267667320E-3    4.884620555904082E-4    1.738274320087992E-1    4.854090066859003E-1
 8.149821596125000E9     1.787162641774985E-2    5.395122239694736E-1   -2.629031647129092E-3    4.197454688699516E-4   -2.644312738046330E-3    5.121811645411393E-4    1.745637132399236E-1    4.850608283625694E-1
 8.149833046900000E9     1.866481507954372E-2    5.394484883231028E-1   -2.606377380243695E-3    4.400143954764028E-4   -2.642701418732877E-3    4.945766218888501E-4    1.752093882806522E-1    4.848552200082596E-1
 8.149844497675000E9     1.948127181102718E-2    5.393929351875744E-1   -2.628544126879245E-3    4.715420211599211E-4   -2.647321485063956E-3    4.847966327453863E-4    1.759373286598065E-1    4.845019183134329E-1
 8.149855948450000E9     2.016482413692476E-2    5.392769638480985E-1   -2.631774570383730E-3    4.512934025361109E-4   -2.623520633067301E-3    4.885728721189496E-4    1.766169840140435E-1    4.842117784340481E-1
 8.149867399225000E9     2.103327970950508E-2    5.393310056382022E-1   -2.581222338401276E-3    4.308714829114526E-4   -2.626048618275788E-3    5.124564066446560E-4    1.772968046948629E-1    4.840893362601627E-1
 8.149878850000000E9     2.195916106190902E-2    5.393024885827117E-1   -2.612620868787776E-3    4.598902312719633E-4   -2.637475141269271E-3    5.096017879352827E-4    1.778882203278831E-1    4.837664652171093E-1
 8.149890300775000E9     2.265953694639462E-2    5.393490679977802E-1   -2.617893070632587E-3    4.756350905440144E-4   -2.623365506191091E-3    5.053009013635140E-4    1.786739108231506E-1    4.833776695812186E-1
 8.149901751550000E9     2.344092572235819E-2    5.392795610949225E-1   -2.597965761045140E-3    4.448043360522779E-4   -2.620797637402091E-3    5.329824871812728E-4    1.794720179783128E-1    4.832818915478038E-1
 8.149913202325000E9     2.427137558188526E-2    5.393707960096277E-1   -2.620713359415097E-3    4.820591332568826E-4   -2.610559314935590E-3    5.401172255462721E-4    1.800809908471377E-1    4.828984829971034E-1
 8.149924653100000E9     2.492646615319701E-2    5.393340672223081E-1   -2.604460632169754E-3    4.704709363265034E-4   -2.575913278919726E-3    5.333157980204472E-4    1.807720164141976E-1    4.826754246564730E-1
 8.149936103875000E9     2.560561415529397E-2    5.392692700964086E-1   -2.596392751926087E-3    4.659208535610099E-4   -2.615381769042358E-3    5.463207760091549E-4    1.815456489802328E-1    4.824473307078440E-1
 8.149947554650000E9     2.654649731978537E-2    5.392991386690483E-1   -2.617050346234902E-3    4.777427485624704E-4   -2.641952031353744E-3    5.443477186876216E-4    1.820798484932521E-1    4.821581978270763E-1
 8.149959005425000E9     2.747656588254872E-2    5.393096065525991E-1   -2.624952363077340E-3    4.841941644969020E-4   -2.621403504663626E-3    5.346786493215554E-4    1.828677233961589E-1    4.818780951313970E-1
 8.149970456200000E9     2.831287412291784E-2    5.392746473928288E-1   -2.610424698668971E-3    4.931965819443891E-4   -2.614531002470673E-3    5.633143991919903E-4    1.835093683899603E-1    4.815693959813647E-1
 8.149981906975000E9     2.904540734907000E-2    5.391604284665561E-1   -2.608443054516755E-3    5.183457441877848E-4   -2.609320308604111E-3    5.489234374551067E-4    1.841136074166118E-1    4.811860640078838E-1
 8.149993357750000E9     2.984312449102830E-2    5.391978132138703E-1   -2.602855991658525E-3    5.053457454893264E-4   -2.629431477716444E-3    5.405923690947514E-4    1.847217605747622E-1    4.810994249544777E-1
 8.150004808525000E9     3.065251314257182E-2    5.391926128328589E-1   -2.599805512631098E-3    5.197583311256901E-4   -2.610227732790194E-3    5.690300788108269E-4    1.855307856178810E-1    4.807503704398394E-1
 8.150016259300000E9     3.138064212149274E-2    5.391283526476547E-1   -2.617201253738288E-3    5.240716364224909E-4   -2.591395221352729E-3    5.527286882787084E-4    1.863100345987277E-1    4.805165899973515E-1
 8.150027710075000E9     3.225568982975344E-2    5.391909354293374E-1   -2.605784276210902E-3    5.037898373440573E-4   -2.615646439859916E-3    5.390164267528953E-4    1.869780662951623E-1    4.800777092224234E-1
 8.150039160850000E9     3.301640085801565E-2    5.391329188268882E-1   -2.611185021341036E-3    5.304961832891403E-4   -2.649451403473943E-3    5.747866525550422E-4    1.876800769671227E-1    4.799350201356588E-1
 8.150050611625000E9     3.381173385180843E-2    5.391309854254659E-1   -2.604629325365776E-3    5.065512681682477E-4   -2.614861656592689E-3    5.902044098802800E-4    1.882889498523324E-1    4.795680819186406E-1
 8.150062062400000E9     3.465730587880347E-2    5.390201370212715E-1   -2.607215605157249E-3    5.234744080916876E-4   -2.623616803636696E-3    5.906485026818744E-4    1.889767120815514E-1    4.792648252568853E-1
 8.150073513175000E9     3.551014215114724E-2    5.390127602582020E-1   -2.597662868108743E-3    5.169633323106039E-4   -2.611603976356602E-3    5.603423953388350E-4    1.897587618391275E-1    4.790376229358749E-1
 8.150084963950000E9     3.627104147584875E-2    5.389799468963496E-1   -2.604165170004569E-3    5.411520387720752E-4   -2.608399162520238E-3    5.821097562365656E-4    1.902765679282078E-1    4.786963538628294E-1
 8.150096414725000E9     3.707545712720210E-2    5.387600069005507E-1   -2.618350071642017E-3    5.615492289345528E-4   -2.631187881115519E-3    5.954584148495505E-4    1.910495909265129E-1    4.785562964372384E-1
 8.150107865500000E9     3.783115368255371E-2    5.388822608489016E-1   -2.585566949322862E-3    5.373550520654457E-4   -2.622033682161173E-3    5.681327450390093E-4    1.918902669378044E-1    4.783385818952359E-1
 8.150119316275000E9     3.858310203899339E-2    5.387562395337754E-1   -2.609380404800951E-3    5.507260239584241E-4   -2.607827566996632E-3    6.257479105431115E-4    1.924271015636269E-1    4.779678374412688E-1
 8.150130767050000E9     3.940506646490224E-2    5.388684392893482E-1   -2.577944438850508E-3    5.727138426817825E-4   -2.608675267751477E-3    5.945938165855361E-4    1.931039642249096E-1    4.776814738036108E-1
 8.150142217825000E9     4.022186637218629E-2    5.387501398102275E-1   -2.605973003356269E-3    5.328223579767107E-4   -2.616189136677932E-3    5.951033844843806E-4    1.938565168022583E-1    4.773718564673809E-1
 8.150153668600000E9     4.096498046533621E-2    5.387904636809967E-1   -2.585786682121934E-3    5.660430876897225E-4   -2.611975616621933E-3    5.882197222996423E-4    1.945243405342874E-1    4.769916784310069E-1
 8.150165119375000E9     4.187164866381851E-2    5.386748354947820E-1   -2.602585205395426E-3    5.504937784108539E-4   -2.640260402125111E-3    6.256650065926819E-4    1.951581216953343E-1    4.767942687951238E-1
 8.150176570150000E9     4.266661265417345E-2    5.385732810028002E-1   -2.588840210603795E-3    5.835182534629572E-4   -2.653420247743728E-3    6.117958413058137E-4    1.958326417886135E-1    4.764151433709065E-1
 8.150188020925000E9     4.340401324126077E-2    5.386238344371667E-1   -2.613375441056743E-3    5.789201073695076E-4   -2.631671619531637E-3    6.372969973165812E-4    1.966082948396109E-1    4.762063197739863E-1
 8.150199471700000E9     4.415978648960803E-2    5.385077902497015E-1   -2.603704714182008E-3    6.038415489366833E-4   -2.622846589343256E-3    6.340438262310539E-4    1.972729388874463E-1    4.759233623652330E-1
 8.150210922475000E9     4.495745848546293E-2    5.384068354295608E-1   -2.625978945592531E-3    5.929360353929197E-4   -2.603702059009598E-3    6.391445416397641E-4    1.978742043718410E-1    4.755628423630843E-1
 8.150222373250000E9     4.572388748600269E-2    5.384064032162630E-1   -2.595349327893067E-3    5.864975595503263E-4   -2.605752990276768E-3    6.529604807085293E-4    1.986012282682692E-1    4.752491954832688E-1
 8.150233824025000E9     4.668465603854013E-2    5.385174805925074E-1   -2.598123477253208E-3    5.975232946979760E-4   -2.628941216682632E-3    6.086370076241042E-4    1.993705132230968E-1    4.748987777122994E-1
 8.150245274800000E9     4.750982034348104E-2    5.384407240434732E-1   -2.613074482958317E-3    5.717589229099231E-4   -2.612556896133753E-3    6.263794201105880E-4    1.998094228997621E-1    4.746623584899228E-1
 8.150256725575000E9     4.824929025122068E-2    5.383349775313028E-1   -2.618167929011940E-3    5.769402191207178E-4   -2.619433269732665E-3    6.319940063121243E-4    2.006436495365909E-1    4.743582589405935E-1
 8.150268176350000E9     4.904797654453548E-2    5.382611728747135E-1   -2.597397276574062E-3    6.083820883201755E-4   -2.607938728140823E-3    6.442005471678961E-4    2.011547873401302E-1    4.741358806248560E-1
 8.150279627125000E9     4.973163907026155E-2    5.382409734005421E-1   -2.599889074610044E-3    6.085768413283180E-4   -2.614470039204228E-3    6.692539931117287E-4    2.019927244955368E-1    4.736655799207077E-1
 8.150291077900000E9     5.060109115533537E-2    5.382213695261552E-1   -2.617665118828287E-3    6.077223830769542E-4   -2.651060605389463E-3    6.861029548483195E-4    2.025649344295327E-1    4.734740652531616E-1
 8.150302528675000E9     5.144642487460273E-2    5.379813711143376E-1   -2.574958900674183E-3    6.194886352274437E-4   -2.629337364638468E-3    6.929985587688885E-4    2.034051050130084E-1    4.730151919146841E-1
 8.150313979450000E9     5.218504958657583E-2    5.380029063573110E-1   -2.618350538314076E-3    6.384408703098679E-4   -2.634801741954314E-3    6.713889622850085E-4    2.038860507526489E-1    4.728074303284829E-1
 8.150325430225000E9     5.297258794488095E-2    5.381701490881530E-1   -2.584175344854435E-3    6.338806265479609E-4   -2.625927209334391E-3    6.669121166490106E-4    2.046718762311319E-1    4.724112063364602E-1
 8.150336881000000E9     5.378948221347307E-2    5.379059935435831E-1   -2.629810990595259E-3    6.355020491373184E-4   -2.646726769193313E-3    6.702707674757414E-4    2.053309424416959E-1    4.722088517696088E-1
 8.150348331775000E9     5.458108439961010E-2    5.378265853419931E-1   -2.617337057367626E-3    6.771349438257702E-4   -2.628271661957650E-3    6.813366846564958E-4    2.060207194491854E-1    4.718876619308490E-1
 8.150359782550000E9     5.556325519381417E-2    5.378161777488658E-1   -2.651890475712820E-3    6.544968890521572E-4   -2.616901769299111E-3    7.057019912726592E-4    2.067124877572973E-1    4.717020265529036E-1
 8.150371233325000E9     5.613797892974807E-2    5.377361065206047E-1   -2.586555813448732E-3    6.497942376414606E-4   -2.644224986076104E-3    7.009270124060412E-4    2.073329413635312E-1    4.712562241721163E-1
 8.150382684100000E9     5.702500081414359E-2    5.376345023185702E-1   -2.577131535186057E-3    6.872577007584336E-4   -2.648404318860168E-3    7.142338130877052E-4    2.080712216678532E-1    4.708091589442330E-1
 8.150394134875000E9     5.798382523833297E-2    5.375507529592556E-1   -2.586740098402338E-3    6.554902171122195E-4   -2.641207603501552E-3    7.219936281007785E-4    2.087814218186442E-1    4.705664551860336E-1
 8.150405585650000E9     5.864011150499208E-2    5.374780415296376E-1   -2.615117436080521E-3    6.689610232703986E-4   -2.643924650083432E-3    7.490078857711886E-4    2.093899888263604E-1    4.703444833832654E-1
 8.150417036425000E9     5.939215538698409E-2    5.374637809298831E-1   -2.586904826759540E-3    6.517774737052855E-4   -2.630199912201819E-3    7.430581487094988E-4    2.101174628577166E-1    4.700660551673821E-1
 8.150428487200000E9     6.021625974423459E-2    5.373866552434243E-1   -2.598446698806443E-3    6.599331097752812E-4   -2.620813209540261E-3    7.124725116962178E-4    2.107120456585216E-1    4.696039006106043E-1
 8.150439937975000E9     6.107363494785044E-2    5.372267120354206E-1   -2.620740208575106E-3    6.590244627337126E-4   -2.616369946730318E-3    7.365680427070224E-4    2.113406206801531E-1    4.693502167800269E-1
 8.150451388750000E9     6.175554188729363E-2    5.372597671366794E-1   -2.612335853049618E-3    6.582123352314517E-4   -2.625015972171323E-3    7.353110243414367E-4    2.120029658941898E-1    4.692418556524848E-1
