#  HZ   S   RI   R     50.00 
! Rohde & Schwarz Vector Network Analyzer 
! Rohde-Schwarz,ZNB20-2Port,1311601062101988,3.16
! Created: UTC 3/21/2024, 12:51:13 AM
! freq[Hz]                re:S11                  im:S11                  re:S21                  im:S21                  re:S12                  im:S12                  re:S22                  im:S22
 8.151404505000000E9     1.359899286762280E-1    5.265445795728732E-1   -3.124112399178673E-3    1.389657518507335E-3   -3.120541632023143E-3    1.455212957650249E-3    2.769532507054079E-1    4.330698957996011E-1
 8.151406084450000E9     1.360467362533814E-1    5.265892340626503E-1   -3.129360880382768E-3    1.409788803481363E-3   -3.129768643982715E-3    1.460838960444743E-3    2.771247141846336E-1    4.331732454305848E-1
 8.151407663900000E9     1.361564512043827E-1    5.267170265462167E-1   -3.184070127026162E-3    1.402370256760004E-3   -3.149299822765357E-3    1.469533755741368E-3    2.772288427382565E-1    4.330384028849374E-1
 8.151409243350000E9     1.362991565595704E-1    5.265812138364968E-1   -3.136169830808095E-3    1.430830747092855E-3   -3.127647623036896E-3    1.476995000464689E-3    2.771351195038139E-1    4.329315380095878E-1
 8.151410822800000E9     1.364084913587980E-1    5.265452078630178E-1   -3.135116577014943E-3    1.412124185402825E-3   -3.147470979173771E-3    1.465836712085960E-3    2.774292880217796E-1    4.327922786664917E-1
 8.151412402250000E9     1.366597292801153E-1    5.264842408327520E-1   -3.181442742889133E-3    1.396736355324744E-3   -3.132526915878284E-3    1.477205643621721E-3    2.772714986192238E-1    4.328906520646748E-1
 8.151413981700000E9     1.367502564696464E-1    5.263715027392829E-1   -3.142586814540349E-3    1.406734827829950E-3   -3.128070179676501E-3    1.491612750122240E-3    2.775061641726053E-1    4.327468618118049E-1
 8.151415561150000E9     1.369086975814693E-1    5.264287223996177E-1   -3.131799479782040E-3    1.420799533020975E-3   -3.173356575088570E-3    1.476779362063608E-3    2.775515924522073E-1    4.326265016493091E-1
 8.151417140600000E9     1.370552609418937E-1    5.264477664646777E-1   -3.158005857846379E-3    1.393018563971638E-3   -3.164796640562582E-3    1.496203481638103E-3    2.777292995877967E-1    4.326582317026378E-1
 8.151418720050000E9     1.371620321827224E-1    5.263202725122874E-1   -3.167091747838125E-3    1.438656743196543E-3   -3.143134673140193E-3    1.503246373927006E-3    2.776966111736568E-1    4.325849727518737E-1
 8.151420299500000E9     1.374331152954949E-1    5.263067597085653E-1   -3.171794379501001E-3    1.424872821048009E-3   -3.160407761994882E-3    1.470338677974769E-3    2.776669254621925E-1    4.325121684013385E-1
 8.151421878950000E9     1.374671371674000E-1    5.263103872460637E-1   -3.159105514957240E-3    1.430315724442730E-3   -3.138613887334606E-3    1.477666210817137E-3    2.779240000154579E-1    4.324594906458856E-1
 8.151423458400000E9     1.374598418698087E-1    5.262628976141002E-1   -3.186927713094095E-3    1.431911100250767E-3   -3.177073279296408E-3    1.511483303916302E-3    2.779594436308174E-1    4.323255079268473E-1
 8.151425037850000E9     1.377453338121994E-1    5.262836684923425E-1   -3.161028001394136E-3    1.439842461607744E-3   -3.204432469758918E-3    1.488880349795022E-3    2.780061637217531E-1    4.322995783509065E-1
 8.151426617300000E9     1.379127471664509E-1    5.260905943580529E-1   -3.183558559385857E-3    1.434666295822480E-3   -3.165516112802670E-3    1.506878239650884E-3    2.781057470684055E-1    4.322804769349663E-1
 8.151428196750000E9     1.379506339921803E-1    5.261545495434644E-1   -3.186036644758784E-3    1.459396693679298E-3   -3.182645953672972E-3    1.502218281260488E-3    2.783536419566515E-1    4.322349556951686E-1
 8.151429776200000E9     1.381314535612923E-1    5.260517895702227E-1   -3.192951019309495E-3    1.455225821098582E-3   -3.207118654097446E-3    1.502473039985047E-3    2.782650757381095E-1    4.321773146416906E-1
 8.151431355650000E9     1.382413335046844E-1    5.260746742574792E-1   -3.159490108988557E-3    1.446389148031563E-3   -3.222607083183980E-3    1.537278417499755E-3    2.785893347503051E-1    4.321730505511247E-1
 8.151432935100000E9     1.384025193624162E-1    5.260363297101045E-1   -3.195868825427302E-3    1.451269608364676E-3   -3.209839559272432E-3    1.520909911509835E-3    2.785273036564563E-1    4.319386213690293E-1
 8.151434514550000E9     1.385598857409727E-1    5.259149360494214E-1   -3.209321387441278E-3    1.478099992590887E-3   -3.209125426889032E-3    1.562100281634528E-3    2.785055684252630E-1    4.319489176336065E-1
 8.151436094000000E9     1.387578525088055E-1    5.259547423890638E-1   -3.226332199481966E-3    1.475947926902763E-3   -3.207366953312075E-3    1.528517264820596E-3    2.786342805716414E-1    4.319464721253795E-1
 8.151437673450000E9     1.388252858492808E-1    5.258499707241706E-1   -3.186245580209577E-3    1.462941514596161E-3   -3.172525109422941E-3    1.568011391065815E-3    2.786119024728877E-1    4.318842898071664E-1
 8.151439252900000E9     1.388899316777996E-1    5.259054908813275E-1   -3.211781971598254E-3    1.474660737165406E-3   -3.223769303622070E-3    1.547495787107874E-3    2.788212652660617E-1    4.318547093495428E-1
 8.151440832350000E9     1.389932316516578E-1    5.257949878142127E-1   -3.220961804083452E-3    1.472688502390572E-3   -3.199521380871561E-3    1.504222857715545E-3    2.790470758852724E-1    4.317973682468607E-1
 8.151442411800000E9     1.392701139094250E-1    5.258800003435943E-1   -3.236672111266685E-3    1.500858551602875E-3   -3.208467759684789E-3    1.558641571064659E-3    2.791444904841560E-1    4.317022872016100E-1
 8.151443991250000E9     1.393904645076371E-1    5.258059742675589E-1   -3.247148098031727E-3    1.497557504536832E-3   -3.242154491425826E-3    1.553152664228103E-3    2.791645596219499E-1    4.316523232277422E-1
 8.151445570700000E9     1.395020066374963E-1    5.256898025071736E-1   -3.215127919587935E-3    1.494578437536903E-3   -3.242365875147857E-3    1.534518756442735E-3    2.792409954889661E-1    4.317062146176315E-1
 8.151447150150000E9     1.396161826346229E-1    5.256193115034040E-1   -3.244446146463016E-3    1.485581090749219E-3   -3.232246085247059E-3    1.542427330901724E-3    2.792117201158281E-1    4.316000144683343E-1
 8.151448729600000E9     1.397402271795407E-1    5.256724302793130E-1   -3.218529887145057E-3    1.506019475063213E-3   -3.256425673996258E-3    1.567810398936899E-3    2.792424009784611E-1    4.315301478887989E-1
 8.151450309050000E9     1.397883442149457E-1    5.256269552909724E-1   -3.227867299504503E-3    1.499960739264220E-3   -3.270102812283575E-3    1.571905212288010E-3    2.794603568949997E-1    4.314214777135993E-1
 8.151451888500000E9     1.399441987871378E-1    5.255944846940931E-1   -3.260122666927974E-3    1.489213547251618E-3   -3.234906374356954E-3    1.586710260955679E-3    2.796567639313921E-1    4.313380465362180E-1
 8.151453467950000E9     1.400877584177725E-1    5.255364690882237E-1   -3.239391701400360E-3    1.527602962566794E-3   -3.244579016244779E-3    1.566118599633528E-3    2.795080810634861E-1    4.312202511978107E-1
 8.151455047400000E9     1.402316873895793E-1    5.255099256445733E-1   -3.234712196048879E-3    1.511640576438234E-3   -3.254991515666674E-3    1.572867358048427E-3    2.797677480764608E-1    4.313282426741961E-1
 8.151456626850000E9     1.403503635791972E-1    5.255160413576596E-1   -3.252893351637376E-3    1.529853224690348E-3   -3.239055119005347E-3    1.577009343303505E-3    2.800336836829236E-1    4.310825391265046E-1
 8.151458206300000E9     1.405669979270634E-1    5.253415971817329E-1   -3.257285163610308E-3    1.552842967086227E-3   -3.290037032033938E-3    1.605827541921821E-3    2.798267581804312E-1    4.310635487719192E-1
 8.151459785750000E9     1.407643534715043E-1    5.253571803947161E-1   -3.271425449680857E-3    1.531964536148007E-3   -3.292761136789564E-3    1.603182575747969E-3    2.800133646185292E-1    4.310508308254805E-1
 8.151461365200000E9     1.408217584675235E-1    5.253561273503907E-1   -3.273577160289728E-3    1.527389863997245E-3   -3.278002410814227E-3    1.616906667804907E-3    2.801995660385521E-1    4.311612810945332E-1
 8.151462944650000E9     1.409738140618526E-1    5.252446405414045E-1   -3.309727278331968E-3    1.542780019439075E-3   -3.298305504031858E-3    1.626831027467558E-3    2.801224934391130E-1    4.309794456564118E-1
 8.151464524100000E9     1.411074973208358E-1    5.252394909705170E-1   -3.295275818348267E-3    1.539169858261122E-3   -3.294144243323494E-3    1.618826589568857E-3    2.801463354463835E-1    4.308164534349860E-1
 8.151466103550000E9     1.411560685446019E-1    5.252355286082110E-1   -3.260648126762182E-3    1.548248590784820E-3   -3.303546672565478E-3    1.633360919587639E-3    2.802519040619743E-1    4.309167089206372E-1
 8.151467683000000E9     1.412782073809617E-1    5.251863530631866E-1   -3.306316592994056E-3    1.548077141945250E-3   -3.266981902354959E-3    1.612020383066672E-3    2.805331502728385E-1    4.306563031593469E-1
 8.151469262450000E9     1.415164693479458E-1    5.250314227544938E-1   -3.298023816211765E-3    1.536415364639547E-3   -3.327320169336068E-3    1.612750404955261E-3    2.805143760618455E-1    4.308187320802376E-1
 8.151470841900000E9     1.417504944723763E-1    5.250166893324876E-1   -3.302998565742238E-3    1.572494876293450E-3   -3.330392497573344E-3    1.629362307280653E-3    2.806315990835296E-1    4.306525066808955E-1
 8.151472421350000E9     1.418791795580241E-1    5.250808936105852E-1   -3.297210415950418E-3    1.584197816698857E-3   -3.322804380335237E-3    1.603140839751891E-3    2.805885284493373E-1    4.307145062059499E-1
 8.151474000800000E9     1.419991821835042E-1    5.249284438647475E-1   -3.314743557728022E-3    1.568379809962213E-3   -3.323317200995590E-3    1.625732957020873E-3    2.808119033886596E-1    4.305638168053804E-1
 8.151475580250000E9     1.420250551488864E-1    5.249783177553374E-1   -3.332390935421603E-3    1.575449058088040E-3   -3.319270024216510E-3    1.624348929265072E-3    2.809362932334542E-1    4.305547022514077E-1
 8.151477159700000E9     1.421990298065688E-1    5.249283128287672E-1   -3.327522390481955E-3    1.614709918675429E-3   -3.321106864060392E-3    1.642381656491532E-3    2.809569513490801E-1    4.303907345139277E-1
 8.151478739150000E9     1.423641456863941E-1    5.249918340083422E-1   -3.333111034700483E-3    1.575474396655254E-3   -3.316123053140506E-3    1.672203272469062E-3    2.810113978786867E-1    4.304195922384361E-1
 8.151480318600000E9     1.425253566196612E-1    5.248783939988061E-1   -3.353301112624420E-3    1.592026872813128E-3   -3.368017152118037E-3    1.657976403038391E-3    2.810909558451876E-1    4.302513095422109E-1
 8.151481898050000E9     1.426499061713387E-1    5.248541022450181E-1   -3.331224188517810E-3    1.614019815104888E-3   -3.336074507568581E-3    1.669548391735933E-3    2.811169173225228E-1    4.302516651078716E-1
 8.151483477500000E9     1.427472216651935E-1    5.247985557593217E-1   -3.358763464207842E-3    1.612229376147045E-3   -3.355421667507785E-3    1.689901758166641E-3    2.813295207853296E-1    4.301619584175876E-1
 8.151485056950000E9     1.430195435973401E-1    5.247817613860299E-1   -3.347900880781649E-3    1.623787697266552E-3   -3.387308034249729E-3    1.659186952752554E-3    2.813335837949726E-1    4.302811902776945E-1
 8.151486636400000E9     1.431443320185404E-1    5.247283322563313E-1   -3.364909747175342E-3    1.613291065758922E-3   -3.415878908919124E-3    1.691232865214370E-3    2.814584984729792E-1    4.302105911695431E-1
 8.151488215850000E9     1.431253476083158E-1    5.247264066895864E-1   -3.369850318296653E-3    1.621368945690424E-3   -3.356460882574471E-3    1.707876823416972E-3    2.815067378128877E-1    4.300700686980671E-1
 8.151489795300000E9     1.432888497552182E-1    5.246027311167115E-1   -3.386670182415798E-3    1.622478296595121E-3   -3.409005158589615E-3    1.728370861301825E-3    2.815586253512008E-1    4.300466779518454E-1
 8.151491374750000E9     1.434892702119736E-1    5.245900081818364E-1   -3.407981872036317E-3    1.629221132688997E-3   -3.361360674816736E-3    1.718607160959359E-3    2.817105140956555E-1    4.298788489022221E-1
 8.151492954200000E9     1.436425918168473E-1    5.244610055585993E-1   -3.396537956072056E-3    1.665316101533805E-3   -3.434407962902517E-3    1.707591225462467E-3    2.818289570338773E-1    4.297984277890713E-1
 8.151494533650000E9     1.438129381018567E-1    5.244506342909161E-1   -3.383446237189257E-3    1.641043301970912E-3   -3.384409462958986E-3    1.712832424144907E-3    2.817794343954468E-1    4.298166192932401E-1
 8.151496113100000E9     1.439691324049972E-1    5.244911442433350E-1   -3.405950766359275E-3    1.654147323351059E-3   -3.406125016172220E-3    1.727052157364873E-3    2.819370306980245E-1    4.298354189952304E-1
 8.151497692550000E9     1.440686599532607E-1    5.243403874499232E-1   -3.419999605744956E-3    1.648150598842179E-3   -3.421668442510719E-3    1.714410405665816E-3    2.820037100522676E-1    4.296321336808291E-1
 8.151499272000000E9     1.443753215415095E-1    5.243005634051022E-1   -3.420486578989338E-3    1.678715404190941E-3   -3.435267689869603E-3    1.737505982593219E-3    2.822126311670857E-1    4.295038799944551E-1
 8.151500851450000E9     1.445007241952691E-1    5.243092985733513E-1   -3.421670809794463E-3    1.680359752500522E-3   -3.432418918860179E-3    1.717560366425093E-3    2.822194281802476E-1    4.295268339156928E-1
 8.151502430900000E9     1.446127713079422E-1    5.242292274492821E-1   -3.431085337249514E-3    1.674681797863401E-3   -3.427384253082443E-3    1.755974110665108E-3    2.822269222830703E-1    4.295473123695703E-1
 8.151504010350000E9     1.446814613644931E-1    5.242636768182011E-1   -3.428230475614797E-3    1.704132462711293E-3   -3.414850933987140E-3    1.725723542433253E-3    2.822909714856113E-1    4.294494363510683E-1
 8.151505589800000E9     1.448891330188646E-1    5.242150502257413E-1   -3.412638967641798E-3    1.695129505191698E-3   -3.458146918763263E-3    1.759646333928923E-3    2.824039510454713E-1    4.292285184146389E-1
 8.151507169250000E9     1.448823718000793E-1    5.241461042760334E-1   -3.462227764951691E-3    1.701707364779251E-3   -3.457065661297566E-3    1.750157806877905E-3    2.825248493622797E-1    4.293384846888318E-1
 8.151508748700000E9     1.450151959302306E-1    5.241188555907478E-1   -3.450536774038288E-3    1.723644752295644E-3   -3.473336997955482E-3    1.772245813259061E-3    2.825358944925255E-1    4.293345180374540E-1
 8.151510328150000E9     1.452902039221410E-1    5.239604138886099E-1   -3.463993555253403E-3    1.729168682029571E-3   -3.448464480128394E-3    1.769509235750480E-3    2.827243872165107E-1    4.292530675928086E-1
 8.151511907600000E9     1.453907163352607E-1    5.240415055090660E-1   -3.450807689108104E-3    1.714118941896369E-3   -3.485851008840603E-3    1.784692187968110E-3    2.827862304763366E-1    4.291468775831272E-1
 8.151513487050000E9     1.455324204013024E-1    5.239687867738749E-1   -3.468859254917994E-3    1.691530982816259E-3   -3.505095563291302E-3    1.824687248416077E-3    2.829125766555050E-1    4.290710273560880E-1
 8.151515066500000E9     1.455943091319908E-1    5.238757722922044E-1   -3.505437094178531E-3    1.740869374239875E-3   -3.531698606928626E-3    1.802072560645871E-3    2.828156100946544E-1    4.290105124782417E-1
 8.151516645950000E9     1.458846888175274E-1    5.238940947754087E-1   -3.515645341324276E-3    1.716545916172346E-3   -3.503138870474277E-3    1.816479326980109E-3    2.828659000446827E-1    4.289565955250697E-1
 8.151518225400000E9     1.459824454151358E-1    5.237930555543066E-1   -3.503863984809176E-3    1.763294197800474E-3   -3.531720024780851E-3    1.811104141411568E-3    2.830774550636941E-1    4.289252552843211E-1
 8.151519804850000E9     1.461690393737735E-1    5.237172613826969E-1   -3.528006921170088E-3    1.742613520931351E-3   -3.513481663676631E-3    1.843457602064309E-3    2.831862605665688E-1    4.288271005842456E-1
 8.151521384300000E9     1.463419513427901E-1    5.236304857364080E-1   -3.542230004123386E-3    1.779217347170770E-3   -3.520502979836471E-3    1.823372600997882E-3    2.832668010115433E-1    4.288110138070814E-1
 8.151522963750000E9     1.465398548875158E-1    5.236106960062444E-1   -3.509172974782583E-3    1.779865650494483E-3   -3.556011178793105E-3    1.841148260569448E-3    2.834016587607520E-1    4.287738588562378E-1
 8.151524543200000E9     1.466166481580468E-1    5.235044869802771E-1   -3.548570916310292E-3    1.785324647792872E-3   -3.544291123259291E-3    1.854746119283549E-3    2.834318842440235E-1    4.285599223221002E-1
 8.151526122650000E9     1.468420199439169E-1    5.234234711355283E-1   -3.548096894035661E-3    1.787652681260434E-3   -3.562085495508753E-3    1.833115881430160E-3    2.836571465345162E-1    4.285604011007774E-1
 8.151527702100000E9     1.469835365713623E-1    5.234035867826352E-1   -3.552090753304731E-3    1.813809626384278E-3   -3.547717334457135E-3    1.874266676466505E-3    2.836365194190964E-1    4.285733361163211E-1
 8.151529281550000E9     1.471351400532770E-1    5.233688384825280E-1   -3.574633168600279E-3    1.813479976307254E-3   -3.568793186540798E-3    1.882597107092947E-3    2.837189023464035E-1    4.284247959403411E-1
 8.151530861000000E9     1.472973287292914E-1    5.232724768045639E-1   -3.578213532206160E-3    1.797850733485190E-3   -3.568008497642090E-3    1.863307416908004E-3    2.837673786975247E-1    4.284653723505699E-1
 8.151532440450000E9     1.474312223960154E-1    5.232273903683876E-1   -3.578733575436317E-3    1.822025467311805E-3   -3.574761729613549E-3    1.882144385336524E-3    2.839019541621061E-1    4.283918144760213E-1
 8.151534019900000E9     1.476136250624259E-1    5.231743630057133E-1   -3.586576855084166E-3    1.810042800891973E-3   -3.621184520508461E-3    1.912003201728412E-3    2.839562667202976E-1    4.282373459291676E-1
 8.151535599350000E9     1.477042853793033E-1    5.231666913419593E-1   -3.600841767353276E-3    1.823785110014482E-3   -3.571326951249017E-3    1.883342118139716E-3    2.840834421892252E-1    4.281343538387558E-1
 8.151537178800000E9     1.479658334923157E-1    5.231171725720223E-1   -3.597390026710245E-3    1.859300732868405E-3   -3.617253234524234E-3    1.915775063581286E-3    2.841509086917900E-1    4.281712162967540E-1
 8.151538758250000E9     1.480515096092119E-1    5.230223728616585E-1   -3.611531842296038E-3    1.874551362452191E-3   -3.618091585834310E-3    1.929624573308933E-3    2.841903901164399E-1    4.281231574014651E-1
 8.151540337700000E9     1.482633921839107E-1    5.229958938898658E-1   -3.649603360141765E-3    1.846050338696470E-3   -3.650408690923706E-3    1.914921822020359E-3    2.844044486288238E-1    4.280844971885405E-1
 8.151541917150000E9     1.483590982533249E-1    5.228174147434368E-1   -3.648449642067060E-3    1.846709113650439E-3   -3.654471976033250E-3    1.973730042038960E-3    2.844286499863014E-1    4.280959959949108E-1
 8.151543496600000E9     1.485861263085300E-1    5.227967041328864E-1   -3.656570898273996E-3    1.885858305531572E-3   -3.660739076486271E-3    1.948384450013888E-3    2.844803150763342E-1    4.279820168681875E-1
 8.151545076050000E9     1.487829699241024E-1    5.227980327255884E-1   -3.657348440677799E-3    1.894081389775538E-3   -3.656824669578688E-3    1.976058268286519E-3    2.845521224235213E-1    4.278826587621824E-1
 8.151546655500000E9     1.488673525095112E-1    5.226796391562467E-1   -3.673123210264403E-3    1.906126120734552E-3   -3.666290143100753E-3    1.976303145076127E-3    2.846670071158500E-1    4.278836780204582E-1
