#  HZ   S   RI   R     50.00 
! Rohde & Schwarz Vector Network Analyzer 
! Rohde-Schwarz,ZNB20-2Port,1311601062101988,3.16
! Created: UTC 3/21/2024, 1:00:42 AM
! freq[Hz]                re:S11                  im:S11                  re:S21                  im:S21                  re:S12                  im:S12                  re:S22                  im:S22
 8.149395588000000E9    -1.220233913524358E-2    5.389119558233848E-1   -2.599860121885561E-3    2.859154739296060E-4   -2.620859241015227E-3    3.411164258873923E-4    1.482526710531344E-1    4.938453858648537E-1
 8.149407169000000E9    -1.142123597429964E-2    5.389121454643725E-1   -2.639632900559601E-3    2.894770619706579E-4   -2.636203482877790E-3    3.423621769596976E-4    1.488717135599146E-1    4.937546406747479E-1
 8.149418750000000E9    -1.058775613212879E-2    5.389959629394476E-1   -2.604660231379413E-3    2.801069745847307E-4   -2.619724647646583E-3    3.553492592775749E-4    1.497008897160196E-1    4.936143178493763E-1
 8.149430331000000E9    -9.726304202229469E-3    5.388472756220497E-1   -2.633759940581280E-3    2.880990097939139E-4   -2.650256953334857E-3    3.555460638163160E-4    1.503533278749464E-1    4.933994737186216E-1
 8.149441912000000E9    -8.888390377058700E-3    5.390731930853041E-1   -2.631169586425525E-3    3.104241863558556E-4   -2.673386095822477E-3    3.733813134534615E-4    1.511207451042369E-1    4.931896739526151E-1
 8.149453493000000E9    -8.080569030580596E-3    5.391564506136014E-1   -2.622222642739665E-3    2.984854986592483E-4   -2.655396222758788E-3    3.416752372107777E-4    1.518873022554497E-1    4.929331972968237E-1
 8.149465074000000E9    -7.315102058163884E-3    5.390755781574982E-1   -2.598327005788184E-3    3.339927900690402E-4   -2.616726843148280E-3    3.356760249251487E-4    1.525634182920778E-1    4.926177727803636E-1
 8.149476655000000E9    -6.506443113786254E-3    5.390643288230492E-1   -2.611736420705933E-3    3.114089720757896E-4   -2.656755347113711E-3    3.661024714027580E-4    1.532492607476792E-1    4.924150439043636E-1
 8.149488236000000E9    -5.591089484409009E-3    5.390723320108428E-1   -2.609864330456866E-3    2.986311133340755E-4   -2.624787769737187E-3    3.814534469031407E-4    1.539326186173825E-1    4.922039256985296E-1
 8.149499817000000E9    -4.841481494199526E-3    5.391687444913891E-1   -2.627825161451442E-3    3.025680980377394E-4   -2.629546108050206E-3    3.598065264209229E-4    1.548094806008113E-1    4.919883608082082E-1
 8.149511398000000E9    -4.039325470709382E-3    5.391511793313465E-1   -2.621164968581176E-3    3.267236940088581E-4   -2.615487670078936E-3    3.780310639590461E-4    1.553372350080770E-1    4.916555541934954E-1
 8.149522979000000E9    -3.060900811318744E-3    5.390596572486015E-1   -2.598226011581257E-3    3.316297431217535E-4   -2.619157535675862E-3    3.932646121425700E-4    1.560687478664099E-1    4.914442484936580E-1
 8.149534560000000E9    -2.413982652629672E-3    5.392886591621278E-1   -2.627063794983918E-3    3.180192922148738E-4   -2.648497155678881E-3    3.961149180828976E-4    1.568589284765450E-1    4.913887003039806E-1
 8.149546141000000E9    -1.803731926610016E-3    5.392286799241083E-1   -2.605591688465639E-3    3.232936466937792E-4   -2.640560303704366E-3    3.914199053166000E-4    1.576750377018001E-1    4.910183716437623E-1
 8.149557722000000E9    -7.696839811594668E-4    5.392274269966058E-1   -2.602209008739110E-3    3.433208819167118E-4   -2.636825611028300E-3    3.949941525659893E-4    1.582966289739350E-1    4.908069521686890E-1
 8.149569303000000E9     4.924538901062776E-5    5.391794128182499E-1   -2.603358513551027E-3    3.509117421549548E-4   -2.635884393701207E-3    3.723115581530968E-4    1.589997350099636E-1    4.904818798883575E-1
 8.149580884000000E9     7.954126362606037E-4    5.391702601078666E-1   -2.595642667402939E-3    3.752819929308736E-4   -2.632970778690325E-3    4.172319207030371E-4    1.598033377104307E-1    4.902833262577380E-1
 8.149592465000000E9     1.601851727031292E-3    5.393563002712628E-1   -2.608987508190595E-3    3.594749155069193E-4   -2.610888064967254E-3    4.169011636629526E-4    1.603417495336502E-1    4.900963769946716E-1
 8.149604046000000E9     2.474235475849499E-3    5.393239726296014E-1   -2.585544169519410E-3    3.665590276794951E-4   -2.609153370291536E-3    4.033124203632446E-4    1.610545738668833E-1    4.897087795967681E-1
 8.149615627000000E9     3.262603362482888E-3    5.393124789018441E-1   -2.618088532251271E-3    3.687937711865738E-4   -2.648420342498310E-3    3.887384885505333E-4    1.616494324447411E-1    4.895003346461819E-1
 8.149627208000000E9     3.976211145148782E-3    5.393292860407755E-1   -2.615790436168913E-3    3.574502019503211E-4   -2.626571769807523E-3    4.412223441537013E-4    1.625525474075458E-1    4.891482853793766E-1
 8.149638789000000E9     4.865930688111444E-3    5.393767368158339E-1   -2.591685596939369E-3    3.915421684976807E-4   -2.616565155195432E-3    4.186058214977786E-4    1.632542109291330E-1    4.889760424096015E-1
 8.149650370000000E9     5.755861101532558E-3    5.394057034039631E-1   -2.634221877948918E-3    3.642295477486105E-4   -2.629080105719339E-3    4.369998989312048E-4    1.639204392206659E-1    4.887792408703991E-1
 8.149661951000000E9     6.378355003625849E-3    5.392736924458411E-1   -2.629954638983726E-3    3.674169050555535E-4   -2.635801695466309E-3    4.043718339022115E-4    1.646661172414746E-1    4.884814482028362E-1
 8.149673532000000E9     7.323414222638462E-3    5.394343234784306E-1   -2.617330250496543E-3    3.527401571860408E-4   -2.622598265593957E-3    4.509268021449418E-4    1.653997743709296E-1    4.882770466500299E-1
 8.149685113000000E9     8.169874845569925E-3    5.393019387553314E-1   -2.611019848864437E-3    3.823740809976844E-4   -2.630656406615055E-3    4.481563764025335E-4    1.661078764953811E-1    4.880480415625215E-1
 8.149696694000000E9     8.931023752264497E-3    5.393924039298627E-1   -2.588846217791912E-3    3.756558957537969E-4   -2.640625753231856E-3    4.304755277962741E-4    1.668897811146850E-1    4.877937852345317E-1
 8.149708275000000E9     9.735194654783038E-3    5.394163138176541E-1   -2.619555739825348E-3    3.995814124045633E-4   -2.635026293705954E-3    4.276701157626851E-4    1.674984803248261E-1    4.875671976262905E-1
 8.149719856000000E9     1.054644731472024E-2    5.393177786446938E-1   -2.625089766310535E-3    4.113381048362222E-4   -2.647150417242214E-3    4.562672043528586E-4    1.682523655825628E-1    4.872361388180458E-1
 8.149731437000000E9     1.142336891625740E-2    5.394413173178838E-1   -2.596610022170192E-3    3.981135832210995E-4   -2.629583363310965E-3    4.362062214784254E-4    1.689367513561643E-1    4.870031080057677E-1
 8.149743018000000E9     1.223292954021726E-2    5.393516757440300E-1   -2.630139085428357E-3    4.190337735774561E-4   -2.613164322439422E-3    4.999623979680777E-4    1.697227652192083E-1    4.867104370186345E-1
 8.149754599000000E9     1.308354506762415E-2    5.393425759445203E-1   -2.617338256394295E-3    4.123999990245962E-4   -2.652637042821879E-3    4.770886286849691E-4    1.703636516195794E-1    4.864544981435173E-1
 8.149766180000000E9     1.388609135630420E-2    5.394608684474007E-1   -2.588764732790387E-3    4.067204254706305E-4   -2.682638196601536E-3    4.467017324112181E-4    1.710519303651196E-1    4.862007651156963E-1
 8.149777761000000E9     1.455493430885747E-2    5.394210312578173E-1   -2.604002929066992E-3    4.199191856442018E-4   -2.628862189814721E-3    4.795548705302680E-4    1.717647093327438E-1    4.860810379282747E-1
 8.149789342000000E9     1.539894555702108E-2    5.394098921821088E-1   -2.630699709678519E-3    4.600495986612206E-4   -2.653108142410977E-3    4.859962384142589E-4    1.724925080260789E-1    4.856479578101610E-1
 8.149800923000000E9     1.625875276179818E-2    5.393445470829026E-1   -2.613815395077086E-3    4.456149143736686E-4   -2.630404439128044E-3    4.897002502794521E-4    1.730469514643901E-1    4.853245215406918E-1
 8.149812504000000E9     1.714083338460856E-2    5.393235576221926E-1   -2.621998646984372E-3    4.369717228966349E-4   -2.629449613974455E-3    4.825004769129010E-4    1.738351175091016E-1    4.851157031420182E-1
 8.149824085000000E9     1.792529338745057E-2    5.393856034867195E-1   -2.612647210071217E-3    4.552222995346017E-4   -2.615810325271977E-3    4.658860921935340E-4    1.745025245138854E-1    4.848102214907567E-1
 8.149835666000000E9     1.869450782322153E-2    5.393677238563234E-1   -2.599916276968255E-3    4.209261496627107E-4   -2.628137545741514E-3    5.050124645801566E-4    1.749712560733966E-1    4.846056338529589E-1
 8.149847247000000E9     1.950112367142462E-2    5.393062407212799E-1   -2.595942021451821E-3    4.719643760338321E-4   -2.654240779113983E-3    4.997253768397207E-4    1.759894531244959E-1    4.843720234311234E-1
 8.149858828000000E9     2.031552609707645E-2    5.392653595213266E-1   -2.614651568226955E-3    4.557424939200873E-4   -2.617315906885171E-3    5.011271168437228E-4    1.765137932265858E-1    4.840740930630729E-1
 8.149870409000000E9     2.106661934529963E-2    5.393246650923088E-1   -2.606090033956290E-3    4.508558636179956E-4   -2.614494313343495E-3    5.269497066650662E-4    1.774218834546132E-1    4.839133818623391E-1
 8.149881990000000E9     2.191690399832328E-2    5.394457091643250E-1   -2.621153925992627E-3    4.806627614133481E-4   -2.622540622605030E-3    4.988895629088345E-4    1.780644402132007E-1    4.837474043723580E-1
 8.149893571000000E9     2.261007824957594E-2    5.393887538425816E-1   -2.607044768343987E-3    4.541381642327777E-4   -2.628458861241322E-3    5.242427276533762E-4    1.789299967623639E-1    4.832229305161679E-1
 8.149905152000000E9     2.340455575061428E-2    5.393277628607718E-1   -2.615908324056510E-3    4.818465468671530E-4   -2.618788425918332E-3    5.500742330067945E-4    1.794560982064323E-1    4.830288221169058E-1
 8.149916733000000E9     2.434058645215883E-2    5.392359782770271E-1   -2.623225110601192E-3    5.000913170223379E-4   -2.624986709609680E-3    5.027590871128186E-4    1.801561813848932E-1    4.827268900378484E-1
 8.149928314000000E9     2.514523872373166E-2    5.393280331833914E-1   -2.583852934702379E-3    4.950773482985119E-4   -2.637163595820502E-3    5.457509793501274E-4    1.809513178600839E-1    4.824575145576185E-1
 8.149939895000000E9     2.583112590671896E-2    5.392809478405418E-1   -2.593565512055549E-3    4.520399085838428E-4   -2.639645244633529E-3    5.319503458519424E-4    1.815219133586172E-1    4.821167379110716E-1
 8.149951476000000E9     2.675893719003539E-2    5.393108920231993E-1   -2.598076121692450E-3    4.948494740844101E-4   -2.643489013490196E-3    5.374191001746418E-4    1.822159659206844E-1    4.818590337975159E-1
 8.149963057000000E9     2.742345071809297E-2    5.391216587558052E-1   -2.609687951064108E-3    4.787002780655507E-4   -2.620909936538614E-3    5.708290106534817E-4    1.829143784937969E-1    4.816801757017777E-1
 8.149974638000000E9     2.849953075476023E-2    5.391651232617780E-1   -2.612189125635170E-3    4.877661632083095E-4   -2.604762323931109E-3    5.854167455957767E-4    1.837199067685900E-1    4.814593159932076E-1
 8.149986219000000E9     2.918516166218082E-2    5.390851154477131E-1   -2.612262955958752E-3    4.864487973423483E-4   -2.618394119820004E-3    5.557408948576805E-4    1.843167417145540E-1    4.810613466318147E-1
 8.149997800000000E9     2.997766536211357E-2    5.391324606986848E-1   -2.605766277257500E-3    4.966270741232102E-4   -2.627092960439630E-3    5.600691717481126E-4    1.850685059618663E-1    4.808254267560541E-1
 8.150009381000000E9     3.088927167853020E-2    5.391119399330622E-1   -2.623433681134732E-3    4.882367268899705E-4   -2.630442683338653E-3    5.589160120253443E-4    1.858055015905753E-1    4.804937868051327E-1
 8.150020962000000E9     3.161368339072105E-2    5.391425779713096E-1   -2.619220136457828E-3    4.986917826607000E-4   -2.609537557073244E-3    5.868637813626130E-4    1.864963383015181E-1    4.802259203055854E-1
 8.150032543000000E9     3.244004928947643E-2    5.390656877951283E-1   -2.604727020847281E-3    5.031942203146041E-4   -2.590227185513691E-3    5.670880934907273E-4    1.871273760339777E-1    4.798885713309061E-1
 8.150044124000000E9     3.329060959731533E-2    5.390231959168225E-1   -2.621753007674019E-3    5.414623486111966E-4   -2.646854290773173E-3    5.853206301379634E-4    1.876943136769725E-1    4.795862818390146E-1
 8.150055705000000E9     3.396222584353685E-2    5.390017330841134E-1   -2.633461021942144E-3    5.154871859183323E-4   -2.615620705410428E-3    5.913276454310084E-4    1.885173128657046E-1    4.793653700765291E-1
 8.150067286000000E9     3.475753815808352E-2    5.389840460645398E-1   -2.616958039750458E-3    5.319825929324669E-4   -2.605354340195867E-3    6.104912461490602E-4    1.893071374879557E-1    4.790724552883396E-1
 8.150078867000000E9     3.563279288390501E-2    5.389026580926793E-1   -2.607978694750115E-3    5.424859031865465E-4   -2.656820247723106E-3    5.746725190028745E-4    1.899884842483767E-1    4.787543153934478E-1
 8.150090448000000E9     3.648840586973783E-2    5.388438693109950E-1   -2.630422530875714E-3    5.520328684527991E-4   -2.619772652235373E-3    5.897555911235118E-4    1.905851850982637E-1    4.784713255733361E-1
 8.150102029000000E9     3.728664947307279E-2    5.388529708888271E-1   -2.632030627696004E-3    5.356533660760584E-4   -2.611308629031721E-3    5.700176511766189E-4    1.913353599167792E-1    4.782330032540325E-1
 8.150113610000000E9     3.802439493625960E-2    5.388995622421792E-1   -2.609331858669950E-3    5.285987890183249E-4   -2.634928634712153E-3    6.216342851950638E-4    1.919186653425660E-1    4.778956914541148E-1
 8.150125191000000E9     3.895230265323295E-2    5.388650082569405E-1   -2.616106053549436E-3    5.374908922978868E-4   -2.640763392810333E-3    6.020955141226883E-4    1.926979176158779E-1    4.775567169505234E-1
 8.150136772000000E9     3.970031546196454E-2    5.387284615591313E-1   -2.615294435368367E-3    5.490343458628554E-4   -2.606478454200087E-3    6.051373317676491E-4    1.933851745215885E-1    4.773108702349620E-1
 8.150148353000000E9     4.043511207746690E-2    5.387796253911642E-1   -2.605101624355428E-3    5.384316568484856E-4   -2.606904635510666E-3    6.373358774898642E-4    1.940427380225505E-1    4.769539772281646E-1
 8.150159934000000E9     4.140348641950956E-2    5.385906388118294E-1   -2.596595335896247E-3    5.863557858840783E-4   -2.622207245740652E-3    6.106976472971948E-4    1.947746254239478E-1    4.767859423901028E-1
 8.150171515000000E9     4.219394708627548E-2    5.386291579233388E-1   -2.611172869019865E-3    5.710460883969096E-4   -2.638647638394128E-3    5.973947770596592E-4    1.953900095126349E-1    4.765255374330598E-1
 8.150183096000000E9     4.303281912331497E-2    5.384571833672886E-1   -2.612166593792982E-3    5.965717119904645E-4   -2.621019995355424E-3    6.120799382179938E-4    1.961427568260119E-1    4.760340226407623E-1
 8.150194677000000E9     4.376853353096746E-2    5.385735637201861E-1   -2.602924453242616E-3    5.805177152588851E-4   -2.598317678660395E-3    6.374421044733226E-4    1.968215714572148E-1    4.758046786199981E-1
 8.150206258000000E9     4.462779342515544E-2    5.385948751211939E-1   -2.603914672221268E-3    5.944826722367622E-4   -2.642206906037297E-3    6.290818675734528E-4    1.974495104327932E-1    4.755169294405397E-1
 8.150217839000000E9     4.539355052724885E-2    5.383928749442599E-1   -2.603201554848253E-3    5.691239145028007E-4   -2.624939813858077E-3    6.579238249249935E-4    1.982380232557588E-1    4.751997635480215E-1
 8.150229420000000E9     4.620578742031185E-2    5.383990776626035E-1   -2.595104807490863E-3    6.058636378641426E-4   -2.600858117403314E-3    6.777223610528279E-4    1.988668801684530E-1    4.748863387570885E-1
 8.150241001000000E9     4.691319186324328E-2    5.384291301535535E-1   -2.594371234713559E-3    5.999670541458035E-4   -2.640381098781116E-3    6.764646998146721E-4    1.996605415660184E-1    4.745852012571674E-1
 8.150252582000000E9     4.775831711286853E-2    5.382149982912314E-1   -2.626933181441841E-3    6.147212670275678E-4   -2.646239575928602E-3    6.357625529125965E-4    2.002950686117954E-1    4.743179922460627E-1
 8.150264163000000E9     4.858676556681685E-2    5.381375095127511E-1   -2.625312571247443E-3    5.895406660705441E-4   -2.629046516261999E-3    6.595105004409961E-4    2.009913963786794E-1    4.741402403755922E-1
 8.150275744000000E9     4.947255565737491E-2    5.381192513968326E-1   -2.604780607549500E-3    6.110088666030754E-4   -2.657263943990653E-3    6.726644954097418E-4    2.016728525975133E-1    4.737869226069775E-1
 8.150287325000000E9     5.018971700082944E-2    5.382650777708838E-1   -2.587788543206745E-3    6.111600473321185E-4   -2.615727253054676E-3    6.466554466849578E-4    2.023308009308357E-1    4.733222176158259E-1
 8.150298906000000E9     5.096573182825594E-2    5.380516750294821E-1   -2.602901634185269E-3    5.934481655515855E-4   -2.617954417106974E-3    6.596543410882919E-4    2.029190042577010E-1    4.731859651948290E-1
 8.150310487000000E9     5.174165416966886E-2    5.379845716191004E-1   -2.595467204855930E-3    6.158542198799749E-4   -2.641952360521368E-3    6.667830418421657E-4    2.036596196723847E-1    4.727265698437716E-1
 8.150322068000000E9     5.247738144993426E-2    5.378952761036447E-1   -2.607560312855956E-3    6.237876314956490E-4   -2.612074859012810E-3    6.709532545261852E-4    2.042867476675592E-1    4.725120808638472E-1
 8.150333649000000E9     5.349158929053331E-2    5.378454445901180E-1   -2.617068513197548E-3    6.372015231138771E-4   -2.614056719989904E-3    7.006016820576193E-4    2.050096785079845E-1    4.721200643658766E-1
 8.150345230000000E9     5.424460924939171E-2    5.378690603818498E-1   -2.604951658810934E-3    6.187720528658048E-4   -2.639951561219676E-3    6.835591353536326E-4    2.058354343534890E-1    4.719175680782112E-1
 8.150356811000000E9     5.501789678130340E-2    5.378964779032263E-1   -2.597386322321742E-3    6.364120049067218E-4   -2.620826244343288E-3    7.146643111025723E-4    2.064652566882868E-1    4.715215131284292E-1
 8.150368392000000E9     5.583147323439121E-2    5.376286688380806E-1   -2.594118673767543E-3    6.489727389384515E-4   -2.636442525416268E-3    7.183285785651004E-4    2.070521326259188E-1    4.711849789470918E-1
 8.150379973000000E9     5.661403738772229E-2    5.376155068362390E-1   -2.611779401060052E-3    6.743589586119769E-4   -2.616980582620958E-3    6.869420751307024E-4    2.076703596642080E-1    4.708508613747329E-1
 8.150391554000000E9     5.739108826500088E-2    5.376030526668117E-1   -2.593970604017309E-3    6.470277897551668E-4   -2.614994848129628E-3    6.692427579375383E-4    2.083629140132559E-1    4.705840338649557E-1
 8.150403135000000E9     5.819909483515824E-2    5.374395687105447E-1   -2.627633324221331E-3    6.622623199528293E-4   -2.619345042641596E-3    7.315735976935497E-4    2.091084148515007E-1    4.702111732952060E-1
 8.150414716000000E9     5.912110247403235E-2    5.374967104506294E-1   -2.594426925929216E-3    6.635298220262582E-4   -2.622518206676116E-3    7.106394586849728E-4    2.097344132508537E-1    4.701621037294017E-1
 8.150426297000000E9     5.993091099264628E-2    5.374033271456479E-1   -2.614509835905768E-3    6.767606832333869E-4   -2.593349140538148E-3    7.231606922357055E-4    2.105328437351031E-1    4.696460491079866E-1
 8.150437878000000E9     6.052285361805069E-2    5.373184815224791E-1   -2.630723426113851E-3    6.750690209732886E-4   -2.601822909521827E-3    7.103995816841281E-4    2.110265290131479E-1    4.694009652659767E-1
