#  HZ   S   RI   R     50.00 
! Rohde & Schwarz Vector Network Analyzer 
! Rohde-Schwarz,ZNB20-2Port,1311601062101988,3.16
! Created: UTC 3/21/2024, 1:00:47 AM
! freq[Hz]                re:S11                  im:S11                  re:S21                  im:S21                  re:S12                  im:S12                  re:S22                  im:S22
 8.149410559000000E9    -1.103622881579062E-2    5.389557434778092E-1   -2.611485332851336E-3    3.133289288295873E-4   -2.650718341032752E-3    3.597671101199525E-4    1.490463358998374E-1    4.936046267320843E-1
 8.149422076600000E9    -1.049093082760445E-2    5.389025033542258E-1   -2.625689109633580E-3    2.789193087574123E-4   -2.623046745837021E-3    3.713925788952696E-4    1.498486504026682E-1    4.935824982583449E-1
 8.149433594200000E9    -9.489874045619500E-3    5.390322277801382E-1   -2.601488946547520E-3    3.020443667393259E-4   -2.628483338461884E-3    3.353097798059109E-4    1.505439048910766E-1    4.932663296883014E-1
 8.149445111800000E9    -8.893916816441739E-3    5.390711762263668E-1   -2.607340938099129E-3    2.897868668101628E-4   -2.622717154963383E-3    3.968445088130169E-4    1.511630326533427E-1    4.930640695847598E-1
 8.149456629400000E9    -7.872432530992547E-3    5.390333630317953E-1   -2.606500636158354E-3    3.127582421351408E-4   -2.642304652481139E-3    3.891432582449429E-4    1.520364698859034E-1    4.927255993343528E-1
 8.149468147000000E9    -7.076858451007934E-3    5.390993063995234E-1   -2.608221525529703E-3    3.254136901588102E-4   -2.659637362183844E-3    3.501503920094915E-4    1.526722638719332E-1    4.925443310957795E-1
 8.149479664600000E9    -6.328999968842657E-3    5.390462731435756E-1   -2.609990300149115E-3    3.069113183695670E-4   -2.630877970345226E-3    3.868027349901366E-4    1.533055810143519E-1    4.922580062575601E-1
 8.149491182200000E9    -5.417018705740783E-3    5.390534468501129E-1   -2.618061603776678E-3    3.050664143705861E-4   -2.623332860175344E-3    3.760587180293922E-4    1.540337489077294E-1    4.920405621628470E-1
 8.149502699800000E9    -4.760638981254903E-3    5.390243018965186E-1   -2.593578518046368E-3    3.353615011941466E-4   -2.669557576434073E-3    4.008994379501216E-4    1.547374349086311E-1    4.917019975645500E-1
 8.149514217400000E9    -3.914551135390060E-3    5.392273070233002E-1   -2.620923038761681E-3    3.388446223622015E-4   -2.650461324072550E-3    3.617970275599461E-4    1.555455358167833E-1    4.915872974359581E-1
 8.149525735000000E9    -3.056225624676070E-3    5.392701455998830E-1   -2.630844804127289E-3    3.398474469655032E-4   -2.633887850795606E-3    3.919754753524965E-4    1.561079116460671E-1    4.913587598461722E-1
 8.149537252600000E9    -2.166541904244593E-3    5.391400081167418E-1   -2.611479628230257E-3    3.773137511815695E-4   -2.657418527851725E-3    3.861076328454595E-4    1.570276482800798E-1    4.912274314928493E-1
 8.149548770200000E9    -1.477679976762626E-3    5.392997641363206E-1   -2.596285683981933E-3    3.253069991840286E-4   -2.652073555801741E-3    3.995401620549430E-4    1.576413538104312E-1    4.909400997142834E-1
 8.149560287800000E9    -7.466615696469539E-4    5.392291208435778E-1   -2.613880238346432E-3    3.515807389023961E-4   -2.636888408739648E-3    3.871868142216548E-4    1.583940990248998E-1    4.905643707694115E-1
 8.149571805400000E9     1.203063140088492E-4    5.393222738016223E-1   -2.620673740930787E-3    3.454574797262333E-4   -2.636109149189187E-3    3.906804056362822E-4    1.590090480839647E-1    4.903649364123173E-1
 8.149583323000000E9     1.042012395054007E-3    5.393469669962786E-1   -2.625273940486827E-3    3.525639262990909E-4   -2.657180763970378E-3    4.054418383412406E-4    1.598230739728523E-1    4.901508309213894E-1
 8.149594840600000E9     1.844020144722188E-3    5.392656945154570E-1   -2.608601331620673E-3    3.470524174869138E-4   -2.627157633675204E-3    3.868137665867282E-4    1.604268837983843E-1    4.900178408734625E-1
 8.149606358200000E9     2.615410300658127E-3    5.393700733990472E-1   -2.603216165426130E-3    3.681738398227692E-4   -2.616915188961983E-3    4.296093590985494E-4    1.611702437899865E-1    4.895858445438460E-1
 8.149617875800000E9     3.321809961107237E-3    5.393399046094800E-1   -2.603542633604154E-3    3.753280062532718E-4   -2.643912349809784E-3    3.942694398037804E-4    1.618729744188148E-1    4.893624410808059E-1
 8.149629393400000E9     4.128098781050021E-3    5.393213917436767E-1   -2.609534881515804E-3    3.621511769215526E-4   -2.613244277471336E-3    4.068682689802955E-4    1.626943758592854E-1    4.893354925104582E-1
 8.149640911000000E9     5.037717115394031E-3    5.394232633455199E-1   -2.627332616883658E-3    3.650305917686795E-4   -2.646516548933634E-3    4.052264022470771E-4    1.632250336267564E-1    4.889357318709727E-1
 8.149652428600000E9     5.844591022401160E-3    5.394222677028008E-1   -2.621382090691908E-3    3.801826910481961E-4   -2.654616909720984E-3    4.425868377642558E-4    1.639675051508490E-1    4.886351863311126E-1
 8.149663946200000E9     6.705255034293659E-3    5.394294245024154E-1   -2.568469115350807E-3    3.757545853792470E-4   -2.671681250189038E-3    4.660940963226820E-4    1.647286105807126E-1    4.884986604535729E-1
 8.149675463800000E9     7.359052680652173E-3    5.394681018392457E-1   -2.641198215567413E-3    3.987442586575805E-4   -2.624228577854857E-3    4.389825318863414E-4    1.655695446762816E-1    4.883072139485911E-1
 8.149686981400000E9     8.299184918651576E-3    5.395301390176308E-1   -2.620163196624053E-3    3.925253926364703E-4   -2.647245095634238E-3    4.682111256500021E-4    1.663009924054100E-1    4.878343723586738E-1
 8.149698499000000E9     9.011027248316171E-3    5.394342443038027E-1   -2.620414737221171E-3    3.800769613259996E-4   -2.653457283484297E-3    4.420651581425314E-4    1.668150557172536E-1    4.878375245299564E-1
 8.149710016600000E9     9.811642299161703E-3    5.393524904243155E-1   -2.617167041635625E-3    4.326562402646464E-4   -2.643468048079604E-3    4.492119206329178E-4    1.676299201085712E-1    4.873398488255510E-1
 8.149721534200000E9     1.063080753783270E-2    5.394049309738783E-1   -2.627063160947320E-3    4.196410338408307E-4   -2.644347931502174E-3    4.675112683980142E-4    1.683775749206456E-1    4.871911985679686E-1
 8.149733051800000E9     1.141324497371861E-2    5.393509341118040E-1   -2.627017625275310E-3    4.175173211892651E-4   -2.614734434513772E-3    4.581025883468799E-4    1.689700190212743E-1    4.869745483014488E-1
 8.149744569400000E9     1.225450178363785E-2    5.394081520336155E-1   -2.597038110371790E-3    4.190574129448326E-4   -2.646424205049369E-3    4.773778873236017E-4    1.696873853942525E-1    4.866189124224107E-1
 8.149756087000000E9     1.312641492668061E-2    5.395578874741886E-1   -2.603788341168458E-3    4.090562482459342E-4   -2.657165567530142E-3    4.748718959912374E-4    1.703984225348757E-1    4.863299431534533E-1
 8.149767604600000E9     1.389018493356360E-2    5.393974840495742E-1   -2.588684825550676E-3    4.131828752149714E-4   -2.627937755513049E-3    4.774588666798053E-4    1.709457225760118E-1    4.861393473645059E-1
 8.149779122200000E9     1.459162872172647E-2    5.394239765620908E-1   -2.639222244766527E-3    4.143223328030796E-4   -2.646636864344534E-3    4.695172175983419E-4    1.717999588003101E-1    4.859042754340046E-1
 8.149790639800000E9     1.553777478841331E-2    5.393938460602236E-1   -2.589739776357989E-3    4.385980104113792E-4   -2.662566796222999E-3    5.147525811282297E-4    1.725265716787306E-1    4.856924424608439E-1
 8.149802157400000E9     1.627306310316870E-2    5.392867190924003E-1   -2.619569268594627E-3    4.556934918333538E-4   -2.624765092986077E-3    4.779776910441200E-4    1.732653339473772E-1    4.852726285826373E-1
 8.149813675000000E9     1.706593948826457E-2    5.393899936100436E-1   -2.607373416902837E-3    4.490658432661657E-4   -2.659579344371329E-3    4.901144697587069E-4    1.738379532859772E-1    4.850449897368534E-1
 8.149825192600000E9     1.794025636499845E-2    5.393997405263210E-1   -2.619334297952106E-3    4.379641735976027E-4   -2.640540295136416E-3    5.019286894329016E-4    1.745264343660048E-1    4.848224588332015E-1
 8.149836710200000E9     1.865281017883217E-2    5.394257584136615E-1   -2.605955474628371E-3    4.625597724663538E-4   -2.619283366417535E-3    5.117781315533520E-4    1.752026284678623E-1    4.845402015777796E-1
 8.149848227800000E9     1.939215985672856E-2    5.394468025013988E-1   -2.611910033398836E-3    4.432267459581064E-4   -2.638372391026672E-3    4.861391086157338E-4    1.759476592409846E-1    4.842555660023006E-1
 8.149859745400000E9     2.032989115724039E-2    5.393983200170498E-1   -2.616138428708776E-3    4.525936691872573E-4   -2.611196767715384E-3    5.252104320698691E-4    1.765331011131127E-1    4.839200453587564E-1
 8.149871263000000E9     2.115530980124757E-2    5.393088348322913E-1   -2.614301208890969E-3    4.603322142712815E-4   -2.647138189635471E-3    5.401427354273980E-4    1.775316611493046E-1    4.837892927272146E-1
 8.149882780600000E9     2.190618191492471E-2    5.393233652968366E-1   -2.574719603804541E-3    4.757574450974562E-4   -2.617247278765648E-3    5.275051546579161E-4    1.779859015480264E-1    4.834522717520275E-1
 8.149894298200000E9     2.271538863889613E-2    5.393502010662587E-1   -2.605265482367546E-3    4.570381230790482E-4   -2.641926031788257E-3    5.199721295561590E-4    1.788048987949717E-1    4.832658111807790E-1
 8.149905815800000E9     2.350898547708672E-2    5.393046953049199E-1   -2.614227193899559E-3    4.655999856770790E-4   -2.636644384974729E-3    5.294490816146402E-4    1.795049062251254E-1    4.830352298205493E-1
 8.149917333400000E9     2.422092975188418E-2    5.393664293585753E-1   -2.612991985841761E-3    4.663528153682797E-4   -2.625311202080143E-3    5.098964439319345E-4    1.801052090514527E-1    4.826265068100796E-1
 8.149928851000000E9     2.519261980530523E-2    5.392903950750846E-1   -2.594070073334281E-3    4.862587319875069E-4   -2.615865266081133E-3    5.444015796112894E-4    1.807492653237216E-1    4.824739627193215E-1
 8.149940368600000E9     2.589724649586073E-2    5.392483297199947E-1   -2.587818055107632E-3    4.832546137847324E-4   -2.627787028305607E-3    5.452848179716744E-4    1.815594004953619E-1    4.821600324956989E-1
 8.149951886200000E9     2.683382809701076E-2    5.393639237605530E-1   -2.605599893827089E-3    4.861007252833943E-4   -2.656162970788469E-3    5.221463938123123E-4    1.821739243958685E-1    4.819482447465929E-1
 8.149963403800000E9     2.759723141601966E-2    5.391873769039359E-1   -2.612110309361002E-3    5.093548140799566E-4   -2.633113708968695E-3    5.317197962575020E-4    1.828428377076306E-1    4.814896594811920E-1
 8.149974921400000E9     2.843024528614161E-2    5.392304058777584E-1   -2.632134424488013E-3    4.716195622479824E-4   -2.662864139202765E-3    5.724919318207087E-4    1.837693023109440E-1    4.812692065533478E-1
 8.149986439000000E9     2.915617720596267E-2    5.391439235483481E-1   -2.617895750020544E-3    4.894642769757833E-4   -2.659496775626266E-3    5.779698468180611E-4    1.843381697640202E-1    4.810805139237196E-1
 8.149997956600000E9     3.001124563000686E-2    5.391429633683227E-1   -2.613579477072853E-3    4.901261078467230E-4   -2.626232360544020E-3    5.761033308042001E-4    1.850113752436613E-1    4.806948815802253E-1
 8.150009474200000E9     3.074991039997095E-2    5.392405434251958E-1   -2.612084089553252E-3    5.216029934504686E-4   -2.616728101303618E-3    5.550597982786257E-4    1.857154251936777E-1    4.805307921614473E-1
 8.150020991800000E9     3.150386798106055E-2    5.391463377158944E-1   -2.623089514193033E-3    5.195434723579354E-4   -2.642446703521826E-3    5.819232723877629E-4    1.863964018699024E-1    4.801610252345757E-1
 8.150032509400000E9     3.232424528159281E-2    5.390758049223012E-1   -2.619478400804518E-3    5.283364903165216E-4   -2.623741372015121E-3    5.896817617406963E-4    1.871382558320558E-1    4.799197989809582E-1
 8.150044027000000E9     3.317833159123368E-2    5.390214462928058E-1   -2.645532409170350E-3    5.292740472654182E-4   -2.619799322906641E-3    5.632180823046711E-4    1.878496717078327E-1    4.796094455191969E-1
 8.150055544600000E9     3.401915909179733E-2    5.389768311155892E-1   -2.613105681733325E-3    5.289149979760433E-4   -2.613508302698571E-3    5.722307296706964E-4    1.885329109841076E-1    4.793114331810235E-1
 8.150067062200000E9     3.477854795972400E-2    5.390840340436402E-1   -2.604342211938656E-3    5.121680339609178E-4   -2.638813347338465E-3    5.924298689536954E-4    1.892834943968918E-1    4.789167749415063E-1
 8.150078579800000E9     3.563742761199599E-2    5.388434554094147E-1   -2.604242600286269E-3    5.329502159231414E-4   -2.646624570128790E-3    5.730562086271894E-4    1.898334378306362E-1    4.786725304319296E-1
 8.150090097400000E9     3.644459900456459E-2    5.389310981260970E-1   -2.623268436603719E-3    5.417430429390931E-4   -2.629496150880281E-3    5.967742702968483E-4    1.906406125823578E-1    4.784911424583172E-1
 8.150101615000000E9     3.721359668945952E-2    5.389500099588096E-1   -2.590698927195774E-3    5.383730237167915E-4   -2.645480200506035E-3    5.927486276771844E-4    1.912829975896205E-1    4.781350206140870E-1
 8.150113132600000E9     3.803218614326159E-2    5.388416644893669E-1   -2.619525113519676E-3    5.502157114166670E-4   -2.625117062753125E-3    5.983439258433952E-4    1.919621240238001E-1    4.779314455789322E-1
 8.150124650200000E9     3.881004617509173E-2    5.387669809153978E-1   -2.617743379670128E-3    5.605118511185262E-4   -2.619258637996832E-3    6.020467553045149E-4    1.925730934093057E-1    4.775120081130408E-1
 8.150136167800000E9     3.959324965305860E-2    5.387046441462249E-1   -2.605696400473986E-3    5.585645161835433E-4   -2.622948420007527E-3    6.101330964730056E-4    1.932053474531899E-1    4.772353592639595E-1
 8.150147685400000E9     4.038326506777973E-2    5.386727936173465E-1   -2.598186595298219E-3    5.786337051057208E-4   -2.635682672250486E-3    5.792254957521665E-4    1.938688310442913E-1    4.769876292855229E-1
 8.150159203000000E9     4.116381413342050E-2    5.386746441521780E-1   -2.595542040297166E-3    5.791892790568133E-4   -2.640631183246072E-3    6.023631393647735E-4    1.946775474182919E-1    4.766381267942164E-1
 8.150170720600000E9     4.189963655407519E-2    5.385762506327966E-1   -2.628130754690063E-3    5.679271106126617E-4   -2.608004188479548E-3    6.493298135758632E-4    1.953596972368585E-1    4.763809396364088E-1
 8.150182238200000E9     4.287539002048122E-2    5.386575977463068E-1   -2.593915974875985E-3    5.530819539950425E-4   -2.612464998414517E-3    5.856086842575680E-4    1.960411952173793E-1    4.760282423703893E-1
 8.150193755800000E9     4.369064501976841E-2    5.385882990535789E-1   -2.627172226273160E-3    5.670030895653467E-4   -2.611012021863187E-3    6.669207950239157E-4    1.967615675202481E-1    4.758459789822769E-1
 8.150205273400000E9     4.454811479525927E-2    5.385056197004731E-1   -2.602902807257268E-3    5.882457409733368E-4   -2.653805586844296E-3    6.438820287109250E-4    1.974074538779934E-1    4.754477932503737E-1
 8.150216791000000E9     4.524261749797397E-2    5.384803436781906E-1   -2.604956578100863E-3    5.627668458780610E-4   -2.644743180885122E-3    6.183008598847109E-4    1.979869740619493E-1    4.752315053447875E-1
 8.150228308600000E9     4.590996616290972E-2    5.383756612219125E-1   -2.611501301161361E-3    6.180348702895203E-4   -2.647832372519515E-3    6.297565934470258E-4    1.987725517935326E-1    4.749014358166238E-1
 8.150239826200000E9     4.686598674986399E-2    5.383865027163155E-1   -2.619509092000765E-3    5.990715029534147E-4   -2.613208002167548E-3    6.406340035139955E-4    1.993474608901760E-1    4.746332539512469E-1
 8.150251343800000E9     4.756562552780125E-2    5.383022710139721E-1   -2.615420914531865E-3    5.974585040642774E-4   -2.591786015403581E-3    6.753838008898777E-4    2.001821351905241E-1    4.743888973273420E-1
 8.150262861400000E9     4.844335717089762E-2    5.382466845969216E-1   -2.614102045958600E-3    5.902270862012544E-4   -2.621902958551265E-3    6.849996623913739E-4    2.008076676707872E-1    4.739809054025751E-1
 8.150274379000000E9     4.927686318794973E-2    5.381572100429584E-1   -2.632953947541117E-3    6.138695232782694E-4   -2.645567583716031E-3    6.352361345077813E-4    2.015275833748185E-1    4.738608614238263E-1
 8.150285896600000E9     5.003000300512720E-2    5.380389582678067E-1   -2.608762468720658E-3    6.060978074333780E-4   -2.626709369501426E-3    6.801444190317878E-4    2.021789725496103E-1    4.734277630948455E-1
 8.150297414200000E9     5.096252026827511E-2    5.380813158287511E-1   -2.619523260636800E-3    6.269150529762832E-4   -2.607169120212100E-3    6.796181710816387E-4    2.028165458955004E-1    4.730903461678304E-1
 8.150308931800000E9     5.161941468057160E-2    5.380757265423942E-1   -2.631592816902447E-3    6.448473467017745E-4   -2.605092314205177E-3    6.760482204899043E-4    2.034890836864487E-1    4.727704049490331E-1
 8.150320449400000E9     5.246069464301251E-2    5.379211363394549E-1   -2.606690027771233E-3    6.290108755918187E-4   -2.606451598901566E-3    6.705659752585717E-4    2.042200537039311E-1    4.725358366456442E-1
 8.150331967000000E9     5.319411507368678E-2    5.378479962786779E-1   -2.611583596009969E-3    6.397960499985562E-4   -2.593987482323017E-3    6.805560131818171E-4    2.049335115653425E-1    4.720157456784878E-1
 8.150343484600000E9     5.407201715155010E-2    5.378572413636149E-1   -2.596609570999203E-3    6.376424977640923E-4   -2.637040500230504E-3    6.949181423712864E-4    2.056183964260688E-1    4.718449974789184E-1
 8.150355002200000E9     5.500148067364413E-2    5.378084879456018E-1   -2.622530392669411E-3    6.514696515167187E-4   -2.638677731809085E-3    6.649587542715244E-4    2.062558237179510E-1    4.715904529666039E-1
 8.150366519800000E9     5.567845369987783E-2    5.377073129565951E-1   -2.631643052717519E-3    6.328972798341203E-4   -2.603059057821043E-3    7.036374373054737E-4    2.068617997088176E-1    4.712611783954494E-1
 8.150378037400000E9     5.654034808849685E-2    5.376776792541766E-1   -2.600933891544407E-3    6.449198829405781E-4   -2.636435271267045E-3    7.000917808272301E-4    2.075448976363779E-1    4.709953851951335E-1
 8.150389555000000E9     5.729620080782871E-2    5.376278011531418E-1   -2.620487684758331E-3    6.520958995951343E-4   -2.661171730552125E-3    6.821482927671997E-4    2.082416802116420E-1    4.705728887192248E-1
 8.150401072600000E9     5.809191017262810E-2    5.375108045540736E-1   -2.638146152906002E-3    6.518518270181273E-4   -2.621489464963831E-3    7.009955703223438E-4    2.088893411470186E-1    4.702972360646241E-1
 8.150412590200000E9     5.894609071868644E-2    5.374579536961325E-1   -2.593414799248791E-3    6.921930193117705E-4   -2.634660578526080E-3    7.508421610420004E-4    2.096880627543757E-1    4.700763050933784E-1
 8.150424107800000E9     5.975280897561246E-2    5.373789382244574E-1   -2.605697123399863E-3    6.710935650025071E-4   -2.647040599530282E-3    7.177062938157229E-4    2.102652096958015E-1    4.695451929430740E-1
 8.150435625400000E9     6.054698079311908E-2    5.373370160346299E-1   -2.599482540036430E-3    6.628841666224443E-4   -2.617975732428179E-3    7.196314145083036E-4    2.109328788382129E-1    4.694605102188322E-1
 8.150447143000000E9     6.142626951165873E-2    5.371987769937956E-1   -2.612724316661433E-3    6.706071372169762E-4   -2.657355290999830E-3    6.937805244290233E-4    2.116050656613938E-1    4.689176311584362E-1
