#  HZ   S   RI   R     50.00 
! Rohde & Schwarz Vector Network Analyzer 
! Rohde-Schwarz,ZNB20-2Port,1311601062101988,3.16
! Created: UTC 3/21/2024, 1:00:49 AM
! freq[Hz]                re:S11                  im:S11                  re:S21                  im:S21                  re:S12                  im:S12                  re:S22                  im:S22
 8.149290582000000E9    -1.970313589300261E-2    5.384067943191935E-1   -2.619288227718658E-3    2.450620448809320E-4   -2.627519258624921E-3    2.998357953459074E-4    1.417106531479306E-1    4.959973086547567E-1
 8.149302650375000E9    -1.876296948089946E-2    5.385848072121523E-1   -2.647758681256060E-3    2.619898894965357E-4   -2.637744829220193E-3    2.966100297019837E-4    1.423202851493942E-1    4.958524469455984E-1
 8.149314718750000E9    -1.779831317116774E-2    5.385134461534768E-1   -2.628832737851742E-3    2.465146533819001E-4   -2.630135759078370E-3    3.051610554348179E-4    1.432029316110592E-1    4.955198386114359E-1
 8.149326787125000E9    -1.704076647339823E-2    5.386322590468942E-1   -2.635115909021555E-3    2.819936356915918E-4   -2.653520643057050E-3    3.113892211262775E-4    1.438270752858850E-1    4.952972428082542E-1
 8.149338855500000E9    -1.602736149334840E-2    5.386130697824852E-1   -2.600549898097616E-3    2.544182443000910E-4   -2.616924920765703E-3    3.026196154614556E-4    1.445598257823832E-1    4.952584413611615E-1
 8.149350923875000E9    -1.535095423402914E-2    5.386298459776626E-1   -2.613218161985582E-3    2.724097820422897E-4   -2.631133316947262E-3    3.091515287032660E-4    1.453154111128367E-1    4.947230271254890E-1
 8.149362992250000E9    -1.444326040751405E-2    5.386033473325630E-1   -2.605306554994426E-3    2.894220839484117E-4   -2.666409013995751E-3    3.294594339427085E-4    1.461572503317930E-1    4.945254061714642E-1
 8.149375060625000E9    -1.353396938078581E-2    5.386389210811120E-1   -2.598599842107717E-3    2.771519344402968E-4   -2.619798559193058E-3    3.451825779593011E-4    1.468942966983656E-1    4.943224193533611E-1
 8.149387129000000E9    -1.276819995129330E-2    5.389615117796543E-1   -2.618929437213746E-3    2.859554666353423E-4   -2.648475790489684E-3    3.306119408269170E-4    1.477144139342189E-1    4.941821742111108E-1
 8.149399197375000E9    -1.189096354264674E-2    5.387793294709760E-1   -2.618183013046267E-3    2.839310563890514E-4   -2.648180956340214E-3    3.198892904331004E-4    1.482825244051051E-1    4.938786671167964E-1
 8.149411265750000E9    -1.100689396091771E-2    5.388038085154893E-1   -2.623274487045470E-3    3.119416909769550E-4   -2.643883805110486E-3    3.409420342812605E-4    1.492010353743159E-1    4.935522906321743E-1
 8.149423334125000E9    -1.018511927536587E-2    5.389824604116423E-1   -2.626624064289143E-3    3.153906312046634E-4   -2.646134388712334E-3    3.423042221796756E-4    1.499142037979880E-1    4.933471904195718E-1
 8.149435402500000E9    -9.436082346173744E-3    5.389056144084021E-1   -2.619510880432292E-3    2.914148051787895E-4   -2.627470138191109E-3    3.542324818344787E-4    1.506877275630933E-1    4.932544599312413E-1
 8.149447470875000E9    -8.424581922073146E-3    5.390003717372829E-1   -2.593929617746467E-3    3.280552505422424E-4   -2.625283685401199E-3    3.697977895464822E-4    1.515044816086507E-1    4.928381315592336E-1
 8.149459539250000E9    -7.615706744517634E-3    5.389560376875816E-1   -2.618564254922580E-3    3.167304868451664E-4   -2.656674043791644E-3    3.830183844365489E-4    1.521541518768821E-1    4.927712548510642E-1
 8.149471607625000E9    -6.938781705758705E-3    5.390230451887643E-1   -2.623080117957261E-3    3.260848006251051E-4   -2.674637249270570E-3    4.026077322371233E-4    1.529096746155182E-1    4.925681628454445E-1
 8.149483676000000E9    -5.978213650012564E-3    5.391197679931682E-1   -2.613542270949002E-3    3.269752056746525E-4   -2.647205021076008E-3    3.765818552479428E-4    1.535922288721968E-1    4.923419921571760E-1
 8.149495744375000E9    -5.150713928793133E-3    5.390255053017029E-1   -2.613300488781573E-3    3.262420246057635E-4   -2.637907321369103E-3    3.693009316465210E-4    1.544664294508353E-1    4.918956563988473E-1
 8.149507812750000E9    -4.194305980983392E-3    5.390245265742031E-1   -2.615038059554133E-3    3.291258402949267E-4   -2.650649288936845E-3    3.637387786302778E-4    1.551419944898813E-1    4.919111241535416E-1
 8.149519881125000E9    -3.473552437962863E-3    5.391241606239052E-1   -2.610340236023077E-3    3.247006134434351E-4   -2.640180503981147E-3    3.738161472563381E-4    1.558503103050252E-1    4.912692489254128E-1
 8.149531949500000E9    -2.587708523303828E-3    5.392567340531835E-1   -2.610579491779307E-3    3.347145458349853E-4   -2.671680902444800E-3    3.617663540634603E-4    1.565851078554323E-1    4.912860269230686E-1
 8.149544017875000E9    -1.800584062989454E-3    5.390770435422815E-1   -2.611026430005377E-3    3.388879503471459E-4   -2.632534711536609E-3    4.110948454060003E-4    1.573285404191826E-1    4.909327243453777E-1
 8.149556086250000E9    -9.054906375854794E-4    5.392400395146247E-1   -2.585396997243162E-3    3.419448346126868E-4   -2.646625975762545E-3    3.886006967661791E-4    1.581644621313161E-1    4.908480765682055E-1
 8.149568154625000E9    -1.721622292984706E-4    5.391921232257620E-1   -2.602151384245502E-3    3.287094175507350E-4   -2.644392360195470E-3    3.928428409695827E-4    1.589083547279453E-1    4.904173774673561E-1
 8.149580223000000E9     7.266214717324524E-4    5.392961144057729E-1   -2.608814103692766E-3    3.534468944482055E-4   -2.633744578047405E-3    4.177460214494402E-4    1.596512225930383E-1    4.902616476572726E-1
 8.149592291375000E9     1.646999033088083E-3    5.392770878002389E-1   -2.625328754306873E-3    3.575833233181049E-4   -2.632714353802223E-3    4.219360742745577E-4    1.602275476187587E-1    4.899762612606660E-1
 8.149604359750000E9     2.473005597994330E-3    5.393385644769696E-1   -2.605240769662382E-3    3.824226694642716E-4   -2.621483873238354E-3    4.047679441024598E-4    1.610548679150572E-1    4.895358405614455E-1
 8.149616428125000E9     3.306784378604795E-3    5.393626113849790E-1   -2.619626990173129E-3    3.720534951745842E-4   -2.637810575573525E-3    3.853650223285062E-4    1.617837056995618E-1    4.895260325396653E-1
 8.149628496500000E9     4.174415399565692E-3    5.393939778448639E-1   -2.594780312809112E-3    3.662903251079019E-4   -2.646150385923150E-3    3.943550760073159E-4    1.626078147200790E-1    4.892674697082612E-1
 8.149640564875000E9     4.960118183499727E-3    5.393649447522977E-1   -2.610693699933881E-3    4.088917694610125E-4   -2.651372331574814E-3    4.289210617089075E-4    1.632726189469290E-1    4.890896629280101E-1
 8.149652633250000E9     5.749943079554916E-3    5.393683065426043E-1   -2.602878486469597E-3    3.629712738497821E-4   -2.657228963732660E-3    4.254462651705975E-4    1.639608714765826E-1    4.886726752805601E-1
 8.149664701625000E9     6.532839292808637E-3    5.393084801985685E-1   -2.631080340024586E-3    3.652362699274005E-4   -2.638640203763478E-3    4.386121755012325E-4    1.646841968291295E-1    4.883130405911423E-1
 8.149676770000000E9     7.462319705320763E-3    5.393003416504725E-1   -2.627468381268143E-3    3.787252591583772E-4   -2.608793215498569E-3    4.488830263436383E-4    1.654656628336787E-1    4.880916062931664E-1
 8.149688838375000E9     8.330906251907076E-3    5.394105262290598E-1   -2.603426220347733E-3    3.721947582272712E-4   -2.633615865910476E-3    4.772784836029456E-4    1.662596544730476E-1    4.878128699243597E-1
 8.149700906750000E9     9.194614075008913E-3    5.393854639048448E-1   -2.620253823674013E-3    3.793796605006779E-4   -2.649736647870800E-3    4.365170519190934E-4    1.669696980726937E-1    4.875863604463675E-1
 8.149712975125000E9     1.015705610008663E-2    5.393075118284215E-1   -2.613437526621361E-3    3.924413773184440E-4   -2.604478201673974E-3    4.420127322282307E-4    1.677850009334212E-1    4.873112057995370E-1
 8.149725043500000E9     1.086242000957944E-2    5.394733127898351E-1   -2.596175184738531E-3    4.096857018535117E-4   -2.641217521138098E-3    4.454339417502088E-4    1.684252426684153E-1    4.870697428712907E-1
 8.149737111875000E9     1.176923579057727E-2    5.394386304660553E-1   -2.622048288040409E-3    4.312730496589616E-4   -2.624341353246965E-3    4.811332130386333E-4    1.691235523228276E-1    4.868340991938507E-1
 8.149749180250000E9     1.257117466112946E-2    5.394722884685301E-1   -2.617845021623651E-3    4.271368587841192E-4   -2.650975293370317E-3    4.642561190842106E-4    1.698717254575059E-1    4.865504877154735E-1
 8.149761248625000E9     1.344105437514784E-2    5.393455557825204E-1   -2.618622236082935E-3    4.262602561174788E-4   -2.608432767317181E-3    4.767223270475392E-4    1.707121120414699E-1    4.861924465131150E-1
 8.149773317000000E9     1.430424649514772E-2    5.393282969492629E-1   -2.623086988238509E-3    4.314885491519158E-4   -2.626351390803773E-3    4.758666137275188E-4    1.712903300405146E-1    4.860022467023440E-1
 8.149785385375000E9     1.504039797258340E-2    5.393293786006759E-1   -2.612424464705096E-3    4.161194014870023E-4   -2.650177951631838E-3    5.097585621162021E-4    1.720856288212818E-1    4.857225763095158E-1
 8.149797453750000E9     1.592056042279600E-2    5.394105969013513E-1   -2.602809667525011E-3    4.268340449022254E-4   -2.633085856958387E-3    4.844410703176534E-4    1.727665846588588E-1    4.854805542541830E-1
 8.149809522125000E9     1.672779676029761E-2    5.394139078161327E-1   -2.634806870929692E-3    4.640171157818950E-4   -2.630952052033910E-3    5.117982670092722E-4    1.735260192169119E-1    4.850901591429739E-1
 8.149821590500000E9     1.766514676149846E-2    5.394325694942587E-1   -2.585497276176587E-3    4.409826246510516E-4   -2.637763302206650E-3    4.786760753992890E-4    1.743562967177421E-1    4.848778469907667E-1
 8.149833658875000E9     1.846752733230469E-2    5.393633657392835E-1   -2.614152375133947E-3    4.292130679187045E-4   -2.654036939875584E-3    4.700478705709943E-4    1.750528186345294E-1    4.847129879852480E-1
 8.149845727250000E9     1.924180675559653E-2    5.393013651781519E-1   -2.627855343644794E-3    4.596256924126748E-4   -2.637604833380328E-3    5.086120412101239E-4    1.757022079409866E-1    4.842854833651516E-1
 8.149857795625000E9     2.018888247261543E-2    5.392733601760020E-1   -2.621833136584401E-3    4.625835695189046E-4   -2.631667808976803E-3    4.886042553628281E-4    1.766707542613263E-1    4.841165539713581E-1
 8.149869864000000E9     2.101372358626312E-2    5.392433333437913E-1   -2.616592772395891E-3    4.732348053461314E-4   -2.598007052070441E-3    5.337909243339180E-4    1.770998822193074E-1    4.837956811402962E-1
 8.149881932375000E9     2.195773345113122E-2    5.393718487908914E-1   -2.610763774552030E-3    4.456395058607719E-4   -2.657058242478875E-3    5.333272610048199E-4    1.780121377028287E-1    4.834367718308336E-1
 8.149894000750000E9     2.271254865925656E-2    5.393863484816376E-1   -2.608080186830519E-3    4.581871457265463E-4   -2.619497186586771E-3    5.084761186770687E-4    1.788855290849194E-1    4.831867923507800E-1
 8.149906069125000E9     2.349166851211046E-2    5.392601037276451E-1   -2.595220621558002E-3    4.605824048044606E-4   -2.633203449412223E-3    5.252600843899685E-4    1.794330873905154E-1    4.828854631588815E-1
 8.149918137500000E9     2.427935621540100E-2    5.393264744146350E-1   -2.599696618659157E-3    4.622648682456567E-4   -2.608252674476900E-3    5.218500355692869E-4    1.801814634287211E-1    4.826959582667166E-1
 8.149930205875000E9     2.513285168588626E-2    5.392797865092102E-1   -2.624074780119679E-3    4.457835995134638E-4   -2.652673196796890E-3    5.067035584406819E-4    1.809120124769839E-1    4.822827837556806E-1
 8.149942274250000E9     2.607274190267990E-2    5.392641070947374E-1   -2.621679988963076E-3    4.662254963992755E-4   -2.666390632355180E-3    5.413777999473669E-4    1.816086898921484E-1    4.821129809531140E-1
 8.149954342625000E9     2.681601017450782E-2    5.393166316349033E-1   -2.616434977332045E-3    4.917168177024883E-4   -2.616194832160831E-3    5.760995596901557E-4    1.823205591304836E-1    4.818126257026428E-1
 8.149966411000000E9     2.763748252388023E-2    5.391867074859025E-1   -2.613991047615991E-3    4.994514468049375E-4   -2.607733375886770E-3    5.548164398086627E-4    1.830958681681573E-1    4.814370301163836E-1
 8.149978479375000E9     2.856209613586811E-2    5.392590244959310E-1   -2.612362573084450E-3    5.015230214268885E-4   -2.609478143483104E-3    5.667104029760583E-4    1.838177033561895E-1    4.811124684558574E-1
 8.149990547750000E9     2.929807365976369E-2    5.391742983401793E-1   -2.630330657571725E-3    5.187591926312847E-4   -2.628441111241878E-3    5.887652313300742E-4    1.844753639541797E-1    4.809049089771481E-1
 8.150002616125000E9     3.036030734509192E-2    5.392323693171112E-1   -2.616641501450749E-3    5.007950836860257E-4   -2.610716532081848E-3    5.589915346674832E-4    1.852605975895102E-1    4.807106096953866E-1
 8.150014684500000E9     3.121489329607716E-2    5.390416389438732E-1   -2.626202888363161E-3    5.025465175801133E-4   -2.599977282091022E-3    5.703731127467669E-4    1.859705833656754E-1    4.802642273097161E-1
 8.150026752875000E9     3.181136581824674E-2    5.390406641871885E-1   -2.591490771117351E-3    5.169154771431235E-4   -2.634586346399370E-3    5.509003281311650E-4    1.866899891706898E-1    4.798711988337354E-1
 8.150038821250000E9     3.278283029326466E-2    5.390911162381882E-1   -2.604232177918385E-3    5.390438491402984E-4   -2.634705132666443E-3    5.529561185586122E-4    1.873137444074199E-1    4.796576622031875E-1
 8.150050889625000E9     3.358710817852830E-2    5.388699974951526E-1   -2.614823381939787E-3    5.223042529188068E-4   -2.626494853479031E-3    5.919328923370248E-4    1.881568289922111E-1    4.793606143965595E-1
 8.150062958000000E9     3.447177951232006E-2    5.390434898761906E-1   -2.591735062981369E-3    5.181556087202851E-4   -2.637013208859179E-3    5.783025910154171E-4    1.887923898924594E-1    4.791203161034853E-1
 8.150075026375000E9     3.528869371151164E-2    5.389485662184258E-1   -2.622406891970613E-3    5.249506831382097E-4   -2.612181389620806E-3    5.665122032588437E-4    1.895141528947526E-1    4.788509001586843E-1
 8.150087094750000E9     3.622481443361277E-2    5.389247997379705E-1   -2.600881220900394E-3    5.238516677716419E-4   -2.635371917880018E-3    5.743930614478184E-4    1.903515252221598E-1    4.785767513207570E-1
 8.150099163125000E9     3.701880304824828E-2    5.388956248037134E-1   -2.589335667497675E-3    5.094001299503620E-4   -2.610739091151198E-3    6.169440171261052E-4    1.910285987807500E-1    4.781180629419402E-1
 8.150111231500000E9     3.785431117150464E-2    5.388011921430446E-1   -2.593885077913390E-3    5.521751226433872E-4   -2.653181372585475E-3    6.142884801176779E-4    1.917355024748119E-1    4.779275278331406E-1
 8.150123299875000E9     3.863147991190153E-2    5.386856214285810E-1   -2.589411065468127E-3    5.512862897508507E-4   -2.621801193371567E-3    6.233233943242127E-4    1.924458004917467E-1    4.775901454856463E-1
 8.150135368250000E9     3.954733739964468E-2    5.388308102690661E-1   -2.596600240419419E-3    5.515576697497524E-4   -2.630881168153261E-3    6.049438800010496E-4    1.930938281142665E-1    4.772732795446812E-1
 8.150147436625000E9     4.046178259181419E-2    5.387572419330058E-1   -2.598448003589446E-3    5.422525127775074E-4   -2.642707320713119E-3    6.350824456960042E-4    1.938707975297267E-1    4.769742968883149E-1
 8.150159505000000E9     4.120147141604659E-2    5.386981099752524E-1   -2.597671729028662E-3    5.655170293296807E-4   -2.638757116697617E-3    6.201586056038866E-4    1.945330120731377E-1    4.767310786491653E-1
 8.150171573375000E9     4.201373706403766E-2    5.385367148971951E-1   -2.613298618017739E-3    5.624415151375348E-4   -2.620119891410378E-3    5.952856696404775E-4    1.953992656118424E-1    4.764966216809792E-1
 8.150183641750000E9     4.287342016841625E-2    5.385011415617660E-1   -2.600067284453807E-3    5.812098554714607E-4   -2.647609492955126E-3    6.444839030726461E-4    1.960394702871564E-1    4.761487770094556E-1
 8.150195710125000E9     4.370014204714783E-2    5.385704778731573E-1   -2.607830314554075E-3    6.142276701806810E-4   -2.607685486911111E-3    6.032968437538008E-4    1.968174473351308E-1    4.757569808641842E-1
 8.150207778500000E9     4.442354598296740E-2    5.383090543629552E-1   -2.604464392712406E-3    5.646840905688083E-4   -2.617261900560761E-3    6.380798274467711E-4    1.975620858158229E-1    4.754941991124156E-1
 8.150219846875000E9     4.543111867181686E-2    5.384455168761438E-1   -2.609031659794822E-3    5.738883409213012E-4   -2.607434481575947E-3    6.262726472535794E-4    1.982353097158126E-1    4.751995334944376E-1
 8.150231915250000E9     4.623156355635024E-2    5.383173390431771E-1   -2.607387119569998E-3    5.569913631799518E-4   -2.631420582216469E-3    6.401900529494308E-4    1.988700708589086E-1    4.747458407989550E-1
 8.150243983625000E9     4.713460751732360E-2    5.383889400112210E-1   -2.604773923534957E-3    5.969373425503061E-4   -2.628617577043274E-3    6.513809321915525E-4    1.996133243736374E-1    4.745920524718091E-1
 8.150256052000000E9     4.798501990442990E-2    5.382385612522489E-1   -2.613066544208469E-3    6.061828956066615E-4   -2.603694019167791E-3    6.318041641581705E-4    2.003436431164348E-1    4.742149932765671E-1
 8.150268120375000E9     4.879754616880621E-2    5.382438016333680E-1   -2.593171291547417E-3    6.615564231094948E-4   -2.623282683852513E-3    6.801629942897938E-4    2.011255054697556E-1    4.739080487546058E-1
 8.150280188750000E9     4.966661647377996E-2    5.381098508489580E-1   -2.624786629365886E-3    6.060522001526051E-4   -2.584123161804322E-3    6.434927591592855E-4    2.018116201953139E-1    4.734699323965369E-1
 8.150292257125000E9     5.051731513621634E-2    5.380396331092607E-1   -2.632381623729937E-3    6.498985689407589E-4   -2.620003098150296E-3    6.599868078285551E-4    2.025250368293412E-1    4.732677253567616E-1
 8.150304325500000E9     5.139934755509054E-2    5.379940359884120E-1   -2.574069193613526E-3    6.093948934817010E-4   -2.635344310775139E-3    6.697367912145308E-4    2.033025446821530E-1    4.729815694941778E-1
 8.150316393875000E9     5.215545814087293E-2    5.379530853179879E-1   -2.606919449687884E-3    6.240987972581511E-4   -2.644138974471272E-3    6.621708804332910E-4    2.040139427788632E-1    4.726027149108844E-1
 8.150328462250000E9     5.305424137927176E-2    5.379319748284499E-1   -2.616662015505076E-3    6.351373259993342E-4   -2.645317501422463E-3    6.832936774342573E-4    2.046171925524168E-1    4.722730656935948E-1
 8.150340530625000E9     5.387394459193543E-2    5.377944744008224E-1   -2.612959131514599E-3    6.321842106611060E-4   -2.637329235789284E-3    6.722852532973682E-4    2.053531784170009E-1    4.718325376080216E-1
 8.150352599000000E9     5.473206809187857E-2    5.377244384737797E-1   -2.595742208802086E-3    6.496026203748612E-4   -2.591507751472938E-3    7.008600832085186E-4    2.062225675556654E-1    4.716212813992393E-1
 8.150364667375000E9     5.550997818544941E-2    5.377617296065517E-1   -2.586419911203576E-3    6.539616169428028E-4   -2.629556409700043E-3    7.015777741702158E-4    2.067205603342471E-1    4.712614142656152E-1
 8.150376735750000E9     5.638152857942590E-2    5.376956033412501E-1   -2.608641551162078E-3    6.650870272639112E-4   -2.637497260501483E-3    7.256396921439072E-4    2.075144147374878E-1    4.709114010680670E-1
