#  HZ   S   RI   R     50.00 
! Rohde & Schwarz Vector Network Analyzer 
! Rohde-Schwarz,ZNB20-2Port,1311601062101988,3.16
! Created: UTC 3/21/2024, 1:01:09 AM
! freq[Hz]                re:S11                  im:S11                  re:S21                  im:S21                  re:S12                  im:S12                  re:S22                  im:S22
 8.149347502000000E9    -1.570806809376725E-2    5.387213586100181E-1   -2.617675300587140E-3    2.802155099960789E-4   -2.621800107265559E-3    2.928498783489796E-4    1.449922964464191E-1    4.949946804460267E-1
 8.149359326675000E9    -1.491770216740575E-2    5.386318657184619E-1   -2.591377286344042E-3    2.991884953406880E-4   -2.657782848863610E-3    3.592604043079421E-4    1.459201205989711E-1    4.946642510653487E-1
 8.149371151350000E9    -1.423092368355198E-2    5.387691501957622E-1   -2.637136337771000E-3    2.601946738560905E-4   -2.640153536171184E-3    3.481488370452170E-4    1.466566403736477E-1    4.944382239776227E-1
 8.149382976025000E9    -1.324030580774957E-2    5.386628834894852E-1   -2.593740607364630E-3    2.528911925465085E-4   -2.659464270172619E-3    3.456471372079744E-4    1.473246191336894E-1    4.942256008023458E-1
 8.149394800700000E9    -1.228182146801449E-2    5.387156327686707E-1   -2.647801020180952E-3    3.048108202040013E-4   -2.654042891234746E-3    3.434560303780893E-4    1.480840362966472E-1    4.940434086318992E-1
 8.149406625375000E9    -1.173245783396873E-2    5.388048994074723E-1   -2.635512956628523E-3    2.974721531779326E-4   -2.645896594585852E-3    3.377149572904539E-4    1.488296011540622E-1    4.937086708553393E-1
 8.149418450050000E9    -1.081746433478891E-2    5.388284532746165E-1   -2.626559677662710E-3    3.028018693945622E-4   -2.613601689464900E-3    3.691614029348151E-4    1.494659389692294E-1    4.935481020848522E-1
 8.149430274725000E9    -9.826341986116902E-3    5.388752607318916E-1   -2.589474131402502E-3    2.959442740035288E-4   -2.657918194511904E-3    3.714916106945613E-4    1.502675266757572E-1    4.930784215434763E-1
 8.149442099400000E9    -9.158515069513947E-3    5.388586529882395E-1   -2.627885938394053E-3    2.984596945893600E-4   -2.607448258179016E-3    3.588438414814405E-4    1.510479802515735E-1    4.929669479531655E-1
 8.149453924075000E9    -8.225884762485257E-3    5.389998188360831E-1   -2.615047286647600E-3    3.083280347351814E-4   -2.626688284407583E-3    3.604691995872374E-4    1.517750994500661E-1    4.928090288528439E-1
 8.149465748750000E9    -7.429710272733777E-3    5.390037433995506E-1   -2.614127282692562E-3    3.196690168829251E-4   -2.649160244118170E-3    3.566549627151450E-4    1.525017775348776E-1    4.926607379403173E-1
 8.149477573425000E9    -6.615570746674928E-3    5.390033004384827E-1   -2.611900368016966E-3    3.305527462539836E-4   -2.639951493724790E-3    4.024292011716196E-4    1.532027446675137E-1    4.922916936865291E-1
 8.149489398100000E9    -5.696358213190968E-3    5.390415902214609E-1   -2.615726611869367E-3    3.025130645334506E-4   -2.640874677079647E-3    3.691190170285994E-4    1.539743498678060E-1    4.920212702613976E-1
 8.149501222775000E9    -4.895227781481496E-3    5.391455966274574E-1   -2.617908831100448E-3    3.227879024926432E-4   -2.644767881043385E-3    3.803491890039400E-4    1.545912894349055E-1    4.919316081771263E-1
 8.149513047450000E9    -4.000898426116409E-3    5.391843219830129E-1   -2.630814194770797E-3    3.369327856727524E-4   -2.661011860735285E-3    3.904903151963319E-4    1.554734380000413E-1    4.915454022664876E-1
 8.149524872125000E9    -3.270938527850976E-3    5.391921241924720E-1   -2.609606846534885E-3    3.172801150617135E-4   -2.662407763785930E-3    3.675797523074829E-4    1.561984741875818E-1    4.913091701008712E-1
 8.149536696800000E9    -2.458322657396935E-3    5.391533790753154E-1   -2.623974966145444E-3    3.496426015881159E-4   -2.666671897386228E-3    3.648851543345880E-4    1.567694462547468E-1    4.911629503823459E-1
 8.149548521475000E9    -1.561352381143036E-3    5.392040120474505E-1   -2.599286477030293E-3    3.339762065598762E-4   -2.633106589943306E-3    3.895035898330528E-4    1.573878511293149E-1    4.909158428511139E-1
 8.149560346150000E9    -8.570323361979493E-4    5.391782192448373E-1   -2.623864910299192E-3    3.464633652888921E-4   -2.623507071180007E-3    3.752890837084700E-4    1.582926760139355E-1    4.907036874319366E-1
 8.149572170825000E9     7.271879037107179E-5    5.392034412057967E-1   -2.600079517124159E-3    3.535729267669280E-4   -2.660763404760316E-3    3.874670352778506E-4    1.589845189116251E-1    4.902789411363250E-1
 8.149583995500000E9     8.450256972260710E-4    5.393107358985574E-1   -2.626468435842933E-3    3.102516451027057E-4   -2.627668075607437E-3    4.143523017949418E-4    1.598203329158595E-1    4.900218126550056E-1
 8.149595820175000E9     1.685361668262950E-3    5.393873324139681E-1   -2.620827125654518E-3    3.646386388525137E-4   -2.623759235396294E-3    4.033531133761974E-4    1.604461029018571E-1    4.899754694928349E-1
 8.149607644850000E9     2.494709035554716E-3    5.392938405135665E-1   -2.625265355682372E-3    3.495636720876934E-4   -2.647647037169415E-3    4.233730104478285E-4    1.611584126927463E-1    4.895817320895799E-1
 8.149619469525000E9     3.325760134333215E-3    5.392814934843386E-1   -2.644731751360092E-3    3.911417825587610E-4   -2.648657142992081E-3    4.070058111605099E-4    1.617486757513278E-1    4.892958759318196E-1
 8.149631294200000E9     4.063724962101769E-3    5.393490568398053E-1   -2.592111209895748E-3    3.755258170590507E-4   -2.607680191568497E-3    3.845317019514486E-4    1.626377665814685E-1    4.891720883353998E-1
 8.149643118875000E9     5.011823160784786E-3    5.392853882470471E-1   -2.596273131613827E-3    3.808146618638948E-4   -2.650223793339305E-3    4.205568297189419E-4    1.633985822350614E-1    4.888766385411671E-1
 8.149654943550000E9     5.881482775331496E-3    5.392920722106805E-1   -2.619859939942637E-3    3.879526156320627E-4   -2.633038470962109E-3    4.263820132690721E-4    1.641177808706580E-1    4.884942410134446E-1
 8.149666768225000E9     6.658677028135507E-3    5.394385217318326E-1   -2.617908679978284E-3    3.595166176621518E-4   -2.600070477227120E-3    4.590093140894946E-4    1.649491107906020E-1    4.883004608002763E-1
 8.149678592900000E9     7.528139117488584E-3    5.393093307390719E-1   -2.608428691237578E-3    3.871526436294055E-4   -2.617289014284008E-3    4.165349206024040E-4    1.655448696935780E-1    4.880492822625385E-1
 8.149690417575000E9     8.484383595648813E-3    5.393018718978532E-1   -2.617342923405088E-3    3.960678349541623E-4   -2.628448745820684E-3    4.426957169524122E-4    1.662938994203606E-1    4.877740283649994E-1
 8.149702242250000E9     9.091943492500039E-3    5.393737378325711E-1   -2.608513953499496E-3    3.934662384611991E-4   -2.633690820345492E-3    4.313541854879658E-4    1.668910269600392E-1    4.873676520848653E-1
 8.149714066925000E9     9.954381052207615E-3    5.394230890574381E-1   -2.623739288007077E-3    3.936255783951322E-4   -2.623250034002974E-3    4.538273702827197E-4    1.676864276519050E-1    4.873376680366068E-1
 8.149725891600000E9     1.074595379316224E-2    5.393324332079690E-1   -2.596625198677360E-3    4.222362677195083E-4   -2.640273576699033E-3    4.916130972962417E-4    1.684234819164704E-1    4.869611272676731E-1
 8.149737716275000E9     1.162193624597904E-2    5.393049243513285E-1   -2.615023464153685E-3    4.176380664133494E-4   -2.622643088786968E-3    4.746148184258055E-4    1.692421153922856E-1    4.868007149545905E-1
 8.149749540950000E9     1.244181921308848E-2    5.394028643705797E-1   -2.618535920936662E-3    4.080663041428568E-4   -2.627341416444365E-3    4.675816818551175E-4    1.698412540979661E-1    4.864795389762261E-1
 8.149761365625000E9     1.333788728049614E-2    5.392614897319350E-1   -2.609163693727319E-3    4.270266730142540E-4   -2.635719921388838E-3    4.660401233523693E-4    1.704833256719444E-1    4.863194590354720E-1
 8.149773190300000E9     1.410159571360475E-2    5.394423108965677E-1   -2.610369565654503E-3    4.299748092114598E-4   -2.626515706231208E-3    4.672479184141686E-4    1.714054221049871E-1    4.859879893767936E-1
 8.149785014975000E9     1.499948761027165E-2    5.393867076722523E-1   -2.619148098696770E-3    4.271665876577103E-4   -2.622927364385151E-3    4.871441016892340E-4    1.720533629867452E-1    4.857610183024168E-1
 8.149796839650000E9     1.571008061043188E-2    5.394122839625292E-1   -2.582718542358930E-3    4.393038474771589E-4   -2.641633787355207E-3    5.005462903025637E-4    1.727103173888321E-1    4.854109681737280E-1
 8.149808664325000E9     1.659122994047089E-2    5.392889977458535E-1   -2.643822359492089E-3    4.333886224818590E-4   -2.629168851337470E-3    4.788589677269929E-4    1.733896094655636E-1    4.852069593948945E-1
 8.149820489000000E9     1.741289533685081E-2    5.393641070177516E-1   -2.600380198771775E-3    4.539989404921981E-4   -2.644064999558499E-3    5.169619405101106E-4    1.741718477589372E-1    4.849824162542760E-1
 8.149832313675000E9     1.836924827882193E-2    5.394095937109092E-1   -2.607387123023652E-3    4.768280387211801E-4   -2.651496020198642E-3    5.231176264432776E-4    1.750430471907376E-1    4.845965411064060E-1
 8.149844138350000E9     1.909059504937882E-2    5.393540237426906E-1   -2.630114078710616E-3    4.599366372636868E-4   -2.650767488629446E-3    5.005521997795550E-4    1.757282103712826E-1    4.842970754070262E-1
 8.149855963025000E9     1.988546700776781E-2    5.393594281755665E-1   -2.598454347384860E-3    4.458875007570788E-4   -2.631054860691366E-3    5.050669399160415E-4    1.763163069483138E-1    4.841166738718154E-1
 8.149867787700000E9     2.079591591171379E-2    5.393725809290485E-1   -2.614407877283138E-3    4.535453839272208E-4   -2.636130578566545E-3    5.274759628061237E-4    1.771350334428888E-1    4.837603335484811E-1
 8.149879612375000E9     2.145411382524517E-2    5.393488491853999E-1   -2.601977230091411E-3    4.602727963816938E-4   -2.625245279575655E-3    5.047727649247223E-4    1.777628497738563E-1    4.835252301303328E-1
 8.149891437050000E9     2.234644344414295E-2    5.392588121768722E-1   -2.591032943014607E-3    4.609282140321418E-4   -2.636356085314872E-3    5.230226798630804E-4    1.784491802775817E-1    4.833346083675708E-1
 8.149903261725000E9     2.310884876609472E-2    5.393273420355582E-1   -2.624267075505417E-3    4.764660824048425E-4   -2.615882745598576E-3    5.309140480163157E-4    1.791439578404119E-1    4.829083463754807E-1
 8.149915086400000E9     2.403920841373045E-2    5.393714788253829E-1   -2.608378825729085E-3    4.673770108813038E-4   -2.630150791218625E-3    5.220406437892338E-4    1.798806051189201E-1    4.826798037980363E-1
 8.149926911075000E9     2.499434408551418E-2    5.392711994457352E-1   -2.614391801257350E-3    4.802827181273364E-4   -2.627754900965050E-3    5.149697160502471E-4    1.806416288679153E-1    4.823906203082836E-1
 8.149938735750000E9     2.565647168206931E-2    5.392397153602276E-1   -2.611026642869829E-3    4.762573602873438E-4   -2.640038487132026E-3    5.390917842156297E-4    1.813210780328700E-1    4.822254646292970E-1
 8.149950560425000E9     2.659642640621170E-2    5.391355473724406E-1   -2.599473098055219E-3    4.895912543943840E-4   -2.652289424175055E-3    5.047971055302456E-4    1.820925343242770E-1    4.818246560418034E-1
 8.149962385100000E9     2.734610063789084E-2    5.391570651847141E-1   -2.608955441946553E-3    5.036150838283263E-4   -2.614862860812078E-3    5.267977494152183E-4    1.828507364717244E-1    4.816067969753579E-1
 8.149974209775000E9     2.811989302981775E-2    5.391826632932409E-1   -2.614417220649917E-3    5.146123086135653E-4   -2.624931136780024E-3    5.179525368757683E-4    1.836186558227547E-1    4.812243195786667E-1
 8.149986034450000E9     2.895649315862581E-2    5.391730233142781E-1   -2.608705799418916E-3    4.956356471638117E-4   -2.613140683675002E-3    5.577606770457737E-4    1.842989811608429E-1    4.808948055030538E-1
 8.149997859125000E9     2.996277869889545E-2    5.391013965965881E-1   -2.612461442920457E-3    5.173397746616340E-4   -2.616034567015801E-3    5.785198211003726E-4    1.849348820762333E-1    4.808044419837351E-1
 8.150009683800000E9     3.051673620687685E-2    5.391420709689541E-1   -2.602517474133152E-3    4.928192043171771E-4   -2.609116946441956E-3    5.193283125799191E-4    1.856442022414098E-1    4.803922333377676E-1
 8.150021508475000E9     3.152702475024313E-2    5.392123313171824E-1   -2.634006331758083E-3    5.341577720003468E-4   -2.605792554096597E-3    5.608737768904884E-4    1.863280596902923E-1    4.801099419837374E-1
 8.150033333150000E9     3.232041003073600E-2    5.390157762123077E-1   -2.625272873815507E-3    5.387655510421326E-4   -2.611890049903346E-3    5.701299505712617E-4    1.869778637247229E-1    4.799104704335263E-1
 8.150045157825000E9     3.306093963506724E-2    5.389499020593527E-1   -2.614527988625615E-3    5.198805216037513E-4   -2.641541976115096E-3    5.864248761777916E-4    1.876118156664663E-1    4.795306628755143E-1
 8.150056982500000E9     3.397001243936478E-2    5.389498208940674E-1   -2.600878515651574E-3    5.134239088301725E-4   -2.624941838177203E-3    5.553453955695824E-4    1.883291546421104E-1    4.792438144483886E-1
 8.150068807175000E9     3.479535699868083E-2    5.388624001799427E-1   -2.601874648278122E-3    5.191010421563996E-4   -2.631526618971795E-3    5.757159696082497E-4    1.891122061188694E-1    4.789243120559057E-1
 8.150080631850000E9     3.559931961891442E-2    5.388446426137545E-1   -2.602537071767652E-3    5.612906698076451E-4   -2.630763520644726E-3    6.049648693736474E-4    1.899201042107056E-1    4.787112569620228E-1
 8.150092456525000E9     3.642192047181853E-2    5.388453496379823E-1   -2.634105981782130E-3    5.414095206894774E-4   -2.628153689805528E-3    5.535434043487760E-4    1.906494443710460E-1    4.782626517991547E-1
 8.150104281200000E9     3.719929723352008E-2    5.387267833385069E-1   -2.612939447710108E-3    5.492090836983660E-4   -2.602793743660707E-3    6.075805234761117E-4    1.912487412469884E-1    4.779687289251424E-1
 8.150116105875000E9     3.806619939119977E-2    5.388038194117576E-1   -2.626406915326344E-3    5.505110252229491E-4   -2.636747989890885E-3    5.875679522274824E-4    1.920346777210990E-1    4.779010822847620E-1
 8.150127930550000E9     3.887028028498109E-2    5.387104604486002E-1   -2.596048514696407E-3    5.352054771270069E-4   -2.627797681806223E-3    5.963690444588512E-4    1.928304180286989E-1    4.773529111779088E-1
 8.150139755225000E9     3.975739671802377E-2    5.387804000302632E-1   -2.620483078476373E-3    5.357205845046083E-4   -2.623436034867583E-3    6.158461601332787E-4    1.934300594945060E-1    4.770990114755662E-1
 8.150151579900000E9     4.048600698769985E-2    5.386462953339077E-1   -2.615804332171964E-3    5.495771681421887E-4   -2.632081779277126E-3    6.230847721203685E-4    1.940744695039658E-1    4.768383490133535E-1
 8.150163404575000E9     4.138314073924492E-2    5.386461810478332E-1   -2.616840041550451E-3    5.685237894679335E-4   -2.621891394903962E-3    6.061640424459646E-4    1.949275643426119E-1    4.765282292928402E-1
 8.150175229250000E9     4.215894132501543E-2    5.385445423929628E-1   -2.588841838509654E-3    5.668637762610276E-4   -2.620822468124731E-3    6.197547168743575E-4    1.955609476221847E-1    4.764289992380151E-1
 8.150187053925000E9     4.308101184051318E-2    5.384664328901613E-1   -2.627677749893001E-3    5.696046314833892E-4   -2.641221365919181E-3    6.257893889459819E-4    1.962102404921486E-1    4.759957112303833E-1
 8.150198878600000E9     4.376826318251302E-2    5.383162191710588E-1   -2.627750399541577E-3    5.661443619465890E-4   -2.639967032313199E-3    6.177100763083139E-4    1.968795296574818E-1    4.756533228954299E-1
 8.150210703275000E9     4.474674126277830E-2    5.384311735142292E-1   -2.619471023187767E-3    5.871258791537461E-4   -2.621132467819759E-3    6.546604556685623E-4    1.977190467663315E-1    4.753087230323284E-1
 8.150222527950000E9     4.557471705488574E-2    5.383996778432951E-1   -2.629777122306257E-3    6.128003356566915E-4   -2.624830874585427E-3    6.458704319845124E-4    1.983311256284183E-1    4.749156838776029E-1
 8.150234352625000E9     4.625908135754320E-2    5.382638833390417E-1   -2.584516312860441E-3    5.973797291821006E-4   -2.628358230248523E-3    6.198044984833007E-4    1.991273507646515E-1    4.747199032762843E-1
 8.150246177300000E9     4.713712183768543E-2    5.382546178137902E-1   -2.616611127806671E-3    6.134603858628997E-4   -2.618729877068317E-3    6.338093903468819E-4    1.999135905269906E-1    4.744984618844897E-1
 8.150258001975000E9     4.795295957624490E-2    5.381484575420802E-1   -2.599818948486839E-3    6.021273800780843E-4   -2.602714542504667E-3    6.347607649509027E-4    2.004637108781455E-1    4.740210512086677E-1
 8.150269826650000E9     4.874047114482657E-2    5.381761316342194E-1   -2.606903394554080E-3    6.034598662243215E-4   -2.622730711327034E-3    6.579586329312516E-4    2.012138593167238E-1    4.737501599530261E-1
 8.150281651325000E9     4.958563496321901E-2    5.381563563526235E-1   -2.594010916444635E-3    6.278877007922501E-4   -2.624357047867092E-3    6.493818724669014E-4    2.018627660774684E-1    4.734751127298999E-1
 8.150293476000000E9     5.036905283287001E-2    5.380803058735747E-1   -2.606146181849605E-3    6.238186140588712E-4   -2.642719354548784E-3    6.719046562338850E-4    2.026244605981108E-1    4.732168861976107E-1
 8.150305300675000E9     5.140529988083695E-2    5.380136239707161E-1   -2.628960871045877E-3    6.233203040229064E-4   -2.625083005080179E-3    6.730358392283754E-4    2.031898388492191E-1    4.728109481818349E-1
 8.150317125350000E9     5.214601153494528E-2    5.379289235484985E-1   -2.599238527268804E-3    6.287645213997750E-4   -2.604653301232275E-3    6.743092365084210E-4    2.040434984018170E-1    4.725159370981029E-1
 8.150328950025000E9     5.292737228575381E-2    5.378458183959808E-1   -2.604072053934332E-3    6.071982309861496E-4   -2.629564157178176E-3    6.736241730144791E-4    2.047512441605897E-1    4.723018382061791E-1
 8.150340774700000E9     5.375341061444666E-2    5.377549409078989E-1   -2.615620578520592E-3    6.488601137309805E-4   -2.646097664431679E-3    6.729287682067990E-4    2.054187410927495E-1    4.720544029736553E-1
 8.150352599375000E9     5.457240570136205E-2    5.377700952201184E-1   -2.633474823101697E-3    6.633591706657644E-4   -2.656691318480899E-3    6.890973441386819E-4    2.061187760237905E-1    4.715567329216079E-1
 8.150364424050000E9     5.536099052078240E-2    5.376454309757710E-1   -2.600750611653675E-3    6.355320042946021E-4   -2.635599155177218E-3    6.970946542202227E-4    2.067772544638780E-1    4.712651685861008E-1
 8.150376248725000E9     5.625532008833385E-2    5.375473924953494E-1   -2.604476031803263E-3    6.305549153922364E-4   -2.623047707305808E-3    7.007647408241741E-4    2.073025174534981E-1    4.709229130770838E-1
 8.150388073400000E9     5.703515096210376E-2    5.375446005679670E-1   -2.630563625897378E-3    6.691263031179088E-4   -2.619837426523638E-3    6.820195200518379E-4    2.081350727352069E-1    4.705681438544584E-1
 8.150399898075000E9     5.777680461232957E-2    5.375518995230238E-1   -2.633164126525883E-3    6.614172044993173E-4   -2.631263149855473E-3    7.106856720415212E-4    2.089601167189948E-1    4.703687083979132E-1
 8.150411722750000E9     5.872174143617211E-2    5.373407105010334E-1   -2.629749410272780E-3    6.654065384596485E-4   -2.640850578246360E-3    7.322399562797388E-4    2.094883742457317E-1    4.699486115506096E-1
