#  HZ   S   RI   R     50.00 
! Rohde & Schwarz Vector Network Analyzer 
! Rohde-Schwarz,ZNB20-2Port,1311601062101988,3.16
! Created: UTC 3/21/2024, 12:51:18 AM
! freq[Hz]                re:S11                  im:S11                  re:S21                  im:S21                  re:S12                  im:S12                  re:S22                  im:S22
 8.151392707000000E9     1.350070010870140E-1    5.270240099495868E-1   -3.088670464752123E-3    1.349135761134104E-3   -3.099966332721753E-3    1.414158407669567E-3    2.761308445295313E-1    4.336164635803863E-1
 8.151394348175000E9     1.349614387845795E-1    5.269311020580406E-1   -3.088840478042285E-3    1.386815738481219E-3   -3.119152930061898E-3    1.420824474192860E-3    2.763704880972633E-1    4.335030924754917E-1
 8.151395989350000E9     1.351702353166882E-1    5.268176928384245E-1   -3.086777215297819E-3    1.364226120581967E-3   -3.122662982165128E-3    1.411047757800913E-3    2.763729886972242E-1    4.335058790921782E-1
 8.151397630525000E9     1.353850950964742E-1    5.267511316449706E-1   -3.093148468068010E-3    1.392708514284412E-3   -3.098340183208855E-3    1.447268948873628E-3    2.764918019969593E-1    4.333417494970396E-1
 8.151399271700000E9     1.355690304928369E-1    5.268224296174429E-1   -3.101747253680407E-3    1.393180303751691E-3   -3.099977882982931E-3    1.465398664898184E-3    2.766484339622964E-1    4.334250209828385E-1
 8.151400912875000E9     1.356937650376198E-1    5.267300243639053E-1   -3.111071263924377E-3    1.370876355856834E-3   -3.111388969928968E-3    1.460947988458199E-3    2.765035267416218E-1    4.332986908223300E-1
 8.151402554050000E9     1.357153847252886E-1    5.267893933166850E-1   -3.118287770846470E-3    1.392909092133778E-3   -3.150056595053968E-3    1.449578668542073E-3    2.769078559787301E-1    4.332908273417307E-1
 8.151404195225000E9     1.359540776492964E-1    5.266359789666671E-1   -3.112028903270694E-3    1.396286460396304E-3   -3.103767421465074E-3    1.450220460044677E-3    2.767315657072892E-1    4.333420064722037E-1
 8.151405836400000E9     1.359731720847390E-1    5.266149750304465E-1   -3.120508459393947E-3    1.406338602878383E-3   -3.118621393905939E-3    1.444201170973549E-3    2.769644222793082E-1    4.331244062244696E-1
 8.151407477575000E9     1.362555332378564E-1    5.264944734557845E-1   -3.124561171809488E-3    1.434239058854831E-3   -3.136194392137570E-3    1.458172676369112E-3    2.769317188120583E-1    4.330341262865616E-1
 8.151409118750000E9     1.362355726206956E-1    5.265570453124575E-1   -3.115022455523167E-3    1.399387723650755E-3   -3.152575263133602E-3    1.490079886626791E-3    2.770307313329533E-1    4.331137377835851E-1
 8.151410759925000E9     1.364714560268225E-1    5.265711149571017E-1   -3.147239980323638E-3    1.409192002654467E-3   -3.147099949693638E-3    1.443848472105451E-3    2.771930293198979E-1    4.328694834582745E-1
 8.151412401100000E9     1.365143031962456E-1    5.264144523137041E-1   -3.129954134278647E-3    1.419698251448699E-3   -3.162270086341976E-3    1.451585225088201E-3    2.772769041764822E-1    4.328860242165757E-1
 8.151414042275000E9     1.366102230222440E-1    5.264373029862360E-1   -3.134707282038148E-3    1.407869749817630E-3   -3.156920621740472E-3    1.476798606493775E-3    2.773006862980578E-1    4.327755899898648E-1
 8.151415683450000E9     1.368048252117581E-1    5.264906443811667E-1   -3.139246678735350E-3    1.431609023095484E-3   -3.149653838869375E-3    1.464388132665775E-3    2.773804005981060E-1    4.326541229633750E-1
 8.151417324625000E9     1.369416495447332E-1    5.262503949059717E-1   -3.141058528770445E-3    1.424956654256837E-3   -3.123873021339145E-3    1.495261913480715E-3    2.774285333077035E-1    4.326904273301194E-1
 8.151418965800000E9     1.370882813421932E-1    5.264353449812266E-1   -3.138825038769567E-3    1.441543869137842E-3   -3.141769871414134E-3    1.478496707952255E-3    2.776478987413749E-1    4.326530287857384E-1
 8.151420606975000E9     1.374221189213283E-1    5.263859820069575E-1   -3.145065831371743E-3    1.423612999298666E-3   -3.142796291875811E-3    1.456713549966382E-3    2.777418630266145E-1    4.325651957903482E-1
 8.151422248150000E9     1.374636325157376E-1    5.261724167993914E-1   -3.144222823774480E-3    1.405907479613068E-3   -3.165552037658337E-3    1.477675034182163E-3    2.778565196899019E-1    4.325206374815863E-1
 8.151423889325000E9     1.376352068782973E-1    5.260993505702678E-1   -3.176503840175012E-3    1.450131080170965E-3   -3.163689208945240E-3    1.501588093860755E-3    2.778657024806552E-1    4.324261029024045E-1
 8.151425530500000E9     1.375578721753993E-1    5.262152559836037E-1   -3.173293333985316E-3    1.434267203599740E-3   -3.156106017975734E-3    1.502699734276824E-3    2.779788798360303E-1    4.323785126071035E-1
 8.151427171675000E9     1.377767766853665E-1    5.260981711037928E-1   -3.163208520209594E-3    1.451581391838378E-3   -3.172624012831372E-3    1.513649967888750E-3    2.779882226492069E-1    4.323872618960306E-1
 8.151428812850000E9     1.380417285372454E-1    5.260940227830843E-1   -3.175157458756044E-3    1.449474629176638E-3   -3.196157757410276E-3    1.513276842213634E-3    2.782239650107058E-1    4.323342427189000E-1
 8.151430454025000E9     1.381068249126689E-1    5.261168763988859E-1   -3.187196104194530E-3    1.452360226207156E-3   -3.193357806232576E-3    1.522778264537348E-3    2.783072209154402E-1    4.321889468866845E-1
 8.151432095200000E9     1.383186435770525E-1    5.260260897863706E-1   -3.176770329872298E-3    1.449562240539984E-3   -3.176660993485503E-3    1.498340183319895E-3    2.783708976271390E-1    4.320726097345534E-1
 8.151433736375000E9     1.382967376354837E-1    5.259986508248887E-1   -3.192151263642059E-3    1.475762455814961E-3   -3.182971081893762E-3    1.516388095380616E-3    2.784676824740129E-1    4.321549346286332E-1
 8.151435377550000E9     1.385154023256312E-1    5.259650309935080E-1   -3.202106231278180E-3    1.473002082503108E-3   -3.208649626482973E-3    1.549726609944598E-3    2.785323328131224E-1    4.320765031196409E-1
 8.151437018725000E9     1.386441957331687E-1    5.259091151999384E-1   -3.216535659533572E-3    1.470543614029484E-3   -3.223549255289432E-3    1.493737505767727E-3    2.785806517186394E-1    4.317668549941196E-1
 8.151438659900000E9     1.388447920609571E-1    5.259045606388443E-1   -3.196768361168685E-3    1.469763841735517E-3   -3.185081123724832E-3    1.540898985329410E-3    2.788119634220285E-1    4.319842271389049E-1
 8.151440301075000E9     1.389419808319154E-1    5.258184442939519E-1   -3.169100559041991E-3    1.487469625714295E-3   -3.191279852355219E-3    1.539060742760084E-3    2.788539349288261E-1    4.318800357687700E-1
 8.151441942250000E9     1.390773559795498E-1    5.257726491597458E-1   -3.216725865787741E-3    1.480186959884622E-3   -3.239194710282293E-3    1.510273136084828E-3    2.788851650108738E-1    4.317845180417937E-1
 8.151443583425000E9     1.392710288307843E-1    5.258240784057679E-1   -3.232961382193692E-3    1.493725084833690E-3   -3.209191540756867E-3    1.545534994679798E-3    2.789945282040061E-1    4.318990325248995E-1
 8.151445224600000E9     1.394217396218391E-1    5.257038887127360E-1   -3.202317130780013E-3    1.490820852601813E-3   -3.234288777396120E-3    1.535420187375080E-3    2.791074458725427E-1    4.316257696597146E-1
 8.151446865775000E9     1.395243068886632E-1    5.255585301946909E-1   -3.215725850971185E-3    1.479427511534028E-3   -3.219447722342568E-3    1.518895446016195E-3    2.791897751983112E-1    4.314722975414641E-1
 8.151448506950000E9     1.397282745473621E-1    5.257200381695333E-1   -3.240883534470578E-3    1.497518163201357E-3   -3.229299128211150E-3    1.560422315786075E-3    2.793545590383363E-1    4.315972987046939E-1
 8.151450148125000E9     1.397311794302525E-1    5.255781524914548E-1   -3.221105441263804E-3    1.510332147967467E-3   -3.246648159887448E-3    1.579513701991307E-3    2.792670220328289E-1    4.314603127012849E-1
 8.151451789300000E9     1.400676304299718E-1    5.256054654447485E-1   -3.237741925507422E-3    1.496543468046645E-3   -3.255262371135143E-3    1.545081058484028E-3    2.793857189587271E-1    4.314214966628802E-1
 8.151453430475000E9     1.400464034762793E-1    5.255386475750745E-1   -3.248228748177334E-3    1.519355756966639E-3   -3.248787010923852E-3    1.572428312251147E-3    2.795116132958846E-1    4.313456681813518E-1
 8.151455071650000E9     1.402062387380728E-1    5.254736629817542E-1   -3.236965058291707E-3    1.509074114523384E-3   -3.230990812844112E-3    1.557705416821227E-3    2.796551854577285E-1    4.314423204917183E-1
 8.151456712825000E9     1.403905658187314E-1    5.254007287768079E-1   -3.262580062539030E-3    1.499817418492640E-3   -3.285906089259174E-3    1.603977283555898E-3    2.796629991545782E-1    4.313917437184548E-1
 8.151458354000000E9     1.405098881216636E-1    5.253785850736054E-1   -3.235922999221795E-3    1.547277834145570E-3   -3.302254199476283E-3    1.594350397477984E-3    2.797519888863375E-1    4.311592047082115E-1
 8.151459995175000E9     1.406867804495352E-1    5.253479531420597E-1   -3.271222256386310E-3    1.525148650269818E-3   -3.255678326066022E-3    1.616235682003059E-3    2.797879931116735E-1    4.311928655215994E-1
 8.151461636350000E9     1.407323256430142E-1    5.252781241720840E-1   -3.251389641788432E-3    1.508053400721453E-3   -3.272902127192303E-3    1.596714950983837E-3    2.800231823250338E-1    4.310883432136641E-1
 8.151463277525000E9     1.409797125808969E-1    5.251799138628085E-1   -3.273326978190449E-3    1.554023410906690E-3   -3.284070318907568E-3    1.602583109713055E-3    2.801592514731380E-1    4.310214560503322E-1
 8.151464918700000E9     1.410306687971326E-1    5.251763515534557E-1   -3.288859121264193E-3    1.560541263182538E-3   -3.289061619127814E-3    1.639211122193507E-3    2.801613372712020E-1    4.309888305894130E-1
 8.151466559875000E9     1.412640071645521E-1    5.251227963080702E-1   -3.283565288163284E-3    1.536761584640617E-3   -3.330263018199588E-3    1.605156734646138E-3    2.801660572543266E-1    4.307861115676462E-1
 8.151468201050000E9     1.413147465760305E-1    5.251507906699361E-1   -3.316175247373383E-3    1.558944773979707E-3   -3.277447623499513E-3    1.621859590624984E-3    2.804021112610385E-1    4.307911269001410E-1
 8.151469842225000E9     1.415509199951858E-1    5.250328273819944E-1   -3.303605513619706E-3    1.572251638061876E-3   -3.327540719026468E-3    1.635999815312278E-3    2.804969795534249E-1    4.307519326510582E-1
 8.151471483400000E9     1.415733583216193E-1    5.250836975186303E-1   -3.304477671612533E-3    1.542734980595626E-3   -3.277126609478271E-3    1.595379034372211E-3    2.804135529304514E-1    4.307477627459623E-1
 8.151473124575000E9     1.418196534980550E-1    5.248604623152746E-1   -3.297294510534849E-3    1.574491744646305E-3   -3.328006246091543E-3    1.632482357545835E-3    2.806124580309706E-1    4.305905021778888E-1
 8.151474765750000E9     1.420591288007010E-1    5.249347304626765E-1   -3.302004277754819E-3    1.593839629091506E-3   -3.349915340147318E-3    1.652148976037755E-3    2.807676469910157E-1    4.306476046664178E-1
 8.151476406925000E9     1.420964950639477E-1    5.248538589216116E-1   -3.304116662232735E-3    1.594580531585657E-3   -3.307632111873671E-3    1.622951716038461E-3    2.807652317336376E-1    4.305297211886343E-1
 8.151478048100000E9     1.423754042326628E-1    5.248702698056161E-1   -3.337345091094630E-3    1.576109638643245E-3   -3.318314856088951E-3    1.650333054446380E-3    2.809117216408824E-1    4.304686618149899E-1
 8.151479689275000E9     1.423601249648267E-1    5.248675161134294E-1   -3.329245711230478E-3    1.573022310653306E-3   -3.325113910719768E-3    1.623890396315042E-3    2.810181124172928E-1    4.303293880122778E-1
 8.151481330450000E9     1.425507977567390E-1    5.247824842924369E-1   -3.309502797934940E-3    1.591829089478137E-3   -3.336823552187665E-3    1.667983758957438E-3    2.810036212556322E-1    4.303273360664244E-1
 8.151482971625000E9     1.426968732235433E-1    5.247855914906584E-1   -3.322915551565077E-3    1.585122358238192E-3   -3.346017679588036E-3    1.674351461312661E-3    2.811029928811964E-1    4.303934628671481E-1
 8.151484612800000E9     1.428718998338744E-1    5.247225700061258E-1   -3.359898211026107E-3    1.614129823566891E-3   -3.362460559061124E-3    1.673242839957648E-3    2.811195199556718E-1    4.302796071343531E-1
 8.151486253975000E9     1.430312055866566E-1    5.247077425624052E-1   -3.332408553111680E-3    1.589474926589451E-3   -3.343833214520357E-3    1.678523573415496E-3    2.812195924495070E-1    4.301437111034547E-1
 8.151487895150000E9     1.430955716732232E-1    5.246510697718012E-1   -3.346711849775177E-3    1.622719866410789E-3   -3.349264574779268E-3    1.684930347247024E-3    2.813406992224931E-1    4.300769093558463E-1
 8.151489536325000E9     1.433206849465839E-1    5.246307944076285E-1   -3.385794086528628E-3    1.608970343238928E-3   -3.350680817460502E-3    1.704189491227114E-3    2.813968459606603E-1    4.300593115956478E-1
 8.151491177500000E9     1.433624784097602E-1    5.246193217399679E-1   -3.363076998236098E-3    1.637630002835824E-3   -3.366406823654133E-3    1.680572381598126E-3    2.814683807552724E-1    4.300018196022639E-1
 8.151492818675000E9     1.435697484642096E-1    5.244160113012774E-1   -3.380946166804286E-3    1.636310430390604E-3   -3.377533898829044E-3    1.683889837117268E-3    2.815739495268537E-1    4.299832246773043E-1
 8.151494459850000E9     1.437594245905190E-1    5.244854702398702E-1   -3.396288987819157E-3    1.687470697590981E-3   -3.390612100029460E-3    1.692597327674028E-3    2.816994435955813E-1    4.298375613001413E-1
 8.151496101025000E9     1.438961515998783E-1    5.243659183941569E-1   -3.421831588238879E-3    1.653656489919571E-3   -3.387515524414428E-3    1.729959624028474E-3    2.817409482821679E-1    4.297663287845088E-1
 8.151497742200000E9     1.439552295930371E-1    5.243843166979749E-1   -3.393043099910138E-3    1.652496895417499E-3   -3.407309804422820E-3    1.726563401821344E-3    2.818115326256702E-1    4.297631196273781E-1
 8.151499383375000E9     1.441671376194849E-1    5.241528868208589E-1   -3.418667248848876E-3    1.660755231455022E-3   -3.423073573120433E-3    1.727615045651418E-3    2.820472121071065E-1    4.297208894147705E-1
 8.151501024550000E9     1.442935601140140E-1    5.243823906855011E-1   -3.411658556133537E-3    1.676027275821296E-3   -3.445870330812546E-3    1.704284600573095E-3    2.821479650857094E-1    4.296076576014219E-1
 8.151502665725000E9     1.444690457103665E-1    5.241309189331278E-1   -3.433574768126307E-3    1.678914057245539E-3   -3.450942984105885E-3    1.707283659435139E-3    2.821902300792047E-1    4.295211372131365E-1
 8.151504306900000E9     1.446347171571096E-1    5.240928259154812E-1   -3.421530126450626E-3    1.693293698737883E-3   -3.438616733004010E-3    1.730078885818821E-3    2.822907076895623E-1    4.294879588035617E-1
 8.151505948075000E9     1.447131610142735E-1    5.239723111902237E-1   -3.433918311877610E-3    1.651350203473596E-3   -3.461089627251913E-3    1.755555553828888E-3    2.822285821586810E-1    4.294770028829372E-1
 8.151507589250000E9     1.448988930598248E-1    5.240453678363733E-1   -3.429772915114480E-3    1.696749833051052E-3   -3.458752116539356E-3    1.755572628426410E-3    2.824046178711319E-1    4.294355996940298E-1
 8.151509230425000E9     1.450412172823081E-1    5.240015974399642E-1   -3.438449974017930E-3    1.673672870357200E-3   -3.468871647004147E-3    1.783919243991800E-3    2.826141045274458E-1    4.293071645200918E-1
 8.151510871600000E9     1.451388838560101E-1    5.240058258039537E-1   -3.462615360756108E-3    1.729177775523957E-3   -3.480372870954682E-3    1.781302026273179E-3    2.827850808601423E-1    4.291642385727577E-1
 8.151512512775000E9     1.453974272618865E-1    5.239008217935136E-1   -3.470431074996279E-3    1.704258417868189E-3   -3.487210947752399E-3    1.786064777106209E-3    2.827074973363465E-1    4.291351001282920E-1
 8.151514153950000E9     1.455157534550094E-1    5.237362258788819E-1   -3.468378169703534E-3    1.740017958183689E-3   -3.468354747009314E-3    1.790529047156914E-3    2.826644756412583E-1    4.290627690528638E-1
 8.151515795125000E9     1.457698072384154E-1    5.238244173446630E-1   -3.467445428145312E-3    1.707043377708755E-3   -3.506918431382977E-3    1.813381598816948E-3    2.827981917075063E-1    4.290537615535018E-1
 8.151517436300000E9     1.459700125888564E-1    5.237493021514541E-1   -3.479084322868487E-3    1.726225080648202E-3   -3.498197149448556E-3    1.807476234497877E-3    2.829442477709125E-1    4.289712380326917E-1
 8.151519077475000E9     1.460666529903751E-1    5.236866838892018E-1   -3.482774484462237E-3    1.732140511492493E-3   -3.512778164690181E-3    1.793692230289692E-3    2.830802001259121E-1    4.290338259727750E-1
 8.151520718650000E9     1.462036286235639E-1    5.236205932579016E-1   -3.470890284889197E-3    1.741205869959248E-3   -3.473557831726876E-3    1.822410287722921E-3    2.831465486420954E-1    4.288524315175611E-1
 8.151522359825000E9     1.463052622825187E-1    5.236015739358716E-1   -3.516411739315562E-3    1.738036105663255E-3   -3.510066710494144E-3    1.824867594165205E-3    2.832369923182152E-1    4.288526785369741E-1
 8.151524001000000E9     1.465594267704931E-1    5.235509591597824E-1   -3.491240576680113E-3    1.771844961145532E-3   -3.519825582912391E-3    1.852346434055817E-3    2.832565019647298E-1    4.287909675930751E-1
 8.151525642175000E9     1.466520353184290E-1    5.234054308399885E-1   -3.524451832805366E-3    1.774472016228231E-3   -3.515207926813242E-3    1.825504788226826E-3    2.834078958444635E-1    4.286089802689106E-1
 8.151527283350000E9     1.468279919051084E-1    5.233670221402400E-1   -3.529676712203987E-3    1.814174696519940E-3   -3.540218970360596E-3    1.860129210607739E-3    2.834667290826245E-1    4.285980617355754E-1
 8.151528924525000E9     1.469809430399925E-1    5.234220686049178E-1   -3.547268141556014E-3    1.796802927142992E-3   -3.530227507684807E-3    1.868419441747464E-3    2.836790352347790E-1    4.284822588068065E-1
 8.151530565700000E9     1.472066901894565E-1    5.231674121224744E-1   -3.544850660642862E-3    1.799194276316072E-3   -3.563940849041463E-3    1.880732374436184E-3    2.837175765682921E-1    4.285312686521853E-1
 8.151532206875000E9     1.473817812157687E-1    5.232103424121990E-1   -3.557688605954880E-3    1.789589359260543E-3   -3.571490432453406E-3    1.885590055114183E-3    2.837298816568131E-1    4.284305834190845E-1
 8.151533848050000E9     1.475052806836630E-1    5.231142704310823E-1   -3.573232752515532E-3    1.834674000308941E-3   -3.593873666423408E-3    1.889728325997551E-3    2.838133248317507E-1    4.283947336901620E-1
 8.151535489225000E9     1.476028752207897E-1    5.230984147880274E-1   -3.597770442764923E-3    1.850904176513268E-3   -3.583047892710880E-3    1.888694487160220E-3    2.840630303514412E-1    4.282524332047067E-1
 8.151537130400000E9     1.478851683800766E-1    5.230999057143013E-1   -3.602154152988874E-3    1.834270379009465E-3   -3.571174397555357E-3    1.918058457113039E-3    2.840851096598254E-1    4.281606946357215E-1
 8.151538771575000E9     1.478805003942625E-1    5.228947124635680E-1   -3.616793022331984E-3    1.851787199349878E-3   -3.602354699780190E-3    1.891306912473620E-3    2.842016958516083E-1    4.281600589144368E-1
 8.151540412750000E9     1.481076249403176E-1    5.228732885067366E-1   -3.586160628885822E-3    1.853778716684126E-3   -3.608548472230600E-3    1.907673044341769E-3    2.842852119841068E-1    4.281534248491541E-1
