#  HZ   S   RI   R     50.00 
! Rohde & Schwarz Vector Network Analyzer 
! Rohde-Schwarz,ZNB20-2Port,1311601062101988,3.16
! Created: UTC 3/21/2024, 1:01:46 AM
! freq[Hz]                re:S11                  im:S11                  re:S21                  im:S21                  re:S12                  im:S12                  re:S22                  im:S22
 8.148998096000000E9    -4.021979191048572E-2    5.365232946011730E-1   -2.612841779183488E-3    1.458863183418168E-4   -2.645919516940677E-3    1.873132301330037E-4    1.229945223848003E-1    5.011149628893089E-1
 8.149011555100000E9    -3.926038938959063E-2    5.368574161064561E-1   -2.626679868910232E-3    1.520156330330956E-4   -2.661562272277327E-3    1.711783029690641E-4    1.238296011687699E-1    5.008992251570598E-1
 8.149025014200000E9    -3.837955170957436E-2    5.368050511589301E-1   -2.642046073843619E-3    1.725369475803051E-4   -2.659489452161675E-3    2.132441718891717E-4    1.247355430203672E-1    5.007808449364924E-1
 8.149038473300000E9    -3.738200575947295E-2    5.369883487395183E-1   -2.619525162972637E-3    1.370084696496894E-4   -2.679450827129842E-3    2.018863653447981E-4    1.254883532837970E-1    5.004425087561172E-1
 8.149051932400000E9    -3.640797614953623E-2    5.369279826922745E-1   -2.623774345311643E-3    1.468270908666198E-4   -2.643580658749066E-3    2.218516210012949E-4    1.263451010722199E-1    5.003107248852228E-1
 8.149065391500000E9    -3.551900674545921E-2    5.371049294188592E-1   -2.591858079057258E-3    1.624649296442934E-4   -2.658216076005027E-3    2.232955890149941E-4    1.272345516879039E-1    4.999682694053858E-1
 8.149078850600000E9    -3.453328602129763E-2    5.371552509747861E-1   -2.614944737095114E-3    1.630540000488685E-4   -2.657173472705543E-3    2.103101605616671E-4    1.280590672947053E-1    4.997718329466474E-1
 8.149092309700000E9    -3.353837311189231E-2    5.372139241332549E-1   -2.613241926099524E-3    1.759667455148612E-4   -2.645844859047169E-3    2.278233224198672E-4    1.288359668688970E-1    4.994467495709589E-1
 8.149105768800000E9    -3.274108728531266E-2    5.372526753632135E-1   -2.611830703244058E-3    1.758201731050394E-4   -2.643414651974736E-3    2.299306842473131E-4    1.297879068791319E-1    4.992365248450828E-1
 8.149119227900000E9    -3.176488565273242E-2    5.373975299590227E-1   -2.625581095320246E-3    1.912287681984237E-4   -2.641573058240414E-3    2.469290077080736E-4    1.306146237603028E-1    4.990545211023593E-1
 8.149132687000000E9    -3.084464731513924E-2    5.374046164405728E-1   -2.617791570159266E-3    1.906710339725311E-4   -2.665952852515948E-3    2.435860886012889E-4    1.314142736341859E-1    4.987973793175722E-1
 8.149146146100000E9    -2.983637433915172E-2    5.376324155486244E-1   -2.614437882773369E-3    1.808919125483030E-4   -2.651279973088239E-3    2.782736724298166E-4    1.322519361566590E-1    4.985583746150799E-1
 8.149159605200000E9    -2.899135589878901E-2    5.376580051555621E-1   -2.638807906221699E-3    2.078260468560284E-4   -2.645255916296604E-3    2.382281606293227E-4    1.330769790234617E-1    4.982629412368038E-1
 8.149173064300000E9    -2.792576285747754E-2    5.376863739291555E-1   -2.623172284966741E-3    1.931775498850662E-4   -2.669125686091937E-3    2.706925365966899E-4    1.339384254011303E-1    4.982103789400650E-1
 8.149186523400000E9    -2.701497516692083E-2    5.379113744041809E-1   -2.608732197386204E-3    2.230793057103820E-4   -2.646867826732667E-3    2.697270692035921E-4    1.347531213228009E-1    4.978807010296111E-1
 8.149199982500000E9    -2.602132698803113E-2    5.378595172995084E-1   -2.639178644121716E-3    2.163558048484539E-4   -2.679580318477341E-3    2.825130995033254E-4    1.356408581233365E-1    4.975880046022714E-1
 8.149213441600000E9    -2.512524546621677E-2    5.379495530475377E-1   -2.600887468240619E-3    2.375991018037837E-4   -2.638217843885386E-3    2.524518190086899E-4    1.364613511579256E-1    4.973353362659029E-1
 8.149226900700000E9    -2.418228230079699E-2    5.380137317102089E-1   -2.628836474956321E-3    2.141879070093730E-4   -2.659735362978361E-3    2.685670459629860E-4    1.374081975966631E-1    4.970897546034605E-1
 8.149240359800000E9    -2.324033133653069E-2    5.379885492873205E-1   -2.605959862540164E-3    2.460580099221242E-4   -2.638199102218185E-3    2.807761737872428E-4    1.381596916541217E-1    4.969140586675680E-1
 8.149253818900000E9    -2.225390202580683E-2    5.381640198997699E-1   -2.628528863846670E-3    2.067979871340845E-4   -2.651702326997551E-3    2.927568024856183E-4    1.390873480867298E-1    4.965776199721252E-1
 8.149267278000000E9    -2.146775457568411E-2    5.381212228726853E-1   -2.610016307373145E-3    2.621346380226260E-4   -2.655199699827985E-3    2.863577026915381E-4    1.398770016819647E-1    4.963030820403561E-1
 8.149280737100000E9    -2.047579136394652E-2    5.382485204279327E-1   -2.637462804268837E-3    2.395075474204099E-4   -2.648282090274758E-3    2.940959139792293E-4    1.406216382881959E-1    4.961129869914065E-1
 8.149294196200000E9    -1.956947854527342E-2    5.381721375853519E-1   -2.630443167888004E-3    2.514665831604309E-4   -2.643993277201404E-3    3.053263262902825E-4    1.416129631308997E-1    4.959964841043447E-1
 8.149307655300000E9    -1.857532023796947E-2    5.383466823304199E-1   -2.619232631014566E-3    2.506875249720563E-4   -2.659551172536472E-3    2.725904720274001E-4    1.423107400794829E-1    4.956931912521671E-1
 8.149321114400000E9    -1.769212569415216E-2    5.383208219302593E-1   -2.642128296182692E-3    2.535917149391293E-4   -2.649547722822745E-3    3.211653617909170E-4    1.432398661212293E-1    4.954604263692835E-1
 8.149334573500000E9    -1.675816920545966E-2    5.384826437815495E-1   -2.625779434406106E-3    2.713997266106378E-4   -2.630988214097082E-3    3.329190787543970E-4    1.439544261504591E-1    4.951379149189286E-1
 8.149348032600000E9    -1.583762449477471E-2    5.385230869050860E-1   -2.611203735708426E-3    2.713533368562250E-4   -2.649216536467627E-3    3.149476990089626E-4    1.449768903703444E-1    4.949348952023154E-1
 8.149361491700000E9    -1.487364246533425E-2    5.385647174119463E-1   -2.624944792443215E-3    2.380928540394286E-4   -2.620332137949912E-3    3.235102260186077E-4    1.456790044861889E-1    4.945316703119305E-1
 8.149374950800000E9    -1.398860529910539E-2    5.385847859790976E-1   -2.616005305481485E-3    2.521086052497444E-4   -2.650876959778452E-3    3.348216279575761E-4    1.466480450275582E-1    4.942981969984778E-1
 8.149388409900000E9    -1.297812190283743E-2    5.386396915887931E-1   -2.620263822462247E-3    2.904952036455352E-4   -2.669090758258167E-3    3.403490180517363E-4    1.473537960788402E-1    4.940986984082144E-1
 8.149401869000000E9    -1.195020749857760E-2    5.386614871018633E-1   -2.620517900335968E-3    2.726146751304193E-4   -2.661078287906056E-3    3.497950984009117E-4    1.482287544819855E-1    4.937983422398364E-1
 8.149415328100000E9    -1.113816083093949E-2    5.387400864114098E-1   -2.622927128702645E-3    3.033659440296608E-4   -2.690733646687535E-3    3.456217842160253E-4    1.491528289877370E-1    4.935610813685362E-1
 8.149428787200000E9    -1.017189054918171E-2    5.387999085113029E-1   -2.633614341528304E-3    3.102863916962255E-4   -2.657641294610221E-3    3.380126480263388E-4    1.499211079267124E-1    4.932438728995271E-1
 8.149442246300000E9    -9.185698680648946E-3    5.388645672228152E-1   -2.626821892683716E-3    2.986175439839284E-4   -2.638089699153260E-3    3.508777138143096E-4    1.507022631841321E-1    4.928629331761090E-1
 8.149455705400000E9    -8.347199133777770E-3    5.388179401056797E-1   -2.611080842267024E-3    3.136729676180627E-4   -2.651867605937278E-3    3.648080811182917E-4    1.515983755250745E-1    4.927211178557038E-1
 8.149469164500000E9    -7.270213727563511E-3    5.388002556298040E-1   -2.612601533712281E-3    3.129252479495919E-4   -2.638157711361843E-3    3.490218262951807E-4    1.524190138609458E-1    4.924521822892840E-1
 8.149482623600000E9    -6.266903906240823E-3    5.389744367557517E-1   -2.623565526216312E-3    2.880145881287750E-4   -2.658065315751979E-3    3.668392510993773E-4    1.532923018562579E-1    4.922746488260503E-1
 8.149496082700000E9    -5.563035406984787E-3    5.389369806846900E-1   -2.606056732956848E-3    3.317331249375351E-4   -2.651617261181159E-3    3.694269354651309E-4    1.541074328577075E-1    4.919128422370639E-1
 8.149509541800000E9    -4.450331074891802E-3    5.390048128249959E-1   -2.632389846371766E-3    3.144682211438915E-4   -2.642366589596859E-3    3.635693076526354E-4    1.549329654703206E-1    4.916614580158041E-1
 8.149523000900000E9    -3.510090756543635E-3    5.389843574033092E-1   -2.608955396255773E-3    3.241761019518520E-4   -2.629452254611300E-3    3.877916743798655E-4    1.557549001385756E-1    4.912661320777518E-1
 8.149536460000000E9    -2.741591423526762E-3    5.390982784509032E-1   -2.615412037362599E-3    3.246979114338735E-4   -2.628287020519873E-3    3.811093004845262E-4    1.565839871083765E-1    4.910603968950616E-1
 8.149549919100000E9    -1.642649078333984E-3    5.390176593578071E-1   -2.613783645528020E-3    3.580376829332977E-4   -2.617502067726100E-3    3.807978274469211E-4    1.574119943820195E-1    4.909176649698870E-1
 8.149563378200000E9    -7.764454771390804E-4    5.390894794795937E-1   -2.612817452033382E-3    3.564284832654684E-4   -2.629382671800190E-3    3.946314789623716E-4    1.582527708365377E-1    4.905119227563700E-1
 8.149576837300000E9     7.339560897957927E-5    5.392099893970352E-1   -2.596275622610964E-3    3.608055223338851E-4   -2.651356881107015E-3    3.916262205349224E-4    1.589594992842515E-1    4.902101589974395E-1
 8.149590296400000E9     1.249280078443064E-3    5.393176959884237E-1   -2.621307484603621E-3    3.759323586567921E-4   -2.654476362684273E-3    4.225180202019054E-4    1.598332277487968E-1    4.897497959412990E-1
 8.149603755500000E9     2.101044544583886E-3    5.392551870492933E-1   -2.602000250356259E-3    3.670531524344791E-4   -2.663714183553900E-3    4.056065327180452E-4    1.606083348623128E-1    4.897383016225960E-1
 8.149617214600000E9     2.873223369788838E-3    5.391677390380052E-1   -2.621880886996097E-3    3.655225283427390E-4   -2.590096532247048E-3    4.264295434597843E-4    1.615795249160760E-1    4.894382775709622E-1
 8.149630673700000E9     3.937825866099178E-3    5.391773856391375E-1   -2.616449571472903E-3    3.714555904516672E-4   -2.633233550789418E-3    4.306747904993407E-4    1.623482926459497E-1    4.889349614810430E-1
 8.149644132800000E9     4.827803725487230E-3    5.392308305000955E-1   -2.605829240415440E-3    3.862946726028249E-4   -2.652414684099641E-3    3.920024034014901E-4    1.630964355564589E-1    4.887638546205389E-1
 8.149657591900000E9     5.851535780175223E-3    5.392128117419872E-1   -2.622595331818820E-3    3.723129564850567E-4   -2.629163656341919E-3    4.514964483199424E-4    1.640112791514717E-1    4.883976785420994E-1
 8.149671051000000E9     6.837354882612725E-3    5.393598128493454E-1   -2.617796999571832E-3    3.829771409186574E-4   -2.639568265217801E-3    4.286049896045935E-4    1.647970433697513E-1    4.883080883625177E-1
 8.149684510100000E9     7.633956820284959E-3    5.392205719987739E-1   -2.616491344692481E-3    3.861440426586243E-4   -2.632539813954494E-3    4.492984179402658E-4    1.655165757856009E-1    4.878662737049910E-1
 8.149697969200000E9     8.710405264166075E-3    5.392777637693009E-1   -2.614770347243338E-3    4.081864758023293E-4   -2.642517567085602E-3    4.488660986816487E-4    1.664498835043099E-1    4.878630150068041E-1
 8.149711428300000E9     9.512390206907839E-3    5.391614398128682E-1   -2.608830211578340E-3    4.032836741453439E-4   -2.630522611663815E-3    4.588556430510639E-4    1.671940758612860E-1    4.872233641523732E-1
 8.149724887400000E9     1.046749902365715E-2    5.392662881058733E-1   -2.614868322484966E-3    3.996053048454164E-4   -2.641053725375960E-3    4.311228491831454E-4    1.680983613453350E-1    4.870357943549247E-1
 8.149738346500000E9     1.147510257129563E-2    5.392177632465388E-1   -2.618087120696249E-3    3.880774954221137E-4   -2.647004051239468E-3    4.659814767333524E-4    1.689249758745042E-1    4.868104300922268E-1
 8.149751805600000E9     1.249001678300916E-2    5.391410545429314E-1   -2.620557607373598E-3    3.852290209696412E-4   -2.641144508145043E-3    4.643781643244106E-4    1.697812736289030E-1    4.865184615835965E-1
 8.149765264700000E9     1.320231977670124E-2    5.391856731899779E-1   -2.595885290492651E-3    4.164060046545617E-4   -2.625809765560887E-3    4.955499303273748E-4    1.705962500331218E-1    4.862651778372014E-1
 8.149778723800000E9     1.429813884790071E-2    5.392145414779765E-1   -2.629223211886310E-3    4.218389061559163E-4   -2.640330109662112E-3    4.628704690034548E-4    1.713873373240577E-1    4.856532579059611E-1
 8.149792182900000E9     1.526517757923924E-2    5.392468072677543E-1   -2.601638636698342E-3    4.423137070139323E-4   -2.657697081944143E-3    4.866299714149426E-4    1.721631554177112E-1    4.855456793784108E-1
 8.149805642000000E9     1.623029301003618E-2    5.391484180271119E-1   -2.607858592541551E-3    4.188755498726454E-4   -2.627880342751938E-3    4.759961679362057E-4    1.730666854850594E-1    4.852708802917671E-1
 8.149819101100000E9     1.702312588431890E-2    5.392971383806545E-1   -2.614648132179241E-3    4.622447326462561E-4   -2.627444937085319E-3    4.758685541727100E-4    1.739096243855572E-1    4.848017740727684E-1
 8.149832560200000E9     1.804234604010727E-2    5.393341164602806E-1   -2.616519886205599E-3    4.338736600348636E-4   -2.625463867817035E-3    5.035545672360299E-4    1.747181484796880E-1    4.845316688469366E-1
 8.149846019300000E9     1.895554332471346E-2    5.392251780947647E-1   -2.613767613430579E-3    4.317625036494163E-4   -2.654430478432663E-3    4.886631835371661E-4    1.755295984493138E-1    4.843248623570804E-1
 8.149859478400000E9     1.995267915461400E-2    5.392125639210488E-1   -2.583623746886027E-3    4.791288781147140E-4   -2.640798266986398E-3    5.015835102031690E-4    1.763738731528111E-1    4.838968128818617E-1
 8.149872937500000E9     2.079405067092978E-2    5.392705565054150E-1   -2.630253123042452E-3    4.745289367137003E-4   -2.626059839716006E-3    4.966103174466440E-4    1.771975790997675E-1    4.837023322135934E-1
 8.149886396600000E9     2.173349729177167E-2    5.392127331957832E-1   -2.606870206088251E-3    4.711537120718170E-4   -2.624938298501293E-3    4.912219768292924E-4    1.779920699869730E-1    4.834127040941155E-1
 8.149899855700000E9     2.270897727724255E-2    5.392870420971460E-1   -2.614042424823276E-3    4.667821165375790E-4   -2.621476816861489E-3    5.062451797459177E-4    1.788663724483618E-1    4.830314926377393E-1
 8.149913314800000E9     2.366993622335526E-2    5.392357145395564E-1   -2.592276362072827E-3    4.855210543583822E-4   -2.643912756316733E-3    5.540006470415585E-4    1.796019989663946E-1    4.827046729349884E-1
 8.149926773900000E9     2.460770179915855E-2    5.391569043399981E-1   -2.585215639167543E-3    4.811903392346837E-4   -2.672688745242162E-3    5.290168542528204E-4    1.805524142388045E-1    4.823151937462622E-1
 8.149940233000000E9     2.545559391537114E-2    5.391185027994523E-1   -2.623738158603698E-3    4.449176043647168E-4   -2.626597749566926E-3    5.448212362698107E-4    1.812998972023998E-1    4.820274224740668E-1
 8.149953692100000E9     2.661999963931968E-2    5.391290374874256E-1   -2.604376417285893E-3    4.814653137786321E-4   -2.641733019178570E-3    5.508345574895148E-4    1.821060582851337E-1    4.818978630154244E-1
 8.149967151200000E9     2.739271486800856E-2    5.391228326708413E-1   -2.581310413172023E-3    4.924008911416135E-4   -2.636458650266457E-3    5.547283821198957E-4    1.828448701209820E-1    4.814731406928212E-1
 8.149980610300000E9     2.838566138001261E-2    5.390798051188475E-1   -2.605262683113854E-3    4.983973833803504E-4   -2.618981882461857E-3    5.597291363808062E-4    1.835718400915027E-1    4.811853885815279E-1
 8.149994069400000E9     2.935713937638925E-2    5.390927010159962E-1   -2.614797239020983E-3    5.002915883985078E-4   -2.622059264880763E-3    5.582623874859627E-4    1.844770065469933E-1    4.808541199355575E-1
 8.150007528500000E9     3.015885407205929E-2    5.390123646307864E-1   -2.623067125957889E-3    5.069977651348066E-4   -2.612967566560010E-3    5.567433217603412E-4    1.853149226799792E-1    4.804622553801832E-1
 8.150020987600000E9     3.127332960895639E-2    5.390119409451086E-1   -2.621486096340309E-3    5.072292351372763E-4   -2.626232546068363E-3    5.814657008314731E-4    1.862005279506982E-1    4.800822528334690E-1
 8.150034446700000E9     3.215138044050789E-2    5.389232534495634E-1   -2.623354598226773E-3    5.306589443091110E-4   -2.615362578758532E-3    6.173111462044412E-4    1.869283842486409E-1    4.798701203942968E-1
 8.150047905800000E9     3.312518357987520E-2    5.389052738397848E-1   -2.608366675567146E-3    5.240770950204022E-4   -2.627659251679679E-3    5.743690001646196E-4    1.875595791186483E-1    4.793255755674729E-1
 8.150061364900000E9     3.399998305317944E-2    5.388019519189404E-1   -2.604880522081592E-3    5.406168557224746E-4   -2.658308756610620E-3    5.836735081523930E-4    1.884700931349629E-1    4.790401147772320E-1
 8.150074824000000E9     3.499080440676375E-2    5.388216509917690E-1   -2.596731146758890E-3    5.208378756840457E-4   -2.624494227253454E-3    5.933243971514309E-4    1.894184793879742E-1    4.788382235009028E-1
 8.150088283100000E9     3.582579736247825E-2    5.386286421093829E-1   -2.604209128730254E-3    5.210510361539339E-4   -2.584944510284166E-3    5.536495843002173E-4    1.901448971171343E-1    4.785748211699058E-1
 8.150101742200000E9     3.671816605526624E-2    5.386534074811222E-1   -2.590105035160257E-3    5.413691431620236E-4   -2.650800396249632E-3    5.791684877726962E-4    1.907522409246426E-1    4.781504918461591E-1
 8.150115201300000E9     3.774492393395297E-2    5.387831229147257E-1   -2.618776674668560E-3    5.533553377406935E-4   -2.612139933711633E-3    5.860169658656074E-4    1.916777412910576E-1    4.778903057163224E-1
 8.150128660400000E9     3.874256310787683E-2    5.387836490004435E-1   -2.628067247473185E-3    5.604104085112188E-4   -2.607907919123315E-3    6.119063830882548E-4    1.925001046874482E-1    4.775161117999613E-1
 8.150142119500000E9     3.964839947638077E-2    5.387181374883825E-1   -2.620049326438775E-3    5.495242607907315E-4   -2.615967032396590E-3    6.268488850999422E-4    1.934479452253800E-1    4.769551665560275E-1
 8.150155578600000E9     4.058452123187330E-2    5.385124477072928E-1   -2.631140195054189E-3    5.760671477338261E-4   -2.639620314605151E-3    6.024741033479195E-4    1.941651420779667E-1    4.767685630807134E-1
 8.150169037700000E9     4.150130269448615E-2    5.384456996045408E-1   -2.610992007669147E-3    5.492048654827716E-4   -2.645724755286488E-3    6.140396931843922E-4    1.948922299597768E-1    4.765136302977379E-1
 8.150182496800000E9     4.253742381238793E-2    5.385270990820467E-1   -2.623570072462789E-3    5.783177694152395E-4   -2.639331180136774E-3    6.256917873754878E-4    1.957483000191617E-1    4.761750801909928E-1
 8.150195955900000E9     4.351616338843729E-2    5.384266238821903E-1   -2.590055335449188E-3    6.070229481018067E-4   -2.618221938037060E-3    5.933308368595427E-4    1.966298802047303E-1    4.758089748854191E-1
 8.150209415000000E9     4.438714702685563E-2    5.384167352462832E-1   -2.607149995335032E-3    5.976726752519759E-4   -2.627327343954250E-3    6.636821857583936E-4    1.973295727049945E-1    4.754044589497119E-1
