#  HZ   S   RI   R     50.00 
! Rohde & Schwarz Vector Network Analyzer 
! Rohde-Schwarz,ZNB20-2Port,1311601062101988,3.16
! Created: UTC 3/21/2024, 12:51:21 AM
! freq[Hz]                re:S11                  im:S11                  re:S21                  im:S21                  re:S12                  im:S12                  re:S22                  im:S22
 8.151384614000000E9     1.341399632532141E-1    5.270915372448227E-1   -3.078309555124842E-3    1.359193377278517E-3   -3.094656774420433E-3    1.433007417949439E-3    2.757010285053392E-1    4.339794054702916E-1
 8.151386298000000E9     1.343828629227837E-1    5.271166684788051E-1   -3.104456785091716E-3    1.372411070590734E-3   -3.083789040367477E-3    1.406595332161459E-3    2.757275891492577E-1    4.338309478497875E-1
 8.151387982000000E9     1.346192020875927E-1    5.270324097026297E-1   -3.061108638056429E-3    1.367683999868424E-3   -3.082387194701474E-3    1.417110982301279E-3    2.757768465776878E-1    4.336172058825060E-1
 8.151389666000000E9     1.346322323550481E-1    5.269654241548025E-1   -3.094300580161622E-3    1.370920206866743E-3   -3.092325359047296E-3    1.420226713714028E-3    2.760302363492149E-1    4.336606427096144E-1
 8.151391350000000E9     1.347570640489455E-1    5.268367509931010E-1   -3.084868295236159E-3    1.380578117912993E-3   -3.091542642184988E-3    1.441775680139351E-3    2.761961998709202E-1    4.335924250638563E-1
 8.151393034000000E9     1.349504770237969E-1    5.268173235851936E-1   -3.068537889246022E-3    1.368905331377579E-3   -3.099400702218840E-3    1.419412015821898E-3    2.760747101123753E-1    4.335297105464473E-1
 8.151394718000000E9     1.351335455421158E-1    5.268029260365026E-1   -3.080359736637897E-3    1.390184326713275E-3   -3.130922346167076E-3    1.442624085142404E-3    2.762088091789621E-1    4.335383876985127E-1
 8.151396402000000E9     1.353540524996321E-1    5.267660995072737E-1   -3.086039082303974E-3    1.367034989900209E-3   -3.107207533218352E-3    1.412561354989919E-3    2.763462232712444E-1    4.335763229011762E-1
 8.151398086000000E9     1.354628261210320E-1    5.268161812768518E-1   -3.107778765975694E-3    1.410828167353778E-3   -3.088142871784286E-3    1.430843357887645E-3    2.764773888446430E-1    4.334091166997214E-1
 8.151399770000000E9     1.356279208223922E-1    5.267502503593242E-1   -3.104630768336432E-3    1.384284493233522E-3   -3.127716602827711E-3    1.420759879708345E-3    2.765355459790828E-1    4.334125252620281E-1
 8.151401454000000E9     1.357315355246276E-1    5.267059011277189E-1   -3.117885606127076E-3    1.375417519977212E-3   -3.123352213038677E-3    1.426445440191408E-3    2.765741668201907E-1    4.332777762976071E-1
 8.151403138000000E9     1.358224117516334E-1    5.266138348006110E-1   -3.103061882399040E-3    1.372873306277157E-3   -3.127991981698247E-3    1.450006994808741E-3    2.767192086480055E-1    4.333009082252073E-1
 8.151404822000000E9     1.359621105284680E-1    5.265789780093840E-1   -3.117652593576621E-3    1.424809534372579E-3   -3.111789341355255E-3    1.484905766152889E-3    2.767217201972677E-1    4.330023030532638E-1
 8.151406506000000E9     1.362343289281454E-1    5.266177919430665E-1   -3.098992997853523E-3    1.390975734413623E-3   -3.102852192455499E-3    1.416780110528515E-3    2.768002326579966E-1    4.332252744990163E-1
 8.151408190000000E9     1.362255115751178E-1    5.266133895026234E-1   -3.125822777115461E-3    1.391553753061626E-3   -3.126732386985301E-3    1.502896798936533E-3    2.769306734196301E-1    4.331995852721461E-1
 8.151409874000000E9     1.363006292404626E-1    5.264776666770385E-1   -3.132654157708989E-3    1.420802679637465E-3   -3.144133439327450E-3    1.454855699038952E-3    2.771643320540011E-1    4.330732757510235E-1
 8.151411558000000E9     1.365095808020732E-1    5.264561002810534E-1   -3.125242633514133E-3    1.399040163113795E-3   -3.140500238335448E-3    1.481825328674729E-3    2.770852405004123E-1    4.328838752418279E-1
 8.151413242000000E9     1.367198064121032E-1    5.263889245934738E-1   -3.131429976502633E-3    1.402959908227173E-3   -3.130988363266877E-3    1.478022820686290E-3    2.772992304800721E-1    4.328814624726785E-1
 8.151414926000000E9     1.368135985448711E-1    5.264110008638706E-1   -3.142256195482453E-3    1.406031092242786E-3   -3.114285551312949E-3    1.450650788594873E-3    2.773304841100104E-1    4.329498550648891E-1
 8.151416610000000E9     1.370467579964084E-1    5.263911908131471E-1   -3.130022076798142E-3    1.411266376884410E-3   -3.160994146420400E-3    1.473479481171656E-3    2.773753563644720E-1    4.328149157876409E-1
 8.151418294000000E9     1.369936522295818E-1    5.262746938311252E-1   -3.149220063747054E-3    1.416801171507102E-3   -3.142782068247430E-3    1.506644366457245E-3    2.774533478067829E-1    4.325718883727769E-1
 8.151419978000000E9     1.371199421489901E-1    5.263207259688635E-1   -3.116027209863117E-3    1.422605255415728E-3   -3.156747539652849E-3    1.510622762213820E-3    2.776670670966719E-1    4.325625551009977E-1
 8.151421662000000E9     1.373899428262899E-1    5.262115489007170E-1   -3.153211524281694E-3    1.415856737449089E-3   -3.155020214846383E-3    1.500138386989056E-3    2.776742559972827E-1    4.327011451554621E-1
 8.151423346000000E9     1.375068762946852E-1    5.262053854071564E-1   -3.136443546517808E-3    1.450606293975710E-3   -3.148034775309115E-3    1.489580950817280E-3    2.777832164161173E-1    4.326000709764345E-1
 8.151425030000000E9     1.376416036466265E-1    5.261515741066715E-1   -3.151666035377683E-3    1.434659369100501E-3   -3.182303540755905E-3    1.502156168638330E-3    2.779816324137291E-1    4.325635477359892E-1
 8.151426714000000E9     1.378132358695446E-1    5.261497416569147E-1   -3.169125558173063E-3    1.457160190468921E-3   -3.168131968718050E-3    1.514999464681415E-3    2.779464940127086E-1    4.322842478176849E-1
 8.151428398000000E9     1.378965597046990E-1    5.260921252487787E-1   -3.164486450301077E-3    1.463291577322962E-3   -3.190331918103858E-3    1.503534798593646E-3    2.780731256702647E-1    4.321593555445768E-1
 8.151430082000000E9     1.381157495898892E-1    5.260183168280185E-1   -3.163722331041054E-3    1.461907423154817E-3   -3.157122994603574E-3    1.511639913194326E-3    2.782463118438347E-1    4.322536425111528E-1
 8.151431766000000E9     1.382504071292524E-1    5.260684679995086E-1   -3.185348840139670E-3    1.460698299066988E-3   -3.173617479103824E-3    1.512202329379013E-3    2.782903654588482E-1    4.322357157654619E-1
 8.151433450000000E9     1.383712283768354E-1    5.260520930810795E-1   -3.175981172185626E-3    1.461750839649652E-3   -3.165894896242198E-3    1.503295499345340E-3    2.784814848458762E-1    4.320376355691807E-1
 8.151435134000000E9     1.385555147058519E-1    5.259016014395067E-1   -3.162712343904501E-3    1.459364214954049E-3   -3.181983594013557E-3    1.525181058426227E-3    2.783522268767840E-1    4.322081102610212E-1
 8.151436818000000E9     1.386810025411445E-1    5.258517473864746E-1   -3.198887055757489E-3    1.450873655146749E-3   -3.209833828171832E-3    1.546096703635392E-3    2.785930541603027E-1    4.319492649795910E-1
 8.151438502000000E9     1.388243363257743E-1    5.258949008633077E-1   -3.210720030659439E-3    1.473103730150130E-3   -3.170552972797989E-3    1.535501854832246E-3    2.785720091927603E-1    4.318920777595674E-1
 8.151440186000000E9     1.387976512883497E-1    5.257723695748785E-1   -3.210297714135227E-3    1.458365343509303E-3   -3.186909161563319E-3    1.529623753845688E-3    2.785752298597861E-1    4.317565256670093E-1
 8.151441870000000E9     1.390933806487419E-1    5.256805076153536E-1   -3.220619054752740E-3    1.487204999402087E-3   -3.240446880359145E-3    1.506250099972451E-3    2.787081633186275E-1    4.318780777123966E-1
 8.151443554000000E9     1.391972871307030E-1    5.257300477988532E-1   -3.227056844586903E-3    1.507670190679194E-3   -3.239295810765926E-3    1.541215808956781E-3    2.787777564488892E-1    4.318314517302629E-1
 8.151445238000000E9     1.393427295972745E-1    5.256796683522170E-1   -3.227144817879794E-3    1.483744153057305E-3   -3.194648287728637E-3    1.548685680277527E-3    2.789541205866902E-1    4.316200044198441E-1
 8.151446922000000E9     1.394046562835075E-1    5.256926394252250E-1   -3.204937084811943E-3    1.480905548295847E-3   -3.227832760653875E-3    1.514140038546421E-3    2.790560397279476E-1    4.316853973364770E-1
 8.151448606000000E9     1.395509148690967E-1    5.255797976263287E-1   -3.227469875499461E-3    1.513369865071032E-3   -3.214163479460291E-3    1.536412593811235E-3    2.792978603512913E-1    4.316057543647515E-1
 8.151450290000000E9     1.397801594061598E-1    5.256074871430053E-1   -3.225966864327151E-3    1.504186532917120E-3   -3.222203964651940E-3    1.540414322816785E-3    2.792219707510418E-1    4.315677311554933E-1
 8.151451974000000E9     1.399439968592789E-1    5.254755420337825E-1   -3.233694798756341E-3    1.523899768956066E-3   -3.245584969589728E-3    1.548123872284168E-3    2.792624217513729E-1    4.314976339550296E-1
 8.151453658000000E9     1.400707801720331E-1    5.255080293972897E-1   -3.226101912967840E-3    1.518212652309603E-3   -3.232629243213655E-3    1.587122290271486E-3    2.794618039981591E-1    4.314722901004820E-1
 8.151455342000000E9     1.401977492007954E-1    5.254943981803859E-1   -3.231674905708338E-3    1.506106191247751E-3   -3.242872561085348E-3    1.586520901698989E-3    2.795888391430191E-1    4.312033139677899E-1
 8.151457026000000E9     1.403441212973395E-1    5.254439066615798E-1   -3.239609075512480E-3    1.504183440641469E-3   -3.223384946208916E-3    1.556532050479446E-3    2.796793346935733E-1    4.312409587041217E-1
 8.151458710000000E9     1.403801277274075E-1    5.253603637033351E-1   -3.264882329224475E-3    1.527561791197074E-3   -3.284658646703854E-3    1.558319153112464E-3    2.796481905410329E-1    4.312408716095593E-1
 8.151460394000000E9     1.406688156079870E-1    5.253708185460946E-1   -3.241998041951923E-3    1.516045440981935E-3   -3.255773513187127E-3    1.580753387367279E-3    2.797311227046917E-1    4.312275522479768E-1
 8.151462078000000E9     1.406685655325264E-1    5.254356761361543E-1   -3.283695418108531E-3    1.536512860657809E-3   -3.255626427981768E-3    1.575936810552632E-3    2.799616064270294E-1    4.310657482367456E-1
 8.151463762000000E9     1.410270685819913E-1    5.252008898151840E-1   -3.270633601958836E-3    1.543471704576513E-3   -3.276258114676453E-3    1.634623820952062E-3    2.799281711391315E-1    4.309794952236484E-1
 8.151465446000000E9     1.411429787156971E-1    5.251568258290822E-1   -3.282785280481777E-3    1.538418284642082E-3   -3.312897230253313E-3    1.610422885958355E-3    2.799620881750794E-1    4.310111161974604E-1
 8.151467130000000E9     1.412811968982954E-1    5.251877819135147E-1   -3.288891305594254E-3    1.556499478655106E-3   -3.303293490006354E-3    1.603791289317342E-3    2.802480537261891E-1    4.309105393452818E-1
 8.151468814000000E9     1.413972841425979E-1    5.250915691954040E-1   -3.283443912345002E-3    1.526609299521697E-3   -3.293509034091776E-3    1.639487163293562E-3    2.802074721693054E-1    4.306502965689102E-1
 8.151470498000000E9     1.415607560068605E-1    5.251495589950971E-1   -3.310662254000891E-3    1.568678083139206E-3   -3.320125419930576E-3    1.639607852712512E-3    2.803867362092100E-1    4.306769194275141E-1
 8.151472182000000E9     1.417349229666283E-1    5.250407127502801E-1   -3.306241433448139E-3    1.587445271288568E-3   -3.312059134705824E-3    1.622185573950561E-3    2.804376135869076E-1    4.307422312544561E-1
 8.151473866000000E9     1.417938462232352E-1    5.249974931865730E-1   -3.286749962399138E-3    1.581234194019505E-3   -3.309730037665907E-3    1.624079898623005E-3    2.806695733885710E-1    4.306764576088714E-1
 8.151475550000000E9     1.419082943887535E-1    5.248652305422317E-1   -3.296748222190972E-3    1.584580808086760E-3   -3.298037769185530E-3    1.603989421755245E-3    2.806893279934300E-1    4.308368978391399E-1
 8.151477234000000E9     1.420317977138108E-1    5.249276068346053E-1   -3.317671610568290E-3    1.583557689998335E-3   -3.309101172762552E-3    1.688772677595386E-3    2.807476221938204E-1    4.307426197823052E-1
 8.151478918000000E9     1.422933412797411E-1    5.248638223990797E-1   -3.300613012713266E-3    1.563759784977757E-3   -3.339495361788919E-3    1.665129101212042E-3    2.807425542885545E-1    4.304459583666441E-1
 8.151480602000000E9     1.423180149558942E-1    5.247789948195906E-1   -3.346891140740536E-3    1.595753871160908E-3   -3.330449638183200E-3    1.658123954285826E-3    2.808260627189890E-1    4.303655982358460E-1
 8.151482286000000E9     1.426315438392124E-1    5.248071498852065E-1   -3.327313035145078E-3    1.586963344213627E-3   -3.364925504970686E-3    1.691594748492359E-3    2.809902286782244E-1    4.303778067733929E-1
 8.151483970000000E9     1.428346084686446E-1    5.246426741557081E-1   -3.347869103791098E-3    1.619012115560737E-3   -3.318874445416278E-3    1.642369249977271E-3    2.811938497494261E-1    4.302119326468381E-1
 8.151485654000000E9     1.428738788923078E-1    5.246696796233096E-1   -3.349403901399703E-3    1.605601244967557E-3   -3.356057728272311E-3    1.636759153308073E-3    2.812022019289238E-1    4.302253386064540E-1
 8.151487338000000E9     1.429792966618024E-1    5.246049494116259E-1   -3.349048000946340E-3    1.631503719132684E-3   -3.387507674215197E-3    1.690689198852572E-3    2.811247639224159E-1    4.302265321402475E-1
 8.151489022000000E9     1.432366362220662E-1    5.246324849989553E-1   -3.352698013591412E-3    1.618286606248121E-3   -3.353845251463800E-3    1.684050486213907E-3    2.813889294569679E-1    4.300001738336826E-1
 8.151490706000000E9     1.433431698569725E-1    5.244676785796138E-1   -3.391343091741357E-3    1.641981555978566E-3   -3.376017799292208E-3    1.692145767036308E-3    2.813005022487120E-1    4.300122898527914E-1
 8.151492390000000E9     1.434687497341331E-1    5.243502369765194E-1   -3.368381357904352E-3    1.626731446726710E-3   -3.379528131364069E-3    1.680882573619940E-3    2.816203977994930E-1    4.299604916177603E-1
 8.151494074000000E9     1.435584857892893E-1    5.243906576207354E-1   -3.387349843853645E-3    1.650804540110007E-3   -3.376071660209236E-3    1.684282094010581E-3    2.814902548137693E-1    4.298218557779473E-1
 8.151495758000000E9     1.438280238543619E-1    5.243746987272608E-1   -3.354997776826586E-3    1.643086338445791E-3   -3.386235466062584E-3    1.717392868403032E-3    2.815990040783488E-1    4.298867268545323E-1
 8.151497442000000E9     1.438923781070198E-1    5.243562938734538E-1   -3.379508054096262E-3    1.648652393866671E-3   -3.373156450085955E-3    1.707554497853697E-3    2.818792635344542E-1    4.298186610045306E-1
 8.151499126000000E9     1.440506457693870E-1    5.242067797517020E-1   -3.401051735974788E-3    1.674242106250764E-3   -3.388573191685754E-3    1.751395884516304E-3    2.819300904835018E-1    4.297813136804519E-1
 8.151500810000000E9     1.443159699894046E-1    5.241345814349161E-1   -3.378846696744282E-3    1.656768666122609E-3   -3.426321199021349E-3    1.722690220997745E-3    2.818811115964099E-1    4.296202418424346E-1
 8.151502494000000E9     1.444174088814707E-1    5.241202305082341E-1   -3.400440467557597E-3    1.676909410056042E-3   -3.441005784897237E-3    1.746303188209900E-3    2.821713978155456E-1    4.297027899006429E-1
 8.151504178000000E9     1.446053964784512E-1    5.242552858863451E-1   -3.415247026575722E-3    1.687216280642057E-3   -3.387993619839551E-3    1.726269701419679E-3    2.821703573235295E-1    4.295256341075270E-1
 8.151505862000000E9     1.447702722846942E-1    5.241440453212791E-1   -3.423345161137814E-3    1.697861644737193E-3   -3.420035959199120E-3    1.748167618080318E-3    2.822529389599361E-1    4.294245330336187E-1
 8.151507546000000E9     1.448897642561075E-1    5.240040053948236E-1   -3.417612583809581E-3    1.719750311827740E-3   -3.436436850362349E-3    1.742729001548819E-3    2.824454291575732E-1    4.294325015961740E-1
 8.151509230000000E9     1.449853118930726E-1    5.239456145033896E-1   -3.466350720151857E-3    1.698274118299174E-3   -3.432301462263950E-3    1.754104203144755E-3    2.823609010808099E-1    4.293535233728436E-1
 8.151510914000000E9     1.451386017359882E-1    5.239791307246040E-1   -3.456162259511876E-3    1.698797200333854E-3   -3.423223636389795E-3    1.769694368927202E-3    2.824646680004412E-1    4.292136141052854E-1
 8.151512598000000E9     1.453562038429111E-1    5.238736026157200E-1   -3.488390027666502E-3    1.712022619076083E-3   -3.425671174878021E-3    1.781513008053578E-3    2.826807096482487E-1    4.291751252878170E-1
 8.151514282000000E9     1.455535606625099E-1    5.237844502550126E-1   -3.465112344581287E-3    1.729723411033268E-3   -3.471846909240112E-3    1.808150391235779E-3    2.826502958385120E-1    4.290804060387754E-1
 8.151515966000000E9     1.456403963070226E-1    5.237562845706679E-1   -3.447804561933000E-3    1.725652124787234E-3   -3.486763609878225E-3    1.779241419879678E-3    2.829314410586378E-1    4.290648273467607E-1
 8.151517650000000E9     1.458283087390984E-1    5.237165021492911E-1   -3.464907453181393E-3    1.733497586454124E-3   -3.489355568494987E-3    1.802686119030926E-3    2.828345810261003E-1    4.290309865350339E-1
 8.151519334000000E9     1.460509967225891E-1    5.236540513137682E-1   -3.492271894239160E-3    1.751983061716757E-3   -3.483149233769878E-3    1.802618223777588E-3    2.828918631364322E-1    4.290780118557080E-1
 8.151521018000000E9     1.461750434534322E-1    5.236932552516002E-1   -3.488756730936517E-3    1.738288224805592E-3   -3.509095374373492E-3    1.826033927160730E-3    2.830595776551464E-1    4.288324652755898E-1
 8.151522702000000E9     1.463240370684470E-1    5.234730821952635E-1   -3.496090732960728E-3    1.760970586992875E-3   -3.520153680923118E-3    1.806901003950479E-3    2.831119601696314E-1    4.287819164102792E-1
 8.151524386000000E9     1.464992806633784E-1    5.234828877958768E-1   -3.505806022225528E-3    1.779458561901063E-3   -3.519636427527018E-3    1.807526603460459E-3    2.832356486098410E-1    4.287150210076917E-1
 8.151526070000000E9     1.465761081445777E-1    5.234188860059279E-1   -3.532226317034285E-3    1.807533102074933E-3   -3.532740504149103E-3    1.865245717724192E-3    2.833775155245130E-1    4.286709857198409E-1
 8.151527754000000E9     1.468367117865352E-1    5.233637591603062E-1   -3.529880851299607E-3    1.809404469624133E-3   -3.539950264611904E-3    1.840073463765741E-3    2.834582012052894E-1    4.286167679717348E-1
 8.151529438000000E9     1.470871633274712E-1    5.233070210091085E-1   -3.530782947952294E-3    1.781880803338800E-3   -3.556910196385711E-3    1.865267179613563E-3    2.836371622270220E-1    4.285521667591020E-1
 8.151531122000000E9     1.471311130910332E-1    5.232842040316985E-1   -3.553204719211601E-3    1.818590077023898E-3   -3.555094464210415E-3    1.859224167513516E-3    2.834604866653097E-1    4.284599012082127E-1
 8.151532806000000E9     1.473778574586663E-1    5.231107593758709E-1   -3.549506056731387E-3    1.827999877110025E-3   -3.538043398582746E-3    1.877113010142046E-3    2.837326744883964E-1    4.284385484084626E-1
 8.151534490000000E9     1.476432670335180E-1    5.230730839314723E-1   -3.563684847264167E-3    1.830353567102531E-3   -3.596527485300219E-3    1.886269446959846E-3    2.838088302576838E-1    4.283714813355041E-1
 8.151536174000000E9     1.476862666409752E-1    5.231811162706911E-1   -3.564010965804018E-3    1.819539236255871E-3   -3.567599964386624E-3    1.903696624475265E-3    2.839053338433651E-1    4.283131168203506E-1
