#  HZ   S   RI   R     50.00 
! Rohde & Schwarz Vector Network Analyzer 
! Rohde-Schwarz,ZNB20-2Port,1311601062101988,3.16
! Created: UTC 3/21/2024, 1:01:56 AM
! freq[Hz]                re:S11                  im:S11                  re:S21                  im:S21                  re:S12                  im:S12                  re:S22                  im:S22
 8.148887306000000E9    -4.799153950534434E-2    5.358185175951544E-1   -2.627004360929689E-3    1.252755267580565E-4   -2.632528620151168E-3    1.564463184796194E-4    1.159731824578345E-1    5.027053298543510E-1
 8.148901275325000E9    -4.710333367291975E-2    5.359374767066697E-1   -2.631473060128133E-3    1.118656721019316E-4   -2.653707983906749E-3    1.820702052439380E-4    1.168785211166105E-1    5.027224668719711E-1
 8.148915244650000E9    -4.592547333252292E-2    5.361493902063904E-1   -2.604367669704114E-3    9.884123895379639E-5   -2.650568063895275E-3    1.709850346818860E-4    1.178317890685431E-1    5.024880075333649E-1
 8.148929213975000E9    -4.504908515930083E-2    5.361203301654722E-1   -2.629089273125746E-3    1.085213155487902E-4   -2.635191918799440E-3    1.636336013698053E-4    1.186098197530078E-1    5.021530114763664E-1
 8.148943183300000E9    -4.406997354840109E-2    5.362340098220673E-1   -2.617561602781684E-3    1.327661868781115E-4   -2.673310021359370E-3    1.622051682426054E-4    1.195002168614411E-1    5.019044934334131E-1
 8.148957152625000E9    -4.307124513839553E-2    5.362893751999093E-1   -2.595832819504507E-3    1.252735797488687E-4   -2.620642384647731E-3    1.676969178766014E-4    1.203830381233883E-1    5.016668302536884E-1
 8.148971121950000E9    -4.199649192233386E-2    5.363679699813281E-1   -2.602274467730492E-3    1.423459698268160E-4   -2.641754319185643E-3    1.657128797436854E-4    1.212277612254686E-1    5.012865951104117E-1
 8.148985091275000E9    -4.099698005914464E-2    5.365727908249622E-1   -2.635383429746684E-3    1.496498829333783E-4   -2.665167987190245E-3    1.776877442773114E-4    1.223062014120230E-1    5.013253998223819E-1
 8.148999060600000E9    -4.005832259756520E-2    5.365308440019638E-1   -2.609258279917389E-3    1.302664833813945E-4   -2.659132136140940E-3    1.839102071187903E-4    1.231258978942316E-1    5.010807942934056E-1
 8.149013029925000E9    -3.918636160609254E-2    5.367027021138473E-1   -2.616364905458247E-3    1.468525010640693E-4   -2.684256879474475E-3    1.982828254892184E-4    1.239390530351751E-1    5.007012387773330E-1
 8.149026999250000E9    -3.826900860149995E-2    5.368419259622723E-1   -2.635611246848467E-3    1.623662046913414E-4   -2.642349043507745E-3    2.162460118384550E-4    1.248771497749100E-1    5.005813412208943E-1
 8.149040968575000E9    -3.710345039972737E-2    5.369780928103833E-1   -2.600623951433462E-3    1.431170669844683E-4   -2.661484984635281E-3    2.395467827532608E-4    1.257999515011417E-1    5.002561867811686E-1
 8.149054937900000E9    -3.620046468508488E-2    5.370796433469229E-1   -2.625615521191746E-3    1.581606105625171E-4   -2.638000961646373E-3    2.250632272977779E-4    1.267124013770225E-1    5.001533299401856E-1
 8.149068907225000E9    -3.525314962735714E-2    5.370179754761771E-1   -2.622121518067692E-3    1.467404612246260E-4   -2.696578288395793E-3    2.350273962991990E-4    1.275385687200151E-1    4.996322506945972E-1
 8.149082876550000E9    -3.420931672387031E-2    5.372756550316772E-1   -2.625294821342407E-3    1.851912290036637E-4   -2.624219179443785E-3    2.524001839333283E-4    1.285138080456648E-1    4.996813572017368E-1
 8.149096845875000E9    -3.335818003170971E-2    5.372360786919226E-1   -2.615601686022855E-3    1.593541843895475E-4   -2.634979668870761E-3    2.104218014337653E-4    1.292243951140672E-1    4.993422687836174E-1
 8.149110815200000E9    -3.224144818205553E-2    5.372528216535767E-1   -2.633635097842358E-3    1.930341024814352E-4   -2.687648305231150E-3    2.125725539166695E-4    1.300477172829661E-1    4.990193118376815E-1
 8.149124784525000E9    -3.139476390925347E-2    5.374755776747084E-1   -2.629696467113057E-3    1.628383942611390E-4   -2.662076016705219E-3    2.320132113550179E-4    1.309119609707112E-1    4.988185771844018E-1
 8.149138753850000E9    -3.029804973813592E-2    5.374873774388794E-1   -2.613007212317225E-3    1.821570538254860E-4   -2.650152071166938E-3    2.146426287059297E-4    1.318594971734940E-1    4.986964222472270E-1
 8.149152723175000E9    -2.944726723823129E-2    5.376556084956329E-1   -2.635393791861264E-3    2.193094209710709E-4   -2.660380052551264E-3    2.274958336526539E-4    1.326684473216002E-1    4.985189857062973E-1
 8.149166692500000E9    -2.833450374045117E-2    5.376576287452585E-1   -2.624059425607891E-3    1.724260874476909E-4   -2.655677821815687E-3    2.411195134921159E-4    1.337561884001312E-1    4.982280914544090E-1
 8.149180661825000E9    -2.743115630701465E-2    5.377057778920431E-1   -2.646251035112443E-3    1.954354485551282E-4   -2.649279829137567E-3    2.339227007989215E-4    1.344335905800171E-1    4.978909862546117E-1
 8.149194631150000E9    -2.646288183436281E-2    5.377690425147278E-1   -2.624146012689647E-3    2.408947059742703E-4   -2.650712732953959E-3    2.696599187343869E-4    1.354907904783330E-1    4.975274693494302E-1
 8.149208600475000E9    -2.550727901253641E-2    5.378670539433069E-1   -2.632727877274443E-3    2.117746022321723E-4   -2.650266587972175E-3    2.931867759708070E-4    1.362350241139108E-1    4.973217871197056E-1
 8.149222569800000E9    -2.448662335929296E-2    5.379879741961477E-1   -2.626846332651962E-3    2.231601165806531E-4   -2.632780191468990E-3    2.308193541807754E-4    1.372350180931148E-1    4.970494334758215E-1
 8.149236539125000E9    -2.353632118706056E-2    5.379329440414459E-1   -2.643045589940423E-3    2.120386918259637E-4   -2.665923214700433E-3    2.647278847057601E-4    1.380413896745591E-1    4.967859532927600E-1
 8.149250508450000E9    -2.256923325800686E-2    5.380753306411017E-1   -2.620276888268794E-3    2.330646273222123E-4   -2.664355905950368E-3    2.889278365649195E-4    1.389047761003850E-1    4.966626943911348E-1
 8.149264477775000E9    -2.160481346926747E-2    5.381660496677397E-1   -2.619907354811359E-3    2.422742286941091E-4   -2.649692654940556E-3    2.747722671106239E-4    1.396802727268658E-1    4.964153527284996E-1
 8.149278447100000E9    -2.073600183790497E-2    5.382890901647139E-1   -2.628776267367529E-3    2.508883301550613E-4   -2.645501603838570E-3    2.788093837126195E-4    1.405505679660261E-1    4.961557706946759E-1
 8.149292416425000E9    -1.971776374282735E-2    5.383647252863998E-1   -2.642083141612909E-3    2.570798659728794E-4   -2.639885412552700E-3    2.895244290319240E-4    1.416186449580976E-1    4.958129729490584E-1
 8.149306385750000E9    -1.875812307004052E-2    5.382638741692488E-1   -2.608912874311956E-3    2.509692429751579E-4   -2.641091239514230E-3    3.105594520138737E-4    1.424262579375901E-1    4.954918482152004E-1
 8.149320355075000E9    -1.768016877461561E-2    5.383433133296519E-1   -2.625437289797302E-3    2.449504398602619E-4   -2.626059119121612E-3    3.069779855020634E-4    1.432517966834296E-1    4.954406553736164E-1
 8.149334324400000E9    -1.684123709449153E-2    5.384709678352078E-1   -2.611559545328667E-3    2.724827042274012E-4   -2.638626525156838E-3    3.502342460487879E-4    1.441091125756236E-1    4.951066179548040E-1
 8.149348293725000E9    -1.572946517899898E-2    5.384834182583734E-1   -2.611422316342170E-3    2.543462932820410E-4   -2.671253891062138E-3    3.196145237229258E-4    1.448651529520735E-1    4.947789545648172E-1
 8.149362263050000E9    -1.484850320738299E-2    5.385460259879946E-1   -2.624460764724763E-3    2.742980795456087E-4   -2.647063331255090E-3    3.061112787011376E-4    1.458992240346980E-1    4.944121329094887E-1
 8.149376232375000E9    -1.384152391252612E-2    5.385855129935133E-1   -2.613936055151726E-3    2.899820692632437E-4   -2.657619199851023E-3    3.368275010359427E-4    1.465999833602862E-1    4.941654240934716E-1
 8.149390201700000E9    -1.285114990286616E-2    5.386003356706828E-1   -2.602321985136606E-3    3.090306648817784E-4   -2.618317498149734E-3    3.646413667585003E-4    1.475574338972959E-1    4.939659893563706E-1
 8.149404171025000E9    -1.184249018448288E-2    5.386262171779657E-1   -2.614467127820385E-3    2.755060907708506E-4   -2.651351207912436E-3    3.649347444025439E-4    1.485105831824211E-1    4.937044854464652E-1
 8.149418140350000E9    -1.086109455651440E-2    5.387382604603170E-1   -2.655512014181431E-3    2.814832308450542E-4   -2.652319102519146E-3    3.289499676501317E-4    1.492550882323105E-1    4.933296504152979E-1
 8.149432109675000E9    -9.922106061658220E-3    5.386992517308508E-1   -2.599641978278984E-3    2.943517600083049E-4   -2.656161966311578E-3    3.755207363166694E-4    1.501765603653227E-1    4.930839712776597E-1
 8.149446079000000E9    -8.918263190986816E-3    5.388549939467024E-1   -2.626651987337861E-3    3.018183687037802E-4   -2.636195084329316E-3    3.572943351716594E-4    1.510463408067926E-1    4.928260798034607E-1
 8.149460048325000E9    -7.864270711292752E-3    5.387582505811425E-1   -2.620706394363466E-3    3.215873852904167E-4   -2.659780057062383E-3    3.591184629354994E-4    1.518781793812567E-1    4.926694277532688E-1
 8.149474017650000E9    -6.976763512737962E-3    5.389349940108822E-1   -2.617310276323238E-3    2.855093100436474E-4   -2.648044502903319E-3    3.682243252937176E-4    1.528166897702067E-1    4.924038966296778E-1
 8.149487986975000E9    -6.004045429862790E-3    5.389340003834927E-1   -2.625293133152479E-3    3.224026657358215E-4   -2.632315915549093E-3    3.552081731398374E-4    1.535573208215582E-1    4.920053797931956E-1
 8.149501956300000E9    -5.093944316055937E-3    5.387971707021039E-1   -2.614524828538292E-3    3.044918211461168E-4   -2.627154226303277E-3    3.609013818665040E-4    1.545369362835771E-1    4.918485052639021E-1
 8.149515925625000E9    -4.039332080904759E-3    5.389455078241722E-1   -2.624694393010505E-3    3.336580008025517E-4   -2.662307243119353E-3    3.727340176168939E-4    1.551879594969720E-1    4.914281146910630E-1
 8.149529894950000E9    -3.134604675670640E-3    5.390738052171870E-1   -2.626659844783463E-3    3.259892612909184E-4   -2.644452429261410E-3    3.655688421649748E-4    1.561416331420450E-1    4.911279110532144E-1
 8.149543864275000E9    -2.051811133440105E-3    5.390685887183335E-1   -2.622795373616307E-3    3.251817795120076E-4   -2.638904141801237E-3    4.146408243592696E-4    1.570904674850186E-1    4.908215666123726E-1
 8.149557833600000E9    -1.112795668391099E-3    5.390297740107866E-1   -2.637529816505931E-3    3.346244759348245E-4   -2.616412014326570E-3    3.870739891536175E-4    1.579634865444295E-1    4.905338483356572E-1
 8.149571802925000E9    -2.053413497480866E-4    5.390732428498958E-1   -2.632724090549215E-3    3.469162066586327E-4   -2.635474350901885E-3    3.984004035022890E-4    1.588284323532583E-1    4.902556580049820E-1
 8.149585772250000E9     9.055017074438961E-4    5.390393183359896E-1   -2.635473751174001E-3    3.524846283305197E-4   -2.636238846861816E-3    3.940620133070767E-4    1.596647464139161E-1    4.899330812536045E-1
 8.149599741575000E9     1.862090973721820E-3    5.391064877165671E-1   -2.610330646830848E-3    3.710766263286279E-4   -2.630622694931241E-3    4.445977582113989E-4    1.604926356229659E-1    4.897894654719719E-1
 8.149613710900000E9     2.700108907565746E-3    5.391431010857118E-1   -2.642318933103253E-3    3.861584281579721E-4   -2.647898515904666E-3    4.137061021806912E-4    1.613450699624743E-1    4.893376368726364E-1
 8.149627680225000E9     3.679021670763460E-3    5.391845915951818E-1   -2.613148928589447E-3    3.568064663666693E-4   -2.623680224435425E-3    4.117707349858885E-4    1.622670818380587E-1    4.890951087071114E-1
 8.149641649550000E9     4.654904690649341E-3    5.391544295021751E-1   -2.630983131130415E-3    3.716377141381620E-4   -2.624882232877431E-3    4.451217119982639E-4    1.630697539756308E-1    4.887095908485852E-1
 8.149655618875000E9     5.694646535926816E-3    5.392400983245795E-1   -2.619003351278418E-3    3.944199438435622E-4   -2.628664120655879E-3    4.387586418806831E-4    1.639113674791365E-1    4.884622814691206E-1
 8.149669588200000E9     6.686140101074009E-3    5.391492095035263E-1   -2.612276928597107E-3    3.982786117039457E-4   -2.635304038809479E-3    4.479448452563617E-4    1.648873684859188E-1    4.881823468491249E-1
 8.149683557525000E9     7.475001652978247E-3    5.392370810436264E-1   -2.607584700592474E-3    3.856247315108043E-4   -2.639538920230778E-3    4.318024248262629E-4    1.657203045177101E-1    4.879840168896762E-1
 8.149697526850000E9     8.626389293578491E-3    5.392066494099059E-1   -2.596801154651064E-3    3.901157892721222E-4   -2.639369444349390E-3    4.475367222812139E-4    1.666775079961590E-1    4.874508117448896E-1
 8.149711496175000E9     9.517696437740579E-3    5.392504768724032E-1   -2.597686750864779E-3    4.016264902318620E-4   -2.642694149534319E-3    4.458297024789462E-4    1.673956763307700E-1    4.872638982404834E-1
 8.149725465500000E9     1.055146216839971E-2    5.391908479241276E-1   -2.638905681144289E-3    3.941825602453885E-4   -2.619116299891252E-3    4.675300855844042E-4    1.682178183394870E-1    4.869757688831895E-1
 8.149739434825000E9     1.152883951323452E-2    5.392109843742462E-1   -2.611433734131912E-3    4.120699283170104E-4   -2.625954944092547E-3    4.765364548801382E-4    1.691215487917662E-1    4.866495466301811E-1
 8.149753404150000E9     1.247495233604014E-2    5.392387663658753E-1   -2.620228493047907E-3    4.449631489379052E-4   -2.645113705138995E-3    4.804377418128548E-4    1.699566389245381E-1    4.863056985462674E-1
 8.149767373475000E9     1.353618829704060E-2    5.392647222103790E-1   -2.606995645612126E-3    4.101660718292204E-4   -2.650712549926914E-3    4.664768486432342E-4    1.707194617103577E-1    4.859991303790914E-1
 8.149781342800000E9     1.440561031236217E-2    5.390880641008503E-1   -2.607523245318242E-3    4.265209638594250E-4   -2.647362877247765E-3    4.693336459089506E-4    1.717576810641656E-1    4.856089905119013E-1
 8.149795312125000E9     1.540688380242771E-2    5.392473840434752E-1   -2.620743056369824E-3    4.228877238357397E-4   -2.662219737719457E-3    4.845768842948997E-4    1.725185418065348E-1    4.854170311812299E-1
 8.149809281450000E9     1.637351147908461E-2    5.392667956369372E-1   -2.611935049354133E-3    4.245136866159308E-4   -2.599985172232071E-3    4.906966294175694E-4    1.733096079005308E-1    4.850297679646309E-1
 8.149823250775000E9     1.735035622006086E-2    5.392211198325042E-1   -2.595736874621771E-3    4.616680462060420E-4   -2.640514705199444E-3    4.785674358309492E-4    1.742445562663729E-1    4.848498848869252E-1
 8.149837220100000E9     1.833283702895428E-2    5.391692240809873E-1   -2.626458399759799E-3    4.493922807446375E-4   -2.624716691804554E-3    4.837085842230661E-4    1.749178500592069E-1    4.843695516808984E-1
 8.149851189425000E9     1.921478994768420E-2    5.391681001253126E-1   -2.611276919447916E-3    4.526880368532893E-4   -2.632633049433807E-3    4.896344017633530E-4    1.757638501466937E-1    4.840751509747286E-1
 8.149865158750000E9     2.023977053545408E-2    5.391856033422567E-1   -2.615147070217983E-3    4.473244791050548E-4   -2.633565218639435E-3    5.203637673298489E-4    1.767728966474514E-1    4.838046697705802E-1
 8.149879128075000E9     2.129938452168784E-2    5.392125920033857E-1   -2.629172661892687E-3    4.421629323216141E-4   -2.621077418899489E-3    5.466852848093185E-4    1.775920425841530E-1    4.833012250267414E-1
 8.149893097400000E9     2.225711881385723E-2    5.391149593144602E-1   -2.621206719286052E-3    4.838854844805408E-4   -2.633829322513232E-3    4.908350224702252E-4    1.784217355127598E-1    4.830831493368068E-1
 8.149907066725000E9     2.321554743756810E-2    5.391232593472635E-1   -2.588791513726710E-3    4.424564080616897E-4   -2.623016783353276E-3    5.391275592670608E-4    1.792116543083114E-1    4.828627893692169E-1
 8.149921036050000E9     2.417808056024152E-2    5.391825371110632E-1   -2.599760484725062E-3    4.889097974189184E-4   -2.628256069261581E-3    5.460625665864835E-4    1.801987778270727E-1    4.823795593599653E-1
 8.149935005375000E9     2.507363052264128E-2    5.391470190678596E-1   -2.629735389727797E-3    4.546476915219235E-4   -2.633395325222996E-3    5.235209091588456E-4    1.808271158289155E-1    4.822085602451301E-1
 8.149948974700000E9     2.606001854112183E-2    5.390888047736530E-1   -2.616895315321274E-3    4.937845503396098E-4   -2.610737624628818E-3    5.407561831527894E-4    1.819696123794364E-1    4.817840995624164E-1
 8.149962944025000E9     2.718689772633946E-2    5.390874427285655E-1   -2.616589629864329E-3    4.667310505022991E-4   -2.638669929477852E-3    5.690166458105671E-4    1.826802101095264E-1    4.814701034531711E-1
 8.149976913350000E9     2.817990511485648E-2    5.390835620589676E-1   -2.623414947612090E-3    4.807492353978890E-4   -2.653006859459912E-3    5.547348633346573E-4    1.833989586175261E-1    4.810483352756331E-1
 8.149990882675000E9     2.904961863072011E-2    5.390390879149519E-1   -2.594705799145755E-3    5.045692635128490E-4   -2.619312036336301E-3    5.606663067617912E-4    1.843243956355969E-1    4.805930468914872E-1
 8.150004852000000E9     3.002589651834120E-2    5.390506790354772E-1   -2.616302226361568E-3    4.988649857639025E-4   -2.650335413434457E-3    5.411915874145442E-4    1.851889441358072E-1    4.804192245578818E-1
 8.150018821325000E9     3.098713281123331E-2    5.389672317189004E-1   -2.625106346596691E-3    5.020845573886566E-4   -2.610471256599794E-3    5.378486134598858E-4    1.861050163284657E-1    4.800265757198422E-1
 8.150032790650000E9     3.201153789508211E-2    5.389977677679918E-1   -2.612685427472413E-3    5.156454283848799E-4   -2.616935524754528E-3    5.446865192734850E-4    1.867691945031854E-1    4.796991141836474E-1
 8.150046759975000E9     3.288595209648252E-2    5.388419354532250E-1   -2.615367304545958E-3    5.134692949644161E-4   -2.623594723329147E-3    5.954154729084062E-4    1.877356401974033E-1    4.793478476956534E-1
 8.150060729300000E9     3.386706494559205E-2    5.388752235388892E-1   -2.604493138211606E-3    5.272817957369823E-4   -2.643499947636537E-3    5.867052774229822E-4    1.884510192382819E-1    4.790502303157236E-1
 8.150074698625000E9     3.492772112578165E-2    5.390170075623588E-1   -2.613708374483694E-3    5.346102852210307E-4   -2.631593252427919E-3    6.079745576698267E-4    1.893486251113191E-1    4.787624331324830E-1
 8.150088667950000E9     3.590643175119212E-2    5.387672853096088E-1   -2.606038134921153E-3    5.512003219717736E-4   -2.632957084873219E-3    5.831580327713440E-4    1.903009222849411E-1    4.782919624196207E-1
 8.150102637275000E9     3.681344599139380E-2    5.386444386817794E-1   -2.617984796521868E-3    5.589757566478607E-4   -2.605104350398912E-3    6.258906999264781E-4    1.910793690681653E-1    4.780626938118338E-1
 8.150116606600000E9     3.785675194683150E-2    5.386826713585171E-1   -2.608068958899228E-3    5.449708078917375E-4   -2.662460410288247E-3    5.852001583676852E-4    1.919298771569296E-1    4.776627144849060E-1
 8.150130575925000E9     3.890691325871134E-2    5.386551445508472E-1   -2.628973428021620E-3    5.648980673586701E-4   -2.649914314932158E-3    6.028734338904487E-4    1.926910933634839E-1    4.772433293192022E-1
 8.150144545250000E9     3.971050708370463E-2    5.385713011799753E-1   -2.604190746773448E-3    5.685046817580268E-4   -2.664390267340754E-3    6.342003674079045E-4    1.935266038112208E-1    4.767799705971152E-1
