#  HZ   S   RI   R     50.00 
! Rohde & Schwarz Vector Network Analyzer 
! Rohde-Schwarz,ZNB20-2Port,1311601062101988,3.16
! Created: UTC 3/21/2024, 1:02:20 AM
! freq[Hz]                re:S11                  im:S11                  re:S21                  im:S21                  re:S12                  im:S12                  re:S22                  im:S22
 8.148623607000000E9    -6.628686315762694E-2    5.333675439789048E-1   -2.615529184097743E-3    8.498841460471281E-6   -2.627315105093956E-3    6.734015880987431E-5    9.913413092649609E-2    5.065053404464075E-1
 8.148638800525000E9    -6.508682848393521E-2    5.333377653398084E-1   -2.621734552561363E-3    1.565164000215220E-5   -2.668784542701476E-3    6.798131569747513E-5    1.002111278898215E-1    5.064332344630774E-1
 8.148653994050000E9    -6.419474116638961E-2    5.335019935701206E-1   -2.635349013579975E-3    4.374011680079139E-6   -2.674233513599699E-3    7.779027476419857E-5    1.010993307677656E-1    5.060638550983478E-1
 8.148669187575000E9    -6.313211597155928E-2    5.337005915009018E-1   -2.625004461847135E-3    4.330188236428654E-6   -2.665651732744565E-3    7.944082801134006E-5    1.021363181895682E-1    5.059210406239513E-1
 8.148684381100000E9    -6.208143906175707E-2    5.338595865394586E-1   -2.647050795627484E-3    3.254059007412433E-5   -2.645660508071533E-3    9.399748990833768E-5    1.031625490594883E-1    5.056026132081953E-1
 8.148699574625000E9    -6.106164302712097E-2    5.340365724947660E-1   -2.628336636932949E-3    3.302570902376333E-5   -2.655727202226649E-3    5.857400014159512E-5    1.039950066541073E-1    5.055427507874286E-1
 8.148714768150000E9    -5.991165415798502E-2    5.342971334546359E-1   -2.639255310971144E-3    4.231738256488728E-5   -2.643171719080504E-3    7.037240932760107E-5    1.050828416168108E-1    5.052424983509107E-1
 8.148729961675000E9    -5.891074461182423E-2    5.342315754395428E-1   -2.618756749233653E-3    1.862063003765924E-6   -2.691590651398126E-3    9.867911113289280E-5    1.060099476524970E-1    5.051547560043375E-1
 8.148745155200000E9    -5.784207862221453E-2    5.345017560244827E-1   -2.613482481308117E-3    4.478373170904558E-5   -2.654619184381266E-3    1.421728199993727E-4    1.070984401245735E-1    5.047557421400378E-1
 8.148760348725000E9    -5.678836319252419E-2    5.347056459547217E-1   -2.625200066422336E-3    6.940745388999244E-5   -2.644679047605578E-3    1.115408480937123E-4    1.080564066549624E-1    5.045621903428422E-1
 8.148775542250000E9    -5.591196105658492E-2    5.348200201927938E-1   -2.639015914617619E-3    5.316766130312625E-5   -2.668844901722674E-3    1.205289035170346E-4    1.088638368614769E-1    5.044263348059106E-1
 8.148790735775000E9    -5.479186787929589E-2    5.348827193638990E-1   -2.630762828451656E-3    6.311059639357261E-5   -2.661848492112007E-3    1.336583466354137E-4    1.099736729636645E-1    5.041087552082524E-1
 8.148805929300000E9    -5.370597853677409E-2    5.351166070905623E-1   -2.588290415469286E-3    6.993209960875971E-5   -2.662087785808538E-3    8.731245110656839E-5    1.108360153578452E-1    5.039664483667401E-1
 8.148821122825000E9    -5.259087290225127E-2    5.351669584446731E-1   -2.637879627744701E-3    7.524614227197696E-5   -2.669049729612077E-3    1.370692330716454E-4    1.118146946937378E-1    5.037687272322104E-1
 8.148836316350000E9    -5.147505483283381E-2    5.352249406848705E-1   -2.617485567521789E-3    8.463106371057792E-5   -2.657694047791201E-3    1.721158251704699E-4    1.128315151899473E-1    5.034202455681674E-1
 8.148851509875000E9    -5.055070267409424E-2    5.354651553653242E-1   -2.673612033268134E-3    7.379172694336461E-5   -2.669774746200555E-3    1.604049117266002E-4    1.139049177209140E-1    5.031649129937499E-1
 8.148866703400000E9    -4.952139455173276E-2    5.355685731151734E-1   -2.631970496319781E-3    8.835103346392709E-5   -2.679084983339018E-3    1.274087136119986E-4    1.148411572235331E-1    5.029894367601203E-1
 8.148881896925000E9    -4.826157730259067E-2    5.356744430393683E-1   -2.631643545554553E-3    9.437215191370595E-5   -2.678338758349565E-3    1.331028357807087E-4    1.157601839585830E-1    5.027153821985773E-1
 8.148897090450000E9    -4.740103315219370E-2    5.357940059902599E-1   -2.603483269666665E-3    1.109726976377931E-4   -2.667604771943830E-3    1.540959587386557E-4    1.166011951643144E-1    5.024915188566748E-1
 8.148912283975000E9    -4.632573073251875E-2    5.359072723053703E-1   -2.629355772121166E-3    1.154887364380815E-4   -2.671273493654032E-3    1.665533617272403E-4    1.176885157612873E-1    5.023239453317011E-1
 8.148927477500000E9    -4.517910340814243E-2    5.359879982472376E-1   -2.638047610436683E-3    1.103557757906134E-4   -2.665178779260704E-3    1.658775271929527E-4    1.185883312990171E-1    5.020800846077608E-1
 8.148942671025000E9    -4.418134523168497E-2    5.360677014785112E-1   -2.618026821214495E-3    1.200908838499422E-4   -2.664534436891344E-3    1.622487483202649E-4    1.196097404538157E-1    5.019079720284096E-1
 8.148957864550000E9    -4.322775437816938E-2    5.362524724241594E-1   -2.625937719833558E-3    1.312575979624430E-4   -2.670027264923475E-3    1.891227462861203E-4    1.204900526941637E-1    5.016043651761591E-1
 8.148973058075000E9    -4.197827950067213E-2    5.363133784512838E-1   -2.636921017994799E-3    1.358009849015772E-4   -2.663281499975925E-3    2.101063334581035E-4    1.214520715458773E-1    5.014534905248917E-1
 8.148988251600000E9    -4.107150643834993E-2    5.364422441267496E-1   -2.621073756370055E-3    1.346077634963762E-4   -2.642954199091992E-3    2.026748730264234E-4    1.223830891682698E-1    5.010704289879354E-1
 8.149003445125000E9    -4.003960587321096E-2    5.365874813986808E-1   -2.641849728640892E-3    1.534198104488282E-4   -2.656206116713906E-3    1.815687458660380E-4    1.231491058077539E-1    5.007090523934800E-1
 8.149018638650000E9    -3.885401272052432E-2    5.365813152247030E-1   -2.631513647937416E-3    1.864932609669235E-4   -2.641012791982116E-3    2.071929997621028E-4    1.243605342533170E-1    5.007276673652267E-1
 8.149033832175000E9    -3.783294585311675E-2    5.368494884506831E-1   -2.628007754662042E-3    1.403878977221072E-4   -2.656948678651067E-3    2.463847221717346E-4    1.252321755020233E-1    5.002522379310969E-1
 8.149049025700000E9    -3.684215820238437E-2    5.369021157564963E-1   -2.640679930698615E-3    1.285960226782069E-4   -2.661931621041105E-3    2.128863720408367E-4    1.261302213455119E-1    4.999717497037348E-1
 8.149064219225000E9    -3.568449877292822E-2    5.369729355777643E-1   -2.610203175350304E-3    1.690690063838851E-4   -2.673770476510213E-3    2.094076071142993E-4    1.272410911688380E-1    4.998050741482163E-1
 8.149079412750000E9    -3.463816353727658E-2    5.371398343773288E-1   -2.644687234118465E-3    1.436735257883738E-4   -2.650274125622009E-3    1.989613788429075E-4    1.282500411848735E-1    4.996754692996037E-1
 8.149094606275000E9    -3.360811333622894E-2    5.371038581905060E-1   -2.653264871281301E-3    1.874360804720245E-4   -2.688039520850252E-3    2.241215607156346E-4    1.290764485355238E-1    4.992914911000488E-1
 8.149109799800000E9    -3.256017340396116E-2    5.373777196717967E-1   -2.645531924492925E-3    2.035545282958576E-4   -2.694300545993260E-3    2.540746459996511E-4    1.300579432488586E-1    4.990149742119839E-1
 8.149124993325000E9    -3.148959985706136E-2    5.372000687493265E-1   -2.652200655415056E-3    1.734864255369945E-4   -2.678132087493458E-3    2.272772521227010E-4    1.309808596591554E-1    4.986944647874578E-1
 8.149140186850000E9    -3.040023062227733E-2    5.373949192833833E-1   -2.635190179100004E-3    1.976253568662875E-4   -2.655569895304604E-3    2.521184496650599E-4    1.318639527161234E-1    4.983962005860041E-1
 8.149155380375000E9    -2.941975253431835E-2    5.374391343273580E-1   -2.630167396191142E-3    1.993067357722374E-4   -2.640346720913213E-3    2.393946148951236E-4    1.328829506925523E-1    4.981778790050702E-1
 8.149170573900000E9    -2.837749552453199E-2    5.376555714639686E-1   -2.614680319871933E-3    2.161245309159851E-4   -2.657835215647643E-3    2.605354285022506E-4    1.339320865356080E-1    4.980522746642393E-1
 8.149185767425000E9    -2.734013917144255E-2    5.376203923079422E-1   -2.620860008475575E-3    1.988504147314413E-4   -2.644903873664242E-3    2.558439751050748E-4    1.349094783760157E-1    4.977074486256385E-1
 8.149200960950000E9    -2.620195423458913E-2    5.376657989189380E-1   -2.628873045400298E-3    2.381668066215841E-4   -2.665067634560064E-3    2.674683471724053E-4    1.358240585245820E-1    4.973632634721482E-1
 8.149216154475000E9    -2.512905157879579E-2    5.378276648649043E-1   -2.646375487272111E-3    2.339685496179939E-4   -2.626969871300073E-3    2.754206777306792E-4    1.367034451424721E-1    4.970785004367338E-1
 8.149231348000000E9    -2.413725050541649E-2    5.377650970870042E-1   -2.616088447666803E-3    2.406445940596605E-4   -2.654480042689861E-3    2.670784997739252E-4    1.377000424245025E-1    4.967273545481189E-1
 8.149246541525000E9    -2.304806350024921E-2    5.379505537330478E-1   -2.634962617217711E-3    2.366552815296958E-4   -2.658902070975530E-3    2.743018497714489E-4    1.386220824748447E-1    4.965661954749326E-1
 8.149261735050000E9    -2.190863879534050E-2    5.379911278936608E-1   -2.609645334567039E-3    2.209105475553293E-4   -2.635946661559385E-3    2.875810705995532E-4    1.395726762815114E-1    4.963905597713235E-1
 8.149276928575000E9    -2.088355305380372E-2    5.382301233971551E-1   -2.641485207623473E-3    2.422737113695201E-4   -2.655009626962868E-3    2.947281985654309E-4    1.405068657563024E-1    4.959458718537908E-1
 8.149292122100000E9    -1.986375505121445E-2    5.381850731623393E-1   -2.609650848185179E-3    2.227918666175285E-4   -2.635964473530861E-3    3.131279557998063E-4    1.414514090832893E-1    4.957787190030704E-1
 8.149307315625000E9    -1.884376010311323E-2    5.382081863443449E-1   -2.622944744779760E-3    2.532081426195779E-4   -2.650016753777058E-3    3.200963541328675E-4    1.424644681337630E-1    4.954019943280111E-1
 8.149322509150000E9    -1.771100944413053E-2    5.381817102458697E-1   -2.626090236106099E-3    2.397809939572985E-4   -2.641041831888003E-3    3.206369933827786E-4    1.433835123559377E-1    4.951924851250650E-1
 8.149337702675000E9    -1.659594874276185E-2    5.382941640868543E-1   -2.622037277208944E-3    2.698714740974363E-4   -2.642217495805131E-3    3.310022345990105E-4    1.442889599472325E-1    4.949235558916275E-1
 8.149352896200000E9    -1.562193251728921E-2    5.383768750239646E-1   -2.624966724300516E-3    2.697874757269159E-4   -2.661604217783643E-3    3.191520962781810E-4    1.453711809064208E-1    4.946040629412773E-1
 8.149368089725000E9    -1.462632172861795E-2    5.383723216288459E-1   -2.613987468577926E-3    2.947874501630248E-4   -2.620427105086700E-3    3.514491714639186E-4    1.463009810259218E-1    4.943067347749162E-1
 8.149383283250000E9    -1.361329654815494E-2    5.384464657104445E-1   -2.606201197852957E-3    3.066349642909506E-4   -2.610775155523469E-3    3.411403501678125E-4    1.471652612032129E-1    4.940268455115461E-1
 8.149398476775000E9    -1.255726781619102E-2    5.385626121481318E-1   -2.626070412241892E-3    2.819620275606486E-4   -2.611299417649602E-3    3.397206006646188E-4    1.480899971984355E-1    4.936270790194060E-1
 8.149413670300000E9    -1.140173597159454E-2    5.386300028803206E-1   -2.624549656293350E-3    2.950597099815687E-4   -2.646763732526629E-3    3.354002962521311E-4    1.490159236529507E-1    4.932795662570612E-1
 8.149428863825000E9    -1.036393260064065E-2    5.386428039968650E-1   -2.618326725223522E-3    3.025074266872901E-4   -2.661066420392523E-3    3.652064860999079E-4    1.500244881881275E-1    4.930227107978405E-1
 8.149444057350000E9    -9.137900140427514E-3    5.386900625930781E-1   -2.633602913444267E-3    3.133479786720034E-4   -2.660189271681981E-3    3.461812829309632E-4    1.510439636663914E-1    4.927161524796019E-1
 8.149459250875000E9    -8.159579022349421E-3    5.387809831421850E-1   -2.622547968268375E-3    2.994287796910848E-4   -2.666564836919018E-3    3.870546180613177E-4    1.518781609323474E-1    4.924152196579718E-1
 8.149474444400000E9    -7.064278893267772E-3    5.388308788420131E-1   -2.612872223866674E-3    3.216000751091041E-4   -2.643518303204968E-3    3.621063016591237E-4    1.528761057661539E-1    4.922062853814907E-1
 8.149489637925000E9    -6.077448271840603E-3    5.389133110676601E-1   -2.620065318112585E-3    3.048550189367765E-4   -2.605114909903462E-3    3.710679410780093E-4    1.537101941013862E-1    4.916923980902315E-1
 8.149504831450000E9    -5.014215185443691E-3    5.388625667355871E-1   -2.617754706797190E-3    3.301578709897118E-4   -2.629825445264664E-3    3.491590746329317E-4    1.546349723877932E-1    4.914915073691529E-1
 8.149520024975000E9    -4.033913634016326E-3    5.389109197594965E-1   -2.641967868666577E-3    3.243188221602698E-4   -2.630465225979615E-3    4.187494699671553E-4    1.557491758769315E-1    4.912670864505740E-1
 8.149535218500000E9    -2.904923684208986E-3    5.389036122794271E-1   -2.599619147766992E-3    3.350039252754456E-4   -2.653320753197016E-3    3.863850617010905E-4    1.566102702075677E-1    4.908540142886215E-1
 8.149550412025000E9    -1.769776758936400E-3    5.390256473316042E-1   -2.604510752552156E-3    3.340559134958513E-4   -2.636521970117942E-3    3.915330420837069E-4    1.574997088261470E-1    4.906494293867418E-1
 8.149565605550000E9    -8.677350517156504E-4    5.389891872073237E-1   -2.631497652857827E-3    3.546058674794132E-4   -2.687785982695102E-3    3.863137727071897E-4    1.584280296933758E-1    4.903356561890584E-1
 8.149580799075000E9     3.549305344346908E-4    5.389583264491654E-1   -2.607185198975043E-3    3.244573434909595E-4   -2.654642888269923E-3    4.164183371428433E-4    1.593362715683123E-1    4.899253634417770E-1
 8.149595992600000E9     1.262333257340522E-3    5.391512550416110E-1   -2.604814381092348E-3    3.338585574142387E-4   -2.624292185818225E-3    3.966366766982836E-4    1.602104133973045E-1    4.894527455343518E-1
 8.149611186125000E9     2.390095895139780E-3    5.391187616188496E-1   -2.615889385419606E-3    3.587484424148028E-4   -2.684291961087991E-3    4.368636533451584E-4    1.613584733859867E-1    4.893680840854598E-1
 8.149626379650000E9     3.491664806689097E-3    5.390034496118006E-1   -2.607465788257056E-3    3.880039783031925E-4   -2.639727914940510E-3    4.335963336184097E-4    1.621982286334467E-1    4.889032946788477E-1
 8.149641573175000E9     4.565924424765887E-3    5.390586661752312E-1   -2.628209893011390E-3    3.605177205656397E-4   -2.637859996273235E-3    4.471167088553183E-4    1.632865211705020E-1    4.885732053016921E-1
 8.149656766700000E9     5.534486662938702E-3    5.391472823837318E-1   -2.593027029132759E-3    3.901910754467359E-4   -2.638596740712641E-3    4.045871832563149E-4    1.640082870339218E-1    4.882675351249626E-1
 8.149671960225000E9     6.637448827623921E-3    5.390598251536538E-1   -2.617668056490852E-3    3.922710634700079E-4   -2.651944404302599E-3    4.767875171177025E-4    1.650943854960637E-1    4.879947819701015E-1
 8.149687153750000E9     7.724394140905716E-3    5.391339461596338E-1   -2.634213987515704E-3    3.941942649540938E-4   -2.620494927021476E-3    4.399143838755515E-4    1.659795494703880E-1    4.876294082353853E-1
 8.149702347275000E9     8.722981910162429E-3    5.391907699539223E-1   -2.618760541953243E-3    3.998465065596924E-4   -2.646957303416123E-3    4.510381801383787E-4    1.668377008596583E-1    4.873151337010415E-1
 8.149717540800000E9     9.807265648403209E-3    5.391192533760896E-1   -2.612535098162226E-3    4.082269346916452E-4   -2.659711384546614E-3    4.715931787824507E-4    1.678680459741624E-1    4.869520466189098E-1
 8.149732734325000E9     1.085800705827418E-2    5.390517032682051E-1   -2.596886743535247E-3    4.047125389044002E-4   -2.643176050579705E-3    4.316142762159876E-4    1.687374242616003E-1    4.866046267307948E-1
 8.149747927850000E9     1.196953246789521E-2    5.390956654990152E-1   -2.629551927144173E-3    4.057867103901660E-4   -2.654301789959599E-3    4.654263577607361E-4    1.696360368248326E-1    4.863584934193201E-1
 8.149763121375000E9     1.294218285113002E-2    5.391652932639067E-1   -2.630401172769496E-3    4.260919628995978E-4   -2.643436861113774E-3    4.720320531362513E-4    1.704777893019032E-1    4.859774742825583E-1
 8.149778314900000E9     1.396463764058690E-2    5.391095566242343E-1   -2.616527376768061E-3    4.028871487911569E-4   -2.635558491357538E-3    4.798313103359822E-4    1.714252050382852E-1    4.856245871565944E-1
 8.149793508425000E9     1.496309624999555E-2    5.392022896182908E-1   -2.603270418799135E-3    4.115812504244740E-4   -2.623147514917901E-3    4.866068689114845E-4    1.722645772726177E-1    4.853663812614130E-1
 8.149808701950000E9     1.615449646744129E-2    5.392334311139668E-1   -2.641026728984937E-3    4.438276127540170E-4   -2.663930748544229E-3    4.870404301684497E-4    1.734820125819288E-1    4.849336370503244E-1
 8.149823895475000E9     1.735814521134844E-2    5.392398650226545E-1   -2.593621389402286E-3    4.512553603550445E-4   -2.662563142157994E-3    4.831918522079427E-4    1.743858072459375E-1    4.846287994372302E-1
 8.149839089000000E9     1.829136275971721E-2    5.391826692606722E-1   -2.586837522590133E-3    4.400992416890636E-4   -2.611378649791933E-3    4.721197976075836E-4    1.752175735422733E-1    4.842229092856603E-1
 8.149854282525000E9     1.939765110567189E-2    5.391208808508774E-1   -2.620782513497025E-3    4.610079722649186E-4   -2.627974723028275E-3    5.123185299845660E-4    1.760585042791598E-1    4.837467207919503E-1
 8.149869476050000E9     2.029162428753946E-2    5.391583689352936E-1   -2.609362628886355E-3    4.589173203043682E-4   -2.634131313488143E-3    5.339384924684263E-4    1.770469196853033E-1    4.836965098582615E-1
 8.149884669575000E9     2.137520840996653E-2    5.391366162804245E-1   -2.612198785506801E-3    4.621336774758138E-4   -2.643007189657776E-3    5.298618049904043E-4    1.779434985724221E-1    4.830692992287658E-1
 8.149899863100000E9     2.249270906309011E-2    5.390586400431990E-1   -2.599236202360083E-3    4.652011093877461E-4   -2.643763406163410E-3    5.268016297569062E-4    1.789410246435099E-1    4.827412374235798E-1
 8.149915056625000E9     2.354053191314539E-2    5.391209010209012E-1   -2.616911078211734E-3    4.782598815329595E-4   -2.597405861284405E-3    5.263085102945741E-4    1.797655460734228E-1    4.824319986625102E-1
 8.149930250150000E9     2.466731488430622E-2    5.390612161209898E-1   -2.597025542548411E-3    4.996493618277598E-4   -2.616810189929376E-3    5.452372221270431E-4    1.806496869714455E-1    4.821870814566711E-1
 8.149945443675000E9     2.571535963064239E-2    5.389325406296914E-1   -2.607310357599820E-3    4.839597842491002E-4   -2.636287135216392E-3    5.451511015510383E-4    1.815566986116525E-1    4.818441532141911E-1
 8.149960637200000E9     2.678206606138435E-2    5.389989484958586E-1   -2.638766414645356E-3    4.974864083604325E-4   -2.616640812376842E-3    5.253175637060197E-4    1.824766856862664E-1    4.813332064085784E-1
 8.149975830725000E9     2.787859056449086E-2    5.388576202129253E-1   -2.637005908149695E-3    4.799487024058684E-4   -2.645945163357094E-3    5.473859973894984E-4    1.833957759757709E-1    4.810834403217927E-1
 8.149991024250000E9     2.887496905627176E-2    5.388756799447512E-1   -2.615163377780577E-3    5.057495138819839E-4   -2.618071357759727E-3    5.596799782364271E-4    1.843546416839398E-1    4.806743030825069E-1
