#  HZ   S   RI   R     50.00 
! Rohde & Schwarz Vector Network Analyzer 
! Rohde-Schwarz,ZNB20-2Port,1311601062101988,3.16
! Created: UTC 3/21/2024, 1:02:53 AM
! freq[Hz]                re:S11                  im:S11                  re:S21                  im:S21                  re:S12                  im:S12                  re:S22                  im:S22
 8.148443984000000E9    -7.909487260729740E-2    5.311680739391461E-1   -2.612647415009871E-3   -7.792246106438207E-5   -2.655252155711782E-3   -5.899923426528267E-6    8.763151605803432E-2    5.084962706714645E-1
 8.148460018850000E9    -7.776076615789365E-2    5.312462190845720E-1   -2.642763991320098E-3   -7.722115023152278E-5   -2.651232464129615E-3    1.147278324387427E-6    8.866037906641373E-2    5.082007281672938E-1
 8.148476053700000E9    -7.673665409254424E-2    5.314984751509908E-1   -2.605348831459069E-3   -5.465264159580986E-5   -2.663985655492189E-3   -1.455239878743195E-6    8.965007052452335E-2    5.080506677268769E-1
 8.148492088550000E9    -7.566911249782472E-2    5.315906353282815E-1   -2.605238506170838E-3   -3.725537820808127E-5   -2.669810950146798E-3    2.912843024886005E-5    9.078641193685920E-2    5.079219911533241E-1
 8.148508123400000E9    -7.448022709643448E-2    5.318808754574885E-1   -2.623287169805134E-3   -1.981656887964642E-5   -2.639765311534890E-3    3.756132086519477E-5    9.170489445650694E-2    5.076077261505353E-1
 8.148524158250000E9    -7.340598880446979E-2    5.320575864054148E-1   -2.609696559508065E-3   -2.800557092023777E-5   -2.669425298239897E-3    5.378351888333529E-5    9.279913935169934E-2    5.073633950421286E-1
 8.148540193100000E9    -7.219222905561415E-2    5.321525381982605E-1   -2.648746198134142E-3   -1.893049538728503E-5   -2.669215597279562E-3    1.279142867531096E-5    9.370900028765070E-2    5.072463500419844E-1
 8.148556227950000E9    -7.121714278735621E-2    5.324447769139100E-1   -2.626949686526286E-3   -1.521517263044451E-5   -2.638313723564599E-3    5.301130057979079E-5    9.493589754033065E-2    5.069895141032353E-1
 8.148572262800000E9    -6.995576130226829E-2    5.325534410317194E-1   -2.628709436910924E-3   -2.214280291630007E-5   -2.685129940500932E-3    4.261669620279149E-5    9.588448671975279E-2    5.068129028802644E-1
 8.148588297650000E9    -6.893390912369446E-2    5.327897474044370E-1   -2.623206620280333E-3    1.142976648050235E-5   -2.665388574579043E-3    5.315710246027036E-5    9.690298156163214E-2    5.065060576337987E-1
 8.148604332500000E9    -6.774109347065925E-2    5.330384973062237E-1   -2.633253397247759E-3    4.580012666974749E-7   -2.652307344445974E-3    4.497329901958626E-5    9.792631585731071E-2    5.063721591084462E-1
 8.148620367350000E9    -6.671311422496559E-2    5.329984732389238E-1   -2.625151606448412E-3    1.904634738673300E-5   -2.676751055477272E-3    9.216751630216325E-5    9.913860184407365E-2    5.061428453022773E-1
 8.148636402200000E9    -6.561938793250773E-2    5.331424129574597E-1   -2.634240093200278E-3   -1.139172098024820E-5   -2.688455038984060E-3    8.461552956518977E-5    9.995276100958943E-2    5.059687945455997E-1
 8.148652437050000E9    -6.459702192671318E-2    5.335333029096939E-1   -2.634417248822412E-3    2.102796100267796E-5   -2.660712643907502E-3    7.161864584395836E-5    1.009562664315613E-1    5.056620852123218E-1
 8.148668471900000E9    -6.336177816704103E-2    5.336283191458865E-1   -2.632131950909082E-3    2.284856049661564E-5   -2.648861994059636E-3    1.014004280187283E-4    1.021897317316323E-1    5.054724784881837E-1
 8.148684506750000E9    -6.232241612110492E-2    5.338749148931632E-1   -2.623492617042574E-3    1.333390886534484E-5   -2.669423916773691E-3    1.042007777359760E-4    1.030742319994871E-1    5.053244304675476E-1
 8.148700541600000E9    -6.113763686201113E-2    5.340283060885859E-1   -2.634108189928171E-3    3.615894596111860E-5   -2.643126667852976E-3    1.001362292103617E-4    1.041228607385918E-1    5.049090902300063E-1
 8.148716576450000E9    -6.013618923830393E-2    5.340430809677715E-1   -2.617369282519835E-3    5.124897614645153E-5   -2.670160283717339E-3    1.021855484963982E-4    1.051953714038130E-1    5.048393778977153E-1
 8.148732611300000E9    -5.898363342041278E-2    5.341308225626628E-1   -2.646628923792147E-3    7.233749157636014E-5   -2.649509939953115E-3    1.113095911750615E-4    1.061860628695432E-1    5.045231917333207E-1
 8.148748646150000E9    -5.790028403068593E-2    5.343649456993321E-1   -2.626688653311297E-3    5.658620156826661E-5   -2.648841684785687E-3    7.991527616896156E-5    1.071435451963591E-1    5.043597489482027E-1
 8.148764681000000E9    -5.680311664248430E-2    5.345722952541516E-1   -2.627239094643469E-3    5.804007722049439E-5   -2.658720955749684E-3    8.813146619898477E-5    1.082379822875875E-1    5.040369230862640E-1
 8.148780715850000E9    -5.554181468513102E-2    5.345768959121991E-1   -2.641579192037311E-3    4.707935730374666E-5   -2.674255770272672E-3    9.377944948228810E-5    1.091575571017779E-1    5.038499233251301E-1
 8.148796750700000E9    -5.438836404547680E-2    5.348317431663880E-1   -2.620027529219757E-3    7.480878813294644E-5   -2.684887847226736E-3    1.305941269862422E-4    1.102836830276736E-1    5.036336633363244E-1
 8.148812785550000E9    -5.342508271700645E-2    5.349269161585730E-1   -2.650553067979591E-3    8.306246938821106E-5   -2.659929148172843E-3    1.262705774324055E-4    1.113564431868744E-1    5.035301509853231E-1
 8.148828820400000E9    -5.234887041733684E-2    5.351260008011368E-1   -2.627858331539730E-3    7.165628024002440E-5   -2.679219682214126E-3    1.650029243473252E-4    1.122798296095866E-1    5.031519245641037E-1
 8.148844855250000E9    -5.108455908328698E-2    5.351958689756655E-1   -2.618132825752087E-3    8.690398945843416E-5   -2.663724501399633E-3    1.370082108260138E-4    1.132134926325084E-1    5.029046360684117E-1
 8.148860890100000E9    -4.996655155514659E-2    5.353675575118181E-1   -2.626656198909630E-3    1.007187723028595E-4   -2.655587473558512E-3    1.368732325513564E-4    1.143992346519649E-1    5.026769903756959E-1
 8.148876924950000E9    -4.902618921970722E-2    5.354723594360190E-1   -2.616678457640927E-3    1.099499223838079E-4   -2.678032663685370E-3    1.568948175480699E-4    1.153639358508063E-1    5.024367349733958E-1
 8.148892959800000E9    -4.780471750358327E-2    5.355360462064525E-1   -2.630017072837370E-3    1.081585763521611E-4   -2.675163248359407E-3    1.549216051488303E-4    1.163200510106080E-1    5.021314005168037E-1
 8.148908994650000E9    -4.678719212886087E-2    5.357502457589840E-1   -2.619924367896456E-3    8.994567780819666E-5   -2.673630698216805E-3    1.459089671393345E-4    1.173373734646966E-1    5.019628109621198E-1
 8.148925029500000E9    -4.552779851166717E-2    5.359069051581417E-1   -2.632564204881813E-3    7.906310856568956E-5   -2.672667584276153E-3    1.812498493811136E-4    1.184148988155267E-1    5.015240128137284E-1
 8.148941064350000E9    -4.440909548891013E-2    5.359572291344242E-1   -2.626514907831601E-3    1.253350119402636E-4   -2.689249367611800E-3    1.714297160856616E-4    1.195433471942078E-1    5.013213242432509E-1
 8.148957099200000E9    -4.339722390501077E-2    5.361422983185257E-1   -2.621059805371001E-3    1.300110556840585E-4   -2.641476057489617E-3    1.737950797659507E-4    1.203698700560720E-1    5.010791284692786E-1
 8.148973134050000E9    -4.224530999098011E-2    5.361217855858045E-1   -2.629931307585793E-3    1.561984408183032E-4   -2.679608116008945E-3    1.908246504900966E-4    1.214296938432592E-1    5.008178942785237E-1
 8.148989168900000E9    -4.107548012820404E-2    5.362539588126424E-1   -2.623559324482473E-3    1.255540253856281E-4   -2.677603271248289E-3    1.666509552444014E-4    1.224551311282123E-1    5.004188012549113E-1
 8.149005203750000E9    -4.010745163062208E-2    5.363766371931095E-1   -2.634469237355884E-3    1.117937857682197E-4   -2.661160118714996E-3    2.187379688527394E-4    1.235940785781160E-1    5.003175298929571E-1
 8.149021238600000E9    -3.898179680859275E-2    5.365762274267351E-1   -2.631092113649415E-3    1.345081223259653E-4   -2.665266333403316E-3    2.105003909941424E-4    1.244735412660585E-1    5.000778771104507E-1
 8.149037273450000E9    -3.787325767232438E-2    5.365855161400404E-1   -2.644072973624630E-3    1.615817041082506E-4   -2.661148645819827E-3    1.869968518806271E-4    1.254749285540262E-1    4.998238886278344E-1
 8.149053308300000E9    -3.670244573413989E-2    5.367712571491877E-1   -2.631753830142134E-3    1.870242015168406E-4   -2.673688746693100E-3    2.345498831198018E-4    1.264888887686582E-1    4.995139905866698E-1
 8.149069343150000E9    -3.560955002254705E-2    5.368584149031224E-1   -2.622776984481607E-3    1.788001076324342E-4   -2.693632785520025E-3    2.388047666151243E-4    1.275230677019605E-1    4.991973557609335E-1
 8.149085378000000E9    -3.439862379680089E-2    5.369831929845198E-1   -2.648189379547979E-3    1.709837410728474E-4   -2.671772139275253E-3    1.900907189975058E-4    1.284717607721611E-1    4.989398012840524E-1
 8.149101412850000E9    -3.331818109898950E-2    5.369148828199253E-1   -2.624654555073996E-3    2.158373134996064E-4   -2.666957934998466E-3    2.384154423406566E-4    1.295665929858104E-1    4.988123501987183E-1
 8.149117447700000E9    -3.220655831644764E-2    5.371121905960828E-1   -2.614510345122192E-3    1.627753541085589E-4   -2.631345475560774E-3    2.306600271985710E-4    1.305747159017940E-1    4.983945866020061E-1
 8.149133482550000E9    -3.112760194231194E-2    5.372596632901651E-1   -2.649046623486019E-3    1.778387082898773E-4   -2.652146637557030E-3    2.353710034100143E-4    1.314405521223395E-1    4.981216320437723E-1
 8.149149517400000E9    -3.002114960478625E-2    5.373300018356210E-1   -2.636088412042482E-3    1.999646390323592E-4   -2.647293637992466E-3    2.463122509425506E-4    1.326313223154506E-1    4.978808384272124E-1
 8.149165552250000E9    -2.879898649796059E-2    5.374480229913440E-1   -2.639761240559980E-3    1.944171780397865E-4   -2.642097203038240E-3    2.348029277237266E-4    1.334632914445957E-1    4.975023800187637E-1
 8.149181587100000E9    -2.775519533437653E-2    5.375557631878447E-1   -2.628832792923850E-3    2.272205637270959E-4   -2.681401851492256E-3    2.693905802826811E-4    1.345066088821672E-1    4.974705190276586E-1
 8.149197621950000E9    -2.675071271061954E-2    5.376324198958711E-1   -2.655689057001889E-3    2.155390202835157E-4   -2.652493671823450E-3    2.575732071134934E-4    1.356230961828193E-1    4.970817226995239E-1
 8.149213656800000E9    -2.555482247504384E-2    5.377674817954353E-1   -2.624452476401915E-3    2.261728244968413E-4   -2.634718303496544E-3    2.425221290780963E-4    1.365142307362654E-1    4.966711001770395E-1
 8.149229691650000E9    -2.448904961124465E-2    5.378238638789169E-1   -2.618223032409845E-3    2.074401310135369E-4   -2.647615280234829E-3    2.913888654600910E-4    1.375084363438687E-1    4.963257433527632E-1
 8.149245726500000E9    -2.341835208248031E-2    5.378351510483365E-1   -2.631816647259205E-3    2.369758492081572E-4   -2.656622221351026E-3    2.973372638690007E-4    1.385718121847234E-1    4.962702364508108E-1
 8.149261761350000E9    -2.214114259256698E-2    5.379993075232592E-1   -2.641376621137485E-3    2.267045064639218E-4   -2.624617590651867E-3    2.956354765632671E-4    1.396475950596105E-1    4.957869454543206E-1
 8.149277796200000E9    -2.099880481185575E-2    5.380371639779051E-1   -2.625282182913741E-3    2.431308954484090E-4   -2.643968462299009E-3    2.816784105379288E-4    1.406792003741093E-1    4.954332247136000E-1
 8.149293831050000E9    -1.997020097709973E-2    5.381547555169383E-1   -2.636539112152494E-3    2.289465896447207E-4   -2.666519715378670E-3    3.086713210790918E-4    1.415951715951622E-1    4.952410100301197E-1
 8.149309865900000E9    -1.889480225833531E-2    5.381735633904594E-1   -2.631332143166437E-3    2.270156528184062E-4   -2.646471293254203E-3    3.209845288638420E-4    1.425512600924296E-1    4.947750794860490E-1
 8.149325900750000E9    -1.776136156688655E-2    5.382459959114841E-1   -2.639826592244129E-3    2.762656569017191E-4   -2.633971292555529E-3    3.265375638750040E-4    1.435766179662261E-1    4.945965963392757E-1
 8.149341935600000E9    -1.668015097259747E-2    5.382152224962590E-1   -2.634234352114554E-3    2.177764168577368E-4   -2.654008535937195E-3    3.229681533400795E-4    1.445691348400146E-1    4.942602851348767E-1
 8.149357970450000E9    -1.548916666752492E-2    5.383716162172600E-1   -2.642615207014413E-3    2.691394011971790E-4   -2.647951671694434E-3    3.316385416140114E-4    1.454898269140547E-1    4.939180263537337E-1
 8.149374005300000E9    -1.439686434938929E-2    5.383551934653009E-1   -2.639273640734563E-3    2.857051682373586E-4   -2.666142119998022E-3    3.012571942997475E-4    1.466951176890054E-1    4.937484055672203E-1
 8.149390040150000E9    -1.328888475563627E-2    5.384126056773226E-1   -2.632894258560186E-3    3.017303613969153E-4   -2.674032852539425E-3    3.403422407271688E-4    1.474900967227901E-1    4.934371754958967E-1
 8.149406075000000E9    -1.213613592307952E-2    5.384315275653977E-1   -2.635149373796449E-3    2.793309341589960E-4   -2.638037497374233E-3    3.273268974786379E-4    1.485363991676054E-1    4.930558520256804E-1
 8.149422109850000E9    -1.109966360093092E-2    5.385007580507469E-1   -2.627966554335216E-3    2.644270245509774E-4   -2.629001091844090E-3    3.355800959446335E-4    1.496105932360795E-1    4.927019805690460E-1
 8.149438144700000E9    -9.993230871066865E-3    5.386424420885921E-1   -2.629097191216869E-3    3.118975211352794E-4   -2.645685500229162E-3    3.570269560084729E-4    1.505346727568919E-1    4.923821076001427E-1
 8.149454179550000E9    -8.840940584179438E-3    5.386340914038023E-1   -2.632279911998994E-3    3.224190977375524E-4   -2.645645141641744E-3    3.549426116357597E-4    1.515102735967466E-1    4.921255889157109E-1
 8.149470214400000E9    -7.663897717768813E-3    5.387186509061542E-1   -2.619517419029472E-3    2.948542176618251E-4   -2.650293876499938E-3    3.670793339749937E-4    1.525652525324071E-1    4.918252128203238E-1
 8.149486249250000E9    -6.574861503644288E-3    5.387071022310973E-1   -2.613531826986309E-3    3.183920354010989E-4   -2.650315194461132E-3    3.834130640347512E-4    1.535196395782642E-1    4.913800024735623E-1
 8.149502284100000E9    -5.588031739109088E-3    5.388003451665686E-1   -2.627190679323631E-3    3.152721864058190E-4   -2.664402007274003E-3    3.852792638123988E-4    1.545329152395595E-1    4.910789193467712E-1
 8.149518318950000E9    -4.343887628506145E-3    5.388340552596071E-1   -2.643420705848357E-3    3.454940552391085E-4   -2.631666502997761E-3    3.741333405080408E-4    1.556443199410643E-1    4.909012339348352E-1
 8.149534353800000E9    -3.294036898392067E-3    5.388062759269825E-1   -2.594848042848523E-3    3.391469202360171E-4   -2.653160768753806E-3    3.807540421845223E-4    1.565550661563563E-1    4.905099568580935E-1
 8.149550388650000E9    -2.182440943727817E-3    5.388458145723318E-1   -2.613531442120481E-3    3.304039155836203E-4   -2.642988236473775E-3    3.988106394677470E-4    1.574668944958206E-1    4.900247387643046E-1
 8.149566423500000E9    -1.077387487899068E-3    5.389685739362354E-1   -2.617447892133121E-3    3.365467290197763E-4   -2.632425592099777E-3    4.267397083503402E-4    1.585376078776214E-1    4.897276738298826E-1
 8.149582458350000E9     1.370175282213712E-4    5.389295479753798E-1   -2.644845167351530E-3    3.543027215617583E-4   -2.661479588579653E-3    4.231681884601657E-4    1.595560749382917E-1    4.893848951021690E-1
 8.149598493200000E9     1.306384711367651E-3    5.389010729837636E-1   -2.593588797506617E-3    3.549482083129137E-4   -2.638229738396286E-3    4.182208947726859E-4    1.604889060487537E-1    4.891387631650680E-1
 8.149614528050000E9     2.312736874302074E-3    5.389795653636665E-1   -2.642173956609936E-3    3.637330881277579E-4   -2.652700172818511E-3    4.197745017627958E-4    1.614296377138066E-1    4.888384603131887E-1
 8.149630562900000E9     3.543446111564007E-3    5.389417130296179E-1   -2.624760144047079E-3    3.687579060363784E-4   -2.636435135101060E-3    4.409457284951183E-4    1.624868430323784E-1    4.885119714884531E-1
 8.149646597750000E9     4.593198811578375E-3    5.390096311837285E-1   -2.616415903390193E-3    3.571392062232253E-4   -2.614551618626501E-3    4.084713262938467E-4    1.633828726819191E-1    4.879281206305066E-1
 8.149662632600000E9     5.738556131245363E-3    5.390783392627423E-1   -2.633635480830045E-3    3.673615282102066E-4   -2.614909301552146E-3    4.303495750890189E-4    1.644575961415418E-1    4.877477105599383E-1
 8.149678667450000E9     6.885286680404773E-3    5.390195950323887E-1   -2.634964863115123E-3    3.956614536587824E-4   -2.641703990810729E-3    4.339688634663288E-4    1.652830980676841E-1    4.875167963194691E-1
 8.149694702300000E9     7.914151231057667E-3    5.389423710246170E-1   -2.596987071794698E-3    3.900949571546731E-4   -2.635448027922138E-3    4.161836088125324E-4    1.663827415843545E-1    4.869966851194262E-1
 8.149710737150000E9     9.078447382792152E-3    5.391085430119676E-1   -2.618655431605685E-3    4.086356920979661E-4   -2.644461444254851E-3    4.272975914487684E-4    1.673180829983414E-1    4.866579461064266E-1
 8.149726772000000E9     1.016394277060788E-2    5.391494881309258E-1   -2.610768843684086E-3    4.092046932854619E-4   -2.625028514705383E-3    4.559332976551555E-4    1.684286232613541E-1    4.862438833940521E-1
 8.149742806850000E9     1.130387773405517E-2    5.389931647749853E-1   -2.617115273351903E-3    3.968320756591664E-4   -2.613761573403708E-3    4.539435643692989E-4    1.693748063767727E-1    4.858744663604713E-1
 8.149758841700000E9     1.242565558669971E-2    5.391215842039128E-1   -2.626934812376931E-3    4.592702938685459E-4   -2.649169466455209E-3    4.707973091029699E-4    1.702666713175150E-1    4.855048315743225E-1
 8.149774876550000E9     1.347562937924263E-2    5.390268533432457E-1   -2.618811168625447E-3    3.927436726162519E-4   -2.647904856517052E-3    4.679826479560134E-4    1.711456056180129E-1    4.852809410198799E-1
 8.149790911400000E9     1.460563421423281E-2    5.390928221749710E-1   -2.601507338889144E-3    4.523398318299986E-4   -2.636344172838923E-3    4.780019881208348E-4    1.722278172603589E-1    4.848517327210863E-1
 8.149806946250000E9     1.573893480528013E-2    5.390190648750217E-1   -2.640949170261674E-3    4.357626836820359E-4   -2.650201088423297E-3    4.827570155598443E-4    1.731399478504478E-1    4.843948117917280E-1
 8.149822981100000E9     1.677346463551862E-2    5.390700392192954E-1   -2.610912306911390E-3    4.377078116208229E-4   -2.633861388540054E-3    5.072859414280568E-4    1.740276833158018E-1    4.840294761819603E-1
 8.149839015950000E9     1.814461936057213E-2    5.390056234958119E-1   -2.628550755108781E-3    4.534620723828943E-4   -2.620682185892061E-3    5.093474643857997E-4    1.751883273551454E-1    4.837830078838302E-1
 8.149855050800000E9     1.911198469183192E-2    5.390421269592985E-1   -2.597681819982634E-3    4.315606666464811E-4   -2.655659283832774E-3    5.165128726711512E-4    1.761901070210011E-1    4.834044590972620E-1
 8.149871085650000E9     2.027860480036844E-2    5.390028637818165E-1   -2.620511605235988E-3    4.705427594316627E-4   -2.668659128498083E-3    5.399084253879151E-4    1.770829769292111E-1    4.829038717936809E-1
 8.149887120500000E9     2.129910389417449E-2    5.389991449480700E-1   -2.587803847586903E-3    4.647488410433281E-4   -2.619315513440506E-3    5.310452346936894E-4    1.781136590295394E-1    4.825663928946131E-1
