#  HZ   S   RI   R     50.00 
! Rohde & Schwarz Vector Network Analyzer 
! Rohde-Schwarz,ZNB20-2Port,1311601062101988,3.16
! Created: UTC 3/21/2024, 1:03:00 AM
! freq[Hz]                re:S11                  im:S11                  re:S21                  im:S21                  re:S12                  im:S12                  re:S22                  im:S22
 8.148472607000000E9    -7.702184164946724E-2    5.313402493767602E-1   -2.616250774975925E-3   -3.627420245966275E-5   -2.678997487408675E-3    1.646031264201498E-5    8.942835853906676E-2    5.079233070960517E-1
 8.148488514425000E9    -7.593796280661759E-2    5.315980401326559E-1   -2.632307568420339E-3   -6.542001481223283E-5   -2.663847609114358E-3   -8.320013995967207E-6    9.048243083640028E-2    5.077114389402169E-1
 8.148504421850000E9    -7.487304126098200E-2    5.317882414305112E-1   -2.627983993602814E-3   -1.300890542178688E-5   -2.652510658011126E-3    2.050784881712145E-5    9.148962233073971E-2    5.075510326464979E-1
 8.148520329275000E9    -7.364899231717777E-2    5.319075022768539E-1   -2.633571938205146E-3   -1.826306591958317E-5   -2.639747708898000E-3    3.181032816844129E-5    9.244267960251175E-2    5.071735170703141E-1
 8.148536236700000E9    -7.264559740403928E-2    5.322081596207809E-1   -2.646242400646036E-3   -1.989616552293855E-7   -2.614572632289193E-3    3.178345726656378E-5    9.357257843963517E-2    5.071471943807331E-1
 8.148552144125000E9    -7.152260351412906E-2    5.321979253897933E-1   -2.650306575570264E-3   -3.340165231895703E-5   -2.646928679789572E-3    2.811717161320378E-5    9.467510079987576E-2    5.069211808746047E-1
 8.148568051550000E9    -7.045191619804322E-2    5.325105360245465E-1   -2.626205783516310E-3   -1.061676069343255E-6   -2.660903028420461E-3    2.468195138820510E-5    9.571445441011005E-2    5.065977146894873E-1
 8.148583958975000E9    -6.938413320387447E-2    5.327778107859208E-1   -2.646169393285571E-3   -1.427872967868783E-5   -2.648065672618028E-3    4.237059445960019E-5    9.654792253198434E-2    5.064750782684815E-1
 8.148599866400000E9    -6.814482111129345E-2    5.328029641328561E-1   -2.606507810126238E-3   -1.483819699062559E-6   -2.666643124136100E-3    6.683328328897937E-5    9.768940406529604E-2    5.062913436669819E-1
 8.148615773825000E9    -6.705658017668112E-2    5.330216948580927E-1   -2.646854889414883E-3    2.616468362722761E-5   -2.662071113447355E-3    6.972087381423182E-5    9.861195667679389E-2    5.059898869472046E-1
 8.148631681250000E9    -6.598687303196814E-2    5.331612205860806E-1   -2.625436769057148E-3    1.193506293938579E-5   -2.663377813928167E-3    6.464464913288357E-5    9.978710513477233E-2    5.059174359372606E-1
 8.148647588675000E9    -6.490825216036417E-2    5.333977036451211E-1   -2.615505557021754E-3    2.324407155286661E-5   -2.682312819306958E-3    5.586487653687210E-5    1.007251462593596E-1    5.056807510220842E-1
 8.148663496100000E9    -6.378709532657947E-2    5.336264957906918E-1   -2.624307264330571E-3    1.720226453381721E-5   -2.680553737473577E-3    6.636035637712004E-5    1.016585322130222E-1    5.054931131074365E-1
 8.148679403525000E9    -6.287190977772851E-2    5.336211595190656E-1   -2.646347709796171E-3    5.463957274605819E-5   -2.655706549607785E-3    9.804508984035067E-5    1.026918613340008E-1    5.052412814024271E-1
 8.148695310950000E9    -6.158513234681300E-2    5.338438750007223E-1   -2.640409529241535E-3    1.287514257553869E-5   -2.658811952799258E-3    8.863001139630019E-5    1.036772289542522E-1    5.050385303867355E-1
 8.148711218375000E9    -6.056717259546646E-2    5.339733300096305E-1   -2.603943806358570E-3    4.123077628200391E-5   -2.640501278475508E-3    9.358077830717374E-5    1.048320229772839E-1    5.046684076797134E-1
 8.148727125800000E9    -5.941327579260430E-2    5.341906244877037E-1   -2.643885707405383E-3    3.521560943681503E-5   -2.667381089258521E-3    1.232307302539036E-4    1.059389280773684E-1    5.046377222920401E-1
 8.148743033225000E9    -5.835032702672915E-2    5.343233757686291E-1   -2.625316276729365E-3    5.971999306333544E-5   -2.680166256931070E-3    1.173534543105047E-4    1.067459414647282E-1    5.043671001557662E-1
 8.148758940650000E9    -5.719796170465163E-2    5.343409610122871E-1   -2.621596691444826E-3    4.153782482012388E-5   -2.667607544939132E-3    1.038629782802813E-4    1.077909086588722E-1    5.042850158858728E-1
 8.148774848075000E9    -5.619217674263118E-2    5.345100373025160E-1   -2.643474722504535E-3    6.519959938405745E-5   -2.659758998610857E-3    1.225272951185779E-4    1.087971431610358E-1    5.038544177204176E-1
 8.148790755500000E9    -5.503468679620842E-2    5.347992565612661E-1   -2.634051118584936E-3    6.189480939450173E-5   -2.657406981969083E-3    1.354622196138826E-4    1.099294505533864E-1    5.036680007726154E-1
 8.148806662925000E9    -5.390633581682495E-2    5.348789848253560E-1   -2.635718221141933E-3    7.858459521351775E-5   -2.670893077737708E-3    1.175355087644925E-4    1.108781778270259E-1    5.034430628489491E-1
 8.148822570350000E9    -5.278251842928366E-2    5.350104275310004E-1   -2.651094662625015E-3    7.117827538982022E-5   -2.683959426500332E-3    1.332105447349522E-4    1.118539207981656E-1    5.031379331675937E-1
 8.148838477775000E9    -5.162658133400670E-2    5.351405149882137E-1   -2.620975952616802E-3    7.662908438752114E-5   -2.631806303561809E-3    1.449625073925004E-4    1.127318690169524E-1    5.028537321039638E-1
 8.148854385200000E9    -5.065260776410932E-2    5.352187768272797E-1   -2.653465813136260E-3    1.148449439103952E-4   -2.683883863659549E-3    1.166365809900945E-4    1.138563798309464E-1    5.027386591382318E-1
 8.148870292625000E9    -4.950219048205105E-2    5.353439369212497E-1   -2.629967830048693E-3    9.781938357393654E-5   -2.684952881318435E-3    1.483177197024401E-4    1.149203586641280E-1    5.025295305019382E-1
 8.148886200050000E9    -4.837571357141375E-2    5.354313537945393E-1   -2.650081306826884E-3    1.326674675040263E-4   -2.672002288038535E-3    1.790418378714489E-4    1.158545262435086E-1    5.022353887551784E-1
 8.148902107475000E9    -4.718110735720522E-2    5.355580858452434E-1   -2.614927055365467E-3    9.092667969296407E-5   -2.653246275551671E-3    1.624391680466971E-4    1.169081732100457E-1    5.019441427838117E-1
 8.148918014900000E9    -4.614895001860132E-2    5.356848268154821E-1   -2.620750690747919E-3    1.400920623527773E-4   -2.671642783635526E-3    1.682843049419792E-4    1.179790769337801E-1    5.016846166715737E-1
 8.148933922325000E9    -4.500848461467047E-2    5.359664842063874E-1   -2.628453042328656E-3    1.368550337177635E-4   -2.655557321070127E-3    1.861812573948518E-4    1.188575020801730E-1    5.013902348482679E-1
 8.148949829750000E9    -4.405099012928735E-2    5.360674788461055E-1   -2.628084410542272E-3    1.340428183140201E-4   -2.664988933979110E-3    1.680719701328928E-4    1.198406530505729E-1    5.011955137805586E-1
 8.148965737175000E9    -4.274345647696936E-2    5.361817798032510E-1   -2.630076626801740E-3    1.033021538579685E-4   -2.622090347025881E-3    2.000930502909892E-4    1.208843710942973E-1    5.008575080491002E-1
 8.148981644600000E9    -4.169080908220776E-2    5.362144496430529E-1   -2.650975131888036E-3    1.281033753793457E-4   -2.656389013984702E-3    2.138291783757236E-4    1.219789436186498E-1    5.006998344950910E-1
 8.148997552025000E9    -4.062624389369113E-2    5.363660312827579E-1   -2.607648576952791E-3    1.312450829428281E-4   -2.635809250990458E-3    2.015446069963303E-4    1.228688043861196E-1    5.004972329836299E-1
 8.149013459450000E9    -3.948957072786356E-2    5.364466476348393E-1   -2.619787517433866E-3    1.471111239041344E-4   -2.654792810427590E-3    1.919771360007075E-4    1.239828890668471E-1    5.000511669203551E-1
 8.149029366875000E9    -3.844069435743749E-2    5.366151473726392E-1   -2.649270369194461E-3    1.458865538041044E-4   -2.661820061747721E-3    1.900755754921260E-4    1.249500883020448E-1    4.998729773420472E-1
 8.149045274300000E9    -3.735721901411969E-2    5.367595805170031E-1   -2.621587434384324E-3    1.745065888444862E-4   -2.656821377706744E-3    2.084802819864725E-4    1.261455285631643E-1    4.995510608353325E-1
 8.149061181725000E9    -3.623226939650249E-2    5.369197048801015E-1   -2.639842363361154E-3    1.578550958933957E-4   -2.643666417224183E-3    2.135632946359580E-4    1.270152699153035E-1    4.992644817595564E-1
 8.149077089150000E9    -3.509415809180481E-2    5.368556413505924E-1   -2.632695543144575E-3    1.789939482437858E-4   -2.653854405769547E-3    2.255436329806244E-4    1.279247087830125E-1    4.989204237553156E-1
 8.149092996575000E9    -3.401286031561301E-2    5.368470595730600E-1   -2.636753612969544E-3    1.982781831032443E-4   -2.648675044831818E-3    1.973907833797101E-4    1.288879954305909E-1    4.987764158940434E-1
 8.149108904000000E9    -3.278122091618504E-2    5.370244248408438E-1   -2.619594866743682E-3    1.851538096430123E-4   -2.676957162615969E-3    2.579150446097805E-4    1.298976005393071E-1    4.984504521321445E-1
 8.149124811425000E9    -3.172986441821855E-2    5.370608926285817E-1   -2.632692632364262E-3    1.887362063110457E-4   -2.645297262634428E-3    2.680148536370141E-4    1.309609752013897E-1    4.980712622787958E-1
 8.149140718850000E9    -3.069639844987083E-2    5.372350275719311E-1   -2.637275045267164E-3    2.023095291384112E-4   -2.643565763010336E-3    2.673227586043375E-4    1.319260265945429E-1    4.978521497303574E-1
 8.149156626275000E9    -2.966621116803509E-2    5.373102215614118E-1   -2.607015970441953E-3    2.102864893134689E-4   -2.653095606860102E-3    2.235847125989433E-4    1.329688281178652E-1    4.976592294119936E-1
 8.149172533700000E9    -2.840696340864537E-2    5.373689862726351E-1   -2.629455762621653E-3    2.250842479933223E-4   -2.644686177105995E-3    2.546915733469609E-4    1.339720068693465E-1    4.973537347946453E-1
 8.149188441125000E9    -2.743385345724168E-2    5.374758757942953E-1   -2.637993166784537E-3    2.220579440477324E-4   -2.645417813642825E-3    2.788313315715404E-4    1.349523555963387E-1    4.970455551707028E-1
 8.149204348550000E9    -2.624454280473743E-2    5.376570893934624E-1   -2.625930740039605E-3    2.053992330056499E-4   -2.667215510971810E-3    2.884494955749599E-4    1.358821498735997E-1    4.967832309868108E-1
 8.149220255975000E9    -2.513024764715713E-2    5.376986010225270E-1   -2.617036385409334E-3    2.149479397112857E-4   -2.677381123241569E-3    2.790816748921855E-4    1.370273681147829E-1    4.964754330733924E-1
 8.149236163400000E9    -2.398735813769601E-2    5.378428435100172E-1   -2.630101025460713E-3    2.379996562546636E-4   -2.664181669020319E-3    2.769107300512775E-4    1.378735116838164E-1    4.961618419208735E-1
 8.149252070825000E9    -2.309281279636181E-2    5.378047107211343E-1   -2.643041533964279E-3    2.370420188888848E-4   -2.669074659244778E-3    2.873545626735729E-4    1.388026112934870E-1    4.959162593375244E-1
 8.149267978250000E9    -2.192238921822925E-2    5.379029759655586E-1   -2.659414155413321E-3    2.530871894504706E-4   -2.648127256446461E-3    2.796342907344861E-4    1.399512321741224E-1    4.956497917530976E-1
 8.149283885675000E9    -2.071914019025341E-2    5.379704324804633E-1   -2.636960333703759E-3    2.363490483100765E-4   -2.687369724858750E-3    2.835939565649139E-4    1.410763404659594E-1    4.953733067629018E-1
 8.149299793100000E9    -1.949654368592615E-2    5.380284893507413E-1   -2.608965898666494E-3    2.679278113910650E-4   -2.660768568766736E-3    2.853882035418813E-4    1.417950435622220E-1    4.950312716140549E-1
 8.149315700525000E9    -1.850974765006631E-2    5.381127168404537E-1   -2.625663573110067E-3    2.656459235625365E-4   -2.674502551070393E-3    3.116612037194372E-4    1.429255096829767E-1    4.945901853648749E-1
 8.149331607950000E9    -1.750034597238566E-2    5.381283441536830E-1   -2.645895044860486E-3    2.379875866542423E-4   -2.667208037412765E-3    3.148077545339380E-4    1.438678075676678E-1    4.944758556383999E-1
 8.149347515375000E9    -1.629179506338673E-2    5.381798798369312E-1   -2.618447881625398E-3    2.532318653046058E-4   -2.671248154262069E-3    3.524584289191457E-4    1.449945269704164E-1    4.940044588135136E-1
 8.149363422800000E9    -1.525071313649455E-2    5.382616703811947E-1   -2.612087678648926E-3    2.861343071415969E-4   -2.660005069900887E-3    3.224609564783174E-4    1.458892285999830E-1    4.937724566612147E-1
 8.149379330225000E9    -1.411162983265975E-2    5.384057090504368E-1   -2.620231929388013E-3    2.748032926538807E-4   -2.630427323382260E-3    3.656538585651870E-4    1.469494644522238E-1    4.934614934319357E-1
 8.149395237650000E9    -1.300446668250739E-2    5.384197181314451E-1   -2.597635377983737E-3    2.965883799074199E-4   -2.645936702872518E-3    3.542799363079227E-4    1.477665142357612E-1    4.931932408186085E-1
 8.149411145075000E9    -1.189374249488797E-2    5.384003479079625E-1   -2.602352280384799E-3    2.972805075253561E-4   -2.639721318543464E-3    3.523287852207127E-4    1.488256591745705E-1    4.928390714483037E-1
 8.149427052500000E9    -1.075122382298271E-2    5.385176368961724E-1   -2.612700965791837E-3    2.895249449541787E-4   -2.658051725020884E-3    3.636056604408831E-4    1.498981971776828E-1    4.925085721419961E-1
 8.149442959925000E9    -9.570421914901473E-3    5.384753353559369E-1   -2.590034966723209E-3    2.865301637196366E-4   -2.625793890484514E-3    3.503462807339961E-4    1.509073506835221E-1    4.923006297355698E-1
 8.149458867350000E9    -8.456236272235292E-3    5.385754375516786E-1   -2.604998683003669E-3    3.274147240511486E-4   -2.634802057517593E-3    3.748198396775849E-4    1.518112328017584E-1    4.920025789496015E-1
 8.149474774775000E9    -7.360436552206946E-3    5.386477087818143E-1   -2.617537344286689E-3    3.157494563970345E-4   -2.669235653346153E-3    3.461546865281654E-4    1.528507981005107E-1    4.916352428004764E-1
 8.149490682200000E9    -6.332415398469832E-3    5.387402301607512E-1   -2.634920722982563E-3    2.958790928225947E-4   -2.648857262023525E-3    3.941708300721079E-4    1.537747583750414E-1    4.912965921114244E-1
 8.149506589625000E9    -5.289644206751258E-3    5.388092812005656E-1   -2.615508292791248E-3    3.358615312011809E-4   -2.645633577139216E-3    3.924853070303331E-4    1.546129595507465E-1    4.909889776074219E-1
 8.149522497050000E9    -4.155058657782876E-3    5.387657484577945E-1   -2.620316630166013E-3    3.377306141374763E-4   -2.623468183293782E-3    3.875688010232729E-4    1.557671762150594E-1    4.905806093166868E-1
 8.149538404475000E9    -3.031080591437638E-3    5.387961414738908E-1   -2.633367229193796E-3    3.242274469413889E-4   -2.648267702873654E-3    3.991804624918050E-4    1.567109230602471E-1    4.901385565061451E-1
 8.149554311900000E9    -1.883043687924265E-3    5.388734787398174E-1   -2.645021343076736E-3    3.177511320760791E-4   -2.635878080190471E-3    4.130477626252303E-4    1.575977211751652E-1    4.899951786313121E-1
 8.149570219325000E9    -8.225923231193245E-4    5.389281106107108E-1   -2.615346321711608E-3    3.521604110201282E-4   -2.647417673371550E-3    3.928301353178206E-4    1.587682215770793E-1    4.894899993473524E-1
 8.149586126750000E9     3.049799733871517E-4    5.390419903440404E-1   -2.623516685685858E-3    3.430221294308885E-4   -2.678007111120145E-3    4.336005828682776E-4    1.597421318258537E-1    4.892549423567309E-1
 8.149602034175000E9     1.356538495798748E-3    5.389397700860928E-1   -2.627643212779021E-3    3.712670035902285E-4   -2.665510981915817E-3    4.367069343010449E-4    1.606130439979885E-1    4.887979597216313E-1
 8.149617941600000E9     2.469997229764728E-3    5.389693166471878E-1   -2.615918317782734E-3    3.695848982956693E-4   -2.654882628790680E-3    4.179534498938325E-4    1.616316967860923E-1    4.885725150599919E-1
 8.149633849025000E9     3.701014343349655E-3    5.388478074658065E-1   -2.631330241597727E-3    3.771572214989418E-4   -2.672028793634149E-3    4.025501125730072E-4    1.626230127335136E-1    4.882349695434615E-1
 8.149649756450000E9     4.839134994902238E-3    5.389604402279763E-1   -2.618221962150543E-3    3.770849925102689E-4   -2.633317122222562E-3    4.358060181767853E-4    1.635176743005653E-1    4.878516275706443E-1
 8.149665663875000E9     5.832252567124482E-3    5.389777135767470E-1   -2.636808239250483E-3    3.877983146287702E-4   -2.653487202549557E-3    4.461460294908810E-4    1.645826931449884E-1    4.875984804936095E-1
 8.149681571300000E9     7.090753998208841E-3    5.391253989897157E-1   -2.636794579720941E-3    3.719648558333849E-4   -2.644303518640832E-3    4.543985510276478E-4    1.655947892365783E-1    4.873117562819673E-1
 8.149697478725000E9     8.112155817796580E-3    5.390877500388240E-1   -2.626690617087783E-3    4.132367046767426E-4   -2.651457055114209E-3    4.551433794049275E-4    1.664329119579897E-1    4.868379047989406E-1
 8.149713386150000E9     9.162435400411569E-3    5.389365785222713E-1   -2.622189395358198E-3    3.999827060099618E-4   -2.624969221314933E-3    4.489258229322667E-4    1.673697047229367E-1    4.865304757982437E-1
 8.149729293575000E9     1.040006769566133E-2    5.390824199903395E-1   -2.603708076311553E-3    3.995474441194025E-4   -2.647132817506783E-3    4.500808483035200E-4    1.683581496951606E-1    4.861993523164130E-1
 8.149745201000000E9     1.132873664880226E-2    5.391298521943537E-1   -2.596970983410249E-3    3.787856397584656E-4   -2.646116904706327E-3    4.314700427381435E-4    1.693772678764643E-1    4.857961066953087E-1
 8.149761108425000E9     1.254334358288388E-2    5.390904163807323E-1   -2.597941677474864E-3    4.182841552190880E-4   -2.629553666862451E-3    4.387908151114646E-4    1.704042863986237E-1    4.854518000928484E-1
 8.149777015850000E9     1.360154780114281E-2    5.390193996224740E-1   -2.606457294905118E-3    4.190473578354465E-4   -2.599037427176570E-3    4.656553810604210E-4    1.714277041718940E-1    4.851308199434534E-1
 8.149792923275000E9     1.475450647566386E-2    5.388984766352231E-1   -2.623532899349703E-3    4.347257072470259E-4   -2.655574901269038E-3    4.815079784840766E-4    1.722443406630527E-1    4.847602004789481E-1
 8.149808830700000E9     1.582406785924185E-2    5.389861792087732E-1   -2.623881229643841E-3    4.358728887397167E-4   -2.664824351976306E-3    4.628151198865125E-4    1.733064712675949E-1    4.843465204169895E-1
 8.149824738125000E9     1.694887483248607E-2    5.390118371697009E-1   -2.631571417135387E-3    4.359015715632086E-4   -2.629066586648572E-3    4.713056096256401E-4    1.742642012049734E-1    4.838852636267971E-1
 8.149840645550000E9     1.813146088676994E-2    5.389976697876679E-1   -2.629447856643992E-3    4.734864962424398E-4   -2.644048796867911E-3    4.973896268127667E-4    1.752595338703059E-1    4.834911247664423E-1
 8.149856552975000E9     1.941115989207864E-2    5.390757985785833E-1   -2.614664071271846E-3    4.683601551522620E-4   -2.646460205342733E-3    4.844425193887063E-4    1.762531264754057E-1    4.831935718654385E-1
 8.149872460400000E9     2.025008428621140E-2    5.389496039984263E-1   -2.607041191292494E-3    4.387331053271023E-4   -2.623206018756651E-3    5.030775992655934E-4    1.773242318401290E-1    4.828310785053040E-1
 8.149888367825000E9     2.146529249370289E-2    5.389881332827514E-1   -2.629365480123192E-3    4.992942901614876E-4   -2.625637625145872E-3    4.940604226254308E-4    1.781590313845486E-1    4.824174769455510E-1
 8.149904275250000E9     2.255981762571936E-2    5.389760014605329E-1   -2.602664053928173E-3    4.853291343149182E-4   -2.614887294705365E-3    5.133078139742975E-4    1.790581105185312E-1    4.820576626780417E-1
