#  HZ   S   RI   R     50.00 
! Rohde & Schwarz Vector Network Analyzer 
! Rohde-Schwarz,ZNB20-2Port,1311601062101988,3.16
! Created: UTC 3/21/2024, 1:03:03 AM
! freq[Hz]                re:S11                  im:S11                  re:S21                  im:S21                  re:S12                  im:S12                  re:S22                  im:S22
 8.148417071000000E9    -8.088384183298503E-2    5.306807760973963E-1   -2.634703152593702E-3   -4.029037731615749E-5   -2.679135817048340E-3   -1.900864424144167E-5    8.593976586982377E-2    5.085827456186954E-1
 8.148433236325000E9    -7.977749142372483E-2    5.309290164181020E-1   -2.607344642073883E-3   -6.602377897286146E-5   -2.664503557364534E-3   -5.301199549152727E-6    8.687942130831695E-2    5.083738267237747E-1
 8.148449401650000E9    -7.850464853917673E-2    5.311457125986839E-1   -2.624015627834948E-3   -4.829497770885056E-5   -2.654562909479411E-3   -2.135534176741891E-5    8.794899838020842E-2    5.082150842090932E-1
 8.148465566975000E9    -7.749466740416623E-2    5.314192341836382E-1   -2.628641217898021E-3   -5.924398263325546E-5   -2.659614233576304E-3   -3.588417860400454E-6    8.894080011284158E-2    5.080505217021869E-1
 8.148481732300000E9    -7.641105213826749E-2    5.314212738044809E-1   -2.602385230404827E-3   -3.815439586125505E-5   -2.634345144646511E-3    1.827376663082130E-5    9.002753395401622E-2    5.078314465602578E-1
 8.148497897625000E9    -7.513544935166626E-2    5.318295129662223E-1   -2.642954478090395E-3   -2.484653518951412E-5   -2.698511306768367E-3    3.583835568107747E-5    9.113499875776883E-2    5.076732049416594E-1
 8.148514062950000E9    -7.413054180163364E-2    5.319425413795340E-1   -2.624955457245683E-3   -9.222986199831657E-6   -2.647421760069058E-3    1.001247764577344E-5    9.205202738651989E-2    5.072483535523844E-1
 8.148530228275000E9    -7.304492380860676E-2    5.321152449560034E-1   -2.637435584095656E-3   -3.300631261225930E-5   -2.672214818054413E-3    2.443835908251085E-5    9.306973510822841E-2    5.072452260553965E-1
 8.148546393600000E9    -7.188512274968883E-2    5.322903697765220E-1   -2.632036419566205E-3   -1.152320374605705E-5   -2.658213116358029E-3    7.515298019102213E-5    9.415581748523917E-2    5.070030755805321E-1
 8.148562558925000E9    -7.077229317851969E-2    5.324402771069597E-1   -2.623179825261718E-3   -1.501654238344739E-5   -2.675317895240007E-3    2.780707049101731E-5    9.514460907671628E-2    5.068876190882394E-1
 8.148578724250000E9    -6.968195696840107E-2    5.327346612535543E-1   -2.640562160018730E-3    1.881470076504639E-6   -2.650086307960379E-3    3.817040619824622E-5    9.626875587660734E-2    5.065651649627478E-1
 8.148594889575000E9    -6.861950275967948E-2    5.328098969098095E-1   -2.631366499886732E-3   -2.966587434570191E-5   -2.658321688555111E-3    7.809997503665012E-5    9.728524177717179E-2    5.064427443822852E-1
 8.148611054900000E9    -6.735690974983598E-2    5.330547408768713E-1   -2.629152602238258E-3    1.204733934716713E-5   -2.683508049114785E-3    8.172675959685235E-5    9.829590012710222E-2    5.060314209373217E-1
 8.148627220225000E9    -6.626134392344619E-2    5.331015311191790E-1   -2.619824646798785E-3    9.921989488602849E-6   -2.696576276700644E-3    5.884399067282669E-5    9.934225389237160E-2    5.059580088723451E-1
 8.148643385550000E9    -6.513773576360637E-2    5.333425967939111E-1   -2.626404749726930E-3    1.246153173823722E-5   -2.647064626666807E-3    7.251070067039357E-5    1.004974961373324E-1    5.055998347620179E-1
 8.148659550875000E9    -6.405358081260581E-2    5.334856981836997E-1   -2.622172497695841E-3    3.222596170814937E-5   -2.641855567475565E-3    4.851195446086546E-5    1.014964768461820E-1    5.053723951596483E-1
 8.148675716200000E9    -6.294392733681246E-2    5.336079186851780E-1   -2.622637216732582E-3    2.118979825816201E-5   -2.631337009914283E-3    8.609567400918341E-5    1.023832425539605E-1    5.052824015565264E-1
 8.148691881525000E9    -6.189715018377857E-2    5.337636627187905E-1   -2.643994778868279E-3    2.985170382205273E-5   -2.654463555847781E-3    8.785773946846915E-5    1.034088919284417E-1    5.048572227108624E-1
 8.148708046850000E9    -6.066694499505896E-2    5.338383441032134E-1   -2.630153552971286E-3    4.635024219427917E-5   -2.654626872902414E-3    9.198933438504616E-5    1.045038789569024E-1    5.047932721034813E-1
 8.148724212175000E9    -5.956770456685810E-2    5.340459384671497E-1   -2.617684484873639E-3    5.086667678345312E-5   -2.635422277308893E-3    9.410983013341664E-5    1.056094444370498E-1    5.045447220300903E-1
 8.148740377500000E9    -5.849769814901400E-2    5.342795500636724E-1   -2.637389365602419E-3    6.578050028505699E-5   -2.672788467482933E-3    9.249655609167457E-5    1.066479388418587E-1    5.043198377542802E-1
 8.148756542825000E9    -5.737397287990757E-2    5.342445410425378E-1   -2.626092234550001E-3    5.817595694855643E-5   -2.664338449148140E-3    1.122219873661799E-4    1.076648577910922E-1    5.041264760183900E-1
 8.148772708150000E9    -5.622119060938225E-2    5.345498875949019E-1   -2.625913810056855E-3    8.662583013268295E-5   -2.671516607744264E-3    1.174818732104771E-4    1.087811339215624E-1    5.038063412129997E-1
 8.148788873475000E9    -5.504815243125032E-2    5.345933268265419E-1   -2.627258203331523E-3    7.842568435301078E-5   -2.662892997465407E-3    1.240191973640348E-4    1.095127587520560E-1    5.035618461268176E-1
 8.148805038800000E9    -5.398968277693612E-2    5.347487210456068E-1   -2.647831647330416E-3    5.343875866062010E-5   -2.626917288679482E-3    1.185511646558803E-4    1.106688788495886E-1    5.033865318023114E-1
 8.148821204125000E9    -5.280297144465662E-2    5.349144373401540E-1   -2.617727600271816E-3    8.667134934361453E-5   -2.658389729205552E-3    1.351833012504456E-4    1.117172892471403E-1    5.032103218189464E-1
 8.148837369450000E9    -5.176076894874990E-2    5.350727449553518E-1   -2.619626110169328E-3    6.385864917052729E-5   -2.638873299413836E-3    1.441363169909205E-4    1.128350292427756E-1    5.028849171579836E-1
 8.148853534775000E9    -5.066288841922983E-2    5.353013445169551E-1   -2.663716560622015E-3    1.019874207220550E-4   -2.688125483309758E-3    1.639910543765560E-4    1.137529296336400E-1    5.026734810610950E-1
 8.148869700100000E9    -4.943977328551565E-2    5.352858374262487E-1   -2.632222471364889E-3    1.278106862888616E-4   -2.668872858071027E-3    1.471644209132772E-4    1.148353997340834E-1    5.023297536927264E-1
 8.148885865425000E9    -4.837672528308340E-2    5.356141714313359E-1   -2.642528563996374E-3    1.195213578068655E-4   -2.666778601631927E-3    1.602019179530602E-4    1.158428181330925E-1    5.021484749472565E-1
 8.148902030750000E9    -4.732306497091592E-2    5.356695958212785E-1   -2.641780573120754E-3    9.076575492879410E-5   -2.654656979149139E-3    1.588084962658373E-4    1.169952632007814E-1    5.018214583599097E-1
 8.148918196075000E9    -4.622217840720463E-2    5.357728276030833E-1   -2.628978179587134E-3    1.193057557307995E-4   -2.660561990499797E-3    1.571215988524466E-4    1.179949275346391E-1    5.017039019976391E-1
 8.148934361400000E9    -4.507026168432659E-2    5.359211593978503E-1   -2.640578225693287E-3    1.188070333312278E-4   -2.669866917072160E-3    1.424709182011321E-4    1.188812033632938E-1    5.012702073798933E-1
 8.148950526725000E9    -4.389590740798552E-2    5.359915260634666E-1   -2.623731827204419E-3    1.290070583666968E-4   -2.671029435165797E-3    1.707831422250988E-4    1.199706858927120E-1    5.011654798238289E-1
 8.148966692050000E9    -4.269637439924243E-2    5.361654672825661E-1   -2.608553822911915E-3    1.221302942760603E-4   -2.646530451581347E-3    1.944932826959047E-4    1.209228251654418E-1    5.007889332711130E-1
 8.148982857375000E9    -4.172057438608889E-2    5.362210484024644E-1   -2.629431635470687E-3    1.411448130567060E-4   -2.667176086053562E-3    1.765771902411268E-4    1.219392982891595E-1    5.005287018297169E-1
 8.148999022700000E9    -4.048128175543780E-2    5.364661715063999E-1   -2.636723911496855E-3    1.408797178326805E-4   -2.652940988640820E-3    2.039547739738016E-4    1.230146475968948E-1    5.003923748013569E-1
 8.149015188025000E9    -3.943687643920948E-2    5.364238291314470E-1   -2.624346075437314E-3    1.633489180844082E-4   -2.673911844673507E-3    1.679851330023821E-4    1.240381597317891E-1    5.002372079304148E-1
 8.149031353350000E9    -3.826029752851125E-2    5.366482242594320E-1   -2.626726080184737E-3    1.551050623702556E-4   -2.684607396351119E-3    2.268614236414099E-4    1.249781262646628E-1    4.996801131469908E-1
 8.149047518675000E9    -3.718468311465230E-2    5.367018190722109E-1   -2.594587925558011E-3    1.957454325927731E-4   -2.635317536735688E-3    2.115440692165135E-4    1.260548397099559E-1    4.995078278844658E-1
 8.149063684000000E9    -3.605326678363888E-2    5.368485795065228E-1   -2.615398482216707E-3    1.663016554450394E-4   -2.654045204900822E-3    2.185577723897589E-4    1.270498635481540E-1    4.992015642577496E-1
 8.149079849325000E9    -3.492430130226204E-2    5.368514715127657E-1   -2.627414475350328E-3    1.803077701122353E-4   -2.673516048180627E-3    2.170115991973067E-4    1.281190895351715E-1    4.991024610953346E-1
 8.149096014650000E9    -3.374767692595879E-2    5.369893974662808E-1   -2.627475753644442E-3    1.998817355714507E-4   -2.643543217187296E-3    2.611013120968758E-4    1.291257815643537E-1    4.987842397150672E-1
 8.149112179975000E9    -3.263403460136224E-2    5.371231911690371E-1   -2.629900486957164E-3    1.532174806670655E-4   -2.672140891804149E-3    2.325827604326253E-4    1.300092405391414E-1    4.983899813856963E-1
 8.149128345300000E9    -3.158982829788534E-2    5.372014589083621E-1   -2.612823516687530E-3    1.962629675784481E-4   -2.652757427227070E-3    2.268146011126557E-4    1.311254033542267E-1    4.981859423187032E-1
 8.149144510625000E9    -3.035899791293899E-2    5.371995079840638E-1   -2.634337288593441E-3    1.742729457719624E-4   -2.619066039290901E-3    2.392768784024302E-4    1.320929153552176E-1    4.979677481615543E-1
 8.149160675950000E9    -2.931377714589593E-2    5.373476047918104E-1   -2.609648411812990E-3    1.539703880956559E-4   -2.656091802779338E-3    2.638375356734678E-4    1.331962967874800E-1    4.975217683098367E-1
 8.149176841275000E9    -2.809534197120984E-2    5.374294707520577E-1   -2.638849831676606E-3    1.895292762624743E-4   -2.657223436951126E-3    2.589588949367300E-4    1.341954986196551E-1    4.971652251963878E-1
 8.149193006600000E9    -2.696626495701215E-2    5.376555975344997E-1   -2.619690149513590E-3    2.232719872151067E-4   -2.643734135031476E-3    2.392068422646228E-4    1.353586456430236E-1    4.970056154452815E-1
 8.149209171925000E9    -2.586168492141331E-2    5.376211687306762E-1   -2.620075874620835E-3    2.159586493807479E-4   -2.665295251467933E-3    2.748195557917612E-4    1.360998106586311E-1    4.966342912415848E-1
 8.149225337250000E9    -2.475519918945526E-2    5.377393044393809E-1   -2.612778513628428E-3    2.384240071920141E-4   -2.665228099447800E-3    2.752407332547126E-4    1.372395853950791E-1    4.963756732547860E-1
 8.149241502575000E9    -2.357530053928062E-2    5.377798134886811E-1   -2.628200070808083E-3    2.516046112772484E-4   -2.677289164836408E-3    2.719740643636206E-4    1.383316370027746E-1    4.960656665540974E-1
 8.149257667900000E9    -2.261370668786687E-2    5.378137761534930E-1   -2.633114796314573E-3    1.821502861284963E-4   -2.649717144158739E-3    2.728623891479106E-4    1.392161190123692E-1    4.957190319195142E-1
 8.149273833225000E9    -2.139347010895219E-2    5.379974802374377E-1   -2.614080590541930E-3    2.701395517264000E-4   -2.638594467562040E-3    3.248410090728092E-4    1.401391395318471E-1    4.955508678855954E-1
 8.149289998550000E9    -2.031063115381728E-2    5.380005355675069E-1   -2.619182130387725E-3    2.708702044511416E-4   -2.643111313910897E-3    2.848453132999259E-4    1.413289174025170E-1    4.951474294649264E-1
 8.149306163875000E9    -1.918312141218452E-2    5.380372161591344E-1   -2.628902296542335E-3    2.541938779206308E-4   -2.647377606900288E-3    2.775841801580626E-4    1.421660844722956E-1    4.948471107418201E-1
 8.149322329200000E9    -1.813833881014149E-2    5.381387300633984E-1   -2.616857993173524E-3    2.572326347439915E-4   -2.666716640949562E-3    3.035471209382385E-4    1.433491923401956E-1    4.945795426275767E-1
 8.149338494525000E9    -1.699350455237291E-2    5.381801443704125E-1   -2.624036822431053E-3    2.451317807956945E-4   -2.632340007629652E-3    3.240397569227581E-4    1.443476374369306E-1    4.943110665981436E-1
 8.149354659850000E9    -1.584754768627326E-2    5.383543779449412E-1   -2.646866139306715E-3    2.880863499153132E-4   -2.634425606372208E-3    3.392269428329102E-4    1.452519697704268E-1    4.939527844527350E-1
 8.149370825175000E9    -1.463630845758529E-2    5.383483911672905E-1   -2.640777945116046E-3    2.862239054210912E-4   -2.665515297143729E-3    3.451433919834416E-4    1.462013688395093E-1    4.936139782974910E-1
 8.149386990500000E9    -1.350307067383757E-2    5.384812351439231E-1   -2.657862242940688E-3    2.702336530868858E-4   -2.649221639929445E-3    3.537610132184286E-4    1.471779334379273E-1    4.933586437909703E-1
 8.149403155825000E9    -1.246965406642899E-2    5.384290623406733E-1   -2.614730886780054E-3    2.833104111156234E-4   -2.658290931872016E-3    3.260743268115534E-4    1.481857678065964E-1    4.930005741537695E-1
 8.149419321150000E9    -1.129228928632987E-2    5.384495184436030E-1   -2.587150706609025E-3    3.012251363465549E-4   -2.666889723219206E-3    3.765516095815057E-4    1.492414262989404E-1    4.925532892057423E-1
 8.149435486475000E9    -1.008623769496397E-2    5.385141724865831E-1   -2.634487296192072E-3    2.937427910277361E-4   -2.652052971301055E-3    3.384040173383992E-4    1.504552609178833E-1    4.923852466028417E-1
 8.149451651800000E9    -9.088842076454978E-3    5.385475749343737E-1   -2.627018485504044E-3    3.082276606243649E-4   -2.662500602621510E-3    3.214768784164701E-4    1.511854383555687E-1    4.920819179611677E-1
 8.149467817125000E9    -7.918486545157205E-3    5.386056988105283E-1   -2.630865671569207E-3    3.186262981196702E-4   -2.669189278560203E-3    3.703750386654425E-4    1.523428154115036E-1    4.917794335988156E-1
 8.149483982450000E9    -6.652945804219533E-3    5.386174893408263E-1   -2.628228644851274E-3    3.099948160001580E-4   -2.657370530494665E-3    3.827424678599973E-4    1.533023243554963E-1    4.913636458411285E-1
 8.149500147775000E9    -5.581876175423247E-3    5.387061011713858E-1   -2.626035816264322E-3    3.395668108354923E-4   -2.646851531890805E-3    3.951036152746029E-4    1.543122511516055E-1    4.910036140200789E-1
 8.149516313100000E9    -4.595008979213158E-3    5.387275836387710E-1   -2.625233897396268E-3    3.304840438089202E-4   -2.679230931590619E-3    3.761558097181752E-4    1.552371583755201E-1    4.908902645148427E-1
 8.149532478425000E9    -3.508686839933032E-3    5.386864741035310E-1   -2.596008939241268E-3    3.495755936163872E-4   -2.660541259546295E-3    3.577025873148936E-4    1.562340211804215E-1    4.903101017083406E-1
 8.149548643750000E9    -2.204065789508872E-3    5.387520000542114E-1   -2.624223102905328E-3    3.431623649337753E-4   -2.662923071156513E-3    3.787036843393697E-4    1.572495210614615E-1    4.900529770956774E-1
 8.149564809075000E9    -1.108653256943170E-3    5.389262994891736E-1   -2.615945065083204E-3    3.540847925262199E-4   -2.655608890290821E-3    4.008545775697300E-4    1.583374329782532E-1    4.895788240289807E-1
 8.149580974400000E9    -4.228516604702125E-5    5.389655853915938E-1   -2.608326674761264E-3    3.545461886168375E-4   -2.662200867935202E-3    3.816637307342704E-4    1.594156768005113E-1    4.894591001141036E-1
 8.149597139725000E9     1.177837936948012E-3    5.388985154960977E-1   -2.615934999936263E-3    3.618379902312877E-4   -2.639240959248939E-3    4.187684050775097E-4    1.603671244096361E-1    4.890060935087582E-1
 8.149613305050000E9     2.146316378582116E-3    5.388610999520670E-1   -2.619206320880148E-3    3.584307180368812E-4   -2.656274314502363E-3    4.114977471812722E-4    1.612398122523197E-1    4.887394039232978E-1
 8.149629470375000E9     3.292483853132586E-3    5.389830697503371E-1   -2.614663067549214E-3    3.648273904459367E-4   -2.625775571581422E-3    4.313610718361152E-4    1.622189343969699E-1    4.882756123030121E-1
 8.149645635700000E9     4.487414106607481E-3    5.390259282910110E-1   -2.651110810847276E-3    3.649534296628665E-4   -2.624690014187938E-3    4.458635557143810E-4    1.632320551410414E-1    4.878610006664458E-1
 8.149661801025000E9     5.618310618649315E-3    5.389639455054217E-1   -2.639454113366147E-3    3.679702969338248E-4   -2.637293766854495E-3    4.333358569125145E-4    1.643187033698071E-1    4.877392429459627E-1
 8.149677966350000E9     6.641511029695106E-3    5.391238232432982E-1   -2.636088719558614E-3    4.046362593431746E-4   -2.600312734541780E-3    4.326391179919989E-4    1.653009262454610E-1    4.872648882454671E-1
 8.149694131675000E9     7.758249609891996E-3    5.390877823877716E-1   -2.628727217510519E-3    3.848836469136337E-4   -2.647481952925114E-3    4.487332704789356E-4    1.662286951394995E-1    4.869730694713781E-1
 8.149710297000000E9     9.093840898714315E-3    5.389805144763049E-1   -2.632548757300091E-3    4.153038832695791E-4   -2.625306234802088E-3    4.349879725973411E-4    1.672257990517612E-1    4.866380953248702E-1
 8.149726462325000E9     1.014402030384940E-2    5.390565253319278E-1   -2.620702098971613E-3    3.927879587978920E-4   -2.628656576919233E-3    4.870943250371799E-4    1.681427386801522E-1    4.860664722218859E-1
 8.149742627650000E9     1.122334367761474E-2    5.391007774309263E-1   -2.615859835894785E-3    3.933402587531072E-4   -2.650919792142373E-3    4.905905218195634E-4    1.691424862809849E-1    4.857541224678790E-1
 8.149758792975000E9     1.238661013346865E-2    5.390065943915804E-1   -2.623335333737267E-3    4.051373760550271E-4   -2.607819251176391E-3    4.804931371443527E-4    1.701306757338101E-1    4.854961199136149E-1
 8.149774958300000E9     1.344842701853013E-2    5.390511914872184E-1   -2.632958347003264E-3    4.311105448340029E-4   -2.637133549624466E-3    4.838552605068125E-4    1.710975438028848E-1    4.851837598274500E-1
 8.149791123625000E9     1.469326030678633E-2    5.389983126611584E-1   -2.603418322213886E-3    4.453267221998713E-4   -2.641081713733157E-3    4.769650159153479E-4    1.721851390115126E-1    4.847147687417303E-1
 8.149807288950000E9     1.572214958733285E-2    5.390406787762632E-1   -2.600496441078336E-3    4.336125179027212E-4   -2.650005364025277E-3    4.789693408516596E-4    1.733183415803813E-1    4.843926685693890E-1
 8.149823454275000E9     1.688261013044255E-2    5.389989196831881E-1   -2.631181756865979E-3    4.487630539897092E-4   -2.627545358067448E-3    4.926871004566941E-4    1.741640931535475E-1    4.838601659391054E-1
 8.149839619600000E9     1.799166636845383E-2    5.391181862673841E-1   -2.613629934700906E-3    4.598261932805539E-4   -2.606723905920501E-3    4.965137374833893E-4    1.750973836552862E-1    4.835989831126926E-1
 8.149855784925000E9     1.914968632129983E-2    5.389594012921189E-1   -2.629730868690916E-3    4.714779835988465E-4   -2.669497927532013E-3    4.922557562814876E-4    1.760945495746780E-1    4.832202062568896E-1
 8.149871950250000E9     2.031684462395629E-2    5.390823083344420E-1   -2.617546226291760E-3    4.569650411991949E-4   -2.638951458099931E-3    4.873176557244383E-4    1.769586976838372E-1    4.828232145231508E-1
