#  HZ   S   RI   R     50.00 
! Rohde & Schwarz Vector Network Analyzer 
! Rohde-Schwarz,ZNB20-2Port,1311601062101988,3.16
! Created: UTC 3/21/2024, 1:03:05 AM
! freq[Hz]                re:S11                  im:S11                  re:S21                  im:S21                  re:S12                  im:S12                  re:S22                  im:S22
 8.148149385000000E9    -9.913103295726791E-2    5.272374672495714E-1   -2.604946393542252E-3   -1.830295466801393E-4   -2.666142756730855E-3   -7.365984390367576E-5    6.835299965700628E-2    5.114218654970505E-1
 8.148166771375000E9    -9.796196499197352E-2    5.272554542626916E-1   -2.617109059568120E-3   -1.471063961015849E-4   -2.656168266560541E-3   -1.102552002920121E-4    6.952512939022212E-2    5.112298229267224E-1
 8.148184157750000E9    -9.689260914494133E-2    5.275684621183546E-1   -2.626640243431192E-3   -1.567792839871621E-4   -2.671573752929325E-3   -1.047447391755115E-4    7.078588849705411E-2    5.110268800595019E-1
 8.148201544125000E9    -9.557605909237409E-2    5.279147802265873E-1   -2.605983866396497E-3   -1.333161495389996E-4   -2.652907620245173E-3   -7.555799257310678E-5    7.186780901658281E-2    5.109287982643178E-1
 8.148218930500000E9    -9.438526770208470E-2    5.282579664007244E-1   -2.631656918860136E-3   -1.157225905270470E-4   -2.686585199243387E-3   -5.769094277173065E-5    7.285648518666224E-2    5.106789314731621E-1
 8.148236316875000E9    -9.326105724558238E-2    5.284110223319074E-1   -2.637601434750637E-3   -1.506670952616865E-4   -2.682440043232266E-3   -8.177970646707119E-5    7.405775111592718E-2    5.103864890865516E-1
 8.148253703250000E9    -9.195828560870765E-2    5.286444413312831E-1   -2.621071651460825E-3   -1.273020118048574E-4   -2.669888875005964E-3   -8.007315605680808E-5    7.523109230688839E-2    5.102922772006707E-1
 8.148271089625000E9    -9.090925356523701E-2    5.288944110896102E-1   -2.646163618483434E-3   -1.119690149605355E-4   -2.638189263426927E-3   -5.532865443568783E-5    7.639620334594885E-2    5.100929751706371E-1
 8.148288476000000E9    -8.952160135786119E-2    5.290743253555369E-1   -2.610687358999217E-3   -1.232490081832047E-4   -2.679913751709525E-3   -3.542842754959450E-5    7.754741388798060E-2    5.099768803013001E-1
 8.148305862375000E9    -8.832409948301211E-2    5.293252900388942E-1   -2.646519363821436E-3   -1.159751043823611E-4   -2.659914593919185E-3   -6.932718259800544E-5    7.862312693058032E-2    5.097774530774236E-1
 8.148323248750000E9    -8.730552614140014E-2    5.294820905057157E-1   -2.633489225240068E-3   -8.611581684342408E-5   -2.634965709595501E-3   -3.198524148346051E-5    7.976319413640925E-2    5.095425262461614E-1
 8.148340635125000E9    -8.604687871372120E-2    5.297855853211119E-1   -2.633957347481942E-3   -7.863260736767374E-5   -2.659537644347926E-3   -6.501847694331921E-5    8.080224011444080E-2    5.094307999334344E-1
 8.148358021500000E9    -8.484959029882314E-2    5.299688522901812E-1   -2.624659267216504E-3   -6.941021811765496E-5   -2.650107673816139E-3   -4.764532941332809E-5    8.210864924828459E-2    5.092809819142808E-1
 8.148375407875000E9    -8.362856613294925E-2    5.303317998218193E-1   -2.624141643787498E-3   -8.329889505289886E-5   -2.668883024543250E-3   -5.533724212794276E-5    8.305961785952526E-2    5.090295227211213E-1
 8.148392794250000E9    -8.242106956306672E-2    5.305078876395792E-1   -2.641879892211018E-3   -8.076753309868197E-5   -2.663821636128073E-3   -1.082390644550840E-5    8.432855110537987E-2    5.087853555302496E-1
 8.148410180625000E9    -8.114528966917563E-2    5.306036730045890E-1   -2.650564896695028E-3   -6.377777931919979E-5   -2.665209155316357E-3   -1.503425521219295E-5    8.530527842046276E-2    5.086359868829019E-1
 8.148427567000000E9    -7.993994953851991E-2    5.308344170499018E-1   -2.613874837510546E-3   -4.139986196081618E-5   -2.653439971556433E-3   -3.610336255381405E-6    8.657347187641636E-2    5.083860130059790E-1
 8.148444953375000E9    -7.882281712921334E-2    5.311196467171820E-1   -2.639911303687986E-3   -5.907878371005537E-5   -2.677696997110921E-3   -1.673950942831589E-5    8.759489842692536E-2    5.082391035620997E-1
 8.148462339750000E9    -7.766338096187038E-2    5.312994348800631E-1   -2.640091125581566E-3   -4.159290471346851E-5   -2.674327977489706E-3   -2.134542410685759E-5    8.875261499678012E-2    5.080647223684820E-1
 8.148479726125000E9    -7.647913801771661E-2    5.315080956063736E-1   -2.629999185810389E-3   -5.219435135150778E-5   -2.674283588587983E-3    2.146171369245169E-5    8.981509871650305E-2    5.077978781644071E-1
 8.148497112500000E9    -7.526548556469016E-2    5.317119636935587E-1   -2.607959510358351E-3   -9.020736932160438E-6   -2.650165001435556E-3   -3.982334464564203E-6    9.099156438781229E-2    5.074398393753154E-1
 8.148514498875000E9    -7.415659957743731E-2    5.319023884707629E-1   -2.636605388304642E-3   -2.979291602544417E-5   -2.655352755703675E-3    1.779189242058047E-5    9.208797864063745E-2    5.073453316248036E-1
 8.148531885250000E9    -7.284092192387397E-2    5.321148020682501E-1   -2.651001532409626E-3   -1.087334718470273E-5   -2.648334286821287E-3    2.480453532771252E-5    9.326706359907969E-2    5.071784175840807E-1
 8.148549271625000E9    -7.177358801738519E-2    5.322910480289146E-1   -2.626016278208491E-3   -2.572306604702685E-5   -2.672893479873397E-3   -1.303950327401589E-6    9.449813145622128E-2    5.068300225361853E-1
 8.148566658000000E9    -7.048935865269870E-2    5.325534992343592E-1   -2.612365468229344E-3   -2.653988784227852E-6   -2.684241881729713E-3    3.965402123201515E-5    9.531639904357417E-2    5.066992580473271E-1
 8.148584044375000E9    -6.934371946370220E-2    5.327027811427948E-1   -2.629149302071525E-3    1.065138575341070E-5   -2.693221641472224E-3    6.344704651552393E-5    9.653889968786393E-2    5.063327123783409E-1
 8.148601430750000E9    -6.809486569883338E-2    5.327553860669597E-1   -2.659133197964525E-3    1.327986921323049E-5   -2.665229462898736E-3    5.148008569891050E-5    9.772035971012469E-2    5.062182573915589E-1
 8.148618817125000E9    -6.676807318258778E-2    5.330653832216758E-1   -2.626282709320448E-3    3.161278314889918E-5   -2.669298233014699E-3    6.671026191993363E-5    9.883013276953928E-2    5.059458757130469E-1
 8.148636203500000E9    -6.573555743731481E-2    5.332046381181832E-1   -2.631537280119484E-3    9.386326930227890E-7   -2.652176670705780E-3    5.343853079856564E-5    9.989996220313294E-2    5.057790164015575E-1
 8.148653589875000E9    -6.452275741691356E-2    5.333757016793365E-1   -2.625942832097139E-3    1.918020129749857E-5   -2.647807778710087E-3    7.988794887684647E-5    1.010566600564124E-1    5.056478170779487E-1
 8.148670976250000E9    -6.336211212907243E-2    5.335176821933777E-1   -2.614235782422731E-3    2.031397777693438E-5   -2.657378589708115E-3    7.088048860218819E-5    1.019949373998530E-1    5.051398225436546E-1
 8.148688362625000E9    -6.208827249167106E-2    5.335972295046469E-1   -2.612096530010888E-3    4.921464311781397E-5   -2.657170616255371E-3    1.001737110738446E-4    1.031444680908746E-1    5.049828484108903E-1
 8.148705749000000E9    -6.092414781309136E-2    5.339139488629183E-1   -2.617180718149194E-3    5.861816370787545E-5   -2.658197833410835E-3    9.208355972131283E-5    1.044016119688252E-1    5.047007961999080E-1
 8.148723135375000E9    -5.966482592887724E-2    5.340323192217752E-1   -2.622784851980204E-3    4.503361119337258E-5   -2.675893190538447E-3    8.198471659890640E-5    1.054278643758890E-1    5.043649584065735E-1
 8.148740521750000E9    -5.840218337130244E-2    5.341539629979095E-1   -2.636058978829907E-3    5.240103006892711E-5   -2.637126216425557E-3    8.970340975682450E-5    1.065235886506873E-1    5.041730752643521E-1
 8.148757908125000E9    -5.717542082881062E-2    5.344271625223286E-1   -2.623016525049902E-3    2.814098242180750E-5   -2.670311260776861E-3    1.154613981343210E-4    1.076481953658420E-1    5.040265555257226E-1
 8.148775294500000E9    -5.593170804023524E-2    5.346026548687581E-1   -2.611692511446574E-3    6.223456370770730E-5   -2.696822305865250E-3    9.980439507776973E-5    1.087485181742018E-1    5.038909622932357E-1
 8.148792680875000E9    -5.487153108709326E-2    5.345692838663146E-1   -2.639044674498992E-3    5.524409237459005E-5   -2.699838247829532E-3    1.009816268319344E-4    1.099274327922140E-1    5.036128505257659E-1
 8.148810067250000E9    -5.360374059785595E-2    5.349065856335946E-1   -2.635363905157896E-3    7.660558602073082E-5   -2.657138521820034E-3    9.919171335035994E-5    1.109556289309280E-1    5.033743392736488E-1
 8.148827453625000E9    -5.241815473000535E-2    5.350788790134217E-1   -2.654674885651107E-3    6.621955908380480E-5   -2.682642167971163E-3    1.527132479241012E-4    1.121295722510758E-1    5.030634797849290E-1
 8.148844840000000E9    -5.136127571474484E-2    5.351974085145070E-1   -2.634400567031773E-3    8.474989110168265E-5   -2.648960876015702E-3    1.430866464557197E-4    1.132283306741682E-1    5.025921998025538E-1
 8.148862226375000E9    -4.995544769092183E-2    5.353375231583332E-1   -2.637113784409177E-3    8.627526827592233E-5   -2.628686471933400E-3    1.216783805111333E-4    1.142515482612927E-1    5.024748127119200E-1
 8.148879612750000E9    -4.892059064823102E-2    5.353424192775157E-1   -2.610957158764314E-3    9.712570236909119E-5   -2.649506086799472E-3    1.639156096011347E-4    1.154041825276516E-1    5.021592768506523E-1
 8.148896999125000E9    -4.765877968703693E-2    5.355452587538002E-1   -2.624688699657719E-3    9.575205730862135E-5   -2.672764885613384E-3    1.674344366201991E-4    1.164135333333734E-1    5.018372816329080E-1
 8.148914385500000E9    -4.647770647272531E-2    5.357185778586747E-1   -2.621607161606991E-3    1.012924989248082E-4   -2.670699803412502E-3    1.444104114566422E-4    1.177287291521518E-1    5.016578923162898E-1
 8.148931771875000E9    -4.525279421259800E-2    5.359432300496663E-1   -2.638031210170143E-3    1.158649960429705E-4   -2.643271682635391E-3    1.710890713862556E-4    1.187111408503421E-1    5.013620721604575E-1
 8.148949158250000E9    -4.395752667054786E-2    5.359583992787603E-1   -2.630468813420137E-3    1.186016930503263E-4   -2.669289350370609E-3    1.926471765725580E-4    1.198477267635367E-1    5.009469023711630E-1
 8.148966544625000E9    -4.271172940406558E-2    5.361618238118524E-1   -2.640571167336813E-3    1.118143560453489E-4   -2.685422518304796E-3    1.594683426935872E-4    1.209975697263168E-1    5.008076271891581E-1
 8.148983931000000E9    -4.154063856442956E-2    5.361932219534246E-1   -2.629667022855109E-3    1.568647932635354E-4   -2.667111560227152E-3    2.005328677557781E-4    1.220750959330330E-1    5.004587864688438E-1
 8.149001317375000E9    -4.036880118936646E-2    5.362917807078980E-1   -2.637243455599085E-3    1.551185618370915E-4   -2.639321979288589E-3    1.716892490438140E-4    1.230878872926989E-1    5.002486703375720E-1
 8.149018703750000E9    -3.922447434409358E-2    5.364345217635286E-1   -2.619880159812803E-3    1.628953713024237E-4   -2.627715952746435E-3    2.161017673332848E-4    1.242159545790762E-1    4.999290397373846E-1
 8.149036090125000E9    -3.798021755440540E-2    5.365370572339294E-1   -2.620385237890416E-3    1.581623214854882E-4   -2.661573204725236E-3    1.907444427171868E-4    1.252426173474848E-1    4.994688785706385E-1
 8.149053476500000E9    -3.688002146815143E-2    5.367032454548102E-1   -2.635293018347664E-3    1.639172888967660E-4   -2.678330064695118E-3    2.299523566273784E-4    1.263018717212943E-1    4.994111044638818E-1
 8.149070862875000E9    -3.559213614942209E-2    5.368473519155706E-1   -2.592899396458169E-3    1.810472940202589E-4   -2.653489606445280E-3    2.657542942837547E-4    1.274501126110511E-1    4.989944872108746E-1
 8.149088249250000E9    -3.438691369836992E-2    5.368861493067225E-1   -2.635740595481701E-3    1.819301764279524E-4   -2.665365717626449E-3    2.215579758505022E-4    1.285408330235461E-1    4.986593682025462E-1
 8.149105635625000E9    -3.315305959073606E-2    5.370630860757417E-1   -2.608014526909508E-3    1.743974360110043E-4   -2.645292007762548E-3    2.512369531267990E-4    1.296649804129345E-1    4.983876084644173E-1
 8.149123022000000E9    -3.188140611846613E-2    5.371043666528086E-1   -2.603992882077842E-3    1.787383115384980E-4   -2.649821139118933E-3    2.524484775930411E-4    1.309215458768070E-1    4.981402147672968E-1
 8.149140408375000E9    -3.075972389900698E-2    5.371749897387652E-1   -2.630614204983966E-3    1.906626697563381E-4   -2.664445290657230E-3    2.433508149161801E-4    1.318195640120491E-1    4.978907742952891E-1
 8.149157794750000E9    -2.955033536500522E-2    5.372883925262294E-1   -2.640671296748930E-3    1.964969773926225E-4   -2.659719607834615E-3    2.700897608460872E-4    1.328720358851865E-1    4.974742220176004E-1
 8.149175181125000E9    -2.833743876037668E-2    5.374902527300748E-1   -2.621896240481285E-3    2.176322292965235E-4   -2.674663785980214E-3    2.681381736214191E-4    1.340426074547385E-1    4.972026759628811E-1
 8.149192567500000E9    -2.715216961290467E-2    5.375421706607224E-1   -2.632801406935147E-3    1.957201115394561E-4   -2.607914958246148E-3    2.447499401392486E-4    1.351906961432144E-1    4.968356335764735E-1
 8.149209953875000E9    -2.594059413818218E-2    5.377062195297393E-1   -2.640880471045746E-3    2.132325417396712E-4   -2.643888120598626E-3    2.619485838248268E-4    1.361504895761266E-1    4.966225568444317E-1
 8.149227340250000E9    -2.477461188027024E-2    5.378438660320823E-1   -2.639197936452546E-3    2.275367524330096E-4   -2.647297058557150E-3    2.705832712219519E-4    1.374371560526269E-1    4.963112013868934E-1
 8.149244726625000E9    -2.348114890979061E-2    5.377727225552653E-1   -2.637190012569503E-3    2.312584817026757E-4   -2.642039472061302E-3    3.022408460897929E-4    1.384151652583958E-1    4.959236530329610E-1
 8.149262113000000E9    -2.225058645538056E-2    5.377621491015694E-1   -2.634689839964623E-3    2.411861149183117E-4   -2.617076389607165E-3    2.974240520261470E-4    1.394974419248213E-1    4.957251343159571E-1
 8.149279499375000E9    -2.106169466697929E-2    5.380232246361603E-1   -2.601902268295942E-3    2.381825504964930E-4   -2.655052225855575E-3    2.928432599391963E-4    1.406757579201012E-1    4.953869640717607E-1
 8.149296885750000E9    -1.983497480269496E-2    5.380683311802268E-1   -2.619029447353454E-3    2.399076860879460E-4   -2.649956167049451E-3    3.086446506261460E-4    1.415883919755125E-1    4.950794562739059E-1
 8.149314272125000E9    -1.865898965441732E-2    5.380429589736433E-1   -2.629141252765657E-3    2.618368244635979E-4   -2.648614977859491E-3    3.155326136857373E-4    1.427713630295852E-1    4.946910627776468E-1
 8.149331658500000E9    -1.741006611905048E-2    5.381435586559737E-1   -2.619897685892119E-3    2.648862496046906E-4   -2.647350023641040E-3    3.210767828574077E-4    1.438638818431151E-1    4.941988999400793E-1
 8.149349044875000E9    -1.614472556972518E-2    5.381911760214124E-1   -2.629421535025664E-3    2.760133733580443E-4   -2.683401954579026E-3    3.121319770190507E-4    1.448347049325183E-1    4.940336094915552E-1
 8.149366431250000E9    -1.510199148745719E-2    5.383808036665235E-1   -2.633739866319729E-3    2.796943913630881E-4   -2.630222302349128E-3    2.983866325354350E-4    1.458525377909834E-1    4.935530901745975E-1
 8.149383817625000E9    -1.375156250466125E-2    5.383049283738084E-1   -2.612425510770727E-3    2.709228914594706E-4   -2.646589836322045E-3    3.340155513633514E-4    1.470703149002839E-1    4.933748711830784E-1
 8.149401204000000E9    -1.256930900259472E-2    5.384352074016787E-1   -2.635945238515873E-3    3.114159350242667E-4   -2.654491254010414E-3    3.540250677447520E-4    1.479890253067133E-1    4.931427891323718E-1
 8.149418590375000E9    -1.130979899518098E-2    5.385070947883450E-1   -2.627241792772469E-3    3.057115902506885E-4   -2.645966956013083E-3    3.528303774155682E-4    1.491785051684520E-1    4.926238927764452E-1
 8.149435976750000E9    -1.014902520922534E-2    5.384389659462403E-1   -2.609555319743780E-3    3.154554254167034E-4   -2.648041692271171E-3    3.346769073759549E-4    1.502872737374057E-1    4.923517061313326E-1
 8.149453363125000E9    -8.935280517793050E-3    5.384291208061188E-1   -2.642741894981046E-3    3.240886488414076E-4   -2.654276141396399E-3    3.286179990696708E-4    1.512838297509665E-1    4.919346977071005E-1
 8.149470749500000E9    -7.718472440516143E-3    5.386239339884256E-1   -2.634010635808732E-3    3.225515948576614E-4   -2.655776733707616E-3    3.649429011929805E-4    1.524586039621174E-1    4.916842634757660E-1
 8.149488135875000E9    -6.526774273024261E-3    5.387075703269087E-1   -2.639277728132970E-3    3.198223758562726E-4   -2.634872927627690E-3    3.556536871159849E-4    1.535004573752224E-1    4.911191876018505E-1
 8.149505522250000E9    -5.532780791176344E-3    5.386307926558994E-1   -2.623952322895250E-3    3.386892853793737E-4   -2.675572051117835E-3    3.874712641459942E-4    1.546784008989293E-1    4.908909400108064E-1
 8.149522908625000E9    -4.015216477205721E-3    5.387805718184361E-1   -2.608177215159276E-3    3.367407647556635E-4   -2.655735380269238E-3    3.607796278056249E-4    1.555635001586199E-1    4.902984821593406E-1
 8.149540295000000E9    -2.996525756222953E-3    5.388334297358387E-1   -2.616965875397202E-3    3.557519727911433E-4   -2.629140527591382E-3    3.776230539341619E-4    1.566370618039637E-1    4.901012406753262E-1
 8.149557681375000E9    -1.797033299083460E-3    5.388281044112396E-1   -2.613216299694748E-3    3.468632529662577E-4   -2.664499533632279E-3    3.870947292642633E-4    1.579513111414968E-1    4.896880698706019E-1
 8.149575067750000E9    -5.220402729330696E-4    5.389007166357500E-1   -2.614091033018169E-3    3.512121834176581E-4   -2.637086368883046E-3    4.203567252401301E-4    1.587763073237132E-1    4.895579301841325E-1
 8.149592454125000E9     7.290676378316096E-4    5.388361357191321E-1   -2.645016097498410E-3    3.557429122321375E-4   -2.641882265082269E-3    3.628043229610281E-4    1.599682944124150E-1    4.890507713473867E-1
 8.149609840500000E9     1.945157749878579E-3    5.389327742068886E-1   -2.617104582328665E-3    3.531568853372442E-4   -2.667699171034320E-3    4.364136076681188E-4    1.610116377520262E-1    4.887223893637804E-1
 8.149627226875000E9     3.156518059369320E-3    5.389758877403935E-1   -2.602161138915951E-3    3.736619870254419E-4   -2.658066938173848E-3    4.365552862844431E-4    1.622061435865277E-1    4.884122744571913E-1
 8.149644613250000E9     4.503708414887495E-3    5.388724202629512E-1   -2.626895770487513E-3    3.711075647637072E-4   -2.643457728568744E-3    4.636085507353363E-4    1.631058911374171E-1    4.878307998954777E-1
 8.149661999625000E9     5.692423972762956E-3    5.390395314505009E-1   -2.634230496721296E-3    3.976897372166982E-4   -2.642230493824804E-3    4.187267014514081E-4    1.641248236335015E-1    4.876590070659134E-1
 8.149679386000000E9     6.757920298455389E-3    5.389268226086573E-1   -2.626431578195625E-3    3.931626597125087E-4   -2.656846199099091E-3    4.495553984235911E-4    1.654244706691917E-1    4.872899679073319E-1
 8.149696772375000E9     8.227957803487109E-3    5.389543664121731E-1   -2.630460058792170E-3    3.619578905824239E-4   -2.650473384989198E-3    4.229852786531751E-4    1.663416754568787E-1    4.867551026945092E-1
 8.149714158750000E9     9.217410106243723E-3    5.391531041769384E-1   -2.606688388465255E-3    4.101108033965856E-4   -2.626691256728532E-3    4.502153248764853E-4    1.674532283231024E-1    4.863359432332595E-1
