#  HZ   S   RI   R     50.00 
! Rohde & Schwarz Vector Network Analyzer 
! Rohde-Schwarz,ZNB20-2Port,1311601062101988,3.16
! Created: UTC 3/21/2024, 1:03:07 AM
! freq[Hz]                re:S11                  im:S11                  re:S21                  im:S21                  re:S12                  im:S12                  re:S22                  im:S22
 8.148229157000000E9    -9.371251898709487E-2    5.281765784191719E-1   -2.609164819689286E-3   -1.068541913260326E-4   -2.672650020303182E-3   -5.075578125674673E-5    7.367861349692485E-2    5.105260545569787E-1
 8.148246183175000E9    -9.255809226552988E-2    5.285434365393666E-1   -2.635987510986300E-3   -1.334501773158981E-4   -2.674984762894941E-3   -1.037871272834534E-4    7.468500893336788E-2    5.102599643985922E-1
 8.148263209350000E9    -9.143270420319777E-2    5.286987543762874E-1   -2.610538961470018E-3   -1.285800184895978E-4   -2.657376946967367E-3   -4.541119476619111E-5    7.597623671041485E-2    5.100915833035418E-1
 8.148280235525000E9    -9.024576241426351E-2    5.288797012686789E-1   -2.598072090163013E-3   -8.689247763636333E-5   -2.651649353327223E-3   -4.301305022084756E-5    7.683790768617497E-2    5.100643302512601E-1
 8.148297261700000E9    -8.906090564442315E-2    5.293052660648252E-1   -2.654551684195666E-3   -1.130369546808143E-4   -2.675535496188525E-3   -6.093438537003465E-5    7.797994345940430E-2    5.099005332317132E-1
 8.148314287875000E9    -8.785711694602837E-2    5.294682162804344E-1   -2.628508596773947E-3   -1.174619632482407E-4   -2.660413735638763E-3   -5.806774777913725E-5    7.906381442807545E-2    5.094608929054835E-1
 8.148331314050000E9    -8.671822671200380E-2    5.297903098429457E-1   -2.637944987189754E-3   -8.297292903986323E-5   -2.665615915620814E-3   -7.204617794542339E-5    8.026590682628394E-2    5.094258127804175E-1
 8.148348340225000E9    -8.549761325407723E-2    5.298496518536171E-1   -2.620178002512124E-3   -7.282192801080275E-5   -2.659310463971931E-3   -6.589008777269896E-5    8.141073845870572E-2    5.092485366110436E-1
 8.148365366400000E9    -8.429044912918873E-2    5.301002166436711E-1   -2.622380978558949E-3   -9.873332990314898E-5   -2.637123787336673E-3   -3.497646649435933E-5    8.253306506777623E-2    5.091145955379529E-1
 8.148382392575000E9    -8.325304606097371E-2    5.303458406474096E-1   -2.629532554194917E-3   -5.792716599964255E-5   -2.677947886868493E-3   -7.062732594800383E-7    8.355401575915881E-2    5.089291376950805E-1
 8.148399418750000E9    -8.203757039519359E-2    5.304420518604255E-1   -2.608853672470447E-3   -8.754470728134368E-5   -2.637371311925758E-3   -1.899538592076203E-5    8.459808171547877E-2    5.085708640075263E-1
 8.148416444925000E9    -8.095625579411840E-2    5.306992475665905E-1   -2.624439754456931E-3   -5.723942729224806E-5   -2.668074206395075E-3   -7.290667983850368E-6    8.576719361747973E-2    5.084214890060230E-1
 8.148433471100000E9    -7.967419640252210E-2    5.309362483911331E-1   -2.623957141233945E-3   -7.300701827312412E-5   -2.671667849557364E-3   -1.219039414229954E-5    8.693450599058154E-2    5.081479222444335E-1
 8.148450497275000E9    -7.848496719465205E-2    5.311948578767693E-1   -2.636943974171576E-3   -6.254877190775896E-5   -2.688018975085465E-3   -1.991219381166643E-5    8.788099222130470E-2    5.080589716910550E-1
 8.148467523450000E9    -7.739523615931200E-2    5.313385304277999E-1   -2.626015759547064E-3   -5.408046695636254E-5   -2.687689789711860E-3    1.027093645964610E-5    8.890027271975869E-2    5.079300892914203E-1
 8.148484549625000E9    -7.612441485669311E-2    5.315417420136461E-1   -2.616837751190521E-3   -4.071924997576772E-5   -2.681217390181231E-3    1.586678214791323E-5    8.999489352963465E-2    5.075990575209651E-1
 8.148501575800000E9    -7.501396725251122E-2    5.318262703899613E-1   -2.598263818179028E-3   -5.941505416510525E-5   -2.673169046135410E-3    3.879545944835398E-5    9.124137749546005E-2    5.076325326198405E-1
 8.148518601975000E9    -7.386451178397879E-2    5.317307978134517E-1   -2.634513504352221E-3   -8.049331778317471E-6   -2.644747390312233E-3    9.687436548153941E-6    9.234249296177181E-2    5.073294182799710E-1
 8.148535628150000E9    -7.266619838185823E-2    5.321388436914820E-1   -2.633564686778430E-3   -1.412857568563607E-5   -2.643003378437675E-3    2.352135479537008E-5    9.336764847213146E-2    5.069169924694606E-1
 8.148552654325000E9    -7.140703723258790E-2    5.324599859878340E-1   -2.661129054735746E-3   -2.182051778352218E-5   -2.675591840724796E-3    3.674665210204681E-5    9.440634831578217E-2    5.067556804923542E-1
 8.148569680500000E9    -7.025819136060983E-2    5.324922483229536E-1   -2.630650450512054E-3   -2.030555719238226E-5   -2.678727121206073E-3    5.071437263136891E-5    9.559102693456215E-2    5.066472748573921E-1
 8.148586706675000E9    -6.906950766031851E-2    5.327062991776342E-1   -2.629122790039811E-3    4.711256658235364E-6   -2.678250827332037E-3    4.945849976593330E-5    9.664634215163406E-2    5.062801016806499E-1
 8.148603732850000E9    -6.789803681758372E-2    5.328308572255488E-1   -2.632008777551679E-3    2.351721033699632E-5   -2.655276666209570E-3    6.853183526461290E-5    9.781341588354003E-2    5.059990360348132E-1
 8.148620759025000E9    -6.675991687590990E-2    5.331448392741452E-1   -2.631357939208539E-3    2.107036964224937E-5   -2.673359049791744E-3    5.564525494545316E-5    9.892877688040633E-2    5.057825677084157E-1
 8.148637785200000E9    -6.553748885111298E-2    5.332372403912247E-1   -2.631321299681438E-3    2.024096835254961E-5   -2.656503025088713E-3    6.937974256418503E-5    9.986217944375989E-2    5.057268278195481E-1
 8.148654811375000E9    -6.438243484774241E-2    5.335085038874274E-1   -2.601810070446554E-3    3.328222530793850E-5   -2.675072491638901E-3    9.272750091047199E-5    1.010134808654898E-1    5.054713527625270E-1
 8.148671837550000E9    -6.328017386696408E-2    5.336333206590798E-1   -2.629858185145756E-3    2.733059637131030E-5   -2.672756173848740E-3    8.269751095109831E-5    1.020231483561266E-1    5.052001461124803E-1
 8.148688863725000E9    -6.202858017886919E-2    5.337234117972977E-1   -2.639713975656578E-3    6.495129713145029E-5   -2.662644719678793E-3    8.736708865867719E-5    1.032373890851680E-1    5.049687754332369E-1
 8.148705889900000E9    -6.069289905791354E-2    5.339147711215307E-1   -2.633041611575665E-3    3.991685527996322E-5   -2.663920051936788E-3    1.188889613362476E-4    1.042890747158011E-1    5.046753667857737E-1
 8.148722916075000E9    -5.974511215876689E-2    5.340800784001543E-1   -2.634643312468023E-3    5.741272515401488E-5   -2.656300092030698E-3    1.022559814621409E-4    1.052838259272559E-1    5.043516324659927E-1
 8.148739942250000E9    -5.855525701156256E-2    5.342686284468386E-1   -2.628424236612916E-3    4.372112910839893E-5   -2.681373350481517E-3    1.199694695074539E-4    1.065656139066970E-1    5.042675832400240E-1
 8.148756968425000E9    -5.737704083940848E-2    5.343395139742536E-1   -2.627793608244153E-3    5.480014559524755E-5   -2.660315013078789E-3    1.311884405749328E-4    1.075269972908609E-1    5.039162723017896E-1
 8.148773994600000E9    -5.615448448835447E-2    5.346091335839288E-1   -2.635208917036936E-3    7.740734297378940E-5   -2.669498738445871E-3    9.597730618269697E-5    1.087854582263945E-1    5.037596483847022E-1
 8.148791020775000E9    -5.492510121291570E-2    5.346215734820804E-1   -2.626923662970833E-3    4.730635273771703E-5   -2.644468173982101E-3    1.146110928608369E-4    1.096383680082151E-1    5.035667915187726E-1
 8.148808046950000E9    -5.381737443011684E-2    5.348754111581460E-1   -2.634207212050893E-3    7.258226567301517E-5   -2.655976885611516E-3    1.051648607217223E-4    1.107758813080937E-1    5.033785448578445E-1
 8.148825073125000E9    -5.259601559416154E-2    5.349785671643955E-1   -2.627557288431064E-3    8.933520993427663E-5   -2.660482689115722E-3    1.420498974922705E-4    1.120158467025676E-1    5.029579346097353E-1
 8.148842099300000E9    -5.153194452193308E-2    5.351253857345515E-1   -2.622140594039464E-3    9.816772838482398E-5   -2.666314840834193E-3    1.102651494108192E-4    1.129825399802612E-1    5.025084413808582E-1
 8.148859125475000E9    -5.035582239827942E-2    5.352986961460708E-1   -2.595390546935548E-3    8.903067426710362E-5   -2.666291566280071E-3    1.311703080674098E-4    1.140116075529480E-1    5.024893906446410E-1
 8.148876151650000E9    -4.914577284495100E-2    5.354218207421744E-1   -2.616299294809569E-3    1.138953073160657E-4   -2.650903608263045E-3    1.749419161554720E-4    1.151837232603606E-1    5.021589273219712E-1
 8.148893177825000E9    -4.795279235187274E-2    5.355676448572526E-1   -2.641550894562321E-3    1.218621416137773E-4   -2.665643945278618E-3    1.764609374782606E-4    1.161574448669376E-1    5.018287695192261E-1
 8.148910204000000E9    -4.674269036338217E-2    5.356764328929773E-1   -2.631305750271412E-3    1.096598539028408E-4   -2.664738293984364E-3    1.567008571939913E-4    1.172908646463048E-1    5.015843681431700E-1
 8.148927230175000E9    -4.569200996909459E-2    5.359164520504941E-1   -2.621856292635272E-3    1.029483540179134E-4   -2.664061711806776E-3    1.706881959158211E-4    1.183143880321810E-1    5.014315510982457E-1
 8.148944256350000E9    -4.445066856782297E-2    5.359032297944348E-1   -2.625718587123319E-3    1.202598266864274E-4   -2.655022652076032E-3    1.800829282773196E-4    1.193910254188114E-1    5.011344999943195E-1
 8.148961282525000E9    -4.321258893212810E-2    5.361628824436301E-1   -2.630993376494101E-3    1.540228395808052E-4   -2.649999250731258E-3    1.661733883589698E-4    1.204560386446971E-1    5.008814508012923E-1
 8.148978308700000E9    -4.192518049740288E-2    5.362078102676022E-1   -2.637229775432457E-3    1.568030784103733E-4   -2.617524390339599E-3    1.962401373727619E-4    1.215962279084668E-1    5.006242978407048E-1
 8.148995334875000E9    -4.083630132304700E-2    5.363032661606377E-1   -2.647976018776612E-3    1.312071192578599E-4   -2.660062796653658E-3    1.814314488803772E-4    1.226459921133875E-1    5.002958027462970E-1
 8.149012361050000E9    -3.958311297619933E-2    5.363959410230397E-1   -2.631770878110595E-3    1.604948854189689E-4   -2.654274011480483E-3    1.905232587020145E-4    1.237011837868267E-1    5.000628966476504E-1
 8.149029387225000E9    -3.839141401994622E-2    5.364782690548477E-1   -2.636116456071500E-3    1.639626009176305E-4   -2.653996959890750E-3    1.703772054275101E-4    1.247698358213680E-1    4.996265118061592E-1
 8.149046413400000E9    -3.730724006158500E-2    5.366983211739650E-1   -2.637446208985148E-3    1.517651672800949E-4   -2.648664984320273E-3    2.327009994931063E-4    1.258982827887298E-1    4.994491441107572E-1
 8.149063439575000E9    -3.601972377511257E-2    5.366646280610280E-1   -2.609734558904887E-3    1.469324178359875E-4   -2.647394592194478E-3    1.781619496850050E-4    1.268662811343533E-1    4.989963076670285E-1
 8.149080465750000E9    -3.496267247137167E-2    5.369566754563758E-1   -2.616064929880561E-3    1.665095737163286E-4   -2.607674189371279E-3    2.103128299401550E-4    1.281120695259409E-1    4.987880785261615E-1
 8.149097491925000E9    -3.367706635624414E-2    5.369980252243629E-1   -2.624904169037094E-3    1.864177440350333E-4   -2.665243230531435E-3    2.126749867412641E-4    1.290917934312700E-1    4.985776925981391E-1
 8.149114518100000E9    -3.248367067647482E-2    5.372387020168772E-1   -2.619233102614432E-3    1.825565057130010E-4   -2.661436639704160E-3    2.385727537633068E-4    1.301701383273363E-1    4.981999598456167E-1
 8.149131544275000E9    -3.139297465563759E-2    5.372299544547730E-1   -2.601314349737278E-3    2.053641898810264E-4   -2.678330456056556E-3    2.353658473297018E-4    1.312319262344415E-1    4.979779185995039E-1
 8.149148570450000E9    -3.024528437850468E-2    5.373349330917221E-1   -2.585044749304821E-3    2.092774125724066E-4   -2.675257742124694E-3    2.614525370790933E-4    1.323257132898818E-1    4.975708294882256E-1
 8.149165596625000E9    -2.906228705148934E-2    5.373681341408588E-1   -2.639564264330747E-3    2.135077913698170E-4   -2.662924827897676E-3    2.622613678169664E-4    1.334801201448415E-1    4.975374693985821E-1
 8.149182622800000E9    -2.789459371246416E-2    5.374047324847802E-1   -2.657732705720720E-3    1.955433228272652E-4   -2.650861848737102E-3    2.480424390402543E-4    1.344081125053630E-1    4.971369048141292E-1
 8.149199648975000E9    -2.671704175563101E-2    5.374528158325154E-1   -2.656058175432520E-3    2.113970595345701E-4   -2.669493605849648E-3    2.772718007855486E-4    1.355470651646035E-1    4.967619838171047E-1
 8.149216675150000E9    -2.549951960949654E-2    5.376902785619027E-1   -2.600416320092922E-3    2.193871035184565E-4   -2.657406555021015E-3    2.706952758266752E-4    1.366804290875955E-1    4.963908457858424E-1
 8.149233701325000E9    -2.421911006865704E-2    5.377437118415722E-1   -2.616315978267217E-3    2.202904831972581E-4   -2.633126592372133E-3    2.613673673461037E-4    1.376892988931181E-1    4.961526984734274E-1
 8.149250727500000E9    -2.301712289853943E-2    5.376532810563629E-1   -2.629864654923879E-3    2.509798316357011E-4   -2.645229803937560E-3    2.984146302400127E-4    1.387810702639394E-1    4.957470647845826E-1
 8.149267753675000E9    -2.171470654505288E-2    5.379213615416493E-1   -2.626635501141500E-3    2.069942386663141E-4   -2.633840492513407E-3    3.226952523346584E-4    1.397832560688689E-1    4.955002154984161E-1
 8.149284779850000E9    -2.064387790011393E-2    5.379210634341027E-1   -2.596626253528651E-3    2.537114390325348E-4   -2.660507873679321E-3    2.806238950612572E-4    1.409188410038245E-1    4.951955323705631E-1
 8.149301806025000E9    -1.952978381072767E-2    5.381103474332327E-1   -2.614559300374273E-3    2.390479470802730E-4   -2.669710199792339E-3    3.027914817822610E-4    1.419987144780237E-1    4.948656501790579E-1
 8.149318832200000E9    -1.835529417916495E-2    5.381410039167052E-1   -2.650145646781549E-3    2.859221213064421E-4   -2.637019488264617E-3    3.138842815449772E-4    1.430013156006727E-1    4.945212851863505E-1
 8.149335858375000E9    -1.720724340962133E-2    5.381453289761289E-1   -2.629449780288850E-3    2.478331838596946E-4   -2.637579280546534E-3    3.364193346841850E-4    1.439382917911203E-1    4.940808128944532E-1
 8.149352884550000E9    -1.598298402884426E-2    5.383314292465423E-1   -2.600714213541946E-3    2.571571399366396E-4   -2.632734420571425E-3    3.336083221791644E-4    1.451077736568265E-1    4.939320759250989E-1
 8.149369910725000E9    -1.486131882727450E-2    5.383313209103687E-1   -2.624500377972249E-3    2.666183302448444E-4   -2.641453620577117E-3    3.500845171025364E-4    1.461463212687207E-1    4.935765499359412E-1
 8.149386936900000E9    -1.363785897604471E-2    5.384265068966513E-1   -2.622972518616600E-3    2.635113745470967E-4   -2.631498644417400E-3    3.344552477933671E-4    1.471385978765371E-1    4.931544498830229E-1
 8.149403963075000E9    -1.244498673873230E-2    5.384516097392928E-1   -2.630973833063492E-3    2.891766768600044E-4   -2.644509268636376E-3    3.703532384788610E-4    1.482322719574862E-1    4.928603422534327E-1
 8.149420989250000E9    -1.115106304998606E-2    5.384686214629929E-1   -2.601950919362588E-3    2.995675679358533E-4   -2.645710075200132E-3    3.671161643143913E-4    1.492655271875466E-1    4.924629228076653E-1
 8.149438015425000E9    -1.007907054070369E-2    5.385162757141738E-1   -2.604485851102636E-3    2.903148940478062E-4   -2.679014134929786E-3    3.677940645837068E-4    1.503542731946830E-1    4.922333108286044E-1
 8.149455041600000E9    -8.854707570543172E-3    5.384568294967732E-1   -2.615886164411561E-3    3.167296084907374E-4   -2.672105001191448E-3    3.620180930549550E-4    1.513913337681240E-1    4.917914649287569E-1
 8.149472067775000E9    -7.632667381420398E-3    5.387066812552337E-1   -2.625393526949193E-3    3.082253150128901E-4   -2.671000189777813E-3    3.479284889323597E-4    1.524515038978770E-1    4.915222520329552E-1
 8.149489093950000E9    -6.539378854048646E-3    5.386422768958593E-1   -2.645389168771254E-3    3.103970235059745E-4   -2.653756904340614E-3    3.404696417958198E-4    1.535078679748297E-1    4.912424445505691E-1
 8.149506120125000E9    -5.359695895449334E-3    5.387959193014964E-1   -2.646608508330940E-3    3.245640050705790E-4   -2.630510678891363E-3    4.152526706181400E-4    1.546934548120196E-1    4.907779015339001E-1
 8.149523146300000E9    -4.175481985223379E-3    5.387567277608397E-1   -2.614933520387773E-3    3.153815864134153E-4   -2.638507629090231E-3    3.920783759757777E-4    1.556056559038368E-1    4.903082179600042E-1
 8.149540172475000E9    -2.854230601045502E-3    5.388823165864611E-1   -2.620666808297983E-3    3.398412468344944E-4   -2.657767354577087E-3    4.008144735938197E-4    1.566817708036231E-1    4.901078582750870E-1
 8.149557198650000E9    -1.768684782742018E-3    5.387981282187527E-1   -2.607680362718364E-3    3.252704084010157E-4   -2.666880537327102E-3    3.833463318512940E-4    1.577345712715005E-1    4.897179248059505E-1
 8.149574224825000E9    -5.095630461133939E-4    5.389233699765759E-1   -2.627586878957210E-3    3.299737846653791E-4   -2.648472605400343E-3    4.219048921482898E-4    1.588440161280819E-1    4.895471103802413E-1
 8.149591251000000E9     6.636566911798693E-4    5.389311116898089E-1   -2.618376299116325E-3    3.409644172083687E-4   -2.655693870766355E-3    4.195457246208818E-4    1.599443344031465E-1    4.890435461432139E-1
 8.149608277175000E9     1.751363682566650E-3    5.389487102883410E-1   -2.639016798703723E-3    3.494947829363454E-4   -2.662642575113847E-3    4.301859911922494E-4    1.608262771431949E-1    4.886883487636615E-1
 8.149625303350000E9     2.953091616179499E-3    5.389154233150801E-1   -2.626630603631606E-3    3.650701310795167E-4   -2.652724931056906E-3    4.511882603621005E-4    1.619774608872028E-1    4.882852288510586E-1
 8.149642329525000E9     4.270847973166009E-3    5.389257557098068E-1   -2.612674151314610E-3    3.765916274026558E-4   -2.598435301831700E-3    4.058137605905470E-4    1.629407554761817E-1    4.879228447882821E-1
 8.149659355700000E9     5.379795569841473E-3    5.389695740776108E-1   -2.631877791823106E-3    3.867384621632686E-4   -2.669007016349983E-3    4.227856131004829E-4    1.639961361505481E-1    4.874883507829583E-1
 8.149676381875000E9     6.548180429113227E-3    5.389536277788709E-1   -2.615786191262182E-3    4.000953819408398E-4   -2.632306807394553E-3    4.558030853085226E-4    1.651400971196954E-1    4.870518878377836E-1
 8.149693408050000E9     7.658040681880764E-3    5.389180859475983E-1   -2.631297173863636E-3    3.682134708161363E-4   -2.644334314698375E-3    4.481150038733945E-4    1.662181842313286E-1    4.868055736528442E-1
 8.149710434225000E9     8.849967734392039E-3    5.390398124341267E-1   -2.625938494685096E-3    3.987072399955472E-4   -2.654078919505620E-3    4.342490636773216E-4    1.671757057800139E-1    4.864374985995957E-1
 8.149727460400000E9     1.011358635204600E-2    5.390661946381908E-1   -2.592365341640685E-3    4.193995245321784E-4   -2.662343652642419E-3    4.614515712647444E-4    1.681462898574771E-1    4.859852715292298E-1
 8.149744486575000E9     1.130382910019646E-2    5.389840749403966E-1   -2.599585854793142E-3    4.097571694839340E-4   -2.634959909714301E-3    4.752175727114455E-4    1.692955536045781E-1    4.856573987485053E-1
 8.149761512750000E9     1.254754632341079E-2    5.390333824172783E-1   -2.583793888009332E-3    4.108239651229381E-4   -2.651826674801341E-3    4.697759997544758E-4    1.701662769886371E-1    4.853590089926933E-1
