#  HZ   S   RI   R     50.00 
! Rohde & Schwarz Vector Network Analyzer 
! Rohde-Schwarz,ZNB20-2Port,1311601062101988,3.16
! Created: UTC 3/21/2024, 1:03:10 AM
! freq[Hz]                re:S11                  im:S11                  re:S21                  im:S21                  re:S12                  im:S12                  re:S22                  im:S22
 8.148419507000000E9    -8.072708629551728E-2    5.308171910975726E-1   -2.620073544699946E-3   -5.767423514323484E-5   -2.661644281834559E-3   -1.902320238256341E-5    8.590037282661521E-2    5.084332580028410E-1
 8.148435662975000E9    -7.961624301077949E-2    5.308838691114719E-1   -2.625857007103025E-3   -6.570577590621707E-5   -2.659405043772314E-3   -2.996429711554182E-5    8.685040859356070E-2    5.082577330400099E-1
 8.148451818950000E9    -7.845787311944087E-2    5.310638276366088E-1   -2.630214863027422E-3   -4.052590665317187E-5   -2.683326633538577E-3   -3.882397245300198E-5    8.794047365005180E-2    5.081100783201419E-1
 8.148467974925000E9    -7.731945983322910E-2    5.314640760941181E-1   -2.622199386257793E-3   -6.305626836449228E-5   -2.671302943454496E-3    1.287468786957877E-5    8.891047494429444E-2    5.077697235501545E-1
 8.148484130900000E9    -7.623740110506765E-2    5.314330863779388E-1   -2.631346745386582E-3   -2.446689419851471E-5   -2.674142929156783E-3    6.212167688988764E-6    9.007966178735601E-2    5.075620246653172E-1
 8.148500286875000E9    -7.523210109545772E-2    5.315982270192243E-1   -2.639128682133205E-3   -2.923031572481347E-5   -2.668507191162241E-3    7.194331398693907E-7    9.123611133077325E-2    5.074433605341119E-1
 8.148516442850000E9    -7.405050218224334E-2    5.319680525476324E-1   -2.636020747238088E-3   -1.483110440415581E-5   -2.641665216339161E-3    4.317796344539736E-5    9.206869748685385E-2    5.071971100717195E-1
 8.148532598825000E9    -7.306381454247256E-2    5.320657291039732E-1   -2.647607040693397E-3   -2.956933885045649E-5   -2.636856538866139E-3    2.463593197593690E-5    9.328077976637202E-2    5.070148096974444E-1
 8.148548754800000E9    -7.178287630614046E-2    5.323042418990672E-1   -2.642018526795161E-3   -2.212412206158884E-5   -2.668547722546441E-3    5.182239672266814E-8    9.419323382454384E-2    5.068224464781752E-1
 8.148564910775000E9    -7.067571357619040E-2    5.323431797269750E-1   -2.608042087102265E-3   -2.697192755099220E-6   -2.648537062889900E-3    7.002477009923791E-5    9.541576179601914E-2    5.066649146567224E-1
 8.148581066750000E9    -6.961968746636532E-2    5.325639454306378E-1   -2.643868798972714E-3   -5.094360998743544E-6   -2.669373943847574E-3    3.890196986172277E-5    9.637047273263184E-2    5.065865856461734E-1
 8.148597222725000E9    -6.844368436311518E-2    5.327982159055846E-1   -2.635113073343846E-3   -3.567577634673252E-6   -2.673318534895039E-3    5.692043082503085E-5    9.726741615353758E-2    5.062026646150153E-1
 8.148613378700000E9    -6.721703333936485E-2    5.331341462720461E-1   -2.626948004016922E-3    2.579573171884177E-5   -2.669641242080372E-3    5.871915224270711E-5    9.848087570578955E-2    5.058849502834013E-1
 8.148629534675000E9    -6.621022702341041E-2    5.331841797796335E-1   -2.608920182117674E-3    1.391763990173724E-5   -2.678976666942825E-3    6.125207458523870E-5    9.929541193113878E-2    5.056961702229978E-1
 8.148645690650000E9    -6.507513171566061E-2    5.333521068912700E-1   -2.633722794731830E-3    2.580148145220894E-5   -2.696729107065304E-3    8.623590269171355E-5    1.004750446338277E-1    5.055261043081779E-1
 8.148661846625000E9    -6.384948474335207E-2    5.334160206553186E-1   -2.624083363275555E-3    4.248318516588034E-5   -2.652485873349854E-3    5.060039350567621E-5    1.015126290953021E-1    5.053144454185752E-1
 8.148678002600000E9    -6.279194945236277E-2    5.337001184920527E-1   -2.628515339081536E-3    3.093883712106867E-5   -2.659894924706049E-3    9.629885350843878E-5    1.023656147363371E-1    5.050088591359140E-1
 8.148694158575000E9    -6.168635462141404E-2    5.337912545347568E-1   -2.607921537805382E-3    5.049977235433718E-5   -2.654864602568236E-3    1.098106623719282E-4    1.035279958917972E-1    5.047558404997978E-1
 8.148710314550000E9    -6.058144367122418E-2    5.339593473138291E-1   -2.626500416473181E-3    3.052765722251452E-5   -2.674187396638671E-3    9.367609879095637E-5    1.044223411478746E-1    5.046352023949491E-1
 8.148726470525000E9    -5.945025999878825E-2    5.342184275248698E-1   -2.618736781961359E-3    2.777318891365343E-5   -2.633908150457342E-3    9.348930153522950E-5    1.055150211727205E-1    5.042897921814521E-1
 8.148742626500000E9    -5.829151597548483E-2    5.342036805242354E-1   -2.643776838109695E-3    5.014319972914839E-5   -2.660689506199586E-3    1.183829847465908E-4    1.067130335840255E-1    5.040780021699103E-1
 8.148758782475000E9    -5.733298815836391E-2    5.344902551150449E-1   -2.633523708427722E-3    6.245781289043810E-5   -2.652142777935784E-3    1.399471616098389E-4    1.075865448591088E-1    5.039681322634056E-1
 8.148774938450000E9    -5.614958551535044E-2    5.345096933537389E-1   -2.629457549042922E-3    6.014393421686088E-5   -2.688848297382901E-3    1.095434705398258E-4    1.086933662230785E-1    5.036300297471840E-1
 8.148791094425000E9    -5.499735897279540E-2    5.346188349152030E-1   -2.619067720880923E-3    8.537666471762250E-5   -2.691156816758100E-3    1.075525732892778E-4    1.097253189705412E-1    5.034233861530302E-1
 8.148807250400000E9    -5.391858366553542E-2    5.349025687858682E-1   -2.611276966573867E-3    8.827465715082527E-5   -2.698043406761177E-3    1.110733860388700E-4    1.106778632333038E-1    5.031700914317031E-1
 8.148823406375000E9    -5.272955526683702E-2    5.350163947377400E-1   -2.631268980909027E-3    7.341790319414281E-5   -2.675349632012539E-3    1.351592281755978E-4    1.118018193348106E-1    5.027884596328175E-1
 8.148839562350000E9    -5.163445648122715E-2    5.352508934763649E-1   -2.630983908464028E-3    1.197227800425633E-4   -2.655048977621887E-3    1.340078619360441E-4    1.127241627714263E-1    5.027474785763772E-1
 8.148855718325000E9    -5.052864618546793E-2    5.352464989165066E-1   -2.636032010838256E-3    8.797081800777314E-5   -2.685310085372032E-3    1.504063527549956E-4    1.138019279473142E-1    5.024839460792847E-1
 8.148871874300000E9    -4.940974064208482E-2    5.354582131559142E-1   -2.621602621525081E-3    1.134223064886246E-4   -2.649545244689370E-3    1.302383510168389E-4    1.148062825840536E-1    5.021860399097482E-1
 8.148888030275000E9    -4.836084655294092E-2    5.354823538937359E-1   -2.642576592090063E-3    1.153781965413131E-4   -2.666870599008101E-3    1.427998865452790E-4    1.157786832303199E-1    5.018473840445884E-1
 8.148904186250000E9    -4.705895403076248E-2    5.356691791554817E-1   -2.618188571073189E-3    1.234580477024962E-4   -2.683892683093151E-3    1.259182889677332E-4    1.169826714265530E-1    5.017191535093251E-1
 8.148920342225000E9    -4.604171542844655E-2    5.358143955823810E-1   -2.646726972750256E-3    1.231512012518637E-4   -2.673843380307440E-3    1.540506917945370E-4    1.178969162338667E-1    5.013966229652429E-1
 8.148936498200000E9    -4.488668297939524E-2    5.358149243183745E-1   -2.615852795616630E-3    1.289389592613804E-4   -2.673638316895447E-3    1.761748803510318E-4    1.188881788900204E-1    5.011593611558127E-1
 8.148952654175000E9    -4.379217249637754E-2    5.359975878023664E-1   -2.634739603577680E-3    1.239026006987073E-4   -2.657232869870901E-3    2.075268734005037E-4    1.199321896025925E-1    5.009523950711016E-1
 8.148968810150000E9    -4.273026056471028E-2    5.360959302874072E-1   -2.607650310777784E-3    1.282932560655723E-4   -2.646577327455991E-3    1.916056566243756E-4    1.209529645788395E-1    5.007541965646756E-1
 8.148984966125000E9    -4.159482879897429E-2    5.362509645672638E-1   -2.633714565610180E-3    1.319205576455750E-4   -2.653059822402835E-3    1.962195680311281E-4    1.220190975377692E-1    5.004027634533095E-1
 8.149001122100000E9    -4.039561214075030E-2    5.363838189585266E-1   -2.618985796930470E-3    1.383932994388944E-4   -2.690551873917766E-3    1.686455705357144E-4    1.230084583453937E-1    5.001117175511366E-1
 8.149017278075000E9    -3.936928636643804E-2    5.365066109081539E-1   -2.640000080613158E-3    1.237643627488021E-4   -2.673766317743345E-3    2.134790459263326E-4    1.242139098249072E-1    4.997751193353632E-1
 8.149033434050000E9    -3.825663672117238E-2    5.366114414062660E-1   -2.630819333092887E-3    1.394518994063829E-4   -2.646593108109796E-3    2.182213961730951E-4    1.251107677637748E-1    4.995658156030375E-1
 8.149049590025000E9    -3.714423742335377E-2    5.366248752538385E-1   -2.630196354081653E-3    1.544732311078366E-4   -2.648490402960803E-3    2.063191804885824E-4    1.260215577754480E-1    4.994307259932226E-1
 8.149065746000000E9    -3.592704202485195E-2    5.367263331479877E-1   -2.646305721203036E-3    1.490868268678222E-4   -2.671841331477924E-3    2.217921549219203E-4    1.270263776304019E-1    4.991576000907267E-1
 8.149081901975000E9    -3.488613105545533E-2    5.368546783062875E-1   -2.614106287672212E-3    1.864381227146486E-4   -2.653373333253331E-3    1.940230936305560E-4    1.279291509242347E-1    4.988653797785613E-1
 8.149098057950000E9    -3.366841687373474E-2    5.370161426140688E-1   -2.634913664596853E-3    1.856435302356025E-4   -2.655144970308350E-3    2.317958366251980E-4    1.290137353748632E-1    4.984064790013677E-1
 8.149114213925000E9    -3.251500085462137E-2    5.372078343156447E-1   -2.612110101994660E-3    1.858841523991571E-4   -2.675342027942711E-3    2.131918615181773E-4    1.301170200018490E-1    4.981910482478892E-1
 8.149130369900000E9    -3.151822259303334E-2    5.371758581141652E-1   -2.643193726499503E-3    1.898126592017959E-4   -2.656124229311482E-3    2.481445735035019E-4    1.311964860623558E-1    4.979390192214049E-1
 8.149146525875000E9    -3.026496750509205E-2    5.372227400871481E-1   -2.610134415108670E-3    2.062118609607577E-4   -2.680009766521767E-3    2.405151199040898E-4    1.322037827643323E-1    4.978031784616229E-1
 8.149162681850000E9    -2.939045441509685E-2    5.373996229344531E-1   -2.636235544026775E-3    1.866193646787063E-4   -2.659860679903231E-3    2.457892695116359E-4    1.331664142037851E-1    4.974401499434192E-1
 8.149178837825000E9    -2.812669944503986E-2    5.375017176424979E-1   -2.616215236712652E-3    1.903365658579685E-4   -2.648357986483871E-3    2.744935249531525E-4    1.341288532029692E-1    4.970535665735880E-1
 8.149194993800000E9    -2.693375490414811E-2    5.375756812912245E-1   -2.608699269245608E-3    2.269245701191684E-4   -2.650977903275526E-3    2.783341398942406E-4    1.353331362350149E-1    4.967774088629867E-1
 8.149211149775000E9    -2.582729618042767E-2    5.376046094516524E-1   -2.642500117685961E-3    2.027746464862208E-4   -2.662959850590172E-3    2.716828499531785E-4    1.362046742808448E-1    4.964644477823634E-1
 8.149227305750000E9    -2.474558959172265E-2    5.376949726643415E-1   -2.643802356526081E-3    2.252068076677054E-4   -2.653617599157310E-3    2.772147560706778E-4    1.372135553188845E-1    4.962148635656822E-1
 8.149243461725000E9    -2.344051336337139E-2    5.377501409046750E-1   -2.614199245167499E-3    2.371302561547685E-4   -2.668034121537371E-3    2.683583900273678E-4    1.381658639503513E-1    4.959369999926552E-1
 8.149259617700000E9    -2.240490652777070E-2    5.378699513748436E-1   -2.615653261707250E-3    1.894405146796975E-4   -2.661342638844147E-3    2.906778410273442E-4    1.392567264512340E-1    4.955554297359414E-1
 8.149275773675000E9    -2.137795841332373E-2    5.379098870774991E-1   -2.626355751654626E-3    2.486709198860647E-4   -2.631363677129068E-3    2.819515578565985E-4    1.401858048318201E-1    4.953082851327048E-1
 8.149291929650000E9    -2.027016988155442E-2    5.379794965508904E-1   -2.620616969555263E-3    2.522378081303716E-4   -2.671708743535649E-3    2.937713263392975E-4    1.412491117919320E-1    4.949988294298545E-1
 8.149308085625000E9    -1.914857643811629E-2    5.379779112924670E-1   -2.624392534861856E-3    2.665322696170523E-4   -2.679750348315479E-3    3.232047013563174E-4    1.422757583166002E-1    4.946625065571592E-1
 8.149324241600000E9    -1.800367768320741E-2    5.380857217679421E-1   -2.606479834601340E-3    2.616019290143673E-4   -2.653543792842937E-3    3.225742083592665E-4    1.432615129925124E-1    4.942657106574796E-1
 8.149340397575000E9    -1.688270205717713E-2    5.382313711828446E-1   -2.629187661731225E-3    2.568250135130069E-4   -2.655838386436911E-3    3.047377869725762E-4    1.442022031802003E-1    4.940704971297655E-1
 8.149356553550000E9    -1.577705154116012E-2    5.382860934632977E-1   -2.636068236724123E-3    2.896233411142342E-4   -2.643452611905303E-3    3.200561668368197E-4    1.452258740170057E-1    4.937993717594744E-1
 8.149372709525000E9    -1.460150121836850E-2    5.382417523964749E-1   -2.620292625881180E-3    2.607989780296999E-4   -2.645780708436169E-3    3.611319917482771E-4    1.462497992299493E-1    4.934101418256716E-1
 8.149388865500000E9    -1.345458511862378E-2    5.383607731127945E-1   -2.615748362238397E-3    2.699246384403456E-4   -2.647727008232919E-3    3.184705723559558E-4    1.473112468931945E-1    4.930630634599993E-1
 8.149405021475000E9    -1.243875749871723E-2    5.383506449437819E-1   -2.621059384300203E-3    2.634251334627883E-4   -2.649541555821734E-3    3.306072073078264E-4    1.481813591405041E-1    4.928639621991583E-1
 8.149421177450000E9    -1.129689490405017E-2    5.385034116676558E-1   -2.609736704490795E-3    3.038078773403670E-4   -2.666197465704818E-3    3.434559508804949E-4    1.493286894381464E-1    4.924440513158238E-1
 8.149437333425000E9    -1.016445154214725E-2    5.385951129260320E-1   -2.608457828880191E-3    3.227850048589720E-4   -2.665978364898211E-3    3.451498412825814E-4    1.504033946256082E-1    4.922595309070815E-1
 8.149453489400000E9    -8.963499882562544E-3    5.386432058514132E-1   -2.605907569795234E-3    3.288810605017370E-4   -2.663408977749833E-3    3.772532241153288E-4    1.513057610348689E-1    4.918792089052267E-1
 8.149469645375000E9    -7.937111503546519E-3    5.387904219393400E-1   -2.652610423386020E-3    3.087533631918063E-4   -2.674137779871679E-3    3.588440590487421E-4    1.522799340181315E-1    4.915015148994610E-1
 8.149485801350000E9    -6.672342949062923E-3    5.385946827744563E-1   -2.601245796235854E-3    3.094482762878270E-4   -2.628370672078714E-3    3.136761983559710E-4    1.533233074953994E-1    4.911662974959048E-1
 8.149501957325000E9    -5.624438698811242E-3    5.388025235501289E-1   -2.634287773019715E-3    3.232153040538636E-4   -2.616661290453295E-3    3.685871655505519E-4    1.543031526877569E-1    4.908917448157071E-1
 8.149518113300000E9    -4.485639355171200E-3    5.387954613019998E-1   -2.618988833094027E-3    3.436436334886524E-4   -2.637883115793153E-3    3.499404664222628E-4    1.553071357259643E-1    4.905657202460525E-1
 8.149534269275000E9    -3.313981448223958E-3    5.386879553790065E-1   -2.629720233305791E-3    3.396357186228693E-4   -2.645978863394437E-3    3.979978387615484E-4    1.562584732072146E-1    4.901896662677482E-1
 8.149550425250000E9    -2.216120248070572E-3    5.388471253158158E-1   -2.626309905567884E-3    3.377927671527496E-4   -2.669616316689893E-3    3.814944329489909E-4    1.573631137146764E-1    4.899314388253222E-1
 8.149566581225000E9    -9.900539811105178E-4    5.388899292778152E-1   -2.633831914401110E-3    3.409774569293395E-4   -2.675480015463414E-3    4.027392264621507E-4    1.582285763375130E-1    4.896104703232325E-1
 8.149582737200000E9     1.108725659288658E-4    5.388317109767414E-1   -2.616119045383884E-3    3.571401740757792E-4   -2.694801685061816E-3    3.670061188497871E-4    1.594071685097850E-1    4.892394218912551E-1
 8.149598893175000E9     1.107136227857079E-3    5.388403620452575E-1   -2.637037864074105E-3    3.669430557549361E-4   -2.621378552273494E-3    3.871004988784899E-4    1.602080938067317E-1    4.889006539965399E-1
 8.149615049150000E9     2.366329784873960E-3    5.388982148990141E-1   -2.626226691125529E-3    3.762913054123147E-4   -2.629607633979744E-3    4.280995135921789E-4    1.612849043242603E-1    4.885636364660821E-1
 8.149631205125000E9     3.485234747463647E-3    5.389338045939087E-1   -2.636818247935305E-3    3.303384856556379E-4   -2.633038462645735E-3    3.823848209260523E-4    1.621623147385522E-1    4.881826990884561E-1
 8.149647361100000E9     4.542364092511716E-3    5.389772893039422E-1   -2.619731594119238E-3    3.911522740534924E-4   -2.637258929282093E-3    4.577887294076969E-4    1.632619729454742E-1    4.880044875738306E-1
 8.149663517075000E9     5.662625770326341E-3    5.389313187149303E-1   -2.599365466180515E-3    3.930384268615419E-4   -2.655775434514154E-3    4.535945814740661E-4    1.641852646086175E-1    4.874736941681739E-1
 8.149679673050000E9     6.801680175013701E-3    5.389546179534712E-1   -2.655222173599179E-3    3.854136158804714E-4   -2.640368707765886E-3    4.135020753821243E-4    1.652795567539111E-1    4.870875535206670E-1
 8.149695829025000E9     7.812140332195474E-3    5.389161787675469E-1   -2.626022759743063E-3    3.933419550195944E-4   -2.659639096415956E-3    4.222803492393593E-4    1.663498551990261E-1    4.867271695224615E-1
 8.149711985000000E9     9.052759093258467E-3    5.390524957874315E-1   -2.621760302875550E-3    3.964194148010144E-4   -2.614471971527581E-3    4.394839859709072E-4    1.672335016369972E-1    4.864381136707678E-1
 8.149728140975000E9     1.018156603804643E-2    5.389414871913636E-1   -2.587088964244922E-3    4.091530927398775E-4   -2.635955688924818E-3    4.541261868890443E-4    1.682257832453417E-1    4.859945914359366E-1
 8.149744296950000E9     1.128467015223419E-2    5.390384936964575E-1   -2.602471221581865E-3    4.183616707955005E-4   -2.661159805363164E-3    4.476786611868125E-4    1.693169229849797E-1    4.856382075154254E-1
 8.149760452925000E9     1.243293328422705E-2    5.391113030335728E-1   -2.611956066421132E-3    4.264878175313802E-4   -2.638976972122395E-3    4.699870855538942E-4    1.702016393058147E-1    4.852832865792268E-1
 8.149776608900000E9     1.347206557152613E-2    5.390072272558534E-1   -2.658243331374886E-3    4.378410284667354E-4   -2.696752092678772E-3    4.757068561878701E-4    1.710291928648468E-1    4.848753534937827E-1
 8.149792764875000E9     1.457200215444235E-2    5.389937407021052E-1   -2.613077900841582E-3    4.262500735958065E-4   -2.635881024196770E-3    4.861123200085815E-4    1.720572611783965E-1    4.846334822120482E-1
 8.149808920850000E9     1.584198078632781E-2    5.390198394290031E-1   -2.621059915851144E-3    4.217232577912027E-4   -2.653028868495183E-3    5.320296937657359E-4    1.731598500509661E-1    4.842422256420921E-1
 8.149825076825000E9     1.699807370703375E-2    5.390263016947776E-1   -2.609834509595217E-3    4.551450984831008E-4   -2.666517281278201E-3    5.100512464073293E-4    1.741224953291840E-1    4.838573456918077E-1
 8.149841232800000E9     1.802179033765104E-2    5.389754174975475E-1   -2.623518660178147E-3    4.615413211303564E-4   -2.623324098197169E-3    4.781588482887526E-4    1.750794271543347E-1    4.836200251053160E-1
 8.149857388775000E9     1.919068751930139E-2    5.389554292290193E-1   -2.626979881870422E-3    4.317695665532618E-4   -2.615304603799145E-3    4.905620746203831E-4    1.759175499535052E-1    4.830795114725516E-1
 8.149873544750000E9     2.033773066979103E-2    5.390662992733894E-1   -2.616022520358197E-3    4.647118983786915E-4   -2.631297437698238E-3    5.181459390393808E-4    1.770315058495274E-1    4.826713636501254E-1
