#  HZ   S   RI   R     50.00 
! Rohde & Schwarz Vector Network Analyzer 
! Rohde-Schwarz,ZNB20-2Port,1311601062101988,3.16
! Created: UTC 3/21/2024, 1:03:35 AM
! freq[Hz]                re:S11                  im:S11                  re:S21                  im:S21                  re:S12                  im:S12                  re:S22                  im:S22
 8.148260011000000E9    -9.183865262819120E-2    5.285184222001948E-1   -2.622297712144088E-3   -1.228909753964947E-4   -2.662916681265910E-3   -7.659540468428950E-5    7.544362703707078E-2    5.090788889242428E-1
 8.148276913200000E9    -9.067331927815775E-2    5.287473487859445E-1   -2.623252874784883E-3   -9.893481051334498E-5   -2.682979882852351E-3   -6.787507981739776E-5    7.626505928733424E-2    5.090751492848207E-1
 8.148293815400000E9    -8.948249702089511E-2    5.291087854179114E-1   -2.636034371175385E-3   -1.079164894100977E-4   -2.676671577042757E-3   -8.263659904137412E-5    7.768662720031659E-2    5.089677324733426E-1
 8.148310717600000E9    -8.818979481666438E-2    5.291876851128596E-1   -2.598263686143914E-3   -1.105345894971390E-4   -2.666023829168926E-3   -5.285688183926095E-5    7.841681907103969E-2    5.088367432343331E-1
 8.148327619800000E9    -8.710814785087281E-2    5.294301795087573E-1   -2.649646310319124E-3   -1.002275606448382E-4   -2.672813510933468E-3   -5.067424988321102E-5    7.964175157619301E-2    5.085859153438262E-1
 8.148344522000000E9    -8.595842238189656E-2    5.296796299707128E-1   -2.650921646064936E-3   -8.823098995883068E-5   -2.660296767350985E-3   -5.737651550961826E-5    8.091300873467352E-2    5.085764614032269E-1
 8.148361424200000E9    -8.474409465086774E-2    5.298787451314404E-1   -2.652183037347274E-3   -7.292988825554333E-5   -2.673165334825057E-3   -3.191869868497937E-5    8.190336875693273E-2    5.081814908113059E-1
 8.148378326400000E9    -8.373320916781385E-2    5.302681428792151E-1   -2.612986773089000E-3   -9.097475116501300E-5   -2.647249815724945E-3   -3.982582722750141E-5    8.298169631829641E-2    5.080572854682057E-1
 8.148395228600000E9    -8.247477169168030E-2    5.303017093836994E-1   -2.636692315005428E-3   -5.636333782645740E-5   -2.639108697215093E-3   -6.300036268826353E-6    8.408230794482155E-2    5.079115282334700E-1
 8.148412130800000E9    -8.130467916778737E-2    5.306480573438771E-1   -2.649525344319248E-3   -6.569614795958134E-5   -2.701917416537595E-3   -2.427263562992570E-5    8.522799255039352E-2    5.075294956842443E-1
 8.148429033000000E9    -8.010785752987000E-2    5.307791740834389E-1   -2.657411873518136E-3   -4.332861645268935E-5   -2.671264217502054E-3   -3.237290052801673E-5    8.625225228011613E-2    5.073479180406500E-1
 8.148445935200000E9    -7.898407020425934E-2    5.309314135272518E-1   -2.627182551150915E-3   -2.173066315873546E-5   -2.658176509051608E-3    3.600414540094538E-5    8.739099498478640E-2    5.070890296321732E-1
 8.148462837400000E9    -7.778080301935558E-2    5.311826759214593E-1   -2.630542816101554E-3   -4.365914772574249E-5   -2.687675714901767E-3    1.023469145726213E-5    8.853710682051957E-2    5.070614796327932E-1
 8.148479739600000E9    -7.666637252728453E-2    5.314643003405215E-1   -2.637613096048148E-3   -5.673980808191846E-5   -2.655641175597561E-3   -6.236639123865230E-6    8.956152286033857E-2    5.067675336972726E-1
 8.148496641800000E9    -7.557940997281265E-2    5.315921238989817E-1   -2.625634926573910E-3   -3.227470772418160E-5   -2.679984623989312E-3    4.328338925403255E-5    9.073619404879958E-2    5.065475275651673E-1
 8.148513544000000E9    -7.430888168768528E-2    5.317906271563605E-1   -2.635368496248621E-3   -2.790493832056623E-5   -2.670790247333390E-3    4.003343775934887E-5    9.158370975883208E-2    5.062663306986296E-1
 8.148530446200000E9    -7.321645953654986E-2    5.320441751712619E-1   -2.610985434211712E-3   -4.698218711376814E-6   -2.656591164832300E-3    1.107134577588478E-5    9.280411603165716E-2    5.061583928288292E-1
 8.148547348400000E9    -7.202220551825846E-2    5.321754502592979E-1   -2.639080109781781E-3   -3.335064146881512E-6   -2.658636416280149E-3    4.200282718702396E-5    9.391618442716802E-2    5.059374500939167E-1
 8.148564250600000E9    -7.079646246215487E-2    5.322886171697548E-1   -2.635015995104425E-3   -1.304756366185571E-5   -2.644928751035821E-3    5.270749907868547E-5    9.495968597219200E-2    5.056830004615864E-1
 8.148581152800000E9    -6.972381371937331E-2    5.325845971267184E-1   -2.648421587728119E-3    1.579993510328177E-5   -2.666308182770282E-3    7.438494368715263E-5    9.603836065735945E-2    5.055013132430013E-1
 8.148598055000000E9    -6.837619593427133E-2    5.327898731041070E-1   -2.646775754214470E-3    3.066902991816260E-6   -2.688573639817496E-3    4.021654865864116E-5    9.711483485090865E-2    5.052762639161626E-1
 8.148614957200000E9    -6.724133139454620E-2    5.329539698987684E-1   -2.623749212627245E-3    1.330835335133224E-5   -2.689684884925560E-3    8.624223530288943E-5    9.798572956443491E-2    5.051037788030733E-1
 8.148631859400000E9    -6.609978915857546E-2    5.329884135702569E-1   -2.645601812223296E-3    1.182516983177710E-5   -2.649099996662839E-3    8.327799669043911E-5    9.927420153506493E-2    5.048445617456396E-1
 8.148648761600000E9    -6.503084916083679E-2    5.332946193952147E-1   -2.590571831112548E-3    1.015866040403219E-5   -2.681638653265720E-3    9.039116252827215E-5    1.004102696384779E-1    5.045794440824306E-1
 8.148665663800000E9    -6.386414336389358E-2    5.333704675934682E-1   -2.641943083832686E-3    2.221885900011941E-5   -2.644563458759529E-3    5.094667523686152E-5    1.014503906169695E-1    5.042179134181138E-1
 8.148682566000000E9    -6.256810281655636E-2    5.336445878183881E-1   -2.635372941323892E-3    2.958630073264635E-5   -2.661570369714238E-3    7.666103000735765E-5    1.024688475163244E-1    5.040800943377278E-1
 8.148699468200000E9    -6.144173249979636E-2    5.337192786688508E-1   -2.639031003642545E-3    5.964030024709582E-5   -2.664801356961962E-3    1.015678768665725E-4    1.036162503767516E-1    5.039393471656779E-1
 8.148716370400000E9    -6.036448568020072E-2    5.339806524358529E-1   -2.605563823148445E-3    4.048390564435234E-5   -2.645712942870338E-3    1.150573969306207E-4    1.046467879330490E-1    5.035784641166338E-1
 8.148733272600000E9    -5.912338834356013E-2    5.340773344245926E-1   -2.651868562316359E-3    5.002442421670216E-5   -2.661728313156234E-3    6.852055150514860E-5    1.057548650875166E-1    5.033749815901790E-1
 8.148750174800000E9    -5.799099528662384E-2    5.341247749802386E-1   -2.630764988506334E-3    5.064783388743005E-5   -2.641474905018670E-3    9.661829512121946E-5    1.066814233435933E-1    5.032072057728960E-1
 8.148767077000000E9    -5.670384889779272E-2    5.344564030662016E-1   -2.595430893088434E-3    7.473405308729071E-5   -2.663937849780041E-3    1.059294533220140E-4    1.078354645350580E-1    5.028089479500260E-1
 8.148783979200000E9    -5.577977562184762E-2    5.345061591988869E-1   -2.621992169638936E-3    6.357736590652946E-5   -2.643948696274947E-3    1.336099267332670E-4    1.090811753955645E-1    5.026035671656817E-1
 8.148800881400000E9    -5.444702837431950E-2    5.346674759961756E-1   -2.634141856782347E-3    9.636698395757056E-5   -2.661684948514550E-3    1.131995460177375E-4    1.099981299308256E-1    5.023627820521214E-1
 8.148817783600000E9    -5.331304578428695E-2    5.347719974628461E-1   -2.631938312675745E-3    7.785419682017960E-5   -2.672675792588230E-3    1.227876158694510E-4    1.111875248787989E-1    5.021289522936212E-1
 8.148834685800000E9    -5.216202453056989E-2    5.349134580943375E-1   -2.621896734985837E-3    8.151269080532348E-5   -2.712427127067603E-3    1.254704403640858E-4    1.121076940728581E-1    5.018487797437329E-1
 8.148851588000000E9    -5.098025380641378E-2    5.351654761289395E-1   -2.618023790591383E-3    1.059329165899693E-4   -2.664657116550994E-3    1.404489503389533E-4    1.132534280391080E-1    5.015216780617855E-1
 8.148868490200000E9    -4.990553705262218E-2    5.354279800162682E-1   -2.644048500093631E-3    1.152894830277634E-4   -2.644174083644549E-3    1.215481986489229E-4    1.142104493183657E-1    5.013703151598958E-1
 8.148885392400000E9    -4.876488787384332E-2    5.352842718252757E-1   -2.621124198843808E-3    1.029455817881870E-4   -2.651978456513414E-3    1.898010924502520E-4    1.154365538015535E-1    5.010826797140332E-1
 8.148902294600000E9    -4.737734636487188E-2    5.354870125090823E-1   -2.627323149806092E-3    1.082687434062620E-4   -2.639296184193241E-3    1.604802110755440E-4    1.165262579172948E-1    5.009109599381808E-1
 8.148919196800000E9    -4.631975869856104E-2    5.355876589030509E-1   -2.603964317568512E-3    9.783564927717456E-5   -2.642675008352155E-3    2.133900908620260E-4    1.174632259711423E-1    5.006087118518049E-1
 8.148936099000000E9    -4.506496023976270E-2    5.358459499866366E-1   -2.621524784299484E-3    1.089236489554155E-4   -2.646233945510002E-3    1.647853916881524E-4    1.186938596141954E-1    5.002624837073427E-1
 8.148953001200000E9    -4.396920604556111E-2    5.359229898028820E-1   -2.629545784666206E-3    1.380866748712638E-4   -2.657288604875308E-3    2.020880023262426E-4    1.196662478751640E-1    5.000892935337287E-1
 8.148969903400000E9    -4.280899185209160E-2    5.361350843336332E-1   -2.632044031766782E-3    1.558317138947572E-4   -2.661955615550094E-3    1.981052435886112E-4    1.207885690558735E-1    4.997006350348945E-1
 8.148986805600000E9    -4.147857412726543E-2    5.361688299647079E-1   -2.611792426907470E-3    1.543357948703241E-4   -2.666312619718951E-3    1.908895472189894E-4    1.217792745395404E-1    4.996224068799304E-1
 8.149003707800000E9    -4.043449322540851E-2    5.363181560627434E-1   -2.613128696813357E-3    1.489031742201972E-4   -2.657993058829637E-3    1.807591324926968E-4    1.228344721901219E-1    4.992308353097424E-1
 8.149020610000000E9    -3.929703733926577E-2    5.363629886575625E-1   -2.628928778729940E-3    1.201321412052109E-4   -2.640957136642742E-3    2.054879041463716E-4    1.239902201660326E-1    4.988039100101594E-1
 8.149037512200000E9    -3.814724876938364E-2    5.365904580749337E-1   -2.648739525303880E-3    1.808256838677228E-4   -2.623517745124034E-3    2.049520405368274E-4    1.250495862290275E-1    4.985219805134862E-1
 8.149054414400000E9    -3.688233941118185E-2    5.366179828238823E-1   -2.638940012848342E-3    1.699747526394688E-4   -2.643882462278934E-3    2.257061219593233E-4    1.260527331981678E-1    4.983609973613901E-1
 8.149071316600000E9    -3.571347237819207E-2    5.367321737684482E-1   -2.638600284415286E-3    1.856314182476805E-4   -2.665321323879903E-3    2.123040040392664E-4    1.270503278548029E-1    4.980926560228534E-1
 8.149088218800000E9    -3.451854039287532E-2    5.368158783535379E-1   -2.611053447470366E-3    2.030628306279836E-4   -2.648511782384829E-3    2.206155628934027E-4    1.281841801410242E-1    4.977426739692735E-1
 8.149105121000000E9    -3.327323622226805E-2    5.368360558684534E-1   -2.628724637167006E-3    1.850824068374698E-4   -2.681101171030789E-3    2.433091466050522E-4    1.293752738909359E-1    4.975639182203722E-1
 8.149122023200000E9    -3.223295396470743E-2    5.371053932847496E-1   -2.643851994779391E-3    1.969472269365998E-4   -2.655373704390682E-3    2.451073632256402E-4    1.301353975280718E-1    4.972713460651504E-1
 8.149138925400000E9    -3.106479356066118E-2    5.371328454285366E-1   -2.653176725235326E-3    1.772987876637510E-4   -2.674791775917054E-3    2.494592142734510E-4    1.313603981312091E-1    4.969356526389181E-1
 8.149155827600000E9    -2.979036416945522E-2    5.371048620763069E-1   -2.629637095471667E-3    2.072251433929519E-4   -2.640849173753592E-3    2.585096609085402E-4    1.323924793022691E-1    4.965699421882289E-1
 8.149172729800000E9    -2.856602434095220E-2    5.373770678647757E-1   -2.615842458657043E-3    1.795986055196288E-4   -2.669815910810942E-3    2.832235942533801E-4    1.334282761930147E-1    4.963422150231999E-1
 8.149189632000000E9    -2.756504924951655E-2    5.374710344795406E-1   -2.635158935881720E-3    2.364698160337137E-4   -2.626733512409528E-3    2.786971163044166E-4    1.347930926407706E-1    4.961005949203255E-1
 8.149206534200000E9    -2.632589408823348E-2    5.376169254852508E-1   -2.628405326240795E-3    2.188856320577353E-4   -2.678965283688529E-3    2.721090970705558E-4    1.355655007683919E-1    4.956080964186365E-1
 8.149223436400000E9    -2.509274475863915E-2    5.375883678242480E-1   -2.640537348010538E-3    2.394618577802576E-4   -2.635943321938464E-3    2.742185269830207E-4    1.366370785065836E-1    4.953496439754831E-1
 8.149240338600000E9    -2.390529996540742E-2    5.376070920568805E-1   -2.624666320903682E-3    2.163283521871071E-4   -2.620601300881853E-3    2.876427551054895E-4    1.375958911331590E-1    4.950622633638778E-1
 8.149257240800000E9    -2.279071836294569E-2    5.377528015033562E-1   -2.615525402270669E-3    2.591598775417254E-4   -2.668615859125563E-3    2.859351205925780E-4    1.387213802741555E-1    4.947465414097576E-1
 8.149274143000000E9    -2.157069361878866E-2    5.378825634898764E-1   -2.629661045501893E-3    2.413773153604531E-4   -2.613001791040678E-3    2.958501409152586E-4    1.397336726655415E-1    4.944296177433465E-1
 8.149291045200000E9    -2.048455966500385E-2    5.378940167055219E-1   -2.621862980059543E-3    2.507670695854437E-4   -2.635534568824391E-3    2.982236758173349E-4    1.407469067247442E-1    4.940902648574250E-1
 8.149307947400000E9    -1.940582357584138E-2    5.379626902426814E-1   -2.624402447945400E-3    2.698816332773030E-4   -2.657569885347671E-3    2.859881244149587E-4    1.419128858772138E-1    4.937501261416358E-1
 8.149324849600000E9    -1.801962473723153E-2    5.378327428871794E-1   -2.624193584339479E-3    2.511645024088770E-4   -2.650059201978084E-3    3.070020296378402E-4    1.430430262068448E-1    4.935276722103920E-1
 8.149341751800000E9    -1.684933323624854E-2    5.381574628380259E-1   -2.647234776004643E-3    2.771858588358351E-4   -2.648841299937880E-3    3.283195928752882E-4    1.440708548064424E-1    4.932401053397424E-1
 8.149358654000000E9    -1.574726108316573E-2    5.381628781887935E-1   -2.621409420229681E-3    2.712552642766334E-4   -2.666043074256665E-3    3.451655245943263E-4    1.450112986251091E-1    4.928578673816037E-1
 8.149375556200000E9    -1.454672530684329E-2    5.383073081903256E-1   -2.629974692715764E-3    2.841065799512462E-4   -2.649765896141190E-3    3.449193734424169E-4    1.460445333399071E-1    4.924417795198930E-1
 8.149392458400000E9    -1.339010537189040E-2    5.381914089403553E-1   -2.610959221248504E-3    2.731788081149251E-4   -2.623028532939640E-3    3.312218274799223E-4    1.472162801546447E-1    4.921441286360960E-1
 8.149409360600000E9    -1.221534216319337E-2    5.383483490194527E-1   -2.626172659669054E-3    2.705654934185127E-4   -2.661264499081286E-3    3.215581118849426E-4    1.481928743811890E-1    4.917758603087205E-1
 8.149426262800000E9    -1.109128906587048E-2    5.383634509135781E-1   -2.626229484522152E-3    3.188370934246892E-4   -2.646747904510260E-3    3.567747066560782E-4    1.494050327172168E-1    4.914821812527277E-1
 8.149443165000000E9    -9.936190107638949E-3    5.383550844583302E-1   -2.632756660937411E-3    3.179881868456630E-4   -2.654094805973983E-3    3.479244954471116E-4    1.503378083184975E-1    4.911538327509704E-1
 8.149460067200000E9    -8.722925810783645E-3    5.385709306052088E-1   -2.629595415418132E-3    3.022113259861352E-4   -2.651764566915190E-3    3.795514703790792E-4    1.511864838661419E-1    4.908884973825959E-1
 8.149476969400000E9    -7.427401543030656E-3    5.384732176420174E-1   -2.608578351132109E-3    3.452250038565770E-4   -2.626782169381450E-3    3.740156802204606E-4    1.523349671117258E-1    4.905748900664275E-1
 8.149493871600000E9    -6.273571005548812E-3    5.385656984603007E-1   -2.598372322672082E-3    3.139699750097044E-4   -2.640612999225970E-3    3.709398349226834E-4    1.533858870657347E-1    4.902027500746008E-1
 8.149510773800000E9    -5.064205590494510E-3    5.387330419512086E-1   -2.621392277048636E-3    3.392180636969616E-4   -2.657771121150142E-3    4.060439484360976E-4    1.543657628773511E-1    4.900361265393701E-1
 8.149527676000000E9    -3.942790017963727E-3    5.386897093293254E-1   -2.623874647550312E-3    3.598570217398931E-4   -2.683514603530194E-3    3.800976346577383E-4    1.556848641799934E-1    4.894325820832828E-1
 8.149544578200000E9    -2.719242462272978E-3    5.386127363755810E-1   -2.642425971132829E-3    3.555568829423491E-4   -2.630797627081441E-3    3.928617300649244E-4    1.566305922644688E-1    4.890303810659969E-1
 8.149561480400000E9    -1.660212817716705E-3    5.389054637968796E-1   -2.622352732584819E-3    3.269579145785942E-4   -2.643178763679742E-3    4.115888441478374E-4    1.574922297725661E-1    4.887311285791441E-1
 8.149578382600000E9    -2.839870340905898E-4    5.388023123009679E-1   -2.619717951099921E-3    3.679181795340372E-4   -2.636302116883566E-3    4.475877987955108E-4    1.586901691752355E-1    4.884611364313670E-1
 8.149595284800000E9     7.411801144983270E-4    5.386846155346749E-1   -2.609176196190750E-3    3.638198235488672E-4   -2.676949801520434E-3    4.391708318548239E-4    1.597459928284061E-1    4.881132263837605E-1
 8.149612187000000E9     2.005476553769934E-3    5.387264893968903E-1   -2.598804193189708E-3    3.551149815331945E-4   -2.629622933571879E-3    3.967118782355731E-4    1.606799111217610E-1    4.877295096378487E-1
 8.149629089200000E9     3.118482419888055E-3    5.388212093966370E-1   -2.648145547560338E-3    3.599428008641747E-4   -2.655940092551665E-3    4.055719862134785E-4    1.617280533070041E-1    4.871927974038080E-1
 8.149645991400000E9     4.365856052731662E-3    5.387724953847608E-1   -2.612575484807344E-3    4.007178559730394E-4   -2.680925593528320E-3    4.292033156681287E-4    1.628099591203117E-1    4.869286021146207E-1
 8.149662893600000E9     5.424088511155091E-3    5.389427041514903E-1   -2.610442985695167E-3    3.697843371624912E-4   -2.647998083733112E-3    4.752496718524515E-4    1.637278885212009E-1    4.866194637411467E-1
 8.149679795800000E9     6.677076185354314E-3    5.388305557433031E-1   -2.617799735856042E-3    3.671663950366580E-4   -2.646651990131781E-3    4.488186052489410E-4    1.647714351033176E-1    4.862179914137593E-1
 8.149696698000000E9     7.907541212513750E-3    5.388112759489584E-1   -2.619311510481504E-3    3.985959187573232E-4   -2.594772775125551E-3    4.302276865091719E-4    1.659063011773954E-1    4.859585402687145E-1
 8.149713600200000E9     9.072947666661241E-3    5.389467850369465E-1   -2.606058632042966E-3    4.237662386203833E-4   -2.648022941092688E-3    4.527017033021679E-4    1.670608974066279E-1    4.855073597117955E-1
 8.149730502400000E9     1.012567994522439E-2    5.388863986076888E-1   -2.635805188130692E-3    4.225025006735207E-4   -2.645819296932913E-3    4.583464571232116E-4    1.678466109647737E-1    4.851083421094597E-1
 8.149747404600000E9     1.132153736853747E-2    5.388061339026101E-1   -2.627810963953868E-3    4.182883112369174E-4   -2.630566607842894E-3    4.472900325687859E-4    1.689938119321112E-1    4.847516373216959E-1
 8.149764306800000E9     1.262658045804958E-2    5.389256193872133E-1   -2.630350951398745E-3    4.314948780420904E-4   -2.643322402175233E-3    4.525522239994762E-4    1.701050252098673E-1    4.844312328482780E-1
 8.149781209000000E9     1.371801734333658E-2    5.389977167181713E-1   -2.606807956519620E-3    4.514628076459502E-4   -2.621381920976622E-3    5.027516654261230E-4    1.709682135591515E-1    4.840096047941081E-1
