#  HZ   S   RI   R     50.00 
! Rohde & Schwarz Vector Network Analyzer 
! Rohde-Schwarz,ZNB20-2Port,1311601062101988,3.16
! Created: UTC 3/21/2024, 1:03:52 AM
! freq[Hz]                re:S11                  im:S11                  re:S21                  im:S21                  re:S12                  im:S12                  re:S22                  im:S22
 8.147654439000000E9    -1.329891904406971E-1    5.185527863000123E-1   -2.651157948139606E-3   -3.213809593865020E-4   -2.644800496203322E-3   -2.756289178744164E-4    3.609957694056808E-2    5.133483326499595E-1
 8.147674114950000E9    -1.316654136679161E-1    5.188537442728050E-1   -2.620502248053938E-3   -3.188851522754013E-4   -2.657276203538825E-3   -2.212403792490926E-4    3.734441952058604E-2    5.134225243653355E-1
 8.147693790900000E9    -1.302394621992643E-1    5.193306134552000E-1   -2.643390577069889E-3   -3.131613670022528E-4   -2.663376690885746E-3   -2.536056222749492E-4    3.872918134127872E-2    5.133264141147615E-1
 8.147713466850000E9    -1.290098729360934E-1    5.196666667576291E-1   -2.606381347249540E-3   -3.012784325910587E-4   -2.657376265072005E-3   -2.536370165023634E-4    4.006256566255447E-2    5.131135455166125E-1
 8.147733142800000E9    -1.276862229103780E-1    5.201095973278331E-1   -2.614912993636590E-3   -2.932726211184924E-4   -2.679521732523938E-3   -2.493727799428738E-4    4.135960478745754E-2    5.129913583905710E-1
 8.147752818750000E9    -1.263296999452400E-1    5.203768098512429E-1   -2.615734486543569E-3   -3.225151377150899E-4   -2.654579355081451E-3   -2.241676642195620E-4    4.261897772223588E-2    5.128673810522637E-1
 8.147772494700000E9    -1.250678468024961E-1    5.208672789642631E-1   -2.625739251782898E-3   -2.633647667828463E-4   -2.663888250423142E-3   -2.224032309945956E-4    4.385893868616383E-2    5.127066651266663E-1
 8.147792170650000E9    -1.237426873422245E-1    5.211473670077341E-1   -2.615747395957935E-3   -2.823477010693374E-4   -2.636614028309251E-3   -2.312822568236565E-4    4.507001565728195E-2    5.126374895109754E-1
 8.147811846600000E9    -1.222977502473677E-1    5.215202547290371E-1   -2.618837250426843E-3   -2.641736733639592E-4   -2.649105859977617E-3   -2.217179232197529E-4    4.645911316462174E-2    5.125525329920012E-1
 8.147831522550000E9    -1.209789796465284E-1    5.217756823074062E-1   -2.623079371906774E-3   -2.614914371881313E-4   -2.671143878046834E-3   -2.137004743257511E-4    4.789754527528879E-2    5.122282585284007E-1
 8.147851198500000E9    -1.195944743480774E-1    5.222769950952656E-1   -2.607872145758409E-3   -2.563144333522429E-4   -2.658227492193862E-3   -2.109534044560500E-4    4.899517301234137E-2    5.123021044200139E-1
 8.147870874450000E9    -1.183597002925513E-1    5.225134459839823E-1   -2.611019615967527E-3   -2.481470909214305E-4   -2.649376541276913E-3   -1.689077729478105E-4    5.015469662462355E-2    5.121398496681013E-1
 8.147890550400000E9    -1.169502955907754E-1    5.228308859220613E-1   -2.609183130029633E-3   -2.488689967507962E-4   -2.673997070305987E-3   -1.983412536519165E-4    5.146687997536090E-2    5.118629372891136E-1
 8.147910226350000E9    -1.156645874418828E-1    5.233017671099592E-1   -2.634173889520338E-3   -2.309364273364033E-4   -2.652801868298363E-3   -2.373646111699441E-4    5.276881301201204E-2    5.118251193106834E-1
 8.147929902300000E9    -1.142822681987485E-1    5.235035012471333E-1   -2.622538539523120E-3   -2.357014269181778E-4   -2.660911418641855E-3   -1.683636645413437E-4    5.422102865697886E-2    5.117032442932550E-1
 8.147949578250000E9    -1.129623390103113E-1    5.237981886822110E-1   -2.632646673996927E-3   -2.313429905581595E-4   -2.661448278614108E-3   -1.858529086279411E-4    5.534886580937455E-2    5.114449214468723E-1
 8.147969254200000E9    -1.116205440702113E-1    5.241880383127027E-1   -2.606008452524401E-3   -2.341746738958944E-4   -2.672017138250406E-3   -1.815583022207737E-4    5.660789991207527E-2    5.112608417694361E-1
 8.147988930150000E9    -1.102807881706562E-1    5.244195196888306E-1   -2.628027186548994E-3   -2.278858663026473E-4   -2.671864437967465E-3   -1.649391679974670E-4    5.797744947469743E-2    5.111410120632878E-1
 8.148008606100000E9    -1.088996500523017E-1    5.247390451814472E-1   -2.607897673950768E-3   -1.996436779514286E-4   -2.646126735391552E-3   -1.618993142259345E-4    5.935283225212795E-2    5.109382479034217E-1
 8.148028282050000E9    -1.075802315000288E-1    5.250772104229389E-1   -2.625853827297373E-3   -1.857770930131329E-4   -2.661441400306025E-3   -1.461510975530881E-4    6.042198561415467E-2    5.107063790671849E-1
 8.148047958000000E9    -1.063300102871039E-1    5.254276895543118E-1   -2.631844384419757E-3   -1.603823188370666E-4   -2.676976929361938E-3   -1.383750144615441E-4    6.178987804023898E-2    5.107566492244783E-1
 8.148067633950000E9    -1.049265549372708E-1    5.256401437610629E-1   -2.602253922167165E-3   -1.878296329842916E-4   -2.633555453242880E-3   -1.066561709996165E-4    6.314738809245826E-2    5.105293953517133E-1
 8.148087309900000E9    -1.036277206857382E-1    5.260739897967797E-1   -2.609290032843087E-3   -1.963696004428846E-4   -2.689809989221629E-3   -1.170230278695034E-4    6.439856647955734E-2    5.102459979894566E-1
 8.148106985850000E9    -1.022511763920480E-1    5.262988813512740E-1   -2.608944415275620E-3   -1.529209722121087E-4   -2.677059904134571E-3   -1.140595351369251E-4    6.548939756238059E-2    5.101705737825833E-1
 8.148126661800000E9    -1.009057214939356E-1    5.265602442194491E-1   -2.618762757613218E-3   -1.723856256204808E-4   -2.663462040233230E-3   -1.068189994966561E-4    6.702276520578550E-2    5.099727747358448E-1
 8.148146337750000E9    -9.950652376547471E-2    5.269284949064383E-1   -2.623687633529775E-3   -1.317708677360735E-4   -2.650459455018868E-3   -1.349597514938842E-4    6.823086881869636E-2    5.097924324653480E-1
 8.148166013700000E9    -9.823777571962036E-2    5.271628243533110E-1   -2.635541783160705E-3   -1.310653122454672E-4   -2.636180409102118E-3   -9.439943332905745E-5    6.949954726794159E-2    5.096379480627056E-1
 8.148185689650000E9    -9.682170919345133E-2    5.275761624895206E-1   -2.654888197090924E-3   -1.368527173895383E-4   -2.653840016693217E-3   -1.187677492924839E-4    7.074236766859741E-2    5.093729412029951E-1
 8.148205365600000E9    -9.552964449106162E-2    5.277985444066376E-1   -2.623607015921300E-3   -1.095935863944017E-4   -2.679549497026274E-3   -9.282793885350308E-5    7.196115140847072E-2    5.092224243323510E-1
 8.148225041550000E9    -9.415345508208821E-2    5.279899095954420E-1   -2.620999500851983E-3   -1.093978334256234E-4   -2.650815549196047E-3   -9.432473033899131E-5    7.321785792587446E-2    5.089523630102299E-1
 8.148244717500000E9    -9.276706536242907E-2    5.283215594631349E-1   -2.630766689652719E-3   -1.101324774874978E-4   -2.634963020681535E-3   -6.545983415536004E-5    7.456641966383452E-2    5.088851554812673E-1
 8.148264393450000E9    -9.147258877113774E-2    5.286040419605036E-1   -2.642439554716314E-3   -9.822475407672213E-5   -2.682040203602058E-3   -7.586044761960827E-5    7.594663058546171E-2    5.084443975017072E-1
 8.148284069400000E9    -9.005848727203028E-2    5.288239795821659E-1   -2.604612025310254E-3   -9.849934894107499E-5   -2.668969855790308E-3   -4.048496738248207E-5    7.712524022376793E-2    5.084217451822699E-1
 8.148303745350000E9    -8.879939062287334E-2    5.290794094116099E-1   -2.625857511191165E-3   -1.018610651203475E-4   -2.664731848504163E-3   -4.437496932141089E-5    7.841617517471984E-2    5.081202428773514E-1
 8.148323421300000E9    -8.743006378150439E-2    5.293953119312846E-1   -2.631126739625236E-3   -1.006495110402474E-4   -2.677510637491845E-3   -2.367643721783353E-5    7.965951454981057E-2    5.079279117531602E-1
 8.148343097250000E9    -8.608351678159856E-2    5.297062617392317E-1   -2.640037934522314E-3   -8.917784858745637E-5   -2.641898049318953E-3   -6.126569697963986E-5    8.107551099231808E-2    5.076628232690653E-1
 8.148362773200000E9    -8.464747058450252E-2    5.298560980202082E-1   -2.615650100993977E-3   -7.995603494624059E-5   -2.664370192394770E-3   -3.756066053115392E-5    8.216177512581505E-2    5.076050398830444E-1
 8.148382449150000E9    -8.332537653655374E-2    5.301062093680279E-1   -2.632348428340187E-3   -6.426257589733602E-5   -2.680932633800682E-3   -3.903060139827188E-5    8.344692498163785E-2    5.071619534196703E-1
 8.148402125100000E9    -8.206880366981924E-2    5.302985526197238E-1   -2.633762168957032E-3   -6.608136221825046E-5   -2.665663053282069E-3   -1.988643673182170E-5    8.480433424574817E-2    5.070410579421024E-1
 8.148421801050000E9    -8.068823288087097E-2    5.305214947568676E-1   -2.641970915440963E-3   -4.019601771603198E-5   -2.652255279105437E-3   -2.488131988918131E-5    8.606060981746691E-2    5.067754896056554E-1
 8.148441477000000E9    -7.942096830934219E-2    5.309668565861252E-1   -2.641245577413632E-3   -3.775409083048441E-5   -2.681016275158110E-3   -1.772647520023421E-5    8.722144950039445E-2    5.064414633263300E-1
 8.148461152950000E9    -7.811603137852678E-2    5.311129650229973E-1   -2.658499704235806E-3   -1.716031428871024E-5   -2.664091715733933E-3    1.343431568162409E-5    8.850165538202270E-2    5.063062586881223E-1
 8.148480828900000E9    -7.654323630301962E-2    5.312570447987016E-1   -2.638434623538845E-3   -5.354140369154993E-5   -2.680799948075315E-3    2.672119247126724E-5    8.969178372745665E-2    5.061047687946635E-1
 8.148500504850000E9    -7.523173709064626E-2    5.315221127153101E-1   -2.642833727816214E-3   -2.229912038083223E-6   -2.676145467305217E-3    4.675183103464775E-5    9.104158323278498E-2    5.058170691037632E-1
 8.148520180800000E9    -7.391404589792615E-2    5.316762195254491E-1   -2.619142160369846E-3   -2.880256426270804E-5   -2.663369872276463E-3    4.001667699238375E-5    9.235690150800603E-2    5.055024858229724E-1
 8.148539856750000E9    -7.251892387747111E-2    5.319820853782113E-1   -2.606856018811379E-3   -1.787988462252640E-5   -2.674684958056828E-3    5.152478490472207E-5    9.364380393561672E-2    5.053034738413121E-1
 8.148559532700000E9    -7.124482743571192E-2    5.321134695955292E-1   -2.629741461086701E-3    3.441681034121446E-6   -2.662311975771956E-3    4.664568357376340E-5    9.487345497823378E-2    5.050340229996985E-1
 8.148579208650000E9    -6.982797601851932E-2    5.323922408336508E-1   -2.646234041267242E-3    2.000328375921618E-5   -2.664054860501330E-3    7.571550927076873E-5    9.605901163277145E-2    5.046921827554645E-1
 8.148598884600000E9    -6.835703215846323E-2    5.326245435241013E-1   -2.630521995047856E-3    2.020746511877260E-5   -2.660305339600216E-3    2.645315517830282E-5    9.727979205457048E-2    5.045168471760600E-1
 8.148618560550000E9    -6.720663668178639E-2    5.328714850075400E-1   -2.638981795397182E-3    1.826506963963283E-5   -2.663770810608192E-3    7.894760201697847E-5    9.863698282859468E-2    5.042758483695842E-1
 8.148638236500000E9    -6.577779071630395E-2    5.331000051665222E-1   -2.646379544492565E-3    5.156217170068032E-6   -2.673414468044809E-3    5.192727316979441E-5    9.980966846470661E-2    5.039852933161098E-1
 8.148657912450000E9    -6.434258109564138E-2    5.331148496329903E-1   -2.609917763086207E-3    1.764013972345046E-5   -2.643220895196057E-3    1.169496760881852E-4    1.011020261913848E-1    5.037842933341206E-1
 8.148677588400000E9    -6.307663079920356E-2    5.334624237114407E-1   -2.641206937660908E-3    5.520821780537097E-6   -2.657460833888002E-3    8.081655221771125E-5    1.022726587897717E-1    5.034809261485410E-1
 8.148697264350000E9    -6.170578478768945E-2    5.335972541381033E-1   -2.664471520041226E-3    3.737476673516155E-5   -2.685261781286234E-3    1.136258998964123E-4    1.035635800104951E-1    5.031548986498847E-1
 8.148716940300000E9    -6.030336029587234E-2    5.339405199734312E-1   -2.620757888445574E-3    3.962049212358018E-5   -2.664902985020857E-3    9.470199634597622E-5    1.047116997647719E-1    5.029446164936151E-1
 8.148736616250000E9    -5.896892915749288E-2    5.340037694431051E-1   -2.623528671701091E-3    7.422471532924657E-5   -2.675138169587281E-3    1.119307517644027E-4    1.061448693068317E-1    5.025866928599453E-1
 8.148756292200000E9    -5.771209765034269E-2    5.342444117509862E-1   -2.636154806235844E-3    4.490040546604788E-5   -2.657822403032120E-3    1.234213485243113E-4    1.073592325694480E-1    5.022037810024527E-1
 8.148775968150000E9    -5.623626173250078E-2    5.344342118829276E-1   -2.642467194435837E-3    8.084100131517935E-5   -2.681832712359529E-3    1.481770403600313E-4    1.085914486271412E-1    5.021182102913004E-1
 8.148795644100000E9    -5.492520366088723E-2    5.345646240460924E-1   -2.657400809342977E-3    7.962063250475364E-5   -2.665401401335296E-3    9.790060067013372E-5    1.098008023538227E-1    5.017754367919203E-1
 8.148815320050000E9    -5.353928891838103E-2    5.347350609332976E-1   -2.615649260248552E-3    6.631688254004672E-5   -2.651641707644703E-3    1.294366429837881E-4    1.111106730091763E-1    5.014808056298931E-1
 8.148834996000000E9    -5.227315515998571E-2    5.348857299368621E-1   -2.626379858684166E-3    1.079047281652031E-4   -2.645811013785424E-3    1.487088487368489E-4    1.123253587410903E-1    5.011655392787858E-1
 8.148854671950000E9    -5.073819190548420E-2    5.350591933732868E-1   -2.630701939573460E-3    6.684623725769677E-5   -2.656065160112331E-3    1.621995949977206E-4    1.134612049448411E-1    5.008072261500337E-1
 8.148874347900000E9    -4.951343054619202E-2    5.353336466063580E-1   -2.640851535877113E-3    1.084204039956690E-4   -2.648227299887191E-3    1.101094215878054E-4    1.148443683346114E-1    5.004650292143566E-1
 8.148894023850000E9    -4.807773405486956E-2    5.353518100061997E-1   -2.643149855461385E-3    1.180231937947947E-4   -2.673932255059365E-3    1.931217349699110E-4    1.160602795230329E-1    5.001731377240851E-1
 8.148913699800000E9    -4.681145242943378E-2    5.354842420203345E-1   -2.611556570831727E-3    1.387651748400625E-4   -2.688543632953441E-3    1.921278902143847E-4    1.173297405929195E-1    4.998346793578204E-1
 8.148933375750000E9    -4.536299183063287E-2    5.356291513766921E-1   -2.636882075350745E-3    1.192272159497270E-4   -2.682050339918740E-3    1.825219952028608E-4    1.185469195038300E-1    4.997162851621022E-1
 8.148953051700000E9    -4.404207173966346E-2    5.359441086097528E-1   -2.609511426468194E-3    1.396632443949885E-4   -2.688688956192938E-3    1.647862255519472E-4    1.197288833324530E-1    4.993378650265364E-1
 8.148972727650000E9    -4.254071676025332E-2    5.359066164494739E-1   -2.640574520058029E-3    1.655720763154838E-4   -2.672124679606157E-3    1.839653718995750E-4    1.210282286782218E-1    4.988802519426702E-1
 8.148992403600000E9    -4.132036494790597E-2    5.360509987342389E-1   -2.629452450264947E-3    1.449963178698391E-4   -2.676511611084815E-3    1.837599746523177E-4    1.223723664555380E-1    4.986450113035892E-1
 8.149012079550000E9    -3.988851031227173E-2    5.362559913831744E-1   -2.632806093089430E-3    1.360414878095859E-4   -2.651336089294184E-3    1.902535414163259E-4    1.234784246035894E-1    4.983260356940634E-1
 8.149031755500000E9    -3.859491460257231E-2    5.363546070214523E-1   -2.626508822618911E-3    1.376360896796504E-4   -2.671718533213919E-3    2.182932177665171E-4    1.248328805677889E-1    4.978206301209026E-1
 8.149051431450000E9    -3.713970735959529E-2    5.364349648114880E-1   -2.632204337666959E-3    1.541221623477815E-4   -2.636575352595715E-3    2.096813036924879E-4    1.258780481923821E-1    4.976123201574610E-1
 8.149071107400000E9    -3.581407410626322E-2    5.367200445610729E-1   -2.621914623389484E-3    1.758971884963703E-4   -2.668306179973007E-3    2.176996538044029E-4    1.272384578911316E-1    4.971448716592623E-1
 8.149090783350000E9    -3.433802247410835E-2    5.368706411339647E-1   -2.635485248536642E-3    1.915109564785193E-4   -2.667610230432956E-3    2.236756054675167E-4    1.284224405503510E-1    4.969485581936448E-1
 8.149110459300000E9    -3.299269019722170E-2    5.369868561785861E-1   -2.630570199982094E-3    1.905349326406226E-4   -2.652442040201214E-3    2.409808627574115E-4    1.298044341828195E-1    4.965863965516531E-1
 8.149130135250000E9    -3.168706682403770E-2    5.370263378423579E-1   -2.608084224521012E-3    1.957692248994042E-4   -2.671334662237424E-3    2.267530850053007E-4    1.310108887213089E-1    4.962597905989410E-1
 8.149149811200000E9    -3.030034737657491E-2    5.371600441232337E-1   -2.634283982609802E-3    1.718384376631335E-4   -2.648994900940671E-3    2.281717797718217E-4    1.322867161487075E-1    4.960686769305631E-1
 8.149169487150000E9    -2.892480262864584E-2    5.372543504664837E-1   -2.632223321479493E-3    2.106148707864566E-4   -2.657023284837117E-3    2.488508458766263E-4    1.333823370186786E-1    4.955056075571237E-1
 8.149189163100000E9    -2.760120183446694E-2    5.374888861174397E-1   -2.610387057785804E-3    2.194144884578744E-4   -2.632738727895409E-3    2.525802915176730E-4    1.346465079121592E-1    4.950683489106724E-1
 8.149208839050000E9    -2.622846464228529E-2    5.374517746794362E-1   -2.624985724787687E-3    2.156311008185583E-4   -2.698761321158885E-3    2.889885804199114E-4    1.359105715986218E-1    4.948272735003370E-1
 8.149228515000000E9    -2.484259600810002E-2    5.375830635605037E-1   -2.655382197597220E-3    2.278552347068481E-4   -2.650896800270069E-3    2.922532044635367E-4    1.372209871642477E-1    4.943793470356664E-1
 8.149248190950000E9    -2.347486452598066E-2    5.376664381162021E-1   -2.623897694782161E-3    2.582288029077493E-4   -2.647890296265627E-3    2.836245902412762E-4    1.383830161662970E-1    4.942134738087473E-1
 8.149267866900000E9    -2.210656603693187E-2    5.377425707606869E-1   -2.651856272866111E-3    2.605345401055906E-4   -2.653791684458077E-3    2.992711086455075E-4    1.393576925356718E-1    4.937461561439410E-1
 8.149287542850000E9    -2.074719808222813E-2    5.379110390142311E-1   -2.610074711122190E-3    2.579650217946994E-4   -2.690271485425444E-3    3.060665480762058E-4    1.407740170129509E-1    4.934201176606394E-1
 8.149307218800000E9    -1.934842035495888E-2    5.379029651886921E-1   -2.620579895824371E-3    2.580491439855879E-4   -2.643597553138771E-3    2.977581648060597E-4    1.420410370433117E-1    4.931058955307077E-1
 8.149326894750000E9    -1.808427637435596E-2    5.379315705121117E-1   -2.618236000878162E-3    2.499999949913587E-4   -2.651492030920141E-3    3.206779678581422E-4    1.433041632751169E-1    4.925386850813849E-1
 8.149346570700000E9    -1.674980521306630E-2    5.380290197688764E-1   -2.650089215121048E-3    2.886188657140890E-4   -2.650635122039623E-3    3.113999573813623E-4    1.444183959602778E-1    4.922006982216240E-1
 8.149366246650000E9    -1.535270048459845E-2    5.381129415976876E-1   -2.630625375258850E-3    2.958799268042905E-4   -2.666205247430515E-3    3.320764515926829E-4    1.456198696049738E-1    4.918761245610282E-1
 8.149385922600000E9    -1.391842251308889E-2    5.381851649971985E-1   -2.612010293407361E-3    2.985442862829586E-4   -2.656922740275990E-3    3.404857896653451E-4    1.469143017276774E-1    4.914952776201461E-1
 8.149405598550000E9    -1.253727222968261E-2    5.382343591360798E-1   -2.617125468837928E-3    2.896166396280832E-4   -2.649675218966550E-3    3.387266985035431E-4    1.481367267845386E-1    4.909862035458668E-1
 8.149425274500000E9    -1.120446244670646E-2    5.382620432208668E-1   -2.593786546383496E-3    3.287932840341198E-4   -2.634689887535115E-3    3.234241594872714E-4    1.493595119951186E-1    4.906893529509048E-1
