#  HZ   S   RI   R     50.00 
! Rohde & Schwarz Vector Network Analyzer 
! Rohde-Schwarz,ZNB20-2Port,1311601062101988,3.16
! Created: UTC 3/21/2024, 1:03:57 AM
! freq[Hz]                re:S11                  im:S11                  re:S21                  im:S21                  re:S12                  im:S12                  re:S22                  im:S22
 8.147835670000000E9    -1.207339474373547E-1    5.219364775149770E-1   -2.619575041090364E-3   -2.253245018867607E-4   -2.680871220905196E-3   -2.027322949327320E-4    4.782026550675097E-2    5.121794542437789E-1
 8.147854523200000E9    -1.194219532128196E-1    5.221520796459186E-1   -2.612717609034005E-3   -2.786624109483329E-4   -2.652913303641844E-3   -1.877549238694963E-4    4.911248782939773E-2    5.119573723104978E-1
 8.147873376400000E9    -1.182338138227623E-1    5.224881405840001E-1   -2.625872109655918E-3   -2.503537825100105E-4   -2.655962515702542E-3   -1.673017393954770E-4    5.036204116383497E-2    5.117888864780590E-1
 8.147892229600000E9    -1.170102226286649E-1    5.228290380046929E-1   -2.636040455621822E-3   -2.577417954203776E-4   -2.685250442598074E-3   -1.839604255403360E-4    5.161665956487371E-2    5.117714060865846E-1
 8.147911082800000E9    -1.156826533447468E-1    5.231720847301291E-1   -2.630517043585543E-3   -2.296913147573241E-4   -2.612647514329189E-3   -1.922152082265015E-4    5.292983011372163E-2    5.116211740973537E-1
 8.147929936000000E9    -1.142681900906333E-1    5.234805211711108E-1   -2.621773400560013E-3   -2.245390531414757E-4   -2.675453481075436E-3   -1.673155257815741E-4    5.407678395957684E-2    5.113325715165340E-1
 8.147948789200000E9    -1.130034018397190E-1    5.238293558029837E-1   -2.595642659691481E-3   -2.437026787970729E-4   -2.678429146431461E-3   -1.645491260202803E-4    5.512702256773251E-2    5.113508368504796E-1
 8.147967642400000E9    -1.117821139131015E-1    5.241665721849027E-1   -2.613214357786420E-3   -2.258454179329638E-4   -2.680309404828409E-3   -1.672686463514761E-4    5.658492260059572E-2    5.111169009033355E-1
 8.147986495600000E9    -1.105340420300830E-1    5.245119049982326E-1   -2.664117242927634E-3   -2.347733901899978E-4   -2.666674378267133E-3   -1.609452782404400E-4    5.774964839329239E-2    5.110027956722043E-1
 8.148005348800000E9    -1.092272221994663E-1    5.247697881843567E-1   -2.619415872030689E-3   -2.092350780097804E-4   -2.665697000551024E-3   -1.671678808335804E-4    5.893090157614814E-2    5.108766699647986E-1
 8.148024202000000E9    -1.079540633647623E-1    5.249966854601118E-1   -2.624288508280154E-3   -1.992561945650859E-4   -2.664379257422965E-3   -1.155338274507472E-4    6.014943264252808E-2    5.106534974745784E-1
 8.148043055200000E9    -1.066771264756660E-1    5.251742227008170E-1   -2.623727069423413E-3   -1.901155199135049E-4   -2.663232327929965E-3   -1.550509113552732E-4    6.130903348865797E-2    5.104216556331322E-1
 8.148061908400000E9    -1.054658128200834E-1    5.255593043181275E-1   -2.629749935822978E-3   -1.898064518874375E-4   -2.661532858186680E-3   -1.379507242190183E-4    6.263536089863703E-2    5.103262085298879E-1
 8.148080761600000E9    -1.040580866208532E-1    5.257978011429003E-1   -2.637009111417246E-3   -1.717386864294884E-4   -2.681820000497161E-3   -1.292184390783846E-4    6.387905121951622E-2    5.102953270939958E-1
 8.148099614800000E9    -1.027774316246040E-1    5.261502553945347E-1   -2.634142524512003E-3   -1.821325063661793E-4   -2.660681480404472E-3   -1.231027973423850E-4    6.495897143893074E-2    5.099427895721168E-1
 8.148118468000000E9    -1.015555992702750E-1    5.264318486689369E-1   -2.648372205580445E-3   -1.348300122461365E-4   -2.650806395092391E-3   -1.266341941836852E-4    6.634202089755079E-2    5.098108145973973E-1
 8.148137321200000E9    -1.002707319100019E-1    5.267447421013677E-1   -2.627177900077452E-3   -1.238874585442309E-4   -2.664542122118728E-3   -8.363249558880162E-5    6.757735788699594E-2    5.095561735638919E-1
 8.148156174400000E9    -9.895076930480375E-2    5.270855186241556E-1   -2.627899476030855E-3   -1.606272060262731E-4   -2.661246986566327E-3   -1.060897453656107E-4    6.873119579825215E-2    5.094801141941097E-1
 8.148175027600000E9    -9.766478043612935E-2    5.272063340232185E-1   -2.633780757090599E-3   -1.243406620960319E-4   -2.648928816346168E-3   -1.185072810602768E-4    6.984547652996026E-2    5.092974558062081E-1
 8.148193880800000E9    -9.628230791148391E-2    5.275093330126969E-1   -2.605556105580093E-3   -1.299101108721040E-4   -2.682875628817808E-3   -9.195589542653261E-5    7.117957289989446E-2    5.089838883853940E-1
 8.148212734000000E9    -9.518478923875834E-2    5.278318940993098E-1   -2.639937301585455E-3   -1.491111936580411E-4   -2.644913322754539E-3   -1.079315733997441E-4    7.247134654107974E-2    5.088372632828944E-1
 8.148231587200000E9    -9.373440998746778E-2    5.279919962584367E-1   -2.611935893050919E-3   -1.099974062388052E-4   -2.670734949130545E-3   -5.302516378856032E-5    7.367957213653120E-2    5.086598239216408E-1
 8.148250440400000E9    -9.259893975522522E-2    5.283828634977026E-1   -2.625494213910990E-3   -1.149587365736617E-4   -2.693659451903494E-3   -6.529741418841124E-5    7.486845615814812E-2    5.084729355986617E-1
 8.148269293600000E9    -9.125369025000860E-2    5.286275675950285E-1   -2.650457408676915E-3   -1.037946686582310E-4   -2.699911430478894E-3   -6.532029759462924E-5    7.603400224024762E-2    5.082814548565500E-1
 8.148288146800000E9    -8.993907610848470E-2    5.288984333048447E-1   -2.637975661406434E-3   -1.015982110951365E-4   -2.676639462214560E-3   -6.390695888803742E-5    7.731690539354509E-2    5.081826410522214E-1
 8.148307000000000E9    -8.868476377756403E-2    5.291918720708361E-1   -2.604564590381824E-3   -1.188739419069739E-4   -2.652974277902934E-3   -5.908764270405753E-5    7.841621915673175E-2    5.078867695133418E-1
 8.148325853200000E9    -8.723619833533802E-2    5.293428590330096E-1   -2.651604837619522E-3   -7.928561521546368E-5   -2.693485614599484E-3   -6.479143862935273E-5    7.971638673339541E-2    5.075894711582092E-1
 8.148344706400000E9    -8.611707213896269E-2    5.295912736289897E-1   -2.622206419712893E-3   -8.118969627619802E-5   -2.698327824758396E-3   -1.567697595453768E-5    8.089870541644593E-2    5.075704064381781E-1
 8.148363559600000E9    -8.470927698913480E-2    5.299953392774961E-1   -2.626658872687304E-3   -9.445338306514483E-5   -2.666621151735151E-3   -3.419197746972452E-5    8.219744778713339E-2    5.071436391987318E-1
 8.148382412800000E9    -8.343763059317499E-2    5.300707052926968E-1   -2.601832457288763E-3   -7.666246220432782E-5   -2.711364792406397E-3    3.693316864348191E-6    8.323340284271577E-2    5.070396144916277E-1
 8.148401266000000E9    -8.213173473058542E-2    5.303773399928856E-1   -2.642329182747016E-3   -5.179431218285361E-5   -2.642463543394832E-3   -2.430045291240393E-5    8.453020337615284E-2    5.068072137292757E-1
 8.148420119200000E9    -8.090484168749010E-2    5.305922620063154E-1   -2.629236673341652E-3   -7.480146949122361E-5   -2.676029589368174E-3   -2.283367051945506E-5    8.585594963930446E-2    5.065597637674797E-1
 8.148438972400000E9    -7.956340617838281E-2    5.307650885809183E-1   -2.608170009680713E-3   -4.264766656258617E-5   -2.662629643638563E-3    7.876646770426885E-6    8.704547824062706E-2    5.063335212455202E-1
 8.148457825600000E9    -7.838458346764107E-2    5.309559587831125E-1   -2.641465058662927E-3   -3.337050140730682E-5   -2.662860076363989E-3   -7.295742047604526E-6    8.821127727184760E-2    5.059949029682018E-1
 8.148476678800000E9    -7.699457763110634E-2    5.313316899963693E-1   -2.655096544698048E-3   -3.498993140119908E-5   -2.636957035432529E-3   -2.488974876122366E-6    8.943885987250758E-2    5.060016458531571E-1
 8.148495532000000E9    -7.567766673423920E-2    5.314958319466757E-1   -2.614845810881949E-3   -5.692169785019603E-5   -2.680879928107235E-3    2.161461572628422E-5    9.053784366919751E-2    5.056461872231809E-1
 8.148514385200000E9    -7.444873520828106E-2    5.316344423876098E-1   -2.656151613666164E-3   -2.589513273774340E-5   -2.693326185355926E-3    4.053358486155906E-5    9.179311842327255E-2    5.053987232463510E-1
 8.148533238400000E9    -7.314760981827838E-2    5.319606411061996E-1   -2.633840574487950E-3   -2.918644366529038E-5   -2.642522350219328E-3    2.843946130068168E-5    9.300382963037516E-2    5.052861660559855E-1
 8.148552091600000E9    -7.180524593697331E-2    5.321487685016802E-1   -2.629781873617186E-3   -1.872957216180842E-5   -2.653889635099801E-3    4.124300870773471E-5    9.430829086122723E-2    5.050023407185752E-1
 8.148570944800000E9    -7.049163000371871E-2    5.322489066227279E-1   -2.631038009613718E-3   -1.634332125265488E-5   -2.679316044479762E-3    4.787735689692240E-5    9.544788543497619E-2    5.047406250137207E-1
 8.148589798000000E9    -6.927742653655999E-2    5.324190689230096E-1   -2.625031036162902E-3    4.278876594800823E-6   -2.642267499711156E-3    5.129062137009791E-5    9.659486306397430E-2    5.044304748953110E-1
 8.148608651200000E9    -6.799562860093952E-2    5.326555999978523E-1   -2.617728638259379E-3    2.454322286819611E-5   -2.683607650113683E-3    6.223547365966743E-5    9.784232812388977E-2    5.041877473263348E-1
 8.148627504400000E9    -6.651880879070478E-2    5.329870650938344E-1   -2.619497659467942E-3    1.632285377016493E-5   -2.661180902100144E-3    5.247363418965731E-5    9.919766945194931E-2    5.038958154495926E-1
 8.148646357600000E9    -6.534165457549269E-2    5.331142840065940E-1   -2.626717335896886E-3    1.954612759504389E-5   -2.644919442440110E-3    7.855410033079620E-5    1.002587759409452E-1    5.036421761285981E-1
 8.148665210800000E9    -6.399503527613384E-2    5.333858159159508E-1   -2.620111523366352E-3    3.701962318092640E-5   -2.670669973110426E-3    8.168905388401515E-5    1.014664838398409E-1    5.033996477127970E-1
 8.148684064000000E9    -6.270235701816507E-2    5.334422559690113E-1   -2.630088414301812E-3    2.833965949422626E-5   -2.670909357204146E-3    8.681054732465267E-5    1.026272992293778E-1    5.032749516044460E-1
 8.148702917200000E9    -6.136602423681421E-2    5.337325610613298E-1   -2.621680336493666E-3    2.784112101563829E-5   -2.659055978429194E-3    8.261605519921177E-5    1.039133635021767E-1    5.029755199345276E-1
 8.148721770400000E9    -5.999352544657335E-2    5.337868535685396E-1   -2.636598744097195E-3    4.503352682413867E-5   -2.679953363683355E-3    1.179568596041275E-4    1.050800734616159E-1    5.025787149899882E-1
 8.148740623600000E9    -5.873907978672570E-2    5.341252950282799E-1   -2.624511448455465E-3    7.656167944896369E-5   -2.676619848515077E-3    1.241153898150423E-4    1.063345314964310E-1    5.024160243470005E-1
 8.148759476800000E9    -5.756852936648339E-2    5.341695606842973E-1   -2.629834292296556E-3    5.984923291382134E-5   -2.649493918914286E-3    1.151488761421390E-4    1.075536124750301E-1    5.021933777975174E-1
 8.148778330000000E9    -5.625842163949519E-2    5.344721108373209E-1   -2.617344166599351E-3    8.259324854823161E-5   -2.688189344752717E-3    1.014461097379035E-4    1.087257006298420E-1    5.017811310720246E-1
 8.148797183200000E9    -5.490504906121392E-2    5.344382269831344E-1   -2.620405133509076E-3    8.353233261875357E-5   -2.650792158512103E-3    1.287430868548607E-4    1.098681622467718E-1    5.015066036328087E-1
 8.148816036400000E9    -5.357910579034120E-2    5.347710277350610E-1   -2.639507644757825E-3    4.267298151656986E-5   -2.648043133135851E-3    1.514186078427293E-4    1.108766786351955E-1    5.013073386530733E-1
 8.148834889600000E9    -5.220897295254968E-2    5.348376990119000E-1   -2.628466857312378E-3    8.129540834891585E-5   -2.667163530359862E-3    1.808870329500843E-4    1.123324404636448E-1    5.010998712401934E-1
 8.148853742800000E9    -5.093664933754418E-2    5.349726872156101E-1   -2.620490016878194E-3    9.155703056317236E-5   -2.668198461904520E-3    1.515857052009649E-4    1.133784515000202E-1    5.007436015209555E-1
 8.148872596000000E9    -4.962526184495702E-2    5.352557485436537E-1   -2.620744516845324E-3    1.233354402999013E-4   -2.693052113016741E-3    1.688354579110508E-4    1.146231833155448E-1    5.003754890905978E-1
 8.148891449200000E9    -4.838839006631957E-2    5.353686659814063E-1   -2.621394228755589E-3    1.117235913213729E-4   -2.670455253158234E-3    1.478779258877221E-4    1.159377049942805E-1    5.000959960855322E-1
 8.148910302400000E9    -4.715641113507869E-2    5.355268868814553E-1   -2.634688949944723E-3    1.154212131475888E-4   -2.663679780338381E-3    1.652331304628926E-4    1.170800236459727E-1    4.996557335586626E-1
 8.148929155600000E9    -4.568776647578117E-2    5.357355880416994E-1   -2.631005539127901E-3    1.323471423504882E-4   -2.672505668316851E-3    1.489235889512722E-4    1.183783451225716E-1    4.992916414666064E-1
 8.148948008800000E9    -4.437678760790804E-2    5.358100288855688E-1   -2.634101339406821E-3    1.116209270410545E-4   -2.656366707338556E-3    1.890990019500211E-4    1.194057922074968E-1    4.992919519373126E-1
 8.148966862000000E9    -4.298850230338726E-2    5.359569114316808E-1   -2.615007167155728E-3    1.530618289256779E-4   -2.676422586638318E-3    1.782330275142017E-4    1.206259263631565E-1    4.988133580227481E-1
 8.148985715200000E9    -4.175765183254333E-2    5.361367218699725E-1   -2.641999745556939E-3    1.526576079356317E-4   -2.643785546599260E-3    1.736863592386551E-4    1.217857990381692E-1    4.984783204866127E-1
 8.149004568400000E9    -4.049290702501368E-2    5.363084960149883E-1   -2.637785952749442E-3    1.678475507553522E-4   -2.679377501688178E-3    1.807923900582103E-4    1.230307911641502E-1    4.983226297301526E-1
 8.149023421600000E9    -3.928838342135987E-2    5.362667901718203E-1   -2.630188623046980E-3    1.725680790145079E-4   -2.667974831171454E-3    2.087020876818815E-4    1.242545773374381E-1    4.978956350575061E-1
 8.149042274800000E9    -3.779376914045878E-2    5.365245704243107E-1   -2.639029910509778E-3    1.305330652050109E-4   -2.652598360816106E-3    2.136705188907098E-4    1.254706004216931E-1    4.975186933945512E-1
 8.149061128000000E9    -3.652887276456451E-2    5.364932500220039E-1   -2.640567118631488E-3    1.754574764473659E-4   -2.656005044739848E-3    2.104267263211863E-4    1.265375019492195E-1    4.973329677881178E-1
 8.149079981200000E9    -3.531424807878841E-2    5.366367012403965E-1   -2.626922922067519E-3    1.893179320039375E-4   -2.623762307465757E-3    2.271663981345876E-4    1.277733141870456E-1    4.969946157412986E-1
 8.149098834400000E9    -3.396508422341352E-2    5.368728230016975E-1   -2.606583549799170E-3    1.829865375129732E-4   -2.639879861625537E-3    2.466372383574602E-4    1.289060630084178E-1    4.965637074965049E-1
 8.149117687600000E9    -3.259131713977147E-2    5.368898741119928E-1   -2.617321715006578E-3    1.862978432440181E-4   -2.677711763697456E-3    2.261781927028899E-4    1.301015938119063E-1    4.963635348909328E-1
 8.149136540800000E9    -3.139775947502182E-2    5.370482578060793E-1   -2.650910201589884E-3    1.780612069027018E-4   -2.668772434491178E-3    2.551456764501668E-4    1.311618714070969E-1    4.958627401804327E-1
 8.149155394000000E9    -3.003776332094155E-2    5.372093896939678E-1   -2.617028369423110E-3    1.897607190081090E-4   -2.658973249721487E-3    2.503584100987909E-4    1.325396014778658E-1    4.956071579021211E-1
 8.149174247200000E9    -2.861877827953036E-2    5.373925874647831E-1   -2.616759420244332E-3    2.055171315142066E-4   -2.620922650485829E-3    2.284650628294033E-4    1.336157844631052E-1    4.952663674375932E-1
 8.149193100400000E9    -2.740564614837229E-2    5.374128211571252E-1   -2.630543999673600E-3    2.239660587569163E-4   -2.672012772433718E-3    2.510513670363050E-4    1.348665905057655E-1    4.950333460143460E-1
 8.149211953600000E9    -2.604990428752309E-2    5.375158331125768E-1   -2.625122111785822E-3    2.210313832830901E-4   -2.651674494616789E-3    2.864329002524754E-4    1.360241452754649E-1    4.945695037141631E-1
 8.149230806800000E9    -2.478931615920230E-2    5.374914035405354E-1   -2.624461200323760E-3    2.605421884293421E-4   -2.630873836419138E-3    2.683929122570783E-4    1.372691649630936E-1    4.942692533646777E-1
 8.149249660000000E9    -2.336570096070343E-2    5.376170982603033E-1   -2.631803077546198E-3    2.135431518104541E-4   -2.648356568674470E-3    3.129110622491951E-4    1.382702912692916E-1    4.938020970096582E-1
 8.149268513200000E9    -2.214039864594633E-2    5.377663797774652E-1   -2.608007512190640E-3    2.701704232824169E-4   -2.654115382134711E-3    3.099919748393132E-4    1.394886995971395E-1    4.936204132225149E-1
 8.149287366400000E9    -2.082825258848576E-2    5.377499501817694E-1   -2.639015986738083E-3    2.403196578428279E-4   -2.655371739460479E-3    2.881093219595615E-4    1.406326449127012E-1    4.931025105903709E-1
 8.149306219600000E9    -1.958637155477843E-2    5.379004788566163E-1   -2.622253843268670E-3    2.612202489920491E-4   -2.634824405948732E-3    3.251136196092562E-4    1.419134150150896E-1    4.928038150470729E-1
 8.149325072800000E9    -1.830519248315478E-2    5.379366367371389E-1   -2.630182737926290E-3    2.491068074603059E-4   -2.669194389997051E-3    3.301607179296693E-4    1.429801173873659E-1    4.923439177464347E-1
 8.149343926000000E9    -1.682672063684850E-2    5.379746552316270E-1   -2.621853016927152E-3    2.696581480482100E-4   -2.645452342833882E-3    3.272329829639214E-4    1.441643892730285E-1    4.920622983916367E-1
 8.149362779200000E9    -1.567878012903805E-2    5.381751311384899E-1   -2.620261410722645E-3    2.773754380462979E-4   -2.645662365653504E-3    3.054584405673602E-4    1.454226389464831E-1    4.917071822258222E-1
 8.149381632400000E9    -1.425342642857965E-2    5.381384300589428E-1   -2.639946625328051E-3    2.982797457337954E-4   -2.649635137699436E-3    3.393853385429390E-4    1.465056029398042E-1    4.913866880871017E-1
 8.149400485600000E9    -1.299502352576109E-2    5.383074968445470E-1   -2.613382479161532E-3    2.893396896196025E-4   -2.662896075139834E-3    3.347384682005893E-4    1.477045927595851E-1    4.910003699425297E-1
 8.149419338800000E9    -1.165256671544082E-2    5.384089814831811E-1   -2.647632865694082E-3    3.041384344397471E-4   -2.659008738008070E-3    3.320585321865070E-4    1.487536003822407E-1    4.906856629491129E-1
 8.149438192000000E9    -1.034459955275210E-2    5.383881395107271E-1   -2.664496621184308E-3    3.025455784137318E-4   -2.658700225574453E-3    3.946248355232216E-4    1.499677497334299E-1    4.902433123004785E-1
 8.149457045200000E9    -9.024407464422509E-3    5.384295835971020E-1   -2.623512010752167E-3    3.019749014162619E-4   -2.650591657710572E-3    3.682278561783473E-4    1.511963471149227E-1    4.899842125920664E-1
 8.149475898400000E9    -7.721189703502250E-3    5.384729403693772E-1   -2.611090346791834E-3    3.222410373070676E-4   -2.626381966200538E-3    3.527069334743611E-4    1.523482663005820E-1    4.894885312501939E-1
 8.149494751600000E9    -6.381598811937687E-3    5.385998495630089E-1   -2.603628856235728E-3    3.394982606708403E-4   -2.661325082970381E-3    3.758902975671354E-4    1.535854950355221E-1    4.891714859064983E-1
 8.149513604800000E9    -5.125041062144417E-3    5.385760118419536E-1   -2.609609440272942E-3    3.417025688930038E-4   -2.635354036219444E-3    3.930130383887962E-4    1.547802403289780E-1    4.887332972740345E-1
 8.149532458000000E9    -3.842906544492708E-3    5.387653967478989E-1   -2.648034418061595E-3    3.604030371378290E-4   -2.632652943511572E-3    3.957953262265352E-4    1.558500346965659E-1    4.882898293144504E-1
