#  HZ   S   RI   R     50.00 
! Rohde & Schwarz Vector Network Analyzer 
! Rohde-Schwarz,ZNB20-2Port,1311601062101988,3.16
! Created: UTC 3/21/2024, 1:04:04 AM
! freq[Hz]                re:S11                  im:S11                  re:S21                  im:S21                  re:S12                  im:S12                  re:S22                  im:S22
 8.147828780000000E9    -1.213962207095484E-1    5.216701772688139E-1   -2.612200353128668E-3   -2.686005777360411E-4   -2.700217244984667E-3   -2.028386284922670E-4    4.751469015109733E-2    5.118856863639843E-1
 8.147847673250000E9    -1.201356238402383E-1    5.220938786948950E-1   -2.608658838306562E-3   -2.719987199904614E-4   -2.675712108739304E-3   -2.186242498701902E-4    4.860608506097534E-2    5.119214880527347E-1
 8.147866566500000E9    -1.188441309338831E-1    5.224808952221530E-1   -2.574633324875013E-3   -2.436900319053650E-4   -2.667502962240827E-3   -1.564420504599884E-4    4.994636883686392E-2    5.117635027842322E-1
 8.147885459750000E9    -1.174847970361676E-1    5.226898697536010E-1   -2.635556658233721E-3   -2.474605143805385E-4   -2.674416648713559E-3   -1.897059489265022E-4    5.119775591499153E-2    5.115762203094869E-1
 8.147904353000000E9    -1.162063555626784E-1    5.229982370703383E-1   -2.613557955354164E-3   -2.620352455176347E-4   -2.671085271090346E-3   -1.647385001507214E-4    5.237242691340172E-2    5.114530651058715E-1
 8.147923246250000E9    -1.150022302321456E-1    5.232705726169617E-1   -2.605188995728104E-3   -2.268844058358564E-4   -2.690025568056871E-3   -2.176123164426006E-4    5.356198605261831E-2    5.112930049491656E-1
 8.147942139500000E9    -1.135822997715319E-1    5.236174027844555E-1   -2.636650790483387E-3   -2.224664443072979E-4   -2.680495705459216E-3   -1.784247245797777E-4    5.483719130743838E-2    5.111385294006282E-1
 8.147961032750000E9    -1.123725462102025E-1    5.239527002476326E-1   -2.589283745329261E-3   -2.389288418944637E-4   -2.663327256406919E-3   -1.772075900898285E-4    5.590839012477643E-2    5.108665733118173E-1
 8.147979926000000E9    -1.110507827313433E-1    5.243720879307360E-1   -2.617291961483444E-3   -2.255886698760333E-4   -2.684952386307317E-3   -1.684180508810980E-4    5.719353815862666E-2    5.107801802461390E-1
 8.147998819250000E9    -1.099245510022764E-1    5.245450203538822E-1   -2.606985155517430E-3   -1.977460565007819E-4   -2.678583350960681E-3   -1.485265280658120E-4    5.842499779746984E-2    5.108480371361909E-1
 8.148017712500000E9    -1.084548702096775E-1    5.248576903411399E-1   -2.646754798706571E-3   -1.901749999935499E-4   -2.654084789449252E-3   -1.701232680286528E-4    5.963535798717921E-2    5.104115153749450E-1
 8.148036605750000E9    -1.070795225582971E-1    5.252395456048050E-1   -2.636821893661494E-3   -1.883808667274223E-4   -2.667721889162141E-3   -1.662874000538209E-4    6.099785033182262E-2    5.104072728184147E-1
 8.148055499000000E9    -1.058618775548953E-1    5.254304450854833E-1   -2.598652621432601E-3   -1.716874568322474E-4   -2.686297239762022E-3   -1.364073493874183E-4    6.226494802988121E-2    5.101236647358368E-1
 8.148074392250000E9    -1.046064659131836E-1    5.257042861675297E-1   -2.636798600068364E-3   -1.776670555203299E-4   -2.662420428594068E-3   -1.477550615492624E-4    6.319849778146602E-2    5.099723629588983E-1
 8.148093285500000E9    -1.032807433024105E-1    5.260161874460796E-1   -2.592556099756266E-3   -1.765139494577433E-4   -2.676153604907943E-3   -1.378044950682237E-4    6.466610881302573E-2    5.098265672900411E-1
 8.148112178750000E9    -1.020782891327098E-1    5.262840840404028E-1   -2.609494707114848E-3   -1.631036492494209E-4   -2.671429812187938E-3   -1.116392905639099E-4    6.586641273296040E-2    5.095913183999718E-1
 8.148131072000000E9    -1.007432237496146E-1    5.265614791688142E-1   -2.646126687450372E-3   -1.555714172284818E-4   -2.703134590522089E-3   -1.153009606040094E-4    6.699720920042826E-2    5.094408942179863E-1
 8.148149965250000E9    -9.945615110786409E-2    5.269073823457411E-1   -2.596191334733518E-3   -1.593755760225237E-4   -2.677986098056142E-3   -1.104495451105484E-4    6.833937499071856E-2    5.093131432310011E-1
 8.148168858500000E9    -9.806400080024381E-2    5.270674913982020E-1   -2.642100228255322E-3   -1.705887862718427E-4   -2.670607613343471E-3   -9.178846823422668E-5    6.940260394873297E-2    5.091259633023362E-1
 8.148187751750000E9    -9.684904131220588E-2    5.274210735421705E-1   -2.631008182617476E-3   -1.277070700156348E-4   -2.698995166190874E-3   -5.033158647118158E-5    7.070636954322053E-2    5.088637118689761E-1
 8.148206645000000E9    -9.549086091213001E-2    5.276866998529287E-1   -2.617782854034122E-3   -1.236184411086372E-4   -2.688361861292162E-3   -7.252229094758689E-5    7.193129527682814E-2    5.088564981942405E-1
 8.148225538250000E9    -9.426131379455172E-2    5.279558631843491E-1   -2.656924027385304E-3   -1.233481532925786E-4   -2.677589310505077E-3   -7.388007868682626E-5    7.311039856443888E-2    5.084819374362768E-1
 8.148244431500000E9    -9.287273266939648E-2    5.282803631004455E-1   -2.610972294317412E-3   -1.034982185413213E-4   -2.669672855201342E-3   -6.830123886202033E-5    7.424753114491037E-2    5.082528636716346E-1
 8.148263324750000E9    -9.156837083495289E-2    5.283784066471472E-1   -2.636842239343882E-3   -1.317638157087483E-4   -2.676743591966535E-3   -7.055930057745534E-5    7.556539605744195E-2    5.080509715254294E-1
 8.148282218000000E9    -9.035633182965563E-2    5.287178921678460E-1   -2.629071825863233E-3   -9.528842729243265E-5   -2.667457934981308E-3   -6.375327541782273E-5    7.660610245242283E-2    5.078465526557242E-1
 8.148301111250000E9    -8.915284030564302E-2    5.289019094400921E-1   -2.648193719049219E-3   -1.121365320701528E-4   -2.686473065382570E-3   -4.729064064163150E-5    7.804868469165996E-2    5.077830706587249E-1
 8.148320004500000E9    -8.772124025883964E-2    5.291141604042566E-1   -2.649245243116820E-3   -7.882608258960199E-5   -2.657744064953652E-3   -4.685392585811278E-5    7.915486696167963E-2    5.075246788131584E-1
 8.148338897750000E9    -8.647908152926936E-2    5.295144608225715E-1   -2.630036582443374E-3   -9.816160001444366E-5   -2.666361529865881E-3   -2.855623252483777E-5    8.059434443189292E-2    5.072984710237324E-1
 8.148357791000000E9    -8.520692822899392E-2    5.298407365711123E-1   -2.627403330738749E-3   -7.005736037769246E-5   -2.674216731247815E-3   -3.103046365989947E-5    8.165176209860968E-2    5.070907833081328E-1
 8.148376684250000E9    -8.389228998684693E-2    5.300479304954587E-1   -2.621662554608730E-3   -6.622538533097280E-5   -2.684424021510973E-3   -2.624304711657754E-5    8.294581522860230E-2    5.069203179651712E-1
 8.148395577500000E9    -8.255149796810857E-2    5.303116377349130E-1   -2.642881044061145E-3   -5.968560310642490E-5   -2.666901852470775E-3   -2.960434070356274E-5    8.421349833359001E-2    5.065825412148979E-1
 8.148414470750000E9    -8.137945914978939E-2    5.303543144587718E-1   -2.645109812613372E-3   -6.453341279806935E-5   -2.652733056044900E-3   -2.951578248518086E-5    8.545408534105643E-2    5.063477992523507E-1
 8.148433364000000E9    -8.005152693994130E-2    5.306324259697540E-1   -2.631040909366931E-3   -7.657966426663489E-5   -2.699289757646355E-3   -6.164556839097344E-6    8.648148204366082E-2    5.060782194730599E-1
 8.148452257250000E9    -7.863730631315485E-2    5.309266384645832E-1   -2.652641773217347E-3   -4.401219355289874E-5   -2.641905419964058E-3   -7.037989730535333E-6    8.764530869090600E-2    5.060955385050028E-1
 8.148471150500000E9    -7.741001491807843E-2    5.311582833215097E-1   -2.627899283016585E-3   -3.992071309886251E-5   -2.661977311588423E-3    1.613451039152431E-7    8.896364297756122E-2    5.057263792100074E-1
 8.148490043750000E9    -7.612331292763230E-2    5.313715697563270E-1   -2.605285911758340E-3   -1.796097762255905E-5   -2.631710539536261E-3    7.992055895738237E-6    9.011269333206520E-2    5.056058534373007E-1
 8.148508937000000E9    -7.489837717300360E-2    5.315769235778331E-1   -2.632764517624904E-3   -1.419460004744103E-5   -2.668904482333599E-3    8.780496075718753E-6    9.138737231984889E-2    5.054905109315991E-1
 8.148527830250000E9    -7.348417300870784E-2    5.317212529345373E-1   -2.632337161769654E-3   -4.951792789973059E-6   -2.668992213765613E-3    4.401127130592573E-5    9.255344051730718E-2    5.049802122061050E-1
 8.148546723500000E9    -7.216864971452013E-2    5.321301064629603E-1   -2.605243247842208E-3   -1.852719192412672E-5   -2.687517736630519E-3    3.327638588140067E-5    9.382317559244228E-2    5.047851078476483E-1
 8.148565616750000E9    -7.071920046998827E-2    5.322927209609136E-1   -2.635153346408110E-3   -2.075344392817244E-5   -2.678650795942980E-3    2.741051136860240E-5    9.487801067038630E-2    5.046009525180754E-1
 8.148584510000000E9    -6.961429913325809E-2    5.324534753891124E-1   -2.635105832614150E-3    1.238153750800795E-5   -2.665353861494634E-3    7.973740267714105E-5    9.624055408436948E-2    5.041953090616208E-1
 8.148603403250000E9    -6.828053218948357E-2    5.325113282600622E-1   -2.638830906315366E-3    4.348341036457384E-6   -2.660182491752037E-3    6.192308787769476E-5    9.730335519070969E-2    5.040352091763205E-1
 8.148622296500000E9    -6.697793682256943E-2    5.328533352066910E-1   -2.637421978152323E-3    6.525089560363643E-6   -2.644655250526962E-3    5.375662205799086E-5    9.858960567917059E-2    5.037527354554547E-1
 8.148641189750000E9    -6.575284971669171E-2    5.330675860988823E-1   -2.596483468746583E-3    1.335083129408150E-5   -2.671778145019546E-3    5.151827752837503E-5    9.978698862222546E-2    5.034585377856676E-1
 8.148660083000000E9    -6.454666505340696E-2    5.331472574308684E-1   -2.632031011414733E-3    3.581595475603447E-5   -2.680814654843565E-3    1.166427396683829E-4    1.010289691839344E-1    5.032642600798857E-1
 8.148678976250000E9    -6.307702599945131E-2    5.334156257545909E-1   -2.642085406872263E-3    3.008785828486255E-5   -2.637275644811818E-3    9.675057703413242E-5    1.022923504668348E-1    5.030105775792619E-1
 8.148697869500000E9    -6.184524114755138E-2    5.334612729762185E-1   -2.656561230579038E-3    2.487955541577750E-5   -2.663627176663516E-3    7.039526731176106E-5    1.035026299110070E-1    5.025567195851282E-1
 8.148716762750000E9    -6.053684191752640E-2    5.337572740172816E-1   -2.619651600407774E-3    4.588787204111581E-5   -2.670962600427808E-3    1.026216613056445E-4    1.046055899180613E-1    5.024990839597370E-1
 8.148735656000000E9    -5.912173935008511E-2    5.338906962358021E-1   -2.647955804561133E-3    3.346193897407885E-5   -2.669103830006025E-3    8.642299247035876E-5    1.057931095875186E-1    5.021080667569515E-1
 8.148754549250000E9    -5.784461567850684E-2    5.340878455442135E-1   -2.631758479070369E-3    4.394774922209322E-5   -2.680440412819211E-3    1.504364825537196E-4    1.070032126976766E-1    5.018302743862283E-1
 8.148773442500000E9    -5.662228286163413E-2    5.343033684189443E-1   -2.629371607574434E-3    5.224178253226923E-5   -2.669028924640097E-3    1.068662442371427E-4    1.080465238633392E-1    5.016221004016448E-1
 8.148792335750000E9    -5.529930811234246E-2    5.343792490920894E-1   -2.653500074656381E-3    8.091320975927918E-5   -2.643348516833895E-3    1.370317833187750E-4    1.094583001649342E-1    5.013092798213997E-1
 8.148811229000000E9    -5.402602590175345E-2    5.346128006226385E-1   -2.624884318232132E-3    7.035909911947812E-5   -2.658157576296176E-3    9.933646255358677E-5    1.106704529387276E-1    5.010165630437072E-1
 8.148830122250000E9    -5.256806228509424E-2    5.349058299259828E-1   -2.652178323136677E-3    5.682057911451695E-5   -2.662170224628389E-3    1.122249502580662E-4    1.119896666445529E-1    5.006708918999937E-1
 8.148849015500000E9    -5.135515566107803E-2    5.349489350079860E-1   -2.624943765393302E-3    7.230642513021599E-5   -2.671795203307656E-3    1.508996458219079E-4    1.132444447869293E-1    5.004041081274055E-1
 8.148867908750000E9    -4.999817991829169E-2    5.350301495186294E-1   -2.647028612767957E-3    9.202151358938843E-5   -2.681839737311787E-3    1.524958190419382E-4    1.142300322358392E-1    5.001610848033673E-1
 8.148886802000000E9    -4.868526095328942E-2    5.351998962632614E-1   -2.636142180805775E-3    9.105384402470134E-5   -2.653773322250216E-3    1.661148969661892E-4    1.154735925809923E-1    4.998188737222540E-1
 8.148905695250000E9    -4.736039540464092E-2    5.354597267036165E-1   -2.624405093024473E-3    1.019371753222285E-4   -2.648467102630809E-3    1.800074160373991E-4    1.166606944715705E-1    4.994510559792012E-1
 8.148924588500000E9    -4.615698457540857E-2    5.355462678788470E-1   -2.633090434286611E-3    1.294856230159144E-4   -2.671799580344629E-3    1.806974695250023E-4    1.177133752646006E-1    4.992403639708888E-1
 8.148943481750000E9    -4.477216084651311E-2    5.357080624168539E-1   -2.617764174163205E-3    1.246285061614708E-4   -2.644691744579420E-3    1.931981898504429E-4    1.190302181104919E-1    4.990128074384135E-1
 8.148962375000000E9    -4.353891445267555E-2    5.356929689856101E-1   -2.635235724494098E-3    1.214340717191118E-4   -2.656878301753683E-3    2.194654826051733E-4    1.201608088510732E-1    4.986420136180183E-1
 8.148981268250000E9    -4.227462284154102E-2    5.359041146421197E-1   -2.622140293206648E-3    1.519475511604927E-4   -2.639832602411541E-3    2.064580265053502E-4    1.213812167141878E-1    4.981957697707748E-1
 8.149000161500000E9    -4.096147026808481E-2    5.360784042848025E-1   -2.629172468843060E-3    1.485975960173983E-4   -2.647289209213301E-3    2.144269891269853E-4    1.224877395541706E-1    4.979966129500414E-1
 8.149019054750000E9    -3.967484012164598E-2    5.361974016822603E-1   -2.657308098852046E-3    1.575066991846081E-4   -2.656309733322619E-3    2.185493525008846E-4    1.237036491481098E-1    4.976648700133214E-1
 8.149037948000000E9    -3.819586529550289E-2    5.362972699490544E-1   -2.622369860195584E-3    1.601354424292490E-4   -2.651367758968828E-3    2.203387645815203E-4    1.250203174393838E-1    4.974365801348865E-1
 8.149056841250000E9    -3.700107744169796E-2    5.365132937665864E-1   -2.622752286140943E-3    1.832486656316247E-4   -2.686491743448170E-3    2.136920856802462E-4    1.262016168240847E-1    4.970292709857992E-1
 8.149075734500000E9    -3.562330353215192E-2    5.365462780867766E-1   -2.635399066540553E-3    1.859331360695156E-4   -2.642760279128941E-3    2.143116025827578E-4    1.272750847106902E-1    4.967637931973420E-1
 8.149094627750000E9    -3.437156980201439E-2    5.367249062628633E-1   -2.624474837338442E-3    1.933021173906447E-4   -2.634858642204566E-3    2.372566754876038E-4    1.285821594194309E-1    4.964144018290496E-1
 8.149113521000000E9    -3.304983818468410E-2    5.368344111652308E-1   -2.636591691212850E-3    1.998861964046085E-4   -2.647457915627627E-3    2.463334452605862E-4    1.296759419538570E-1    4.962558212567478E-1
 8.149132414250000E9    -3.161915254427175E-2    5.369050553624157E-1   -2.623662140882649E-3    2.110200361200553E-4   -2.626812644432280E-3    2.304911227418310E-4    1.308042028382981E-1    4.957903296776369E-1
 8.149151307500000E9    -3.031293416594050E-2    5.369841832917918E-1   -2.644148754222207E-3    1.969045272206449E-4   -2.663586339919889E-3    2.758020802058010E-4    1.320304635235081E-1    4.954687049642217E-1
 8.149170200750000E9    -2.909080332333571E-2    5.370996893115250E-1   -2.628992499153192E-3    2.215123051050800E-4   -2.651842564592877E-3    2.848730180673329E-4    1.332402260306058E-1    4.950926968404759E-1
 8.149189094000000E9    -2.772287355789017E-2    5.371750749873641E-1   -2.639889790396834E-3    2.351371217926680E-4   -2.646228746237835E-3    2.637243503462927E-4    1.343699642694297E-1    4.947759688705459E-1
 8.149207987250000E9    -2.637924108793864E-2    5.374371195054880E-1   -2.624759183798855E-3    2.591655863697313E-4   -2.669578221913495E-3    2.954677380595192E-4    1.356368079270187E-1    4.944028849667606E-1
 8.149226880500000E9    -2.514171291675008E-2    5.374667458799826E-1   -2.637914527897291E-3    2.300806565071029E-4   -2.644410384576739E-3    2.857222935482511E-4    1.368507416530520E-1    4.941981448033737E-1
 8.149245773750000E9    -2.372425591564301E-2    5.375548756534980E-1   -2.616725637366488E-3    2.194896895722262E-4   -2.660331556916661E-3    3.259418010425206E-4    1.379489319650669E-1    4.938067856663241E-1
 8.149264667000000E9    -2.249061064835991E-2    5.376924985182231E-1   -2.636099184355567E-3    2.523541298835184E-4   -2.632479593161045E-3    2.835352269945179E-4    1.391243063854853E-1    4.933774543863116E-1
 8.149283560250000E9    -2.119366082670177E-2    5.378651203220139E-1   -2.621425732978441E-3    2.436580144653343E-4   -2.654163959328506E-3    2.991768581096803E-4    1.403059119725645E-1    4.929225484946415E-1
 8.149302453500000E9    -1.986618823645838E-2    5.378842008339242E-1   -2.620849888337453E-3    2.636194662114717E-4   -2.628379203834742E-3    3.058605530379384E-4    1.415747505434509E-1    4.927700538924994E-1
 8.149321346750000E9    -1.854969045476280E-2    5.379575449960035E-1   -2.644241535254381E-3    2.676962982304149E-4   -2.640125768942972E-3    3.308660026119495E-4    1.425816200826405E-1    4.922941920656049E-1
 8.149340240000000E9    -1.731709269882136E-2    5.380057738238129E-1   -2.606884869561508E-3    2.444371717137166E-4   -2.666816246960731E-3    3.612355589025930E-4    1.439121700527620E-1    4.919029235039373E-1
 8.149359133250000E9    -1.602071493822676E-2    5.380357440638200E-1   -2.619297524680246E-3    2.784602091043676E-4   -2.635383529424525E-3    3.209926888878363E-4    1.449588458896094E-1    4.915548818926364E-1
 8.149378026500000E9    -1.456928309059365E-2    5.380970326919083E-1   -2.602442581491747E-3    2.964244622924325E-4   -2.677491779730445E-3    3.669917818094306E-4    1.463098304811528E-1    4.911069487546481E-1
 8.149396919750000E9    -1.331550926675500E-2    5.381095111832882E-1   -2.638128430171813E-3    2.926041085446202E-4   -2.636890381310238E-3    3.291745823039072E-4    1.473828757537982E-1    4.908192659381977E-1
 8.149415813000000E9    -1.197286567864145E-2    5.383450698684360E-1   -2.622735398545674E-3    2.964911596158053E-4   -2.640358324685689E-3    3.403099803753575E-4    1.486069206541039E-1    4.904526305592558E-1
 8.149434706250000E9    -1.067624067992430E-2    5.383051286304952E-1   -2.625880449939577E-3    2.984335491295867E-4   -2.646050156410492E-3    3.425550985937964E-4    1.497675691499907E-1    4.900462788752658E-1
 8.149453599500000E9    -9.499261137319833E-3    5.384522867167379E-1   -2.609834096723356E-3    3.190449498129579E-4   -2.611258839703875E-3    3.718471217478644E-4    1.508272608713409E-1    4.896896093423710E-1
 8.149472492750000E9    -8.117970989273492E-3    5.385601643281835E-1   -2.625607023100970E-3    2.933151298718832E-4   -2.660351520684204E-3    3.806153461575909E-4    1.519023730430961E-1    4.893209996597029E-1
 8.149491386000000E9    -6.786575244143096E-3    5.384541565034202E-1   -2.628210049779249E-3    3.257401429135981E-4   -2.631481252888752E-3    3.953950742464585E-4    1.532207609369892E-1    4.887809607864961E-1
 8.149510279250000E9    -5.489434109996603E-3    5.385481349123558E-1   -2.621096436302359E-3    3.560578235624383E-4   -2.672993052741338E-3    4.019309045501211E-4    1.543764296435884E-1    4.885368522202168E-1
 8.149529172500000E9    -4.095853571246250E-3    5.385528313494515E-1   -2.609925814405619E-3    3.400922377480389E-4   -2.651338437470518E-3    3.930279605941609E-4    1.556042634541160E-1    4.880519721541126E-1
