#  HZ   S   RI   R     50.00 
! Rohde & Schwarz Vector Network Analyzer 
! Rohde-Schwarz,ZNB20-2Port,1311601062101988,3.16
! Created: UTC 3/21/2024, 1:04:26 AM
! freq[Hz]                re:S11                  im:S11                  re:S21                  im:S21                  re:S12                  im:S12                  re:S22                  im:S22
 8.147449496000000E9    -1.470266449961753E-1    5.143143406074552E-1   -2.597694180584947E-3   -4.086886308477017E-4   -2.659151719667599E-3   -3.219389482315572E-4    2.205260415593257E-2    5.133332842767666E-1
 8.147470123450000E9    -1.455834513267634E-1    5.146124796401919E-1   -2.583055569796130E-3   -3.716652158389246E-4   -2.685085260593161E-3   -3.400449587140202E-4    2.352491436863274E-2    5.133180576009108E-1
 8.147490750900000E9    -1.441706803386438E-1    5.151172657128669E-1   -2.611444942418763E-3   -3.635711019874431E-4   -2.662124419465342E-3   -3.482294222236915E-4    2.478678346312141E-2    5.131940059849259E-1
 8.147511378350000E9    -1.427889374271351E-1    5.155384840506029E-1   -2.633428018247276E-3   -3.828420064845291E-4   -2.680280062799423E-3   -3.363920343570356E-4    2.616088170706443E-2    5.131932308183960E-1
 8.147532005800000E9    -1.414495298285444E-1    5.159683635756471E-1   -2.602343745383115E-3   -3.896657094505878E-4   -2.705824045069063E-3   -3.173526476662129E-4    2.756449385106764E-2    5.131494802802902E-1
 8.147552633250000E9    -1.400302682672684E-1    5.164108642077475E-1   -2.595565601487453E-3   -3.562358991794557E-4   -2.670851348723134E-3   -3.170909218974665E-4    2.889999363656270E-2    5.129894440962101E-1
 8.147573260700000E9    -1.386227979798557E-1    5.169559051477455E-1   -2.590484456381189E-3   -3.531065984491428E-4   -2.661826466643895E-3   -3.106202861559452E-4    3.012035791118522E-2    5.127429273360840E-1
 8.147593888150000E9    -1.372101391040286E-1    5.172476870981235E-1   -2.650352913137191E-3   -3.629369563169221E-4   -2.653581823477376E-3   -2.791440986379613E-4    3.147137987006940E-2    5.125859030772761E-1
 8.147614515600000E9    -1.358540074645341E-1    5.177208527446217E-1   -2.612943342451739E-3   -3.584456101957786E-4   -2.686387768219136E-3   -2.887056373581768E-4    3.278792118167527E-2    5.126742876135890E-1
 8.147635143050000E9    -1.344689300748791E-1    5.180327797668806E-1   -2.614979777685877E-3   -3.305648634526059E-4   -2.632550038624127E-3   -2.949087452931208E-4    3.428704020073264E-2    5.125683174077994E-1
 8.147655770500000E9    -1.329825156442669E-1    5.184651699413743E-1   -2.626524504266339E-3   -3.269559398963424E-4   -2.668106576424535E-3   -2.578500088325439E-4    3.562036732239415E-2    5.123733528483416E-1
 8.147676397950000E9    -1.317507379380662E-1    5.188073120173972E-1   -2.601775843718849E-3   -3.183844596328044E-4   -2.670245610873344E-3   -2.788859585719555E-4    3.680029009460003E-2    5.122989653544399E-1
 8.147697025400000E9    -1.303222974324629E-1    5.191324443363708E-1   -2.607590582716209E-3   -2.851293112944526E-4   -2.646579992977538E-3   -2.341879771317061E-4    3.817991332339791E-2    5.120946092566149E-1
 8.147717652850000E9    -1.289747028553512E-1    5.196029198997628E-1   -2.606086717258924E-3   -2.961887478002199E-4   -2.677796759452577E-3   -2.195830010976291E-4    3.960178916939269E-2    5.120961498986333E-1
 8.147738280300000E9    -1.274801957806913E-1    5.201433685621270E-1   -2.593684396636255E-3   -2.967615093786304E-4   -2.665197041355650E-3   -2.762603398380370E-4    4.105863839813849E-2    5.119603278858172E-1
 8.147758907750000E9    -1.260942219925588E-1    5.203370986480824E-1   -2.630924144075786E-3   -2.933118174495371E-4   -2.680679795889042E-3   -2.078521999449715E-4    4.244265982884185E-2    5.117799116618263E-1
 8.147779535200000E9    -1.248390891517688E-1    5.207340719428672E-1   -2.596970635025100E-3   -2.678960975477963E-4   -2.656642780835186E-3   -2.361815064121561E-4    4.364041736964815E-2    5.116371842981710E-1
 8.147800162650000E9    -1.232982126786345E-1    5.210738321945712E-1   -2.639812448895138E-3   -2.555259887162317E-4   -2.639775384516604E-3   -2.047176192788349E-4    4.503174347937894E-2    5.116081361590770E-1
 8.147820790100000E9    -1.219192030187928E-1    5.214385521176452E-1   -2.581388452045616E-3   -2.748574393430959E-4   -2.685245002723617E-3   -2.127196650094527E-4    4.629877991110728E-2    5.113195325421807E-1
 8.147841417550000E9    -1.205827701902239E-1    5.217624988717379E-1   -2.594836080459751E-3   -2.521023372857883E-4   -2.661827693907899E-3   -2.188636527547946E-4    4.773926788211389E-2    5.113103873948285E-1
 8.147862045000000E9    -1.191294552115866E-1    5.221848424252852E-1   -2.610071808076199E-3   -2.567290798910775E-4   -2.658291870634853E-3   -2.456432608034099E-4    4.910034958610430E-2    5.111123565293462E-1
 8.147882672450000E9    -1.177311971815901E-1    5.224449662829282E-1   -2.639401931668364E-3   -2.712078441030034E-4   -2.665870327871953E-3   -1.950256921704148E-4    5.046290523922915E-2    5.109172693769369E-1
 8.147903299900000E9    -1.164150842284237E-1    5.228032939231767E-1   -2.643214004962525E-3   -2.654583797192910E-4   -2.657231644147984E-3   -1.952142816592906E-4    5.168229481705755E-2    5.107722764344295E-1
 8.147923927350000E9    -1.149691864856017E-1    5.231861425370026E-1   -2.626415796387259E-3   -2.297402327773703E-4   -2.658473865454583E-3   -1.946660246847093E-4    5.319734679302204E-2    5.105860300124516E-1
 8.147944554800000E9    -1.133259173410272E-1    5.236354330960329E-1   -2.616356846749832E-3   -2.524719186887875E-4   -2.633887680499167E-3   -2.001133122765094E-4    5.446176632261825E-2    5.105452237133649E-1
 8.147965182250000E9    -1.121768726786873E-1    5.239173899850229E-1   -2.608420681782324E-3   -2.000726424881642E-4   -2.648852957140491E-3   -1.298086311648501E-4    5.568337941505495E-2    5.102511343015486E-1
 8.147985809700000E9    -1.107045388791061E-1    5.242404574662075E-1   -2.613907463621397E-3   -2.366317523604277E-4   -2.668866566052618E-3   -1.719718396866941E-4    5.702183923652852E-2    5.100206995467187E-1
 8.148006437150000E9    -1.093890501837470E-1    5.246249554216038E-1   -2.634052191070632E-3   -2.228839597519427E-4   -2.682412306282074E-3   -1.427183760041445E-4    5.839529654103605E-2    5.099492211101470E-1
 8.148027064600000E9    -1.079682001475365E-1    5.249344119400798E-1   -2.628205009576729E-3   -1.867174597957738E-4   -2.660435821744376E-3   -8.471656879112403E-5    5.966016385487148E-2    5.098227312115425E-1
 8.148047692050000E9    -1.064712082244445E-1    5.253149859621969E-1   -2.638714863494658E-3   -1.635413911926494E-4   -2.657284238313358E-3   -1.251934285704294E-4    6.125733135945818E-2    5.096299878803630E-1
 8.148068319500000E9    -1.050840223743257E-1    5.255205156869143E-1   -2.625879828308360E-3   -2.077419297779293E-4   -2.679846132377186E-3   -1.351557820772893E-4    6.251718463925292E-2    5.092791931372086E-1
 8.148088946950000E9    -1.037631240902936E-1    5.259836640779828E-1   -2.645068030446724E-3   -1.644869931139406E-4   -2.656708631797777E-3   -1.135042482968619E-4    6.381642493242916E-2    5.092486335131896E-1
 8.148109574400000E9    -1.023583591434965E-1    5.262853262609805E-1   -2.601369995808023E-3   -1.788795106786972E-4   -2.677014244832963E-3   -1.118839037354462E-4    6.511907889163657E-2    5.090030924637072E-1
 8.148130201850000E9    -1.009414372465925E-1    5.265307711981336E-1   -2.620538596879681E-3   -1.774755508004733E-4   -2.652888385026829E-3   -1.261207405622410E-4    6.652658167438717E-2    5.088552157975741E-1
 8.148150829300000E9    -9.940682767487374E-2    5.268002290594669E-1   -2.620972980006549E-3   -1.679456715847844E-4   -2.640032274804942E-3   -1.102123447461701E-4    6.786231665462891E-2    5.085862104572574E-1
 8.148171456750000E9    -9.821270458627081E-2    5.270547802622276E-1   -2.612699015608325E-3   -1.444739997996007E-4   -2.659989467544605E-3   -9.211935074882787E-5    6.911410547734317E-2    5.083866957230874E-1
 8.148192084200000E9    -9.669217345482019E-2    5.274979099750223E-1   -2.598450526147635E-3   -1.248248741736158E-4   -2.660016203386662E-3   -8.360484339351886E-5    7.049846364471014E-2    5.082912185060812E-1
 8.148212711650000E9    -9.523657309758750E-2    5.277315635222135E-1   -2.629152384708280E-3   -1.180440691604403E-4   -2.674084552823858E-3   -8.780951540992783E-5    7.172807202744731E-2    5.079901022430542E-1
 8.148233339100000E9    -9.387013005458146E-2    5.279821601910500E-1   -2.639400178335523E-3   -1.206643507791001E-4   -2.653391027111865E-3   -6.284422908459526E-5    7.312548742005980E-2    5.078743823347196E-1
 8.148253966550000E9    -9.240515180560378E-2    5.281774040975070E-1   -2.609513031074201E-3   -1.146059895354919E-4   -2.673856787625987E-3   -5.563058298208312E-5    7.439868797156829E-2    5.075649617289058E-1
 8.148274594000000E9    -9.101405052651641E-2    5.286407636765205E-1   -2.616712545891353E-3   -1.085054589991458E-4   -2.671425226459315E-3   -4.169232742746136E-5    7.581831566844685E-2    5.072834192128914E-1
 8.148295221450000E9    -8.961516775924262E-2    5.287420646399550E-1   -2.653447146492541E-3   -7.972377554466009E-5   -2.661798935642780E-3   -6.403371011942813E-5    7.702205025170571E-2    5.070498315918774E-1
 8.148315848900000E9    -8.824585892204226E-2    5.291243034703536E-1   -2.610764464343843E-3   -8.894233515719879E-5   -2.682119955745003E-3   -6.082455959714519E-5    7.837481628715433E-2    5.068522892321532E-1
 8.148336476350000E9    -8.676104465844671E-2    5.294511082678631E-1   -2.638744113743144E-3   -7.413717446726996E-5   -2.668768317540310E-3   -4.620317150576953E-5    7.987231736674259E-2    5.067250451998846E-1
 8.148357103800000E9    -8.543694338143032E-2    5.296688430832687E-1   -2.623140890263641E-3   -9.220200994175573E-5   -2.661381078928157E-3   -3.810178858817277E-5    8.114653366048329E-2    5.064394912127526E-1
 8.148377731250000E9    -8.399351479063438E-2    5.298728150246718E-1   -2.618850742200926E-3   -7.501093584750453E-5   -2.638567225704017E-3   -2.208375424398641E-5    8.237460765396103E-2    5.062092703723496E-1
 8.148398358700000E9    -8.260715690177149E-2    5.301056511574239E-1   -2.613449483333284E-3   -5.659105980734179E-5   -2.678089938132597E-3   -1.371781598875918E-5    8.370140055864832E-2    5.059239730449320E-1
 8.148418986150000E9    -8.114930330930539E-2    5.303695841958010E-1   -2.658336104486480E-3   -6.069226123304096E-5   -2.665164954495624E-3    1.235549201274369E-5    8.493280323213076E-2    5.056728644432488E-1
 8.148439613600000E9    -7.970740685065397E-2    5.308489437442303E-1   -2.624133358662367E-3   -4.831294742171193E-5   -2.661270093885638E-3   -1.697463764237575E-5    8.636666756036902E-2    5.054958105529561E-1
 8.148460241050000E9    -7.837059649261385E-2    5.309671052011972E-1   -2.629049298981627E-3   -2.151003380280223E-5   -2.713151556775123E-3    2.630791048961576E-5    8.778115081478419E-2    5.052064102849946E-1
 8.148480868500000E9    -7.701305415353507E-2    5.312279619619246E-1   -2.643094333763395E-3   -2.675934735069112E-5   -2.685641504954624E-3    2.148448677941012E-5    8.913807279183361E-2    5.049608670842329E-1
 8.148501495950000E9    -7.550155735862318E-2    5.313948409505976E-1   -2.621589309412712E-3   -1.908930026630867E-5   -2.676759424652180E-3    2.428152231782457E-5    9.040736685877943E-2    5.046695801979033E-1
 8.148522123400000E9    -7.401960180977293E-2    5.316336934029710E-1   -2.639516908107580E-3   -1.842163354242660E-5   -2.666564375473543E-3    6.291656850701188E-6    9.166924541191353E-2    5.044215804994515E-1
 8.148542750850000E9    -7.251712669747545E-2    5.317976564886697E-1   -2.635006641535544E-3   -7.775242116666508E-6   -2.687605863077115E-3    3.800716600510293E-5    9.291046263608954E-2    5.041766630041197E-1
 8.148563378300000E9    -7.120469123496652E-2    5.321303410385437E-1   -2.657681734169566E-3    8.620270732896481E-6   -2.659303072592490E-3    4.378819749286150E-5    9.431043121549600E-2    5.039103273706220E-1
 8.148584005750000E9    -6.967660033413887E-2    5.323877668176611E-1   -2.628177993968248E-3    2.501605981297822E-5   -2.659918519474292E-3    7.157406625303161E-5    9.571933635625313E-2    5.036987461733307E-1
 8.148604633200000E9    -6.834702889952893E-2    5.326692490884223E-1   -2.649740260715756E-3   -1.295610925439310E-6   -2.670804350598287E-3    3.423577633035568E-5    9.694892651418766E-2    5.034067743559117E-1
 8.148625260650000E9    -6.704450300193504E-2    5.327700442043022E-1   -2.636372873653162E-3    1.751626501775562E-5   -2.668032549449469E-3    7.673931170597182E-5    9.824897220521911E-2    5.031879169181874E-1
 8.148645888100000E9    -6.549753803483807E-2    5.328949816194088E-1   -2.643444971884652E-3    5.315134924662165E-5   -2.673585629924893E-3    6.015103942205164E-5    9.961723797449294E-2    5.027351614974774E-1
 8.148666515550000E9    -6.419203706619996E-2    5.331630177113788E-1   -2.631650101068110E-3    3.074976566770969E-5   -2.672579241674888E-3    7.393527851383586E-5    1.008191559733236E-1    5.026304542983753E-1
 8.148687143000000E9    -6.254981195177212E-2    5.333434605195965E-1   -2.652366324227931E-3    4.184734360595743E-5   -2.649681628622675E-3    7.742184569327161E-5    1.022579381233963E-1    5.022307904976385E-1
 8.148707770450000E9    -6.130397168102476E-2    5.335430736378104E-1   -2.621913716845092E-3    3.805729903734325E-5   -2.683700617529848E-3    1.141674854687233E-4    1.034332609815133E-1    5.020126201866310E-1
 8.148728397900000E9    -5.980244780424413E-2    5.338347593014648E-1   -2.634152919053398E-3    4.361291950333684E-5   -2.652233797021267E-3    1.094314555649775E-4    1.048021781940903E-1    5.015824923612197E-1
 8.148749025350000E9    -5.848502346627042E-2    5.340844162909191E-1   -2.640188136758571E-3    5.872250817998616E-5   -2.677054214445617E-3    1.121427015671925E-4    1.061192351081818E-1    5.013198524937295E-1
 8.148769652800000E9    -5.698926341350247E-2    5.342795516883098E-1   -2.626137358658024E-3    6.860467567692002E-5   -2.655581413472255E-3    1.203120444254127E-4    1.074524363021136E-1    5.010570613190314E-1
 8.148790280250000E9    -5.558298953654792E-2    5.343404627119089E-1   -2.642575117834377E-3    6.910572695716387E-5   -2.670437021644735E-3    1.041086002094434E-4    1.088199938053398E-1    5.006413571901613E-1
 8.148810907700000E9    -5.411543640557036E-2    5.346147809810783E-1   -2.621982335540840E-3    8.698117591540636E-5   -2.687500321172030E-3    1.419823107428180E-4    1.099436222866869E-1    5.004708451139137E-1
 8.148831535150000E9    -5.269643871611876E-2    5.348131406977918E-1   -2.647562422023722E-3    1.002306767756364E-4   -2.641931473393445E-3    1.460869441055709E-4    1.112890525447722E-1    5.000549179654710E-1
 8.148852162600000E9    -5.125464690561328E-2    5.349642331001142E-1   -2.637091657136312E-3    1.005414088134154E-4   -2.658814875348654E-3    1.665855548264775E-4    1.126093259086908E-1    4.996892776788448E-1
 8.148872790050000E9    -4.977368410343963E-2    5.350829448629614E-1   -2.618468084631530E-3    1.093289734899800E-4   -2.643494480648581E-3    1.658655551183060E-4    1.140056675962062E-1    4.995291601451051E-1
 8.148893417500000E9    -4.840983887493480E-2    5.352619753699721E-1   -2.617800567376458E-3    8.829680022089165E-5   -2.674979168387164E-3    2.003645209452599E-4    1.153515704036440E-1    4.991253400216656E-1
 8.148914044950000E9    -4.696991498998254E-2    5.354513261170155E-1   -2.651286620813573E-3    1.264617424767487E-4   -2.661689753879470E-3    1.608052901707074E-4    1.166449244781771E-1    4.987399043888427E-1
 8.148934672400000E9    -4.569563095006579E-2    5.354815026169080E-1   -2.621645413881489E-3    1.500533088618303E-4   -2.650517657603569E-3    1.659761503853579E-4    1.179444441168567E-1    4.984452596767212E-1
 8.148955299850000E9    -4.420581962697134E-2    5.357306358564822E-1   -2.642166508743789E-3    1.270929293689590E-4   -2.682965328238600E-3    2.153718552461709E-4    1.191919712063861E-1    4.981629574601112E-1
 8.148975927300000E9    -4.268638645102582E-2    5.358681563943744E-1   -2.617703519646743E-3    1.444642036103015E-4   -2.653450257143482E-3    1.570998498336687E-4    1.204013046531598E-1    4.976864284363215E-1
 8.148996554750000E9    -4.136349162897489E-2    5.360664008142094E-1   -2.618875684407730E-3    1.474474149032125E-4   -2.648096994191087E-3    1.963430129719458E-4    1.218175062325107E-1    4.975992023923215E-1
 8.149017182200000E9    -3.984809511799672E-2    5.361993878854682E-1   -2.633782632812713E-3    1.542786730683825E-4   -2.651896174501530E-3    2.157073056710044E-4    1.231277164215729E-1    4.971486653729967E-1
 8.149037809650000E9    -3.838317922028595E-2    5.363252610383773E-1   -2.613113844324345E-3    1.450077527320758E-4   -2.658348061278506E-3    2.104904947647003E-4    1.244136216217666E-1    4.967758279309148E-1
 8.149058437100000E9    -3.701919469168445E-2    5.363885949910546E-1   -2.643734115183967E-3    1.505126123316421E-4   -2.656255868978669E-3    2.066599539461302E-4    1.256411272752847E-1    4.964287940966211E-1
 8.149079064550000E9    -3.558379309385502E-2    5.366100357179729E-1   -2.646706198310955E-3    1.706040793857348E-4   -2.667247119597919E-3    2.586902330207695E-4    1.269846694011855E-1    4.959776286237940E-1
 8.149099692000000E9    -3.408687754138957E-2    5.366866650471925E-1   -2.652170496936090E-3    1.877595636486907E-4   -2.648592873179133E-3    2.477850769051272E-4    1.281835899877114E-1    4.957566952567515E-1
 8.149120319450000E9    -3.268945294770889E-2    5.367846931699369E-1   -2.622993442830969E-3    1.837348889592677E-4   -2.663861438173804E-3    2.512253466858213E-4    1.293816101530118E-1    4.953811759366488E-1
 8.149140946900000E9    -3.132787080663125E-2    5.370314103703112E-1   -2.642592742792450E-3    1.979045102922296E-4   -2.611285923971241E-3    2.760210952730203E-4    1.308231146860064E-1    4.948884720878240E-1
 8.149161574350000E9    -2.980396082528208E-2    5.371400198741302E-1   -2.634733811560142E-3    2.107899608634186E-4   -2.669199360719049E-3    2.627259723453616E-4    1.321224361934542E-1    4.946710056267258E-1
 8.149182201800000E9    -2.840483251377211E-2    5.371709030561193E-1   -2.638098328352891E-3    2.134358145679737E-4   -2.643227917020913E-3    2.503709368091306E-4    1.333312484391284E-1    4.943108361905154E-1
 8.149202829250000E9    -2.692622431889460E-2    5.373045665771915E-1   -2.633780423997876E-3    2.162996209847820E-4   -2.657741507033505E-3    2.595548787813471E-4    1.345348265471518E-1    4.939516002770897E-1
 8.149223456700000E9    -2.549457203354414E-2    5.373721584771296E-1   -2.606129074369552E-3    2.253660148578494E-4   -2.645785029134346E-3    2.774314837132144E-4    1.360190972482610E-1    4.935865315579077E-1
 8.149244084150000E9    -2.412432761632260E-2    5.375015648261822E-1   -2.631390098024934E-3    2.428066591786825E-4   -2.615612150159367E-3    3.211694588736074E-4    1.373055771002633E-1    4.931135322136471E-1
 8.149264711600000E9    -2.263874858238683E-2    5.375680015614780E-1   -2.638119252771757E-3    2.513449198898664E-4   -2.668116363955691E-3    2.782994430251529E-4    1.384681056188027E-1    4.928270123302767E-1
 8.149285339050000E9    -2.124205954093975E-2    5.376582033523538E-1   -2.645033480914024E-3    2.613153571046231E-4   -2.679841749782308E-3    3.268587274126683E-4    1.399067392952156E-1    4.922589924150940E-1
 8.149305966500000E9    -1.978288332538924E-2    5.378568940073005E-1   -2.610742960562452E-3    2.544984033301160E-4   -2.647485272157191E-3    3.114728435638762E-4    1.411684680626982E-1    4.919966251061325E-1
