#  HZ   S   RI   R     50.00 
! Rohde & Schwarz Vector Network Analyzer 
! Rohde-Schwarz,ZNB20-2Port,1311601062101988,3.16
! Created: UTC 3/21/2024, 1:05:06 AM
! freq[Hz]                re:S11                  im:S11                  re:S21                  im:S21                  re:S12                  im:S12                  re:S22                  im:S22
 8.147204505000000E9    -1.633541229727363E-1    5.086697347561129E-1   -2.576336926545420E-3   -4.834152323346666E-4   -2.648202054170463E-3   -4.200799218315554E-4    4.469741186702158E-3    5.133040659602478E-1
 8.147226275250000E9    -1.619418568461741E-1    5.091946515047625E-1   -2.630007399806226E-3   -4.784505423607242E-4   -2.629907418574955E-3   -4.377929540981805E-4    5.803854134446275E-3    5.133437879158315E-1
 8.147248045500000E9    -1.605450099155489E-1    5.096135307813403E-1   -2.606825312360501E-3   -4.706435474481929E-4   -2.625642584125149E-3   -4.142752824058481E-4    7.226929364750053E-3    5.133983264566372E-1
 8.147269815750000E9    -1.590484731170413E-1    5.101490012981924E-1   -2.575321394498806E-3   -4.511229278543954E-4   -2.655421819184262E-3   -4.312799991908316E-4    8.616160891589014E-3    5.132294082278062E-1
 8.147291586000000E9    -1.574766671903745E-1    5.105422490446507E-1   -2.588840965889013E-3   -4.613875061328059E-4   -2.652003952811570E-3   -3.945516368679110E-4    1.020001829044482E-2    5.131269948256395E-1
 8.147313356250000E9    -1.561955793501480E-1    5.112583393585856E-1   -2.593336431786933E-3   -4.629233138013422E-4   -2.655526197270218E-3   -4.000133153434626E-4    1.151190269563038E-2    5.131429093821714E-1
 8.147335126500000E9    -1.546904557953893E-1    5.116343088580165E-1   -2.569146613013083E-3   -4.518187016670580E-4   -2.635072318335579E-3   -3.859214564125855E-4    1.293941298949205E-2    5.132068689130334E-1
 8.147356896750000E9    -1.531834309616876E-1    5.120471274853786E-1   -2.579059066772527E-3   -4.182827368331495E-4   -2.632303196582217E-3   -3.768929362976310E-4    1.448793518170760E-2    5.129593846027397E-1
 8.147378667000000E9    -1.518100026463284E-1    5.127177850013015E-1   -2.591750420973917E-3   -4.259483117871277E-4   -2.654179059933974E-3   -3.916842957866601E-4    1.574938272682907E-2    5.128575834190218E-1
 8.147400437250000E9    -1.503391058931112E-1    5.131045564986536E-1   -2.587502508353192E-3   -4.062348935047229E-4   -2.614602183836884E-3   -3.614593959210203E-4    1.723954813171304E-2    5.129169913291431E-1
 8.147422207500000E9    -1.489079461799949E-1    5.135878919449915E-1   -2.605708972917464E-3   -4.060037964497393E-4   -2.649122808126498E-3   -3.601842190907311E-4    1.873293668218373E-2    5.127230711156117E-1
 8.147443977750000E9    -1.473873323260556E-1    5.140391413866551E-1   -2.607432101109003E-3   -4.072811243464491E-4   -2.642072902635175E-3   -3.466469984426721E-4    2.006310964570014E-2    5.126882688952096E-1
 8.147465748000000E9    -1.460631184268196E-1    5.144806001313331E-1   -2.606976291928422E-3   -3.899356928258157E-4   -2.667361448443013E-3   -3.317165113059438E-4    2.155688216116948E-2    5.127241057294715E-1
 8.147487518250000E9    -1.444827557329879E-1    5.149495548870096E-1   -2.592014566434549E-3   -3.919467108873564E-4   -2.665133066827917E-3   -3.624081346894810E-4    2.301067290621370E-2    5.127470656903744E-1
 8.147509288500000E9    -1.431699818815753E-1    5.153936482888023E-1   -2.605459851714364E-3   -3.744473745669509E-4   -2.641700498950817E-3   -3.192731314189612E-4    2.444771767846376E-2    5.124839027361492E-1
 8.147531058750000E9    -1.417422421850994E-1    5.158167204393487E-1   -2.593542444874948E-3   -3.621401293933310E-4   -2.638931789199851E-3   -3.365410984342969E-4    2.571894838838506E-2    5.124229683674093E-1
 8.147552829000000E9    -1.401668696782803E-1    5.162428240277208E-1   -2.602201286365381E-3   -3.590419557527796E-4   -2.673461876581232E-3   -3.280556296928791E-4    2.718505648207870E-2    5.122417737282272E-1
 8.147574599250000E9    -1.386918773910082E-1    5.166778148608464E-1   -2.614777481230611E-3   -3.333972778684230E-4   -2.643675219346205E-3   -2.987605407663027E-4    2.858535686162675E-2    5.121882151743626E-1
 8.147596369500000E9    -1.371725764138230E-1    5.171600291717020E-1   -2.615640876299541E-3   -3.336593129252717E-4   -2.659757063975448E-3   -3.222368453753201E-4    3.000546152475374E-2    5.121830520663861E-1
 8.147618139750000E9    -1.357897135608800E-1    5.176462016045276E-1   -2.625823484215021E-3   -3.645159993045700E-4   -2.618188013853754E-3   -2.880483562939959E-4    3.138860809248800E-2    5.120723198139082E-1
 8.147639910000000E9    -1.342543323747577E-1    5.180962192421300E-1   -2.584314490263848E-3   -3.314490692042895E-4   -2.649484689518470E-3   -3.058616251420092E-4    3.287399171420444E-2    5.117415811620505E-1
 8.147661680250000E9    -1.327819836344352E-1    5.184026648410591E-1   -2.613263671495719E-3   -3.253033236577335E-4   -2.659731306409363E-3   -2.958995163569672E-4    3.447852895508940E-2    5.117650121732992E-1
 8.147683450500000E9    -1.314173586173171E-1    5.187607000568735E-1   -2.622404579893519E-3   -2.936404879705442E-4   -2.633209912323173E-3   -2.441867729814367E-4    3.566314752931698E-2    5.115455603239464E-1
 8.147705220750000E9    -1.299055146114710E-1    5.193263352800160E-1   -2.605819872366155E-3   -2.709928304995014E-4   -2.652651403925021E-3   -2.699554217370388E-4    3.725034063296512E-2    5.115681302060684E-1
 8.147726991000000E9    -1.284215977290864E-1    5.196389522088605E-1   -2.622238408656226E-3   -2.912541140156108E-4   -2.673604209457783E-3   -2.530502995149395E-4    3.858302417742395E-2    5.113714446905477E-1
 8.147748761250000E9    -1.268772892365334E-1    5.199715588968795E-1   -2.597020174211860E-3   -3.224181700708243E-4   -2.645440976167413E-3   -2.488772337674518E-4    3.993260993563867E-2    5.112494838485439E-1
 8.147770531500000E9    -1.255729024216739E-1    5.204360087942274E-1   -2.600758241559865E-3   -2.833586702856691E-4   -2.650932077745643E-3   -2.602477791362103E-4    4.149744307833901E-2    5.112291702562791E-1
 8.147792301750000E9    -1.239389279828446E-1    5.207272098408752E-1   -2.622643436807663E-3   -2.479107465554186E-4   -2.611901731191952E-3   -2.481609556985208E-4    4.276538932456721E-2    5.108814733790875E-1
 8.147814072000000E9    -1.224599377033020E-1    5.212734259131554E-1   -2.594702281506597E-3   -2.674195651031044E-4   -2.678845452787970E-3   -2.310652614346304E-4    4.420888660542083E-2    5.108891857373200E-1
 8.147835842250000E9    -1.211274546788491E-1    5.216249063845024E-1   -2.626013252904323E-3   -2.550667239200393E-4   -2.669189142617505E-3   -2.279609902372144E-4    4.555807047303491E-2    5.106379670797259E-1
 8.147857612500000E9    -1.195663089105373E-1    5.219222244890080E-1   -2.617350616569846E-3   -2.679716054046710E-4   -2.660181676637686E-3   -1.919042984717114E-4    4.710595807930993E-2    5.104579478797753E-1
 8.147879382750000E9    -1.181536715324778E-1    5.222857563311688E-1   -2.604213683401218E-3   -2.446769897584883E-4   -2.634464524536639E-3   -2.034575591354276E-4    4.838002154087973E-2    5.102868070892296E-1
 8.147901153000000E9    -1.166705386333661E-1    5.227644985071336E-1   -2.631702677148283E-3   -2.444261914688780E-4   -2.649628660244920E-3   -2.072120526179772E-4    4.992817416734858E-2    5.101710472203562E-1
 8.147922923250000E9    -1.151862789385780E-1    5.231654072907173E-1   -2.627467242785939E-3   -2.368084794647334E-4   -2.612036872678210E-3   -1.834022939600835E-4    5.130112836223166E-2    5.100367871161230E-1
 8.147944693500000E9    -1.137706436482941E-1    5.235497855581747E-1   -2.621377082181290E-3   -2.388683129459710E-4   -2.654022909767579E-3   -1.717710537088070E-4    5.280577686831336E-2    5.099037509622130E-1
 8.147966463750000E9    -1.121930111962407E-1    5.238004908738071E-1   -2.607763077612087E-3   -2.016615838433755E-4   -2.652524269302763E-3   -1.802639588358970E-4    5.432562324037620E-2    5.096255245225964E-1
 8.147988234000000E9    -1.108009662310865E-1    5.242283037658041E-1   -2.614341821420891E-3   -2.117789100592808E-4   -2.675383190988106E-3   -1.575192409275401E-4    5.556082667609900E-2    5.095093279453434E-1
 8.148010004250000E9    -1.093220517789342E-1    5.245960367728407E-1   -2.630680763829843E-3   -2.161094088069143E-4   -2.664266809535189E-3   -1.368571127774865E-4    5.697689792535396E-2    5.095005978450644E-1
 8.148031774500000E9    -1.078939219493788E-1    5.249133317802667E-1   -2.588409193581676E-3   -1.866585856839895E-4   -2.665036382632557E-3   -1.347576826929376E-4    5.820368501029607E-2    5.090833843184285E-1
 8.148053544750000E9    -1.063455394981464E-1    5.252058555864535E-1   -2.638071607514025E-3   -1.753971538257135E-4   -2.647612603261466E-3   -1.194615983390022E-4    5.967385698065488E-2    5.088531290909662E-1
 8.148075315000000E9    -1.048053917696170E-1    5.255668876486645E-1   -2.626268551591898E-3   -1.836050652142020E-4   -2.689164552461640E-3   -1.116163969668978E-4    6.126912763555290E-2    5.088259252203491E-1
 8.148097085250000E9    -1.033117326453362E-1    5.259559500326334E-1   -2.627912549509073E-3   -1.837972482263315E-4   -2.657576033875894E-3   -1.505590708200381E-4    6.266117064259126E-2    5.085234118293119E-1
 8.148118855500000E9    -1.018414433965888E-1    5.261993658155032E-1   -2.612184956744922E-3   -1.490699100756838E-4   -2.662371474673479E-3   -1.171295835228610E-4    6.389304283485443E-2    5.083213089128361E-1
 8.148140625750000E9    -1.003330204979904E-1    5.264520280862274E-1   -2.630562788957784E-3   -1.660455809724605E-4   -2.660207926684247E-3   -1.210144505932723E-4    6.530580340412173E-2    5.082143257727089E-1
 8.148162396000000E9    -9.899135604230645E-2    5.268220905418241E-1   -2.622328982074762E-3   -1.609760041939714E-4   -2.678608399296952E-3   -8.681100812263311E-5    6.681093091977997E-2    5.078324046334944E-1
 8.148184166250000E9    -9.737997791169567E-2    5.272593604616390E-1   -2.600712983532645E-3   -1.355114134276879E-4   -2.666014609805993E-3   -9.857829055605590E-5    6.830247579595099E-2    5.076550801982554E-1
 8.148205936500000E9    -9.604172468389803E-2    5.274411718687919E-1   -2.617969788790722E-3   -1.337444084513871E-4   -2.669745735509577E-3   -7.100317675566349E-5    6.944438739493677E-2    5.075251612588172E-1
 8.148227706750000E9    -9.447984449020269E-2    5.276854882058958E-1   -2.628830008730303E-3   -1.350738084888397E-4   -2.667082104264896E-3   -6.485962684356422E-5    7.089916992587371E-2    5.073501633254753E-1
 8.148249477000000E9    -9.290115681827966E-2    5.280450006041608E-1   -2.600972038736818E-3   -1.300299472419180E-4   -2.658167303711459E-3   -8.416020325153441E-5    7.244349788689286E-2    5.070609339367635E-1
 8.148271247250000E9    -9.158682785253527E-2    5.283370091685557E-1   -2.636832590381241E-3   -9.805806574689201E-5   -2.707110783591621E-3   -4.880194522076921E-5    7.377330455134397E-2    5.068224842648144E-1
 8.148293017500000E9    -8.990495182966840E-2    5.286411355508268E-1   -2.626329579155341E-3   -1.220377582227881E-4   -2.647169759453076E-3   -4.706431101171251E-5    7.522915705488428E-2    5.066579871304200E-1
 8.148314787750000E9    -8.858210623494876E-2    5.290365124402004E-1   -2.615873078213555E-3   -1.053012327193761E-4   -2.685604296763619E-3   -3.796482265098579E-5    7.646077580360969E-2    5.063586047884527E-1
 8.148336558000000E9    -8.698625018674415E-2    5.292569509875066E-1   -2.614729390843592E-3   -1.145401110538107E-4   -2.688081718232621E-3   -5.888828501351124E-5    7.793068676597352E-2    5.062350542836347E-1
 8.148358328250000E9    -8.557166091611833E-2    5.295147413752320E-1   -2.642735249600667E-3   -8.405752215374599E-5   -2.667313052524897E-3   -2.929247812011011E-5    7.945136614906437E-2    5.059181992577116E-1
 8.148380098500000E9    -8.408673927246489E-2    5.297398461393418E-1   -2.590882892146076E-3   -6.312838383212717E-5   -2.684166846470363E-3    1.139119174365585E-5    8.080826052772727E-2    5.057243668110973E-1
 8.148401868750000E9    -8.254685662506121E-2    5.300978386418069E-1   -2.631057986848506E-3   -6.871093859255808E-5   -2.660329305538738E-3   -1.971138589736360E-5    8.215793613124174E-2    5.053134141295265E-1
 8.148423639000000E9    -8.104388085871796E-2    5.302840477312024E-1   -2.598021417825410E-3   -5.274910069454556E-5   -2.688584648542956E-3   -1.391269625936884E-5    8.344127878770700E-2    5.050109955625578E-1
 8.148445409250000E9    -7.958268236009773E-2    5.307279728839758E-1   -2.624546608096782E-3   -3.610947071236258E-5   -2.662080670332241E-3   -1.676848757901408E-6    8.504320655629909E-2    5.048294531829807E-1
 8.148467179500000E9    -7.813354158793683E-2    5.308725043737366E-1   -2.612807155462553E-3   -3.697683760396591E-5   -2.676698526156294E-3    6.725459874019482E-6    8.638830090582614E-2    5.046269861489574E-1
 8.148488949750000E9    -7.648897228068970E-2    5.311446435726257E-1   -2.622225792918148E-3   -9.065141886838877E-6   -2.655481751708500E-3    4.294246870809768E-6    8.767055685717841E-2    5.043552337017105E-1
 8.148510720000000E9    -7.514252383677125E-2    5.314530453513306E-1   -2.617195577548798E-3   -8.108629361802798E-7   -2.676533905630371E-3    3.543480385036094E-5    8.905602453231160E-2    5.040600882022810E-1
 8.148532490250000E9    -7.360034160582449E-2    5.316596011022844E-1   -2.612229883116221E-3   -2.946969424896637E-5   -2.654438673911005E-3    2.777805874824366E-5    9.039857033510090E-2    5.038606415375919E-1
 8.148554260500000E9    -7.212083736963017E-2    5.318833881718503E-1   -2.627988063996784E-3    1.592990054283930E-5   -2.661656791013357E-3    5.318430167587408E-5    9.197901225422750E-2    5.033684651050824E-1
 8.148576030750000E9    -7.055445728717263E-2    5.322706835542613E-1   -2.637727613937217E-3   -3.577554170578969E-6   -2.664193244277359E-3    5.319436737296555E-5    9.323178513539949E-2    5.032782130387790E-1
 8.148597801000000E9    -6.905683166937314E-2    5.324158634985122E-1   -2.621298432003640E-3    1.466210483213465E-5   -2.651920732756488E-3    5.188749796293541E-5    9.478759903009634E-2    5.029647736987588E-1
 8.148619571250000E9    -6.762192198762834E-2    5.326156852909503E-1   -2.630581662546745E-3    9.922313728640351E-6   -2.649983954574316E-3    5.972613140346052E-5    9.607342917458032E-2    5.027230387597748E-1
 8.148641341500000E9    -6.607209222648387E-2    5.329158079259567E-1   -2.613866334744449E-3    4.134004023683151E-5   -2.660729473876467E-3    5.883577327041702E-5    9.754734356924689E-2    5.023260483111975E-1
 8.148663111750000E9    -6.456942890986500E-2    5.330005447320239E-1   -2.633726530704948E-3    2.771505562107942E-5   -2.678842895115632E-3    7.558377996303209E-5    9.885066546833685E-2    5.020124396738063E-1
 8.148684882000000E9    -6.303356323478709E-2    5.332494573041449E-1   -2.624801051189143E-3    5.071756990625879E-5   -2.642649755237632E-3    8.542322456569309E-5    1.002605378977164E-1    5.018902285118283E-1
 8.148706652250000E9    -6.167392609293117E-2    5.335443588391016E-1   -2.640106620513707E-3    3.477588408377878E-5   -2.670474333394629E-3    7.510433979560156E-5    1.017909016499538E-1    5.014790941682631E-1
 8.148728422500000E9    -5.995296901234496E-2    5.336700031605699E-1   -2.602060138838127E-3    6.284695888894442E-5   -2.696685445053785E-3    7.925388480358654E-5    1.030553202511846E-1    5.011511577147499E-1
 8.148750192750000E9    -5.861143001675816E-2    5.339174469791860E-1   -2.609473517426368E-3    5.993529134785718E-5   -2.668099343038103E-3    1.289021524848231E-4    1.043698689839614E-1    5.008242102943821E-1
 8.148771963000000E9    -5.716215973042020E-2    5.341265473673616E-1   -2.622271917959925E-3    9.022507744295446E-5   -2.655917841911145E-3    1.111305025429380E-4    1.056684048958135E-1    5.005278264229768E-1
 8.148793733250000E9    -5.540454970447480E-2    5.342612552849894E-1   -2.621567080589322E-3    6.561378266096551E-5   -2.637003472921475E-3    1.378144107178482E-4    1.070872204040872E-1    5.001292359211920E-1
 8.148815503500000E9    -5.404591053879676E-2    5.344427037207288E-1   -2.621643882236620E-3    9.406590994495293E-5   -2.691117175541199E-3    1.590063331259290E-4    1.085036797870688E-1    4.997872728486061E-1
 8.148837273750000E9    -5.257684920676690E-2    5.347816594370923E-1   -2.639414116616486E-3    1.011214630200907E-4   -2.656650712409180E-3    1.330372594796754E-4    1.099438166331268E-1    4.994469636005578E-1
 8.148859044000000E9    -5.105770782135686E-2    5.348339891375857E-1   -2.616918591569016E-3    8.735447216814805E-5   -2.675812687796462E-3    1.460077485666217E-4    1.113727480530839E-1    4.992532357100536E-1
 8.148880814250000E9    -4.950831551655570E-2    5.351270782409666E-1   -2.610875511238095E-3    9.633626122872632E-5   -2.690559610233012E-3    1.677835443335290E-4    1.126150893894349E-1    4.988734067987798E-1
 8.148902584500000E9    -4.793651758055868E-2    5.352062192341667E-1   -2.618916636192329E-3    1.073094018668263E-4   -2.666220801609092E-3    1.777650550678471E-4    1.140657526396460E-1    4.985742613387972E-1
 8.148924354750000E9    -4.645735904618815E-2    5.352750458879498E-1   -2.601400960925772E-3    1.391222670103734E-4   -2.648483293193060E-3    1.952167200765837E-4    1.153037242849970E-1    4.982301647622161E-1
 8.148946125000000E9    -4.510798388804968E-2    5.355486901430729E-1   -2.644113505566324E-3    1.285207187356646E-4   -2.653826797455981E-3    2.055820627314545E-4    1.166843857893857E-1    4.978184090587330E-1
 8.148967895250000E9    -4.342026905775334E-2    5.357389920295329E-1   -2.630802179485231E-3    1.495109846354219E-4   -2.634380880467964E-3    1.728175074551007E-4    1.180681487018300E-1    4.975786530193594E-1
 8.148989665500000E9    -4.193791529566514E-2    5.358638888850120E-1   -2.602231878091603E-3    1.502676824807882E-4   -2.642803596882690E-3    2.198752489224147E-4    1.196149336182730E-1    4.971975659650286E-1
 8.149011435750000E9    -4.049064636668410E-2    5.361109126516551E-1   -2.586204833136347E-3    1.289835978888174E-4   -2.636041080637124E-3    2.037865254423435E-4    1.208744961587721E-1    4.968223875295635E-1
 8.149033206000000E9    -3.903690480391538E-2    5.361554663905351E-1   -2.606197533663697E-3    1.764973222070698E-4   -2.623359795127002E-3    2.262582202461705E-4    1.221478226956749E-1    4.965778269708389E-1
 8.149054976250000E9    -3.740925413465748E-2    5.362651630430010E-1   -2.617180701746543E-3    1.701237766878111E-4   -2.649685701539521E-3    2.048660073199272E-4    1.236065471726195E-1    4.959476957637531E-1
 8.149076746500000E9    -3.600554805047036E-2    5.363808362112031E-1   -2.629238149944453E-3    1.777584086259629E-4   -2.687095440158445E-3    2.302259130110432E-4    1.248538916151997E-1    4.957617606014354E-1
 8.149098516750000E9    -3.441756777640363E-2    5.366843356468430E-1   -2.630570355878958E-3    1.711075390127998E-4   -2.652677141639427E-3    2.744818155161692E-4    1.262950641847671E-1    4.953841651876900E-1
 8.149120287000000E9    -3.295672778759579E-2    5.367411894298846E-1   -2.598218688207686E-3    2.039314991966411E-4   -2.657095427949307E-3    2.316155225095120E-4    1.276792476954147E-1    4.950306009935417E-1
 8.149142057250000E9    -3.145306224293575E-2    5.368067439120268E-1   -2.613303484952862E-3    1.902575814044746E-4   -2.675566590601993E-3    3.030400434847914E-4    1.289645751418570E-1    4.944582202828702E-1
 8.149163827500000E9    -2.996372542845720E-2    5.369280966602380E-1   -2.637191160998299E-3    2.138098231420080E-4   -2.653224138187141E-3    2.588584755412672E-4    1.302738065341877E-1    4.942065235814522E-1
