#  HZ   S   RI   R     50.00 
! Rohde & Schwarz Vector Network Analyzer 
! Rohde-Schwarz,ZNB20-2Port,1311601062101988,3.16
! Created: UTC 3/21/2024, 1:05:14 AM
! freq[Hz]                re:S11                  im:S11                  re:S21                  im:S21                  re:S12                  im:S12                  re:S22                  im:S22
 8.147010109000000E9    -1.762041621160720E-1    5.039312128906702E-1   -2.547487209724736E-3   -5.294293235428323E-4   -2.628734705362519E-3   -5.132652183817145E-4   -8.760915223525382E-3    5.133600106846660E-1
 8.147032774025000E9    -1.747929332467142E-1    5.046245951574299E-1   -2.568499754933910E-3   -5.620053725926283E-4   -2.606505794858110E-3   -4.920824290234514E-4   -7.287121219344069E-3    5.133574020326124E-1
 8.147055439050000E9    -1.731890772584902E-1    5.051839484175934E-1   -2.594782635128943E-3   -5.274761166097035E-4   -2.634083695912164E-3   -4.834304409155423E-4   -5.747086510918938E-3    5.133502906018108E-1
 8.147078104075000E9    -1.717346306714900E-1    5.056674958556601E-1   -2.588317401774543E-3   -5.221997991784559E-4   -2.631374991961261E-3   -4.963223226571436E-4   -4.322536614602666E-3    5.135081713028712E-1
 8.147100769100000E9    -1.703348354800450E-1    5.063601519817709E-1   -2.581264350088384E-3   -5.411038757005065E-4   -2.615358863359357E-3   -4.553821578309380E-4   -2.862126642083332E-3    5.133614168538209E-1
 8.147123434125000E9    -1.687615268254535E-1    5.067954633307254E-1   -2.585445604236158E-3   -5.217296236247266E-4   -2.624470383847080E-3   -4.372132803933771E-4   -1.313607617149361E-3    5.133370010185194E-1
 8.147146099150000E9    -1.671499681657000E-1    5.073515073819248E-1   -2.588896658452270E-3   -5.227337697214531E-4   -2.655098914270208E-3   -4.695458802347924E-4    1.884176996906301E-4    5.133100159958425E-1
 8.147168764175000E9    -1.657689429940969E-1    5.079010013166814E-1   -2.593590776361368E-3   -5.011342502097247E-4   -2.649210176644366E-3   -4.466547730270693E-4    1.732521152422566E-3    5.133908639507050E-1
 8.147191429200000E9    -1.641137852957529E-1    5.084644709531772E-1   -2.587030792433366E-3   -4.807190874044531E-4   -2.640664292220394E-3   -4.628380857538442E-4    3.144807526288329E-3    5.134213281019951E-1
 8.147214094225000E9    -1.626552785202589E-1    5.089844680022517E-1   -2.566703700163213E-3   -4.734294484962577E-4   -2.638755878346436E-3   -4.248593238467407E-4    4.743115862584670E-3    5.132893868591835E-1
 8.147236759250000E9    -1.612492421662238E-1    5.094866180745954E-1   -2.615458785412984E-3   -4.659362050315237E-4   -2.615623258455154E-3   -4.235310153808171E-4    6.184487501365693E-3    5.131928348892699E-1
 8.147259424275000E9    -1.596638507130936E-1    5.099925965650307E-1   -2.593276349361853E-3   -4.756571810610830E-4   -2.648173077793330E-3   -4.085540521551337E-4    7.506174562948594E-3    5.132279654736787E-1
 8.147282089300000E9    -1.582818549785562E-1    5.105559047636610E-1   -2.579928933155679E-3   -4.694893022438676E-4   -2.644301746801668E-3   -4.242735212585579E-4    9.222750797174746E-3    5.131837711967628E-1
 8.147304754325000E9    -1.567542409622982E-1    5.109965316670212E-1   -2.626273871170945E-3   -4.464480958135311E-4   -2.660194490418150E-3   -3.942444493002096E-4    1.048251820058362E-2    5.130183383601444E-1
 8.147327419350000E9    -1.551364173443351E-1    5.115146269770543E-1   -2.596351413004883E-3   -4.494870778536963E-4   -2.644880857094708E-3   -3.937295206829196E-4    1.219328161777380E-2    5.131410962447348E-1
 8.147350084375000E9    -1.535526122072243E-1    5.119918482535804E-1   -2.565169924318268E-3   -4.429488349052466E-4   -2.648841562148990E-3   -3.516209557739996E-4    1.341675527299675E-2    5.129333651352896E-1
 8.147372749400000E9    -1.521522262784576E-1    5.125367228774272E-1   -2.590200667206120E-3   -4.382627677410914E-4   -2.641382821926773E-3   -3.723641300940539E-4    1.504013722837121E-2    5.129552256976241E-1
 8.147395414425000E9    -1.507037486212526E-1    5.129210995665138E-1   -2.615283666804272E-3   -3.904814137807902E-4   -2.649366232055573E-3   -3.704442582067116E-4    1.657164760536587E-2    5.128895511260930E-1
 8.147418079450000E9    -1.492119844038136E-1    5.134969698649035E-1   -2.590081371977108E-3   -4.394072250696349E-4   -2.644746840313257E-3   -3.603471170936751E-4    1.799083712599324E-2    5.127221407238168E-1
 8.147440744475000E9    -1.476448576583531E-1    5.138992928657538E-1   -2.594007600201491E-3   -4.115876696570919E-4   -2.623781886094577E-3   -3.446143376575790E-4    1.963481558415282E-2    5.125782104454295E-1
 8.147463409500000E9    -1.461878720272619E-1    5.144148823750789E-1   -2.600454006264539E-3   -3.792682246803117E-4   -2.649970834175284E-3   -3.500724142032590E-4    2.103275491413599E-2    5.127154647247519E-1
 8.147486074525000E9    -1.446831011797347E-1    5.149121835558603E-1   -2.603246202791825E-3   -3.898432161028814E-4   -2.626982079139294E-3   -3.229557356508326E-4    2.256700477837640E-2    5.124855433058857E-1
 8.147508739550000E9    -1.430950304906246E-1    5.153064351268646E-1   -2.614716581801197E-3   -3.942893910594443E-4   -2.640486654415669E-3   -3.126179962771694E-4    2.385793702971590E-2    5.123139429096190E-1
 8.147531404575000E9    -1.416793181774463E-1    5.158120189757304E-1   -2.612717331208556E-3   -3.595565940252930E-4   -2.647619153236419E-3   -3.231620172886649E-4    2.540324207205294E-2    5.123196583819898E-1
 8.147554069600000E9    -1.401371067620527E-1    5.162344280198016E-1   -2.616802688343445E-3   -3.851654254403140E-4   -2.692882757191101E-3   -3.361434015986037E-4    2.680987504403073E-2    5.121315377578217E-1
 8.147576734625000E9    -1.384856659322455E-1    5.167167625598691E-1   -2.599407219940618E-3   -3.677229536938846E-4   -2.634852903372505E-3   -3.207574824279183E-4    2.829039791981793E-2    5.120881740759839E-1
 8.147599399650000E9    -1.370377061823106E-1    5.171631900943960E-1   -2.620056435318004E-3   -3.333197361448425E-4   -2.648110582191239E-3   -2.624526977180084E-4    2.991605478413374E-2    5.120231079363766E-1
 8.147622064675000E9    -1.354802574119601E-1    5.174517167548256E-1   -2.625910273810377E-3   -3.555876543435991E-4   -2.631441974640244E-3   -2.691775766574660E-4    3.126072696483004E-2    5.119842927277007E-1
 8.147644729700000E9    -1.340881310249445E-1    5.181236092234223E-1   -2.591693256006240E-3   -3.058076339222754E-4   -2.661393612092279E-3   -2.962399403704039E-4    3.270078626469709E-2    5.117687485196478E-1
 8.147667394725000E9    -1.324864462913841E-1    5.185263939355714E-1   -2.612258863765181E-3   -3.251768420608900E-4   -2.650469488983198E-3   -2.818612744043167E-4    3.434244185045563E-2    5.116250773682555E-1
 8.147690059750000E9    -1.310818572009570E-1    5.188099986138927E-1   -2.612933773299741E-3   -2.951205071252342E-4   -2.664970318218042E-3   -2.499232128264679E-4    3.585120597379787E-2    5.115660174695874E-1
 8.147712724775000E9    -1.293981443026556E-1    5.193601417591427E-1   -2.592107979618642E-3   -3.092570001421098E-4   -2.645360002409463E-3   -2.802591282028604E-4    3.715042838347371E-2    5.113616427862988E-1
 8.147735389800000E9    -1.279805213388513E-1    5.197713136563712E-1   -2.623510678051233E-3   -2.993837586048066E-4   -2.677146936244445E-3   -2.722095578100873E-4    3.872841385747629E-2    5.112251610501525E-1
 8.147758054825000E9    -1.264083274501172E-1    5.201698055941073E-1   -2.596269680594521E-3   -2.949233892399562E-4   -2.677595247142052E-3   -2.521182132944748E-4    4.015437423457913E-2    5.111948680224300E-1
 8.147780719850000E9    -1.247381429905118E-1    5.205837911924399E-1   -2.613327646534060E-3   -2.942527245065759E-4   -2.674674261919492E-3   -2.498187078658128E-4    4.171498912945830E-2    5.111264846037424E-1
 8.147803384875000E9    -1.232696513305813E-1    5.210304178259195E-1   -2.607655233317280E-3   -2.876759334321227E-4   -2.636025262017548E-3   -2.104332087561683E-4    4.316600543411225E-2    5.108115773315279E-1
 8.147826049900000E9    -1.217975614264184E-1    5.213667364419948E-1   -2.621635872649854E-3   -2.561763564503951E-4   -2.645793214387690E-3   -2.262356681469531E-4    4.459317161205858E-2    5.106049568870975E-1
 8.147848714925000E9    -1.203020288542710E-1    5.217972651709263E-1   -2.606015854885828E-3   -2.528773417788308E-4   -2.641325675999394E-3   -2.317911913537232E-4    4.599683016775550E-2    5.106762208987328E-1
 8.147871379950000E9    -1.188311511787155E-1    5.222150391657151E-1   -2.610174558229510E-3   -2.652813294848319E-4   -2.662252966622756E-3   -2.153294869650109E-4    4.754165301770295E-2    5.103278191582569E-1
 8.147894044975000E9    -1.172436174525690E-1    5.225797069277182E-1   -2.615669921721496E-3   -2.072068119509143E-4   -2.674313309684367E-3   -2.117055255310771E-4    4.914613479833405E-2    5.102756838786769E-1
 8.147916710000000E9    -1.156759674136245E-1    5.229783510522732E-1   -2.622054771178881E-3   -2.518341202328982E-4   -2.672017033539787E-3   -2.004429382634803E-4    5.044120929811486E-2    5.099815779421474E-1
 8.147939375025000E9    -1.141843793897736E-1    5.232999389906505E-1   -2.642073021419416E-3   -2.306086271768217E-4   -2.656209611481734E-3   -1.684452310842618E-4    5.191224075608492E-2    5.097968726696517E-1
 8.147962040050000E9    -1.126215351085536E-1    5.237195323506255E-1   -2.621537815403126E-3   -2.006822310453711E-4   -2.646024017680906E-3   -1.573308186861190E-4    5.331449604950514E-2    5.096883216563716E-1
 8.147984705075000E9    -1.110667454314380E-1    5.240051239231345E-1   -2.616371310248960E-3   -2.217907994458430E-4   -2.643243053367325E-3   -1.413645276038222E-4    5.490184493837236E-2    5.094730035365510E-1
 8.148007370100000E9    -1.095932538231564E-1    5.244640092530702E-1   -2.617990126888645E-3   -1.894923736252287E-4   -2.613917720644145E-3   -1.804422394561044E-4    5.644831741811202E-2    5.092511924846990E-1
 8.148030035125000E9    -1.080310782538359E-1    5.248024114669774E-1   -2.624289772009458E-3   -2.023251003338231E-4   -2.676147540540591E-3   -1.130873216081308E-4    5.791274879715943E-2    5.090650116890821E-1
 8.148052700150000E9    -1.065204770597583E-1    5.252318204717427E-1   -2.634171620419494E-3   -1.897914638484194E-4   -2.639004464110816E-3   -1.613967070885511E-4    5.926787481382519E-2    5.089724482832432E-1
 8.148075365175000E9    -1.048278061663302E-1    5.254636900050025E-1   -2.608241964445921E-3   -1.976017421923554E-4   -2.640463070392981E-3   -1.347768828598215E-4    6.080472262959371E-2    5.087775664465419E-1
 8.148098030200000E9    -1.033213583601633E-1    5.258062589941604E-1   -2.617160820455150E-3   -1.577326714314971E-4   -2.672393136635016E-3   -1.296471933993780E-4    6.221020381838591E-2    5.085027025687612E-1
 8.148120695225000E9    -1.018028140548776E-1    5.261767361194186E-1   -2.606863831237754E-3   -1.589058409266467E-4   -2.674336367275959E-3   -1.128494344011134E-4    6.374579489862478E-2    5.084030524118636E-1
 8.148143360250000E9    -1.002068748415766E-1    5.264733865691410E-1   -2.614705246092928E-3   -1.580043521136500E-4   -2.687219086641207E-3   -1.139122493684885E-4    6.517816030095357E-2    5.079819224636513E-1
 8.148166025275000E9    -9.876268570508766E-2    5.268835504361667E-1   -2.623707922567252E-3   -1.418003814365812E-4   -2.663626832441268E-3   -9.898962079008132E-5    6.655523892139098E-2    5.079074418015876E-1
 8.148188690300000E9    -9.736972166186796E-2    5.271498352322626E-1   -2.611672872640281E-3   -1.622603287782225E-4   -2.653219229103236E-3   -7.277180333182294E-5    6.803745102392678E-2    5.077211080890175E-1
 8.148211355325000E9    -9.569127705717924E-2    5.275749377545215E-1   -2.631338125279485E-3   -1.241017662441145E-4   -2.669144327476563E-3   -8.117547995422428E-5    6.958520012259944E-2    5.073508670961859E-1
 8.148234020350000E9    -9.408192892605005E-2    5.278677950101036E-1   -2.614576127639692E-3   -1.241958116382106E-4   -2.662306122744925E-3   -3.724781034235742E-5    7.103879642237158E-2    5.072114608210957E-1
 8.148256685375000E9    -9.257655862680338E-2    5.281866799879690E-1   -2.623502904721603E-3   -1.212349140720903E-4   -2.653681216748026E-3   -4.300571991023327E-5    7.250543250126362E-2    5.067999970363692E-1
 8.148279350400000E9    -9.096127100653922E-2    5.284717222678816E-1   -2.624027385611489E-3   -8.095070911562084E-5   -2.664758331595694E-3   -5.576950016402045E-5    7.382354254030446E-2    5.066029598866388E-1
 8.148302015425000E9    -8.950143676184603E-2    5.287802439861661E-1   -2.613726465915362E-3   -1.026976944969715E-4   -2.677206165234219E-3   -8.161430729867865E-5    7.527012282676639E-2    5.065085341617748E-1
 8.148324680450000E9    -8.788625502580047E-2    5.290078405551084E-1   -2.611811878327768E-3   -1.035952384642570E-4   -2.671257101217377E-3   -1.915574579799720E-5    7.684933833501606E-2    5.062384139460870E-1
 8.148347345475000E9    -8.633217178398218E-2    5.293678999178258E-1   -2.634572711253665E-3   -8.021230446542390E-5   -2.648737251721549E-3   -3.754059491451645E-5    7.838442868554717E-2    5.059938346784035E-1
 8.148370010500000E9    -8.486776556247047E-2    5.296209465573835E-1   -2.600061505505501E-3   -7.098204352165172E-5   -2.653729500492828E-3   -1.210803246429436E-5    7.970752643739624E-2    5.056226134319253E-1
 8.148392675525000E9    -8.315260710163774E-2    5.300391750877164E-1   -2.618133907618386E-3   -8.814471874513523E-5   -2.647685048437214E-3   -3.928710812775671E-5    8.111966389210822E-2    5.054591442668135E-1
 8.148415340550000E9    -8.156950044547050E-2    5.301983130522863E-1   -2.635223591556400E-3   -4.519823928429784E-5   -2.669151954405206E-3    2.276068532544748E-6    8.253344732757835E-2    5.051611370872677E-1
 8.148438005575000E9    -8.012244321959491E-2    5.306152901829141E-1   -2.623485067490958E-3   -6.912318354505532E-5   -2.675724839388158E-3   -6.927632621683677E-6    8.418982702948137E-2    5.049745600155822E-1
 8.148460670600000E9    -7.849666871290532E-2    5.307903614353280E-1   -2.631177943261454E-3   -4.313107322686777E-5   -2.666149382844332E-3    1.561311522606340E-5    8.554845754983846E-2    5.047241322405972E-1
 8.148483335625000E9    -7.696060758925678E-2    5.310010158423362E-1   -2.628192801313177E-3   -4.986799267981674E-6   -2.654232579680393E-3    1.137357619163346E-5    8.707245236568964E-2    5.043359863234901E-1
 8.148506000650000E9    -7.542672576136131E-2    5.312801441801408E-1   -2.616792365782211E-3   -1.908279059708096E-5   -2.681569962407369E-3    3.631519569595935E-5    8.849334740706279E-2    5.040722434877922E-1
 8.148528665675000E9    -7.386437032423945E-2    5.315439088932696E-1   -2.633950891021563E-3   -1.252008472368211E-5   -2.675686618276530E-3    5.610146215240312E-5    8.995081931443334E-2    5.038599702050793E-1
 8.148551330700000E9    -7.221171423571222E-2    5.317243199766953E-1   -2.618031417711890E-3   -8.455907857347371E-6   -2.657557986557029E-3    6.695169156559268E-5    9.135805390019576E-2    5.036397098006046E-1
 8.148573995725000E9    -7.079732598818603E-2    5.320630806408158E-1   -2.642034160329932E-3    2.398440192719627E-5   -2.616040024821863E-3    5.965044077679611E-5    9.270925943511400E-2    5.033649352512921E-1
 8.148596660750000E9    -6.925454201748180E-2    5.322838973290313E-1   -2.621786249636879E-3    1.234219275334453E-6   -2.625037572023504E-3    5.145161884717834E-5    9.416351820449151E-2    5.029661098798168E-1
 8.148619325775000E9    -6.756803499130312E-2    5.325095347182776E-1   -2.621004897281007E-3    1.470132152417359E-5   -2.667017129944246E-3    8.400541452888814E-5    9.567248353262443E-2    5.026205823419355E-1
 8.148641990800000E9    -6.614477740161619E-2    5.327670181350573E-1   -2.639239061601773E-3   -5.528019944527847E-6   -2.652664454238438E-3    5.862541728933312E-5    9.708444914128600E-2    5.022290377612900E-1
 8.148664655825000E9    -6.461292079568966E-2    5.330235016523309E-1   -2.618005978126369E-3    3.225568427221667E-5   -2.648115575788911E-3    6.027246040965580E-5    9.851385179474424E-2    5.020390672722221E-1
 8.148687320850000E9    -6.299332519650025E-2    5.333046466512312E-1   -2.622224955913857E-3    3.524786470822763E-5   -2.655896552687658E-3    1.108279643219827E-4    9.997288925044776E-2    5.017049755908858E-1
 8.148709985875000E9    -6.136253366346901E-2    5.335459767246616E-1   -2.613598571402603E-3    3.473885111041856E-5   -2.676597568916388E-3    9.840534446058118E-5    1.014054290472304E-1    5.014082606885905E-1
 8.148732650900000E9    -5.985061910816660E-2    5.337173210163171E-1   -2.610560727587915E-3    7.303232116771216E-5   -2.651770816726197E-3    1.315614353779486E-4    1.027132427358654E-1    5.010464367133965E-1
 8.148755315925000E9    -5.831309246291523E-2    5.339393657472223E-1   -2.644868754994774E-3    6.011679705580963E-5   -2.686512408736224E-3    1.108798819842039E-4    1.042661480535887E-1    5.007852251396554E-1
 8.148777980950000E9    -5.664044385657684E-2    5.341040346843745E-1   -2.626719623165177E-3    8.117434006297049E-5   -2.624085727087788E-3    9.438450206006362E-5    1.057885630949334E-1    5.004243714811810E-1
 8.148800645975000E9    -5.520644310197319E-2    5.343750166007372E-1   -2.607343337451623E-3    4.905462403308135E-5   -2.632183043827868E-3    1.550574300982873E-4    1.070740197268501E-1    5.001905360028942E-1
 8.148823311000000E9    -5.358095640782434E-2    5.346364424479960E-1   -2.629677828715523E-3    9.739585190359633E-5   -2.667013998953049E-3    1.314548298300781E-4    1.086373313953468E-1    4.997070838361741E-1
 8.148845976025000E9    -5.198400075827733E-2    5.348015868562505E-1   -2.604846375154048E-3    9.053631137189157E-5   -2.623312228568289E-3    1.384387455711917E-4    1.099411867352543E-1    4.994622064803801E-1
 8.148868641050000E9    -5.038356401643948E-2    5.349753386197308E-1   -2.629817658437697E-3    8.491145633715497E-5   -2.644531739518731E-3    1.592512260737060E-4    1.112648287162948E-1    4.990274513738713E-1
 8.148891306075000E9    -4.896201679867323E-2    5.350850407901069E-1   -2.611033665985262E-3    1.043156296270264E-4   -2.656942873740064E-3    1.754138127525892E-4    1.128308575215640E-1    4.984922411391806E-1
 8.148913971100000E9    -4.723254518740082E-2    5.352941218098921E-1   -2.630476572454099E-3    1.417759202910701E-4   -2.631900268768321E-3    1.756675462475444E-4    1.143855642497459E-1    4.983137040538949E-1
 8.148936636125000E9    -4.564875014048014E-2    5.355165439469430E-1   -2.596327006732489E-3    1.156845119433318E-4   -2.635285304431246E-3    1.881554482443827E-4    1.156047548269930E-1    4.979284225898639E-1
 8.148959301150000E9    -4.421578173353928E-2    5.357637533187706E-1   -2.600486091681729E-3    1.284208243894849E-4   -2.664461418608578E-3    1.807584499537377E-4    1.172327912827935E-1    4.975771480646194E-1
 8.148981966175000E9    -4.256553265220591E-2    5.357656863054064E-1   -2.599674106992112E-3    1.401956147806186E-4   -2.655239118488649E-3    1.782734584599189E-4    1.185192564433886E-1    4.971673416544242E-1
 8.149004631200000E9    -4.109264613232665E-2    5.361201573511457E-1   -2.613993575129687E-3    1.599831511624056E-4   -2.634254685513155E-3    2.011185136830977E-4    1.199317067499409E-1    4.969263377263199E-1
 8.149027296225000E9    -3.948461024022171E-2    5.361987914632503E-1   -2.604376841984838E-3    1.664999392358286E-4   -2.657865046637756E-3    2.043502138122967E-4    1.214142751086943E-1    4.965465153842322E-1
 8.149049961250000E9    -3.782870736245764E-2    5.362602168743613E-1   -2.635559493983344E-3    1.438740805929075E-4   -2.659509614057893E-3    2.364535052329008E-4    1.229146701990907E-1    4.961639088987090E-1
