#  HZ   S   RI   R     50.00 
! Rohde & Schwarz Vector Network Analyzer 
! Rohde-Schwarz,ZNB20-2Port,1311601062101988,3.16
! Created: UTC 3/21/2024, 12:51:46 AM
! freq[Hz]                re:S11                  im:S11                  re:S21                  im:S21                  re:S12                  im:S12                  re:S22                  im:S22
 8.151362184000000E9     1.321748838814431E-1    5.275070190470128E-1   -2.979120860425629E-3    1.301499478176874E-3   -3.050267561404630E-3    1.369385232983490E-3    2.738313957274829E-1    4.349112121813840E-1
 8.151364014000000E9     1.322827315899504E-1    5.274020490386133E-1   -3.008225463962057E-3    1.333879573575520E-3   -3.016763267386822E-3    1.386621069433019E-3    2.739605650746751E-1    4.349488285381267E-1
 8.151365844000000E9     1.324465410685493E-1    5.273951775416983E-1   -3.007692343511247E-3    1.317545626350093E-3   -3.010415803289001E-3    1.372441719537744E-3    2.741227670443869E-1    4.348177119387085E-1
 8.151367674000000E9     1.325892035297827E-1    5.274627575483872E-1   -3.006972387760602E-3    1.354455113251224E-3   -3.016501730538144E-3    1.394872749030437E-3    2.741487325704999E-1    4.347893591207055E-1
 8.151369504000000E9     1.327840389072342E-1    5.274328034586133E-1   -3.027248556114112E-3    1.328752732210853E-3   -3.013125322730383E-3    1.364887064112840E-3    2.743135977828990E-1    4.347776664750768E-1
 8.151371334000000E9     1.329473273318631E-1    5.272378998651162E-1   -3.012387918873357E-3    1.305169192311131E-3   -3.015952833433614E-3    1.365553331777811E-3    2.744318791793607E-1    4.346004740948536E-1
 8.151373164000000E9     1.331268425402543E-1    5.273238710603988E-1   -3.008399528523462E-3    1.319774753350137E-3   -3.035769182705675E-3    1.400631968695182E-3    2.746227533709751E-1    4.346059789700015E-1
 8.151374994000000E9     1.332153590640491E-1    5.272442597491822E-1   -3.023682099200803E-3    1.328765603536406E-3   -3.028161020361936E-3    1.400540968798516E-3    2.746620924208139E-1    4.346175394180688E-1
 8.151376824000000E9     1.333833727578065E-1    5.271826046483042E-1   -3.014274262541292E-3    1.336694902124529E-3   -3.018286376466245E-3    1.360245366179133E-3    2.747889850612047E-1    4.343351899949360E-1
 8.151378654000000E9     1.335522808410174E-1    5.271046470695750E-1   -3.033971021626424E-3    1.325404862873363E-3   -3.029170319848861E-3    1.401107228380042E-3    2.748000711564971E-1    4.343050200153680E-1
 8.151380484000000E9     1.337083112135070E-1    5.270060162046736E-1   -3.041891399564036E-3    1.340833618959547E-3   -3.026880803575494E-3    1.409763934304403E-3    2.749597395172788E-1    4.343880724476912E-1
 8.151382314000000E9     1.336325420864156E-1    5.271581656408347E-1   -3.048331443807568E-3    1.362542861204595E-3   -3.050188705927716E-3    1.414694656183032E-3    2.750480541490707E-1    4.342249775642062E-1
 8.151384144000000E9     1.340706254807007E-1    5.269611216970418E-1   -3.045167875063493E-3    1.332730637665754E-3   -3.080706328857839E-3    1.421197493271467E-3    2.749643471582359E-1    4.340876752525161E-1
 8.151385974000000E9     1.340957854771188E-1    5.268956271777077E-1   -3.052099837982985E-3    1.354717602466303E-3   -3.073861359648633E-3    1.381626792814536E-3    2.752429646492645E-1    4.341876416528959E-1
 8.151387804000000E9     1.342514265494514E-1    5.269220911867283E-1   -3.044021956356086E-3    1.362730047631609E-3   -3.078552918035361E-3    1.396097761488989E-3    2.753967665554835E-1    4.339829550282140E-1
 8.151389634000000E9     1.343205833995653E-1    5.268855270693920E-1   -3.073084385339977E-3    1.377159678093624E-3   -3.082837853302797E-3    1.401613498011371E-3    2.754249712302017E-1    4.339526336491463E-1
 8.151391464000000E9     1.346063033509179E-1    5.269896787259761E-1   -3.048390547247725E-3    1.361398406917925E-3   -3.066257135837708E-3    1.393604708686170E-3    2.755350521908432E-1    4.338465099163609E-1
 8.151393294000000E9     1.346578515148343E-1    5.268940964144311E-1   -3.053256427593421E-3    1.383827124476809E-3   -3.088207208048796E-3    1.422809396076955E-3    2.756157715722601E-1    4.339830747297737E-1
 8.151395124000000E9     1.348508654652540E-1    5.268634969270118E-1   -3.043470302374652E-3    1.372010938966674E-3   -3.070092747963878E-3    1.424311301246212E-3    2.757231063197858E-1    4.338221310733331E-1
 8.151396954000000E9     1.350106294866388E-1    5.267345967177173E-1   -3.079651675302846E-3    1.379349935860575E-3   -3.045104641445252E-3    1.429636782104758E-3    2.757275088025543E-1    4.337292148201001E-1
 8.151398784000000E9     1.351496578988017E-1    5.267097578203109E-1   -3.063669444093662E-3    1.398847116921397E-3   -3.095843998152049E-3    1.456054224454024E-3    2.757824334346419E-1    4.336516599778475E-1
 8.151400614000000E9     1.351794175786844E-1    5.266652240960438E-1   -3.062487147034498E-3    1.378327124457525E-3   -3.070885484810555E-3    1.443823917843387E-3    2.759604940905798E-1    4.335822930726748E-1
 8.151402444000000E9     1.353185571137312E-1    5.266408974275251E-1   -3.087795110675548E-3    1.366508536219905E-3   -3.051523824035517E-3    1.412024828988690E-3    2.762060788178821E-1    4.335720609656011E-1
 8.151404274000000E9     1.355686034532367E-1    5.266045405873166E-1   -3.054805486070994E-3    1.390044204311034E-3   -3.101909487573865E-3    1.457491976300494E-3    2.761753115225997E-1    4.335090698703799E-1
 8.151406104000000E9     1.358144788781611E-1    5.265926295685825E-1   -3.108991311519467E-3    1.400759690251337E-3   -3.086415101873644E-3    1.444453414983156E-3    2.762449730597727E-1    4.332253750661659E-1
 8.151407934000000E9     1.358601811458056E-1    5.266390708747430E-1   -3.095094432896273E-3    1.396683977416585E-3   -3.101316748334449E-3    1.435154878898803E-3    2.765247966982090E-1    4.332467626752856E-1
 8.151409764000000E9     1.360551423765167E-1    5.265280668725039E-1   -3.080614495895322E-3    1.386790412063693E-3   -3.121249174673137E-3    1.471057472812391E-3    2.765724289172557E-1    4.331848286384585E-1
 8.151411594000000E9     1.361800812839674E-1    5.266204082867477E-1   -3.126516276559806E-3    1.380362387526952E-3   -3.135893017505559E-3    1.454164517169486E-3    2.766115706436896E-1    4.331829137921380E-1
 8.151413424000000E9     1.362215678199113E-1    5.264568768551651E-1   -3.098789160124341E-3    1.410007032180672E-3   -3.107274714523902E-3    1.443045205369057E-3    2.766819094734016E-1    4.329996838193606E-1
 8.151415254000000E9     1.363699604336791E-1    5.263218246470004E-1   -3.104729924604499E-3    1.417811300551430E-3   -3.141879167552315E-3    1.484534234812331E-3    2.767273109815324E-1    4.330147078200441E-1
 8.151417084000000E9     1.366381387663998E-1    5.264067260463231E-1   -3.108461874047422E-3    1.385335769812133E-3   -3.127177382695641E-3    1.446590357891389E-3    2.769097688737646E-1    4.329226287021545E-1
 8.151418914000000E9     1.367163059404422E-1    5.263521834987808E-1   -3.120391929733652E-3    1.419096282136096E-3   -3.119957821176673E-3    1.472218187067395E-3    2.769934223249806E-1    4.329035606135611E-1
 8.151420744000000E9     1.369186699262153E-1    5.263697369260927E-1   -3.130422899138131E-3    1.419669676216343E-3   -3.099399410362978E-3    1.471127126952677E-3    2.772577681722503E-1    4.327318384982839E-1
 8.151422574000000E9     1.370743311178823E-1    5.262448633697219E-1   -3.105026709690909E-3    1.441234574811436E-3   -3.149673885694676E-3    1.497350514510832E-3    2.771660854144284E-1    4.328008425504734E-1
 8.151424404000000E9     1.372495555306301E-1    5.262881373722901E-1   -3.132773976936567E-3    1.427048039488574E-3   -3.117161706267379E-3    1.474838834442885E-3    2.772461169776621E-1    4.326809257793478E-1
 8.151426234000000E9     1.374211135197497E-1    5.262077615592613E-1   -3.127059408959741E-3    1.429016977518147E-3   -3.130415429043935E-3    1.484495660391131E-3    2.774176624173258E-1    4.326368925313254E-1
 8.151428064000000E9     1.374693670739581E-1    5.260678553358745E-1   -3.149570048911715E-3    1.441379163355232E-3   -3.128513812186127E-3    1.520058495561367E-3    2.774497151020495E-1    4.324436314507433E-1
 8.151429894000000E9     1.377321755199711E-1    5.259512037803604E-1   -3.115100588246893E-3    1.438907849169528E-3   -3.124636488386665E-3    1.496553739549383E-3    2.775911234527527E-1    4.323747952526578E-1
 8.151431724000000E9     1.377939463791802E-1    5.260720281311936E-1   -3.157156084612556E-3    1.448886332976661E-3   -3.170053643670656E-3    1.502736164501972E-3    2.776963635694474E-1    4.324075878545213E-1
 8.151433554000000E9     1.380008378096631E-1    5.260481967978771E-1   -3.161213942994379E-3    1.444105491907314E-3   -3.153463440789604E-3    1.510776185309564E-3    2.777604872048967E-1    4.322883744311498E-1
 8.151435384000000E9     1.381148704911821E-1    5.259389747586692E-1   -3.149747105035166E-3    1.445196070104419E-3   -3.170583748890388E-3    1.523165565895569E-3    2.779156397658925E-1    4.323581753780684E-1
 8.151437214000000E9     1.381986966417547E-1    5.259099757770660E-1   -3.158695051298534E-3    1.452945134809488E-3   -3.158619870519032E-3    1.513115559939331E-3    2.779720214263808E-1    4.321322296823755E-1
 8.151439044000000E9     1.384494207967580E-1    5.257619128489913E-1   -3.156374845687758E-3    1.451500646768340E-3   -3.165220997144803E-3    1.535156970973809E-3    2.781276094469198E-1    4.321535555995032E-1
 8.151440874000000E9     1.387021183159374E-1    5.258773827460986E-1   -3.188055062268106E-3    1.467999005052094E-3   -3.154599794408763E-3    1.504751674607369E-3    2.781762948344679E-1    4.320575443173689E-1
 8.151442704000000E9     1.386859064584808E-1    5.257662576910366E-1   -3.150396580424434E-3    1.451297664015220E-3   -3.185123828383628E-3    1.526265094887353E-3    2.782670696214578E-1    4.321617678088612E-1
 8.151444534000000E9     1.389020265275470E-1    5.257039872574332E-1   -3.188667133214275E-3    1.467443732116925E-3   -3.154700020256150E-3    1.524019810121106E-3    2.783374234457888E-1    4.320853627431087E-1
 8.151446364000000E9     1.389656429523697E-1    5.257068490814161E-1   -3.198281677362685E-3    1.467903192890858E-3   -3.171559405430658E-3    1.521611139151883E-3    2.784052105719160E-1    4.318675193490293E-1
 8.151448194000000E9     1.391629211804686E-1    5.256551253057195E-1   -3.209397007529887E-3    1.472912181028038E-3   -3.150130738778794E-3    1.551708518759340E-3    2.786262651109812E-1    4.317392247153037E-1
 8.151450024000000E9     1.393996706095486E-1    5.256753901788220E-1   -3.190333195619758E-3    1.500902683706679E-3   -3.197805670957092E-3    1.549454106380052E-3    2.787256101313090E-1    4.317539509108359E-1
 8.151451854000000E9     1.395513851218710E-1    5.255748639916540E-1   -3.183736028815476E-3    1.488171831029313E-3   -3.184931746305209E-3    1.512133072758349E-3    2.788642732739012E-1    4.315174250634967E-1
 8.151453684000000E9     1.396244362495906E-1    5.254328311105004E-1   -3.214969845790609E-3    1.493322826701216E-3   -3.176686037861673E-3    1.533393906964910E-3    2.789360407573750E-1    4.316566267191695E-1
 8.151455514000000E9     1.399002532451279E-1    5.253582600456435E-1   -3.197392586895992E-3    1.502299271692095E-3   -3.209204925061279E-3    1.569006597361821E-3    2.789669569507126E-1    4.316648537187786E-1
 8.151457344000000E9     1.399371248005079E-1    5.254783952376787E-1   -3.204267889251259E-3    1.511257808631591E-3   -3.211725993197293E-3    1.543437899442507E-3    2.790296425797784E-1    4.314422008944596E-1
 8.151459174000000E9     1.401071653531538E-1    5.253670261878657E-1   -3.243146461207040E-3    1.496938296990881E-3   -3.184142766412644E-3    1.566053652608574E-3    2.792491488223758E-1    4.313574742130625E-1
 8.151461004000000E9     1.402841368415425E-1    5.252236752375697E-1   -3.224260529624778E-3    1.485618130374146E-3   -3.225205429690981E-3    1.565994502129291E-3    2.791846639540376E-1    4.314060701877223E-1
 8.151462834000000E9     1.403670272196030E-1    5.253089718910255E-1   -3.179718280677021E-3    1.533133284657819E-3   -3.247468926098545E-3    1.583693034182346E-3    2.794269202513417E-1    4.313932796201311E-1
 8.151464664000000E9     1.406586891821451E-1    5.253178382589997E-1   -3.239554319389608E-3    1.510972928083271E-3   -3.251839271308992E-3    1.607636429393757E-3    2.795106016149530E-1    4.312599779938394E-1
 8.151466494000000E9     1.408401687308265E-1    5.251255624033401E-1   -3.253895472210653E-3    1.533346114379370E-3   -3.244134264286430E-3    1.562758649916223E-3    2.793956477728245E-1    4.311921166978365E-1
 8.151468324000000E9     1.409748861051571E-1    5.250653333487415E-1   -3.243577790947087E-3    1.510380296184566E-3   -3.230584149455514E-3    1.625821732785699E-3    2.795911862909048E-1    4.312118181685188E-1
 8.151470154000000E9     1.410012005492203E-1    5.251317440649633E-1   -3.241130242615724E-3    1.531596424133179E-3   -3.239572469201547E-3    1.606920639865325E-3    2.796635484836119E-1    4.310501213734740E-1
 8.151471984000000E9     1.412427728854813E-1    5.250099239459853E-1   -3.249123903352974E-3    1.548127931160135E-3   -3.254873042222923E-3    1.604767269517866E-3    2.798714628354065E-1    4.309329526663404E-1
 8.151473814000000E9     1.413247098657011E-1    5.250373420287180E-1   -3.269453530518121E-3    1.539420995467712E-3   -3.250460384163611E-3    1.602162452925540E-3    2.797949784791053E-1    4.308958010981230E-1
 8.151475644000000E9     1.415432091062371E-1    5.249763096983827E-1   -3.266166696853261E-3    1.555948947550005E-3   -3.286737400377454E-3    1.631513905673510E-3    2.800241852989376E-1    4.307689347910792E-1
 8.151477474000000E9     1.417205953099205E-1    5.248834799574478E-1   -3.280535954236097E-3    1.548343403882145E-3   -3.258528335019652E-3    1.602499006656539E-3    2.802929996447858E-1    4.306944931694102E-1
 8.151479304000000E9     1.419440040971557E-1    5.248433369515549E-1   -3.275723114414486E-3    1.559187136490891E-3   -3.289644200306124E-3    1.607284608966584E-3    2.802804991991548E-1    4.306565417764800E-1
 8.151481134000000E9     1.420427297838596E-1    5.247887965798512E-1   -3.280488132610015E-3    1.569507340311340E-3   -3.278549896599605E-3    1.634994998530178E-3    2.803280661891252E-1    4.306333032077909E-1
 8.151482964000000E9     1.422212364033933E-1    5.248134058543760E-1   -3.305414814155299E-3    1.573873567277494E-3   -3.287824023184305E-3    1.652923554069843E-3    2.804343648439891E-1    4.305101638774932E-1
 8.151484794000000E9     1.424341003762908E-1    5.247038959903737E-1   -3.303307538711449E-3    1.602650979339335E-3   -3.271054852789734E-3    1.622740673870451E-3    2.806478912471845E-1    4.305203827928811E-1
 8.151486624000000E9     1.424550803878424E-1    5.247025127551629E-1   -3.272560091711318E-3    1.576461343412628E-3   -3.314256067366217E-3    1.660552741263686E-3    2.805772276848568E-1    4.303787710981133E-1
 8.151488454000000E9     1.427389678691785E-1    5.245919271599455E-1   -3.322482711473476E-3    1.591181396348506E-3   -3.283083511694027E-3    1.659195768757229E-3    2.807505458994559E-1    4.302389962618287E-1
 8.151490284000000E9     1.428973401263520E-1    5.245183130610404E-1   -3.301390651081788E-3    1.609709924373345E-3   -3.319092808383022E-3    1.660583538339445E-3    2.809102268486803E-1    4.303630780078729E-1
 8.151492114000000E9     1.430842830692458E-1    5.246070392014279E-1   -3.332640786801520E-3    1.588444607025787E-3   -3.308995581185139E-3    1.675780938172760E-3    2.808725774240379E-1    4.302107923413288E-1
 8.151493944000000E9     1.431568096168149E-1    5.244657804646308E-1   -3.354781557344661E-3    1.609652659120200E-3   -3.316654767851409E-3    1.656404947866519E-3    2.810740746134202E-1    4.300828607471635E-1
 8.151495774000000E9     1.434200571959984E-1    5.244030142133586E-1   -3.340962025645370E-3    1.624931672441208E-3   -3.322261461355756E-3    1.699238297797878E-3    2.811519800699024E-1    4.300025267606630E-1
 8.151497604000000E9     1.435606500719923E-1    5.243095202160581E-1   -3.316695636428857E-3    1.654332079503474E-3   -3.346775928053895E-3    1.691304184471823E-3    2.812213678258187E-1    4.300563920630777E-1
 8.151499434000000E9     1.437092840445754E-1    5.242870560737922E-1   -3.348705793196319E-3    1.624838764494738E-3   -3.337512542207940E-3    1.703183370870432E-3    2.812638830474383E-1    4.298331324044707E-1
 8.151501264000000E9     1.438166728654391E-1    5.243664551727880E-1   -3.335597299644527E-3    1.632580962924628E-3   -3.350093913820338E-3    1.686531967161294E-3    2.814481045996505E-1    4.298812573851873E-1
 8.151503094000000E9     1.440275074373655E-1    5.241205782400122E-1   -3.361250747751714E-3    1.634889763877812E-3   -3.377614960290977E-3    1.697319852672133E-3    2.814788957880367E-1    4.297137323088502E-1
 8.151504924000000E9     1.440944305915926E-1    5.241611953740166E-1   -3.377901744817239E-3    1.626041168298556E-3   -3.343200978669368E-3    1.744247266881926E-3    2.816367686795667E-1    4.296901501061064E-1
 8.151506754000000E9     1.443900441861396E-1    5.240781810767513E-1   -3.366993975187769E-3    1.657721544944190E-3   -3.370644230315971E-3    1.699814599777689E-3    2.816237425569523E-1    4.296497944078145E-1
 8.151508584000000E9     1.444691980938449E-1    5.240432737763203E-1   -3.386101040959942E-3    1.691449871381959E-3   -3.348486456269778E-3    1.729666863222953E-3    2.818373993539371E-1    4.296122382708926E-1
 8.151510414000000E9     1.445289015714123E-1    5.240586783487687E-1   -3.389288235893378E-3    1.667258847009857E-3   -3.406199576267969E-3    1.726628727368571E-3    2.818950807466610E-1    4.294215914043060E-1
 8.151512244000000E9     1.448441251554831E-1    5.239246907110249E-1   -3.419832573725117E-3    1.708524880727498E-3   -3.396908875209772E-3    1.735983328176770E-3    2.820717614382944E-1    4.293038761116730E-1
 8.151514074000000E9     1.449742638151178E-1    5.238987293817640E-1   -3.416139664008657E-3    1.700605584513927E-3   -3.413058630981004E-3    1.759519582812883E-3    2.822634654077114E-1    4.294452189399751E-1
 8.151515904000000E9     1.451647044528103E-1    5.238831971945170E-1   -3.428659128373781E-3    1.691710222830027E-3   -3.418792393676835E-3    1.773419877905864E-3    2.823766162851274E-1    4.293122744528284E-1
 8.151517734000000E9     1.453095206369690E-1    5.237173301965689E-1   -3.423448590731492E-3    1.707271139335165E-3   -3.370805426863299E-3    1.744959376405751E-3    2.825204015345175E-1    4.291467872794000E-1
 8.151519564000000E9     1.454183119772948E-1    5.238142069982787E-1   -3.430451273765492E-3    1.744970531011809E-3   -3.406099547204253E-3    1.790358722462749E-3    2.825129799376040E-1    4.290248556134651E-1
 8.151521394000000E9     1.456262794223086E-1    5.236298216797860E-1   -3.430720108107744E-3    1.729625040826280E-3   -3.434395644888205E-3    1.789435636836240E-3    2.824833192285722E-1    4.290801681869305E-1
 8.151523224000000E9     1.457641736788588E-1    5.235531329033456E-1   -3.415443385780745E-3    1.736408272597049E-3   -3.433503941521954E-3    1.818342553488863E-3    2.826774565448604E-1    4.290176651966235E-1
 8.151525054000000E9     1.459910969633506E-1    5.235055378982320E-1   -3.449979860439839E-3    1.742134189347743E-3   -3.450908049006137E-3    1.819596566211461E-3    2.827084047177957E-1    4.289505437952122E-1
 8.151526884000000E9     1.461568356036756E-1    5.233948827359273E-1   -3.471527593267966E-3    1.768416053737149E-3   -3.483461248130634E-3    1.822198757925443E-3    2.828367803316666E-1    4.289332684278336E-1
