#  HZ   S   RI   R     50.00 
! Rohde & Schwarz Vector Network Analyzer 
! Rohde-Schwarz,ZNB20-2Port,1311601062101988,3.16
! Created: UTC 3/21/2024, 1:05:37 AM
! freq[Hz]                re:S11                  im:S11                  re:S21                  im:S21                  re:S12                  im:S12                  re:S22                  im:S22
 8.146600718000000E9    -2.027482299078651E-1    4.929810918241825E-1   -2.519924292197210E-3   -6.940295312936349E-4   -2.618512472165360E-3   -6.885366510053008E-4   -3.613030873506256E-2    5.125493647009282E-1
 8.146625250650000E9    -2.011978974704823E-1    4.936189445207760E-1   -2.549362776172935E-3   -6.965321976940724E-4   -2.616847218629788E-3   -6.448524533833351E-4   -3.462056464748099E-2    5.126746176248230E-1
 8.146649783300000E9    -1.996325741313799E-1    4.943312992167773E-1   -2.547373607302498E-3   -6.613916015368298E-4   -2.611702626432350E-3   -6.441385456005798E-4   -3.298032788764846E-2    5.127726792917888E-1
 8.146674315950000E9    -1.979120014097843E-1    4.952214725348341E-1   -2.554147603018254E-3   -7.018318953857490E-4   -2.615410427470654E-3   -6.060141231215749E-4   -3.140066840148804E-2    5.129064871009935E-1
 8.146698848600000E9    -1.963727126076478E-1    4.957941681707677E-1   -2.568354407461641E-3   -6.783486267190704E-4   -2.613002837607914E-3   -6.452643782322634E-4   -2.979028955142723E-2    5.129891757959263E-1
 8.146723381250000E9    -1.949736109136593E-1    4.964175402757345E-1   -2.536129868380893E-3   -6.516035024078580E-4   -2.571912668347410E-3   -6.368616430971755E-4   -2.815893317323776E-2    5.130271090700861E-1
 8.146747913900000E9    -1.932208078385855E-1    4.971454352504043E-1   -2.561935441601112E-3   -6.548792241205429E-4   -2.637152719702216E-3   -6.175199444366128E-4   -2.655587754270747E-2    5.130918799147552E-1
 8.146772446550000E9    -1.916319470363915E-1    4.977228176207505E-1   -2.579838790701883E-3   -6.227516845688852E-4   -2.619513469721334E-3   -5.880752823918284E-4   -2.498708771599039E-2    5.132092858812840E-1
 8.146796979200000E9    -1.900811584089744E-1    4.984258846801906E-1   -2.574048393608911E-3   -6.439925572795868E-4   -2.617031669197158E-3   -5.690942876356884E-4   -2.339549074994321E-2    5.130257420824339E-1
 8.146821511850000E9    -1.885461101301705E-1    4.990151826407544E-1   -2.564153043094291E-3   -6.208906758499338E-4   -2.643087826451896E-3   -5.568338078193935E-4   -2.167891291942104E-2    5.131483850579454E-1
 8.146846044500000E9    -1.869430075922355E-1    4.998637470626492E-1   -2.559702598287606E-3   -6.088412285440927E-4   -2.615454059367792E-3   -5.716064745387588E-4   -2.005712135242641E-2    5.133452398515169E-1
 8.146870577150000E9    -1.853704247163788E-1    5.003814586158849E-1   -2.551642403462913E-3   -5.862501788159611E-4   -2.629284828051263E-3   -5.724526485588496E-4   -1.850460888867909E-2    5.133272818004766E-1
 8.146895109800000E9    -1.837439677321255E-1    5.010427131783243E-1   -2.579203495413051E-3   -6.192350426889033E-4   -2.648502443972692E-3   -5.835628241953921E-4   -1.691931656099628E-2    5.133706683919141E-1
 8.146919642450000E9    -1.819932761773578E-1    5.016559370274346E-1   -2.561071577593576E-3   -5.985244882861165E-4   -2.635231862318634E-3   -5.806255329628450E-4   -1.537139841671345E-2    5.132392288110226E-1
 8.146944175100000E9    -1.804918555121258E-1    5.022499101773676E-1   -2.582253658369837E-3   -6.054556915224730E-4   -2.639419600397472E-3   -5.420079918203270E-4   -1.362943358094690E-2    5.135464495238888E-1
 8.146968707750000E9    -1.790074591806943E-1    5.028828904939494E-1   -2.572904764626109E-3   -5.597115858866531E-4   -2.632747869242170E-3   -5.104628935924950E-4   -1.204915627765264E-2    5.133883175772058E-1
 8.146993240400000E9    -1.774200009257798E-1    5.035588745495883E-1   -2.589489128044737E-3   -5.615850461915776E-4   -2.638668716116226E-3   -5.205629414741759E-4   -1.038198504858427E-2    5.133634572550448E-1
 8.147017773050000E9    -1.756234833604437E-1    5.041458777079975E-1   -2.577353717655237E-3   -5.416408126443945E-4   -2.625763216175035E-3   -5.190557576963669E-4   -8.859289542497217E-3    5.133700266817525E-1
 8.147042305700000E9    -1.740757734952839E-1    5.047468499008664E-1   -2.564243796170665E-3   -5.448940135347640E-4   -2.660760653228937E-3   -5.363866165488412E-4   -7.141216246997283E-3    5.134000527928682E-1
 8.147066838350000E9    -1.724396279921326E-1    5.053440033025519E-1   -2.618547136142263E-3   -5.589226281669754E-4   -2.644342659495581E-3   -4.872536039960424E-4   -5.544016398593591E-3    5.134847359353565E-1
 8.147091371000000E9    -1.709486036620744E-1    5.059928418538860E-1   -2.584820078760529E-3   -5.289579420825637E-4   -2.622410309351067E-3   -4.739687140632987E-4   -4.039172569298457E-3    5.134246797671489E-1
 8.147115903650000E9    -1.692426888283866E-1    5.064515378493121E-1   -2.577706181777656E-3   -4.832985723301858E-4   -2.658801200040716E-3   -4.780990790687970E-4   -2.435764574403159E-3    5.133909185927571E-1
 8.147140436300000E9    -1.677516402326338E-1    5.072428822486593E-1   -2.581121179888511E-3   -5.005556771936375E-4   -2.657776109439156E-3   -4.854948888815824E-4   -7.658919029009256E-4    5.134113910695970E-1
 8.147164968950000E9    -1.660311207237021E-1    5.076462191311299E-1   -2.579338149068481E-3   -4.913373889721192E-4   -2.626694523747239E-3   -4.643314025824141E-4    8.086930805214927E-4    5.132824917956350E-1
 8.147189501600000E9    -1.644119029389098E-1    5.082332447226412E-1   -2.604572465996521E-3   -5.058200040230108E-4   -2.630313859732453E-3   -4.598824826050857E-4    2.421379950724755E-3    5.132909511098589E-1
 8.147214034250000E9    -1.627439677932151E-1    5.088434357157468E-1   -2.588471813753065E-3   -4.907746965193508E-4   -2.634653497991401E-3   -4.290566712725346E-4    4.069248685465834E-3    5.133251225260694E-1
 8.147238566900000E9    -1.611629428635109E-1    5.094064882538886E-1   -2.565244244360009E-3   -4.984299024742539E-4   -2.640237950349259E-3   -4.335196253059472E-4    5.709792042478756E-3    5.131006867764839E-1
 8.147263099550000E9    -1.595642778073468E-1    5.099730394318374E-1   -2.594016052832287E-3   -4.531438154183262E-4   -2.630967866129632E-3   -4.151331355345736E-4    7.353308069812031E-3    5.130909268836663E-1
 8.147287632200000E9    -1.579635609433051E-1    5.105351984268787E-1   -2.563705403522160E-3   -4.648425691444110E-4   -2.678372185599437E-3   -4.166244571787835E-4    8.942932519147410E-3    5.131107053890975E-1
 8.147312164850000E9    -1.562398088897378E-1    5.111234899578232E-1   -2.604607414178437E-3   -4.582865694992663E-4   -2.634447302702118E-3   -4.202369357604321E-4    1.041531787505828E-2    5.129756383601377E-1
 8.147336697500000E9    -1.547801279334672E-1    5.115566014826978E-1   -2.588477445713636E-3   -4.405304035114629E-4   -2.650186886432112E-3   -3.988869605295175E-4    1.196095673866616E-2    5.130051210404202E-1
 8.147361230150000E9    -1.531033110897426E-1    5.120770037701341E-1   -2.594205498903056E-3   -4.337438007075179E-4   -2.639919158660589E-3   -3.970646310834441E-4    1.377289181448826E-2    5.128170536977942E-1
 8.147385762800000E9    -1.513510662585872E-1    5.126594372224085E-1   -2.611642006421649E-3   -4.321753571581482E-4   -2.589499799158106E-3   -3.711912210904766E-4    1.528540101937715E-2    5.128280422768503E-1
 8.147410295450000E9    -1.497994406527531E-1    5.132029636489458E-1   -2.586588876052452E-3   -3.944995120551489E-4   -2.632169963526435E-3   -3.401759610455189E-4    1.683704348015557E-2    5.127882577015829E-1
 8.147434828100000E9    -1.481326707185454E-1    5.136646292567637E-1   -2.593439179405117E-3   -3.896981588908226E-4   -2.671918513421793E-3   -3.413763435808963E-4    1.859446704621423E-2    5.127657538401068E-1
 8.147459360750000E9    -1.465457685354564E-1    5.142299101714118E-1   -2.602126994475225E-3   -4.055375214592866E-4   -2.651621436743321E-3   -3.390528787837015E-4    2.011377692330510E-2    5.126749807073590E-1
 8.147483893400000E9    -1.449036078730706E-1    5.147500343906810E-1   -2.585962817215162E-3   -3.798804531169976E-4   -2.666327337647394E-3   -3.355040143594465E-4    2.184830297243166E-2    5.125675257273206E-1
 8.147508426050000E9    -1.432076877352881E-1    5.153173824499880E-1   -2.603054707749462E-3   -3.709323223921800E-4   -2.661713904592871E-3   -3.549102578444595E-4    2.338118172177936E-2    5.123965762062688E-1
 8.147532958700000E9    -1.415590240844204E-1    5.156888527033696E-1   -2.604668110328188E-3   -3.741318954920580E-4   -2.636117989744048E-3   -3.341490260791090E-4    2.501166168581635E-2    5.124360285935063E-1
 8.147557491350000E9    -1.400126922865410E-1    5.163237036771476E-1   -2.587916738649164E-3   -3.702702529662206E-4   -2.676679839351262E-3   -3.030911918648166E-4    2.655593817154526E-2    5.121815160084643E-1
 8.147582024000000E9    -1.382020313390494E-1    5.167273610464748E-1   -2.580444841746695E-3   -3.709640121429840E-4   -2.653318138611983E-3   -3.192285677806497E-4    2.824004112811940E-2    5.121415456568059E-1
 8.147606556650000E9    -1.366456700524926E-1    5.172056572503109E-1   -2.603765049530185E-3   -3.560199492665314E-4   -2.622094775994408E-3   -2.795332300112271E-4    2.976750329218677E-2    5.120394692571474E-1
 8.147631089300000E9    -1.349547167284617E-1    5.177517391213811E-1   -2.598841229984128E-3   -3.389135602471255E-4   -2.669751012410960E-3   -2.944674851327324E-4    3.135023310609786E-2    5.118318919820859E-1
 8.147655621950000E9    -1.334299479534513E-1    5.182532839026280E-1   -2.593822982200597E-3   -3.385525290118657E-4   -2.659071301392852E-3   -2.734578964426722E-4    3.291003461182279E-2    5.118463665587367E-1
 8.147680154600000E9    -1.317167008307565E-1    5.186969731538520E-1   -2.621749211031402E-3   -3.149344151404267E-4   -2.655185252548746E-3   -2.863690031823953E-4    3.448680323059432E-2    5.116234511348807E-1
 8.147704687250000E9    -1.300826832262931E-1    5.190892341341250E-1   -2.616713871414336E-3   -3.041814256496284E-4   -2.646967462700583E-3   -2.702263871366491E-4    3.607922633031942E-2    5.115325934487843E-1
 8.147729219900000E9    -1.285079730626398E-1    5.194688234404721E-1   -2.607046682101637E-3   -3.167708843458216E-4   -2.673018317659345E-3   -2.265034357020911E-4    3.778640269545382E-2    5.113137970518977E-1
 8.147753752550000E9    -1.267917630436641E-1    5.200749998471529E-1   -2.609676084375154E-3   -2.826910127997705E-4   -2.670314043001668E-3   -2.910529174251428E-4    3.930811717330075E-2    5.110961512937963E-1
 8.147778285200000E9    -1.251305051135202E-1    5.204633505334670E-1   -2.609883331891207E-3   -2.746961410146363E-4   -2.640197648798613E-3   -2.271209131109733E-4    4.080746511776759E-2    5.109736013077291E-1
 8.147802817850000E9    -1.234681004994496E-1    5.208902462227513E-1   -2.609235076845018E-3   -2.691365920481323E-4   -2.649441635363562E-3   -2.321208073298984E-4    4.258846847272327E-2    5.108738182686060E-1
 8.147827350500000E9    -1.218632656337543E-1    5.212521228455607E-1   -2.636637175208522E-3   -2.687389253687320E-4   -2.669066517008927E-3   -2.152022171145843E-4    4.399145619715377E-2    5.107345989354716E-1
 8.147851883150000E9    -1.202374099937311E-1    5.218715941784695E-1   -2.602173169195676E-3   -2.456815130452751E-4   -2.657559909190880E-3   -2.302314218257791E-4    4.575375957741851E-2    5.105054342040037E-1
 8.147876415800000E9    -1.185687313716450E-1    5.220630006544247E-1   -2.630511707433575E-3   -2.647086939417537E-4   -2.647804306297175E-3   -2.201323202781925E-4    4.720496824295602E-2    5.104073630370889E-1
 8.147900948450000E9    -1.168350449037003E-1    5.225282349327521E-1   -2.614997144020693E-3   -2.370142865412047E-4   -2.661829591560127E-3   -1.795005147437542E-4    4.892917249654991E-2    5.101822444181641E-1
 8.147925481100000E9    -1.151438946967689E-1    5.232218300506993E-1   -2.626952215881449E-3   -2.378231467881847E-4   -2.676688256988035E-3   -1.784200679777814E-4    5.047891632711514E-2    5.099591775027362E-1
 8.147950013750000E9    -1.135323060158041E-1    5.234245060980767E-1   -2.587601623791029E-3   -2.243733232570725E-4   -2.673044032499588E-3   -1.942819254097086E-4    5.215211557634073E-2    5.097736242729815E-1
 8.147974546400000E9    -1.119056838548143E-1    5.238276091578794E-1   -2.629959506739662E-3   -2.082377687333995E-4   -2.648802304290833E-3   -1.921335489286918E-4    5.364360848180834E-2    5.096498270895657E-1
 8.147999079050000E9    -1.101705130860547E-1    5.242643329232443E-1   -2.617357717371840E-3   -1.986511307466245E-4   -2.651795635788848E-3   -1.564332686029026E-4    5.520545364875305E-2    5.094252419275028E-1
 8.148023611700000E9    -1.084860602869327E-1    5.245437520791149E-1   -2.622301906669110E-3   -1.896720137489880E-4   -2.655984589540162E-3   -1.292642789676860E-4    5.680930029286689E-2    5.092448698345137E-1
 8.148048144350000E9    -1.068627644097690E-1    5.250329772185960E-1   -2.614118379415223E-3   -1.903895102230412E-4   -2.661949673839405E-3   -1.399592461217464E-4    5.837057828606348E-2    5.090446720116760E-1
 8.148072677000000E9    -1.051927107433999E-1    5.254399585636579E-1   -2.645415929145186E-3   -2.006748779216628E-4   -2.666836293291208E-3   -1.485321837303061E-4    5.985848074348520E-2    5.087892320798767E-1
 8.148097209650000E9    -1.035316565567193E-1    5.256336914076875E-1   -2.617486719991959E-3   -1.697240903221110E-4   -2.652603014379014E-3   -1.150733685588668E-4    6.145547269373496E-2    5.084591528659348E-1
 8.148121742300000E9    -1.017895828587531E-1    5.261056096022320E-1   -2.641594835688789E-3   -1.941540223841666E-4   -2.636573408265261E-3   -1.067900831122916E-4    6.312012792459706E-2    5.083313679648009E-1
 8.148146274950000E9    -1.001981977306287E-1    5.265334950957001E-1   -2.612681207470843E-3   -1.570222451980428E-4   -2.643850611186220E-3   -1.109699940982659E-4    6.469915432968740E-2    5.081266036280203E-1
 8.148170807600000E9    -9.854272320901732E-2    5.267671348643872E-1   -2.605115431226901E-3   -1.424783048737297E-4   -2.684143295494060E-3   -1.231036233247250E-4    6.637232575123035E-2    5.078681711753086E-1
 8.148195340250000E9    -9.692098261997922E-2    5.271592013927470E-1   -2.628755018705789E-3   -1.319931191742570E-4   -2.686189999843458E-3   -8.005141797188694E-5    6.797564042004291E-2    5.075832546842409E-1
 8.148219872900000E9    -9.512094126142237E-2    5.274886317127642E-1   -2.612611718445962E-3   -1.158873331871641E-4   -2.671833662025345E-3   -5.546494118560993E-5    6.952102751828922E-2    5.074307418437756E-1
 8.148244405550000E9    -9.350857200654206E-2    5.277940672064785E-1   -2.625791654701413E-3   -1.245892999736100E-4   -2.657269318573747E-3   -7.294723764124351E-5    7.120069458587441E-2    5.071292971028363E-1
 8.148268938200000E9    -9.161816020132627E-2    5.282409480564290E-1   -2.628075728468567E-3   -1.033812009941943E-4   -2.678814187923330E-3   -6.304875194398590E-5    7.270875135581052E-2    5.068076893856902E-1
 8.148293470850000E9    -9.013964238720611E-2    5.285605663508073E-1   -2.609488625852777E-3   -9.100445191632523E-5   -2.623712014406073E-3   -2.514237809520759E-5    7.410664319979404E-2    5.065337914497599E-1
 8.148318003500000E9    -8.845578088374069E-2    5.288424314675354E-1   -2.625645504175152E-3   -1.005472702861687E-4   -2.655809866960152E-3   -5.428111657658967E-5    7.572630552281001E-2    5.064094808713988E-1
 8.148342536150000E9    -8.685015592296595E-2    5.293220578781347E-1   -2.625247111208147E-3   -9.057031146780089E-5   -2.658379920433654E-3   -4.737616697012918E-5    7.722635496815895E-2    5.061004415237549E-1
 8.148367068800000E9    -8.504230262588261E-2    5.295068619687027E-1   -2.614469411122019E-3   -5.878998889716485E-5   -2.654068430073886E-3   -6.282023156090072E-6    7.874234843905034E-2    5.060396837049475E-1
 8.148391601450000E9    -8.335271930389140E-2    5.298823979371546E-1   -2.625779233693390E-3   -4.447608181151955E-5   -2.682727465700829E-3   -1.299871882178677E-5    8.052992406470880E-2    5.055615901725764E-1
 8.148416134100000E9    -8.165986143959292E-2    5.301439543174405E-1   -2.618764987313669E-3   -7.924741581748024E-5   -2.667195902019685E-3    2.122082922531860E-5    8.205288119809744E-2    5.052676526607306E-1
 8.148440666750000E9    -8.008371442539874E-2    5.304626389508940E-1   -2.638162916417025E-3   -4.638990410036664E-5   -2.654607981916503E-3    1.304401773306982E-6    8.371723061307491E-2    5.050006274226584E-1
 8.148465199400000E9    -7.829547280723186E-2    5.308049683005219E-1   -2.608059622143627E-3   -2.913446132160224E-5   -2.667051527143230E-3    1.692066449261496E-6    8.528053762434516E-2    5.047279279728052E-1
 8.148489732050000E9    -7.659662469026644E-2    5.309360893338211E-1   -2.635610234953271E-3   -2.872492828432157E-5   -2.649593388489558E-3    6.772420448324203E-6    8.694716651164656E-2    5.044218780614561E-1
 8.148514264700000E9    -7.499490972929203E-2    5.314453346349635E-1   -2.636261006558127E-3   -1.614795481411206E-5   -2.674446090205859E-3    1.553991627288867E-6    8.830617552287232E-2    5.040530977606916E-1
 8.148538797350000E9    -7.317867452494380E-2    5.317018943139237E-1   -2.616248841789031E-3   -7.425935276978388E-6   -2.668796176960746E-3    2.911532698141114E-5    8.994740124350051E-2    5.036622692180043E-1
 8.148563330000000E9    -7.155697586022670E-2    5.317933648590335E-1   -2.624843435483577E-3    1.466100170881830E-6   -2.674742540117252E-3    3.374216879729896E-5    9.125727332732377E-2    5.033986743285510E-1
 8.148587862650000E9    -6.994749296379642E-2    5.322108228260736E-1   -2.623351901498098E-3   -1.510342363631294E-5   -2.634684438062488E-3    3.236115543704757E-5    9.307437737977317E-2    5.031487919780923E-1
 8.148612395300000E9    -6.828930431934079E-2    5.323578310841899E-1   -2.621034559530991E-3    2.847060732406589E-6   -2.632634705856447E-3    9.521775536399063E-5    9.456877590195596E-2    5.028552730425182E-1
 8.148636927950000E9    -6.641445359919990E-2    5.325502992114683E-1   -2.614905375073530E-3    1.666727815148231E-5   -2.673195302685265E-3    7.556723964336872E-5    9.611765029974992E-2    5.025868530555267E-1
 8.148661460600000E9    -6.496215284402825E-2    5.329916616127260E-1   -2.634034697200196E-3    3.862839859006151E-5   -2.647981015861030E-3    7.759131975294986E-5    9.767040472727725E-2    5.021397769908206E-1
 8.148685993250000E9    -6.319135596047490E-2    5.332781574450427E-1   -2.611787722452560E-3    5.171809943514008E-5   -2.684776073480546E-3    8.569460837461326E-5    9.920954923461563E-2    5.018666314370377E-1
 8.148710525900000E9    -6.152545429362215E-2    5.333447447798194E-1   -2.641918819575121E-3    6.661112641908942E-5   -2.658861286080587E-3    8.833267026224024E-5    1.008973004426637E-1    5.014849843155564E-1
 8.148735058550000E9    -5.972102586495968E-2    5.336624029667989E-1   -2.618910649414892E-3    5.798552821647059E-5   -2.654604643476647E-3    1.331208249228495E-4    1.023456145259262E-1    5.011353357998567E-1
 8.148759591200000E9    -5.809305219619443E-2    5.339544687687320E-1   -2.618465957011271E-3    9.053418787557511E-5   -2.689441419546711E-3    1.220480673319497E-4    1.040505953803673E-1    5.008582249253392E-1
 8.148784123850000E9    -5.639134961208077E-2    5.340509210839496E-1   -2.640605205962621E-3    6.104896777496596E-5   -2.650715538985498E-3    1.132706944156353E-4    1.054676253225167E-1    5.004683926797248E-1
 8.148808656500000E9    -5.466965301885202E-2    5.343325303567366E-1   -2.624279398852852E-3    9.095209612418086E-5   -2.690075292456855E-3    1.317517635327475E-4    1.070669842814757E-1    5.001476618065671E-1
