#  HZ   S   RI   R     50.00 
! Rohde & Schwarz Vector Network Analyzer 
! Rohde-Schwarz,ZNB20-2Port,1311601062101988,3.16
! Created: UTC 3/21/2024, 1:06:03 AM
! freq[Hz]                re:S11                  im:S11                  re:S21                  im:S21                  re:S12                  im:S12                  re:S22                  im:S22
 8.147019871000000E9    -1.759634819441613E-1    5.038857030584275E-1   -2.561320137116271E-3   -5.808867710593528E-4   -2.645198377197590E-3   -5.237053331736159E-4   -9.055263011228372E-3    5.132129657153142E-1
 8.147042601325000E9    -1.744197804204460E-1    5.045717000696174E-1   -2.564874342144867E-3   -5.543102187802779E-4   -2.640958986510727E-3   -4.965693209255136E-4   -7.366356101965423E-3    5.133920300000051E-1
 8.147065331650000E9    -1.729442746187410E-1    5.050345635796432E-1   -2.593483163095712E-3   -5.270227145866990E-4   -2.656283126255729E-3   -4.916601867104904E-4   -5.914350607309357E-3    5.133280152171300E-1
 8.147088061975000E9    -1.713920419890462E-1    5.056554498606929E-1   -2.565787275069443E-3   -5.354673413158589E-4   -2.643566075166706E-3   -4.883486460036674E-4   -4.410043279114421E-3    5.132160866874940E-1
 8.147110792300000E9    -1.700667959844250E-1    5.062706767446755E-1   -2.560613001847125E-3   -5.156231414076989E-4   -2.614736773684314E-3   -4.795821741361415E-4   -2.877166460704755E-3    5.133394341223378E-1
 8.147133522625000E9    -1.683668826065298E-1    5.066810469428669E-1   -2.583469491889485E-3   -5.315163534337557E-4   -2.629475726386534E-3   -5.043832116653804E-4   -1.489215940571403E-3    5.133090874978877E-1
 8.147156252950000E9    -1.669008982281247E-1    5.072977533491297E-1   -2.599490765379350E-3   -5.051920857182160E-4   -2.615318635050933E-3   -4.569738512704565E-4   -1.109352823627194E-4    5.132546987278396E-1
 8.147178983275000E9    -1.655502063387563E-1    5.078643907809217E-1   -2.590431606873128E-3   -4.974878824654966E-4   -2.637065092548742E-3   -4.290648096682877E-4    1.492380906813910E-3    5.131039283370886E-1
 8.147201713600000E9    -1.639672463921232E-1    5.083305865074378E-1   -2.576991803186226E-3   -4.933159314640897E-4   -2.627701114415395E-3   -4.617861726830041E-4    2.949805786103961E-3    5.131136926664063E-1
 8.147224443925000E9    -1.624200091911626E-1    5.088057399782160E-1   -2.594044768074800E-3   -4.935787929268338E-4   -2.611497187781957E-3   -4.519815689871310E-4    4.528228056552136E-3    5.130865883270264E-1
 8.147247174250000E9    -1.609448756824917E-1    5.094285117208012E-1   -2.576158037550339E-3   -4.785229543132637E-4   -2.630579979423136E-3   -4.467005379332081E-4    5.954642434995963E-3    5.131369916738345E-1
 8.147269904575000E9    -1.594154257640186E-1    5.099310952442506E-1   -2.587199902763366E-3   -4.722377146918736E-4   -2.643453706189285E-3   -4.235628434750784E-4    7.496953058268901E-3    5.129768131520906E-1
 8.147292634900000E9    -1.579528939936200E-1    5.103841875658894E-1   -2.606768240639485E-3   -4.409254814385484E-4   -2.652201447469641E-3   -4.098165719659125E-4    9.002242497278809E-3    5.129422117438011E-1
 8.147315365225000E9    -1.563776359577759E-1    5.108838659844113E-1   -2.592457654208608E-3   -4.618776805464219E-4   -2.676716586151727E-3   -4.343831000605548E-4    1.050198554201361E-2    5.129300015638167E-1
 8.147338095550000E9    -1.549099819973097E-1    5.113957584723915E-1   -2.589889842331895E-3   -4.524099869641102E-4   -2.637714866230540E-3   -3.960933436426697E-4    1.189491425484765E-2    5.129764788667518E-1
 8.147360825875000E9    -1.533296794480756E-1    5.119500959334706E-1   -2.601433246165404E-3   -4.505853976007097E-4   -2.642259104227490E-3   -3.912909545983006E-4    1.349629252425148E-2    5.128841116499399E-1
 8.147383556200000E9    -1.518491644636317E-1    5.124067570648104E-1   -2.591720200603261E-3   -4.207786358872077E-4   -2.650509801958534E-3   -3.753456814588973E-4    1.492916387850668E-2    5.127861166742093E-1
 8.147406286525000E9    -1.503421018195802E-1    5.127977947254155E-1   -2.563857900144218E-3   -4.253266318374414E-4   -2.638874749883435E-3   -3.713779737131472E-4    1.639262607397933E-2    5.126934721698478E-1
 8.147429016850000E9    -1.488618138180555E-1    5.133988024138056E-1   -2.596508015728949E-3   -3.959873336885582E-4   -2.653696332600710E-3   -3.634707777746394E-4    1.785514313440159E-2    5.125548857145295E-1
 8.147451747175000E9    -1.473247333446848E-1    5.138733219953572E-1   -2.618512072634063E-3   -3.997820478553002E-4   -2.675985973529123E-3   -3.500046559279025E-4    1.931849067245050E-2    5.126140349922600E-1
 8.147474477500000E9    -1.458858800790541E-1    5.141399318908345E-1   -2.594343514557448E-3   -3.846262106321163E-4   -2.619779996113830E-3   -3.295947926472560E-4    2.077903081626241E-2    5.124579371778949E-1
 8.147497207825000E9    -1.443225265151624E-1    5.148774967110926E-1   -2.593016170733177E-3   -3.628451246841238E-4   -2.683893590997422E-3   -3.388625840787197E-4    2.231921914607607E-2    5.125455758511980E-1
 8.147519938150000E9    -1.426887771993477E-1    5.152613908316279E-1   -2.593523080862420E-3   -3.746292093869194E-4   -2.647014680334753E-3   -3.141735907257448E-4    2.382136971506620E-2    5.122914872675026E-1
 8.147542668475000E9    -1.412721499891278E-1    5.157144051598992E-1   -2.611603870995638E-3   -3.722070448494143E-4   -2.639028279860868E-3   -3.106665956175045E-4    2.527311044286594E-2    5.121708189709303E-1
 8.147565398800000E9    -1.398547784962312E-1    5.161948481084788E-1   -2.614258874894365E-3   -3.689870749370636E-4   -2.651018366829693E-3   -3.205386906485576E-4    2.688072742679807E-2    5.120668247394562E-1
 8.147588129125000E9    -1.382528274876133E-1    5.166584213235944E-1   -2.591093199533415E-3   -3.372962174329251E-4   -2.670646915031919E-3   -2.873592668694487E-4    2.841615348866839E-2    5.121216291377220E-1
 8.147610859450000E9    -1.367197087690645E-1    5.171818412998359E-1   -2.582233419561795E-3   -3.603202656849037E-4   -2.662863255145927E-3   -2.960197502167391E-4    2.957803612708510E-2    5.118825278654907E-1
 8.147633589775000E9    -1.351978652943061E-1    5.176260582481566E-1   -2.601933286287672E-3   -3.355269438326183E-4   -2.639468380134187E-3   -3.154243738980235E-4    3.139396626825364E-2    5.116776283595121E-1
 8.147656320100000E9    -1.337821777316715E-1    5.178664887421700E-1   -2.625049643274803E-3   -3.155691743577401E-4   -2.647520030779201E-3   -2.886812637385326E-4    3.256963425253973E-2    5.117864130006622E-1
 8.147679050425000E9    -1.319457729779385E-1    5.184142349616927E-1   -2.610758591303310E-3   -3.255814760900421E-4   -2.649614622069341E-3   -2.715710778927303E-4    3.423570606389786E-2    5.114826428022389E-1
 8.147701780750000E9    -1.305142979245391E-1    5.189132509053495E-1   -2.610682938748204E-3   -3.367054795701401E-4   -2.635145403651987E-3   -2.729994484623413E-4    3.564027071291714E-2    5.115153807727626E-1
 8.147724511075000E9    -1.291764832990601E-1    5.192591165245156E-1   -2.610293631955976E-3   -2.984649533368404E-4   -2.642139485550660E-3   -2.483220085209050E-4    3.726813772816366E-2    5.112252611520889E-1
 8.147747241400000E9    -1.275495792281764E-1    5.196169310341718E-1   -2.601769538788939E-3   -3.280408557910519E-4   -2.619107100811451E-3   -2.191202605780770E-4    3.858364080864451E-2    5.111403314153645E-1
 8.147769971725000E9    -1.258974538397068E-1    5.201446062659646E-1   -2.615591987184586E-3   -2.785415468839527E-4   -2.652598530582495E-3   -2.742181863579590E-4    4.003748572042082E-2    5.110560457397511E-1
 8.147792702050000E9    -1.244217430609781E-1    5.204009208207410E-1   -2.619674766956628E-3   -2.795060240946169E-4   -2.659887009592883E-3   -2.334777673994162E-4    4.166574668194938E-2    5.109226985224041E-1
 8.147815432375000E9    -1.229002119901666E-1    5.208445916750222E-1   -2.611857830478135E-3   -2.830484935385529E-4   -2.637226985569497E-3   -2.325993062150266E-4    4.306890639240381E-2    5.107702750189556E-1
 8.147838162700000E9    -1.213391649280235E-1    5.214317253043161E-1   -2.608950817267653E-3   -2.537339674997229E-4   -2.681950753405661E-3   -1.996873449711094E-4    4.459070588657944E-2    5.105575782467542E-1
 8.147860893025000E9    -1.198644456783792E-1    5.216617677419200E-1   -2.612645688806161E-3   -2.428264252827562E-4   -2.678057693180591E-3   -2.222428708731022E-4    4.603349418187677E-2    5.103738744287877E-1
 8.147883623350000E9    -1.183218585497249E-1    5.221669932989995E-1   -2.620289118532935E-3   -2.559133508905883E-4   -2.643896032424268E-3   -1.843049763790722E-4    4.746406754409804E-2    5.101887769946254E-1
 8.147906353675000E9    -1.167778394896212E-1    5.225337885831113E-1   -2.597287596432952E-3   -2.358796733576955E-4   -2.664631870845424E-3   -1.863351784757037E-4    4.901297620802202E-2    5.100678110478670E-1
 8.147929084000000E9    -1.151852785730596E-1    5.228565363026801E-1   -2.601877782101105E-3   -2.398399051452330E-4   -2.646963299104350E-3   -1.873333122827199E-4    5.031915640503867E-2    5.099692881472666E-1
 8.147951814325000E9    -1.137488311309931E-1    5.232651766134614E-1   -2.611846732747475E-3   -2.124457404575958E-4   -2.666048377435933E-3   -1.757481994752296E-4    5.193063807562501E-2    5.099498970880165E-1
 8.147974544650000E9    -1.123562525552405E-1    5.236595201761554E-1   -2.609224598956568E-3   -2.142728225033250E-4   -2.652970941446535E-3   -1.618507295915050E-4    5.333299309441229E-2    5.095247567282437E-1
 8.147997274975000E9    -1.105151690054769E-1    5.239820569336374E-1   -2.589225749105588E-3   -1.679446067855449E-4   -2.667155949532047E-3   -1.631677554157908E-4    5.470203227192734E-2    5.093689593653118E-1
 8.148020005300000E9    -1.091248250742675E-1    5.244017568621980E-1   -2.615005260223978E-3   -2.210533706221122E-4   -2.664667888425078E-3   -1.513183808701274E-4    5.626282535074353E-2    5.091497753379839E-1
 8.148042735625000E9    -1.076373459738832E-1    5.246624399836621E-1   -2.621485764887860E-3   -1.835149479132178E-4   -2.658953178218253E-3   -1.342412781875490E-4    5.780701664396238E-2    5.089397103915128E-1
 8.148065465950000E9    -1.062000464815811E-1    5.251039680633232E-1   -2.612079624538240E-3   -1.763214707543516E-4   -2.639779624482138E-3   -1.641767306859805E-4    5.929100807846504E-2    5.087714412478961E-1
 8.148088196275000E9    -1.045510688636342E-1    5.254518342845188E-1   -2.624712918244339E-3   -1.681269064836787E-4   -2.662734752565788E-3   -1.034856516514751E-4    6.090376354298928E-2    5.085531223214815E-1
 8.148110926600000E9    -1.028826856984044E-1    5.257690504557087E-1   -2.577935405500708E-3   -1.579933453846617E-4   -2.657589445289701E-3   -1.272959737052957E-4    6.209344518640374E-2    5.085199610451898E-1
 8.148133656925000E9    -1.012831246986568E-1    5.262347949136440E-1   -2.631355832810111E-3   -1.730587093626024E-4   -2.665201803247283E-3   -1.073581869337113E-4    6.358903741421834E-2    5.082140872656820E-1
 8.148156387250000E9    -9.976124102828617E-2    5.265165361427869E-1   -2.602694192399225E-3   -1.625203749167691E-4   -2.655928032092068E-3   -9.787947818230749E-5    6.521811756486795E-2    5.080529351754484E-1
 8.148179117575000E9    -9.829271105024157E-2    5.268250495020076E-1   -2.622108890328241E-3   -1.290025032199662E-4   -2.657107106361089E-3   -1.116959718403915E-4    6.664835836117987E-2    5.077652760036241E-1
 8.148201847900000E9    -9.668976553430825E-2    5.271493975294481E-1   -2.630688285131864E-3   -1.315373535755806E-4   -2.646990863560010E-3   -9.135712357224185E-5    6.816326510968831E-2    5.077255993542047E-1
 8.148224578225000E9    -9.529450333716388E-2    5.275129751958361E-1   -2.579938213273789E-3   -1.242581648079459E-4   -2.643183507889537E-3   -1.028368063315634E-4    6.955342842228578E-2    5.073933547523054E-1
 8.148247308550000E9    -9.365797909591007E-2    5.277368628121240E-1   -2.615085915201180E-3   -1.426108773027750E-4   -2.631260336455855E-3   -6.845459460895069E-5    7.107186781997249E-2    5.070280759469229E-1
 8.148270038875000E9    -9.205428906136860E-2    5.281371175854913E-1   -2.598861957192951E-3   -1.074809733223566E-4   -2.620191456767415E-3   -3.776951586351283E-5    7.238885490106076E-2    5.068797928775548E-1
 8.148292769200000E9    -9.047760929551900E-2    5.284423301062157E-1   -2.626237474724040E-3   -8.369689448371285E-5   -2.682846417529630E-3   -3.331807990443616E-5    7.385874689867940E-2    5.065671697175047E-1
 8.148315499525000E9    -8.899622600897898E-2    5.288111732149273E-1   -2.607566531106703E-3   -1.039855820196387E-4   -2.690068934440453E-3   -3.502771186124888E-5    7.529337322053646E-2    5.064153717765936E-1
 8.148338229850000E9    -8.730366141627559E-2    5.290565813705271E-1   -2.628194960579441E-3   -8.972467489813416E-5   -2.684791169635086E-3   -4.044685508481333E-5    7.678119444414010E-2    5.060803304354213E-1
 8.148360960175000E9    -8.574802534066503E-2    5.292712235796238E-1   -2.628165403822788E-3   -7.966058354448604E-5   -2.687964148777588E-3   -3.803661605422218E-6    7.835470815157033E-2    5.058507300125660E-1
 8.148383690500000E9    -8.420605585080412E-2    5.296473562421133E-1   -2.638956263816302E-3   -6.725929461233763E-5   -2.665043845479166E-3   -3.175893043484428E-5    7.970570670322143E-2    5.056230330252839E-1
 8.148406420825000E9    -8.277818878910700E-2    5.298266302114655E-1   -2.626011907450936E-3   -7.068448172523930E-5   -2.640235966289321E-3   -1.994217530522190E-5    8.121203185947440E-2    5.055001551403165E-1
 8.148429151150000E9    -8.112322063287720E-2    5.300815269974527E-1   -2.633547187880194E-3   -7.778934379577330E-5   -2.685238282982455E-3   -1.505572532883671E-5    8.259958615772299E-2    5.052212607313150E-1
 8.148451881475000E9    -7.962588011797223E-2    5.304376149399159E-1   -2.620086640886576E-3   -6.519195396708758E-5   -2.646163678160524E-3    1.031750737532400E-5    8.415623631756232E-2    5.048466928405343E-1
 8.148474611800000E9    -7.800892541236114E-2    5.307307795060128E-1   -2.603053009518091E-3   -3.717403374681002E-5   -2.646230221343801E-3    3.050282866354686E-6    8.551923966290857E-2    5.045693939709432E-1
 8.148497342125000E9    -7.650282874136746E-2    5.310626955775781E-1   -2.611710279588776E-3   -3.400870649968781E-5   -2.675589304009230E-3    4.998569633908262E-5    8.707567369688979E-2    5.042432205312758E-1
 8.148520072450000E9    -7.493901627855358E-2    5.313481873321333E-1   -2.615806395168227E-3   -1.682103731595957E-5   -2.673016120397291E-3    5.087928892312858E-5    8.845375817221642E-2    5.041228544868750E-1
 8.148542802775000E9    -7.341506374452894E-2    5.314724227494219E-1   -2.636854674128638E-3   -1.083031816559589E-5   -2.656303258669824E-3   -1.195654083387154E-5    8.983719867530456E-2    5.037182256646928E-1
 8.148565533100000E9    -7.176846595379789E-2    5.318392222663225E-1   -2.609729956399103E-3   -2.550476500008044E-5   -2.674348667318769E-3    5.109267914785569E-5    9.142944028335213E-2    5.034161130356932E-1
 8.148588263425000E9    -7.027211025523786E-2    5.320166484194204E-1   -2.632111770543548E-3   -8.755876962892290E-7   -2.684311555834790E-3    4.051579867176598E-5    9.271833727718989E-2    5.031591587460706E-1
 8.148610993750000E9    -6.870650883395882E-2    5.322546295465116E-1   -2.635857021335131E-3    2.102989623958060E-5   -2.627584014713145E-3    5.451130176124562E-5    9.423093786801641E-2    5.028575190302049E-1
 8.148633724075000E9    -6.715712945718033E-2    5.324889563241284E-1   -2.618477245100879E-3    1.642567325283284E-5   -2.682796865628891E-3    3.491701362586125E-5    9.567230998576748E-2    5.023709752432370E-1
 8.148656454400000E9    -6.574221862259548E-2    5.326531579899365E-1   -2.628067999257148E-3    1.822403020635910E-5   -2.657259382701630E-3    4.579876374609399E-5    9.694242067042531E-2    5.021186348098063E-1
 8.148679184725000E9    -6.398915785173361E-2    5.328952791079282E-1   -2.588472888483757E-3    2.271959819298431E-5   -2.656364524866062E-3    8.691465698181352E-5    9.860698873138476E-2    5.017794086776305E-1
 8.148701915050000E9    -6.245621438887670E-2    5.332129840011172E-1   -2.634647675624319E-3    2.559627676658594E-5   -2.689133562556764E-3    8.086373298939580E-5    1.000268458590731E-1    5.016809847865082E-1
 8.148724645375000E9    -6.089524146086944E-2    5.334753065649671E-1   -2.609423775132108E-3    5.220958793907071E-5   -2.677965179373838E-3    9.315810282086141E-5    1.014387499402131E-1    5.011457871220086E-1
 8.148747375700000E9    -5.910215861817485E-2    5.336991893403967E-1   -2.632679280523114E-3    6.431684465781828E-5   -2.680675210796755E-3    1.064239339119365E-4    1.030000385437505E-1    5.008313135261920E-1
 8.148770106025000E9    -5.773752933649681E-2    5.338710907560958E-1   -2.625143995129571E-3    6.368931657612270E-5   -2.658313486188362E-3    1.316687829431927E-4    1.045141247859646E-1    5.005866866475116E-1
 8.148792836350000E9    -5.609536455410589E-2    5.340346335142456E-1   -2.621222530913260E-3    6.212561233326700E-5   -2.683481510510544E-3    1.236916313298320E-4    1.057870525810215E-1    5.003116765618582E-1
 8.148815566675000E9    -5.447394142808752E-2    5.342332363503426E-1   -2.623189053573270E-3    7.896457232606052E-5   -2.663058203991849E-3    1.433426464875852E-4    1.072910670044918E-1    4.999302692350837E-1
 8.148838297000000E9    -5.298121349714149E-2    5.344867156524200E-1   -2.623786267750125E-3    1.102172922316637E-4   -2.630182866780714E-3    1.657647906431224E-4    1.087200374113102E-1    4.996167181420328E-1
 8.148861027325000E9    -5.136960916055561E-2    5.347131942792367E-1   -2.630652131480019E-3    1.205254061279434E-4   -2.644765687687687E-3    1.704107919181840E-4    1.100077044816049E-1    4.993111438490661E-1
 8.148883757650000E9    -4.983137281497344E-2    5.348214176451048E-1   -2.631652456734686E-3    1.082696345948550E-4   -2.677096473149952E-3    1.460635709315294E-4    1.115532053923660E-1    4.989992271302444E-1
 8.148906487975000E9    -4.830955968957808E-2    5.350868568325104E-1   -2.633117894277396E-3    9.315097623138338E-5   -2.665255108885198E-3    1.596465325748869E-4    1.130297325862346E-1    4.986436191934820E-1
 8.148929218300000E9    -4.680116200292434E-2    5.352380166996635E-1   -2.625071283822128E-3    1.319355266039945E-4   -2.662248725509412E-3    1.599313657916357E-4    1.142867927195112E-1    4.981848549264496E-1
 8.148951948625000E9    -4.510164441254058E-2    5.353955317717471E-1   -2.615352812934254E-3    1.265457078109688E-4   -2.668038023083986E-3    1.907475640736629E-4    1.157766756213157E-1    4.978328072036482E-1
 8.148974678950000E9    -4.362076791370329E-2    5.356127375531760E-1   -2.615551491062436E-3    1.155546999532541E-4   -2.636843433968820E-3    1.673831838682813E-4    1.171641258604841E-1    4.975482555160063E-1
 8.148997409275000E9    -4.193752471087298E-2    5.357665631706015E-1   -2.627888588599610E-3    1.570963663892314E-4   -2.646520018228996E-3    1.918284314003770E-4    1.184971797983144E-1    4.971433308437836E-1
 8.149020139600000E9    -4.042021593835440E-2    5.358728442180747E-1   -2.607480625444287E-3    1.505378689723835E-4   -2.635563781523497E-3    1.887041467103436E-4    1.201409669672100E-1    4.966834878391361E-1
 8.149042869925000E9    -3.887147952242936E-2    5.360286728060550E-1   -2.602401365367153E-3    1.560409124413479E-4   -2.658821706747187E-3    2.132696691933211E-4    1.214689461322079E-1    4.965052703213657E-1
 8.149065600250000E9    -3.723880288832700E-2    5.361931754633678E-1   -2.610311073603230E-3    1.845654118563724E-4   -2.679537506243730E-3    2.329625100959654E-4    1.229813738076019E-1    4.959722022726765E-1
