#  HZ   S   RI   R     50.00 
! Rohde & Schwarz Vector Network Analyzer 
! Rohde-Schwarz,ZNB20-2Port,1311601062101988,3.16
! Created: UTC 3/21/2024, 1:06:06 AM
! freq[Hz]                re:S11                  im:S11                  re:S21                  im:S21                  re:S12                  im:S12                  re:S22                  im:S22
 8.146943513000000E9    -1.809700394439893E-1    5.020621229808678E-1   -2.571088154612150E-3   -5.814006858765526E-4   -2.637961368647549E-3   -5.110454254466922E-4   -1.403397211921808E-2    5.133572970180997E-1
 8.146966609625000E9    -1.794231984044696E-1    5.025594744257887E-1   -2.580672435956764E-3   -5.447219352761814E-4   -2.624614169878386E-3   -5.461321771630502E-4   -1.236827958012676E-2    5.132779561646397E-1
 8.146989706250000E9    -1.778372078890900E-1    5.031077345525939E-1   -2.574301634206778E-3   -5.635031079661180E-4   -2.642623555402222E-3   -5.262915719048285E-4   -1.096631333441377E-2    5.132071849654042E-1
 8.147012802875000E9    -1.763154026174641E-1    5.037434673533192E-1   -2.588571289604785E-3   -5.565267901523853E-4   -2.616814642366462E-3   -5.129652174942423E-4   -9.559623429280779E-3    5.133023196341628E-1
 8.147035899500000E9    -1.747928439242360E-1    5.043383354791184E-1   -2.559282018782994E-3   -5.398744597483750E-4   -2.646846797747717E-3   -4.869340948154476E-4   -7.819912323314426E-3    5.133368559158121E-1
 8.147058996125000E9    -1.733303890228390E-1    5.048446121181622E-1   -2.557888425299825E-3   -5.202505205475942E-4   -2.646498770931225E-3   -5.017595719899557E-4   -6.324889095725765E-3    5.133077752019999E-1
 8.147082092750000E9    -1.719274446941607E-1    5.053961983630015E-1   -2.567052681279257E-3   -5.245816684333064E-4   -2.626690419099229E-3   -4.828719891398024E-4   -4.810375243297855E-3    5.132670156851050E-1
 8.147105189375000E9    -1.703304413514442E-1    5.060487457254217E-1   -2.587200557123382E-3   -5.546230466113078E-4   -2.635026158873424E-3   -4.681263351237776E-4   -3.258714846249104E-3    5.131344359083923E-1
 8.147128286000000E9    -1.688691121794297E-1    5.065804174156979E-1   -2.569229593403082E-3   -5.215162036928247E-4   -2.605550604382396E-3   -4.634272813968275E-4   -1.883542683138893E-3    5.132476323937158E-1
 8.147151382625000E9    -1.673030514242748E-1    5.071447571639889E-1   -2.599476799255560E-3   -4.897434537936356E-4   -2.654217047479045E-3   -4.520310510502802E-4   -3.033273734799848E-4    5.132407596268943E-1
 8.147174479250000E9    -1.656687710409956E-1    5.077205009183212E-1   -2.579692215613592E-3   -4.914960497144301E-4   -2.630426148414002E-3   -4.612528723646584E-4    1.195628002572163E-3    5.132268418771615E-1
 8.147197575875000E9    -1.641852904576785E-1    5.081263534103303E-1   -2.585326084584349E-3   -4.844333979574468E-4   -2.655360220221007E-3   -4.431326732766068E-4    2.437263160599644E-3    5.132379330447072E-1
 8.147220672500000E9    -1.627041511250857E-1    5.086726242268158E-1   -2.586208863720681E-3   -4.738089448727779E-4   -2.637250148514068E-3   -4.163804014128665E-4    4.286796599486946E-3    5.132752408017790E-1
 8.147243769125000E9    -1.611760601106619E-1    5.092987289755846E-1   -2.593995347428680E-3   -4.908327778959982E-4   -2.650919851227783E-3   -4.280331224693783E-4    5.686113100838503E-3    5.131047283313963E-1
 8.147266865750000E9    -1.597169146590155E-1    5.098802810984752E-1   -2.595932938896699E-3   -4.702275287593937E-4   -2.642675836903348E-3   -4.295462863476629E-4    7.216702930529883E-3    5.130362056847869E-1
 8.147289962375000E9    -1.580844758609914E-1    5.104351880587252E-1   -2.578349534025593E-3   -4.558365957284438E-4   -2.654629962256836E-3   -3.927330365278586E-4    8.683239870031693E-3    5.129634945090785E-1
 8.147313059000000E9    -1.565457890596216E-1    5.108041541710260E-1   -2.598326522484232E-3   -4.458192394892370E-4   -2.610286544206056E-3   -4.230468470648395E-4    1.026105206746804E-2    5.129347751576454E-1
 8.147336155625000E9    -1.549491614434983E-1    5.113972773691480E-1   -2.608175993154619E-3   -4.435477080299089E-4   -2.649553840024920E-3   -4.058552392721089E-4    1.179786156797201E-2    5.127977790511776E-1
 8.147359252250000E9    -1.534562241710618E-1    5.118431881763760E-1   -2.596611582533231E-3   -4.035013646645527E-4   -2.656871004690271E-3   -3.718836542416894E-4    1.324380243373825E-2    5.129403338803750E-1
 8.147382348875000E9    -1.519469583123159E-1    5.124509322442959E-1   -2.562615321183428E-3   -4.192333401216295E-4   -2.665056897462825E-3   -3.974753897583302E-4    1.484250190652783E-2    5.128719250638814E-1
 8.147405445500000E9    -1.504475618907183E-1    5.128240790208008E-1   -2.590051585627186E-3   -4.274845404542153E-4   -2.638504993083826E-3   -3.716399542930692E-4    1.629947653031399E-2    5.128080606385950E-1
 8.147428542125000E9    -1.489541150177007E-1    5.133585933011282E-1   -2.626006597529108E-3   -4.347327347061976E-4   -2.660378298169288E-3   -3.497047465472699E-4    1.764327950687435E-2    5.125885781869425E-1
 8.147451638750000E9    -1.475255700016307E-1    5.137389421245429E-1   -2.623402381853676E-3   -4.071444358829924E-4   -2.634405119330677E-3   -3.710517774358601E-4    1.927807549661310E-2    5.126471101549575E-1
 8.147474735375000E9    -1.457329937342758E-1    5.143600524597634E-1   -2.577082952509359E-3   -3.771256614589873E-4   -2.641558090021286E-3   -3.158357673139547E-4    2.079385576097884E-2    5.125417161898416E-1
 8.147497832000000E9    -1.442956124834386E-1    5.148266506119551E-1   -2.601483468059841E-3   -3.647010173504344E-4   -2.640733952347396E-3   -3.249665972162094E-4    2.239034675861293E-2    5.123640431209752E-1
 8.147520928625000E9    -1.426934694517264E-1    5.153461439965148E-1   -2.607243064292731E-3   -3.808414798314540E-4   -2.662395596011473E-3   -3.327871387182881E-4    2.381901175900605E-2    5.123074835602288E-1
 8.147544025250000E9    -1.410730110746466E-1    5.157923670367754E-1   -2.608185326989198E-3   -3.397666618635809E-4   -2.652644285438558E-3   -3.225862055521900E-4    2.533051799606066E-2    5.121963062239210E-1
 8.147567121875000E9    -1.396592405800365E-1    5.162428723647625E-1   -2.601067126964445E-3   -3.352251912451737E-4   -2.651219511164276E-3   -3.207369299374707E-4    2.688197164352350E-2    5.120397047961420E-1
 8.147590218500000E9    -1.381985429889463E-1    5.166026788534859E-1   -2.619373334273490E-3   -3.432198382454119E-4   -2.676750810443958E-3   -3.111099872844988E-4    2.837888076731995E-2    5.120021144283063E-1
 8.147613315125000E9    -1.365914050557646E-1    5.171785725744482E-1   -2.605247345917062E-3   -3.619653806418585E-4   -2.659077277822711E-3   -2.732774318950646E-4    2.990436918859417E-2    5.118084686717622E-1
 8.147636411750000E9    -1.350578049034025E-1    5.176116697791675E-1   -2.605553373132071E-3   -3.333802936285195E-4   -2.623332743772800E-3   -2.991994857247719E-4    3.147636070411670E-2    5.117770210540776E-1
 8.147659508375000E9    -1.334326640875662E-1    5.180542598915240E-1   -2.627899113987352E-3   -3.250761314728516E-4   -2.664885103589290E-3   -2.596538462080965E-4    3.292827588979866E-2    5.118579234627764E-1
 8.147682605000000E9    -1.319687706292983E-1    5.184515023886104E-1   -2.622939538711801E-3   -3.148636942900057E-4   -2.634845651159061E-3   -2.684037274918247E-4    3.429195279648612E-2    5.115892809347454E-1
 8.147705701625000E9    -1.305019109873833E-1    5.189953514763457E-1   -2.614913095541906E-3   -3.218862868376628E-4   -2.605799545870943E-3   -2.675336744918735E-4    3.574021947254016E-2    5.113620218315095E-1
 8.147728798250000E9    -1.288640915826370E-1    5.192751293010848E-1   -2.600428636908870E-3   -3.118265921472841E-4   -2.657325654225469E-3   -2.475231304729163E-4    3.734773534089142E-2    5.113707738785626E-1
 8.147751894875000E9    -1.272809618467481E-1    5.198699475441987E-1   -2.612160158971906E-3   -2.861332231869603E-4   -2.656440943577229E-3   -2.666850231944646E-4    3.898227785184719E-2    5.112058708307534E-1
 8.147774991500000E9    -1.257356678233047E-1    5.201931778472481E-1   -2.616513030307922E-3   -2.947270172994058E-4   -2.633888580898258E-3   -2.363524678925303E-4    4.046896037233795E-2    5.110345769219354E-1
 8.147798088125000E9    -1.241622726300596E-1    5.205353628309584E-1   -2.602417789164133E-3   -2.663545719778512E-4   -2.666773689241949E-3   -2.337288564730692E-4    4.199613850210192E-2    5.108749393048287E-1
 8.147821184750000E9    -1.226050336296034E-1    5.210904291560527E-1   -2.625604724427428E-3   -2.672952295163392E-4   -2.651490672383052E-3   -2.023628488658385E-4    4.355617255347587E-2    5.107029868192895E-1
 8.147844281375000E9    -1.209565040238972E-1    5.214863703802423E-1   -2.602184881671309E-3   -2.926350780087897E-4   -2.678861212993638E-3   -2.093320918151254E-4    4.481028874154367E-2    5.104818417968571E-1
 8.147867378000000E9    -1.195547573577398E-1    5.219021439806819E-1   -2.570439262344194E-3   -2.583249356421625E-4   -2.680035458817224E-3   -1.953664699711108E-4    4.657114197513131E-2    5.104114282660868E-1
 8.147890474625000E9    -1.177889924201138E-1    5.221763357747610E-1   -2.608342697022034E-3   -2.572744402627746E-4   -2.645276073800068E-3   -1.919009920729978E-4    4.792047931801077E-2    5.102520543398292E-1
 8.147913571250000E9    -1.163466200525850E-1    5.226630756204909E-1   -2.587576057135150E-3   -2.473111069773898E-4   -2.655630215491073E-3   -1.845599083599454E-4    4.956388817614719E-2    5.100854996984377E-1
 8.147936667875000E9    -1.147494563341586E-1    5.230413522500043E-1   -2.606021592966954E-3   -2.272638196311579E-4   -2.635850046049332E-3   -1.616949873656194E-4    5.084410411089808E-2    5.097920763008751E-1
 8.147959764500000E9    -1.131929450791194E-1    5.233610574794575E-1   -2.622883039683488E-3   -2.080807518525766E-4   -2.650377385541315E-3   -1.596243907751902E-4    5.235538607613052E-2    5.095950456860090E-1
 8.147982861125000E9    -1.116127439953722E-1    5.237348117958648E-1   -2.620051778352096E-3   -2.289028614150883E-4   -2.626750441066256E-3   -1.509641002007082E-4    5.404863248112990E-2    5.094843017170890E-1
 8.148005957750000E9    -1.101060079267741E-1    5.241305388089004E-1   -2.647777067388184E-3   -1.888025378490131E-4   -2.663408255490312E-3   -1.520818514577191E-4    5.536559663651509E-2    5.094726644770819E-1
 8.148029054375000E9    -1.086254849703648E-1    5.245829486306873E-1   -2.602952577682747E-3   -1.947260778937494E-4   -2.665131523832705E-3   -1.549538588685707E-4    5.692196401025539E-2    5.090344863116205E-1
 8.148052151000000E9    -1.069157901832831E-1    5.247646607043924E-1   -2.604092974318063E-3   -1.905630437719673E-4   -2.644493863867942E-3   -1.457857937203085E-4    5.857870719473173E-2    5.090804115522735E-1
 8.148075247625000E9    -1.052610155396808E-1    5.252332566162978E-1   -2.622239046546537E-3   -1.632161199558899E-4   -2.645474004368810E-3   -1.150928214770408E-4    5.984046939861373E-2    5.086631002043071E-1
 8.148098344250000E9    -1.037416471199814E-1    5.255282049537041E-1   -2.614685104200681E-3   -1.735266957906990E-4   -2.685819075385393E-3   -1.278873257111751E-4    6.137178903082553E-2    5.085233658584489E-1
 8.148121440875000E9    -1.023069587008443E-1    5.258787679934592E-1   -2.630541083392900E-3   -1.405993076513843E-4   -2.661583527761526E-3   -1.583719704603640E-4    6.285791958367073E-2    5.082983336177772E-1
 8.148144537500000E9    -1.006732793457975E-1    5.263446723688237E-1   -2.609322568751446E-3   -1.376726105653701E-4   -2.630372312494661E-3   -9.496937844571115E-5    6.422810524514505E-2    5.080376864401062E-1
 8.148167634125000E9    -9.906397885249504E-2    5.266349220909703E-1   -2.612121325913409E-3   -1.443051686724672E-4   -2.647474517753706E-3   -9.543304115526240E-5    6.574040018060566E-2    5.078630329232643E-1
 8.148190730750000E9    -9.757140037024206E-2    5.271013586124621E-1   -2.617112247992363E-3   -1.326527496116178E-4   -2.648200193899791E-3   -8.468300131108322E-5    6.726960913597624E-2    5.076446573254277E-1
 8.148213827375000E9    -9.600866422661995E-2    5.272927854062402E-1   -2.609899950247969E-3   -1.599268900834460E-4   -2.670993207410972E-3   -9.703954612739715E-5    6.888713144907418E-2    5.073428792772409E-1
 8.148236924000000E9    -9.433085974589774E-2    5.276425522942796E-1   -2.622170285299662E-3   -1.340808974893294E-4   -2.698602326441053E-3   -9.127254321987107E-5    7.034656086704874E-2    5.070706736649335E-1
 8.148260020625000E9    -9.284535231377977E-2    5.279431015384340E-1   -2.612453510121538E-3   -1.214897917976555E-4   -2.662252997532295E-3   -5.976746388344861E-5    7.177845655236124E-2    5.069082048710335E-1
 8.148283117250000E9    -9.113683240671742E-2    5.283361972263018E-1   -2.596013023895857E-3   -1.019442320141444E-4   -2.667547911761890E-3   -8.780999615763317E-5    7.324678337526608E-2    5.067358029871449E-1
 8.148306213875000E9    -8.960788672881977E-2    5.285897712296949E-1   -2.595471637891300E-3   -1.051375859843144E-4   -2.661384419621895E-3   -5.306137077961744E-5    7.474730416562322E-2    5.063873501898651E-1
 8.148329310500000E9    -8.806023515289095E-2    5.289481069733190E-1   -2.608444807553894E-3   -8.232357780980275E-5   -2.649630759358282E-3   -3.081072788482057E-5    7.622207148841431E-2    5.062560875315255E-1
 8.148352407125000E9    -8.653134282644699E-2    5.291752594553927E-1   -2.617272188847392E-3   -9.715657299419615E-5   -2.672714866214354E-3   -8.409089264587196E-6    7.775588654597422E-2    5.060127247406822E-1
 8.148375503750000E9    -8.492215229420182E-2    5.294967630399373E-1   -2.608494818676383E-3   -5.641050308100364E-5   -2.661637367738736E-3   -2.655862549808925E-5    7.917560095507356E-2    5.057024451420998E-1
 8.148398600375000E9    -8.331713301254130E-2    5.298225215087660E-1   -2.645590634609925E-3   -6.868035526371344E-5   -2.681502304648168E-3    1.757282631593159E-6    8.074264774990954E-2    5.054239638529165E-1
 8.148421697000000E9    -8.182222840146355E-2    5.300456513009265E-1   -2.615821660542621E-3   -6.856249508874512E-5   -2.673065044359754E-3   -2.229889847365855E-6    8.223054799081730E-2    5.051323124298470E-1
 8.148444793625000E9    -8.016487596464926E-2    5.304182759578964E-1   -2.637689683978704E-3   -4.252760149365569E-5   -2.653519216065089E-3    2.378986948041700E-5    8.356285109873940E-2    5.049597375218730E-1
 8.148467890250000E9    -7.848398084489003E-2    5.306659895122570E-1   -2.630181427262681E-3   -3.406804069004601E-5   -2.680500327544522E-3   -1.208673584523780E-5    8.505310213510033E-2    5.045476255699385E-1
 8.148490986875000E9    -7.699080099181126E-2    5.309409209399862E-1   -2.648416594391725E-3   -2.840722088195286E-5   -2.690906253106781E-3    1.245699084229056E-5    8.662096865798083E-2    5.043133384637978E-1
 8.148514083500000E9    -7.537811264849108E-2    5.312158003633246E-1   -2.618679847249277E-3   -2.715850962197368E-5   -2.667037711317420E-3    4.635209660109043E-5    8.788754821752849E-2    5.040501352909424E-1
 8.148537180125000E9    -7.370841953125247E-2    5.314682200448616E-1   -2.617418956917819E-3   -1.270466688946862E-5   -2.636860313586404E-3    2.557172177157842E-5    8.956309577380189E-2    5.037078947251483E-1
 8.148560276750000E9    -7.221277970214818E-2    5.316774517017155E-1   -2.623974098353660E-3    4.959210728797816E-6   -2.677810889171051E-3    5.656375761438554E-5    9.099855019862070E-2    5.035291374784511E-1
 8.148583373375000E9    -7.059386101624369E-2    5.318885805016795E-1   -2.648593094195103E-3   -6.468260595439330E-6   -2.667495418848281E-3    3.170381575076082E-5    9.252211594653073E-2    5.032614409164331E-1
 8.148606470000000E9    -6.905401948641825E-2    5.322127046535845E-1   -2.608413576972825E-3    1.032729686800514E-5   -2.647507882190178E-3    4.142055130601177E-5    9.387537155844089E-2    5.028837394340723E-1
 8.148629566625000E9    -6.744105855928913E-2    5.323896439497940E-1   -2.636333931959178E-3    1.360691263002861E-5   -2.653422049026636E-3    7.533887995024172E-5    9.534773072499662E-2    5.025636924288542E-1
 8.148652663250000E9    -6.584915470420352E-2    5.327066670579559E-1   -2.624991960348839E-3    1.824636919486058E-5   -2.652578928723866E-3    6.455953311399992E-5    9.686096588048165E-2    5.022628038821928E-1
 8.148675759875000E9    -6.422977206705041E-2    5.329788160939783E-1   -2.634005846443305E-3    2.119100455043233E-5   -2.636017873390727E-3    1.210914860012946E-4    9.826278017265395E-2    5.019177330210576E-1
 8.148698856500000E9    -6.254170918017229E-2    5.331534793150797E-1   -2.618802345458973E-3    1.675389309271860E-5   -2.665048700120786E-3    1.052165261936131E-4    9.992432256666717E-2    5.015746557175264E-1
 8.148721953125000E9    -6.099305508299383E-2    5.333985072508171E-1   -2.637198767116841E-3    6.328722830969825E-5   -2.651722489920546E-3    1.014045263520516E-4    1.012585899483281E-1    5.013165040525571E-1
 8.148745049750000E9    -5.946755595163906E-2    5.335914767313621E-1   -2.625513754891540E-3    9.106751968801490E-5   -2.690784868765063E-3    1.281531372833020E-4    1.028571733741192E-1    5.008969001756201E-1
 8.148768146375000E9    -5.789392263291780E-2    5.337603277255191E-1   -2.625107096944182E-3    6.064179359859043E-5   -2.640875159273826E-3    1.265516290595080E-4    1.043491948036302E-1    5.005971727503222E-1
 8.148791243000000E9    -5.630235057995930E-2    5.340324939627114E-1   -2.620809133107991E-3    5.487155048350124E-5   -2.638386290256066E-3    1.529271187840258E-4    1.056964126175951E-1    5.004057019244650E-1
 8.148814339625000E9    -5.469867308302508E-2    5.342610984010276E-1   -2.599883843197091E-3    1.026451927187468E-4   -2.633923176314452E-3    1.524299423444804E-4    1.071880499749012E-1    4.998265980784799E-1
 8.148837436250000E9    -5.311659609448050E-2    5.344884207356099E-1   -2.611493590114866E-3    6.728406127531161E-5   -2.647603513643909E-3    1.498186637828508E-4    1.085518609538440E-1    4.995244930002197E-1
 8.148860532875000E9    -5.149279253191556E-2    5.345505769427139E-1   -2.633837755289515E-3    6.985505225102027E-5   -2.657239097775271E-3    1.419340662208740E-4    1.099926124421642E-1    4.993166749015034E-1
 8.148883629500000E9    -4.982775470092547E-2    5.348339899704070E-1   -2.610383665439738E-3    9.444720215185687E-5   -2.659985601953651E-3    1.586168674377418E-4    1.114997972493256E-1    4.988820518296160E-1
 8.148906726125000E9    -4.821792736583627E-2    5.350647637255727E-1   -2.618684727165254E-3    9.111792710389039E-5   -2.665181163291370E-3    1.480277427245810E-4    1.128037744380373E-1    4.986902277850543E-1
 8.148929822750000E9    -4.668393672697968E-2    5.352183503507225E-1   -2.623534216725097E-3    1.151551339338972E-4   -2.623213848045396E-3    1.638499218413127E-4    1.144379967658082E-1    4.980762712901606E-1
 8.148952919375000E9    -4.508301245455112E-2    5.354441841710164E-1   -2.627090384217445E-3    1.334962592535190E-4   -2.663248267660603E-3    1.920050863521421E-4    1.159335057851931E-1    4.978104431510760E-1
 8.148976016000000E9    -4.343784858218679E-2    5.356020550493418E-1   -2.623903290594094E-3    1.251628232329962E-4   -2.667102747146230E-3    1.875210586461265E-4    1.171283853631744E-1    4.974742002764038E-1
 8.148999112625000E9    -4.197573434078202E-2    5.356204006281348E-1   -2.604151761892588E-3    1.530778923850158E-4   -2.669857774265666E-3    1.714549759077644E-4    1.185296711629029E-1    4.970751204939611E-1
 8.149022209250000E9    -4.034050048497499E-2    5.358407485342900E-1   -2.614995751749920E-3    1.524673992972912E-4   -2.648156800240074E-3    1.908254809430266E-4    1.201807362157725E-1    4.967106617041572E-1
