#  HZ   S   RI   R     50.00 
! Rohde & Schwarz Vector Network Analyzer 
! Rohde-Schwarz,ZNB20-2Port,1311601062101988,3.16
! Created: UTC 3/21/2024, 1:06:13 AM
! freq[Hz]                re:S11                  im:S11                  re:S21                  im:S21                  re:S12                  im:S12                  re:S22                  im:S22
 8.146811927000000E9    -1.895800877748667E-1    4.984876728915144E-1   -2.551695596719341E-3   -6.353693977579244E-4   -2.604383195730508E-3   -5.867404122667402E-4   -2.259850663040005E-2    5.131700738382181E-1
 8.146835632875000E9    -1.879798522969635E-1    4.992202272604573E-1   -2.540593284320247E-3   -6.331690856277784E-4   -2.599625651452641E-3   -5.883803391303128E-4   -2.113643865480289E-2    5.132478717448211E-1
 8.146859338750000E9    -1.864696712845191E-1    4.998588554418165E-1   -2.542799469191740E-3   -6.090673651911068E-4   -2.601625357114041E-3   -5.566142656580114E-4   -1.962094842713836E-2    5.130221688800566E-1
 8.146883044625000E9    -1.848520071612356E-1    5.005198868616288E-1   -2.562639256126086E-3   -5.961774557224702E-4   -2.660410928632792E-3   -5.723914005464523E-4   -1.802054173132358E-2    5.132025758518469E-1
 8.146906750500000E9    -1.834343839469124E-1    5.008897140791816E-1   -2.557531612410150E-3   -6.079464889040424E-4   -2.615951620913366E-3   -5.409039020654113E-4   -1.646644638378543E-2    5.132610038111080E-1
 8.146930456375000E9    -1.818748746364114E-1    5.016409099838934E-1   -2.564139074431273E-3   -6.026851159291205E-4   -2.628078889704021E-3   -5.094933059421634E-4   -1.497733973358013E-2    5.131763048098361E-1
 8.146954162250000E9    -1.803140379376189E-1    5.023615836114509E-1   -2.588940822670588E-3   -5.386213854169452E-4   -2.644230096794176E-3   -5.269500340956186E-4   -1.337798960488816E-2    5.132739680250998E-1
 8.146977868125000E9    -1.787437802692308E-1    5.029447085891249E-1   -2.590823407146109E-3   -6.041829959309519E-4   -2.621126470111754E-3   -5.383889755800728E-4   -1.179851395274820E-2    5.134250732160276E-1
 8.147001574000000E9    -1.771574070752516E-1    5.034980889050976E-1   -2.564045643291225E-3   -5.561800641103406E-4   -2.608181953587638E-3   -4.932388123774379E-4   -1.023199337113127E-2    5.132341181608854E-1
 8.147025279875000E9    -1.756922855944951E-1    5.040424145199103E-1   -2.560567200270317E-3   -5.467642180116308E-4   -2.650511840496703E-3   -4.984662295437607E-4   -8.767741066940447E-3    5.133089311143899E-1
 8.147048985750000E9    -1.739875601368273E-1    5.045876261436287E-1   -2.580484227474245E-3   -5.702182564230234E-4   -2.670511698070249E-3   -4.718125717453641E-4   -7.110427436347072E-3    5.134040414886357E-1
 8.147072691625000E9    -1.725536929625756E-1    5.051905200692807E-1   -2.585666743823851E-3   -5.387527502316492E-4   -2.652954495084553E-3   -4.767599469589899E-4   -5.581394390494004E-3    5.133994955180513E-1
 8.147096397500000E9    -1.709954511974843E-1    5.057503270734253E-1   -2.578878436021740E-3   -5.335854052175634E-4   -2.628212256135332E-3   -5.014025668189665E-4   -4.030337349462034E-3    5.132886780422218E-1
 8.147120103375000E9    -1.693449457745619E-1    5.064542485431744E-1   -2.588699254036147E-3   -5.222276182060845E-4   -2.617241030430282E-3   -4.460090518386093E-4   -2.478222709361450E-3    5.132750853634914E-1
 8.147143809250000E9    -1.678797780186750E-1    5.070165020650199E-1   -2.559839627248650E-3   -5.269491203303168E-4   -2.619226198581010E-3   -4.701307599448395E-4   -8.801575814979089E-4    5.133448118409869E-1
 8.147167515125000E9    -1.661896220007943E-1    5.074825828585001E-1   -2.586408099532366E-3   -4.921710925506491E-4   -2.613515001188825E-3   -4.663395568653965E-4    5.836507975821022E-4    5.132921095942251E-1
 8.147191221000000E9    -1.647304430693559E-1    5.081194351747839E-1   -2.579787922437108E-3   -4.816565590861876E-4   -2.650851356447346E-3   -4.546188848455694E-4    2.199500468102454E-3    5.131898127333828E-1
 8.147214926875000E9    -1.632388775006245E-1    5.085590389638250E-1   -2.578766843728140E-3   -4.793276926088757E-4   -2.655619212494982E-3   -4.325971841559617E-4    3.691050258106584E-3    5.132153436035879E-1
 8.147238632750000E9    -1.616337767568206E-1    5.092095188908948E-1   -2.583794183207244E-3   -4.977787902913533E-4   -2.612269103856118E-3   -4.391534790615820E-4    5.242145807001881E-3    5.131705483023258E-1
 8.147262338625000E9    -1.600658901600606E-1    5.096947562360309E-1   -2.595536928461700E-3   -4.786282033695809E-4   -2.622691219357605E-3   -4.244722859103430E-4    6.838590657264458E-3    5.132281331916768E-1
 8.147286044500000E9    -1.583838236375246E-1    5.102176708161400E-1   -2.587936919785189E-3   -4.487006345579024E-4   -2.639798291807288E-3   -4.499004410635601E-4    8.472227132945230E-3    5.130395404409747E-1
 8.147309750375000E9    -1.568182828477368E-1    5.107784071180103E-1   -2.589837792767128E-3   -4.338526827467639E-4   -2.642380944233311E-3   -3.872032771116517E-4    9.983552476617389E-3    5.129374876771132E-1
 8.147333456250000E9    -1.553824198492554E-1    5.113205946290416E-1   -2.586761030528343E-3   -4.704562968897860E-4   -2.624531125607623E-3   -3.783421862205740E-4    1.153860707083273E-2    5.128090312078927E-1
 8.147357162125000E9    -1.537148190914579E-1    5.117547909841894E-1   -2.601755583985008E-3   -4.416331614613646E-4   -2.631503675006964E-3   -3.831926902294581E-4    1.292973321776246E-2    5.129386058036274E-1
 8.147380868000000E9    -1.521792812372052E-1    5.122330728360340E-1   -2.616737284235174E-3   -4.269121354820876E-4   -2.651240373293653E-3   -3.317926877869950E-4    1.467160276253772E-2    5.128442111424855E-1
 8.147404573875000E9    -1.506758108640329E-1    5.126971963778403E-1   -2.604041142166723E-3   -4.367492242502182E-4   -2.635999045771978E-3   -3.816903671324722E-4    1.613063906119176E-2    5.127501268925159E-1
 8.147428279750000E9    -1.490838422357613E-1    5.132756313129504E-1   -2.578611387971436E-3   -4.172942802193289E-4   -2.641324478842179E-3   -3.665865834912338E-4    1.766855700341824E-2    5.126764698977669E-1
 8.147451985625000E9    -1.474298532762154E-1    5.138593521161399E-1   -2.581305415891717E-3   -4.108651346214428E-4   -2.661631176637507E-3   -3.297595997586028E-4    1.928963953760949E-2    5.126902147196746E-1
 8.147475691500000E9    -1.457780003578949E-1    5.143429918399313E-1   -2.598105342570284E-3   -3.821818086672934E-4   -2.623587500537622E-3   -3.346602040787406E-4    2.074880714696749E-2    5.124259532318807E-1
 8.147499397375000E9    -1.442822736283874E-1    5.147586922780552E-1   -2.609168637156021E-3   -3.965345200391188E-4   -2.666406083218304E-3   -3.477263241542055E-4    2.239840358110357E-2    5.124645541903567E-1
 8.147523103250000E9    -1.427542466981865E-1    5.152215039066788E-1   -2.605868983196522E-3   -3.585996612354038E-4   -2.642508313879157E-3   -3.538749522745886E-4    2.391922905727209E-2    5.121510194797632E-1
 8.147546809125000E9    -1.412071592914159E-1    5.157029352351066E-1   -2.599018291736811E-3   -3.763950522903376E-4   -2.640916447200737E-3   -3.390337507866522E-4    2.549595316641412E-2    5.122358871344967E-1
 8.147570515000000E9    -1.395780791082153E-1    5.161914426495607E-1   -2.589813780735259E-3   -3.412311531488880E-4   -2.655447611394473E-3   -3.189795891097731E-4    2.716000873157054E-2    5.120024252227469E-1
 8.147594220875000E9    -1.379030523918915E-1    5.167392277147971E-1   -2.608742249960371E-3   -3.394936001213797E-4   -2.630633623226708E-3   -2.988901149620219E-4    2.851299091786766E-2    5.120393013132934E-1
 8.147617926750000E9    -1.363157690067234E-1    5.171974027019313E-1   -2.599271167354790E-3   -3.559119285390569E-4   -2.615002490448647E-3   -2.789080869301518E-4    3.002480866409345E-2    5.120365571371975E-1
 8.147641632625000E9    -1.347042932979078E-1    5.176294068871625E-1   -2.619166846473874E-3   -3.619789875940558E-4   -2.653417310901784E-3   -2.867633764291450E-4    3.167216973113181E-2    5.118744783160959E-1
 8.147665338500000E9    -1.331425721123039E-1    5.180477315652973E-1   -2.603776250803823E-3   -3.437138729287563E-4   -2.616271261012932E-3   -2.732732067324758E-4    3.311212009312663E-2    5.115516744261022E-1
 8.147689044375000E9    -1.315778725809584E-1    5.186320566476276E-1   -2.639124317135265E-3   -3.324332916075037E-4   -2.646562396805338E-3   -2.890276508330091E-4    3.472863404828232E-2    5.114406540146117E-1
 8.147712750250000E9    -1.299814985060222E-1    5.190628050016490E-1   -2.577079710745407E-3   -3.123546849075218E-4   -2.654346996966608E-3   -2.459217024540235E-4    3.634893000080806E-2    5.114009121119852E-1
 8.147736456125000E9    -1.282943229971708E-1    5.193816731128753E-1   -2.588867804912341E-3   -3.099133221345011E-4   -2.671188717460957E-3   -2.461212066286093E-4    3.773857099711969E-2    5.109562106326739E-1
 8.147760162000000E9    -1.267106695623849E-1    5.199728243989764E-1   -2.616751927276292E-3   -2.878206490081735E-4   -2.652219357776976E-3   -2.557441087306657E-4    3.943503759111927E-2    5.110918239513332E-1
 8.147783867875000E9    -1.252371192448022E-1    5.204491439325513E-1   -2.634205051411407E-3   -3.019221431986687E-4   -2.666009824616813E-3   -2.310643699748057E-4    4.089973872745979E-2    5.108569658488755E-1
 8.147807573750000E9    -1.235007838108324E-1    5.206548380935874E-1   -2.605280138336270E-3   -2.540877389774110E-4   -2.658523226778730E-3   -2.436378823837722E-4    4.235590397446515E-2    5.107647962832843E-1
 8.147831279625000E9    -1.221806309473943E-1    5.212221754444821E-1   -2.606192012213598E-3   -2.829591498257759E-4   -2.651095330214336E-3   -2.388390930147030E-4    4.401213178832943E-2    5.105991903436020E-1
 8.147854985500000E9    -1.203397880378467E-1    5.215401874049921E-1   -2.606732157599552E-3   -2.719383350884175E-4   -2.634007329759439E-3   -2.020432309689439E-4    4.539806146623369E-2    5.103889672543384E-1
 8.147878691375000E9    -1.187583871088210E-1    5.220296416032421E-1   -2.606220124235383E-3   -2.657424010003935E-4   -2.665018383861856E-3   -2.245036854815274E-4    4.712596834578582E-2    5.103201495206926E-1
 8.147902397250000E9    -1.171723511049194E-1    5.224709848513852E-1   -2.609989063353204E-3   -2.432708295384052E-4   -2.653132988937771E-3   -2.116049179853443E-4    4.865038270365475E-2    5.100193683986877E-1
 8.147926103125000E9    -1.155267464162151E-1    5.228230214229197E-1   -2.605189301287847E-3   -2.365030814696609E-4   -2.687835551864687E-3   -2.250332740017814E-4    5.017551852049247E-2    5.099407751316281E-1
 8.147949809000000E9    -1.139237578159136E-1    5.232629705714903E-1   -2.612804544959311E-3   -2.425227600497397E-4   -2.663079871341012E-3   -1.398744261630452E-4    5.160643248628848E-2    5.098455703047208E-1
 8.147973514875000E9    -1.124155288725615E-1    5.234971504020658E-1   -2.608213250456283E-3   -2.165416294934633E-4   -2.679567086082672E-3   -1.569267406110539E-4    5.329126735517094E-2    5.095816246617739E-1
 8.147997220750000E9    -1.107993275886764E-1    5.241279227293871E-1   -2.643951123670600E-3   -2.114828628535661E-4   -2.650586479240489E-3   -1.509253761269529E-4    5.474387885367267E-2    5.094042129486511E-1
 8.148020926625000E9    -1.092789140796277E-1    5.244584312576032E-1   -2.638121099858202E-3   -1.781759623705380E-4   -2.676832374968955E-3   -1.539481094597825E-4    5.632215389302517E-2    5.091287836861088E-1
 8.148044632500000E9    -1.074419660729378E-1    5.247681364780796E-1   -2.617987596684762E-3   -1.958426712878841E-4   -2.689783415591405E-3   -1.298804585347968E-4    5.780765893333741E-2    5.089741564941073E-1
 8.148068338375000E9    -1.059579111789579E-1    5.251501644866976E-1   -2.616643983384754E-3   -1.846276141382961E-4   -2.629139441473368E-3   -1.316910222661985E-4    5.923275698391433E-2    5.087517474499667E-1
 8.148092044250000E9    -1.043126242279454E-1    5.254051356549320E-1   -2.595605065981018E-3   -1.751447348899503E-4   -2.658065737959890E-3   -1.313818959587904E-4    6.089171202943977E-2    5.085474411720459E-1
 8.148115750125000E9    -1.026347310102378E-1    5.258501698327344E-1   -2.631690575712553E-3   -1.735642014044312E-4   -2.679105096409010E-3   -1.560634435998464E-4    6.243578921501586E-2    5.084321293889597E-1
 8.148139456000000E9    -1.010845416953617E-1    5.261920683405074E-1   -2.618982965707660E-3   -1.455756033388407E-4   -2.665590246479273E-3   -1.196595445956616E-4    6.400929643871409E-2    5.081352693785183E-1
 8.148163161875000E9    -9.951343137049322E-2    5.265960294136757E-1   -2.616496241317815E-3   -1.691251489755699E-4   -2.649678694713907E-3   -9.727390057073737E-5    6.551294231893501E-2    5.079233845790305E-1
 8.148186867750000E9    -9.772971036235313E-2    5.268651645756083E-1   -2.611399288008994E-3   -1.602371102434580E-4   -2.666347908501525E-3   -1.343496240889279E-4    6.714869805790281E-2    5.077266475957207E-1
 8.148210573625000E9    -9.625864236820486E-2    5.271711059876910E-1   -2.614985549892940E-3   -1.103305102211394E-4   -2.653787015106413E-3   -7.731062294434916E-5    6.841179601148814E-2    5.075225116308629E-1
 8.148234279500000E9    -9.465505890456177E-2    5.275761886187955E-1   -2.627870038326327E-3   -1.421746512676942E-4   -2.672086117436852E-3   -6.246473353844883E-5    7.011503649805956E-2    5.072898720144053E-1
 8.148257985375000E9    -9.298965268102906E-2    5.278333428924307E-1   -2.607880417295025E-3   -1.042089184961101E-4   -2.644437243862641E-3   -7.355952099522556E-5    7.151708309697961E-2    5.069451697539797E-1
 8.148281691250000E9    -9.144376583571086E-2    5.281585138299540E-1   -2.620844161718040E-3   -1.052282257129226E-4   -2.634872628397436E-3   -6.657758890983391E-5    7.299664706571489E-2    5.066298810975546E-1
 8.148305397125000E9    -8.974726389739587E-2    5.285278238807104E-1   -2.632508109527103E-3   -1.167057526950903E-4   -2.624937328250154E-3   -6.719878571248897E-5    7.451571498651771E-2    5.065991166509926E-1
 8.148329103000000E9    -8.824067038035027E-2    5.289196267755255E-1   -2.611570330778613E-3   -5.348351924458372E-5   -2.648647048713287E-3   -2.910070623062403E-5    7.613117387552538E-2    5.061660988844379E-1
 8.148352808875000E9    -8.654598024755364E-2    5.291806585541252E-1   -2.615708705473663E-3   -1.003609009778029E-4   -2.654335047348750E-3   -2.383810112830167E-5    7.772030166683958E-2    5.059978061330250E-1
 8.148376514750000E9    -8.491024603420505E-2    5.294099694333149E-1   -2.593465350534311E-3   -8.840349993711529E-5   -2.645539018876877E-3   -2.160025654175817E-5    7.914220337695217E-2    5.057322592434106E-1
 8.148400220625000E9    -8.325368894009448E-2    5.297858151812146E-1   -2.637886096411124E-3   -7.406796243864130E-5   -2.668065397436948E-3   -1.906164605874411E-5    8.066989301111219E-2    5.054709787922863E-1
 8.148423926500000E9    -8.158349434855902E-2    5.300988900564768E-1   -2.620234155373706E-3   -7.284187008601214E-5   -2.673602926672128E-3    2.616941756021310E-5    8.219968205888820E-2    5.051501458023158E-1
 8.148447632375000E9    -7.994428563759569E-2    5.302983277733927E-1   -2.611044974927887E-3   -4.870893696308909E-5   -2.681932192852590E-3    1.177975588114504E-5    8.369582851530656E-2    5.050148027335781E-1
 8.148471338250000E9    -7.826596674657102E-2    5.306230340707405E-1   -2.615672263856660E-3   -5.769232639833443E-5   -2.631603622237446E-3    1.067747778704521E-5    8.525971427609368E-2    5.045910603707283E-1
 8.148495044125000E9    -7.685216758159558E-2    5.308264755375109E-1   -2.632173725147933E-3   -3.724236555063444E-5   -2.664776766028047E-3    1.501373982857001E-5    8.667725725064945E-2    5.043048198197579E-1
 8.148518750000000E9    -7.516755412024832E-2    5.311321450764107E-1   -2.614766762700177E-3   -1.930115275624945E-5   -2.660099923511110E-3    8.390776442631145E-6    8.829513708382909E-2    5.038445032597149E-1
 8.148542455875000E9    -7.356688411743921E-2    5.314612815113138E-1   -2.619009142912664E-3   -8.048871508561916E-6   -2.648806988060069E-3    1.723889176058144E-5    8.971902409557826E-2    5.038872640515197E-1
 8.148566161750000E9    -7.183225713930337E-2    5.318621720424107E-1   -2.655817772848247E-3    1.268414577188163E-5   -2.688084243408960E-3    5.184043448664691E-5    9.128490500956965E-2    5.034999963115309E-1
 8.148589867625000E9    -7.026765177257412E-2    5.320222705619981E-1   -2.619656269200923E-3    4.110455776447424E-6   -2.618193882405655E-3    7.523345019216808E-5    9.271656540711226E-2    5.031517648809289E-1
 8.148613573500000E9    -6.878325564274547E-2    5.322495352903441E-1   -2.629710723147803E-3    1.671681509644908E-5   -2.672958112150747E-3    4.117670427132350E-5    9.436869862897580E-2    5.028085843656287E-1
 8.148637279375000E9    -6.693302873589468E-2    5.325300836479849E-1   -2.594603664202114E-3   -6.168896971965608E-6   -2.643113608209498E-3    5.096396072537213E-5    9.589247716881710E-2    5.025377358682228E-1
 8.148660985250000E9    -6.536073955846758E-2    5.327180264066783E-1   -2.612597288323193E-3    1.972313163975934E-5   -2.655047074774807E-3    9.893157242826765E-5    9.727552222952723E-2    5.020686222456854E-1
 8.148684691125000E9    -6.363740053127409E-2    5.328975551765566E-1   -2.612664020942126E-3    1.940307098548514E-5   -2.675510143788573E-3    9.080712946648522E-5    9.874496231537803E-2    5.019245202305023E-1
 8.148708397000000E9    -6.209009369359155E-2    5.332132230030140E-1   -2.627337774579522E-3    3.589507318131566E-5   -2.672342013210805E-3    1.146566472272978E-4    1.003697691913815E-1    5.017051702936920E-1
 8.148732102875000E9    -6.052220148296776E-2    5.335445277588463E-1   -2.612815133856744E-3    5.936648070469818E-5   -2.632602622916572E-3    9.112825465032562E-5    1.018260979083057E-1    5.011076863055458E-1
 8.148755808750000E9    -5.878775822524220E-2    5.336931139725229E-1   -2.638029887943733E-3    3.054554958354537E-5   -2.645890756384816E-3    1.175180230616758E-4    1.033065334773110E-1    5.008155680885171E-1
 8.148779514625000E9    -5.721062819145591E-2    5.339929002313974E-1   -2.629574261685047E-3    7.602868858382417E-5   -2.659326913577836E-3    1.146580317884287E-4    1.047166643291290E-1    5.004359008624317E-1
 8.148803220500000E9    -5.560413120443701E-2    5.341600216488785E-1   -2.627415846316485E-3    8.231256781991822E-5   -2.643910274020680E-3    1.335400299228090E-4    1.063574512281145E-1    5.000796103190754E-1
 8.148826926375000E9    -5.392350247076948E-2    5.344180753626383E-1   -2.607872458608392E-3    7.803063404377864E-5   -2.658866913989124E-3    1.296007809798186E-4    1.078092705998091E-1    4.998161589117586E-1
 8.148850632250000E9    -5.226188759550026E-2    5.346474970852414E-1   -2.596235444983965E-3    9.959146552484205E-5   -2.661829994450607E-3    1.362157098312873E-4    1.093505817656198E-1    4.994663933593186E-1
 8.148874338125000E9    -5.077698239741663E-2    5.348191189296122E-1   -2.628969520723385E-3    9.229414504553381E-5   -2.648015540646672E-3    1.609499449427107E-4    1.108047084508393E-1    4.991143690110025E-1
 8.148898044000000E9    -4.891984130274494E-2    5.350114966218920E-1   -2.644878872331752E-3    1.171892143893841E-4   -2.640609094349801E-3    1.533481956892771E-4    1.122945401553870E-1    4.986992184524485E-1
 8.148921749875000E9    -4.734922058940615E-2    5.351298713366575E-1   -2.615660802975948E-3    1.283729291890144E-4   -2.636179376872754E-3    1.726308740781760E-4    1.138255157727392E-1    4.983167970028591E-1
 8.148945455750000E9    -4.576186015664294E-2    5.352670133763449E-1   -2.605819994527283E-3    1.147854250440149E-4   -2.650075384834093E-3    1.969698604280380E-4    1.152620268863653E-1    4.979295013434181E-1
