#  HZ   S   RI   R     50.00 
! Rohde & Schwarz Vector Network Analyzer 
! Rohde-Schwarz,ZNB20-2Port,1311601062101988,3.16
! Created: UTC 3/21/2024, 1:06:18 AM
! freq[Hz]                re:S11                  im:S11                  re:S21                  im:S21                  re:S12                  im:S12                  re:S22                  im:S22
 8.147303700000000E9    -1.575289359821287E-1    5.106068379189764E-1   -2.591637873622737E-3   -4.604344217098588E-4   -2.607690187239609E-3   -3.952570784861742E-4    9.408744881907665E-3    5.129718849616111E-1
 8.147325181250000E9    -1.561091268162160E-1    5.109542914868224E-1   -2.574220344729901E-3   -4.429837910537461E-4   -2.652924157792500E-3   -3.969895320976451E-4    1.100254762265492E-2    5.129762817218818E-1
 8.147346662500000E9    -1.545405554452504E-1    5.114617667513829E-1   -2.601882121627995E-3   -4.324434994339243E-4   -2.662169576509150E-3   -3.613758553369470E-4    1.244149341641045E-2    5.127984581546415E-1
 8.147368143750000E9    -1.531678842556841E-1    5.119058530940493E-1   -2.615624635790272E-3   -4.474137046791372E-4   -2.638398199103276E-3   -4.163702800679591E-4    1.372772389154675E-2    5.128103399767202E-1
 8.147389625000000E9    -1.517640775664662E-1    5.124897289804989E-1   -2.601431734468388E-3   -4.174575251637092E-4   -2.658700612118507E-3   -3.650139735810050E-4    1.508087548696140E-2    5.127458631215990E-1
 8.147411106250000E9    -1.503172241183492E-1    5.128893780941307E-1   -2.595409832158217E-3   -4.181567414045960E-4   -2.658211891042040E-3   -3.724007199801526E-4    1.660076770272227E-2    5.127590423574891E-1
 8.147432587500000E9    -1.488050948370287E-1    5.134072214317388E-1   -2.607730017999624E-3   -4.328196372892505E-4   -2.651235706170742E-3   -3.595995846471926E-4    1.802053554542337E-2    5.125966353590229E-1
 8.147454068750000E9    -1.473856224568593E-1    5.136990841623875E-1   -2.586973322808106E-3   -4.214014881902714E-4   -2.619442507056537E-3   -3.437087703971776E-4    1.935564337103100E-2    5.124908744339679E-1
 8.147475550000000E9    -1.460081945757237E-1    5.144207199103009E-1   -2.621563156807939E-3   -3.731898428887534E-4   -2.685237905557709E-3   -3.299617555894722E-4    2.079245372055134E-2    5.125037652124559E-1
 8.147497031250000E9    -1.445985950107438E-1    5.147221529253324E-1   -2.596496810868005E-3   -4.001480727588737E-4   -2.651568481041737E-3   -3.326446815962750E-4    2.211130578668749E-2    5.123981836216123E-1
 8.147518512500000E9    -1.431136128162205E-1    5.151411689454699E-1   -2.591746273135989E-3   -3.668513247253401E-4   -2.640203240252009E-3   -3.396941487756645E-4    2.361312193936288E-2    5.123187475680112E-1
 8.147539993750000E9    -1.416568404627116E-1    5.155356782943176E-1   -2.590049249603481E-3   -3.488605841109285E-4   -2.669225736702688E-3   -3.443441158728781E-4    2.488128188751832E-2    5.120939975072528E-1
 8.147561475000000E9    -1.402614388794830E-1    5.160594992429294E-1   -2.615111985614366E-3   -3.597679460537660E-4   -2.639160958135856E-3   -3.419267938693690E-4    2.630692130671852E-2    5.121606893243952E-1
 8.147582956250000E9    -1.388276746541927E-1    5.165313896926608E-1   -2.618191824092955E-3   -3.670776299549252E-4   -2.626824531948765E-3   -3.039282443493777E-4    2.785240288531799E-2    5.119840373562052E-1
 8.147604437500000E9    -1.374035061150812E-1    5.168299882736829E-1   -2.611525346597772E-3   -3.473739415451733E-4   -2.660054361126928E-3   -2.794704972946963E-4    2.913754084402057E-2    5.120151830925121E-1
 8.147625918750000E9    -1.360447545467586E-1    5.174039717643893E-1   -2.614719334334433E-3   -3.261567663811723E-4   -2.646730990081574E-3   -2.804721219340297E-4    3.073916370818554E-2    5.118707641849433E-1
 8.147647400000000E9    -1.344730099638825E-1    5.177412499611993E-1   -2.582052620322994E-3   -3.312388854365713E-4   -2.642953039463458E-3   -2.825879834813684E-4    3.207794452422773E-2    5.117079061698212E-1
 8.147668881250000E9    -1.329718850700686E-1    5.182031744910953E-1   -2.598137557067023E-3   -3.344748950537735E-4   -2.655890880166559E-3   -2.571423459834683E-4    3.344874286554917E-2    5.115981019911408E-1
 8.147690362500000E9    -1.315690840995144E-1    5.186950301011511E-1   -2.609151557747989E-3   -3.231077550063665E-4   -2.691703570898956E-3   -2.847149713507548E-4    3.476497083565847E-2    5.113503515204115E-1
 8.147711843750000E9    -1.301721516076722E-1    5.189961758799305E-1   -2.597546238557178E-3   -3.054340483204573E-4   -2.654074853265314E-3   -2.665333562133830E-4    3.622157592584021E-2    5.113198401094353E-1
 8.147733325000000E9    -1.286666807121598E-1    5.192745656855613E-1   -2.621604055604969E-3   -3.288823676356521E-4   -2.697590427621961E-3   -2.675707391392239E-4    3.757549190120599E-2    5.113294198776064E-1
 8.147754806250000E9    -1.271588001039908E-1    5.197980922609808E-1   -2.612369386967640E-3   -2.849939209047832E-4   -2.676310378257807E-3   -2.341399676697868E-4    3.896401211613462E-2    5.109388374688488E-1
 8.147776287500000E9    -1.258922441966357E-1    5.201343867155485E-1   -2.585007789832954E-3   -2.900559394875102E-4   -2.651063097939832E-3   -2.246761430835262E-4    4.032527694659198E-2    5.111260875674731E-1
 8.147797768750000E9    -1.242828081323588E-1    5.205429198855670E-1   -2.611096755230240E-3   -2.684585930847194E-4   -2.630843919963635E-3   -2.282942876249237E-4    4.185931180327639E-2    5.107842755796406E-1
 8.147819250000000E9    -1.229105342266605E-1    5.210339200062691E-1   -2.603388862916681E-3   -2.704834472237146E-4   -2.713770423099208E-3   -2.511145709362289E-4    4.329045979943819E-2    5.106471626410021E-1
 8.147840731250000E9    -1.214343640019707E-1    5.214430685179379E-1   -2.634162290999628E-3   -2.580841780973386E-4   -2.611932080948955E-3   -2.259916717257896E-4    4.457833033012617E-2    5.105174009458672E-1
 8.147862212500000E9    -1.200324490945960E-1    5.215578439353685E-1   -2.600365135239245E-3   -2.431703812554114E-4   -2.654567208834329E-3   -2.225386111314947E-4    4.596491718145074E-2    5.104494577694658E-1
 8.147883693750000E9    -1.185521012120043E-1    5.221351100236327E-1   -2.640077406061048E-3   -2.497408272999244E-4   -2.667293690745561E-3   -2.116258342448180E-4    4.743041922163078E-2    5.101310016708636E-1
 8.147905175000000E9    -1.170840294669439E-1    5.224710816037884E-1   -2.589834755528921E-3   -2.409355093814146E-4   -2.648950675228263E-3   -2.152123975461502E-4    4.886250762398314E-2    5.101227407380334E-1
 8.147926656250000E9    -1.157239324728608E-1    5.228411890451609E-1   -2.597444476878999E-3   -2.459775434075784E-4   -2.619171292234289E-3   -1.934885390369511E-4    5.016154418726116E-2    5.099537914267905E-1
 8.147948137500000E9    -1.140632977920453E-1    5.230322063634476E-1   -2.624622853193086E-3   -2.265156593834152E-4   -2.700587996773720E-3   -1.891897748991134E-4    5.141875019843659E-2    5.097517980723085E-1
 8.147969618750000E9    -1.127698582561626E-1    5.234843711359923E-1   -2.605614211925142E-3   -2.562527400177393E-4   -2.666044810781551E-3   -1.600167440181060E-4    5.284759533072791E-2    5.096857257531111E-1
 8.147991100000000E9    -1.112635456007117E-1    5.237940998859235E-1   -2.624141219761427E-3   -2.193213731558788E-4   -2.676374405607039E-3   -1.574133891875850E-4    5.420694718038722E-2    5.093676884542848E-1
 8.148012581250000E9    -1.097333096472465E-1    5.242065053153483E-1   -2.603153205543122E-3   -2.212686712594615E-4   -2.611404239669380E-3   -1.520917425247133E-4    5.571218339258820E-2    5.092485143264410E-1
 8.148034062500000E9    -1.082154264223247E-1    5.245893366720012E-1   -2.602479385661306E-3   -1.872338827885008E-4   -2.674577951759739E-3   -1.384225550781485E-4    5.708379373725341E-2    5.090649639879168E-1
 8.148055543750000E9    -1.068567153683542E-1    5.248859683995366E-1   -2.637917350595456E-3   -2.066941074045609E-4   -2.661002997410562E-3   -1.277952548012064E-4    5.841304352807990E-2    5.089237135693577E-1
 8.148077025000000E9    -1.053398219278047E-1    5.251432744669423E-1   -2.637472857023489E-3   -1.660127872958040E-4   -2.650040220246933E-3   -1.405587287686933E-4    5.981366749959728E-2    5.086463426758827E-1
 8.148098506250000E9    -1.040673599594900E-1    5.255362586159606E-1   -2.603616186831593E-3   -1.582460404537361E-4   -2.657635837243389E-3   -1.439146207999358E-4    6.125788884353951E-2    5.084752077560588E-1
 8.148119987500000E9    -1.025027948537380E-1    5.258625397642060E-1   -2.624850732686238E-3   -1.637722477199706E-4   -2.649910031261834E-3   -1.334527466740651E-4    6.249286187059360E-2    5.084064408075645E-1
 8.148141468750000E9    -1.009843568309616E-1    5.261785966179068E-1   -2.625324625198816E-3   -1.580263995034088E-4   -2.648224740851776E-3   -1.019908327296643E-4    6.403027935267107E-2    5.080765781139975E-1
 8.148162950000000E9    -9.966332251931055E-2    5.266797505120467E-1   -2.611422369331570E-3   -1.546368651435878E-4   -2.660083333304784E-3   -8.638145404047732E-5    6.544070001649403E-2    5.079637127670590E-1
 8.148184431250000E9    -9.820335474638484E-2    5.268024592330747E-1   -2.604859090323280E-3   -1.301536315862168E-4   -2.653696929067310E-3   -1.190243536628444E-4    6.676702747535773E-2    5.075901727163418E-1
 8.148205912500000E9    -9.659297868547001E-2    5.272125260895134E-1   -2.642336570187531E-3   -1.367699508681838E-4   -2.691063906959108E-3   -6.254841952944750E-5    6.812562768292474E-2    5.075400047641099E-1
 8.148227393750000E9    -9.525162953582426E-2    5.272937935203825E-1   -2.616813026783560E-3   -1.483415565735993E-4   -2.650288072336956E-3   -8.950336321613050E-5    6.960264519323524E-2    5.071490099219010E-1
 8.148248875000000E9    -9.383827852591563E-2    5.277220320865703E-1   -2.623675887098139E-3   -1.495128529169425E-4   -2.648661709367756E-3   -7.903451370557167E-5    7.091477679659092E-2    5.070448648371270E-1
 8.148270356250000E9    -9.234794001133724E-2    5.279634797552479E-1   -2.636631018004338E-3   -1.362800341847586E-4   -2.650999755218026E-3   -5.873612773143468E-5    7.241705657889601E-2    5.068902360979073E-1
 8.148291837500000E9    -9.069216383594081E-2    5.283248357724218E-1   -2.638042854126128E-3   -1.110965042351588E-4   -2.660016582359933E-3   -3.994851908484359E-5    7.369889371284366E-2    5.067338647313355E-1
 8.148313318750000E9    -8.928369961288178E-2    5.285763014405539E-1   -2.607877076482789E-3   -1.076593081321012E-4   -2.651005632406991E-3   -3.788420017123579E-5    7.514239958948708E-2    5.065018393528181E-1
 8.148334800000000E9    -8.778990920055137E-2    5.289369082634725E-1   -2.626353314866055E-3   -1.081326317050313E-4   -2.648028306255063E-3   -1.895106564803540E-5    7.669183113532602E-2    5.062784738407355E-1
 8.148356281250000E9    -8.635071565030920E-2    5.291487729676831E-1   -2.618397527738764E-3   -7.547950811348834E-5   -2.666329746105046E-3   -8.035188063024502E-6    7.772121265888422E-2    5.059161520327089E-1
 8.148377762500000E9    -8.483038125373435E-2    5.294420418466607E-1   -2.622745035743240E-3   -7.229023750573836E-5   -2.668174742134774E-3   -2.682758891263757E-5    7.924800194041484E-2    5.057367899263845E-1
 8.148399243750000E9    -8.340409132137695E-2    5.297205746490519E-1   -2.629563932204595E-3   -9.281319643670133E-5   -2.672175932369545E-3   -1.081262788089202E-5    8.062020331266832E-2    5.055134385864769E-1
 8.148420725000000E9    -8.195866676862874E-2    5.299778855323923E-1   -2.627637993045104E-3   -6.136216027590575E-5   -2.676953577874108E-3    2.865587210343821E-6    8.195596323993244E-2    5.051600218275389E-1
 8.148442206250000E9    -8.052690578991040E-2    5.303146942237486E-1   -2.612688388990376E-3   -4.548854907598259E-5   -2.680279396591526E-3   -4.752945733941855E-6    8.346636905004226E-2    5.048400649388168E-1
 8.148463687500000E9    -7.893004091641539E-2    5.306112512619621E-1   -2.618289205969806E-3   -3.985219387983785E-5   -2.649764875998656E-3    5.011457855765176E-5    8.467805332253781E-2    5.047044057659048E-1
 8.148485168750000E9    -7.749771131706790E-2    5.308089998979227E-1   -2.634604414622338E-3   -4.525335397564127E-5   -2.679758948511470E-3    1.248287393109763E-5    8.607155420117835E-2    5.043729561166642E-1
 8.148506650000000E9    -7.600272006769912E-2    5.310243327683538E-1   -2.605760372461568E-3   -3.417251285290634E-5   -2.646299834681678E-3    2.868957359459498E-5    8.748397213951231E-2    5.042284282193987E-1
 8.148528131250000E9    -7.447432815711265E-2    5.312163365065845E-1   -2.625141237952907E-3   -1.916178333417317E-5   -2.669692253744979E-3    1.176402144457953E-5    8.883713719303525E-2    5.038931088407986E-1
 8.148549612500000E9    -7.310479432627341E-2    5.315595438126638E-1   -2.605593324442120E-3   -3.724269689211825E-7   -2.644855485416570E-3    1.839532510124720E-5    9.022523370391895E-2    5.036734541376731E-1
 8.148571093750000E9    -7.157174774851169E-2    5.316189739083795E-1   -2.602805339947689E-3   -1.709923550165376E-5   -2.663953137554649E-3    3.540594515793636E-5    9.160423715429623E-2    5.033508749890697E-1
 8.148592575000000E9    -7.010822367975354E-2    5.321080317124646E-1   -2.624797536181843E-3    1.561687431294701E-6   -2.660935409494206E-3    4.924396644011074E-5    9.278872374069790E-2    5.030532917777609E-1
 8.148614056250000E9    -6.861864081999267E-2    5.323101166222686E-1   -2.601659432804255E-3    5.981493375516314E-6   -2.658727571152483E-3    3.584032781716045E-5    9.431786922623007E-2    5.026929947586415E-1
 8.148635537500000E9    -6.714536323435021E-2    5.325314855070170E-1   -2.634581030089166E-3    3.851778411560086E-5   -2.638284737292725E-3    7.544673687981155E-5    9.558020953857195E-2    5.023549302979833E-1
 8.148657018750000E9    -6.579192698289081E-2    5.326936370337947E-1   -2.630079043632937E-3    3.826800681571439E-5   -2.638242168172391E-3    6.888759123295390E-5    9.705138276264408E-2    5.021990368909043E-1
 8.148678500000000E9    -6.425779070816175E-2    5.327837717105134E-1   -2.628774488956864E-3    3.843797186935333E-5   -2.656669645045459E-3    1.026229690918689E-4    9.841947759840787E-2    5.018403388481141E-1
 8.148699981250000E9    -6.265439724124408E-2    5.330390992468755E-1   -2.608950623554475E-3    5.210094473888063E-5   -2.661646793267494E-3    9.418195681539329E-5    9.956757073187170E-2    5.015199471535040E-1
 8.148721462500000E9    -6.109141326938126E-2    5.332509283622411E-1   -2.613141913378809E-3    3.242499106540600E-5   -2.668132162970969E-3    6.218159957514082E-5    1.011160842039541E-1    5.012699339083340E-1
 8.148742943750000E9    -5.976492991293465E-2    5.335245276805648E-1   -2.593061475398983E-3    7.304700360783695E-5   -2.648539849413512E-3    6.935469550534010E-5    1.025260779800287E-1    5.010485264062290E-1
 8.148764425000000E9    -5.843656560380403E-2    5.336910109100380E-1   -2.633067959155948E-3    6.233409126420785E-5   -2.666623391711883E-3    1.302712847054218E-4    1.038223241066852E-1    5.007595850481010E-1
 8.148785906250000E9    -5.678016988948952E-2    5.338828678882221E-1   -2.625679976210704E-3    5.555238612010692E-5   -2.671221205901016E-3    1.233896846815887E-4    1.052093939788753E-1    5.003642475947070E-1
 8.148807387500000E9    -5.533530573740805E-2    5.340888690029644E-1   -2.614232050465720E-3    1.045998871929401E-4   -2.661427409794988E-3    1.241445197097398E-4    1.065238750304857E-1    4.999797864117203E-1
 8.148828868750000E9    -5.388891673137528E-2    5.343504313565617E-1   -2.653429357988301E-3    9.082177564084274E-5   -2.638506140528034E-3    1.571271582390846E-4    1.080244575960752E-1    4.997103903995595E-1
 8.148850350000000E9    -5.229567856201476E-2    5.345512575374662E-1   -2.652843207127338E-3    1.360567052588481E-4   -2.661460525378944E-3    1.331340727472443E-4    1.092658769039530E-1    4.995234454540782E-1
 8.148871831250000E9    -5.096039020802340E-2    5.346987197462424E-1   -2.615220134570302E-3    1.228587402251696E-4   -2.645336351887292E-3    1.660833178741991E-4    1.107555160102969E-1    4.991726778856553E-1
 8.148893312500000E9    -4.933231627647099E-2    5.347874619833224E-1   -2.627394700887939E-3    9.940969066238355E-5   -2.668413671901561E-3    1.635535954803735E-4    1.119684705604305E-1    4.987766106048792E-1
 8.148914793750000E9    -4.790938509647114E-2    5.349806673447653E-1   -2.617023517641367E-3    1.358657499074029E-4   -2.659883897263513E-3    1.734744625288967E-4    1.134274593405501E-1    4.985025149112144E-1
 8.148936275000000E9    -4.626089566542383E-2    5.352531475468187E-1   -2.600980554765220E-3    1.430316549946148E-4   -2.650361115502312E-3    1.390231598330243E-4    1.147182334145834E-1    4.981323372124674E-1
 8.148957756250000E9    -4.497359522992034E-2    5.354139147873661E-1   -2.617644451188706E-3    1.365343043790319E-4   -2.660714896809697E-3    1.568784627027790E-4    1.160039219582203E-1    4.977393020278920E-1
 8.148979237500000E9    -4.344675773367823E-2    5.355843455992679E-1   -2.615319742266655E-3    1.602490722952777E-4   -2.658678190798734E-3    1.783486910823609E-4    1.173800601853672E-1    4.974637561159304E-1
 8.149000718750000E9    -4.193708053183995E-2    5.356474458064723E-1   -2.633316804484397E-3    1.661706780979129E-4   -2.662456757286225E-3    2.055884907469824E-4    1.186525946033166E-1    4.971866508637691E-1
 8.149022200000000E9    -4.043894831847464E-2    5.358108544644474E-1   -2.620898784196566E-3    1.306174016480624E-4   -2.643188029722387E-3    1.720872211735030E-4    1.199925669044342E-1    4.968262614756441E-1
 8.149043681250000E9    -3.888484472089628E-2    5.360069243888138E-1   -2.624633070314486E-3    1.552661117724072E-4   -2.670485097266121E-3    2.111832489359188E-4    1.213355078730835E-1    4.964109164321930E-1
 8.149065162500000E9    -3.746312597048823E-2    5.361030733489576E-1   -2.620877285532816E-3    1.671973330743268E-4   -2.639394727783774E-3    2.178418863643107E-4    1.226338950465663E-1    4.960033946236773E-1
 8.149086643750000E9    -3.601316906867381E-2    5.363889726941165E-1   -2.620499230657620E-3    1.948037417102414E-4   -2.630158792971092E-3    2.262964895028290E-4    1.241109792138291E-1    4.955671890802914E-1
 8.149108125000000E9    -3.452498545079288E-2    5.364260579510285E-1   -2.607658178873068E-3    1.699441131072783E-4   -2.654401292020259E-3    2.247075669748297E-4    1.255930521228643E-1    4.952361148904070E-1
 8.149129606250000E9    -3.293035848217857E-2    5.366191452289805E-1   -2.616002102585504E-3    1.938991297310806E-4   -2.631571564609114E-3    2.079857073496393E-4    1.267189216934424E-1    4.948593202134605E-1
 8.149151087500000E9    -3.145297475716895E-2    5.367072827191858E-1   -2.624362308526462E-3    1.907282482664018E-4   -2.652604546212717E-3    2.582335457983580E-4    1.280557321311682E-1    4.944221137121510E-1
 8.149172568750000E9    -3.003151373288144E-2    5.367988433160875E-1   -2.606340187477602E-3    1.916629128110019E-4   -2.652110464376586E-3    2.739729704300099E-4    1.295814244385281E-1    4.941629146991457E-1
 8.149194050000000E9    -2.845776720855293E-2    5.369160177551652E-1   -2.621883503905208E-3    1.924020496390224E-4   -2.645230338386927E-3    2.825946301691261E-4    1.308363255968836E-1    4.937856963482393E-1
 8.149215531250000E9    -2.705534829858233E-2    5.369749558692666E-1   -2.596474658528137E-3    2.292700501125753E-4   -2.618435853039875E-3    2.631972837776266E-4    1.321757368504895E-1    4.932782141587206E-1
 8.149237012500000E9    -2.555038147087037E-2    5.371500339615477E-1   -2.613280106556735E-3    2.350544226026565E-4   -2.655299653280507E-3    3.068386982419668E-4    1.335093726153551E-1    4.930649917772887E-1
