#  HZ   S   RI   R     50.00 
! Rohde & Schwarz Vector Network Analyzer 
! Rohde-Schwarz,ZNB20-2Port,1311601062101988,3.16
! Created: UTC 3/21/2024, 1:06:23 AM
! freq[Hz]                re:S11                  im:S11                  re:S21                  im:S21                  re:S12                  im:S12                  re:S22                  im:S22
 8.147207252000000E9    -1.638660781183584E-1    5.083159968288761E-1   -2.601777047333899E-3   -4.920876396908422E-4   -2.653800802788400E-3   -4.562702930077548E-4    3.181460414047628E-3    5.131389771070506E-1
 8.147229191950000E9    -1.624752840950053E-1    5.087888570122300E-1   -2.609999814771643E-3   -4.615752738577135E-4   -2.675997558494614E-3   -4.193196268064378E-4    4.517398769870334E-3    5.130343746611155E-1
 8.147251131900000E9    -1.610579771574505E-1    5.093964733352530E-1   -2.593104397129570E-3   -5.008810689835161E-4   -2.616646703479303E-3   -4.082007321798382E-4    5.975299075088767E-3    5.130379191058678E-1
 8.147273071850000E9    -1.595566437178658E-1    5.097226530286370E-1   -2.578430604082664E-3   -4.841036768994926E-4   -2.649315863445236E-3   -4.169528845134696E-4    7.486966753737953E-3    5.130679973093050E-1
 8.147295011800000E9    -1.582685878533878E-1    5.102611504975101E-1   -2.599358871759117E-3   -4.279164455405655E-4   -2.636374751506322E-3   -4.147119016104880E-4    8.849870678494270E-3    5.131214481326341E-1
 8.147316951750000E9    -1.566490830274981E-1    5.108504844582095E-1   -2.588000601443650E-3   -4.493876023636890E-4   -2.661745344044828E-3   -3.989529274383721E-4    1.040290610059761E-2    5.129097444566564E-1
 8.147338891700000E9    -1.551550109252367E-1    5.113365635432445E-1   -2.587676509487195E-3   -4.190733434060097E-4   -2.652445876912731E-3   -4.317560516381349E-4    1.170236586484117E-2    5.128203281950053E-1
 8.147360831650000E9    -1.537277216652869E-1    5.117213425718148E-1   -2.563868982727746E-3   -4.446551301556486E-4   -2.630660109248677E-3   -4.078690128811641E-4    1.305822194972723E-2    5.128962220223614E-1
 8.147382771600000E9    -1.522572545807740E-1    5.123663466957780E-1   -2.594235052785382E-3   -4.016501521898437E-4   -2.666397274811737E-3   -3.852238742260315E-4    1.463548251639916E-2    5.126305365354415E-1
 8.147404711550000E9    -1.507601456506508E-1    5.127845081975505E-1   -2.595003390695668E-3   -4.181870512533936E-4   -2.641907333846450E-3   -3.927664244815995E-4    1.613323838696679E-2    5.126395789169235E-1
 8.147426651500000E9    -1.493014225077484E-1    5.132764332786706E-1   -2.600248259534346E-3   -4.019221147352664E-4   -2.632962833074969E-3   -3.782391324332975E-4    1.744972499162849E-2    5.126261011539761E-1
 8.147448591450000E9    -1.478783147418239E-1    5.136663872255355E-1   -2.611777134886479E-3   -4.117195737841090E-4   -2.671741803768347E-3   -3.862071546041126E-4    1.895187754317032E-2    5.126972601047608E-1
 8.147470531400000E9    -1.463159185876340E-1    5.141503546542635E-1   -2.573080594830573E-3   -4.111965619599914E-4   -2.641282010634182E-3   -3.283708749794654E-4    2.034123413476184E-2    5.125163507875795E-1
 8.147492471350000E9    -1.449186608578087E-1    5.145410641555777E-1   -2.586571926747375E-3   -3.744491307903075E-4   -2.663931520505442E-3   -3.377579245653169E-4    2.187466388845870E-2    5.123843009287175E-1
 8.147514411300000E9    -1.433666679270762E-1    5.149845642057640E-1   -2.622257158726334E-3   -3.937088883641214E-4   -2.640559912634252E-3   -3.459559414891600E-4    2.308572601618976E-2    5.122949993500659E-1
 8.147536351250000E9    -1.419863921828924E-1    5.154043935738115E-1   -2.616898300058615E-3   -3.852262462519643E-4   -2.658553513933481E-3   -3.158416986677842E-4    2.488099962820080E-2    5.122581237295688E-1
 8.147558291200000E9    -1.404574793181414E-1    5.158040837764748E-1   -2.597182240867669E-3   -3.699569427414055E-4   -2.656689114373013E-3   -3.179454145320431E-4    2.614059439627205E-2    5.121269595320227E-1
 8.147580231150000E9    -1.390949285308651E-1    5.164081688350061E-1   -2.634618367163645E-3   -3.593140520394275E-4   -2.662690115261022E-3   -3.140330422682451E-4    2.753946904287643E-2    5.118899430358577E-1
 8.147602171100000E9    -1.374643988365512E-1    5.167807809704816E-1   -2.622392389744715E-3   -3.351913191786386E-4   -2.636339910531019E-3   -3.192228921134901E-4    2.887530562763809E-2    5.119515544784597E-1
 8.147624111050000E9    -1.360766525579598E-1    5.171299634036807E-1   -2.598954217181961E-3   -3.419752004712695E-4   -2.660472351946246E-3   -2.868168495610329E-4    3.033907875510194E-2    5.117569249255332E-1
 8.147646051000000E9    -1.346102018193365E-1    5.176072372780284E-1   -2.608397268938206E-3   -3.304441720361774E-4   -2.648743595436494E-3   -2.911071134297910E-4    3.166734235906300E-2    5.117145140194334E-1
 8.147667990950000E9    -1.331149374736319E-1    5.181940353373322E-1   -2.583676979873098E-3   -3.376012915535095E-4   -2.632758105403220E-3   -2.578696753516100E-4    3.340272439052592E-2    5.115839875647485E-1
 8.147689930900000E9    -1.317223742405260E-1    5.185546804395960E-1   -2.584428962360263E-3   -3.523934188536054E-4   -2.657289187877068E-3   -2.599749633255953E-4    3.455220336554187E-2    5.115872578833164E-1
 8.147711870850000E9    -1.301907688986132E-1    5.188696481826133E-1   -2.591051405978481E-3   -2.933717965072415E-4   -2.640868553665401E-3   -2.630432157719537E-4    3.619577043659077E-2    5.114343796744265E-1
 8.147733810800000E9    -1.287509777179263E-1    5.194021815634112E-1   -2.599443723733367E-3   -3.131724633946263E-4   -2.637642505008136E-3   -2.564861740528586E-4    3.755224142728083E-2    5.111760521225061E-1
 8.147755750750000E9    -1.272019018343780E-1    5.196875593890556E-1   -2.598697500604992E-3   -3.125737153179659E-4   -2.661720274234722E-3   -2.388070777172171E-4    3.894410439387633E-2    5.109510768210253E-1
 8.147777690700000E9    -1.257911872970112E-1    5.201651942490011E-1   -2.604824282275887E-3   -2.895749534986583E-4   -2.653072289652351E-3   -2.640343997645207E-4    4.033944966797733E-2    5.109140908282012E-1
 8.147799630650000E9    -1.241083590033603E-1    5.204967413573360E-1   -2.598480406387355E-3   -2.796765293238862E-4   -2.643983509802466E-3   -2.150991170040634E-4    4.198022701963616E-2    5.107948734586854E-1
 8.147821570600000E9    -1.227571713477434E-1    5.208865672804681E-1   -2.609246775959445E-3   -2.785829690331479E-4   -2.655426746890976E-3   -2.247315839983771E-4    4.319558225348194E-2    5.106731013958734E-1
 8.147843510550000E9    -1.213190139750437E-1    5.212761929208283E-1   -2.606645919532343E-3   -2.671587925841903E-4   -2.639311738752709E-3   -2.309631872816668E-4    4.472357696907172E-2    5.105756249256689E-1
 8.147865450500000E9    -1.197914265207698E-1    5.216632141977671E-1   -2.586400140043355E-3   -2.490242372393685E-4   -2.680126039046670E-3   -2.352023979421993E-4    4.600416226150652E-2    5.102773415338338E-1
 8.147887390450000E9    -1.182369788332385E-1    5.221241300102907E-1   -2.607475978916144E-3   -2.186797519285856E-4   -2.654130056752570E-3   -1.738359396418200E-4    4.752223126886378E-2    5.102204662779694E-1
 8.147909330400000E9    -1.168502865043840E-1    5.224368551888254E-1   -2.605394996780983E-3   -2.212164551546650E-4   -2.636935048866691E-3   -1.724270458074233E-4    4.907986223544653E-2    5.099182752762869E-1
 8.147931270350000E9    -1.153391915086345E-1    5.227137895338674E-1   -2.622964079610683E-3   -2.370613507347229E-4   -2.654969124715778E-3   -2.091743923783346E-4    5.040197763546293E-2    5.098888551722761E-1
 8.147953210300000E9    -1.138918542715506E-1    5.231684596318398E-1   -2.599710449719164E-3   -2.152629364058470E-4   -2.655720913104681E-3   -1.684873042152493E-4    5.168193927705074E-2    5.098452170762191E-1
 8.147975150250000E9    -1.123526936137592E-1    5.235474536870970E-1   -2.630052062324044E-3   -2.475028386591506E-4   -2.633244053088111E-3   -1.728341659949061E-4    5.325605519978292E-2    5.095422848633407E-1
 8.147997090200000E9    -1.107919916963402E-1    5.238942474376905E-1   -2.595596428410151E-3   -2.207681006620916E-4   -2.654462851138730E-3   -1.595022529482762E-4    5.459380801315625E-2    5.093003008962951E-1
 8.148019030150000E9    -1.093714500575341E-1    5.242566087802863E-1   -2.641281096993550E-3   -2.154314332474480E-4   -2.654159487293755E-3   -1.525394010803602E-4    5.599218000809814E-2    5.092065793491803E-1
 8.148040970100000E9    -1.080298807113378E-1    5.246314615303382E-1   -2.597653028240238E-3   -1.845200898747566E-4   -2.653063191800820E-3   -9.570567213782471E-5    5.753852171679601E-2    5.089178910714709E-1
 8.148062910050000E9    -1.063919234343421E-1    5.249313194606386E-1   -2.605605010142905E-3   -1.685417973294516E-4   -2.629890081827005E-3   -1.946298688062078E-4    5.889308688479464E-2    5.088333601664968E-1
 8.148084850000000E9    -1.049296529038163E-1    5.252812208039827E-1   -2.624670289882676E-3   -1.902488709720986E-4   -2.662942693057300E-3   -1.548938026136709E-4    6.038823770972666E-2    5.086058339673605E-1
 8.148106789950000E9    -1.034878911598859E-1    5.255581414262039E-1   -2.621899243889549E-3   -1.704593390265782E-4   -2.674903404015532E-3   -1.330827514043277E-4    6.168374864526366E-2    5.084457042361880E-1
 8.148128729900000E9    -1.019805239142659E-1    5.258457853648520E-1   -2.623444955605772E-3   -1.911954543737988E-4   -2.644611172361209E-3   -1.306619046941980E-4    6.313852173367857E-2    5.081874827417769E-1
 8.148150669850000E9    -1.005719646571535E-1    5.263112982855527E-1   -2.601497518128927E-3   -1.548879814060513E-4   -2.673195783464329E-3   -1.064236703659248E-4    6.451311093079037E-2    5.080532157455386E-1
 8.148172609800000E9    -9.892510591126000E-2    5.266806188509721E-1   -2.624072768342672E-3   -1.540042855877166E-4   -2.655926788257062E-3   -9.640604701812337E-5    6.607175724563896E-2    5.076641129057241E-1
 8.148194549750000E9    -9.756075174403671E-2    5.270623211760066E-1   -2.605078372552081E-3   -1.331773878659483E-4   -2.675602161606523E-3   -9.926813269413601E-5    6.738684040569068E-2    5.076895477395613E-1
 8.148216489700000E9    -9.596440873419022E-2    5.272598933889961E-1   -2.602999475324166E-3   -1.218160639679276E-4   -2.639263654601709E-3   -8.624057555476180E-5    6.899930591378414E-2    5.074841421248322E-1
 8.148238429650000E9    -9.447867143331842E-2    5.274243379715284E-1   -2.633441260854618E-3   -1.163758559303373E-4   -2.652592735899065E-3   -1.065130231544177E-4    7.023168579985740E-2    5.072004811938013E-1
 8.148260369600000E9    -9.307905766771378E-2    5.279690784498237E-1   -2.620139147552552E-3   -1.138476441294281E-4   -2.629947175768856E-3   -5.194327875786935E-5    7.150773446246769E-2    5.069173110600207E-1
 8.148282309550000E9    -9.150112856079419E-2    5.281969585001612E-1   -2.602398785025852E-3   -1.145838886483208E-4   -2.655015569432569E-3   -6.549700723221777E-5    7.298827128390048E-2    5.067289084076271E-1
 8.148304249500000E9    -8.992944063165895E-2    5.284120244002891E-1   -2.617851838935447E-3   -1.096362301191919E-4   -2.666861967825338E-3   -7.358034258015189E-5    7.440567307323800E-2    5.065381719844263E-1
 8.148326189450000E9    -8.849554037147386E-2    5.287046688322056E-1   -2.606088364934194E-3   -7.930232757684096E-5   -2.672298674599712E-3   -7.807275174208230E-5    7.591069673965918E-2    5.062613069302411E-1
 8.148348129400000E9    -8.700376357884133E-2    5.290911128518193E-1   -2.607979774138607E-3   -1.202151794391821E-4   -2.668831194166933E-3   -5.092874159845596E-5    7.730419320042166E-2    5.059638414894316E-1
 8.148370069350000E9    -8.542012315550782E-2    5.293518001675622E-1   -2.619793489493052E-3   -7.588991334742473E-5   -2.674057148709477E-3   -4.110737595480435E-5    7.858925291475559E-2    5.058539253078679E-1
 8.148392009300000E9    -8.398213783547560E-2    5.295551549876807E-1   -2.624504392762757E-3   -8.555461494422385E-5   -2.663056175285401E-3   -2.342959993848852E-5    8.011720268538461E-2    5.055335161573706E-1
 8.148413949250000E9    -8.245794404216507E-2    5.298927182187162E-1   -2.615411046864065E-3   -6.633565004729038E-5   -2.673584658187362E-3   -1.839538653760844E-5    8.147997897414841E-2    5.053759513193393E-1
 8.148435889200000E9    -8.103411460627767E-2    5.302485618954049E-1   -2.631883310308605E-3   -6.041899935516493E-5   -2.670422446622482E-3    1.338386500082683E-6    8.289717018059761E-2    5.049141206867085E-1
 8.148457829150000E9    -7.952051748583779E-2    5.304179155484875E-1   -2.641447183870803E-3   -4.006757110741104E-5   -2.643386328367621E-3    1.186683422365535E-5    8.421934992750861E-2    5.047303584013783E-1
 8.148479769100000E9    -7.793836445315643E-2    5.306502877647142E-1   -2.625993497672388E-3   -3.085758600822219E-5   -2.664039649148787E-3    2.794624585363840E-5    8.571312226083774E-2    5.045036384525279E-1
 8.148501709050000E9    -7.649212651372107E-2    5.310257367442967E-1   -2.614650132241273E-3   -1.255165947150517E-5   -2.650107933663476E-3    1.463702545097298E-5    8.709338214288896E-2    5.042969724156192E-1
 8.148523649000000E9    -7.491850848145119E-2    5.312137232142284E-1   -2.630602350388584E-3   -1.787115404278932E-5   -2.650229067339932E-3    4.114867619555127E-5    8.856669971539519E-2    5.039027226519798E-1
 8.148545588950000E9    -7.345265162005242E-2    5.314298120103034E-1   -2.620299708700933E-3   -3.318266078604758E-5   -2.657269182265437E-3    4.902194752876883E-5    8.983849302961482E-2    5.037213412888267E-1
 8.148567528900000E9    -7.187499199808620E-2    5.316564448193083E-1   -2.624882476911066E-3   -2.552705453252711E-5   -2.672986186827774E-3    3.768515641099710E-5    9.135011323033865E-2    5.033508323818512E-1
 8.148589468850000E9    -7.042442617695217E-2    5.318978022908243E-1   -2.638394883247785E-3   -1.665040609641613E-5   -2.690114521708897E-3    2.875272172369096E-5    9.273833385560377E-2    5.030692742345375E-1
 8.148611408800000E9    -6.895624388592245E-2    5.321306854190380E-1   -2.610749477581982E-3    8.817456183092788E-6   -2.658776618223472E-3    7.010591740085254E-5    9.403496982229606E-2    5.027232883613357E-1
 8.148633348750000E9    -6.732584361599313E-2    5.324326537644862E-1   -2.617861178284607E-3    2.805379488136224E-5   -2.661267475260108E-3    8.329010826179654E-5    9.542154665641424E-2    5.024591361065930E-1
 8.148655288700000E9    -6.589963720719623E-2    5.327457739852847E-1   -2.624080322413400E-3    2.769123169701130E-5   -2.639796295657637E-3    5.466410517577997E-5    9.690650042079922E-2    5.023028410036816E-1
 8.148677228650000E9    -6.438076292946453E-2    5.328214540876368E-1   -2.629640159712476E-3    3.055795168196149E-5   -2.673430020690544E-3    9.195115844071388E-5    9.820346905658435E-2    5.019389252592128E-1
 8.148699168600000E9    -6.278635938288790E-2    5.329821870082244E-1   -2.616312997392835E-3    3.300628921633067E-5   -2.646354359991594E-3    8.586505158207962E-5    9.969871163639067E-2    5.015267160814045E-1
 8.148721108550000E9    -6.127910586938314E-2    5.333177385816271E-1   -2.623092116312644E-3    3.624383866503932E-5   -2.664933132493692E-3    9.789602954305148E-5    1.010984633971624E-1    5.011810471546025E-1
 8.148743048500000E9    -5.974725746530217E-2    5.335492491519239E-1   -2.621742556490261E-3    5.600548477561402E-5   -2.608697142027213E-3    7.765169613393552E-5    1.024446573196152E-1    5.009554192230118E-1
 8.148764988450000E9    -5.832677670836633E-2    5.336477317058376E-1   -2.617312616929767E-3    5.129572351857536E-5   -2.657151307815294E-3    1.056516375024784E-4    1.039584967462592E-1    5.005900594975616E-1
 8.148786928400000E9    -5.681379474910274E-2    5.338827054634125E-1   -2.630352734604545E-3    8.512188887231504E-5   -2.644123924148705E-3    1.324387057268728E-4    1.052483532072205E-1    5.003411064850152E-1
 8.148808868350000E9    -5.535037923313602E-2    5.341293098535372E-1   -2.632306200093782E-3    7.542615439540224E-5   -2.662509343032621E-3    1.558314009915622E-4    1.066922032892648E-1    5.001976097884583E-1
 8.148830808300000E9    -5.371473752663377E-2    5.343915567956653E-1   -2.603363094017888E-3    9.465261074723386E-5   -2.649377894620480E-3    1.046461007600031E-4    1.080502353865891E-1    4.999532557114280E-1
 8.148852748250000E9    -5.223271087855153E-2    5.345301583414709E-1   -2.651078257638506E-3    8.995862288287078E-5   -2.658083748197642E-3    1.267081048405392E-4    1.095149516813983E-1    4.992943058401541E-1
 8.148874688200000E9    -5.069397679806765E-2    5.346540068181967E-1   -2.625047463746861E-3    9.900609922835694E-5   -2.633600233744522E-3    1.646885709963631E-4    1.105759673915469E-1    4.991212469257956E-1
 8.148896628150000E9    -4.917596401612900E-2    5.348456116409115E-1   -2.629256306743120E-3    1.100763074327096E-4   -2.627190500231856E-3    1.762851415937573E-4    1.121574899534853E-1    4.988574252573277E-1
 8.148918568100000E9    -4.769173058744924E-2    5.350134795165842E-1   -2.622614441445737E-3    1.528159145986670E-4   -2.655115205401010E-3    1.727652007517782E-4    1.135721187543791E-1    4.984284766746750E-1
 8.148940508050000E9    -4.619608494204101E-2    5.352769931446886E-1   -2.623156730091111E-3    1.231071890278135E-4   -2.647988970817009E-3    1.594903716495041E-4    1.148045549077880E-1    4.981109766715744E-1
 8.148962448000000E9    -4.451881310666656E-2    5.353590536194602E-1   -2.593699417872327E-3    1.360109584513756E-4   -2.669680414726166E-3    1.913609668095405E-4    1.162270372354197E-1    4.978246994750485E-1
 8.148984387950000E9    -4.310715307398973E-2    5.355454321377776E-1   -2.644392929827825E-3    1.465448489566423E-4   -2.615154303570325E-3    2.170784139476714E-4    1.177089277371098E-1    4.973583976312234E-1
 8.149006327900000E9    -4.152178859268202E-2    5.356565921061271E-1   -2.605189581767870E-3    1.245035819033392E-4   -2.668994341868986E-3    2.232363477416626E-4    1.189609358979137E-1    4.969941130187914E-1
 8.149028267850000E9    -3.999720878235367E-2    5.358040178435665E-1   -2.604994582293134E-3    1.527196354325730E-4   -2.656835740907988E-3    2.053054530970014E-4    1.203970659026172E-1    4.965476681609745E-1
 8.149050207800000E9    -3.851496431577579E-2    5.359574810260418E-1   -2.619782809610502E-3    1.535357885937137E-4   -2.645354265096744E-3    2.466557843462484E-4    1.217115497608305E-1    4.963158721140346E-1
 8.149072147750000E9    -3.710411434038507E-2    5.360869816620040E-1   -2.611983222190413E-3    1.645821975144157E-4   -2.644307614733740E-3    2.370870897841761E-4    1.231977091513929E-1    4.958529748354426E-1
 8.149094087700000E9    -3.552728374234145E-2    5.363764608338543E-1   -2.627808926477349E-3    1.886704137127954E-4   -2.651199726170437E-3    2.314927989588746E-4    1.244320632014566E-1    4.954228755917319E-1
 8.149116027650000E9    -3.405889117768594E-2    5.365011431736678E-1   -2.623323270149992E-3    1.838140160873040E-4   -2.640657710885689E-3    2.177225976290850E-4    1.258396459483453E-1    4.951070200412712E-1
 8.149137967600000E9    -3.260702264223980E-2    5.366504955748853E-1   -2.605909352209777E-3    2.199424650554502E-4   -2.644757474021182E-3    2.595737861006579E-4    1.272247116538423E-1    4.946367640737178E-1
 8.149159907550000E9    -3.084534980074081E-2    5.367559665996358E-1   -2.607190781772906E-3    2.127266441134607E-4   -2.640143245750039E-3    3.057677388612236E-4    1.284754162998720E-1    4.943647584807102E-1
 8.149181847500000E9    -2.941150754706676E-2    5.369110110825256E-1   -2.649063206869332E-3    1.961270639521227E-4   -2.635009029892504E-3    2.675821227134469E-4    1.299983577066252E-1    4.940313061825665E-1
