#  HZ   S   RI   R     50.00 
! Rohde & Schwarz Vector Network Analyzer 
! Rohde-Schwarz,ZNB20-2Port,1311601062101988,3.16
! Created: UTC 3/21/2024, 1:06:46 AM
! freq[Hz]                re:S11                  im:S11                  re:S21                  im:S21                  re:S12                  im:S12                  re:S22                  im:S22
 8.147576719000000E9    -1.395528907362532E-1    5.160905996585984E-1   -2.594220079215372E-3   -3.635288758978802E-4   -2.661597085054098E-3   -3.229036499437745E-4    2.700448483432649E-2    5.120973738037293E-1
 8.147597048500000E9    -1.382080881827856E-1    5.165810926712749E-1   -2.621210470850850E-3   -3.758960061521268E-4   -2.666498861835581E-3   -2.958325963643360E-4    2.832063878883411E-2    5.118708022558207E-1
 8.147617378000000E9    -1.368658166436284E-1    5.170472992885100E-1   -2.598862562527356E-3   -3.439328768843872E-4   -2.646799729818912E-3   -2.867635223074367E-4    2.975782434009402E-2    5.117924797856850E-1
 8.147637707500000E9    -1.355370965619090E-1    5.173878400151294E-1   -2.606190349996475E-3   -3.688197300726424E-4   -2.621191455392201E-3   -2.868056420010032E-4    3.098880528003512E-2    5.117369573767198E-1
 8.147658037000000E9    -1.341538009574343E-1    5.177316943501217E-1   -2.598902616752431E-3   -3.193847147161752E-4   -2.635561071564626E-3   -2.835845345931419E-4    3.234756867385471E-2    5.116061296185603E-1
 8.147678366500000E9    -1.328475821132641E-1    5.180385129937709E-1   -2.592863629276007E-3   -3.551477623254502E-4   -2.641124952131249E-3   -2.908197499416639E-4    3.388298019878162E-2    5.115665323422558E-1
 8.147698696000000E9    -1.313647438084947E-1    5.185136782212322E-1   -2.598962437039541E-3   -3.113000708767229E-4   -2.632660085333245E-3   -2.811883714009258E-4    3.498712566525610E-2    5.113653895991278E-1
 8.147719025500000E9    -1.300542868288164E-1    5.188705783646013E-1   -2.599830490836805E-3   -3.123960217274792E-4   -2.642665166982786E-3   -2.538417663773462E-4    3.649276843962706E-2    5.113329608193761E-1
 8.147739355000000E9    -1.285043149486207E-1    5.192814050398795E-1   -2.614603699828274E-3   -2.875837518750548E-4   -2.692970021928123E-3   -2.728511469285658E-4    3.766957560980055E-2    5.111690059960737E-1
 8.147759684500000E9    -1.273415539610637E-1    5.196764447536397E-1   -2.621902242416761E-3   -2.949753664981222E-4   -2.653514125772236E-3   -2.462207431902215E-4    3.896818482450246E-2    5.110879492473275E-1
 8.147780014000000E9    -1.258171818145602E-1    5.199897311151972E-1   -2.602572629216622E-3   -2.942687731310510E-4   -2.638683262614093E-3   -2.086680969505648E-4    4.029438929314818E-2    5.108538200543565E-1
 8.147800343500000E9    -1.244987045545307E-1    5.203582282064340E-1   -2.607171511028894E-3   -2.775449415497197E-4   -2.664572594950767E-3   -2.233483673729913E-4    4.161109866339169E-2    5.106656906332354E-1
 8.147820673000000E9    -1.230573122008947E-1    5.207929087494956E-1   -2.622720548358050E-3   -2.746338566699755E-4   -2.653506790670277E-3   -1.977787819593780E-4    4.301585880804671E-2    5.107832192466406E-1
 8.147841002500000E9    -1.217655459966674E-1    5.212506141591611E-1   -2.620108022457301E-3   -2.632680681673494E-4   -2.662008878833931E-3   -2.117792813727420E-4    4.420614646466833E-2    5.104871183523846E-1
 8.147861332000000E9    -1.202948577019587E-1    5.214895022511344E-1   -2.618480758982649E-3   -2.326831535893594E-4   -2.676935798750800E-3   -2.143612624729263E-4    4.559907932296541E-2    5.101911779389497E-1
 8.147881661500000E9    -1.191327405214452E-1    5.218575151996742E-1   -2.614570298834745E-3   -2.643602846587901E-4   -2.658453561914013E-3   -1.857746559497646E-4    4.693475407679384E-2    5.101370435003945E-1
 8.147901991000000E9    -1.175874851915945E-1    5.221853747813873E-1   -2.601056971228958E-3   -2.431536141699704E-4   -2.670592518787732E-3   -1.856054918319545E-4    4.823050253896468E-2    5.100925512352829E-1
 8.147922320500000E9    -1.162624843136343E-1    5.225420415651698E-1   -2.597244938411215E-3   -2.436912914593941E-4   -2.643845544554913E-3   -1.878476902855565E-4    4.965617520343772E-2    5.100138640619806E-1
 8.147942650000000E9    -1.148688110973730E-1    5.228306873681730E-1   -2.577517546377907E-3   -2.436288038892058E-4   -2.663350755801189E-3   -2.082107117856697E-4    5.075890649602322E-2    5.097058859442577E-1
 8.147962979500000E9    -1.135191071907593E-1    5.232368652384543E-1   -2.633532961777113E-3   -2.198237794863184E-4   -2.658349938582615E-3   -1.559810997810838E-4    5.225238879393402E-2    5.096562409622497E-1
 8.147983309000000E9    -1.121411499526264E-1    5.235892248335929E-1   -2.625067252380787E-3   -2.131656570361084E-4   -2.650533026232534E-3   -1.967683543917339E-4    5.353979169708934E-2    5.093897027646864E-1
 8.148003638500000E9    -1.107490831183496E-1    5.239597961165871E-1   -2.590989085701308E-3   -1.967763121945372E-4   -2.651800747333556E-3   -1.688860051873622E-4    5.471283291924435E-2    5.093111120688226E-1
 8.148023968000000E9    -1.093450405707411E-1    5.242740044096726E-1   -2.618449751589874E-3   -2.051244685544704E-4   -2.649608360668011E-3   -1.254428160603947E-4    5.623660238142346E-2    5.093309271710750E-1
 8.148044297500000E9    -1.079317388891664E-1    5.246053241811905E-1   -2.624035990775747E-3   -1.857401140561773E-4   -2.648176994874754E-3   -1.323245763220215E-4    5.736720085703678E-2    5.090419308159251E-1
 8.148064627000000E9    -1.065946492167259E-1    5.248178129452630E-1   -2.595662813325608E-3   -1.854348983741242E-4   -2.650241460830087E-3   -1.363897814663074E-4    5.872205009935980E-2    5.089416039628332E-1
 8.148084956500000E9    -1.052390226949628E-1    5.252071167931591E-1   -2.604781707815753E-3   -1.940833995741347E-4   -2.637990468793872E-3   -1.038106876847455E-4    6.002004580976267E-2    5.085887833950075E-1
 8.148105286000000E9    -1.038738798330488E-1    5.254441091091638E-1   -2.613643385950199E-3   -1.590956607363011E-4   -2.676395895222583E-3   -1.208187463423808E-4    6.133107452583995E-2    5.085449199666302E-1
 8.148125615500000E9    -1.025299337632007E-1    5.257654576948934E-1   -2.635889965436153E-3   -1.605130817025152E-4   -2.642869403109588E-3   -1.533186297617550E-4    6.258431849542323E-2    5.081964225942646E-1
 8.148145945000000E9    -1.010705234414106E-1    5.260639866005284E-1   -2.637042902603421E-3   -1.302170250682845E-4   -2.666499296428558E-3   -9.160077323317096E-5    6.398851325180291E-2    5.081574058518266E-1
 8.148166274500000E9    -9.970506882074966E-2    5.264075073810898E-1   -2.620581316275134E-3   -1.251859926711830E-4   -2.656212064299572E-3   -9.965095428182119E-5    6.537620370313037E-2    5.078775554726823E-1
 8.148186604000000E9    -9.836304979519211E-2    5.267425657046101E-1   -2.613235693274692E-3   -1.376949605868089E-4   -2.650701360877233E-3   -8.267560488011718E-5    6.672353402698540E-2    5.076064445640309E-1
 8.148206933500000E9    -9.689308458422735E-2    5.269391534983346E-1   -2.622392969585885E-3   -1.357757248821498E-4   -2.658242560854777E-3   -9.394480750744132E-5    6.794848043799823E-2    5.074366748046415E-1
 8.148227263000000E9    -9.558760245970857E-2    5.271985406551150E-1   -2.608567312882131E-3   -1.027107569902739E-4   -2.657355474709990E-3   -7.528115394996576E-5    6.933247892374450E-2    5.073778862069760E-1
 8.148247592500000E9    -9.414902455037566E-2    5.275034274387289E-1   -2.615232475343030E-3   -1.367608459795357E-4   -2.666632076449815E-3   -7.885597120714065E-5    7.049558447781294E-2    5.070576894567540E-1
 8.148267922000000E9    -9.270211647508195E-2    5.278219675323841E-1   -2.623339391667106E-3   -1.105275500207813E-4   -2.669829833872163E-3   -7.716291331560742E-5    7.183716502984031E-2    5.068414679379728E-1
 8.148288251500000E9    -9.132646525054812E-2    5.280279771076771E-1   -2.613758339627336E-3   -1.026153859107564E-4   -2.670870948315509E-3   -3.099959108009052E-5    7.303338817325165E-2    5.067112869834458E-1
 8.148308581000000E9    -8.989104930839041E-2    5.285309283733558E-1   -2.643743942995099E-3   -1.159422994066357E-4   -2.698355184289898E-3   -5.064253256348121E-5    7.446833790253210E-2    5.064714918626809E-1
 8.148328910500000E9    -8.862324453839739E-2    5.286399130288745E-1   -2.622240556775753E-3   -7.693565030901270E-5   -2.684876372770083E-3   -1.838786728347739E-5    7.564978152154131E-2    5.062491129386508E-1
 8.148349240000000E9    -8.709774301495304E-2    5.289111281828882E-1   -2.618084892659287E-3   -8.495440228210409E-5   -2.645039257552906E-3   -1.791849773069962E-5    7.705862549541370E-2    5.059091079329848E-1
 8.148369569500000E9    -8.576563085289379E-2    5.291615474283878E-1   -2.607903275934792E-3   -8.656032321701999E-5   -2.652116037483907E-3   -5.249398114919416E-5    7.852113107305192E-2    5.056856259497442E-1
 8.148389899000000E9    -8.429297283816410E-2    5.294626975492239E-1   -2.630303055855885E-3   -7.781525495144118E-5   -2.649562356917185E-3    9.980639702984232E-7    7.971791997159323E-2    5.055842793314778E-1
 8.148410228500000E9    -8.303506040068591E-2    5.296319719198184E-1   -2.595023873969819E-3   -7.057654666090044E-5   -2.642820989104861E-3   -2.024777206852734E-5    8.100214340211297E-2    5.052800888502522E-1
 8.148430558000000E9    -8.147748051706345E-2    5.300379574947268E-1   -2.624473709378725E-3   -5.471035275395354E-5   -2.662731511417341E-3    3.437710952724752E-6    8.225115185955452E-2    5.050972538668482E-1
 8.148450887500000E9    -8.017670133808398E-2    5.301944606919715E-1   -2.635541504265372E-3   -3.816807078047499E-5   -2.637148953059213E-3    1.620598403958615E-6    8.355663163016969E-2    5.048456469095098E-1
 8.148471217000000E9    -7.877283299550189E-2    5.304493156319317E-1   -2.621298810364452E-3   -3.148588892858123E-5   -2.649533746332699E-3    2.696404064194580E-6    8.494235001936620E-2    5.045834544508493E-1
 8.148491546500000E9    -7.736426599542452E-2    5.306970282453146E-1   -2.640123294500920E-3   -1.278309013133218E-5   -2.629073170608547E-3    3.148072426597232E-5    8.617636589436030E-2    5.043846078420751E-1
 8.148511876000000E9    -7.599508369386931E-2    5.310067121384797E-1   -2.623829789585450E-3   -2.763557330471516E-5   -2.642621455296834E-3    3.561926064076785E-5    8.746628874747607E-2    5.041428608336761E-1
 8.148532205500000E9    -7.463401228055100E-2    5.310958682515959E-1   -2.573398337649778E-3   -2.501765600580343E-5   -2.624308691987599E-3    4.187171362653528E-5    8.881896004273275E-2    5.040560041349624E-1
 8.148552535000000E9    -7.322499118074473E-2    5.314467410653381E-1   -2.639599520569602E-3   -1.524064966431024E-5   -2.674844972830639E-3    3.664461557025136E-5    9.000516407897007E-2    5.035986794627598E-1
 8.148572864500000E9    -7.187508784159688E-2    5.316692131884205E-1   -2.626395282412469E-3   -3.374813021299501E-6   -2.670719385349804E-3    3.666435404276872E-5    9.136676397753392E-2    5.033152621424876E-1
 8.148593194000000E9    -7.046708092506893E-2    5.318897227680434E-1   -2.643996895749551E-3   -1.312622231236157E-5   -2.668251369702123E-3    7.695718644596911E-5    9.261576817442164E-2    5.031010068096802E-1
 8.148613523500000E9    -6.897783032855277E-2    5.319397945199830E-1   -2.624009959978346E-3    6.346477124241178E-6   -2.663448071305236E-3    4.218357642014374E-5    9.379669328279200E-2    5.027632547166476E-1
 8.148633853000000E9    -6.754241624070516E-2    5.323092432652906E-1   -2.648268511117843E-3    6.313247620771222E-6   -2.670559718711455E-3    6.174188985273761E-5    9.528187281739174E-2    5.025392415299345E-1
 8.148654182500000E9    -6.605847403345844E-2    5.324316925978404E-1   -2.605460509389240E-3    2.434307762060094E-5   -2.661800991825062E-3    3.563814910091761E-5    9.649207741448665E-2    5.021886639925019E-1
 8.148674512000000E9    -6.485398238895013E-2    5.327380292428727E-1   -2.614356802036692E-3    1.339449991516228E-6   -2.650015951728864E-3    6.491768532756908E-5    9.781681475381786E-2    5.019425940116364E-1
 8.148694841500000E9    -6.338803424150696E-2    5.329979743794294E-1   -2.607881684664757E-3    2.614524180692682E-5   -2.663611255655144E-3    9.715513873916598E-5    9.906851670667191E-2    5.016267842859533E-1
 8.148715171000000E9    -6.209430508999955E-2    5.332006915182675E-1   -2.637006686552495E-3    4.545448849458333E-5   -2.671857483141321E-3    9.670503897559016E-5    1.003377895249267E-1    5.014887242648131E-1
 8.148735500500000E9    -6.063126259418618E-2    5.332547205663695E-1   -2.615267849915102E-3    6.738016686966034E-5   -2.673108472593809E-3    1.344443942104776E-4    1.017554883142150E-1    5.012195077473411E-1
 8.148755830000000E9    -5.921379248626300E-2    5.334837280783228E-1   -2.608858569382260E-3    2.869300278937164E-5   -2.653290470675712E-3    1.121519154911055E-4    1.028731846159867E-1    5.008195782416230E-1
 8.148776159500000E9    -5.791833158097847E-2    5.337122371655730E-1   -2.615865700248603E-3    7.287411286936229E-5   -2.654711079927241E-3    1.011239671621369E-4    1.041572932030091E-1    5.006111135299131E-1
 8.148796489000000E9    -5.637766686158619E-2    5.339187519690430E-1   -2.620586696007297E-3    8.801104026829852E-5   -2.650516238835238E-3    1.455123549401243E-4    1.056703438401278E-1    5.002009340230082E-1
 8.148816818500000E9    -5.494826629211558E-2    5.341705813222560E-1   -2.619276642336276E-3    6.229746225260713E-5   -2.644931893665283E-3    1.357340139224076E-4    1.068332504997219E-1    4.998981470167001E-1
 8.148837148000000E9    -5.365216381438186E-2    5.342891058611152E-1   -2.596430946614809E-3    9.119490827258965E-5   -2.656625028152772E-3    1.446651612960589E-4    1.081266323531071E-1    4.996577670148034E-1
 8.148857477500000E9    -5.220448760898988E-2    5.344498187036877E-1   -2.618472541097891E-3    1.058932029630977E-4   -2.654003221687682E-3    1.400814748313607E-4    1.094751717465740E-1    4.994017035923912E-1
 8.148877807000000E9    -5.078827234765432E-2    5.346109207533036E-1   -2.632378787201592E-3    8.589671313132776E-5   -2.638923795845437E-3    1.523940758267348E-4    1.106669542353971E-1    4.990277472003747E-1
 8.148898136500000E9    -4.938303412506505E-2    5.348025613644228E-1   -2.638895128632246E-3    1.203680353818711E-4   -2.620638934735380E-3    1.621301612296864E-4    1.119401850515988E-1    4.987395340494956E-1
 8.148918466000000E9    -4.788252879502361E-2    5.349814302550912E-1   -2.630357530424183E-3    1.098095237748346E-4   -2.670857353263538E-3    1.637811547722786E-4    1.132578018609674E-1    4.985020583270615E-1
 8.148938795500000E9    -4.649131856902558E-2    5.350396678146575E-1   -2.625815656684182E-3    1.202056595384756E-4   -2.607592541429856E-3    1.656459243217412E-4    1.146782430322026E-1    4.981009007088321E-1
 8.148959125000000E9    -4.505711463464517E-2    5.352477890195861E-1   -2.625509661423530E-3    1.126881102119386E-4   -2.661900246617290E-3    1.804175015442268E-4    1.157682688145091E-1    4.977997006718011E-1
 8.148979454500000E9    -4.368541810289895E-2    5.354217026544351E-1   -2.627124150404894E-3    1.502458388644407E-4   -2.634849102848443E-3    1.679397730626861E-4    1.169870507305574E-1    4.974261262522732E-1
 8.148999784000000E9    -4.228651135416152E-2    5.356058644328697E-1   -2.634186009120212E-3    1.561006701011504E-4   -2.646624476498089E-3    1.533383501346360E-4    1.184002396226054E-1    4.968778759731100E-1
 8.149020113500000E9    -4.099059197341449E-2    5.356682693172071E-1   -2.606370718655298E-3    1.526063352973073E-4   -2.678620919698027E-3    1.999501255063368E-4    1.196341726141663E-1    4.967190978625595E-1
 8.149040443000000E9    -3.959021515072368E-2    5.357613124365066E-1   -2.640657691133050E-3    1.470915155422485E-4   -2.656121303834415E-3    2.001308723662427E-4    1.207969467155968E-1    4.964983189633512E-1
 8.149060772500000E9    -3.819255445198737E-2    5.359004885390941E-1   -2.616806026455142E-3    1.999035982413987E-4   -2.653990581983204E-3    2.427059258457760E-4    1.221171464333013E-1    4.960974706860355E-1
 8.149081102000000E9    -3.665568095344131E-2    5.361291602011904E-1   -2.613242133641418E-3    1.845673515849730E-4   -2.627070122099205E-3    2.039677301593508E-4    1.234865029895975E-1    4.957129673469228E-1
 8.149101431500000E9    -3.532159510612631E-2    5.362698570637280E-1   -2.618176942980004E-3    2.019155819417134E-4   -2.658395637711822E-3    2.575514633756845E-4    1.247624353426305E-1    4.954911218382042E-1
 8.149121761000000E9    -3.401961061086953E-2    5.362738474029742E-1   -2.614583408820119E-3    1.833990038911065E-4   -2.636989201418321E-3    2.514066652729263E-4    1.261398400304936E-1    4.950778449868092E-1
 8.149142090500000E9    -3.256063746425792E-2    5.363702555652906E-1   -2.635335998212459E-3    1.943419189504882E-4   -2.652187262092609E-3    2.407259274735324E-4    1.272875974004042E-1    4.948156507967945E-1
 8.149162420000000E9    -3.104696995483514E-2    5.366695702272413E-1   -2.625786207047258E-3    2.148799248034956E-4   -2.666365686633739E-3    2.352007211957340E-4    1.285794906792691E-1    4.942788863704631E-1
 8.149182749500000E9    -2.962534489596805E-2    5.367863112428887E-1   -2.626787106349395E-3    2.259034989180234E-4   -2.638970060413249E-3    2.464429830968629E-4    1.296920994165637E-1    4.940010090491416E-1
 8.149203079000000E9    -2.825026698879897E-2    5.369610347525247E-1   -2.636024045374153E-3    2.015495282462266E-4   -2.673118339087413E-3    2.801547408028975E-4    1.310298914849816E-1    4.935905506225919E-1
 8.149223408500000E9    -2.681922079950810E-2    5.369548259132183E-1   -2.640944418902353E-3    2.499197006591429E-4   -2.644510052613199E-3    2.935551677910170E-4    1.323556900964109E-1    4.931780076742748E-1
 8.149243738000000E9    -2.538145114546796E-2    5.370818826639187E-1   -2.608848223010071E-3    2.410728289259500E-4   -2.670097215905389E-3    2.551722240890723E-4    1.336767734892318E-1    4.929491206923702E-1
 8.149264067500000E9    -2.391606645789346E-2    5.370927595861663E-1   -2.626462641877374E-3    2.365119962448820E-4   -2.637491512246821E-3    2.991390529730862E-4    1.348527005578168E-1    4.925864388510187E-1
 8.149284397000000E9    -2.272829631285389E-2    5.372111121837986E-1   -2.639774722192154E-3    2.402594148904085E-4   -2.627400112392684E-3    2.748588481771215E-4    1.361291221225143E-1    4.921489690098335E-1
 8.149304726500000E9    -2.115744140035999E-2    5.373333999546230E-1   -2.635140543302438E-3    2.427674667963782E-4   -2.668157557327201E-3    2.833810968860769E-4    1.373221378435032E-1    4.918109944644256E-1
 8.149325056000000E9    -1.976373696433760E-2    5.373884355490829E-1   -2.599470953143637E-3    2.574487600918155E-4   -2.637934198511540E-3    2.977932145139382E-4    1.386676622270821E-1    4.913990120683487E-1
 8.149345385500000E9    -1.835980975836186E-2    5.374652827988564E-1   -2.636626756342788E-3    2.631295139758087E-4   -2.641907387769969E-3    3.293301559343833E-4    1.398547580022463E-1    4.911127942652498E-1
 8.149365715000000E9    -1.686599167762922E-2    5.377278962625254E-1   -2.626473727360466E-3    2.788162402969656E-4   -2.643891484602589E-3    3.010721869539091E-4    1.411691515286502E-1    4.905942229056141E-1
 8.149386044500000E9    -1.558096496746473E-2    5.376879180131098E-1   -2.610563721444987E-3    2.942685349798993E-4   -2.653770933144384E-3    3.587951453582693E-4    1.423754200178281E-1    4.902243918329365E-1
 8.149406374000000E9    -1.414403721295171E-2    5.376737781479235E-1   -2.617278916874119E-3    3.070704348585390E-4   -2.625783617568521E-3    3.441418774032060E-4    1.436233038564400E-1    4.896912469619859E-1
