#  HZ   S   RI   R     50.00 
! Rohde & Schwarz Vector Network Analyzer 
! Rohde-Schwarz,ZNB20-2Port,1311601062101988,3.16
! Created: UTC 3/21/2024, 1:06:48 AM
! freq[Hz]                re:S11                  im:S11                  re:S21                  im:S21                  re:S12                  im:S12                  re:S22                  im:S22
 8.147536941000000E9    -1.423601124781737E-1    5.152438009653438E-1   -2.576973188268517E-3   -4.075999168569838E-4   -2.667866207746592E-3   -3.361617462308726E-4    2.449349797222446E-2    5.122032725546540E-1
 8.147557458050000E9    -1.408569448634580E-1    5.156481933928078E-1   -2.616773481127203E-3   -3.648611727161606E-4   -2.646642991046465E-3   -2.913546268934649E-4    2.586974793767688E-2    5.121500396033100E-1
 8.147577975100000E9    -1.395412711145889E-1    5.161125607395144E-1   -2.586966783528790E-3   -3.888277227195990E-4   -2.653654346513427E-3   -3.200325028692102E-4    2.716239403059283E-2    5.119451158446403E-1
 8.147598492150000E9    -1.381677828791340E-1    5.166198864263465E-1   -2.606380735655024E-3   -3.881359858928919E-4   -2.664382126102399E-3   -2.957907468327355E-4    2.841796551300086E-2    5.118308574892495E-1
 8.147619009200000E9    -1.367212048967542E-1    5.169538383950629E-1   -2.626412977413861E-3   -3.608172412002188E-4   -2.632223757525115E-3   -2.660804160401589E-4    2.983216625972353E-2    5.117126866903110E-1
 8.147639526250000E9    -1.353878939524107E-1    5.172462785560018E-1   -2.614497773178437E-3   -3.510359569541059E-4   -2.646405079612591E-3   -3.026416468856626E-4    3.114725431028671E-2    5.116142095846457E-1
 8.147660043300000E9    -1.339621156540831E-1    5.177545892309240E-1   -2.603517905957700E-3   -3.160733922628501E-4   -2.638384420121385E-3   -3.091977562995375E-4    3.251567074806128E-2    5.116121546348745E-1
 8.147680560350000E9    -1.325722233689458E-1    5.180724901961280E-1   -2.604210519551226E-3   -3.136257609227840E-4   -2.664652938497507E-3   -3.015232170556505E-4    3.377498783914030E-2    5.114389044564593E-1
 8.147701077400000E9    -1.311865362891432E-1    5.185120404242707E-1   -2.584939844392155E-3   -3.349724506810092E-4   -2.648148485496023E-3   -2.523532870046304E-4    3.514479114675305E-2    5.115097121677009E-1
 8.147721594450000E9    -1.298556887615167E-1    5.189479719690198E-1   -2.627266396390567E-3   -3.012066262854051E-4   -2.637512968203998E-3   -2.354620993166920E-4    3.656294123349816E-2    5.112797527884881E-1
 8.147742111500000E9    -1.284126975376268E-1    5.192101083093413E-1   -2.611357060996193E-3   -2.849588845636351E-4   -2.651560021288965E-3   -2.769138371407923E-4    3.779930498089016E-2    5.111771615878955E-1
 8.147762628550000E9    -1.269982351826091E-1    5.197898329350940E-1   -2.605995297534070E-3   -2.778077714009457E-4   -2.664884718037633E-3   -2.582589523077338E-4    3.908500564900835E-2    5.111002821820859E-1
 8.147783145600000E9    -1.258076634740062E-1    5.201861704289747E-1   -2.604356587127476E-3   -2.976977104788838E-4   -2.647154184930172E-3   -2.196208401110349E-4    4.037279659492695E-2    5.109628629393242E-1
 8.147803662650000E9    -1.242445081063506E-1    5.205323436770127E-1   -2.602635917186217E-3   -2.811028418878820E-4   -2.644646842333852E-3   -2.467741149525123E-4    4.183103720688999E-2    5.108272340530932E-1
 8.147824179700000E9    -1.229049602915251E-1    5.208680742546725E-1   -2.608582104307613E-3   -2.829780563295567E-4   -2.643469119501557E-3   -2.353649120971486E-4    4.313006660527370E-2    5.105986094663516E-1
 8.147844696750000E9    -1.215249280722774E-1    5.211226584532076E-1   -2.616342129275505E-3   -2.852065175753400E-4   -2.640243191815290E-3   -2.032195494593003E-4    4.447538020382194E-2    5.105194632205396E-1
 8.147865213800000E9    -1.201119280223211E-1    5.214902364422352E-1   -2.602139909351472E-3   -2.539009353964096E-4   -2.666876119929649E-3   -2.219752997040598E-4    4.578506111577437E-2    5.103497531827599E-1
 8.147885730850000E9    -1.187763878253626E-1    5.219208622975794E-1   -2.616354203774374E-3   -2.478180975155572E-4   -2.689501009490463E-3   -2.048720167230275E-4    4.723879970842764E-2    5.102027355546810E-1
 8.147906247900000E9    -1.174032545129398E-1    5.222428321706297E-1   -2.629477746425390E-3   -2.241735355318329E-4   -2.664110799703198E-3   -1.913702788647946E-4    4.852785343910784E-2    5.100280341658041E-1
 8.147926764950000E9    -1.159272290856004E-1    5.226615869796906E-1   -2.643195255266532E-3   -2.324292737359379E-4   -2.650117117362555E-3   -2.198517489731011E-4    4.967853412872128E-2    5.099664515927986E-1
 8.147947282000000E9    -1.146876868925168E-1    5.229087221615230E-1   -2.603431784241935E-3   -2.393434728248033E-4   -2.652277315050751E-3   -2.053979196277154E-4    5.107957820601432E-2    5.098441201844321E-1
 8.147967799050000E9    -1.132260718177392E-1    5.233282723753386E-1   -2.606309450140308E-3   -2.302095621781184E-4   -2.660507577324915E-3   -1.989975252867916E-4    5.237813908046644E-2    5.095875666224661E-1
 8.147988316100000E9    -1.117118281551734E-1    5.236706054791771E-1   -2.616065236588588E-3   -2.164435193249181E-4   -2.631156460625583E-3   -1.282319868577211E-4    5.374591887340505E-2    5.093803863991435E-1
 8.148008833150000E9    -1.103240301735945E-1    5.238997180737924E-1   -2.633185149639665E-3   -2.091625712737155E-4   -2.656950549513884E-3   -1.770097125033232E-4    5.512321384206170E-2    5.093697313732120E-1
 8.148029350200000E9    -1.089445786418926E-1    5.242120115872536E-1   -2.611996566483971E-3   -1.949409720535769E-4   -2.649285151454995E-3   -1.410433267901580E-4    5.645919595800062E-2    5.090261139417722E-1
 8.148049867250000E9    -1.077060618329359E-1    5.246289839257495E-1   -2.631453924587832E-3   -2.067641265464158E-4   -2.659729869878620E-3   -1.191198908157123E-4    5.800057495313315E-2    5.090127054061823E-1
 8.148070384300000E9    -1.061925612596083E-1    5.248522629587841E-1   -2.612482783407380E-3   -1.864747361900785E-4   -2.650923370773394E-3   -1.310235314432852E-4    5.920823366526632E-2    5.088545259346802E-1
 8.148090901350000E9    -1.049260051165826E-1    5.252852411646023E-1   -2.619605894070918E-3   -1.791430272982946E-4   -2.683143375783370E-3   -1.489582150994788E-4    6.043291003616684E-2    5.084491884048004E-1
 8.148111418400000E9    -1.034243985555031E-1    5.255530896170347E-1   -2.619670188084120E-3   -1.693967818818108E-4   -2.684574270884981E-3   -1.254991619408121E-4    6.178281206246746E-2    5.084075029333242E-1
 8.148131935450000E9    -1.019961565284167E-1    5.258792600891330E-1   -2.589778639193824E-3   -1.422312788646429E-4   -2.671859371006358E-3   -1.464641517944678E-4    6.310138874212595E-2    5.082116008562265E-1
 8.148152452500000E9    -1.006478995999162E-1    5.261847644344568E-1   -2.611889063694192E-3   -1.588947641764095E-4   -2.663232515092351E-3   -9.963570546249315E-5    6.442649599850434E-2    5.081350686292193E-1
 8.148172969550000E9    -9.925824800177435E-2    5.263634489370875E-1   -2.602217392888374E-3   -1.485124271536730E-4   -2.674981934183902E-3   -8.977989459301351E-5    6.572554525853525E-2    5.077123469379917E-1
 8.148193486600000E9    -9.784651065987199E-2    5.267577990116347E-1   -2.628932239571982E-3   -1.311540437349773E-4   -2.672528463071788E-3   -1.025277456527804E-4    6.701001059097809E-2    5.077164130770681E-1
 8.148214003650000E9    -9.645876790571184E-2    5.269835861459192E-1   -2.621227711603410E-3   -1.311062252969128E-4   -2.655409514667652E-3   -7.085878246537046E-5    6.836565451732728E-2    5.073732727423818E-1
 8.148234520700000E9    -9.507897816982493E-2    5.272918109173500E-1   -2.629158966956765E-3   -1.363035271862595E-4   -2.641952786994293E-3   -7.231180975502419E-5    6.963494220491249E-2    5.071182893362471E-1
 8.148255037750000E9    -9.364471877018274E-2    5.277872247693491E-1   -2.614949314309304E-3   -1.339603591651716E-4   -2.647615830224471E-3   -5.171958264421857E-5    7.105346775823215E-2    5.069563543787614E-1
 8.148275554800000E9    -9.229080245735875E-2    5.279669105371070E-1   -2.597527683884205E-3   -9.320583228958133E-5   -2.663417658238467E-3   -6.687458042088449E-5    7.230408889273369E-2    5.067605076549613E-1
 8.148296071850000E9    -9.081919036802021E-2    5.282092446621200E-1   -2.596086744447025E-3   -9.914580955933301E-5   -2.658405496828034E-3   -2.847366290020770E-5    7.369614899464011E-2    5.066396965983692E-1
 8.148316588900000E9    -8.946403927901644E-2    5.285960492566921E-1   -2.593462583858709E-3   -8.878852994018205E-5   -2.676806496649424E-3   -3.111530250758359E-5    7.493318030986812E-2    5.062130798816329E-1
 8.148337105950000E9    -8.797071721751329E-2    5.287537877478338E-1   -2.609725532131446E-3   -1.159159563964238E-4   -2.655193091888391E-3   -1.065695564653906E-5    7.625264364899288E-2    5.061032327543444E-1
 8.148357623000000E9    -8.675944890259996E-2    5.290354350576887E-1   -2.631839720462937E-3   -7.887085101659536E-5   -2.646835770898580E-3    3.162875077573050E-6    7.757383083260398E-2    5.059318577220157E-1
 8.148378140050000E9    -8.513277242246282E-2    5.293682765439582E-1   -2.614289245720493E-3   -8.840432051797779E-5   -2.651184692163878E-3   -1.985832968939119E-5    7.899381625921539E-2    5.055612934900172E-1
 8.148398657100000E9    -8.377560065534689E-2    5.296139374548096E-1   -2.622588206361714E-3   -5.569162325294085E-5   -2.645888115216251E-3   -4.047441580247750E-5    8.019190847505327E-2    5.055462887020178E-1
 8.148419174150000E9    -8.250686345520683E-2    5.298223607523425E-1   -2.632113418842005E-3   -4.700109379718145E-5   -2.640967019506017E-3    9.444345572294284E-6    8.147072169860299E-2    5.051798794142439E-1
 8.148439691200000E9    -8.112759845531721E-2    5.299023076216069E-1   -2.629602580587435E-3   -7.259162728490272E-5   -2.682764636307003E-3   -6.829895580611258E-6    8.283832536847315E-2    5.051277200002680E-1
 8.148460208250000E9    -7.950457310456359E-2    5.302189275689688E-1   -2.620471861897134E-3   -5.122298305035860E-5   -2.666257583692720E-3   -5.725701266989032E-6    8.414031403775146E-2    5.047304538212620E-1
 8.148480725300000E9    -7.817832906889582E-2    5.305801467152023E-1   -2.615579933974347E-3   -1.544914650927815E-5   -2.660553630439649E-3   -8.794827879460953E-6    8.543931356843366E-2    5.044624392352640E-1
 8.148501242350000E9    -7.674538641613671E-2    5.308734673112822E-1   -2.615194780825071E-3   -2.016152021393279E-5   -2.665354756741523E-3    2.878282586074622E-5    8.681106816729130E-2    5.042618109496659E-1
 8.148521759400000E9    -7.543021829337952E-2    5.309853417208328E-1   -2.626017653753342E-3   -1.392740613287292E-5   -2.641175598499223E-3    3.895625585757972E-5    8.804407336999114E-2    5.039018300813741E-1
 8.148542276450000E9    -7.393397693037725E-2    5.313172920173355E-1   -2.614427637887163E-3   -6.748170107870902E-6   -2.646676806398910E-3    3.085025785170235E-5    8.929140393435613E-2    5.038846802872706E-1
 8.148562793500000E9    -7.254177572561456E-2    5.315428053192151E-1   -2.619748370091100E-3    5.779740330463737E-6   -2.644837842926971E-3    4.042239400135541E-5    9.081651868485077E-2    5.034275958675792E-1
 8.148583310550000E9    -7.117976301554937E-2    5.317483075471230E-1   -2.618647053662989E-3   -9.258044799361288E-6   -2.676474434946335E-3    6.538583194366368E-5    9.205153436216124E-2    5.030665773073484E-1
 8.148603827600000E9    -6.969195990745713E-2    5.320253532821931E-1   -2.608535458115035E-3    2.496119183379390E-5   -2.666759643359843E-3    8.396918850192003E-5    9.332573804718049E-2    5.030307118614676E-1
 8.148624344650000E9    -6.816084627722238E-2    5.320697736568988E-1   -2.657420558015720E-3    5.482834355923854E-6   -2.644616845050591E-3    6.069500471199548E-5    9.473630529742015E-2    5.026282938976218E-1
 8.148644861700000E9    -6.682747139789946E-2    5.323605592440932E-1   -2.612638280358474E-3   -2.207591219038320E-5   -2.670738975573616E-3    5.734093538480176E-5    9.596390221955321E-2    5.022590365166197E-1
 8.148665378750000E9    -6.553381146089958E-2    5.326296197649215E-1   -2.632112641016321E-3    1.940115937814728E-5   -2.685545939022600E-3    9.174892651677768E-5    9.727863867312299E-2    5.021300991155632E-1
 8.148685895800000E9    -6.405530697160380E-2    5.328435896074267E-1   -2.618691056039566E-3    3.243452256418519E-5   -2.671419207566967E-3    8.613105647925773E-5    9.857267476569041E-2    5.018683709241148E-1
 8.148706412850000E9    -6.262065714383042E-2    5.329766486899764E-1   -2.661431777105982E-3    3.802434850475762E-5   -2.654346753147524E-3    6.762386971042240E-5    9.978198347650860E-2    5.016616593985178E-1
 8.148726929900000E9    -6.113106572629700E-2    5.332618065303305E-1   -2.635649327170276E-3    5.124124619303292E-5   -2.618767112575680E-3    1.014411509374795E-4    1.010791742359048E-1    5.012868391098889E-1
 8.148747446950000E9    -5.982961731984903E-2    5.334858347167073E-1   -2.629644711096225E-3    3.876579141942029E-5   -2.643742291506475E-3    1.139185756540354E-4    1.023335064089543E-1    5.010509039229596E-1
 8.148767964000000E9    -5.846320887972446E-2    5.335081295808134E-1   -2.621423479289356E-3    4.892025378406488E-5   -2.633832479923133E-3    1.108679286396425E-4    1.036336730454330E-1    5.007715780153423E-1
 8.148788481050000E9    -5.707678115648903E-2    5.338125211432845E-1   -2.620894312837542E-3    5.002559496206932E-5   -2.683713947223566E-3    9.914787153449886E-5    1.051174067626443E-1    5.003530919337388E-1
 8.148808998100000E9    -5.559735363269684E-2    5.340963789953378E-1   -2.632786390747147E-3    7.719415044890727E-5   -2.612848420387425E-3    1.143643241844958E-4    1.064233322634212E-1    4.999655769682529E-1
 8.148829515150000E9    -5.413802833752758E-2    5.342163696579022E-1   -2.640795033347956E-3    9.308246705470944E-5   -2.650890684014009E-3    1.346608565065911E-4    1.076495206231380E-1    4.997973772832067E-1
 8.148850032200000E9    -5.275612905597064E-2    5.344269126680670E-1   -2.625060461651004E-3    1.160394805221864E-4   -2.663410292347363E-3    1.364961555095605E-4    1.090536362502318E-1    4.994373335267029E-1
 8.148870549250000E9    -5.138882699141732E-2    5.345550111729289E-1   -2.618323326385584E-3    9.743457628323996E-5   -2.637278975206029E-3    1.402472654811662E-4    1.102131832318215E-1    4.992390042312067E-1
 8.148891066300000E9    -4.984919941035310E-2    5.347416103510600E-1   -2.632437775863387E-3    1.068382922758460E-4   -2.656502000962371E-3    1.754166156118453E-4    1.115710451214114E-1    4.988766892208094E-1
 8.148911583350000E9    -4.852640213374110E-2    5.349714450283392E-1   -2.629717290329097E-3    1.246508754290994E-4   -2.669370237636761E-3    1.708475188007974E-4    1.127904891298434E-1    4.986915432108914E-1
 8.148932100400000E9    -4.704183127621297E-2    5.352012555758653E-1   -2.612356311879532E-3    1.161735699271645E-4   -2.658888802660533E-3    1.392492305908900E-4    1.140412483960428E-1    4.981605120410184E-1
 8.148952617450000E9    -4.561821556526106E-2    5.351907027962260E-1   -2.617945611827270E-3    1.164323994608633E-4   -2.633219877887949E-3    1.968577224852499E-4    1.154156032492849E-1    4.980843954295845E-1
 8.148973134500000E9    -4.430418042969598E-2    5.354170333982383E-1   -2.605747529436032E-3    1.478611369749384E-4   -2.627971533265775E-3    1.890000976882102E-4    1.166966316753860E-1    4.975835991349989E-1
 8.148993651550000E9    -4.284595330575002E-2    5.354470340837296E-1   -2.620472632356909E-3    1.478429170315936E-4   -2.681545808403772E-3    1.716272421204331E-4    1.178629706605060E-1    4.973328193853649E-1
 8.149014168600000E9    -4.138987539878274E-2    5.355956685916780E-1   -2.621381209378119E-3    1.220407841624015E-4   -2.645473107849876E-3    2.118562418477837E-4    1.192342717473521E-1    4.968758016036939E-1
 8.149034685650000E9    -4.002598160234212E-2    5.357687518074501E-1   -2.612319965225487E-3    1.735363674155691E-4   -2.649358503509234E-3    2.177487845876778E-4    1.205048556148688E-1    4.965455760240577E-1
 8.149055202700000E9    -3.863887053959537E-2    5.359587048451542E-1   -2.644498119332366E-3    1.726543352157793E-4   -2.651448333066223E-3    2.180821372748653E-4    1.218628206349194E-1    4.962030156320169E-1
 8.149075719750000E9    -3.714090957483231E-2    5.359332908380167E-1   -2.604776553676795E-3    1.817895171187268E-4   -2.642229036699838E-3    2.429239563652079E-4    1.231954224359841E-1    4.958902405643030E-1
 8.149096236800000E9    -3.573370081712512E-2    5.362297910097579E-1   -2.598517640296707E-3    1.816769426425152E-4   -2.669237760467458E-3    2.313387253350784E-4    1.243601177349030E-1    4.955254935485331E-1
 8.149116753850000E9    -3.433559025437861E-2    5.363072975572849E-1   -2.629404371873248E-3    1.862556042461445E-4   -2.629592100383161E-3    2.380600493661609E-4    1.256578016514792E-1    4.952411239332785E-1
 8.149137270900000E9    -3.277484317408449E-2    5.365311995260589E-1   -2.620161851692655E-3    1.593903575274058E-4   -2.612748128544997E-3    2.407661700601876E-4    1.269760359063392E-1    4.946869405247062E-1
 8.149157787950000E9    -3.142847818099135E-2    5.365168712171506E-1   -2.616083006560839E-3    1.906719356116231E-4   -2.631474152695509E-3    2.436206783877942E-4    1.282646373028246E-1    4.945070606007911E-1
 8.149178305000000E9    -2.997838764338294E-2    5.367682412837363E-1   -2.624277523534247E-3    2.146167317898327E-4   -2.663775483298186E-3    2.548302662964811E-4    1.295010975723866E-1    4.941592495533750E-1
 8.149198822050000E9    -2.851432800806071E-2    5.367852773007591E-1   -2.620691021899118E-3    2.127696938859091E-4   -2.704391470228992E-3    2.650964167467857E-4    1.307531609474395E-1    4.937514351960736E-1
 8.149219339100000E9    -2.701742108867973E-2    5.369162833542835E-1   -2.584702699290591E-3    2.525504055145816E-4   -2.635669805721178E-3    2.640069665154319E-4    1.319733706127225E-1    4.933285168654462E-1
 8.149239856150000E9    -2.571193890889176E-2    5.369796002654680E-1   -2.616897030221559E-3    2.166711141809782E-4   -2.656772270996826E-3    2.871033951236050E-4    1.332185934341776E-1    4.929490570968678E-1
 8.149260373200000E9    -2.430861567718350E-2    5.371785244422396E-1   -2.633986560892027E-3    2.278167371894909E-4   -2.649743640655466E-3    2.825181929894621E-4    1.345372428054486E-1    4.926832729662597E-1
 8.149280890250000E9    -2.295216041992263E-2    5.372490052229258E-1   -2.632870109881971E-3    2.588082579658874E-4   -2.665874437334436E-3    2.783319138479365E-4    1.359363482437190E-1    4.924022634951591E-1
 8.149301407300000E9    -2.148136874675117E-2    5.371835200974896E-1   -2.641739452749746E-3    2.569855380276674E-4   -2.640613682435317E-3    3.074840563824476E-4    1.371099168258914E-1    4.918129223317328E-1
 8.149321924350000E9    -2.016256640979004E-2    5.373681052454724E-1   -2.608064511893534E-3    2.573812384660541E-4   -2.629665238290586E-3    2.932402841239773E-4    1.384271660009531E-1    4.915511988683994E-1
 8.149342441400000E9    -1.865089984525770E-2    5.374873934831315E-1   -2.626370878233318E-3    2.481320461020953E-4   -2.606834539726659E-3    3.133479773332806E-4    1.396298077133753E-1    4.912627362008315E-1
 8.149362958450000E9    -1.709066065102691E-2    5.375503999180039E-1   -2.600604537618230E-3    2.722260735216491E-4   -2.619526847089282E-3    3.181661807579916E-4    1.409812553228423E-1    4.907045289574639E-1
 8.149383475500000E9    -1.572757648437774E-2    5.376767917310907E-1   -2.605632072451743E-3    2.735790492298359E-4   -2.642265853987034E-3    3.444595065734341E-4    1.421185667644369E-1    4.902959281856044E-1
