#  HZ   S   RI   R     50.00 
! Rohde & Schwarz Vector Network Analyzer 
! Rohde-Schwarz,ZNB20-2Port,1311601062101988,3.16
! Created: UTC 3/21/2024, 1:07:10 AM
! freq[Hz]                re:S11                  im:S11                  re:S21                  im:S21                  re:S12                  im:S12                  re:S22                  im:S22
 8.147727395000000E9    -1.297467116054984E-1    5.188930688673106E-1   -2.615018354282640E-3   -3.191803911984575E-4   -2.651562073329471E-3   -2.198912710210877E-4    3.668195482583012E-2    5.112242738456456E-1
 8.147747123500000E9    -1.284151723362078E-1    5.193519184187934E-1   -2.628985676953372E-3   -2.840997011691751E-4   -2.644724247947766E-3   -2.282356192432036E-4    3.796175805465000E-2    5.110163342988367E-1
 8.147766852000000E9    -1.270483905281030E-1    5.196866006282704E-1   -2.580617552989710E-3   -2.942184738406498E-4   -2.648117021702449E-3   -2.763047204317320E-4    3.915954045905727E-2    5.109197563214751E-1
 8.147786580500000E9    -1.256521966209373E-1    5.200519897001977E-1   -2.599218907652754E-3   -2.999251287444540E-4   -2.630871133373097E-3   -2.649489292982718E-4    4.053023994788565E-2    5.109672840369993E-1
 8.147806309000000E9    -1.244049807602516E-1    5.203213047177538E-1   -2.619847810542694E-3   -2.703750417786581E-4   -2.642631603960879E-3   -2.076839092457689E-4    4.182917665031217E-2    5.106671012896353E-1
 8.147826037500000E9    -1.230967763236473E-1    5.207692937713810E-1   -2.602933524056129E-3   -2.866942794915986E-4   -2.653324332860930E-3   -2.283583474703921E-4    4.313790633591361E-2    5.105314607432156E-1
 8.147845766000000E9    -1.217471111618408E-1    5.212167080029294E-1   -2.610886028325431E-3   -2.831558960738844E-4   -2.653640367330162E-3   -2.217510652404943E-4    4.438652868416949E-2    5.105254177796297E-1
 8.147865494500000E9    -1.204884337811040E-1    5.214769750412753E-1   -2.608951090215241E-3   -2.501253080122670E-4   -2.652488343799728E-3   -2.462009785663604E-4    4.571564563319660E-2    5.104533967517092E-1
 8.147885223000000E9    -1.189492404713165E-1    5.218415518591263E-1   -2.596147371229013E-3   -2.388324364445267E-4   -2.666479979422394E-3   -2.046847037730314E-4    4.693175752622359E-2    5.103734073144598E-1
 8.147904951500000E9    -1.176966589603736E-1    5.221263370305177E-1   -2.580760350857850E-3   -2.193924660965450E-4   -2.646494519000279E-3   -1.861897418243340E-4    4.812260169264173E-2    5.100846056234156E-1
 8.147924680000000E9    -1.163344429037033E-1    5.224560136116116E-1   -2.628126336565763E-3   -2.401404630362813E-4   -2.642448619121800E-3   -2.099904805236982E-4    4.951433776199200E-2    5.100794457684930E-1
 8.147944408500000E9    -1.150352129296662E-1    5.228416619707394E-1   -2.620351633350404E-3   -2.354846179709202E-4   -2.670242848656790E-3   -1.802467095143740E-4    5.076579882151792E-2    5.097707088270763E-1
 8.147964137000000E9    -1.136874407033857E-1    5.231455382581193E-1   -2.622917480622964E-3   -2.148042863867901E-4   -2.670501614965985E-3   -1.954120167495439E-4    5.197512088012327E-2    5.096422155139860E-1
 8.147983865500000E9    -1.123513838623243E-1    5.234942759805942E-1   -2.599855032008466E-3   -2.259662836852917E-4   -2.682499393699149E-3   -1.329191162992209E-4    5.321176827749480E-2    5.094658829583106E-1
 8.148003594000000E9    -1.110198574835322E-1    5.236820413363057E-1   -2.580558510928356E-3   -2.268237377791191E-4   -2.619083005572440E-3   -1.563211846497666E-4    5.456031313035115E-2    5.094329355947723E-1
 8.148023322500000E9    -1.096637870013552E-1    5.241163755853311E-1   -2.603848988642017E-3   -2.274393180892832E-4   -2.670627747846223E-3   -1.813292313602903E-4    5.572883150626650E-2    5.092195845285447E-1
 8.148043051000000E9    -1.082813375552240E-1    5.244549786061211E-1   -2.626976497448515E-3   -2.160683662288575E-4   -2.663265969984873E-3   -1.425440305791684E-4    5.729005661534962E-2    5.089864670792514E-1
 8.148062779500000E9    -1.070024043107163E-1    5.247005729636433E-1   -2.602418794607119E-3   -1.898441907587532E-4   -2.660147748797865E-3   -1.542150580564562E-4    5.838431467926726E-2    5.088164855205001E-1
 8.148082508000000E9    -1.057055496130409E-1    5.250363780710970E-1   -2.637193808896409E-3   -1.984683753488361E-4   -2.670890282091590E-3   -1.004958522886020E-4    5.968071311539112E-2    5.086369548749491E-1
 8.148102236500000E9    -1.042359446354283E-1    5.254013338088305E-1   -2.598885881080406E-3   -1.869715511719868E-4   -2.697014855031745E-3   -1.297495502651327E-4    6.086992793163262E-2    5.084601822628663E-1
 8.148121965000000E9    -1.028992188000521E-1    5.256646864274950E-1   -2.626415493955915E-3   -1.657771924270625E-4   -2.655014046552117E-3   -1.393904398708789E-4    6.216141847608849E-2    5.082714378253170E-1
 8.148141693500000E9    -1.016704034239047E-1    5.257965133606762E-1   -2.596521013716888E-3   -1.769011692549538E-4   -2.674888664782988E-3   -1.127049120649193E-4    6.354801808318222E-2    5.081769323630979E-1
 8.148161422000000E9    -1.001901732235685E-1    5.262861180616495E-1   -2.624276756579294E-3   -1.395883601974486E-4   -2.664149028006950E-3   -7.346406999707569E-5    6.464636382067226E-2    5.078282367716931E-1
 8.148181150500000E9    -9.899270647006300E-2    5.265818963120266E-1   -2.653604735914222E-3   -1.304583535502070E-4   -2.661141245997797E-3   -8.837319436889496E-5    6.598993977447919E-2    5.075864321258060E-1
 8.148200879000000E9    -9.760207010961468E-2    5.268316653021106E-1   -2.616931744123745E-3   -1.606017531181335E-4   -2.657696402186939E-3   -8.417711778259148E-5    6.730617750573901E-2    5.075424048592170E-1
 8.148220607500000E9    -9.623290781637042E-2    5.271134706368532E-1   -2.594357727825294E-3   -1.548664398908575E-4   -2.648126059735066E-3   -6.472441431579928E-5    6.866428918443318E-2    5.073590334599979E-1
 8.148240336000000E9    -9.476290432463751E-2    5.273621437984183E-1   -2.625692531186565E-3   -1.310202239792551E-4   -2.656050432691042E-3   -9.857324034288018E-5    6.988944231422023E-2    5.070340212109048E-1
 8.148260064500000E9    -9.354638581209911E-2    5.275961186232068E-1   -2.624129660743117E-3   -1.264459012229703E-4   -2.647609648946062E-3   -5.343522247780244E-5    7.107935860592318E-2    5.070205814095571E-1
 8.148279793000000E9    -9.224855183669219E-2    5.278310070833617E-1   -2.620350815762663E-3   -1.249714268549854E-4   -2.676162780693253E-3   -5.693978575052350E-5    7.237877845752548E-2    5.066825479691314E-1
 8.148299521500000E9    -9.090059474140770E-2    5.281930519491870E-1   -2.633104850983375E-3   -1.390932987261223E-4   -2.643676800424187E-3   -5.420508270038270E-5    7.358004932891993E-2    5.065695458864314E-1
 8.148319250000000E9    -8.947224442557200E-2    5.284036217172314E-1   -2.638319630722765E-3   -7.714003525701702E-5   -2.655069536654767E-3   -4.944629968270853E-5    7.494063331463421E-2    5.063641017409969E-1
 8.148338978500000E9    -8.803801131743345E-2    5.287238130691215E-1   -2.619291610364157E-3   -1.083777187781994E-4   -2.654224951287562E-3   -3.659929453069255E-5    7.614407673355722E-2    5.061653271056533E-1
 8.148358707000000E9    -8.679984089183752E-2    5.290222735056485E-1   -2.637594302641145E-3   -6.833065946016274E-5   -2.641041274672727E-3   -4.389324589368770E-5    7.752275537952916E-2    5.059145842940009E-1
 8.148378435500000E9    -8.548186261667397E-2    5.292198309331448E-1   -2.601656024829171E-3   -9.976169116020067E-5   -2.642654621954703E-3   -3.805550762404525E-5    7.871805284068728E-2    5.055300725574619E-1
 8.148398164000000E9    -8.402620117298004E-2    5.294441097528798E-1   -2.616970787309639E-3   -7.338676813696147E-5   -2.660501728519879E-3   -1.221286716835801E-5    7.996704442903420E-2    5.054554200281153E-1
 8.148417892500000E9    -8.260798751926729E-2    5.298113660125013E-1   -2.620651036557203E-3   -8.837204172973852E-5   -2.687361886685940E-3   -2.593382813812312E-5    8.133338419696466E-2    5.051233258289646E-1
 8.148437621000000E9    -8.136850336090630E-2    5.299359821688354E-1   -2.621905288557745E-3   -5.093303125069131E-5   -2.677322450877799E-3   -4.514989154760951E-8    8.255386185457690E-2    5.050789300320738E-1
 8.148457349500000E9    -8.002041622404338E-2    5.302335151752541E-1   -2.632001828275768E-3   -3.186916306956847E-5   -2.672741210857245E-3   -1.974598964308625E-5    8.368067848714726E-2    5.047497733305143E-1
 8.148477078000000E9    -7.870744189847657E-2    5.304608844227580E-1   -2.633559615212752E-3   -2.452648160067477E-5   -2.644640410998668E-3    1.462734938331580E-5    8.508986876853120E-2    5.045105515883181E-1
 8.148496806500000E9    -7.732821203136779E-2    5.306960297901137E-1   -2.634145960691684E-3   -1.480932336439313E-5   -2.663175048304170E-3    1.637239985149907E-5    8.617160394033720E-2    5.043497881892051E-1
 8.148516535000000E9    -7.592062146995808E-2    5.309455920416575E-1   -2.618618544629847E-3   -3.816501490945559E-5   -2.662354851107955E-3   -8.095410363170961E-6    8.758475115269596E-2    5.039052652937612E-1
 8.148536263500000E9    -7.457177213262370E-2    5.312250299628785E-1   -2.613054397592129E-3   -2.345323456191214E-5   -2.670892465193466E-3    5.587992088110763E-5    8.876296882385794E-2    5.038794533958044E-1
 8.148555992000000E9    -7.331688314180020E-2    5.313557733402098E-1   -2.599299905199327E-3   -1.561440791913270E-6   -2.648784208919988E-3    1.518920919896070E-5    8.995684914230315E-2    5.035427230500827E-1
 8.148575720500000E9    -7.187368619164196E-2    5.315727449831573E-1   -2.633762035091942E-3   -2.546050170829854E-5   -2.643424392612642E-3    2.008620778404109E-5    9.142175466684982E-2    5.031946059915977E-1
 8.148595449000000E9    -7.049916159110543E-2    5.316610161687714E-1   -2.605542507393561E-3    3.449707323848647E-6   -2.651039888727992E-3    5.157725593691614E-5    9.256205271535675E-2    5.027863658647465E-1
 8.148615177500000E9    -6.919360298750427E-2    5.319484725923408E-1   -2.643053628945336E-3    4.067459130128595E-6   -2.656144327683824E-3    9.219939171128476E-5    9.393782061250353E-2    5.027738306674880E-1
 8.148634906000000E9    -6.785098310270651E-2    5.322518134862250E-1   -2.592395767468446E-3   -6.479556165375166E-7   -2.665121231337048E-3    5.745953287317666E-5    9.499366409019590E-2    5.024819559300084E-1
 8.148654634500000E9    -6.638092085714269E-2    5.324752294663210E-1   -2.615244683336873E-3    3.216972625999115E-5   -2.679291660422358E-3    6.596742559496602E-5    9.638872806728410E-2    5.022572342352732E-1
 8.148674363000000E9    -6.520387581200300E-2    5.327984362307017E-1   -2.618263421285764E-3    2.875614801634429E-5   -2.658146305758311E-3    9.011151181179698E-5    9.780540085687808E-2    5.019649629957668E-1
 8.148694091500000E9    -6.370593042061144E-2    5.328403474017166E-1   -2.624014506445423E-3    2.854785641120714E-5   -2.642880292814333E-3    1.033483508129194E-4    9.879673080969964E-2    5.019769851422381E-1
 8.148713820000000E9    -6.216885455519619E-2    5.329966089413685E-1   -2.617173366546109E-3    2.214873575574507E-5   -2.634385905133731E-3    7.784796711272434E-5    1.001695255239670E-1    5.015814787991921E-1
 8.148733548500000E9    -6.095745985592932E-2    5.332743408174803E-1   -2.627742330442041E-3    7.001589525743447E-5   -2.667430187219831E-3    1.014802461469663E-4    1.013277637389810E-1    5.012022573058522E-1
 8.148753277000000E9    -5.976236514478738E-2    5.335058757786224E-1   -2.632903169337529E-3    6.325169263921746E-5   -2.643058399674862E-3    8.961083092593088E-5    1.025997976080710E-1    5.009683044101793E-1
 8.148773005500000E9    -5.826931286195480E-2    5.336057226577812E-1   -2.613940553658917E-3    5.503288360840419E-5   -2.703809746591772E-3    1.200511458511222E-4    1.038895224839045E-1    5.007579919919650E-1
 8.148792734000000E9    -5.684204893595386E-2    5.338457771938842E-1   -2.645052803521280E-3    7.277696128620296E-5   -2.659825398523216E-3    7.950224057210896E-5    1.050160416121588E-1    5.002769929235228E-1
 8.148812462500000E9    -5.552192605448891E-2    5.340465197249928E-1   -2.627469664803608E-3    9.645513118108293E-5   -2.675345548614882E-3    1.376011348798268E-4    1.063196779944185E-1    5.001860282299030E-1
 8.148832191000000E9    -5.417130385088904E-2    5.341848319958920E-1   -2.613006953258830E-3    9.352052051054641E-5   -2.653090325261561E-3    1.292991471060509E-4    1.075949750031235E-1    4.997221322323234E-1
 8.148851919500000E9    -5.290562294244248E-2    5.342360081601696E-1   -2.620231121143288E-3    1.002127388381315E-4   -2.627397385228563E-3    1.455625124864332E-4    1.088686134416581E-1    4.992891341487929E-1
 8.148871648000000E9    -5.145827156136747E-2    5.344584699670684E-1   -2.595484245732330E-3    1.093706034702282E-4   -2.647286027102150E-3    1.760302525824234E-4    1.101349816480000E-1    4.991741559120034E-1
 8.148891376500000E9    -4.996172915769916E-2    5.347711671418395E-1   -2.621699135846076E-3    1.049216176061624E-4   -2.648850694798465E-3    1.547463076320063E-4    1.113373316380787E-1    4.989182722263199E-1
 8.148911105000000E9    -4.877148720808514E-2    5.348659370340455E-1   -2.653312757087911E-3    1.118692120605655E-4   -2.651606492440246E-3    1.513781999743162E-4    1.125530857876324E-1    4.986168470023174E-1
 8.148930833500000E9    -4.726491381693709E-2    5.349426304315525E-1   -2.606191152741110E-3    1.196902226111860E-4   -2.637155083702783E-3    1.773040408099390E-4    1.137292703521071E-1    4.981840262149697E-1
 8.148950562000000E9    -4.602596555795675E-2    5.352550449025769E-1   -2.626284156442526E-3    1.068170597724716E-4   -2.662242072043277E-3    1.761987402960947E-4    1.150694491543529E-1    4.979460403241008E-1
 8.148970290500000E9    -4.462361280204497E-2    5.353207218133744E-1   -2.626097259184761E-3    1.358559751492634E-4   -2.646070563906986E-3    1.714993737404656E-4    1.162138887131463E-1    4.974804030705212E-1
 8.148990019000000E9    -4.320197649716234E-2    5.353878084622447E-1   -2.649028732008296E-3    1.178453394521369E-4   -2.633611319994392E-3    1.977765950357585E-4    1.176316072888563E-1    4.971170607814104E-1
 8.149009747500000E9    -4.196583675111357E-2    5.354947646024135E-1   -2.620918272898522E-3    1.397359421985738E-4   -2.641820636977364E-3    2.068170747186164E-4    1.187084733235713E-1    4.969313163940963E-1
 8.149029476000000E9    -4.056847794597420E-2    5.356788225441041E-1   -2.600381345932521E-3    1.543232866922998E-4   -2.657575167778905E-3    2.122988290318737E-4    1.199729930630433E-1    4.967008349627436E-1
 8.149049204500000E9    -3.923245927092663E-2    5.358929536478529E-1   -2.619881848477684E-3    1.572700503638668E-4   -2.654459701728032E-3    2.080483577921064E-4    1.211069408557535E-1    4.963093275181046E-1
 8.149068933000000E9    -3.764775717215177E-2    5.358782474673954E-1   -2.619495680013817E-3    1.863905706388857E-4   -2.680126299117505E-3    2.346460403984376E-4    1.224730114867261E-1    4.958688697824423E-1
 8.149088661500000E9    -3.643421000870348E-2    5.360670983677607E-1   -2.620432868796194E-3    1.791481991920141E-4   -2.668702454954599E-3    1.965391822245533E-4    1.236508659932274E-1    4.956516534439735E-1
 8.149108390000000E9    -3.507242432790810E-2    5.361939508058371E-1   -2.648043787947094E-3    2.022088336660978E-4   -2.662321622126567E-3    2.330489156149011E-4    1.248579082302937E-1    4.952249300827768E-1
 8.149128118500000E9    -3.374129804329772E-2    5.364048643722577E-1   -2.622054930350174E-3    1.792971235226999E-4   -2.653342000764696E-3    2.653521684020495E-4    1.261202860044786E-1    4.951037464284796E-1
 8.149147847000000E9    -3.243034780475721E-2    5.364172901315474E-1   -2.598250340778131E-3    1.856621311526624E-4   -2.661041940306065E-3    2.393712027818794E-4    1.274362578558576E-1    4.945057159001223E-1
 8.149167575500000E9    -3.086709955215734E-2    5.365595124778560E-1   -2.622893411353207E-3    1.902965169101044E-4   -2.622632161935623E-3    2.367856419574825E-4    1.286707390036906E-1    4.942812823445860E-1
 8.149187304000000E9    -2.957802852869494E-2    5.366973405997926E-1   -2.605324247382029E-3    2.013710889009834E-4   -2.639394434875095E-3    2.528481042396991E-4    1.299218189719381E-1    4.939505790872842E-1
 8.149207032500000E9    -2.824814598951414E-2    5.368248996197428E-1   -2.604331654683213E-3    2.352392328537580E-4   -2.648457071097621E-3    2.735970080244662E-4    1.310004629076935E-1    4.935318676413033E-1
 8.149226761000000E9    -2.663615531323873E-2    5.368947610838528E-1   -2.610921681610476E-3    2.358034753658807E-4   -2.648364188917241E-3    2.623797939932913E-4    1.321003801356013E-1    4.932884749639221E-1
 8.149246489500000E9    -2.540590595483367E-2    5.370265289948649E-1   -2.623596180024976E-3    2.481731309233696E-4   -2.646112339258568E-3    2.807657301011772E-4    1.335216240556198E-1    4.929011001902429E-1
 8.149266218000000E9    -2.410366021670833E-2    5.370959508222556E-1   -2.625203476100036E-3    2.494812098879749E-4   -2.670126426133179E-3    2.734324439025609E-4    1.347594247129642E-1    4.926450042441606E-1
 8.149285946500000E9    -2.283581439316937E-2    5.371732555312749E-1   -2.602868937011855E-3    2.407683268758589E-4   -2.633676192462890E-3    3.027019330422193E-4    1.360524213457544E-1    4.921785576932460E-1
 8.149305675000000E9    -2.136664337964503E-2    5.373601528381252E-1   -2.624571042505422E-3    2.640164398341374E-4   -2.618724711961760E-3    2.735623143530949E-4    1.372003057290894E-1    4.918523059741903E-1
 8.149325403500000E9    -2.003168161140412E-2    5.373894465325930E-1   -2.613018021895601E-3    2.562806880856301E-4   -2.647717680321508E-3    3.256020224762501E-4    1.384478366976718E-1    4.915902115789935E-1
 8.149345132000000E9    -1.867452162823420E-2    5.375765430049376E-1   -2.615457867085751E-3    2.636699388603126E-4   -2.639744651985456E-3    2.800315772503425E-4    1.396843352520125E-1    4.910269227339325E-1
 8.149364860500000E9    -1.717051036997581E-2    5.376232637888788E-1   -2.636326709324370E-3    2.919936169330179E-4   -2.652181921666645E-3    3.324663063436349E-4    1.408993766396925E-1    4.907249286089612E-1
 8.149384589000000E9    -1.593353943437988E-2    5.375055787558360E-1   -2.620624804017010E-3    2.821711386169632E-4   -2.634938902773910E-3    3.516025980437409E-4    1.420806646210012E-1    4.903322237564758E-1
 8.149404317500000E9    -1.463257010265692E-2    5.376359924741674E-1   -2.625013321306040E-3    3.018385200711043E-4   -2.640666922400410E-3    3.556726972461957E-4    1.434157181228621E-1    4.899102882933733E-1
 8.149424046000000E9    -1.316791669388456E-2    5.377877324535542E-1   -2.595837141058546E-3    2.922638752877031E-4   -2.665110749018882E-3    3.698084302188285E-4    1.446144730093701E-1    4.895098459708291E-1
 8.149443774500000E9    -1.181419295465857E-2    5.378031557498909E-1   -2.604817532679600E-3    2.971905613526605E-4   -2.648852137782410E-3    3.727086313801134E-4    1.456866262985745E-1    4.891015885912346E-1
 8.149463503000000E9    -1.047552226896942E-2    5.380294906279899E-1   -2.606748466497094E-3    3.173227905713790E-4   -2.613743222236369E-3    3.657636567131214E-4    1.470128395147859E-1    4.887026204317157E-1
 8.149483231500000E9    -9.065919609061387E-3    5.380125450489480E-1   -2.588573697150082E-3    3.207418813314457E-4   -2.632415395956395E-3    3.815378405894604E-4    1.482293137475583E-1    4.883618572602967E-1
 8.149502960000000E9    -7.644732292249431E-3    5.380992156967397E-1   -2.626177668418156E-3    3.285711563436845E-4   -2.653537446080201E-3    3.629369628804606E-4    1.493831146154404E-1    4.880086562579806E-1
