#  HZ   S   RI   R     50.00 
! Rohde & Schwarz Vector Network Analyzer 
! Rohde-Schwarz,ZNB20-2Port,1311601062101988,3.16
! Created: UTC 3/21/2024, 1:07:22 AM
! freq[Hz]                re:S11                  im:S11                  re:S21                  im:S21                  re:S12                  im:S12                  re:S22                  im:S22
 8.147843184000000E9    -1.221641688090064E-1    5.209398267786651E-1   -2.597870163009727E-3   -2.611425804444824E-4   -2.621614389625527E-3   -2.026781895001997E-4    4.411043798622958E-2    5.103888358124991E-1
 8.147862430150000E9    -1.208330533335079E-1    5.212423581925761E-1   -2.613803496347585E-3   -2.457374319002796E-4   -2.651005408543375E-3   -2.043500752115560E-4    4.535275506340958E-2    5.103646935821872E-1
 8.147881676300000E9    -1.196095567447299E-1    5.216478948318296E-1   -2.605812689477797E-3   -2.600944957828618E-4   -2.681190708596601E-3   -2.083665061763258E-4    4.646180723387995E-2    5.102800668154079E-1
 8.147900922450000E9    -1.182384938119502E-1    5.218931631791668E-1   -2.611042591564100E-3   -2.363879175926747E-4   -2.671958840623970E-3   -1.866704958773593E-4    4.769756599605228E-2    5.102399398249512E-1
 8.147920168600000E9    -1.169066419458757E-1    5.223745085162483E-1   -2.618587546556939E-3   -2.303440567601765E-4   -2.667743487677858E-3   -1.635711934714510E-4    4.906143148538362E-2    5.100076895862549E-1
 8.147939414750000E9    -1.154927243201502E-1    5.226509677835329E-1   -2.629668992124574E-3   -2.388554644396483E-4   -2.670878613769122E-3   -1.536447316628245E-4    5.014744319313347E-2    5.099068108457615E-1
 8.147958660900000E9    -1.142053705638819E-1    5.229492320758981E-1   -2.582402369567858E-3   -2.154588116776636E-4   -2.667928860878763E-3   -1.699520850069952E-4    5.163395375887209E-2    5.096884635991152E-1
 8.147977907050000E9    -1.128511844722733E-1    5.232272276384120E-1   -2.610295838767765E-3   -1.981402821689549E-4   -2.671187502493374E-3   -2.004305629919302E-4    5.281667706493152E-2    5.093907935325854E-1
 8.147997153200000E9    -1.115898517665267E-1    5.236143314645489E-1   -2.620448260231340E-3   -2.066926617219125E-4   -2.631292389851749E-3   -1.675640885777215E-4    5.409697306080167E-2    5.093210626608023E-1
 8.148016399350000E9    -1.102636869181595E-1    5.238695988192399E-1   -2.608025723099349E-3   -1.969531947608961E-4   -2.656281806840637E-3   -1.874944588474687E-4    5.522856145333838E-2    5.093051091783465E-1
 8.148035645500000E9    -1.089826519840455E-1    5.241716083938578E-1   -2.600264644322755E-3   -2.108973864915906E-4   -2.660028707627576E-3   -1.571223564314037E-4    5.642107111998084E-2    5.089406892084880E-1
 8.148054891650000E9    -1.078314331607606E-1    5.245580042688617E-1   -2.605804391593446E-3   -2.072377189277308E-4   -2.654526250801779E-3   -1.621324166432363E-4    5.771088991802194E-2    5.089916647999871E-1
 8.148074137800000E9    -1.063177329227790E-1    5.247331318633861E-1   -2.624957687230577E-3   -1.875125253973381E-4   -2.642996794385114E-3   -1.709979401849171E-4    5.897456191425383E-2    5.087750062129071E-1
 8.148093383950000E9    -1.050576705206908E-1    5.251081403669307E-1   -2.619428871840916E-3   -1.767388285631586E-4   -2.661557279020460E-3   -1.426402837694272E-4    6.035502946943951E-2    5.084990908791909E-1
 8.148112630100000E9    -1.037005425867903E-1    5.253870018219365E-1   -2.611647800365555E-3   -1.614454905169304E-4   -2.668102825112732E-3   -1.289339215256132E-4    6.150582943854993E-2    5.084769106723006E-1
 8.148131876250000E9    -1.023484187801255E-1    5.256461290575217E-1   -2.622257831353594E-3   -1.595708756388051E-4   -2.647631667423465E-3   -1.382867881973566E-4    6.275618529832276E-2    5.081582731771653E-1
 8.148151122400000E9    -1.010763559220702E-1    5.259879034913135E-1   -2.620271007509300E-3   -1.620149987634242E-4   -2.648035481014581E-3   -1.082277547726350E-4    6.394861393820299E-2    5.080631673283557E-1
 8.148170368550000E9    -9.979319537327226E-2    5.262626186814985E-1   -2.605598480299155E-3   -1.601849325435410E-4   -2.690611641908808E-3   -1.014082155778889E-4    6.524952579479877E-2    5.078700547763061E-1
 8.148189614700000E9    -9.853907453027523E-2    5.264705370718744E-1   -2.624501383464165E-3   -1.249106798682996E-4   -2.670300291547856E-3   -7.645650182527087E-5    6.659476110313617E-2    5.075959213381009E-1
 8.148208860850000E9    -9.715886609982613E-2    5.267770354681519E-1   -2.595973191702736E-3   -1.368833472010043E-4   -2.658786932984084E-3   -7.871630083142761E-5    6.774599169521056E-2    5.075095026381919E-1
 8.148228107000000E9    -9.583705962412994E-2    5.271068491509406E-1   -2.604779335043952E-3   -1.350422292230463E-4   -2.647018197970022E-3   -7.458951585086104E-5    6.888046037107790E-2    5.073945052235437E-1
 8.148247353150000E9    -9.458417552438307E-2    5.273412422905991E-1   -2.623278787799822E-3   -1.091504137036143E-4   -2.655224908473388E-3   -8.111866405619173E-5    7.019034777709945E-2    5.071240751803924E-1
 8.148266599300000E9    -9.318837033817517E-2    5.276563227901657E-1   -2.596530947169401E-3   -1.408614865775059E-4   -2.669340772832371E-3   -4.771750098339652E-5    7.130951700848030E-2    5.069359993453887E-1
 8.148285845450000E9    -9.191264940672350E-2    5.279239905005738E-1   -2.617197844919357E-3   -1.303195145392547E-4   -2.653490362656951E-3   -5.200768850878847E-5    7.262138801397150E-2    5.068189007072178E-1
 8.148305091600000E9    -9.062427463444633E-2    5.282278651345846E-1   -2.622204258706378E-3   -1.157468406117123E-4   -2.656034357735099E-3   -5.663328760681397E-5    7.380898436260289E-2    5.065312470906062E-1
 8.148324337750000E9    -8.927997404165020E-2    5.286163130252798E-1   -2.606668764594197E-3   -9.000247282700441E-5   -2.656514626085110E-3   -6.791614544947384E-5    7.513659407125040E-2    5.062979970308085E-1
 8.148343583900000E9    -8.785217673875080E-2    5.287267840959036E-1   -2.603585883284268E-3   -7.632796704335875E-5   -2.658805943239418E-3   -1.848437742981282E-5    7.628727404831402E-2    5.060785009272029E-1
 8.148362830050000E9    -8.667988916077989E-2    5.289417158813071E-1   -2.599165723809922E-3   -7.825578606332853E-5   -2.684516331307246E-3   -1.958646759171114E-5    7.754460699589451E-2    5.057736694062622E-1
 8.148382076200000E9    -8.534533023950315E-2    5.292114341868795E-1   -2.631760889432410E-3   -8.240845729427146E-5   -2.647287108557779E-3   -3.025742706117136E-5    7.878978672962582E-2    5.057033032159702E-1
 8.148401322350000E9    -8.410742381588159E-2    5.293311512589798E-1   -2.617708987903460E-3   -7.593260970364923E-5   -2.660737929001534E-3   -1.375192617218212E-5    7.996579912798234E-2    5.053972518920444E-1
 8.148420568500000E9    -8.271405799734995E-2    5.296090070578567E-1   -2.628124548029748E-3   -6.493355578906256E-5   -2.669468352320545E-3   -2.670485849461757E-5    8.126971316560806E-2    5.051636698197668E-1
 8.148439814650000E9    -8.141347203637027E-2    5.299574927164133E-1   -2.605283786700583E-3   -5.396459341814927E-5   -2.642233244559258E-3   -2.370714015090144E-5    8.254479366996573E-2    5.050126732669998E-1
 8.148459060800000E9    -7.998467394711872E-2    5.302405713219475E-1   -2.635431189901634E-3   -6.829258990457524E-5   -2.664514625166791E-3    9.858147540780431E-6    8.373094861555110E-2    5.047140124602261E-1
 8.148478306950000E9    -7.870635040543422E-2    5.304513899560147E-1   -2.620689456954783E-3   -5.685580325088654E-5   -2.661235819252190E-3    1.404197734418001E-6    8.501452009610380E-2    5.044677012962617E-1
 8.148497553100000E9    -7.741142775744483E-2    5.306531706141274E-1   -2.604903365131744E-3   -4.875828087205211E-5   -2.653110421540593E-3    3.619966949722069E-5    8.625696021355291E-2    5.044257527980056E-1
 8.148516799250000E9    -7.616005134640712E-2    5.308064639041014E-1   -2.641700310662666E-3   -1.563561141809400E-5   -2.650566964073493E-3    1.598352907591924E-5    8.737752580600261E-2    5.042044146004300E-1
 8.148536045400000E9    -7.483301928704121E-2    5.310681589383531E-1   -2.622662673970351E-3   -1.497676092729346E-5   -2.650905117901640E-3    3.016357197214422E-5    8.864451374361849E-2    5.037850563347641E-1
 8.148555291550000E9    -7.341081489744623E-2    5.313577561531038E-1   -2.596510275450231E-3   -4.974395068473599E-6   -2.647453877632990E-3   -1.865911323442785E-6    8.999517541284269E-2    5.036368745398385E-1
 8.148574537700000E9    -7.223680895981048E-2    5.315517962293838E-1   -2.618674893999764E-3    1.342368065375427E-5   -2.661503541380849E-3    5.750118824537624E-5    9.113620698583791E-2    5.033587147007296E-1
 8.148593783850000E9    -7.082130102312094E-2    5.316751283191736E-1   -2.639857153450618E-3    3.759886857044572E-6   -2.660737998730821E-3    3.842881485794596E-5    9.229011140652298E-2    5.030724856211588E-1
 8.148613030000000E9    -6.946058953265068E-2    5.319601944835751E-1   -2.639162445718875E-3   -2.504355420675828E-6   -2.669682279062322E-3    5.168609624031550E-5    9.360483064807207E-2    5.027913852122712E-1
 8.148632276150000E9    -6.824737478436821E-2    5.321153410865492E-1   -2.623783322944540E-3    1.226388216718416E-5   -2.687123012939726E-3    5.280369824077599E-5    9.462033034698024E-2    5.026010091157928E-1
 8.148651522300000E9    -6.684118274608924E-2    5.323024437595083E-1   -2.620621390537081E-3    2.180215758850705E-5   -2.648653914973591E-3    6.909397001184878E-5    9.598952585591054E-2    5.023707622062836E-1
 8.148670768450000E9    -6.551398661614607E-2    5.325352730582557E-1   -2.621037823014699E-3    2.722960461008311E-5   -2.667736104130509E-3    6.477935807122107E-5    9.729618989294843E-2    5.020494410704354E-1
 8.148690014600000E9    -6.424985245533513E-2    5.326581929864594E-1   -2.646297821870628E-3    1.789192211455832E-5   -2.641609854097858E-3    6.646860037297332E-5    9.841389791016594E-2    5.018090424354705E-1
 8.148709260750000E9    -6.280851849098835E-2    5.328477249211186E-1   -2.631631684753321E-3    5.089487670565830E-5   -2.643028256439568E-3    1.305099655736514E-4    9.980646223936809E-2    5.014917243828403E-1
 8.148728506900000E9    -6.151932686457588E-2    5.331737635346470E-1   -2.627051351083638E-3    4.204538124946477E-5   -2.637332258382901E-3    8.205088863032493E-5    1.008962190416007E-1    5.013047523937969E-1
 8.148747753050000E9    -6.024819970692128E-2    5.333301043046459E-1   -2.617145328195199E-3    2.509062433611953E-5   -2.667696892641564E-3    1.328775619933881E-4    1.020659461123144E-1    5.010624709874345E-1
 8.148766999200000E9    -5.890101106220519E-2    5.334516653091657E-1   -2.590754960639702E-3    6.569102208000660E-5   -2.690497688334437E-3    6.460053711898549E-5    1.033832225153594E-1    5.006838994777765E-1
 8.148786245350000E9    -5.754268181716769E-2    5.335397408259289E-1   -2.629075856332949E-3    7.713613734684638E-5   -2.669755012279027E-3    1.059837470777113E-4    1.045285339362514E-1    5.005067369611249E-1
 8.148805491500000E9    -5.625670728176596E-2    5.338388785058102E-1   -2.615396775345272E-3    7.656294127503231E-5   -2.649041000250332E-3    1.143020359476177E-4    1.057511366903810E-1    5.001312778635021E-1
 8.148824737650000E9    -5.489041173860040E-2    5.339114327330127E-1   -2.629833876297456E-3    7.740459359447741E-5   -2.659511135866228E-3    1.138644253339459E-4    1.069849538976294E-1    4.998883101550428E-1
 8.148843983800000E9    -5.347311386490306E-2    5.342279195585129E-1   -2.634002109225645E-3    6.775539741959047E-5   -2.608065358913252E-3    1.557633927165049E-4    1.081683904492364E-1    4.997404588917994E-1
 8.148863229950000E9    -5.217149507088002E-2    5.343729274859630E-1   -2.626992984147633E-3    7.300688475597146E-5   -2.640041450376675E-3    1.371884453482450E-4    1.095054941580230E-1    4.992591262304438E-1
 8.148882476100000E9    -5.090971180288522E-2    5.344182832877667E-1   -2.598090421050304E-3    8.601813170321270E-5   -2.648740624284945E-3    1.597381764057671E-4    1.106878368830533E-1    4.990379315582720E-1
 8.148901722250000E9    -4.963212750832858E-2    5.346891848829434E-1   -2.654583172527769E-3    1.126059934492825E-4   -2.684798395743647E-3    1.454309175979498E-4    1.118926184685405E-1    4.986590917415152E-1
 8.148920968400000E9    -4.835940723439595E-2    5.348584689130690E-1   -2.645450879747859E-3    1.277278381906431E-4   -2.667100638048843E-3    1.728236891166593E-4    1.131450728790143E-1    4.983651558243316E-1
 8.148940214550000E9    -4.691233596626335E-2    5.349636626548421E-1   -2.621867166645859E-3    1.312899315910290E-4   -2.634518892350913E-3    1.484435624768510E-4    1.141911698543492E-1    4.981813972897705E-1
 8.148959460700000E9    -4.572418125571183E-2    5.351067739813775E-1   -2.643485504992299E-3    1.032149744943102E-4   -2.679881579727798E-3    1.698531353141733E-4    1.155550315043653E-1    4.978021319495114E-1
 8.148978706850000E9    -4.423566666280929E-2    5.353145521806486E-1   -2.614631893839359E-3    1.417230286857472E-4   -2.686371473548254E-3    1.726469500321660E-4    1.167502908001703E-1    4.975423288678466E-1
 8.148997953000000E9    -4.282792202555655E-2    5.353790734020694E-1   -2.606872067938394E-3    1.508271037006252E-4   -2.648227757755762E-3    1.857374037919733E-4    1.179028210910709E-1    4.971659844196275E-1
 8.149017199150000E9    -4.159981297920510E-2    5.354471516976531E-1   -2.616742327000624E-3    1.561930273670990E-4   -2.650100215205031E-3    2.430878967867014E-4    1.191170160787010E-1    4.967419391292852E-1
 8.149036445300000E9    -4.020470220246868E-2    5.356573751407150E-1   -2.611888744641185E-3    1.361048044556558E-4   -2.618304930271166E-3    2.071446009564544E-4    1.203239320244997E-1    4.965993069796700E-1
 8.149055691450000E9    -3.894558762259334E-2    5.357325302616494E-1   -2.598758852630952E-3    1.804002305096402E-4   -2.656061142875469E-3    1.940394305310438E-4    1.215051429179412E-1    4.961733027675875E-1
 8.149074937600000E9    -3.757100765605639E-2    5.359111130414265E-1   -2.622709545920356E-3    1.761590188182101E-4   -2.624194539002114E-3    2.139084771712049E-4    1.226805439763002E-1    4.960070765873946E-1
 8.149094183750000E9    -3.615222373651019E-2    5.359864700337649E-1   -2.623805690085969E-3    2.020192650090099E-4   -2.645148156030906E-3    2.156554038757635E-4    1.239519877023376E-1    4.955319605053766E-1
 8.149113429900000E9    -3.490644380462030E-2    5.361041668157447E-1   -2.624159230047835E-3    1.952134724756990E-4   -2.652413519861157E-3    2.120698555189588E-4    1.250506596836926E-1    4.951750194796174E-1
 8.149132676050000E9    -3.347915586258455E-2    5.363303182456427E-1   -2.595713565110551E-3    1.686456291248205E-4   -2.671095277634165E-3    2.638755996631135E-4    1.263497532811903E-1    4.949724449365469E-1
 8.149151922200000E9    -3.219234141309552E-2    5.363383504716569E-1   -2.635719458509306E-3    1.922642091608520E-4   -2.656034420667040E-3    2.538797315103470E-4    1.274978405350750E-1    4.946444433671490E-1
 8.149171168350000E9    -3.086870528978938E-2    5.365725300889110E-1   -2.624612695935534E-3    2.201109922531498E-4   -2.675565540069752E-3    2.421922868340418E-4    1.288060770276897E-1    4.942583733556322E-1
 8.149190414500000E9    -2.957424055703191E-2    5.367669344884323E-1   -2.625730133836143E-3    2.309530135044025E-4   -2.649098319907068E-3    2.359797128156312E-4    1.298086387328038E-1    4.939541723913323E-1
 8.149209660650000E9    -2.815967491079392E-2    5.368185976035912E-1   -2.644256167613857E-3    2.141092593675565E-4   -2.632569269257309E-3    2.471414457438770E-4    1.311315120557800E-1    4.936476731614181E-1
 8.149228906800000E9    -2.685839653605854E-2    5.368068371617633E-1   -2.622442517007497E-3    2.323629748600824E-4   -2.652443634332888E-3    2.747515875111904E-4    1.324611334872671E-1    4.931328888330864E-1
 8.149248152950000E9    -2.553288797680972E-2    5.368998827572666E-1   -2.622439321932684E-3    2.359123022570398E-4   -2.661242710167629E-3    2.538045286063505E-4    1.334437624817585E-1    4.927737154109418E-1
 8.149267399100000E9    -2.421586845247460E-2    5.371836607889581E-1   -2.622535147740853E-3    2.318289807557147E-4   -2.646263579579086E-3    2.869981708747026E-4    1.347665630018626E-1    4.924876199331966E-1
 8.149286645250000E9    -2.281019066262677E-2    5.372652902825583E-1   -2.617886027004367E-3    2.302894057138269E-4   -2.626152621838772E-3    3.033068315627053E-4    1.359660899382903E-1    4.921134942940511E-1
 8.149305891400000E9    -2.151216706138854E-2    5.373087376901395E-1   -2.603760296587280E-3    2.225643956248581E-4   -2.674515919935189E-3    2.937451670457562E-4    1.370133370219263E-1    4.919063202605506E-1
 8.149325137550000E9    -2.024031509080255E-2    5.373090875999853E-1   -2.628023280788348E-3    2.615057698471613E-4   -2.650800928277376E-3    2.739512021603962E-4    1.383433319345671E-1    4.913727846337851E-1
 8.149344383700000E9    -1.883797360746665E-2    5.373612707048872E-1   -2.597617400014043E-3    2.753980513754536E-4   -2.667621889199975E-3    3.009307292182663E-4    1.395375994447523E-1    4.911930683088850E-1
 8.149363629850000E9    -1.736802785020065E-2    5.373998629916207E-1   -2.604444374382426E-3    2.677408929084466E-4   -2.651350341549358E-3    3.243221977800692E-4    1.405883217716074E-1    4.907387470985966E-1
 8.149382876000000E9    -1.627383111702551E-2    5.374602885371714E-1   -2.606471605627957E-3    2.939874637938343E-4   -2.603449967689302E-3    3.502662899718944E-4    1.418478260679382E-1    4.904095362775583E-1
 8.149402122150000E9    -1.489486109800793E-2    5.376148857920590E-1   -2.601878526855028E-3    2.974518855856429E-4   -2.643424244723969E-3    3.240362401239063E-4    1.429556140363635E-1    4.900864337180327E-1
 8.149421368300000E9    -1.359385331491006E-2    5.376267342815251E-1   -2.611624476467587E-3    2.951238957627734E-4   -2.640846459166040E-3    3.308209745062326E-4    1.441379059821633E-1    4.896503688513547E-1
 8.149440614450000E9    -1.215217276426154E-2    5.377435399442260E-1   -2.594840818804421E-3    2.801168764384339E-4   -2.630791545558209E-3    3.675067783488843E-4    1.454545911291783E-1    4.892430777813233E-1
 8.149459860600000E9    -1.083034737990573E-2    5.376962656199827E-1   -2.593607463118844E-3    3.172700160059141E-4   -2.641045168900310E-3    3.561879851789658E-4    1.466816992078457E-1    4.889726406084675E-1
 8.149479106750000E9    -9.555828692550762E-3    5.378992353751822E-1   -2.602017634834411E-3    3.044954820458833E-4   -2.641481379129452E-3    3.532523327387067E-4    1.477568733433409E-1    4.884871960249254E-1
 8.149498352900000E9    -8.143536420517385E-3    5.378627597972107E-1   -2.604372102302108E-3    3.000889547699356E-4   -2.631820508978225E-3    3.626201392457715E-4    1.488766501870116E-1    4.880019866114491E-1
 8.149517599050000E9    -6.824723980780406E-3    5.379169391865658E-1   -2.621217872738425E-3    3.034378152393173E-4   -2.654927553213863E-3    3.459150109004527E-4    1.501126127056519E-1    4.877624943460228E-1
 8.149536845200000E9    -5.491316731768415E-3    5.379615962508600E-1   -2.609054389436771E-3    3.116849908362029E-4   -2.653759224095564E-3    3.669221265920824E-4    1.513366488142507E-1    4.873349911146261E-1
 8.149556091350000E9    -4.055023806442851E-3    5.379894730937986E-1   -2.602427570016408E-3    3.447190642157752E-4   -2.677480738769701E-3    3.891543597189784E-4    1.525301680388418E-1    4.868376278500504E-1
 8.149575337500000E9    -2.758620359372640E-3    5.382350234231432E-1   -2.582169294229348E-3    3.236652557759634E-4   -2.625735571101922E-3    3.990233233140968E-4    1.537310036453441E-1    4.866174181366228E-1
