#  HZ   S   RI   R     50.00 
! Rohde & Schwarz Vector Network Analyzer 
! Rohde-Schwarz,ZNB20-2Port,1311601062101988,3.16
! Created: UTC 3/21/2024, 1:07:25 AM
! freq[Hz]                re:S11                  im:S11                  re:S21                  im:S21                  re:S12                  im:S12                  re:S22                  im:S22
 8.147965653000000E9    -1.139361128784079E-1    5.230273337263261E-1   -2.611294708085890E-3   -2.182953750210206E-4   -2.652892946419677E-3   -2.123690422545919E-4    5.193751063746128E-2    5.096632481575775E-1
 8.147984358825000E9    -1.126656905033507E-1    5.232732867047625E-1   -2.600516457574908E-3   -2.137655551666276E-4   -2.665672475719590E-3   -1.680955666648695E-4    5.322232119873397E-2    5.095575268898608E-1
 8.148003064650000E9    -1.112381719673602E-1    5.236138951694617E-1   -2.627897393376620E-3   -2.184081827780205E-4   -2.660719433533123E-3   -1.507978209401195E-4    5.432477943685287E-2    5.093406137218723E-1
 8.148021770475000E9    -1.100314710265187E-1    5.239924498875157E-1   -2.627663686586725E-3   -2.100637086363976E-4   -2.657519956479961E-3   -1.600304912907044E-4    5.562416072378884E-2    5.092224648279433E-1
 8.148040476300000E9    -1.088109772302654E-1    5.242851131606995E-1   -2.597895832825730E-3   -2.121679722928699E-4   -2.649473058421222E-3   -1.380029936233192E-4    5.680922479183128E-2    5.090459199040206E-1
 8.148059182125000E9    -1.075090690136895E-1    5.245357132870853E-1   -2.627561165196376E-3   -2.038772371907626E-4   -2.654721387704878E-3   -1.742419120593248E-4    5.806976514426020E-2    5.087745604596805E-1
 8.148077887950000E9    -1.063331467756625E-1    5.247658013083294E-1   -2.604802121852606E-3   -1.701707048585970E-4   -2.658217252869727E-3   -1.278673654085306E-4    5.923326152951060E-2    5.086687799241866E-1
 8.148096593775000E9    -1.048457270355582E-1    5.250184315593101E-1   -2.605840387642783E-3   -1.717597317214946E-4   -2.660832620585610E-3   -1.238371557376231E-4    6.050143953818837E-2    5.085240560951035E-1
 8.148115299600000E9    -1.036420735347630E-1    5.254133021294997E-1   -2.626890910470658E-3   -1.357562797429192E-4   -2.687186926252877E-3   -1.481983656750860E-4    6.157777036507373E-2    5.082674606137845E-1
 8.148134005425000E9    -1.023958331904958E-1    5.257418781438452E-1   -2.622238090177881E-3   -1.714845659933103E-4   -2.638743704427283E-3   -1.050245104616400E-4    6.276217513970957E-2    5.082704962699151E-1
 8.148152711250000E9    -1.011576664587480E-1    5.260769147643849E-1   -2.613335626111422E-3   -1.711576157893961E-4   -2.690884801766691E-3   -8.781808244310934E-5    6.421117973663865E-2    5.080342299499816E-1
 8.148171417075000E9    -9.990403392736540E-2    5.262348478242979E-1   -2.618048385315300E-3   -1.785962134039534E-4   -2.683066628153427E-3   -1.021004519071970E-4    6.526525337622481E-2    5.077617207705921E-1
 8.148190122900000E9    -9.848499183895146E-2    5.265926474581468E-1   -2.619473386839194E-3   -1.627073044642471E-4   -2.629391174506137E-3   -1.025307606654901E-4    6.652719195692412E-2    5.078421294313906E-1
 8.148208828725000E9    -9.725007926059073E-2    5.266865359667282E-1   -2.606354785725891E-3   -1.440907775055569E-4   -2.658932543308133E-3   -7.625011040672747E-5    6.766206241312263E-2    5.073661219561585E-1
 8.148227534550000E9    -9.589999757250595E-2    5.270919191416936E-1   -2.615485618643040E-3   -1.312205147678247E-4   -2.669519683390039E-3   -1.017126494378937E-4    6.880198735987994E-2    5.072751556537669E-1
 8.148246240375000E9    -9.475179209478285E-2    5.273111032060328E-1   -2.584370764080605E-3   -1.227050695295925E-4   -2.647779950553937E-3   -7.549038383050201E-5    7.007689442254739E-2    5.069735322917602E-1
 8.148264946200000E9    -9.338794396509716E-2    5.276098019484114E-1   -2.615892800972084E-3   -1.305751987952345E-4   -2.663459264727506E-3   -7.608082015672487E-5    7.116884567775504E-2    5.069779667048476E-1
 8.148283652025000E9    -9.214887708791403E-2    5.279301608465305E-1   -2.611820103541347E-3   -1.167078602471825E-4   -2.659736275040170E-3   -6.463288743922474E-5    7.252322721646198E-2    5.067757722296176E-1
 8.148302357850000E9    -9.100692473305473E-2    5.280953727750666E-1   -2.626439958194779E-3   -1.327837746995091E-4   -2.682739358520222E-3   -6.623820110490307E-5    7.365138209494587E-2    5.066507650124091E-1
 8.148321063675000E9    -8.964748058880879E-2    5.284373672498363E-1   -2.608365609179225E-3   -1.014589736769598E-4   -2.666945684763269E-3   -6.617951928806631E-5    7.523869373145421E-2    5.061706708103685E-1
 8.148339769500000E9    -8.841139240358380E-2    5.285751375205940E-1   -2.621278044641271E-3   -1.002555029986787E-4   -2.639164573905456E-3    4.222901729516936E-6    7.613843258871361E-2    5.060488455417484E-1
 8.148358475325000E9    -8.708105716220887E-2    5.288354003281159E-1   -2.630481546936832E-3   -7.360186370645045E-5   -2.635667529330351E-3   -2.403017468643261E-5    7.731926611219288E-2    5.058794867473217E-1
 8.148377181150000E9    -8.576616608541726E-2    5.290434179895269E-1   -2.633474252172367E-3   -8.477323668727133E-5   -2.682670189161766E-3   -3.556687590117802E-5    7.842718903156928E-2    5.057235962531840E-1
 8.148395886975000E9    -8.439372021116659E-2    5.293590916859079E-1   -2.622858657208377E-3   -6.128421710706441E-5   -2.671005479192059E-3   -5.139371808179668E-5    7.967762472363023E-2    5.056134904432228E-1
 8.148414592800000E9    -8.325604368430170E-2    5.294995338643415E-1   -2.623008641203458E-3   -4.405068297651317E-5   -2.648078773068525E-3   -3.603050013089410E-5    8.094111360534742E-2    5.053139140603171E-1
 8.148433298625000E9    -8.188306498472156E-2    5.297976328122294E-1   -2.633076736774006E-3   -7.177453827144255E-5   -2.666083963869204E-3   -1.541380955491243E-5    8.201013986290617E-2    5.051654511829661E-1
 8.148452004450000E9    -8.068734754626834E-2    5.301431907397469E-1   -2.641970379992940E-3   -2.898156890802041E-5   -2.707316742539108E-3    9.891243068679710E-6    8.327015925475144E-2    5.048760027484827E-1
 8.148470710275000E9    -7.934734988314970E-2    5.303089993865845E-1   -2.627341548417637E-3   -3.895852119327132E-5   -2.679074506237174E-3    2.376769284725596E-5    8.450049876440024E-2    5.045895655522767E-1
 8.148489416100000E9    -7.794699111231129E-2    5.305222366547788E-1   -2.616105857462843E-3   -4.956698227834218E-5   -2.653227726814919E-3    5.040667900895404E-6    8.564859957954919E-2    5.043675423121812E-1
 8.148508121925000E9    -7.673738238974147E-2    5.307533922322408E-1   -2.629532891623615E-3   -4.183183301784792E-5   -2.631006373591633E-3    2.583363929060854E-5    8.693968953151179E-2    5.041575550483771E-1
 8.148526827750000E9    -7.555069731405113E-2    5.309256091121372E-1   -2.607621536461948E-3   -3.752718757096631E-6   -2.668685332260016E-3    6.271592631742583E-5    8.807551285747429E-2    5.040407143772947E-1
 8.148545533575000E9    -7.420720038872740E-2    5.310290583495205E-1   -2.609611345626029E-3   -1.398784962871006E-5   -2.641336568018922E-3    5.258296325746190E-5    8.919491258938901E-2    5.037796823811557E-1
 8.148564239400000E9    -7.301650712211157E-2    5.313469970378729E-1   -2.618843169410674E-3   -3.010780380703354E-5   -2.661136632883978E-3    3.912029437419986E-5    9.054230723666620E-2    5.034853317295882E-1
 8.148582945225000E9    -7.157522553819134E-2    5.316451418165884E-1   -2.653129325488881E-3    1.638233421365208E-6   -2.659850173661108E-3    3.640950907278273E-5    9.162642350140743E-2    5.031836266770022E-1
 8.148601651050000E9    -7.027556202275498E-2    5.318088844384693E-1   -2.619845379940039E-3    1.148617231990954E-6   -2.641400662830916E-3    3.011191841725842E-5    9.286203125718361E-2    5.030211390944529E-1
 8.148620356875000E9    -6.902471024029536E-2    5.319882927725424E-1   -2.633994098838307E-3   -8.046102033347001E-6   -2.630250552797517E-3    5.366153243147627E-5    9.402722987388998E-2    5.028429998364788E-1
 8.148639062700000E9    -6.772167346016744E-2    5.321628706844739E-1   -2.627442591417804E-3    1.034380427916998E-5   -2.647356463905126E-3    6.193451691144157E-5    9.530049777248109E-2    5.024960930151862E-1
 8.148657768525000E9    -6.650261061563462E-2    5.323744747913823E-1   -2.644015036954605E-3    6.024365188608878E-6   -2.646277239225006E-3    4.705261703998244E-5    9.646828623483950E-2    5.021608499850425E-1
 8.148676474350000E9    -6.518994979196852E-2    5.327037797393201E-1   -2.632305808680814E-3    5.010988667991195E-5   -2.634415500471151E-3    9.078230054719721E-5    9.747938573465056E-2    5.020286567723233E-1
 8.148695180175000E9    -6.389256330173963E-2    5.327673915365243E-1   -2.639296467278325E-3    3.535244291128628E-5   -2.633419040293742E-3    5.831394469125623E-5    9.868794923587253E-2    5.017169748279612E-1
 8.148713886000000E9    -6.259233159343705E-2    5.329370574985550E-1   -2.618368927651684E-3    3.558508003484664E-5   -2.664125622328283E-3    7.506931308404634E-5    9.999637049266846E-2    5.015695698555132E-1
 8.148732591825000E9    -6.137697473166047E-2    5.332062336629437E-1   -2.636413892155517E-3    3.543474713968307E-5   -2.671339656068090E-3    7.901579876752446E-5    1.012359760164016E-1    5.012057155481930E-1
 8.148751297650000E9    -5.994496731467654E-2    5.333823375222807E-1   -2.628142188382524E-3    6.545783377809274E-5   -2.678852429529600E-3    8.647860724618902E-5    1.023976203649758E-1    5.010457802850705E-1
 8.148770003475000E9    -5.875631693478509E-2    5.335311713323511E-1   -2.612646352626899E-3    7.469005661821353E-5   -2.654164850664950E-3    1.092310084830622E-4    1.035682789723500E-1    5.007693561917608E-1
 8.148788709300000E9    -5.748362070175963E-2    5.337001702925559E-1   -2.603585437257363E-3    6.501211743804903E-5   -2.672640817471325E-3    1.111327860377162E-4    1.046803763493062E-1    5.004416577705748E-1
 8.148807415125000E9    -5.615441197736034E-2    5.337549948203912E-1   -2.621340690266736E-3    5.565540344918203E-5   -2.651911015258148E-3    1.259045664349746E-4    1.059228608174487E-1    5.001969714514010E-1
 8.148826120950000E9    -5.484553925137112E-2    5.339507839252909E-1   -2.634365515538904E-3    9.030818542047180E-5   -2.656463508805686E-3    1.182786857803911E-4    1.070570148237487E-1    4.998675079896021E-1
 8.148844826775000E9    -5.351533910365430E-2    5.341616389455989E-1   -2.623607490193190E-3    8.403022721172558E-5   -2.653869321655423E-3    1.152769571507468E-4    1.082413362483737E-1    4.995752507289561E-1
 8.148863532600000E9    -5.233310681521070E-2    5.343692045455510E-1   -2.635280046844301E-3    1.102174675487175E-4   -2.641992623537378E-3    1.437969129735709E-4    1.093406463642104E-1    4.993775082535059E-1
 8.148882238425000E9    -5.098516467877560E-2    5.344700909011709E-1   -2.621347734489016E-3    7.169391347495566E-5   -2.632894148822900E-3    1.570651158064372E-4    1.105535589889811E-1    4.990365051235232E-1
 8.148900944250000E9    -4.958935068284528E-2    5.346198659231977E-1   -2.598652092936534E-3    1.278917814321680E-4   -2.667287245451917E-3    1.562770455990473E-4    1.118226499242703E-1    4.987672992257082E-1
 8.148919650075000E9    -4.849456131410971E-2    5.347198828954410E-1   -2.600840748683953E-3    1.300177960022158E-4   -2.681466223588641E-3    1.662600252763041E-4    1.128979865071663E-1    4.983860268356994E-1
 8.148938355900000E9    -4.702482684056807E-2    5.350538998942629E-1   -2.642391141222483E-3    1.120605600034612E-4   -2.640468108451355E-3    1.503914811480267E-4    1.142938673534890E-1    4.982767985168757E-1
 8.148957061725000E9    -4.578461097511489E-2    5.350515013090698E-1   -2.628102645176154E-3    1.161494386574877E-4   -2.644737932257040E-3    1.756210431895150E-4    1.152995918619462E-1    4.978107048095631E-1
 8.148975767550000E9    -4.451705734714273E-2    5.351835422571065E-1   -2.590587216750916E-3    9.510609504249556E-5   -2.653014769067556E-3    1.898677632101566E-4    1.164786700935604E-1    4.974279927208297E-1
 8.148994473375000E9    -4.316081301825940E-2    5.352717644673979E-1   -2.639787617552068E-3    1.455112242393363E-4   -2.621029734408743E-3    1.932931646280026E-4    1.176908763950506E-1    4.972217218181098E-1
 8.149013179200000E9    -4.192033414128997E-2    5.355053468399389E-1   -2.606339601169215E-3    1.268668050596746E-4   -2.636619605333051E-3    2.089783951695629E-4    1.188386644101310E-1    4.969226374544999E-1
 8.149031885025000E9    -4.049443192275748E-2    5.355202178510455E-1   -2.637333183391863E-3    1.483993069681064E-4   -2.690690921853099E-3    1.894541801140421E-4    1.199003749765399E-1    4.966702892325959E-1
 8.149050590850000E9    -3.921061554102995E-2    5.358236388304273E-1   -2.622096231090357E-3    1.509520082247206E-4   -2.640208174330884E-3    2.219524908412356E-4    1.212344645108312E-1    4.963238820502097E-1
 8.149069296675000E9    -3.790502968184643E-2    5.359275494561091E-1   -2.622492834000917E-3    1.689455614259859E-4   -2.666461045653533E-3    2.072605775180370E-4    1.223467811176477E-1    4.960601356764077E-1
 8.149088002500000E9    -3.673432306505599E-2    5.359460878705126E-1   -2.611634217517379E-3    1.698114814509239E-4   -2.656131385483272E-3    2.074031221750228E-4    1.235559224350687E-1    4.958192947514464E-1
 8.149106708325000E9    -3.533118618749011E-2    5.360918680848498E-1   -2.608598805553610E-3    1.808158653688047E-4   -2.633009607465845E-3    2.471184366531710E-4    1.246631608956269E-1    4.955150777977532E-1
 8.149125414150000E9    -3.412393278226997E-2    5.362278405832834E-1   -2.622814805577291E-3    1.895402246127114E-4   -2.618962986026554E-3    2.658019794349799E-4    1.258487976877156E-1    4.950779107112779E-1
 8.149144119975000E9    -3.274714646550217E-2    5.363659749169221E-1   -2.626692465019169E-3    2.032870934577594E-4   -2.654972461516083E-3    2.537253464150014E-4    1.269470960018303E-1    4.948136620955097E-1
 8.149162825800000E9    -3.148295121007371E-2    5.364572628226656E-1   -2.606150872534324E-3    2.070634924908520E-4   -2.678121117284638E-3    2.504236347353529E-4    1.282289985276310E-1    4.943893680093318E-1
 8.149181531625000E9    -3.020421964890829E-2    5.365303191056069E-1   -2.623132273377286E-3    1.904721887531416E-4   -2.654141634968994E-3    2.259001166848068E-4    1.295125049428719E-1    4.940300837614680E-1
 8.149200237450000E9    -2.896447142999148E-2    5.367196052642783E-1   -2.632997885669080E-3    1.954132930067303E-4   -2.687089876564418E-3    2.457797035759461E-4    1.304594694976433E-1    4.936656187543271E-1
 8.149218943275000E9    -2.764711868326969E-2    5.368569081095979E-1   -2.617822036656060E-3    2.134667812698706E-4   -2.666201227290170E-3    2.751555657668504E-4    1.316908403178656E-1    4.933225448413360E-1
 8.149237649100000E9    -2.622926026326139E-2    5.368657545977397E-1   -2.611732955598046E-3    2.214152763602304E-4   -2.609463527244605E-3    2.766383119481335E-4    1.328818920537758E-1    4.930705439753523E-1
 8.149256354925000E9    -2.499267834553034E-2    5.370364178511252E-1   -2.615466082077097E-3    2.453377088303797E-4   -2.664462822754787E-3    2.709920637248973E-4    1.340138775263942E-1    4.926558010077913E-1
 8.149275060750000E9    -2.365242093452527E-2    5.369821366932325E-1   -2.617308761608198E-3    2.576395938769991E-4   -2.673230124586254E-3    2.821082104309219E-4    1.351735388981713E-1    4.924086615853008E-1
 8.149293766575000E9    -2.232549055400269E-2    5.371721181243401E-1   -2.644580881609475E-3    2.452899328671717E-4   -2.639746631890804E-3    2.988698822727272E-4    1.362609097419502E-1    4.920390255059782E-1
 8.149312472400000E9    -2.115232809421172E-2    5.372828371860769E-1   -2.598991253421572E-3    2.497612927265430E-4   -2.651825124308014E-3    3.477069283936355E-4    1.374257952593156E-1    4.918347991614712E-1
 8.149331178225000E9    -1.987682374873160E-2    5.373564118767107E-1   -2.606453688905510E-3    2.667134001154560E-4   -2.632905732241666E-3    3.224728075389208E-4    1.385785137263543E-1    4.914217368902788E-1
 8.149349884050000E9    -1.847572007732732E-2    5.373367798849057E-1   -2.618499268476969E-3    2.659811458546751E-4   -2.644383416704572E-3    3.483293715781818E-4    1.397684158729738E-1    4.909634871926699E-1
 8.149368589875000E9    -1.714387378335400E-2    5.373945725169378E-1   -2.610157492622829E-3    2.625513794531780E-4   -2.616200934882836E-3    3.452481789818417E-4    1.410547388723923E-1    4.907380161142137E-1
 8.149387295700000E9    -1.596615141983893E-2    5.374900860396142E-1   -2.596994025610878E-3    2.915932965078360E-4   -2.624203215480379E-3    3.315681508717900E-4    1.420755207988496E-1    4.902964225057281E-1
 8.149406001525000E9    -1.462551486558961E-2    5.376836527318373E-1   -2.618434043327655E-3    2.910193495917938E-4   -2.635638677835977E-3    3.602982853182486E-4    1.432484107598953E-1    4.900576453903752E-1
 8.149424707350000E9    -1.325933457113239E-2    5.376948776802716E-1   -2.609447977019476E-3    2.763071074855260E-4   -2.642723132550982E-3    3.536571028460712E-4    1.444738837478164E-1    4.896266446860257E-1
 8.149443413175000E9    -1.192484433350646E-2    5.377368211323634E-1   -2.600704009267669E-3    3.033530385442056E-4   -2.648256529153146E-3    3.532836693286230E-4    1.455297351900597E-1    4.893302167598172E-1
 8.149462119000000E9    -1.080267274139246E-2    5.377786149070691E-1   -2.596141039132818E-3    3.349797693853766E-4   -2.647303664486988E-3    3.565094001793097E-4    1.467603935851446E-1    4.888482121531225E-1
 8.149480824825000E9    -9.458479611512320E-3    5.379189177536929E-1   -2.629059636636331E-3    3.046291866581855E-4   -2.668986159266848E-3    3.643415683172045E-4    1.479553580351221E-1    4.883571042650408E-1
 8.149499530650000E9    -8.072774179710441E-3    5.379831370270101E-1   -2.600472596127817E-3    3.136866195521529E-4   -2.634914974409264E-3    3.769096003494232E-4    1.491532121882158E-1    4.880804625049825E-1
 8.149518236475000E9    -6.749647092094670E-3    5.379283518396688E-1   -2.607810189010292E-3    3.231319723614748E-4   -2.608327575379144E-3    3.656171933313917E-4    1.501781974561955E-1    4.876322492345325E-1
 8.149536942300000E9    -5.456754670589299E-3    5.380735898556118E-1   -2.629722489604420E-3    3.456327190292632E-4   -2.604691792080701E-3    4.157018709259144E-4    1.512452084014452E-1    4.872883840660480E-1
 8.149555648125000E9    -4.204847859161093E-3    5.379903293451112E-1   -2.595097704075297E-3    3.141001970061066E-4   -2.613130455999373E-3    3.909400288401660E-4    1.524236887791416E-1    4.869291358794401E-1
 8.149574353950000E9    -2.985849148437312E-3    5.380666610598622E-1   -2.622657825828483E-3    3.231533905041376E-4   -2.619437900306143E-3    3.952476305613615E-4    1.536069692406541E-1    4.866566914660496E-1
 8.149593059775000E9    -1.628790112666603E-3    5.381598524056058E-1   -2.632290901112065E-3    3.387848710950856E-4   -2.628330628507567E-3    3.784977986337836E-4    1.547442439788993E-1    4.862100824153121E-1
 8.149611765600000E9    -3.021074014298098E-4    5.380556145146677E-1   -2.617552986712520E-3    3.649621616627426E-4   -2.603457688463454E-3    4.094429197586813E-4    1.559668815729009E-1    4.858059088681466E-1
 8.149630471425000E9     1.078389837231959E-3    5.382712678007766E-1   -2.573467595086931E-3    3.788672120446221E-4   -2.617740392435891E-3    4.111384425147574E-4    1.569883801830632E-1    4.854233391070598E-1
 8.149649177250000E9     2.223642676612231E-3    5.381920449979255E-1   -2.606177108378505E-3    3.683231348993972E-4   -2.642122433640742E-3    4.302730735072291E-4    1.580935476777716E-1    4.850129554735492E-1
