#  HZ   S   RI   R     50.00 
! Rohde & Schwarz Vector Network Analyzer 
! Rohde-Schwarz,ZNB20-2Port,1311601062101988,3.16
! Created: UTC 3/21/2024, 12:51:58 AM
! freq[Hz]                re:S11                  im:S11                  re:S21                  im:S21                  re:S12                  im:S12                  re:S22                  im:S22
 8.151337904000000E9     1.300250900623942E-1    5.278927298835975E-1   -2.940966143877398E-3    1.287931399469169E-3   -2.976175631885476E-3    1.306319836769413E-3    2.725461395554924E-1    4.358280741639740E-1
 8.151339872275000E9     1.302171259408408E-1    5.278729093492404E-1   -2.980870780548962E-3    1.280498423681851E-3   -2.986165670148180E-3    1.341779077139727E-3    2.726033294295413E-1    4.358225588167071E-1
 8.151341840550000E9     1.303922781697826E-1    5.278149254994425E-1   -2.965086041458766E-3    1.277272881565119E-3   -2.985760252281998E-3    1.306842393758929E-3    2.726062804322407E-1    4.357510731131689E-1
 8.151343808825000E9     1.305875496391698E-1    5.278289315022578E-1   -2.993487960879144E-3    1.313088304954496E-3   -2.942461708950431E-3    1.353621421667721E-3    2.728822389868636E-1    4.356602322775188E-1
 8.151345777100000E9     1.307680839698421E-1    5.278175457839213E-1   -2.967777045618625E-3    1.297647565533413E-3   -2.966876222923660E-3    1.345686829422282E-3    2.728875636976817E-1    4.356089557613724E-1
 8.151347745375000E9     1.309145867022569E-1    5.277169017527334E-1   -2.990110206064568E-3    1.315344768939498E-3   -2.951080979947699E-3    1.367977186362308E-3    2.731167283862400E-1    4.353969569268953E-1
 8.151349713650000E9     1.309417258903571E-1    5.277174480957797E-1   -2.985181151545795E-3    1.275205975814622E-3   -2.960804168363023E-3    1.380883259401128E-3    2.731384058220343E-1    4.354040402805888E-1
 8.151351681925000E9     1.312122021897756E-1    5.276116550063092E-1   -2.961216342987180E-3    1.295086733638046E-3   -2.984432122075709E-3    1.346943090609603E-3    2.730839195215637E-1    4.352947012037606E-1
 8.151353650200000E9     1.312320555871678E-1    5.276966339376642E-1   -2.990202514217837E-3    1.319584354275170E-3   -3.013889611443201E-3    1.343948831993162E-3    2.732352733130106E-1    4.352451959139071E-1
 8.151355618475000E9     1.315044732197947E-1    5.276252475970313E-1   -2.993271290348665E-3    1.292420347586266E-3   -2.977799037337657E-3    1.371664545447835E-3    2.735327163655659E-1    4.352867860933727E-1
 8.151357586750000E9     1.316887007797137E-1    5.275266052411994E-1   -2.989715338757975E-3    1.294084183492199E-3   -2.986946532716688E-3    1.354254618418146E-3    2.735877292594072E-1    4.352302573293143E-1
 8.151359555025000E9     1.317899016340860E-1    5.274644449783492E-1   -2.969444974223815E-3    1.331321767735955E-3   -3.013449445964623E-3    1.355904855445592E-3    2.736726215265798E-1    4.350170068695736E-1
 8.151361523300000E9     1.320391530724290E-1    5.274766209038294E-1   -2.979633694339039E-3    1.322835709787055E-3   -2.983684627631386E-3    1.351486846354838E-3    2.737419531245495E-1    4.351390189137652E-1
 8.151363491575000E9     1.322144169297758E-1    5.274439214507374E-1   -2.995400570649072E-3    1.308025745249187E-3   -3.014360380640928E-3    1.326666576370028E-3    2.739091437420061E-1    4.350121489857985E-1
 8.151365459850000E9     1.322645516096414E-1    5.273742575298785E-1   -2.990541005836252E-3    1.318168230979215E-3   -3.017476570837452E-3    1.359546173840778E-3    2.739838438685716E-1    4.348300245119655E-1
 8.151367428125000E9     1.324640524157474E-1    5.272483467557794E-1   -3.014256636905380E-3    1.338322514469619E-3   -3.004765475239836E-3    1.395435162701470E-3    2.742940366003488E-1    4.346610180779794E-1
 8.151369396400000E9     1.326136734550846E-1    5.273294921326251E-1   -3.004934511219921E-3    1.322984813663614E-3   -3.048385089479285E-3    1.378468732358171E-3    2.740802766239566E-1    4.347076917236037E-1
 8.151371364675000E9     1.326945011609367E-1    5.272776821607351E-1   -2.987525668616349E-3    1.329561462969734E-3   -2.982994709195810E-3    1.378787658155425E-3    2.742323506121856E-1    4.346462637141923E-1
 8.151373332950000E9     1.328249466394919E-1    5.271972208098420E-1   -2.998018991766029E-3    1.324461445691834E-3   -3.010518269637554E-3    1.389873406818411E-3    2.745235341034734E-1    4.346175922795030E-1
 8.151375301225000E9     1.331015895002899E-1    5.271877923120306E-1   -3.000981604038407E-3    1.321483537918290E-3   -3.038727390627378E-3    1.395932246018193E-3    2.744233917857401E-1    4.345410433493175E-1
 8.151377269500000E9     1.332185872359654E-1    5.270462440908080E-1   -3.033221133239562E-3    1.331912412764942E-3   -3.005156567149499E-3    1.381300197569055E-3    2.745450405017132E-1    4.344385098325326E-1
 8.151379237775000E9     1.334175405152696E-1    5.270491692475783E-1   -3.014915216113207E-3    1.337458062564397E-3   -3.058129958613669E-3    1.421170255645873E-3    2.746934396509893E-1    4.343090198220944E-1
 8.151381206050000E9     1.336009609117622E-1    5.270829406216868E-1   -3.035127831365109E-3    1.329679682674114E-3   -3.023467400163981E-3    1.396748312745102E-3    2.748837778855267E-1    4.342773439896195E-1
 8.151383174325000E9     1.336876141588909E-1    5.270596835778586E-1   -3.034949710842153E-3    1.316227649474048E-3   -3.049762724098291E-3    1.384663789837394E-3    2.749177241480601E-1    4.343510509802338E-1
 8.151385142600000E9     1.338901665362885E-1    5.270005884343276E-1   -3.023129160587696E-3    1.305439369350380E-3   -3.016415248207103E-3    1.369344812208750E-3    2.750604462457269E-1    4.340048797987545E-1
 8.151387110875000E9     1.339990242318408E-1    5.270349035171557E-1   -3.031837257140027E-3    1.344525405934018E-3   -3.040385630507433E-3    1.403212280786607E-3    2.751079799174777E-1    4.340826950458211E-1
 8.151389079150000E9     1.342232286256326E-1    5.269565911942261E-1   -3.054505357704977E-3    1.371292500672827E-3   -3.028981889821318E-3    1.408270928765673E-3    2.751453876121678E-1    4.340750088633606E-1
 8.151391047425000E9     1.343384066403873E-1    5.270092595273707E-1   -3.061844417980938E-3    1.366109670410167E-3   -3.051158425498146E-3    1.425542750693216E-3    2.753872578293121E-1    4.339887302454138E-1
 8.151393015700000E9     1.346125655895108E-1    5.269586360662151E-1   -3.044972712249971E-3    1.374761746584905E-3   -3.042044840201922E-3    1.399926812485961E-3    2.754105865847652E-1    4.338278920127824E-1
 8.151394983975000E9     1.346872283877622E-1    5.267844565239906E-1   -3.027264974365189E-3    1.363036140395737E-3   -3.044115721681654E-3    1.426228404764116E-3    2.755554223296202E-1    4.338664896307680E-1
 8.151396952250000E9     1.347721688864145E-1    5.268082525677883E-1   -3.045497706047548E-3    1.353052705451545E-3   -3.051566154862577E-3    1.445173975686435E-3    2.756947151749137E-1    4.337751950164449E-1
 8.151398920525000E9     1.349566146176002E-1    5.266533325248086E-1   -3.062202018264007E-3    1.355002854616135E-3   -3.043691753973671E-3    1.438477467058944E-3    2.758591789021854E-1    4.336909222206617E-1
 8.151400888800000E9     1.351286512255011E-1    5.265672342683541E-1   -3.071230748581058E-3    1.395920963412939E-3   -3.054423845511305E-3    1.433979098092958E-3    2.758088963774506E-1    4.337127953684694E-1
 8.151402857075000E9     1.352895287017048E-1    5.266749757542680E-1   -3.077740392226946E-3    1.395101603094351E-3   -3.062665099870448E-3    1.411773156143019E-3    2.759494422394320E-1    4.335149617335497E-1
 8.151404825350000E9     1.354480853710976E-1    5.266543148217038E-1   -3.068280804663179E-3    1.378734309705089E-3   -3.085364050641666E-3    1.451948532026146E-3    2.761842666713483E-1    4.333929739837939E-1
 8.151406793625000E9     1.356615271147796E-1    5.266095189039547E-1   -3.066986502824512E-3    1.379425794214231E-3   -3.088446960127104E-3    1.424137358199543E-3    2.761854610054662E-1    4.335431187129628E-1
 8.151408761900000E9     1.357231062259915E-1    5.264658456796939E-1   -3.071551099649785E-3    1.361976900900462E-3   -3.100304876682524E-3    1.440015011460832E-3    2.765766245150759E-1    4.333584804164373E-1
 8.151410730175000E9     1.359220187343040E-1    5.264259502698859E-1   -3.073738551356129E-3    1.396058541015417E-3   -3.084722284618575E-3    1.447166311775842E-3    2.763613236135266E-1    4.332556927992067E-1
 8.151412698450000E9     1.360118590728225E-1    5.263280729033580E-1   -3.076258652487652E-3    1.374179529415600E-3   -3.107296374457774E-3    1.418728591212705E-3    2.765303290636149E-1    4.331916392109454E-1
 8.151414666725000E9     1.362534114237552E-1    5.264378878716602E-1   -3.094497969125805E-3    1.395736420202596E-3   -3.084613061709687E-3    1.453625201403204E-3    2.767297674290078E-1    4.331343621451291E-1
 8.151416635000000E9     1.363879608978240E-1    5.263137143568177E-1   -3.093052072319425E-3    1.408510499021206E-3   -3.086290739106942E-3    1.461369476884988E-3    2.766602483820104E-1    4.330853400325447E-1
 8.151418603275000E9     1.366056321270144E-1    5.262598336380861E-1   -3.110926944874764E-3    1.426759032565829E-3   -3.085654324655270E-3    1.446335892783918E-3    2.769229133778443E-1    4.329319681721938E-1
 8.151420571550000E9     1.366287108199904E-1    5.263277602834274E-1   -3.102624084871626E-3    1.417225283795091E-3   -3.087577386622268E-3    1.457303274901313E-3    2.768578058925018E-1    4.327384506650567E-1
 8.151422539825000E9     1.367866673396440E-1    5.263110763512627E-1   -3.110503359088684E-3    1.425307439075854E-3   -3.122481802504374E-3    1.475930980702277E-3    2.770908631111059E-1    4.326885513302072E-1
 8.151424508100000E9     1.369356125314395E-1    5.262046535020000E-1   -3.130959775582223E-3    1.402439024965607E-3   -3.112152960287684E-3    1.486000224537181E-3    2.772571757872727E-1    4.327981816651285E-1
 8.151426476375000E9     1.371514910733057E-1    5.260646998414452E-1   -3.120998753079264E-3    1.433817835994323E-3   -3.103045838787333E-3    1.485060262422597E-3    2.772744621451853E-1    4.326080389928856E-1
 8.151428444650000E9     1.373087062940702E-1    5.260857372633527E-1   -3.117613167411230E-3    1.414090465661213E-3   -3.137097134599990E-3    1.474791597281243E-3    2.774451154470057E-1    4.326103283064801E-1
 8.151430412925000E9     1.373966743180719E-1    5.260696751037849E-1   -3.117790070821698E-3    1.455774347141023E-3   -3.123445751424006E-3    1.507925687823800E-3    2.774654543042706E-1    4.325718660669396E-1
 8.151432381200000E9     1.375970668971978E-1    5.260143911012423E-1   -3.131665097612654E-3    1.443199432813204E-3   -3.119642348409419E-3    1.518276197124524E-3    2.776033990806235E-1    4.324226470137470E-1
 8.151434349475000E9     1.378823546970158E-1    5.259526910515588E-1   -3.142040902084980E-3    1.438755067982525E-3   -3.116214464011855E-3    1.496616245816304E-3    2.777467845934402E-1    4.324292455205933E-1
 8.151436317750000E9     1.380421766826070E-1    5.257540790627311E-1   -3.148095715414698E-3    1.463852563435313E-3   -3.154539216411459E-3    1.496356975938700E-3    2.778581203355425E-1    4.322552455798859E-1
 8.151438286025000E9     1.381393745140231E-1    5.258675307930599E-1   -3.152903348578164E-3    1.442570261094574E-3   -3.137269970338731E-3    1.489794635242991E-3    2.778760371028213E-1    4.322021089589540E-1
 8.151440254300000E9     1.381905603309534E-1    5.257866735542527E-1   -3.141375946377068E-3    1.437001118131461E-3   -3.149084703227555E-3    1.511258730312004E-3    2.780967807802190E-1    4.321174273710922E-1
 8.151442222575000E9     1.384868190422425E-1    5.257852630950873E-1   -3.149853166619641E-3    1.451426321978150E-3   -3.170974409968146E-3    1.519897685606306E-3    2.780891168758854E-1    4.320902452943078E-1
 8.151444190850000E9     1.386390272775665E-1    5.257248895195209E-1   -3.138490061063715E-3    1.451877099354381E-3   -3.199692887198177E-3    1.503341755691030E-3    2.782311224799995E-1    4.321197646783720E-1
 8.151446159125000E9     1.388998700692197E-1    5.256603843355598E-1   -3.160214757558587E-3    1.473017541062173E-3   -3.165575964997515E-3    1.507155623965267E-3    2.783855669958971E-1    4.318623142327370E-1
 8.151448127400000E9     1.389326271419368E-1    5.256331948680704E-1   -3.171913675517868E-3    1.469888464985756E-3   -3.188020783282219E-3    1.519609685500483E-3    2.784938280171259E-1    4.318874849657851E-1
 8.151450095675000E9     1.390920869447253E-1    5.255380155583859E-1   -3.174022243318396E-3    1.470322779428145E-3   -3.181319237927919E-3    1.547792939190707E-3    2.785913471990165E-1    4.318392311318404E-1
 8.151452063950000E9     1.392404016300967E-1    5.255039390189842E-1   -3.170900028314846E-3    1.471806189054514E-3   -3.175535160401334E-3    1.553622919406254E-3    2.786872752449250E-1    4.316580417319790E-1
 8.151454032225000E9     1.394236063802810E-1    5.256015512088752E-1   -3.202927747180782E-3    1.475764069691259E-3   -3.181239655732235E-3    1.533433784871980E-3    2.788759904864974E-1    4.316490188746614E-1
 8.151456000500000E9     1.396743884987990E-1    5.254614521130967E-1   -3.169135149990358E-3    1.487769620461279E-3   -3.169409850652126E-3    1.556037889037070E-3    2.788206166459977E-1    4.316895265503816E-1
 8.151457968775000E9     1.397865537692067E-1    5.254307115465401E-1   -3.183628580428733E-3    1.515367047410033E-3   -3.225381330286182E-3    1.558587947192830E-3    2.790489621964357E-1    4.315079322936521E-1
 8.151459937050000E9     1.400911729796598E-1    5.253154081286007E-1   -3.195270445069214E-3    1.526145543883536E-3   -3.204357511032947E-3    1.579512923190363E-3    2.791818501561210E-1    4.315021562738641E-1
 8.151461905325000E9     1.400165127741196E-1    5.254177238149438E-1   -3.219023737141136E-3    1.485471063726633E-3   -3.218034018447729E-3    1.589809334111759E-3    2.792964649129130E-1    4.314144931019234E-1
 8.151463873600000E9     1.402274678584820E-1    5.251717599173749E-1   -3.237223682734962E-3    1.529354519177296E-3   -3.232190304462694E-3    1.591299337187808E-3    2.793287557684713E-1    4.312367077193505E-1
 8.151465841875000E9     1.404786281524091E-1    5.251722404766619E-1   -3.210545735543048E-3    1.523461326270236E-3   -3.219111824498627E-3    1.562759778017355E-3    2.794499146893878E-1    4.313352501179277E-1
 8.151467810150000E9     1.406174063556501E-1    5.251294342028021E-1   -3.222981734082240E-3    1.536532255845418E-3   -3.224007839412916E-3    1.594121929783560E-3    2.795796785897276E-1    4.312340138446313E-1
 8.151469778425000E9     1.406906149617164E-1    5.250986187717839E-1   -3.215809519151713E-3    1.523794571311894E-3   -3.215726756177561E-3    1.594610574346403E-3    2.796009709058357E-1    4.310930751692870E-1
 8.151471746700000E9     1.409560490591503E-1    5.250406786160418E-1   -3.225484878637156E-3    1.541411891073041E-3   -3.221623672262486E-3    1.599950270735323E-3    2.797991347681808E-1    4.310188357395578E-1
 8.151473714975000E9     1.411694396083779E-1    5.250278974872362E-1   -3.252947925584791E-3    1.526570917415516E-3   -3.230966851865200E-3    1.619346833513729E-3    2.798179098238203E-1    4.309491190671721E-1
 8.151475683250000E9     1.412694773331425E-1    5.250895889260252E-1   -3.261186023150429E-3    1.542177527743024E-3   -3.244792264936995E-3    1.592564329127519E-3    2.799115741171391E-1    4.308931259930416E-1
 8.151477651525000E9     1.415091557850298E-1    5.250498385564659E-1   -3.250509619900276E-3    1.536441949330519E-3   -3.284402099506538E-3    1.623728826061486E-3    2.800903707060904E-1    4.308148337416551E-1
 8.151479619800000E9     1.416306244848642E-1    5.247029844847388E-1   -3.267832145393923E-3    1.525495771612009E-3   -3.282556447080897E-3    1.611751756869504E-3    2.801243433431174E-1    4.307455423486559E-1
 8.151481588075000E9     1.418890758022104E-1    5.248193656002060E-1   -3.224286418168877E-3    1.561721491318757E-3   -3.242902368697244E-3    1.609202907231927E-3    2.804030408273940E-1    4.306964056136477E-1
 8.151483556350000E9     1.419261310150415E-1    5.246631643647953E-1   -3.281353778832812E-3    1.570272613063351E-3   -3.267922068827316E-3    1.636549771261568E-3    2.803390908903521E-1    4.307029814382037E-1
 8.151485524625000E9     1.421097597452655E-1    5.247457682772302E-1   -3.283117745816638E-3    1.567477028062922E-3   -3.268231937717785E-3    1.642574243300589E-3    2.805561796906343E-1    4.306224396271391E-1
 8.151487492900000E9     1.423368581956563E-1    5.247725310281041E-1   -3.284692828198803E-3    1.606428528214166E-3   -3.296589299962839E-3    1.635635829150231E-3    2.805919515516167E-1    4.303676408714970E-1
 8.151489461175000E9     1.425843111900031E-1    5.245981969183507E-1   -3.274147494823523E-3    1.576398456478120E-3   -3.294885784691718E-3    1.642403824799316E-3    2.805886783016579E-1    4.304406019814554E-1
 8.151491429450000E9     1.427237798927840E-1    5.245369788201600E-1   -3.295893419017489E-3    1.580096389655550E-3   -3.304228467073918E-3    1.677211947589250E-3    2.807475521295702E-1    4.302587882317452E-1
 8.151493397725000E9     1.429405269881687E-1    5.245192366095276E-1   -3.321310717886469E-3    1.572329420307303E-3   -3.325507675078165E-3    1.659014732158478E-3    2.808382379688522E-1    4.301745508099294E-1
 8.151495366000000E9     1.430414904058087E-1    5.244004597893290E-1   -3.299365924872613E-3    1.623369533456452E-3   -3.305978565663818E-3    1.644012140295646E-3    2.809829780605493E-1    4.301613221653011E-1
 8.151497334275000E9     1.432492768286756E-1    5.243896122666282E-1   -3.337268644000370E-3    1.605523043159634E-3   -3.319097550411081E-3    1.656820129635242E-3    2.810599684112508E-1    4.300724857163411E-1
 8.151499302550000E9     1.433225967961330E-1    5.243066492101018E-1   -3.309476911833424E-3    1.607887712519084E-3   -3.323215476079308E-3    1.669486102787246E-3    2.812161792533797E-1    4.299617742774121E-1
 8.151501270825000E9     1.435311127106731E-1    5.243214242210105E-1   -3.321471982250990E-3    1.642579042721534E-3   -3.340013438514095E-3    1.674485302927411E-3    2.813085692700037E-1    4.299103985376738E-1
 8.151503239100000E9     1.437982994724487E-1    5.241453308354450E-1   -3.349618837265834E-3    1.651689808378660E-3   -3.341705736179770E-3    1.685116204762110E-3    2.813912146702448E-1    4.298403745808220E-1
 8.151505207375000E9     1.439124024096774E-1    5.241305730231497E-1   -3.333848212655876E-3    1.633572502829712E-3   -3.360849726735972E-3    1.669282173140180E-3    2.814809641266194E-1    4.297097066972702E-1
 8.151507175650000E9     1.440693125561524E-1    5.239529825592291E-1   -3.356096017755807E-3    1.663766424441299E-3   -3.372273197315400E-3    1.727272428223359E-3    2.815436282426337E-1    4.297085018064054E-1
 8.151509143925000E9     1.442974660095364E-1    5.240882724294966E-1   -3.374163970562403E-3    1.684245878175204E-3   -3.404051273086928E-3    1.735507270678569E-3    2.817545036568546E-1    4.297223174477330E-1
 8.151511112200000E9     1.445579595615276E-1    5.239312958170511E-1   -3.377176805854830E-3    1.657252907831555E-3   -3.341417416655341E-3    1.708731693211879E-3    2.818183992497429E-1    4.295866684619100E-1
 8.151513080475000E9     1.446236417304896E-1    5.238900527771296E-1   -3.382592798172407E-3    1.670535611809153E-3   -3.383088527780929E-3    1.748004474921525E-3    2.819675991520370E-1    4.294814367048397E-1
 8.151515048750000E9     1.447502199622195E-1    5.238925203584309E-1   -3.355942108590679E-3    1.674142924599455E-3   -3.373077090119663E-3    1.733181133044670E-3    2.820597739252126E-1    4.293604103488223E-1
