#  HZ   S   RI   R     50.00 
! Rohde & Schwarz Vector Network Analyzer 
! Rohde-Schwarz,ZNB20-2Port,1311601062101988,3.16
! Created: UTC 3/21/2024, 1:07:55 AM
! freq[Hz]                re:S11                  im:S11                  re:S21                  im:S21                  re:S12                  im:S12                  re:S22                  im:S22
 8.148177165000000E9    -9.982320391625793E-2    5.261431204955216E-1   -2.605069769820981E-3   -1.589410283912100E-4   -2.663815119456359E-3   -1.207901845420208E-4    6.544272872193119E-2    5.079038555239711E-1
 8.148195017875000E9    -9.868808863671771E-2    5.264066780298705E-1   -2.610747225569964E-3   -1.530023380433652E-4   -2.656317070617289E-3   -8.045427541239707E-5    6.633449198906249E-2    5.077111459525656E-1
 8.148212870750000E9    -9.742702815530664E-2    5.265947191003916E-1   -2.616513386963862E-3   -1.244088840047292E-4   -2.662456184557461E-3   -9.267061141260187E-5    6.754993961181648E-2    5.074786240981903E-1
 8.148230723625000E9    -9.620243205914482E-2    5.268927871400402E-1   -2.624993628542241E-3   -1.142282396188993E-4   -2.667977308913468E-3   -6.690992899549011E-5    6.883520149634283E-2    5.072376457591196E-1
 8.148248576500000E9    -9.497198832778876E-2    5.272538509903782E-1   -2.631582167040857E-3   -1.389926945542625E-4   -2.664350851166596E-3   -8.210185055129177E-5    6.996621319988347E-2    5.071029806411417E-1
 8.148266429375000E9    -9.375410558108498E-2    5.274784528227051E-1   -2.612948343770142E-3   -1.110066635235673E-4   -2.636343760587904E-3   -5.194121094201645E-5    7.087749314452224E-2    5.070233996233324E-1
 8.148284282250000E9    -9.246059148952109E-2    5.277245350927838E-1   -2.615188521618055E-3   -1.084281146427044E-4   -2.654377939040134E-3   -7.319900660075373E-5    7.212517758172615E-2    5.067203843249524E-1
 8.148302135125000E9    -9.122601975514148E-2    5.279487277032749E-1   -2.615389884956429E-3   -1.112079013386933E-4   -2.699994764413763E-3   -4.827184146990380E-5    7.340201597114410E-2    5.066378984801037E-1
 8.148319988000000E9    -9.001281456819298E-2    5.281696307323741E-1   -2.626617893804455E-3   -1.213209617944442E-4   -2.652926962167583E-3   -3.328531743444921E-5    7.456246817398077E-2    5.064508580845565E-1
 8.148337840875000E9    -8.874704526661832E-2    5.284293713630169E-1   -2.611843187745444E-3   -9.327566667489422E-5   -2.651475378286219E-3   -1.653283481034553E-5    7.557818180552009E-2    5.064321657419877E-1
 8.148355693750000E9    -8.765579633626143E-2    5.286787486256863E-1   -2.648583833566612E-3   -1.012985361876477E-4   -2.666538062165472E-3   -4.755853153963127E-5    7.684951026778768E-2    5.060217934923580E-1
 8.148373546625000E9    -8.639585791701221E-2    5.287700220149665E-1   -2.607985493616372E-3   -9.971814739330884E-5   -2.693852442401331E-3   -5.912372682681925E-5    7.793569377190822E-2    5.058341484292985E-1
 8.148391399500000E9    -8.519018657090956E-2    5.291489843767788E-1   -2.600672844383608E-3   -9.044108112531469E-5   -2.655416582706849E-3   -2.859352814280934E-5    7.912569432844918E-2    5.055910102586816E-1
 8.148409252375000E9    -8.394775406006524E-2    5.293170160083713E-1   -2.603551326095894E-3   -7.324879610306327E-5   -2.648822447852327E-3   -3.700279576601157E-5    8.027895316856816E-2    5.054145575063506E-1
 8.148427105250000E9    -8.268572770197323E-2    5.295270079331995E-1   -2.616199816938097E-3   -8.165511612524625E-5   -2.631177190868006E-3   -2.283261192305672E-5    8.135437099811729E-2    5.051759777500534E-1
 8.148444958125000E9    -8.147560436897047E-2    5.298715209807251E-1   -2.615294907585025E-3   -6.037000639217928E-5   -2.649762271915770E-3   -1.513139010783039E-5    8.251694429236522E-2    5.049967318969769E-1
 8.148462811000000E9    -8.024338686374402E-2    5.299146402711763E-1   -2.643940311088891E-3   -4.369680128438889E-5   -2.661441297865987E-3   -2.871565796320798E-5    8.377066378142978E-2    5.046958331881518E-1
 8.148480663875000E9    -7.896406691077656E-2    5.301823215915044E-1   -2.594189947129062E-3   -3.154065016387842E-5   -2.641529683858447E-3    1.465130153158126E-5    8.478331868804992E-2    5.045461076356127E-1
 8.148498516750000E9    -7.776876562027936E-2    5.306304138473862E-1   -2.603935145954527E-3   -3.376378671021045E-5   -2.656584039879545E-3    2.570307213756256E-5    8.607222593023968E-2    5.043149812807917E-1
 8.148516369625000E9    -7.666693910573623E-2    5.306374223141319E-1   -2.625457580864472E-3   -4.141791951526185E-5   -2.673308718665039E-3    2.467665040437761E-5    8.710809111131522E-2    5.040818982868295E-1
 8.148534222500000E9    -7.534917244063068E-2    5.308513223569190E-1   -2.623610525926486E-3   -3.121321286858849E-5   -2.659276545184083E-3    1.999932472356985E-8    8.823383177047717E-2    5.040318695901375E-1
 8.148552075375000E9    -7.410543596662772E-2    5.310330610250092E-1   -2.611448438686915E-3   -7.000710462037552E-5   -2.660546542629867E-3    2.654707590792024E-5    8.944786890951890E-2    5.035844332661017E-1
 8.148569928250000E9    -7.284656216431068E-2    5.312995953439876E-1   -2.630086576942324E-3   -2.290820585800394E-5   -2.646517334491135E-3    3.928062040782624E-5    9.051783230445716E-2    5.035747814164009E-1
 8.148587781125000E9    -7.162182255426354E-2    5.313640378320403E-1   -2.630931471037436E-3   -1.963803507501964E-6   -2.626403172346698E-3    2.818695359513548E-5    9.167215519503512E-2    5.031531893984388E-1
 8.148605634000000E9    -7.049116549454316E-2    5.317179037858375E-1   -2.624661774627763E-3    1.331772958178390E-5   -2.679303641983702E-3    4.137695986663751E-5    9.279754362372535E-2    5.030604419718094E-1
 8.148623486875000E9    -6.909402294820734E-2    5.318192626851636E-1   -2.612663681467522E-3   -7.024690909863508E-6   -2.680746087027673E-3    6.246264651167967E-5    9.390903733435317E-2    5.027321972723857E-1
 8.148641339750000E9    -6.801729627425336E-2    5.320882325315411E-1   -2.615396808993744E-3    1.228389796883142E-5   -2.662704668883236E-3    7.351140126628673E-5    9.497825789629818E-2    5.026207907084548E-1
 8.148659192625000E9    -6.676367222275692E-2    5.322573748258105E-1   -2.617571659914626E-3    2.712961556228739E-5   -2.637948369244388E-3    8.623928987190926E-5    9.609994362825210E-2    5.023249010030949E-1
 8.148677045500000E9    -6.546054952595692E-2    5.322960991862353E-1   -2.604063845210700E-3    2.242322608705212E-5   -2.643769863482767E-3    8.476528881213510E-5    9.735135007981965E-2    5.020232262999579E-1
 8.148694898375000E9    -6.422618693748623E-2    5.327272528195682E-1   -2.624499618195365E-3    3.474649639295488E-5   -2.661878506857651E-3    1.068516109503716E-4    9.835142117178888E-2    5.018472895299054E-1
 8.148712751250000E9    -6.293454652413634E-2    5.328287961727164E-1   -2.633848026863299E-3    4.151616966177347E-5   -2.631156828502288E-3    1.022472629274075E-4    9.957889725543607E-2    5.016283647906161E-1
 8.148730604125000E9    -6.188844112180109E-2    5.329864984672279E-1   -2.626629753238656E-3    3.298721951809463E-5   -2.656697228546075E-3    8.310224709757889E-5    1.008717718589409E-1    5.013972228271865E-1
 8.148748457000000E9    -6.053385191506193E-2    5.332053794667386E-1   -2.634947179483584E-3    7.176733942474106E-5   -2.700086356215236E-3    1.317321843369819E-4    1.016277308835645E-1    5.010457949963797E-1
 8.148766309875000E9    -5.930794390077453E-2    5.333020393391343E-1   -2.619176667775569E-3    5.145121461875478E-5   -2.671391780666244E-3    1.085773013826174E-4    1.028532779542368E-1    5.008497652946713E-1
 8.148784162750000E9    -5.787740132301126E-2    5.333693564297033E-1   -2.640017249863284E-3    8.058297800284925E-5   -2.635531558135432E-3    1.083011360973385E-4    1.040738683316119E-1    5.006017491958176E-1
 8.148802015625000E9    -5.688369644241115E-2    5.336437200486541E-1   -2.624102017168635E-3    7.223058650366880E-5   -2.672934792659684E-3    1.232839534250354E-4    1.052065038814768E-1    5.001844794128021E-1
 8.148819868500000E9    -5.565109054503192E-2    5.337881529984040E-1   -2.611878500765807E-3    9.399315366118804E-5   -2.641415831881260E-3    1.220456500943209E-4    1.063321875876180E-1    4.999029563006710E-1
 8.148837721375000E9    -5.439995966606969E-2    5.339853199111808E-1   -2.573872273150259E-3    7.346237417986419E-5   -2.664440053752802E-3    1.293760931351232E-4    1.074810471767446E-1    4.997372470337941E-1
 8.148855574250000E9    -5.319213903814239E-2    5.341935370289410E-1   -2.631686999525815E-3    1.061528427673778E-4   -2.668136657443976E-3    1.472064330834563E-4    1.084923654973892E-1    4.995127423718419E-1
 8.148873427125000E9    -5.196057690325023E-2    5.342421134328326E-1   -2.636188219642862E-3    9.760697952541676E-5   -2.645671787548753E-3    1.311759092585061E-4    1.096633354150592E-1    4.992933242874082E-1
 8.148891280000000E9    -5.059559231058090E-2    5.344050679135728E-1   -2.624495343628617E-3    9.426868863466464E-5   -2.658046181340740E-3    1.250967800068324E-4    1.108345703393798E-1    4.990072345820336E-1
 8.148909132875000E9    -4.956373288610355E-2    5.344757918391436E-1   -2.622355475882276E-3    1.182516108778422E-4   -2.659801251298872E-3    1.529556646735928E-4    1.119249363820116E-1    4.986959871977761E-1
 8.148926985750000E9    -4.818930015849585E-2    5.347360766601198E-1   -2.632717764462324E-3    1.288293602852915E-4   -2.649319575290887E-3    1.540024235935102E-4    1.131566153683606E-1    4.983858035673885E-1
 8.148944838625000E9    -4.699041879459929E-2    5.348864716591768E-1   -2.604924493286336E-3    1.345502260549035E-4   -2.654190195598771E-3    1.721223692674387E-4    1.141664763265580E-1    4.981986606514059E-1
 8.148962691500000E9    -4.581623285073192E-2    5.349995953670101E-1   -2.609559583629260E-3    1.067709037735829E-4   -2.642142654193940E-3    1.636994257750809E-4    1.153921617313012E-1    4.978035296611450E-1
 8.148980544375000E9    -4.445054743650695E-2    5.351452298721791E-1   -2.624165632650901E-3    1.054378101206936E-4   -2.652553074199190E-3    1.627108293102753E-4    1.164951677330748E-1    4.976542865297375E-1
 8.148998397250000E9    -4.326595119354559E-2    5.353049743634009E-1   -2.624662359439485E-3    1.484194110578359E-4   -2.655406060019915E-3    1.859713466481669E-4    1.177248421286418E-1    4.972051767105102E-1
 8.149016250125000E9    -4.195006968448174E-2    5.354153048639774E-1   -2.624145532671251E-3    1.533392737270441E-4   -2.678171270575981E-3    2.013188006885157E-4    1.187492657187914E-1    4.970167948172544E-1
 8.149034103000000E9    -4.081085154921967E-2    5.355384462795292E-1   -2.622592702961937E-3    1.596828539420145E-4   -2.655940790973298E-3    2.019828368773762E-4    1.198213537234017E-1    4.967258404325806E-1
 8.149051955875000E9    -3.961736427947735E-2    5.356548634050178E-1   -2.620445353946501E-3    1.781567343564359E-4   -2.664105645171065E-3    2.014222710333729E-4    1.209307340905918E-1    4.963795583846981E-1
 8.149069808750000E9    -3.829769127916123E-2    5.357241377301030E-1   -2.641074938480402E-3    1.530730412823618E-4   -2.640866965613318E-3    2.191103597332981E-4    1.220160177421097E-1    4.961149219447224E-1
 8.149087661625000E9    -3.700208380748869E-2    5.358559797136909E-1   -2.607048885019392E-3    1.650764002947953E-4   -2.644035317431185E-3    2.073540375191959E-4    1.232029821222946E-1    4.959022837782440E-1
 8.149105514500000E9    -3.588819094885904E-2    5.359119208680397E-1   -2.634157934466602E-3    1.856716928296946E-4   -2.648365635402391E-3    2.392558044122763E-4    1.243499976982709E-1    4.954936812883931E-1
 8.149123367375000E9    -3.444594235171951E-2    5.361308930326928E-1   -2.627010862853441E-3    1.946259625237852E-4   -2.649532865147050E-3    2.152572750872366E-4    1.253548677127205E-1    4.951766833735632E-1
 8.149141220250000E9    -3.338815757872261E-2    5.363013183486994E-1   -2.613879648548954E-3    1.700176167600753E-4   -2.661878804402474E-3    2.341330497145312E-4    1.264777167889745E-1    4.947536904638221E-1
 8.149159073125000E9    -3.215442092477919E-2    5.363034014866647E-1   -2.595551631288885E-3    2.088410420701531E-4   -2.645034864521122E-3    2.520825996496320E-4    1.276226251016724E-1    4.946783894299650E-1
 8.149176926000000E9    -3.092241966635506E-2    5.364609768701902E-1   -2.618972092714637E-3    1.914428696890323E-4   -2.653104066363319E-3    2.609783043447957E-4    1.287235555625140E-1    4.942572737838551E-1
 8.149194778875000E9    -2.966142257303631E-2    5.366163829720388E-1   -2.604797695075056E-3    2.112235272456112E-4   -2.678349932265670E-3    2.533761536873992E-4    1.300050707909867E-1    4.940207782070021E-1
 8.149212631750000E9    -2.836101271816061E-2    5.366682277915726E-1   -2.612724644087260E-3    2.342745891828283E-4   -2.658096888344840E-3    2.745542684863864E-4    1.308525716951676E-1    4.935383173523545E-1
 8.149230484625000E9    -2.722881646923621E-2    5.367625795273085E-1   -2.612611193740673E-3    2.296376933191926E-4   -2.639974856975868E-3    2.672095360542823E-4    1.319937417638619E-1    4.933220497261633E-1
 8.149248337500000E9    -2.597307742869340E-2    5.368624034541957E-1   -2.610865959344991E-3    2.080235573704522E-4   -2.629778719934564E-3    2.780857995939582E-4    1.331639551961717E-1    4.930765495458468E-1
 8.149266190375000E9    -2.468811143643597E-2    5.369475103873952E-1   -2.613243819119200E-3    2.289573706126441E-4   -2.621515238487560E-3    2.738203386542927E-4    1.342673369268969E-1    4.926984612006095E-1
 8.149284043250000E9    -2.352445979653450E-2    5.370500780079750E-1   -2.604459858763095E-3    2.321453420745648E-4   -2.645868952866747E-3    3.268574463978173E-4    1.354787354569362E-1    4.923886977082338E-1
 8.149301896125000E9    -2.217524828216336E-2    5.370711325092128E-1   -2.627730350379414E-3    2.245764758583094E-4   -2.640627115805095E-3    3.160736553337377E-4    1.365586607535251E-1    4.921955241057116E-1
 8.149319749000000E9    -2.094710130711251E-2    5.371546366931446E-1   -2.612207827093612E-3    2.341483722017027E-4   -2.626010704333656E-3    3.047114691420791E-4    1.376410607905091E-1    4.916718334866821E-1
 8.149337601875000E9    -1.980180977493248E-2    5.372036359027522E-1   -2.617668174767208E-3    2.723277102798856E-4   -2.656022054131229E-3    3.098767548978488E-4    1.386929580535568E-1    4.913978832017986E-1
 8.149355454750000E9    -1.844205676122663E-2    5.373061904205864E-1   -2.621475785713353E-3    2.495636673660780E-4   -2.613195041457719E-3    3.237252702065747E-4    1.398119176996509E-1    4.909490388717330E-1
 8.149373307625000E9    -1.729303090259742E-2    5.373761506404267E-1   -2.608562954353720E-3    2.738410462191544E-4   -2.637052176908343E-3    3.086933188104290E-4    1.408534851858289E-1    4.905524857096872E-1
 8.149391160500000E9    -1.601797899319319E-2    5.373932428429046E-1   -2.613799552067511E-3    2.397795242042674E-4   -2.657225508640439E-3    3.223276061708127E-4    1.419834250088954E-1    4.902067069549608E-1
 8.149409013375000E9    -1.481954380842068E-2    5.374591601908951E-1   -2.617188056384208E-3    2.755830780668581E-4   -2.653668046657309E-3    3.412724003052381E-4    1.431670924228945E-1    4.899527415462904E-1
 8.149426866250000E9    -1.353303478866596E-2    5.376222119822813E-1   -2.597255694218305E-3    2.646973012156222E-4   -2.620073093829669E-3    3.014808603283888E-4    1.441875370146364E-1    4.896593788311669E-1
 8.149444719125000E9    -1.233380456985677E-2    5.376689901380790E-1   -2.617535045243302E-3    2.996886716767378E-4   -2.610957149264493E-3    3.849098354609361E-4    1.454625564855195E-1    4.893130348513833E-1
 8.149462572000000E9    -1.111091726733942E-2    5.377291968323438E-1   -2.608086582327431E-3    3.027541170680506E-4   -2.631822721434019E-3    3.516168637532314E-4    1.465659528650377E-1    4.889785132578703E-1
 8.149480424875000E9    -9.745578284696493E-3    5.376606117001330E-1   -2.609780838081788E-3    3.103041946369806E-4   -2.630327093809213E-3    3.792095198071261E-4    1.475138574966184E-1    4.884404625956253E-1
 8.149498277750000E9    -8.644670560947750E-3    5.377815075531566E-1   -2.615797697967025E-3    3.018810042224464E-4   -2.643154720223116E-3    3.932270640954621E-4    1.485734149028890E-1    4.883192523418199E-1
 8.149516130625000E9    -7.350757697388718E-3    5.378797923093702E-1   -2.590713217711121E-3    3.522116347596993E-4   -2.638908562401698E-3    3.678234186807177E-4    1.496728222653606E-1    4.878623061549926E-1
 8.149533983500000E9    -6.150004334060502E-3    5.378280501158101E-1   -2.597830745304971E-3    3.513564426872267E-4   -2.636575131032267E-3    3.798730168599185E-4    1.508170119956670E-1    4.874830849380715E-1
 8.149551836375000E9    -4.801740638349170E-3    5.378987940837368E-1   -2.599508376749278E-3    3.177286142367205E-4   -2.614167742620277E-3    3.588623231496221E-4    1.520293461178199E-1    4.871868846642314E-1
 8.149569689250000E9    -3.560065238095942E-3    5.379677851681772E-1   -2.597646789014810E-3    3.593978500539223E-4   -2.634943221955908E-3    3.791307935458079E-4    1.528773257501287E-1    4.867596002072067E-1
 8.149587542125000E9    -2.408999780877899E-3    5.380631966373508E-1   -2.613143427512008E-3    3.480549691372010E-4   -2.606599169488387E-3    3.903917240690681E-4    1.541608877721484E-1    4.865006172355832E-1
 8.149605395000000E9    -1.152531367496010E-3    5.380308568948386E-1   -2.602169653519066E-3    3.699913239301288E-4   -2.632899218136219E-3    3.895540065696542E-4    1.550430352789814E-1    4.859893910320041E-1
 8.149623247875000E9     1.436078292619698E-4    5.381369031245532E-1   -2.639728283551331E-3    3.728034794441735E-4   -2.657356644056677E-3    4.184867152561791E-4    1.563221873642551E-1    4.856929385388115E-1
 8.149641100750000E9     1.323184593767558E-3    5.380804251603896E-1   -2.598247462795836E-3    3.765645318507828E-4   -2.650373612700708E-3    4.351020204089278E-4    1.573557795189743E-1    4.854529822077013E-1
 8.149658953625000E9     2.654237778526723E-3    5.381648603005440E-1   -2.614216853367142E-3    3.593599389842893E-4   -2.645816066001254E-3    4.360931280873601E-4    1.584170602894288E-1    4.849025723078758E-1
 8.149676806500000E9     3.873822292839608E-3    5.381400115065839E-1   -2.615344441160489E-3    3.893503311937490E-4   -2.638947492425002E-3    4.299549410024951E-4    1.593815102753946E-1    4.845147569490893E-1
 8.149694659375000E9     5.202946993949837E-3    5.381666463882793E-1   -2.622432846191737E-3    3.866967298497392E-4   -2.605892980509347E-3    4.492222379469787E-4    1.605879240475108E-1    4.841269830494333E-1
 8.149712512250000E9     6.423877544608013E-3    5.382227583064726E-1   -2.595639798058618E-3    3.709723279783725E-4   -2.622155553870074E-3    4.238821868288220E-4    1.616832426592082E-1    4.837426227718699E-1
 8.149730365125000E9     7.517212626646216E-3    5.382319385926102E-1   -2.604433590551350E-3    3.691333202422941E-4   -2.669478027091872E-3    4.653328161281215E-4    1.628097593731314E-1    4.833307362300699E-1
 8.149748218000000E9     8.837844960300699E-3    5.381545777951786E-1   -2.609920527663538E-3    4.340344563795952E-4   -2.619871046215602E-3    4.533747653959381E-4    1.637518264545111E-1    4.830629679204910E-1
 8.149766070875000E9     9.980321601157765E-3    5.382693140179937E-1   -2.614406777474138E-3    4.290727339158596E-4   -2.607068014282335E-3    4.660222069315626E-4    1.648822400324753E-1    4.824473892557615E-1
 8.149783923750000E9     1.136508299638737E-2    5.383569147823541E-1   -2.603714479782987E-3    4.307389220621457E-4   -2.651051592654870E-3    4.761961473369387E-4    1.661092104141729E-1    4.821256256350555E-1
