#  HZ   S   RI   R     50.00 
! Rohde & Schwarz Vector Network Analyzer 
! Rohde-Schwarz,ZNB20-2Port,1311601062101988,3.16
! Created: UTC 3/21/2024, 1:08:22 AM
! freq[Hz]                re:S11                  im:S11                  re:S21                  im:S21                  re:S12                  im:S12                  re:S22                  im:S22
 8.148492638000000E9    -7.856997457324420E-2    5.301523252940940E-1   -2.619680195492060E-3   -3.334528232018585E-5   -2.672123162482924E-3    3.305471654959599E-5    8.529451204114248E-2    5.046869586562238E-1
 8.148509149250000E9    -7.761296798942648E-2    5.304160160434105E-1   -2.622695826676384E-3   -5.931800685359552E-5   -2.667693058800304E-3    2.305135672367402E-5    8.646246323207261E-2    5.043275632534792E-1
 8.148525660500000E9    -7.632281917379750E-2    5.306526059809711E-1   -2.621990874753835E-3   -1.927500915452251E-5   -2.644837769436928E-3    3.879554340202048E-5    8.747664857689358E-2    5.041205013177366E-1
 8.148542171750000E9    -7.511086935238451E-2    5.308503349325386E-1   -2.599559745588128E-3   -2.943135927179717E-5   -2.664837549126704E-3    1.634438835090906E-7    8.854121538881432E-2    5.039287292499547E-1
 8.148558683000000E9    -7.410320778551481E-2    5.311464877549062E-1   -2.601681125996909E-3   -2.583244613904231E-5   -2.690280601294397E-3    3.738694059016830E-5    8.954933135096796E-2    5.037427455221988E-1
 8.148575194250000E9    -7.280483771811366E-2    5.311587663549521E-1   -2.654349254605987E-3   -2.841028099438236E-5   -2.647184600275318E-3    4.141686133271439E-5    9.073141194902043E-2    5.034466119965644E-1
 8.148591705500000E9    -7.167539104936856E-2    5.314109535519258E-1   -2.619815346827030E-3   -2.293732458445075E-5   -2.653404065045576E-3    5.293313832133701E-5    9.172423570567056E-2    5.032825956496086E-1
 8.148608216750000E9    -7.063000738253043E-2    5.316742642469816E-1   -2.610881642773516E-3   -2.391085057369023E-5   -2.663599002981967E-3    3.979232361317927E-5    9.279085682617651E-2    5.030193949401233E-1
 8.148624728000000E9    -6.946987180067442E-2    5.318125357567504E-1   -2.622990209877726E-3   -8.500661542237274E-6   -2.682732548124903E-3    6.526809349208059E-5    9.385192870972646E-2    5.029612500728822E-1
 8.148641239250000E9    -6.827677036219337E-2    5.319536870708634E-1   -2.591509186587610E-3   -1.818689431937536E-6   -2.656039729466310E-3    8.733114753325358E-5    9.481386810131086E-2    5.026117963072300E-1
 8.148657750500000E9    -6.722934863954892E-2    5.321911392237848E-1   -2.628824933977840E-3    2.798510153707238E-5   -2.671613712093490E-3    8.766637591268384E-5    9.582781176317777E-2    5.024191167690593E-1
 8.148674261750000E9    -6.601017862118264E-2    5.322659405194288E-1   -2.610025474270172E-3    1.156396772531891E-5   -2.663683938031907E-3    3.955113956469400E-5    9.692537009959147E-2    5.022378972917722E-1
 8.148690773000000E9    -6.480160518838272E-2    5.325629958950062E-1   -2.637308579806286E-3    3.166178476177644E-5   -2.645869483399389E-3    7.162189791168175E-5    9.793765825587690E-2    5.020288742219112E-1
 8.148707284250000E9    -6.367683771372729E-2    5.326323894354643E-1   -2.646370990870230E-3    6.759293129898524E-6   -2.646791439770557E-3    6.434279075282019E-5    9.902941454878883E-2    5.017589378501602E-1
 8.148723795500000E9    -6.254821784157226E-2    5.327823446638927E-1   -2.619079669879789E-3    6.271376394341156E-5   -2.687879003579324E-3    9.869875409736971E-5    1.002140709495170E-1    5.015896419214854E-1
 8.148740306750000E9    -6.145756687124968E-2    5.329111534642685E-1   -2.624711169269155E-3    5.046415959501926E-5   -2.657053697425270E-3    1.005700254255414E-4    1.012655015551675E-1    5.013696135805557E-1
 8.148756818000000E9    -6.030402437818572E-2    5.331968364532246E-1   -2.632429772061462E-3    5.206841303260361E-5   -2.694344276611759E-3    1.005807966231581E-4    1.021957812309261E-1    5.011633401644774E-1
 8.148773329250000E9    -5.918665821358288E-2    5.333054863522417E-1   -2.618329738886982E-3    5.716806182210557E-5   -2.631984092984697E-3    8.436393240589306E-5    1.032450114570958E-1    5.009709484333923E-1
 8.148789840500000E9    -5.797799622098412E-2    5.333765279624213E-1   -2.613585079493864E-3    8.154457180677892E-5   -2.658981254093186E-3    1.112836975608695E-4    1.041470063668554E-1    5.005906676697678E-1
 8.148806351750000E9    -5.685851952237062E-2    5.336597150984266E-1   -2.630030261631311E-3    7.893275123296994E-5   -2.677663439365251E-3    1.159056408324874E-4    1.052824750355079E-1    5.004592000741748E-1
 8.148822863000000E9    -5.571835435140342E-2    5.337772495870224E-1   -2.606831611448369E-3    6.163731453742193E-5   -2.633814683618978E-3    1.420531692238628E-4    1.063196476886105E-1    5.000853233958797E-1
 8.148839374250000E9    -5.468118783614827E-2    5.339649441913866E-1   -2.625925141080560E-3    7.603748078196532E-5   -2.650892310431986E-3    1.513603393903966E-4    1.074891798888015E-1    4.996777622343547E-1
 8.148855885500000E9    -5.344330154851504E-2    5.340527056580259E-1   -2.626975247797767E-3    7.776033461510291E-5   -2.637904099895706E-3    1.551926818553550E-4    1.085338453582228E-1    4.996191027746951E-1
 8.148872396750000E9    -5.237386139188999E-2    5.341296228000342E-1   -2.607016104356251E-3    8.690335287089768E-5   -2.648514340724349E-3    1.648983062107182E-4    1.094240557852487E-1    4.993878144483387E-1
 8.148888908000000E9    -5.117038029041483E-2    5.343428051358650E-1   -2.607377828577690E-3    8.260048635850299E-5   -2.634099277335469E-3    1.396577330156541E-4    1.106047619330856E-1    4.990933945961178E-1
 8.148905419250000E9    -5.004369542882881E-2    5.344062685065314E-1   -2.613761740652600E-3    9.932412220542323E-5   -2.661846547871211E-3    1.416223155143945E-4    1.116471814767610E-1    4.988697352349810E-1
 8.148921930500000E9    -4.886645050591006E-2    5.345937660719463E-1   -2.628325298278765E-3    1.169581376221199E-4   -2.675739867431158E-3    1.743276897613550E-4    1.125774432568281E-1    4.986552261888213E-1
 8.148938441750000E9    -4.772174536454807E-2    5.347693858338773E-1   -2.628367388521900E-3    1.069268812408863E-4   -2.649927336801628E-3    1.545566108007249E-4    1.134659975495532E-1    4.983648216232942E-1
 8.148954953000000E9    -4.656477084304802E-2    5.348971253422836E-1   -2.639950386091545E-3    1.031861335107890E-4   -2.631240428532181E-3    1.573800475212779E-4    1.146537322948529E-1    4.980917965725604E-1
 8.148971464250000E9    -4.547736507151560E-2    5.350275261140969E-1   -2.605371591648533E-3    1.178036464821511E-4   -2.647175090494623E-3    1.731467627477634E-4    1.156817572421902E-1    4.978433151460850E-1
 8.148987975500000E9    -4.428731769343595E-2    5.350331650390183E-1   -2.617563152615869E-3    1.402125891592281E-4   -2.646858570451383E-3    1.552859755084137E-4    1.166353267051168E-1    4.976563660847720E-1
 8.149004486750000E9    -4.312760605908543E-2    5.352884140767429E-1   -2.634010891077771E-3    1.278635370327590E-4   -2.662134358978836E-3    1.592573943796947E-4    1.177548990141511E-1    4.973817516536006E-1
 8.149020998000000E9    -4.207080635127181E-2    5.353271954700574E-1   -2.640001338163212E-3    1.665129983497374E-4   -2.659011220589634E-3    2.048702670960832E-4    1.189122549083290E-1    4.970093712525298E-1
 8.149037509250000E9    -4.084057856572700E-2    5.353930044943961E-1   -2.626008028407234E-3    1.653626734052500E-4   -2.627868718885710E-3    2.186443484738859E-4    1.199990283334624E-1    4.967179427732145E-1
 8.149054020500000E9    -3.978874767423906E-2    5.355894704034997E-1   -2.606679907133436E-3    1.554163944140014E-4   -2.658501553210700E-3    1.895622764335369E-4    1.210205474487311E-1    4.964990302018198E-1
 8.149070531750000E9    -3.871451924673303E-2    5.356596526706300E-1   -2.594978115299349E-3    1.562594440509744E-4   -2.639915126954127E-3    1.927149191137418E-4    1.219768217582542E-1    4.961002613832142E-1
 8.149087043000000E9    -3.742554224540558E-2    5.358938920547694E-1   -2.613128643421381E-3    1.364941102744049E-4   -2.643745461074331E-3    2.309762686605537E-4    1.229786886869460E-1    4.958750066587298E-1
 8.149103554250000E9    -3.635481462060033E-2    5.359135183201480E-1   -2.616206903056086E-3    1.754255652898704E-4   -2.684817737753796E-3    2.320824976287717E-4    1.242107436266698E-1    4.957506210055838E-1
 8.149120065500000E9    -3.522490976413220E-2    5.359589017350088E-1   -2.636321994983312E-3    1.614905749573344E-4   -2.667191728178515E-3    2.435880221673715E-4    1.251190255247930E-1    4.953892978062068E-1
 8.149136576750000E9    -3.384804789424303E-2    5.359714710698842E-1   -2.602531873247721E-3    1.963627440211041E-4   -2.656803768431310E-3    2.283317597066511E-4    1.260376771290495E-1    4.951671264206900E-1
 8.149153088000000E9    -3.288860579874679E-2    5.361331855460458E-1   -2.625490991699241E-3    1.784231416055001E-4   -2.661140783565967E-3    2.636378319657433E-4    1.271525179262721E-1    4.948680834511815E-1
 8.149169599250000E9    -3.159205494478465E-2    5.361585779035608E-1   -2.606212348361946E-3    1.865188575567313E-4   -2.646980556719913E-3    2.125615365449985E-4    1.281606919627868E-1    4.944873525992263E-1
 8.149186110500000E9    -3.055335868249735E-2    5.363520027582197E-1   -2.601294669037449E-3    1.886216913679021E-4   -2.670949476387262E-3    2.516164028815733E-4    1.291204218290224E-1    4.941251578391089E-1
 8.149202621750000E9    -2.939467856843673E-2    5.364192114048345E-1   -2.622287302734408E-3    2.135709964160523E-4   -2.662221636118563E-3    2.719612178632352E-4    1.302934879794542E-1    4.939318548435054E-1
 8.149219133000000E9    -2.836432611478450E-2    5.365813491545858E-1   -2.618293693883208E-3    2.074300762729161E-4   -2.656932408816710E-3    2.645452103246382E-4    1.312930260260126E-1    4.935476049403362E-1
 8.149235644250000E9    -2.716917878358579E-2    5.366758384875421E-1   -2.604222498522674E-3    2.110307804111047E-4   -2.667933407375937E-3    2.799697705944323E-4    1.322792314207309E-1    4.933792578973630E-1
 8.149252155500000E9    -2.607481317494568E-2    5.368080200977989E-1   -2.631601764337209E-3    2.317401673193534E-4   -2.620160814709454E-3    2.694797377508684E-4    1.333611697664120E-1    4.930927112441956E-1
 8.149268666750000E9    -2.480272948838004E-2    5.369085497995367E-1   -2.604248243535080E-3    2.264801392437666E-4   -2.674420861872997E-3    2.812599694779270E-4    1.342879360072116E-1    4.926771055545547E-1
 8.149285178000000E9    -2.368631809893466E-2    5.369287840212047E-1   -2.586746930165807E-3    2.248010792955386E-4   -2.650846560457456E-3    2.666511469766824E-4    1.352616497092112E-1    4.923617935755414E-1
 8.149301689250000E9    -2.260315072470352E-2    5.370307101333498E-1   -2.601509666980709E-3    2.454820366583457E-4   -2.618966658702350E-3    2.848919386386830E-4    1.364408225492580E-1    4.922535301323623E-1
 8.149318200500000E9    -2.136697298353623E-2    5.370407618031182E-1   -2.624732740893753E-3    2.204793857789334E-4   -2.648554059840760E-3    2.911750401360738E-4    1.374337299222484E-1    4.918968845821211E-1
 8.149334711750000E9    -2.021790837656692E-2    5.372846550900334E-1   -2.600277064532444E-3    2.377062212109933E-4   -2.655354210015190E-3    3.021907114028914E-4    1.383888613220868E-1    4.914671068600512E-1
 8.149351223000000E9    -1.910645170376928E-2    5.371987650990389E-1   -2.602734313878685E-3    2.632967792959089E-4   -2.628824803227289E-3    2.971745856121366E-4    1.394689581067764E-1    4.911523856222181E-1
 8.149367734250000E9    -1.790421311645517E-2    5.372100090723128E-1   -2.599272139854923E-3    2.722582064629163E-4   -2.641408420931736E-3    3.139340045596289E-4    1.404529847557340E-1    4.909999636401670E-1
 8.149384245500000E9    -1.683952153555652E-2    5.373041066841131E-1   -2.601187856485551E-3    2.664669271423948E-4   -2.658005254377206E-3    3.209416310535508E-4    1.415309451762892E-1    4.906811593650905E-1
 8.149400756750000E9    -1.570043916462809E-2    5.373037640718556E-1   -2.624312293554677E-3    2.821307750021290E-4   -2.639277938222364E-3    3.222724232603860E-4    1.424507627028270E-1    4.902655380440228E-1
 8.149417268000000E9    -1.445796377589998E-2    5.373915991299426E-1   -2.618197446023836E-3    2.720596701871061E-4   -2.648158415241880E-3    3.567128003104795E-4    1.434327631233714E-1    4.900285836767309E-1
 8.149433779250000E9    -1.352391468925494E-2    5.376516434549243E-1   -2.616468387397344E-3    2.926448978497353E-4   -2.641765977662967E-3    3.543946779864214E-4    1.444504108468111E-1    4.896666565625279E-1
 8.149450290500000E9    -1.214590106934308E-2    5.375585359705131E-1   -2.609320239731867E-3    2.859489502742128E-4   -2.653408624025282E-3    3.599630251463165E-4    1.455347960714443E-1    4.894012798319581E-1
 8.149466801750000E9    -1.111336170698541E-2    5.376480524983424E-1   -2.612583260210428E-3    2.924172731289967E-4   -2.658295969107992E-3    3.633023815230027E-4    1.464929576151083E-1    4.889504516077216E-1
 8.149483313000000E9    -9.907091802169617E-3    5.377547117715640E-1   -2.621980031795148E-3    3.138613020937086E-4   -2.647549541097265E-3    3.364686807964027E-4    1.476765449151856E-1    4.886183708019510E-1
 8.149499824250000E9    -8.791926863425153E-3    5.377223226454039E-1   -2.592499759630568E-3    3.126305104249435E-4   -2.655274160481816E-3    4.018024343462047E-4    1.484749211266247E-1    4.882374037535284E-1
 8.149516335500000E9    -7.654881258904074E-3    5.377438470403928E-1   -2.603875365627660E-3    3.225189481654738E-4   -2.630790078422383E-3    3.506642641342137E-4    1.494315272819808E-1    4.878804739683243E-1
 8.149532846750000E9    -6.471648183403127E-3    5.377793458092232E-1   -2.609494058764700E-3    3.188794687979591E-4   -2.652134425965095E-3    4.065828873285347E-4    1.505129464845798E-1    4.875663167227178E-1
 8.149549358000000E9    -5.310646647917994E-3    5.379422265040573E-1   -2.618354658288985E-3    3.151288849299785E-4   -2.649513691363006E-3    3.947897758358240E-4    1.515394376427297E-1    4.872460319747836E-1
 8.149565869250000E9    -4.216304617655087E-3    5.379168327347992E-1   -2.634495004490014E-3    3.423810225865709E-4   -2.641757132816583E-3    3.840248507663879E-4    1.526165119298898E-1    4.870844952489597E-1
 8.149582380500000E9    -3.043663824633377E-3    5.379684104837914E-1   -2.584759124048793E-3    3.555011211056291E-4   -2.673846077878766E-3    3.911111540886479E-4    1.536841056981407E-1    4.866146980041049E-1
 8.149598891750000E9    -1.797153287074667E-3    5.379324462382093E-1   -2.590168836294497E-3    3.498299754871166E-4   -2.610666839540881E-3    4.370414929623588E-4    1.546468981905997E-1    4.862252099517506E-1
 8.149615403000000E9    -7.940501984367364E-4    5.380202807981244E-1   -2.623342728673243E-3    3.441905301381347E-4   -2.635527232782719E-3    3.943514132491074E-4    1.555662220709861E-1    4.859313261276721E-1
 8.149631914250000E9     4.372551167860867E-4    5.380048921802206E-1   -2.614005809162260E-3    3.780261399008184E-4   -2.598705388771609E-3    3.756973294765316E-4    1.567457225228392E-1    4.856072244321236E-1
 8.149648425500000E9     1.618162633470328E-3    5.379788764438200E-1   -2.618589648545392E-3    3.734680349324129E-4   -2.648199980476321E-3    4.379945691380457E-4    1.576837836603788E-1    4.851859198532315E-1
 8.149664936750000E9     2.714743984656115E-3    5.382456757053310E-1   -2.616551310635712E-3    3.651863830675613E-4   -2.635730524267437E-3    4.430832121821997E-4    1.587265529381910E-1    4.848784475156285E-1
 8.149681448000000E9     3.828209310397884E-3    5.380631417392037E-1   -2.601833662126446E-3    3.878802431089513E-4   -2.649510563709192E-3    4.082194583776777E-4    1.597386080808074E-1    4.845953109459778E-1
 8.149697959250000E9     5.017884907825220E-3    5.380943449715333E-1   -2.617681067436004E-3    3.778938727306596E-4   -2.639657151161994E-3    4.187303740323919E-4    1.606250002679538E-1    4.842121095371469E-1
 8.149714470500000E9     6.166634723043167E-3    5.381671003615486E-1   -2.592020997256039E-3    4.072082659892166E-4   -2.621641020549563E-3    4.401935902105626E-4    1.616997568522256E-1    4.838277722778445E-1
 8.149730981750000E9     7.310450287254950E-3    5.381220107588250E-1   -2.620336623957073E-3    3.849484312926021E-4   -2.599071585973747E-3    4.358727416345955E-4    1.628149526944551E-1    4.835500357273442E-1
 8.149747493000000E9     8.449462154670972E-3    5.381213852615474E-1   -2.620715922756176E-3    4.048400778383205E-4   -2.608434028438296E-3    4.619700618585033E-4    1.635889942165186E-1    4.831720285943157E-1
 8.149764004250000E9     9.567298112206846E-3    5.382335402336094E-1   -2.604543000958952E-3    3.853569880843965E-4   -2.646317297764505E-3    4.552374309551906E-4    1.647008193798188E-1    4.827914755820209E-1
 8.149780515500000E9     1.073501888134069E-2    5.381311588878620E-1   -2.619281294570477E-3    4.293853692738411E-4   -2.638804478429285E-3    4.708947870503055E-4    1.657453946476637E-1    4.823315143794896E-1
 8.149797026750000E9     1.189433984262646E-2    5.381608077074004E-1   -2.586875966003619E-3    4.263792205190005E-4   -2.628787342145569E-3    4.833403478140812E-4    1.665350932839325E-1    4.818366419905368E-1
 8.149813538000000E9     1.307981238351969E-2    5.382347648817396E-1   -2.606948043183946E-3    4.410375760057122E-4   -2.636622440514002E-3    5.085352842833652E-4    1.677104243643970E-1    4.816817405304454E-1
 8.149830049250000E9     1.417844587605469E-2    5.381686911928873E-1   -2.593280735100997E-3    4.366068335946785E-4   -2.649874417508071E-3    4.893375047138191E-4    1.685945071260334E-1    4.812181959177155E-1
 8.149846560500000E9     1.543863233173789E-2    5.381303671456348E-1   -2.580382806670950E-3    4.630584827892062E-4   -2.654553600744197E-3    4.978044852322989E-4    1.698381118072440E-1    4.809044680934367E-1
 8.149863071750000E9     1.653567463700946E-2    5.381775795744054E-1   -2.597141474168230E-3    4.400327088398547E-4   -2.650738876171317E-3    4.963326397962996E-4    1.706652841163161E-1    4.805766075918547E-1
 8.149879583000000E9     1.758329604101980E-2    5.380543445720235E-1   -2.587125548282083E-3    4.288516929216348E-4   -2.605397005331851E-3    4.624515419779234E-4    1.716861674945958E-1    4.800708386037760E-1
 8.149896094250000E9     1.880486356332490E-2    5.381603115976688E-1   -2.603744396420919E-3    4.533960179581394E-4   -2.640825826223583E-3    5.204581104698064E-4    1.727077076310903E-1    4.797540297226149E-1
 8.149912605500000E9     1.993301006831032E-2    5.381221483064438E-1   -2.626524790215643E-3    4.573737030773811E-4   -2.609952291013689E-3    5.274960053288055E-4    1.736376906459768E-1    4.793018324173901E-1
 8.149929116750000E9     2.095976361512829E-2    5.382117797872751E-1   -2.595093972941305E-3    4.746303238641129E-4   -2.631613398775888E-3    5.252721616486653E-4    1.746091267917685E-1    4.789813147597611E-1
 8.149945628000000E9     2.227590529678093E-2    5.381085261938623E-1   -2.596975255085317E-3    4.709313644825842E-4   -2.602953479020748E-3    5.539685313389281E-4    1.755939765159907E-1    4.786399642379970E-1
 8.149962139250000E9     2.336142599619444E-2    5.379141091510025E-1   -2.623367610754650E-3    4.844191377343430E-4   -2.629440304953482E-3    5.363031444198963E-4    1.767277603977500E-1    4.783837307204992E-1
 8.149978650500000E9     2.460761300484689E-2    5.380627695522019E-1   -2.616383085009704E-3    4.947313871404990E-4   -2.615945402435494E-3    5.399928453871123E-4    1.776045995742012E-1    4.777865122894251E-1
