#  HZ   S   RI   R     50.00 
! Rohde & Schwarz Vector Network Analyzer 
! Rohde-Schwarz,ZNB20-2Port,1311601062101988,3.16
! Created: UTC 3/21/2024, 1:08:40 AM
! freq[Hz]                re:S11                  im:S11                  re:S21                  im:S21                  re:S12                  im:S12                  re:S22                  im:S22
 8.148770780000000E9    -5.954959620372650E-2    5.331872910140953E-1   -2.631461770132195E-3    7.150853095124610E-5   -2.664305292786543E-3    1.086524984310562E-4    1.028733928192039E-1    5.009095700311763E-1
 8.148786083950000E9    -5.855463590940505E-2    5.333640933531715E-1   -2.614522234762046E-3    6.254451143305772E-5   -2.655294255344868E-3    1.107936810819392E-4    1.038289845916230E-1    5.005958013897446E-1
 8.148801387900000E9    -5.761527729804801E-2    5.334377097474875E-1   -2.637811478193217E-3    3.927453069193978E-5   -2.655972550494398E-3    1.124133610598013E-4    1.049093817678133E-1    5.004664799241452E-1
 8.148816691850000E9    -5.651060298099767E-2    5.335831489885193E-1   -2.625987722219754E-3    4.832295503862641E-5   -2.653160862090017E-3    1.294321748222876E-4    1.057326985330689E-1    5.001448598902106E-1
 8.148831995800000E9    -5.537749879944418E-2    5.338309290438026E-1   -2.614824394286440E-3    6.536792389505066E-5   -2.675369532025676E-3    1.269351643010171E-4    1.067546431493210E-1    4.998122742612470E-1
 8.148847299750000E9    -5.422035477456815E-2    5.338797610663759E-1   -2.612044513519463E-3    1.168337834189337E-4   -2.648348195867691E-3    9.192688096912576E-5    1.076581910207378E-1    4.997574366861453E-1
 8.148862603700000E9    -5.330401961323235E-2    5.340841240647128E-1   -2.603528700227831E-3    7.681574302508890E-5   -2.645949523921765E-3    1.418264857814160E-4    1.086480722390750E-1    4.996292045933907E-1
 8.148877907650000E9    -5.224164777302998E-2    5.342636596275461E-1   -2.600743163366748E-3    8.266443327466538E-5   -2.636014061972264E-3    1.575634269489526E-4    1.096709988037652E-1    4.993138104094308E-1
 8.148893211600000E9    -5.117489890764378E-2    5.343068544195267E-1   -2.595788786527716E-3    7.856111261171640E-5   -2.683308576721569E-3    1.570759125692499E-4    1.105980191979156E-1    4.990611995248269E-1
 8.148908515550000E9    -5.000056093858699E-2    5.344243908070293E-1   -2.643165169357505E-3    9.470867945742491E-5   -2.624968131435289E-3    1.307594588260311E-4    1.116146065210432E-1    4.988416090295148E-1
 8.148923819500000E9    -4.899482160879602E-2    5.346137062681727E-1   -2.611250665435173E-3    1.138162321641336E-4   -2.621888215036219E-3    1.781352688578924E-4    1.125631366204017E-1    4.986743761881517E-1
 8.148939123450000E9    -4.792181500307985E-2    5.347385597988384E-1   -2.613074801386736E-3    1.245483163763463E-4   -2.628845247553169E-3    1.500880936872833E-4    1.134651063731878E-1    4.984812042258450E-1
 8.148954427400000E9    -4.686192819179170E-2    5.347588282000655E-1   -2.609510261386780E-3    1.310238939434585E-4   -2.620870986080969E-3    1.939917603925905E-4    1.144878467621348E-1    4.981095448354063E-1
 8.148969731350000E9    -4.576937086269909E-2    5.350125199519534E-1   -2.612752552066446E-3    1.228638832430929E-4   -2.634338022009039E-3    1.587928051555532E-4    1.153677568432818E-1    4.979331298945305E-1
 8.148985035300000E9    -4.480106939965861E-2    5.350828515725436E-1   -2.630621294168760E-3    1.314292234377380E-4   -2.649825898548239E-3    1.745725478286568E-4    1.163091180392293E-1    4.977664948343621E-1
 8.149000339250000E9    -4.367863656918224E-2    5.351933309620316E-1   -2.611336003438923E-3    1.664982014089371E-4   -2.640017394556686E-3    1.966121634034074E-4    1.173473441078221E-1    4.972809289587900E-1
 8.149015643200000E9    -4.264989811961820E-2    5.353706976242953E-1   -2.652343014763032E-3    1.476454898181882E-4   -2.619845427015112E-3    1.693444030338846E-4    1.183678228217234E-1    4.971808207635674E-1
 8.149030947150000E9    -4.164357860160394E-2    5.352850270424500E-1   -2.616906380917758E-3    1.534306859745494E-4   -2.658276747867924E-3    1.935095438241295E-4    1.194149350872270E-1    4.968648384087717E-1
 8.149046251100000E9    -4.048173629812332E-2    5.354327348664282E-1   -2.614996383726650E-3    1.408914010854841E-4   -2.652930299987332E-3    2.123519343355306E-4    1.203191285463425E-1    4.966958344104190E-1
 8.149061555050000E9    -3.942198582337846E-2    5.356190141259980E-1   -2.616580214334443E-3    1.643074690125359E-4   -2.637560371135607E-3    1.822732403064884E-4    1.211290212738589E-1    4.962200026260245E-1
 8.149076859000000E9    -3.844988374819468E-2    5.357678893826483E-1   -2.619310681560152E-3    1.596923733982139E-4   -2.632693220963733E-3    1.986572676388570E-4    1.222549028441944E-1    4.961839171143119E-1
 8.149092162950000E9    -3.729159144268106E-2    5.357839633640628E-1   -2.628472751975648E-3    1.611512776303415E-4   -2.647412226057579E-3    1.988994136851683E-4    1.231748301469502E-1    4.959124048284189E-1
 8.149107466900000E9    -3.622398226677747E-2    5.359423809953945E-1   -2.599865587369194E-3    1.595069473681068E-4   -2.642973308060316E-3    2.286144093429139E-4    1.241666683049552E-1    4.956193992417576E-1
 8.149122770850000E9    -3.520217022648853E-2    5.360054773676459E-1   -2.611002151687327E-3    1.890173300306338E-4   -2.615535561924428E-3    2.236313051187625E-4    1.250718958173906E-1    4.953859020863243E-1
 8.149138074800000E9    -3.407595168241988E-2    5.360234144874100E-1   -2.620603483941666E-3    1.693812972838624E-4   -2.633565399616507E-3    2.303282307948672E-4    1.259111930459504E-1    4.950445741370957E-1
 8.149153378750000E9    -3.313523243262059E-2    5.361124772606974E-1   -2.608156721019540E-3    1.640903366039461E-4   -2.637239369543792E-3    2.355979084353632E-4    1.268679667484446E-1    4.949590104775625E-1
 8.149168682700000E9    -3.203680784489676E-2    5.362855878509578E-1   -2.635537727517954E-3    2.101267249559108E-4   -2.650202168664941E-3    2.331865588493669E-4    1.278547371750195E-1    4.945530184766868E-1
 8.149183986650000E9    -3.099010366664561E-2    5.364396220626059E-1   -2.603005127241685E-3    2.104208881727964E-4   -2.659544898428755E-3    2.583180424376719E-4    1.289544738085596E-1    4.944139556777030E-1
 8.149199290600000E9    -2.979380870566661E-2    5.364582881919218E-1   -2.625597811207024E-3    2.115865423903307E-4   -2.648510986135735E-3    2.801395588142624E-4    1.297848945741737E-1    4.940372024548418E-1
 8.149214594550000E9    -2.880577321243872E-2    5.365009644846720E-1   -2.594578068839950E-3    2.164972005212482E-4   -2.655854727259218E-3    2.807925390472308E-4    1.307439435294233E-1    4.937262172372235E-1
 8.149229898500000E9    -2.784853582874984E-2    5.365927689397647E-1   -2.628726664195205E-3    2.020523926721220E-4   -2.634583681638796E-3    2.740385018153308E-4    1.317439694368320E-1    4.934481935296169E-1
 8.149245202450000E9    -2.666478127208947E-2    5.367282229941924E-1   -2.605246959626073E-3    2.250626558471716E-4   -2.654483097148815E-3    2.995951009172275E-4    1.327136320974893E-1    4.932187443923673E-1
 8.149260506400000E9    -2.561516729627700E-2    5.367192733561233E-1   -2.631317687850567E-3    2.235040441051152E-4   -2.651670049385664E-3    2.671630470145173E-4    1.335385850345374E-1    4.928597849344986E-1
 8.149275810350000E9    -2.457148918717318E-2    5.366815148568449E-1   -2.621928869025348E-3    2.313560234398042E-4   -2.645121284134823E-3    2.817914396079847E-4    1.345543828097011E-1    4.926652628514142E-1
 8.149291114300000E9    -2.352021219790543E-2    5.370377886707226E-1   -2.620965698816100E-3    2.501926025421395E-4   -2.659068410042756E-3    2.900153234615254E-4    1.355717839220875E-1    4.924825221893921E-1
 8.149306418250000E9    -2.236852004902246E-2    5.370464641468568E-1   -2.628696589913715E-3    2.263532429668815E-4   -2.634448468047091E-3    2.560960444435918E-4    1.365199266484269E-1    4.921029900978136E-1
 8.149321722200000E9    -2.135858893540955E-2    5.370408616900780E-1   -2.614552935425841E-3    2.516369681315684E-4   -2.670526180940882E-3    2.892769061777981E-4    1.373984853341616E-1    4.918990956622412E-1
 8.149337026150000E9    -2.041812718566843E-2    5.371143967307869E-1   -2.585567102003950E-3    2.246922563243410E-4   -2.647726957121000E-3    3.093714708825591E-4    1.384037001006385E-1    4.914610095257627E-1
 8.149352330100000E9    -1.922418023393872E-2    5.371769847612862E-1   -2.609827454073353E-3    3.022790066716412E-4   -2.631442442461591E-3    3.250871831099015E-4    1.392260048188493E-1    4.910864791486829E-1
 8.149367634050000E9    -1.808294967859151E-2    5.373007616507945E-1   -2.605156458166740E-3    2.736313969289677E-4   -2.624737160790239E-3    3.361759291049329E-4    1.401918639125243E-1    4.909829130115773E-1
 8.149382938000000E9    -1.710253626760146E-2    5.373601862553483E-1   -2.633683104259221E-3    2.397018790194074E-4   -2.632112615128912E-3    3.270631917658202E-4    1.411837378359155E-1    4.907201840995828E-1
 8.149398241950000E9    -1.600995605601494E-2    5.373166647601947E-1   -2.614565246489872E-3    2.964605713279113E-4   -2.610262804923353E-3    3.341168688798643E-4    1.420812625872745E-1    4.903749256289509E-1
 8.149413545900000E9    -1.505250125499259E-2    5.374991185726768E-1   -2.595151394112670E-3    3.039120950738249E-4   -2.627898000507620E-3    3.360377151792953E-4    1.431457052529737E-1    4.900541145386824E-1
 8.149428849850000E9    -1.396688903008165E-2    5.376053282069390E-1   -2.623006608640200E-3    3.021858668719997E-4   -2.602902723626590E-3    3.564293683895268E-4    1.440899021800071E-1    4.897477625359526E-1
 8.149444153800000E9    -1.291523689561913E-2    5.375535672686931E-1   -2.620488451958775E-3    3.064739325241960E-4   -2.661509704498449E-3    3.596541751377300E-4    1.450348410926482E-1    4.893371816726534E-1
 8.149459457750000E9    -1.183317208006920E-2    5.376452209083431E-1   -2.616032910273956E-3    3.017513557068822E-4   -2.650584282601695E-3    3.367455733792706E-4    1.459988869604562E-1    4.892878776918665E-1
 8.149474761700000E9    -1.081450814741626E-2    5.376245984365564E-1   -2.603826329256017E-3    2.984404348863982E-4   -2.625089392876987E-3    3.412734127680404E-4    1.467591229377813E-1    4.888187742928163E-1
 8.149490065650000E9    -9.675540132022344E-3    5.376432515193175E-1   -2.591712526525307E-3    3.056488186020848E-4   -2.626720796315668E-3    3.886558834350228E-4    1.478193225464345E-1    4.886068688096168E-1
 8.149505369600000E9    -8.562834495165489E-3    5.377773836185887E-1   -2.620652380709159E-3    3.090031399134707E-4   -2.646931231416453E-3    3.567400570026449E-4    1.488103649083180E-1    4.881549801934658E-1
 8.149520673550000E9    -7.521145291131806E-3    5.377810094408781E-1   -2.617444368921213E-3    3.198453767745914E-4   -2.613889416630088E-3    3.481946771328364E-4    1.496797536863007E-1    4.879891850791069E-1
 8.149535977500000E9    -6.423602425532460E-3    5.378817645048122E-1   -2.631767246477748E-3    3.178979736822722E-4   -2.635715070503090E-3    3.812392828126626E-4    1.505848375269333E-1    4.876937165656933E-1
 8.149551281450000E9    -5.472743459617191E-3    5.378591800196975E-1   -2.633733217981233E-3    3.418616566493682E-4   -2.618877472975209E-3    4.068422464975689E-4    1.515508016645354E-1    4.872427952263716E-1
 8.149566585400000E9    -4.429323065072691E-3    5.378680898465380E-1   -2.620501696119221E-3    3.304964725106861E-4   -2.622285674077293E-3    3.706998923735473E-4    1.526211121104274E-1    4.870037252792880E-1
 8.149581889350000E9    -3.239085207895770E-3    5.379306671576856E-1   -2.619611276787038E-3    3.679216296725546E-4   -2.622463815162101E-3    4.246409151932976E-4    1.534408353244467E-1    4.866617310092359E-1
 8.149597193300000E9    -2.157143247228710E-3    5.380817203613169E-1   -2.606657475678857E-3    3.392984814763737E-4   -2.652618044413717E-3    3.922659615968101E-4    1.544375958871943E-1    4.864176048098575E-1
 8.149612497250000E9    -1.059584211742214E-3    5.379624078528760E-1   -2.604390324730396E-3    3.482874300257937E-4   -2.676297934245691E-3    4.226858700292202E-4    1.552266037902212E-1    4.860337296958240E-1
 8.149627801200000E9    -1.427993653909340E-4    5.380902373347091E-1   -2.609241331397277E-3    3.567532654557540E-4   -2.655319081905416E-3    3.864922625906991E-4    1.561473899292190E-1    4.857593208010618E-1
 8.149643105150000E9     1.046098383029602E-3    5.380952556908938E-1   -2.615393376368836E-3    3.628714634395544E-4   -2.631200198394499E-3    4.622775596542205E-4    1.572687181941705E-1    4.853466304118757E-1
 8.149658409100000E9     2.029056538506002E-3    5.379974539420588E-1   -2.617260941583194E-3    3.420541311617064E-4   -2.619959073784003E-3    4.288355310288395E-4    1.581361992353499E-1    4.850750236004662E-1
 8.149673713050000E9     3.045873270084161E-3    5.381905147891487E-1   -2.596318111155951E-3    3.746688426759838E-4   -2.613296015011063E-3    4.039883798292309E-4    1.590557389668808E-1    4.848560921099253E-1
 8.149689017000000E9     4.203863174218606E-3    5.381342007951226E-1   -2.601426177802188E-3    3.919401966454541E-4   -2.616897087855940E-3    4.226734638248989E-4    1.600918274100258E-1    4.844348117322032E-1
 8.149704320950000E9     5.200174872184329E-3    5.382454142299544E-1   -2.588144114220494E-3    4.013736636495213E-4   -2.597521734640104E-3    4.794164569163788E-4    1.609935531232578E-1    4.840672160879578E-1
 8.149719624900000E9     6.209246398193875E-3    5.380708838576828E-1   -2.615995035399922E-3    3.835836989827720E-4   -2.631302180517157E-3    4.715762577608623E-4    1.619447720979763E-1    4.838157354934346E-1
 8.149734928850000E9     7.387056869622309E-3    5.381133737153959E-1   -2.596968817283544E-3    4.116481943434495E-4   -2.633724103720833E-3    4.749583288365628E-4    1.627123151057133E-1    4.835222485399410E-1
 8.149750232800000E9     8.385320556994702E-3    5.380873699065208E-1   -2.582676079009961E-3    3.911786223783063E-4   -2.588692264251341E-3    4.462099584044886E-4    1.637289120485179E-1    4.830282149395674E-1
 8.149765536750000E9     9.387432503546247E-3    5.380374632244965E-1   -2.594236413253002E-3    3.862471433789084E-4   -2.594424334131709E-3    4.668341110242189E-4    1.645316728106924E-1    4.828036250695200E-1
 8.149780840700000E9     1.052946460571620E-2    5.382652908428525E-1   -2.616860857785781E-3    4.062077233677562E-4   -2.629756361960704E-3    4.502318746581557E-4    1.654592869289296E-1    4.825252022046684E-1
 8.149796144650000E9     1.163526462668310E-2    5.383129570995594E-1   -2.611729445325736E-3    4.349296857492361E-4   -2.600471912929361E-3    4.790555559730583E-4    1.664687260683527E-1    4.821846180954127E-1
 8.149811448600000E9     1.264128487381180E-2    5.381507514649022E-1   -2.593841772303186E-3    4.290923544445760E-4   -2.628007652655081E-3    4.792354793253219E-4    1.673604468966260E-1    4.818664892386890E-1
 8.149826752550000E9     1.377236827176609E-2    5.381902904815199E-1   -2.586928040555166E-3    4.212494255894273E-4   -2.621831989766794E-3    4.872144838272401E-4    1.684525828534817E-1    4.815074012091433E-1
 8.149842056500000E9     1.488936731946821E-2    5.382496466840498E-1   -2.593258433619445E-3    4.421683405500967E-4   -2.628075371775222E-3    4.885431883495620E-4    1.691960854537213E-1    4.810134399428123E-1
 8.149857360450000E9     1.591428300113664E-2    5.382227989220434E-1   -2.599895363313316E-3    4.391192443760660E-4   -2.604563889867879E-3    5.008176653606923E-4    1.702069694340531E-1    4.807634578897869E-1
 8.149872664400000E9     1.685240297674077E-2    5.380665812544239E-1   -2.611153876273530E-3    4.427091013301308E-4   -2.656434861060312E-3    4.786393259864883E-4    1.710254646508080E-1    4.803074662780872E-1
 8.149887968350000E9     1.812070497498506E-2    5.380603615204986E-1   -2.579248442332691E-3    4.542770614776528E-4   -2.627922822339038E-3    5.389932176070588E-4    1.719230271680375E-1    4.800847325850829E-1
 8.149903272300000E9     1.913678806322528E-2    5.382437691597921E-1   -2.597159304590010E-3    4.677962954745563E-4   -2.609434570627445E-3    5.239011701606602E-4    1.727643840805231E-1    4.797664278068679E-1
 8.149918576250000E9     2.022854163374794E-2    5.380996704090287E-1   -2.572745838825960E-3    4.302629302874883E-4   -2.592806592255763E-3    5.231709278901162E-4    1.738737849771213E-1    4.792803066513481E-1
 8.149933880200000E9     2.120755894354698E-2    5.380970173750581E-1   -2.579886774000859E-3    4.554412977881360E-4   -2.623424730032234E-3    5.082351319676681E-4    1.747773658692417E-1    4.789253450730124E-1
 8.149949184150000E9     2.228924462240017E-2    5.380107823873614E-1   -2.602722060084621E-3    4.633745309657254E-4   -2.647889882124083E-3    5.326166249293974E-4    1.757158674924068E-1    4.784405472951717E-1
 8.149964488100000E9     2.344036824751325E-2    5.380270622167649E-1   -2.596756556729920E-3    4.747180271212027E-4   -2.636735423481066E-3    5.073839963208295E-4    1.766389597254822E-1    4.780938677532025E-1
 8.149979792050000E9     2.438277985549872E-2    5.380726169728096E-1   -2.598177997919911E-3    5.052226268718015E-4   -2.607328957518804E-3    5.355908891381307E-4    1.774393267959677E-1    4.779379006439989E-1
 8.149995096000000E9     2.544378387510312E-2    5.380172186414808E-1   -2.616273633012112E-3    4.967859574930749E-4   -2.639129398919267E-3    5.594440131203782E-4    1.784878697151303E-1    4.774383560228972E-1
 8.150010399950000E9     2.650617892617121E-2    5.380722121074949E-1   -2.596314601973714E-3    4.787009973397954E-4   -2.605382272666363E-3    5.422676583551987E-4    1.793118955804699E-1    4.771606473182578E-1
 8.150025703900000E9     2.762665369476655E-2    5.379572706375988E-1   -2.601598679796195E-3    5.181216651839721E-4   -2.588180758948901E-3    5.678756215766150E-4    1.802560649134611E-1    4.768123089046492E-1
 8.150041007850000E9     2.863375356568277E-2    5.378774000127906E-1   -2.571599709201479E-3    4.970328735312020E-4   -2.626666747458128E-3    5.716809675311230E-4    1.811149007234892E-1    4.762967267283802E-1
 8.150056311800000E9     2.975055479100547E-2    5.379316315150581E-1   -2.601487617631689E-3    5.327402409983494E-4   -2.581794187968599E-3    5.740629678327261E-4    1.820196624567542E-1    4.760292146706529E-1
 8.150071615750000E9     3.070025688848252E-2    5.379034432307782E-1   -2.618043620380987E-3    5.142645795856994E-4   -2.624152798285632E-3    5.641521953967993E-4    1.829165128462940E-1    4.756109154144668E-1
 8.150086919700000E9     3.196302477445621E-2    5.377698971092405E-1   -2.590374076832104E-3    5.482847542681306E-4   -2.626930584725555E-3    5.825119500692199E-4    1.838613704911287E-1    4.752898961811484E-1
 8.150102223650000E9     3.288418015518830E-2    5.378278369194969E-1   -2.601989075294138E-3    5.282338646198828E-4   -2.648338188245317E-3    5.643994030044792E-4    1.848597431888956E-1    4.749261519426755E-1
 8.150117527600000E9     3.402983933191270E-2    5.377427121066468E-1   -2.619246578259464E-3    5.532865748285853E-4   -2.624837542188570E-3    5.699105786347689E-4    1.857380950071093E-1    4.745897566240470E-1
 8.150132831550000E9     3.505773802637509E-2    5.376623433817085E-1   -2.602770775337415E-3    5.760307057661605E-4   -2.621852130390322E-3    5.706837650964889E-4    1.866410507273834E-1    4.742045264154467E-1
 8.150148135500000E9     3.608584402473454E-2    5.376048612284199E-1   -2.595553572597844E-3    5.439657639985861E-4   -2.605964526156479E-3    6.135268618617517E-4    1.875855676927675E-1    4.738014801165167E-1
