#  HZ   S   RI   R     50.00 
! Rohde & Schwarz Vector Network Analyzer 
! Rohde-Schwarz,ZNB20-2Port,1311601062101988,3.16
! Created: UTC 3/21/2024, 12:52:03 AM
! freq[Hz]                re:S11                  im:S11                  re:S21                  im:S21                  re:S12                  im:S12                  re:S22                  im:S22
 8.151320387000000E9     1.285787970996544E-1    5.282087776608546E-1   -2.949674853326225E-3    1.268992767136968E-3   -2.965519015428476E-3    1.306862062368234E-3    2.713835065746489E-1    4.365410823540345E-1
 8.151322447525000E9     1.287297611332808E-1    5.282377335873910E-1   -2.926232517275832E-3    1.276320331095945E-3   -2.943022779031267E-3    1.297619023010031E-3    2.716134580028184E-1    4.363998702977289E-1
 8.151324508050000E9     1.289543910916782E-1    5.280857023231780E-1   -2.953483803533751E-3    1.235157612916151E-3   -2.931612504884957E-3    1.300996758391817E-3    2.718120237754195E-1    4.362840666719021E-1
 8.151326568575000E9     1.291914288066272E-1    5.282012547553311E-1   -2.934379154141722E-3    1.250234908591875E-3   -2.978562522534976E-3    1.308037139416913E-3    2.717744409877957E-1    4.362979190383785E-1
 8.151328629100000E9     1.293690652082471E-1    5.281148464103890E-1   -2.949612256559341E-3    1.268285199106701E-3   -2.970134568425497E-3    1.307074362638896E-3    2.719621711677658E-1    4.363514883058945E-1
 8.151330689625000E9     1.294226630141850E-1    5.280210287061106E-1   -2.954728010144409E-3    1.265560807317011E-3   -2.946851779315483E-3    1.303316957006297E-3    2.720843522210274E-1    4.360511734459567E-1
 8.151332750150000E9     1.296754228680417E-1    5.280761117988674E-1   -2.938430442812092E-3    1.248534947540708E-3   -2.930906557012684E-3    1.340159085197868E-3    2.720819672580578E-1    4.359327852689566E-1
 8.151334810675000E9     1.297608239084486E-1    5.278941854025723E-1   -2.962939511481135E-3    1.253986489382570E-3   -2.948500809469522E-3    1.319327332858658E-3    2.721709972358186E-1    4.359364679346353E-1
 8.151336871200000E9     1.299324120483490E-1    5.279141232267335E-1   -2.961791192724627E-3    1.284500974456818E-3   -2.964422220924402E-3    1.329435482408004E-3    2.723533631562150E-1    4.360740379852749E-1
 8.151338931725000E9     1.301365421840967E-1    5.279311453140897E-1   -2.983730397588583E-3    1.272441105911809E-3   -2.957161927819035E-3    1.337956189281516E-3    2.724456039451436E-1    4.358730250841800E-1
 8.151340992250000E9     1.303669183260746E-1    5.278482609570838E-1   -2.971172224930190E-3    1.260405740761951E-3   -2.989488557891340E-3    1.322692394601912E-3    2.724115481399418E-1    4.358265603823021E-1
 8.151343052775000E9     1.304945443220644E-1    5.279533390283662E-1   -2.943847278989017E-3    1.272646027631809E-3   -2.976296724057443E-3    1.313625481457637E-3    2.727821632727154E-1    4.357665743074550E-1
 8.151345113300000E9     1.306355761652682E-1    5.276906831701060E-1   -2.973832759101678E-3    1.265789356028693E-3   -2.991309201248518E-3    1.330202261757406E-3    2.728319959388030E-1    4.356438341328644E-1
 8.151347173825000E9     1.307804890584796E-1    5.277269766779091E-1   -2.977001683016393E-3    1.299010240221611E-3   -2.987998230229613E-3    1.345692073581091E-3    2.729115444264400E-1    4.354578848305395E-1
 8.151349234350000E9     1.310087636880568E-1    5.277066685380484E-1   -2.977064425574695E-3    1.273233847191357E-3   -2.969190295046593E-3    1.361026156707026E-3    2.730111563127398E-1    4.354773399571299E-1
 8.151351294875000E9     1.311853957751261E-1    5.276659818162682E-1   -2.990119971902896E-3    1.276378454645938E-3   -2.984498295474515E-3    1.329684303264845E-3    2.731466047267384E-1    4.353806158965097E-1
 8.151353355400000E9     1.312200317411013E-1    5.276801931570384E-1   -2.970453181001519E-3    1.285400645117441E-3   -2.965289228532112E-3    1.372823530407771E-3    2.732930214028276E-1    4.353591826583382E-1
 8.151355415925000E9     1.314304076040214E-1    5.275696489781557E-1   -2.975218992434534E-3    1.295276149553917E-3   -2.991468493298260E-3    1.367719262163843E-3    2.733405272874956E-1    4.351969810336329E-1
 8.151357476450000E9     1.316019183754103E-1    5.275631955874978E-1   -2.987001006114858E-3    1.298341922775195E-3   -2.975173282594130E-3    1.369691860420255E-3    2.734143288157321E-1    4.350829881596887E-1
 8.151359536975000E9     1.317703233144497E-1    5.274640543632537E-1   -2.988032604153188E-3    1.310134908011523E-3   -3.004532742304417E-3    1.346294547508802E-3    2.735493749666875E-1    4.349455450678055E-1
 8.151361597500000E9     1.318884366202430E-1    5.274077394911926E-1   -3.001463252772640E-3    1.297714227676036E-3   -2.981588514203577E-3    1.340669219256761E-3    2.737526925603730E-1    4.350699223384116E-1
 8.151363658025000E9     1.322488594437707E-1    5.273675490682197E-1   -2.976855977459614E-3    1.298442813007964E-3   -3.008945784221644E-3    1.370049531523232E-3    2.739138404265625E-1    4.349258368718456E-1
 8.151365718550000E9     1.321862327313239E-1    5.272363351081799E-1   -3.007452681922739E-3    1.315498732124582E-3   -3.020787405268012E-3    1.379573992376233E-3    2.739449264913082E-1    4.349300152037056E-1
 8.151367779075000E9     1.324792047414644E-1    5.272942083763428E-1   -3.002420326356734E-3    1.305724342583802E-3   -3.005880002926774E-3    1.413364208178122E-3    2.740100452126807E-1    4.347765189698289E-1
 8.151369839600000E9     1.325793959173560E-1    5.272309700728725E-1   -2.998374347913676E-3    1.310038393522696E-3   -3.017336571036112E-3    1.356842542923154E-3    2.742028004963243E-1    4.346117351032293E-1
 8.151371900125000E9     1.328178787065654E-1    5.272134565976829E-1   -3.003697698814241E-3    1.334366380669310E-3   -3.001686501701244E-3    1.356456937901510E-3    2.744164751921953E-1    4.347151885472487E-1
 8.151373960650000E9     1.330228983469319E-1    5.270924688083612E-1   -3.021756414567619E-3    1.329274013903799E-3   -2.989721969331195E-3    1.376582626609098E-3    2.744348717710425E-1    4.345975526389737E-1
 8.151376021175000E9     1.331050843451449E-1    5.271520577639706E-1   -2.999389706915739E-3    1.322249270493295E-3   -3.003058317311114E-3    1.362293332156800E-3    2.743929380333607E-1    4.344017243623808E-1
 8.151378081700000E9     1.332665505483973E-1    5.271144296814972E-1   -3.032475003140363E-3    1.322230237002072E-3   -3.027125293758707E-3    1.414950127504715E-3    2.746159165741799E-1    4.345455103834631E-1
 8.151380142225000E9     1.334461314544263E-1    5.270782683337480E-1   -3.037059437651100E-3    1.329054220925343E-3   -3.043846435317926E-3    1.381486637613672E-3    2.747512879856193E-1    4.344432149001805E-1
 8.151382202750000E9     1.335795753501453E-1    5.270493614663263E-1   -3.023005047516712E-3    1.345330922688210E-3   -3.054407123975888E-3    1.413045355936465E-3    2.747666586832739E-1    4.342751216165674E-1
 8.151384263275000E9     1.336528655002721E-1    5.268859002851636E-1   -3.017791518598587E-3    1.339390928669446E-3   -3.030942081553313E-3    1.377582766323520E-3    2.750411464405443E-1    4.342263902822411E-1
 8.151386323800000E9     1.338542234697924E-1    5.269258894406332E-1   -3.041598242507609E-3    1.346731295130938E-3   -3.026011457825523E-3    1.366817903965820E-3    2.749289939088081E-1    4.340370318546579E-1
 8.151388384325000E9     1.340379368392975E-1    5.269405206802951E-1   -3.043402398361770E-3    1.325148273308469E-3   -3.080325346794032E-3    1.434835817625365E-3    2.750901000873294E-1    4.340406469857306E-1
 8.151390444850000E9     1.343226609335381E-1    5.268740561284142E-1   -3.002668440001236E-3    1.372057469465253E-3   -3.038502900695657E-3    1.407277177496506E-3    2.752439061954985E-1    4.340173138380914E-1
 8.151392505375000E9     1.344454230044966E-1    5.269230756874169E-1   -3.046902199012899E-3    1.350967304181766E-3   -3.050396097441888E-3    1.410358975691924E-3    2.754056642249359E-1    4.338315222797908E-1
 8.151394565900000E9     1.345228597547356E-1    5.267819495802547E-1   -3.044178004905353E-3    1.360105919971948E-3   -3.043226165274251E-3    1.427318798682039E-3    2.754718131384508E-1    4.338053410425310E-1
 8.151396626425000E9     1.347785857895594E-1    5.267882306382513E-1   -3.070135592131159E-3    1.368255082452006E-3   -3.058778940665393E-3    1.417744013589562E-3    2.757019756362939E-1    4.337201489917840E-1
 8.151398686950000E9     1.347654928925356E-1    5.267377283493411E-1   -3.038231587844764E-3    1.375164717608614E-3   -3.044060793241764E-3    1.416282737269096E-3    2.756406785161677E-1    4.337007669833733E-1
 8.151400747475000E9     1.350804885511597E-1    5.265846863249403E-1   -3.058367810203125E-3    1.378180324645638E-3   -3.028375280856677E-3    1.444302487804349E-3    2.757208651171976E-1    4.336678193185188E-1
 8.151402808000000E9     1.352101700136935E-1    5.267241935985604E-1   -3.065537125327331E-3    1.398042470222868E-3   -3.048439708306864E-3    1.441936835919499E-3    2.759220352879628E-1    4.336223505581016E-1
 8.151404868525000E9     1.353941236409836E-1    5.266499900586863E-1   -3.057958294198751E-3    1.369489141150410E-3   -3.064286321045215E-3    1.429629245515155E-3    2.760529442382083E-1    4.335876311657005E-1
 8.151406929050000E9     1.355304496894492E-1    5.266502782321333E-1   -3.063405520064151E-3    1.368968610056350E-3   -3.065463294972260E-3    1.435814742837268E-3    2.762493322859603E-1    4.333795112348851E-1
 8.151408989575000E9     1.357073766536238E-1    5.265187975549838E-1   -3.063244717407584E-3    1.381334695159412E-3   -3.060157111053438E-3    1.462021895341125E-3    2.764028207520320E-1    4.334630318293636E-1
 8.151411050100000E9     1.359258290983192E-1    5.264006129587641E-1   -3.060463626044584E-3    1.393336918592175E-3   -3.051220011439220E-3    1.444498193673818E-3    2.763755991078762E-1    4.331756102815343E-1
 8.151413110625000E9     1.360594507347460E-1    5.264014696992213E-1   -3.071046443377186E-3    1.376302251656047E-3   -3.078784174687643E-3    1.433570634185773E-3    2.763921499514384E-1    4.332380549165754E-1
 8.151415171150000E9     1.362495220229832E-1    5.263664994334308E-1   -3.101687014167844E-3    1.412852140212689E-3   -3.085380557946519E-3    1.479916246955393E-3    2.765194222909615E-1    4.331773140729976E-1
 8.151417231675000E9     1.364225178279440E-1    5.263137585769072E-1   -3.098405976748321E-3    1.381473939468487E-3   -3.079647380321526E-3    1.476927678759143E-3    2.767820904394911E-1    4.329753571909367E-1
 8.151419292200000E9     1.366006348658089E-1    5.262484910728702E-1   -3.077200820999655E-3    1.390308456055098E-3   -3.094527260490174E-3    1.473583781927388E-3    2.768053987781142E-1    4.327310948238293E-1
 8.151421352725000E9     1.367854979538762E-1    5.263189560361806E-1   -3.106332188460203E-3    1.408050237817128E-3   -3.088330866650421E-3    1.460452628774154E-3    2.768717081673148E-1    4.328927547744115E-1
 8.151423413250000E9     1.369062378284469E-1    5.261804033714657E-1   -3.117807917522825E-3    1.433049264301432E-3   -3.115706114776010E-3    1.452591547840933E-3    2.770013805482434E-1    4.328257857439977E-1
 8.151425473775000E9     1.369672507346385E-1    5.261534471658679E-1   -3.135033545873425E-3    1.431319474392796E-3   -3.101691017583732E-3    1.491712321387177E-3    2.771816910732839E-1    4.325219376772044E-1
 8.151427534300000E9     1.372608468767483E-1    5.262455950512923E-1   -3.102743479304604E-3    1.428132275612553E-3   -3.146035453666142E-3    1.468708332779844E-3    2.772623766941229E-1    4.326614505442938E-1
 8.151429594825000E9     1.373563931864768E-1    5.260625197699097E-1   -3.104518201737754E-3    1.450572762613820E-3   -3.128794109859280E-3    1.494360747200283E-3    2.774471797109747E-1    4.325440870147585E-1
 8.151431655350000E9     1.374720134790338E-1    5.259152245634440E-1   -3.123833322532216E-3    1.450527630080451E-3   -3.103384437549944E-3    1.488132762143849E-3    2.775474108203617E-1    4.325178406469944E-1
 8.151433715875000E9     1.376833317307867E-1    5.259983679612464E-1   -3.117362792805470E-3    1.461233116854131E-3   -3.118947406784744E-3    1.515924053988992E-3    2.775432492838750E-1    4.326514306774588E-1
 8.151435776400000E9     1.377303529724438E-1    5.259802504687474E-1   -3.111225074355429E-3    1.459917890760875E-3   -3.135573230849579E-3    1.509065784176754E-3    2.775735602684015E-1    4.323953866486708E-1
 8.151437836925000E9     1.380570590289671E-1    5.259005280076005E-1   -3.137413181859300E-3    1.452585175603866E-3   -3.121778261378330E-3    1.486699944368324E-3    2.777921606887461E-1    4.323064575886054E-1
 8.151439897450000E9     1.381429814215355E-1    5.258430131775155E-1   -3.126719049143937E-3    1.462755212841997E-3   -3.160149888280077E-3    1.519647480638592E-3    2.779906092536780E-1    4.323275979778031E-1
 8.151441957975000E9     1.385244113889742E-1    5.257738356129579E-1   -3.135115385676904E-3    1.458612967452902E-3   -3.144578385258097E-3    1.506018959122949E-3    2.780818596168029E-1    4.321506863817915E-1
 8.151444018500000E9     1.385566330044378E-1    5.256552717966411E-1   -3.153907652056564E-3    1.449433242968466E-3   -3.154555713243910E-3    1.537733740429774E-3    2.780973987984614E-1    4.320598245799983E-1
 8.151446079025000E9     1.386802385597095E-1    5.256733428250283E-1   -3.147257564688818E-3    1.461401588229415E-3   -3.153011414811430E-3    1.538926106202387E-3    2.783220915313344E-1    4.319762598552120E-1
 8.151448139550000E9     1.389277408281346E-1    5.256528436548362E-1   -3.153743961646644E-3    1.485967426187939E-3   -3.177238824559302E-3    1.513853594515068E-3    2.783834440778810E-1    4.317274026835661E-1
 8.151450200075000E9     1.390107554595724E-1    5.255819352612584E-1   -3.166937012869735E-3    1.481990506225432E-3   -3.169158170190658E-3    1.542075657440943E-3    2.784869383251830E-1    4.317641703572347E-1
 8.151452260600000E9     1.392427594679933E-1    5.256064563608696E-1   -3.175754553544499E-3    1.500772126077988E-3   -3.189492796352946E-3    1.517807116159614E-3    2.787016723155817E-1    4.318123291441708E-1
 8.151454321125000E9     1.393529441442077E-1    5.255890753990200E-1   -3.190479931823032E-3    1.477764357470187E-3   -3.187795908118323E-3    1.541246728277149E-3    2.786729083727718E-1    4.316519793759869E-1
 8.151456381650000E9     1.395139542523739E-1    5.255335569692241E-1   -3.179078237615087E-3    1.500951834185669E-3   -3.209376371465508E-3    1.524319909295827E-3    2.788201400431351E-1    4.316318351717399E-1
 8.151458442175000E9     1.396212349321154E-1    5.253552270876966E-1   -3.200087832613282E-3    1.477600191936809E-3   -3.168676605161490E-3    1.592162390646350E-3    2.789024252353403E-1    4.313948435805447E-1
 8.151460502700000E9     1.398884929438892E-1    5.253864074713525E-1   -3.173089961991022E-3    1.475557106372760E-3   -3.211574720650556E-3    1.576802171291535E-3    2.790731056132876E-1    4.315807187882950E-1
 8.151462563225000E9     1.400801162173954E-1    5.253206322378982E-1   -3.184635936009369E-3    1.519038474079287E-3   -3.210223037684636E-3    1.574372205049798E-3    2.791853793393506E-1    4.314406144342215E-1
 8.151464623750000E9     1.402559871108053E-1    5.252989118579355E-1   -3.212483756444675E-3    1.502080141912954E-3   -3.219733518155865E-3    1.566978023478749E-3    2.793450429138569E-1    4.312405862495418E-1
 8.151466684275000E9     1.404038379153678E-1    5.251916769268886E-1   -3.192962635916991E-3    1.522194268606063E-3   -3.223235212007463E-3    1.562174251324856E-3    2.793790299078778E-1    4.310624509243224E-1
 8.151468744800000E9     1.406335101092130E-1    5.251300921308042E-1   -3.198620215541056E-3    1.518017630670204E-3   -3.207490389236531E-3    1.585402049636292E-3    2.794317079735303E-1    4.311461200872918E-1
 8.151470805325000E9     1.407266422618685E-1    5.250982238874164E-1   -3.203082545025645E-3    1.541299580942665E-3   -3.208076048312625E-3    1.579865909517833E-3    2.796174998202856E-1    4.309383518207339E-1
 8.151472865850000E9     1.409795054033774E-1    5.249939122737964E-1   -3.226393873541755E-3    1.525370588879992E-3   -3.195403967839330E-3    1.613496397285184E-3    2.797055280386078E-1    4.310134415976011E-1
 8.151474926375000E9     1.411692853947691E-1    5.250090629933940E-1   -3.217201937537101E-3    1.536748654960552E-3   -3.211861398997060E-3    1.577960407289774E-3    2.798421756510124E-1    4.309750218611548E-1
 8.151476986900000E9     1.412072028479612E-1    5.249361653092071E-1   -3.239371951693791E-3    1.545900435754072E-3   -3.253858551987655E-3    1.622684835206375E-3    2.798846765975354E-1    4.308955852207145E-1
 8.151479047425000E9     1.414565626204482E-1    5.248709835425223E-1   -3.227927432189544E-3    1.539321859261891E-3   -3.234256309121760E-3    1.635575208040763E-3    2.801260425824206E-1    4.307776350861247E-1
 8.151481107950000E9     1.416866274918401E-1    5.247750973511973E-1   -3.240719491452224E-3    1.556176393246768E-3   -3.259208287085281E-3    1.614163405235822E-3    2.801783080834845E-1    4.306907418782154E-1
 8.151483168475000E9     1.420174917021731E-1    5.247573320518388E-1   -3.266281286492593E-3    1.572665970902427E-3   -3.271951635404538E-3    1.649580434647301E-3    2.802526301507564E-1    4.306065898942125E-1
 8.151485229000000E9     1.421068804238315E-1    5.247970419716029E-1   -3.277362933666064E-3    1.582466671278594E-3   -3.238579805961438E-3    1.629088115370263E-3    2.803854012268551E-1    4.305313903971218E-1
 8.151487289525000E9     1.421645609327645E-1    5.246968787181769E-1   -3.251765833171417E-3    1.584024954750939E-3   -3.288650905953890E-3    1.661040346578921E-3    2.805913458976712E-1    4.305430872119523E-1
 8.151489350050000E9     1.424702795147327E-1    5.246004119203508E-1   -3.250539122350422E-3    1.584099834558381E-3   -3.297681626671690E-3    1.637518588119197E-3    2.806551288237653E-1    4.303779040745086E-1
 8.151491410575000E9     1.425385243248441E-1    5.245257032286743E-1   -3.278382656794021E-3    1.586966477880780E-3   -3.303388095812071E-3    1.659868640341413E-3    2.806855287015211E-1    4.303214995062412E-1
 8.151493471100000E9     1.426795790526270E-1    5.244695320306750E-1   -3.285880226280831E-3    1.596869019727093E-3   -3.281289683925803E-3    1.666501569895569E-3    2.808406262189871E-1    4.301694922209070E-1
 8.151495531625000E9     1.429395081643612E-1    5.244133307207474E-1   -3.334918975182761E-3    1.598416874401995E-3   -3.280431095463078E-3    1.678177280648265E-3    2.808922737657061E-1    4.300677994246981E-1
 8.151497592150000E9     1.431722299336936E-1    5.244739305758717E-1   -3.312123788845764E-3    1.588329268375763E-3   -3.310088005928252E-3    1.706344715910992E-3    2.810439735907941E-1    4.300226212062685E-1
 8.151499652675000E9     1.433184497268496E-1    5.243378166121213E-1   -3.321796266893392E-3    1.624271986806310E-3   -3.346429438982817E-3    1.700922917948025E-3    2.811109984043549E-1    4.300205590054511E-1
 8.151501713200000E9     1.433413176987886E-1    5.242321497761957E-1   -3.311425332146033E-3    1.618056499391760E-3   -3.283725749095956E-3    1.678143119762025E-3    2.813234196126332E-1    4.298994304094351E-1
 8.151503773725000E9     1.436497071705964E-1    5.242120034553478E-1   -3.325567900983636E-3    1.627175805382144E-3   -3.313346736629725E-3    1.711097632364986E-3    2.813558775097268E-1    4.298860196458226E-1
 8.151505834250000E9     1.438499726301143E-1    5.241541462141170E-1   -3.343556078501433E-3    1.666327414785659E-3   -3.350619779210834E-3    1.720983875870730E-3    2.814915626258433E-1    4.298260127857732E-1
