#  HZ   S   RI   R     50.00 
! Rohde & Schwarz Vector Network Analyzer 
! Rohde-Schwarz,ZNB20-2Port,1311601062101988,3.16
! Created: UTC 3/21/2024, 1:08:54 AM
! freq[Hz]                re:S11                  im:S11                  re:S21                  im:S21                  re:S12                  im:S12                  re:S22                  im:S22
 8.148918495000000E9    -4.962752123466003E-2    5.344789341174541E-1   -2.635151090636154E-3    1.027609752210947E-4   -2.655361610729346E-3    1.641927999044531E-4    1.118975434774275E-1    4.986742536632235E-1
 8.148933186550000E9    -4.859297759852124E-2    5.344606296574956E-1   -2.624109285885538E-3    1.066793156227584E-4   -2.639022391928479E-3    1.473873744193339E-4    1.128696405685509E-1    4.983267468405975E-1
 8.148947878100000E9    -4.762083409134914E-2    5.346979496983817E-1   -2.605479444945085E-3    1.067101518566575E-4   -2.638869157469637E-3    1.936525974505813E-4    1.137624606668562E-1    4.982644106811935E-1
 8.148962569650000E9    -4.664749730613594E-2    5.346719159379026E-1   -2.603268271231820E-3    1.277248064241250E-4   -2.666785662344981E-3    1.756393986981159E-4    1.148880234965616E-1    4.979930094084727E-1
 8.148977261200000E9    -4.544173286939437E-2    5.349745575882916E-1   -2.594250471668833E-3    9.860444964591407E-5   -2.669579901637668E-3    1.840566828862618E-4    1.157880094549898E-1    4.978721863514307E-1
 8.148991952750000E9    -4.452029327675919E-2    5.350291689126115E-1   -2.619266671544151E-3    1.178499957878709E-4   -2.622009675004018E-3    1.667731847625533E-4    1.165352950877385E-1    4.974781203411788E-1
 8.149006644300000E9    -4.346163340231993E-2    5.351401484923615E-1   -2.619504597216701E-3    1.222105577715306E-4   -2.636788991850918E-3    1.725319351288376E-4    1.175922703405253E-1    4.972632771399492E-1
 8.149021335850000E9    -4.244100225257354E-2    5.353346965432882E-1   -2.610220422412621E-3    1.402177299265225E-4   -2.646757167630512E-3    1.639578373999991E-4    1.185219294655494E-1    4.971210038963581E-1
 8.149036027400000E9    -4.129961311750111E-2    5.354401144200948E-1   -2.611792826312759E-3    1.583989218903758E-4   -2.640733006073761E-3    2.333697898018788E-4    1.193672694399197E-1    4.968908985692818E-1
 8.149050718950000E9    -4.052983357573806E-2    5.355378984242688E-1   -2.589879699389540E-3    1.735495980562741E-4   -2.611037826798633E-3    1.786638481842161E-4    1.202942211022115E-1    4.965633533421459E-1
 8.149065410500000E9    -3.937374807445856E-2    5.354826695561361E-1   -2.638201045634910E-3    1.543720992133051E-4   -2.682284376581750E-3    2.114373934125710E-4    1.213789280823340E-1    4.962470320426821E-1
 8.149080102050000E9    -3.848572207081023E-2    5.356847043595981E-1   -2.603739569926031E-3    1.640941684224255E-4   -2.655653391643988E-3    1.793585206747656E-4    1.220600101284742E-1    4.959985148756167E-1
 8.149094793600000E9    -3.731448132340709E-2    5.356353354675558E-1   -2.649465450641322E-3    1.890974730535409E-4   -2.663204623248785E-3    2.066064718494266E-4    1.231093980375058E-1    4.958195935353095E-1
 8.149109485150000E9    -3.620906293181060E-2    5.359131162744295E-1   -2.618159410720773E-3    1.649204175543613E-4   -2.680440960151272E-3    2.540403506845401E-4    1.240063712894251E-1    4.955210486606646E-1
 8.149124176700000E9    -3.531244516488910E-2    5.359281806255762E-1   -2.627456821494126E-3    1.999888825290356E-4   -2.637848402329992E-3    2.264344470904263E-4    1.250008112166326E-1    4.953609352381687E-1
 8.149138868250000E9    -3.427797766884368E-2    5.360240739556719E-1   -2.596660028420979E-3    1.820695449609306E-4   -2.628834957126815E-3    2.497544895697819E-4    1.257483486855432E-1    4.951527140520208E-1
 8.149153559800000E9    -3.326904786323626E-2    5.361949815453518E-1   -2.585320751036000E-3    2.072773166384652E-4   -2.645380991937554E-3    2.346856312880095E-4    1.268024183444691E-1    4.948810070388192E-1
 8.149168251350000E9    -3.222120262923871E-2    5.362286509345009E-1   -2.619687458226052E-3    1.939017306278505E-4   -2.632170945578253E-3    2.479361197447459E-4    1.276731353381444E-1    4.945286781051352E-1
 8.149182942900000E9    -3.121531095223984E-2    5.363740459394880E-1   -2.631461473744834E-3    1.982379334318621E-4   -2.636037318550699E-3    2.651431791239635E-4    1.286651052731569E-1    4.943939208255334E-1
 8.149197634450000E9    -3.009812963325631E-2    5.363078420279992E-1   -2.640978588663067E-3    2.025857530488851E-4   -2.654828361913342E-3    2.405275048468632E-4    1.294356989292517E-1    4.940917479783107E-1
 8.149212326000000E9    -2.924334052401753E-2    5.365057447811655E-1   -2.597466126248961E-3    1.935178090176460E-4   -2.666337128536404E-3    2.488649320910728E-4    1.304220883035141E-1    4.937312970097628E-1
 8.149227017550000E9    -2.809930464878672E-2    5.364422377126287E-1   -2.617016057812972E-3    2.140088204095852E-4   -2.645010959767405E-3    2.564214654133958E-4    1.312768642177122E-1    4.936108011255134E-1
 8.149241709100000E9    -2.723627394041615E-2    5.366298473155225E-1   -2.611525914021785E-3    2.118191183630655E-4   -2.613250107332005E-3    2.962843100019639E-4    1.321105067081255E-1    4.933579656561338E-1
 8.149256400650000E9    -2.616928504708766E-2    5.367972188066868E-1   -2.624200102508120E-3    2.191880612559060E-4   -2.594012078996265E-3    2.913524163400786E-4    1.331877263303244E-1    4.929326433524567E-1
 8.149271092200000E9    -2.502969836656458E-2    5.368949930864572E-1   -2.599803324002755E-3    2.390496845864956E-4   -2.642623206185723E-3    2.615295590423802E-4    1.341416589741140E-1    4.928635210507625E-1
 8.149285783750000E9    -2.408943779539382E-2    5.368717512075351E-1   -2.617496193075423E-3    2.641278408645085E-4   -2.638444167258035E-3    2.889096633594821E-4    1.349631319347720E-1    4.924018609974504E-1
 8.149300475300000E9    -2.306299545410332E-2    5.369876455820122E-1   -2.620378928561359E-3    2.596909235503304E-4   -2.639506125378945E-3    2.784486071945289E-4    1.358002269737990E-1    4.920681098652219E-1
 8.149315166850000E9    -2.212076310096758E-2    5.369953566427209E-1   -2.605061975830301E-3    2.201082503183404E-4   -2.605119277336376E-3    3.142574308915436E-4    1.367635701033348E-1    4.919627239941622E-1
 8.149329858400000E9    -2.099837358210729E-2    5.371649247243174E-1   -2.617558250333430E-3    2.586401448314463E-4   -2.630061723232394E-3    3.158362481978736E-4    1.376949877071424E-1    4.917378045178568E-1
 8.149344549950000E9    -1.991520020384844E-2    5.371727405178784E-1   -2.597371953500000E-3    2.778070359952755E-4   -2.637213771899266E-3    2.982315386146959E-4    1.385888638816609E-1    4.913094705478110E-1
 8.149359241500000E9    -1.902063670633997E-2    5.372180051406895E-1   -2.621101489390364E-3    2.753977834753419E-4   -2.644308811921901E-3    3.036626908068692E-4    1.395708868726991E-1    4.912567591629289E-1
 8.149373933050000E9    -1.793075847635913E-2    5.372137327790245E-1   -2.619903686511236E-3    2.734871175619009E-4   -2.646499545203390E-3    3.278468747423927E-4    1.404368894103392E-1    4.908047380970123E-1
 8.149388624600000E9    -1.697922017332839E-2    5.374030305090347E-1   -2.619207179851829E-3    2.648648338038703E-4   -2.636816463484926E-3    3.208699895225761E-4    1.413484925203816E-1    4.904835773604527E-1
 8.149403316150000E9    -1.595723702921618E-2    5.374051909655310E-1   -2.605468676514995E-3    2.528952734566039E-4   -2.637648131828968E-3    3.336089105568175E-4    1.423075951494729E-1    4.903191394411495E-1
 8.149418007700000E9    -1.476946221376219E-2    5.373430192500583E-1   -2.604145350734775E-3    2.789893170201123E-4   -2.638149164332685E-3    3.463834346175832E-4    1.431587896026545E-1    4.900570617301283E-1
 8.149432699250000E9    -1.383214947593996E-2    5.373371736384855E-1   -2.611188933930538E-3    2.688866627053521E-4   -2.634364809257262E-3    3.205544084310097E-4    1.441061351180975E-1    4.898371292223887E-1
 8.149447390800000E9    -1.275495186960622E-2    5.375245790493535E-1   -2.605195989732157E-3    2.914869611478216E-4   -2.628298961826908E-3    3.574425231407434E-4    1.449791559721318E-1    4.894653911575061E-1
 8.149462082350000E9    -1.188454275211187E-2    5.375795379559085E-1   -2.613158962025594E-3    3.023242755734471E-4   -2.646977906976694E-3    3.567906537223589E-4    1.459133070119319E-1    4.890329307993832E-1
 8.149476773900000E9    -1.074858750404247E-2    5.376907346281147E-1   -2.603406721358887E-3    3.135306163832063E-4   -2.630045735664617E-3    3.665269597764786E-4    1.468568539299406E-1    4.887922829413981E-1
 8.149491465450000E9    -9.768556746013946E-3    5.377171678919247E-1   -2.592636190163455E-3    3.292805474616461E-4   -2.648885196539962E-3    3.715378222925188E-4    1.476710215915880E-1    4.885012534883569E-1
 8.149506157000000E9    -8.814677241348007E-3    5.376440279864260E-1   -2.607031941606582E-3    3.221180862906607E-4   -2.665079133707996E-3    3.354858482116471E-4    1.485186130272067E-1    4.882388722613462E-1
 8.149520848550000E9    -7.835083839120618E-3    5.376932456061490E-1   -2.617686564057218E-3    3.221245277538676E-4   -2.617628698725167E-3    3.465033280353383E-4    1.494387188454873E-1    4.880164412552406E-1
 8.149535540100000E9    -6.710407985439033E-3    5.378169128310152E-1   -2.627756736738148E-3    2.986049285652514E-4   -2.623201198121491E-3    3.721422434415404E-4    1.504412227160531E-1    4.875949867782479E-1
 8.149550231650000E9    -5.756894612568763E-3    5.377285291417798E-1   -2.632833545434081E-3    3.312447332642772E-4   -2.639137420723167E-3    3.695810258310440E-4    1.512363413412731E-1    4.874754997809110E-1
 8.149564923200000E9    -4.783853536139609E-3    5.379467358881327E-1   -2.623480544085473E-3    3.482432821604825E-4   -2.638973430901697E-3    3.764286718910760E-4    1.521586732623373E-1    4.870792691899722E-1
 8.149579614750000E9    -3.471378784560825E-3    5.379729967059320E-1   -2.608723527858562E-3    3.429453987603487E-4   -2.636691936601385E-3    3.960113870554509E-4    1.531080051597558E-1    4.867422683561216E-1
 8.149594306300000E9    -2.501863332394629E-3    5.377993659308202E-1   -2.601228732259916E-3    3.511405351956227E-4   -2.628849135093648E-3    4.096031099049103E-4    1.540635520448644E-1    4.864622644583080E-1
 8.149608997850000E9    -1.450326231746805E-3    5.378949169458993E-1   -2.623415806817683E-3    3.123038918881408E-4   -2.624845165370798E-3    3.920352815996954E-4    1.549026754577743E-1    4.860080901254152E-1
 8.149623689400000E9    -5.429268812129957E-4    5.379735353908356E-1   -2.596682881186009E-3    3.580435884163328E-4   -2.648360913141519E-3    4.022420361214817E-4    1.557683661550627E-1    4.857346239219290E-1
 8.149638380950000E9     4.853541372897333E-4    5.379757977679399E-1   -2.608620884762310E-3    3.771265434059114E-4   -2.631590171806852E-3    4.116499871170826E-4    1.566163895289960E-1    4.854756161140955E-1
 8.149653072500000E9     1.585616943325876E-3    5.381653437931481E-1   -2.608011348597181E-3    3.554958891794857E-4   -2.626709648772715E-3    4.019595042856281E-4    1.575047023670725E-1    4.852834640643724E-1
 8.149667764050000E9     2.484439730158933E-3    5.380751209246738E-1   -2.581039250068230E-3    3.608982146525658E-4   -2.633063306178862E-3    4.087665544734631E-4    1.585154958074280E-1    4.849497406302440E-1
 8.149682455600000E9     3.471472515846476E-3    5.379652592342576E-1   -2.592456954913093E-3    3.786519584122666E-4   -2.643410513341383E-3    4.315227241869356E-4    1.594335764718821E-1    4.847246105888052E-1
 8.149697147150000E9     4.464673302429367E-3    5.381055968796876E-1   -2.612921783811771E-3    3.919229861956669E-4   -2.637041323484780E-3    4.466502369383677E-4    1.604132640408473E-1    4.843950367759215E-1
 8.149711838700000E9     5.608232449136862E-3    5.380330823490139E-1   -2.641268288201320E-3    3.833273203739687E-4   -2.637058048905995E-3    4.431956857461256E-4    1.611135247149033E-1    4.839164200062212E-1
 8.149726530250000E9     6.599050010781517E-3    5.381596567810853E-1   -2.621231641097534E-3    3.587886251678603E-4   -2.619956750081782E-3    4.222958945424892E-4    1.619040942404576E-1    4.836471887963354E-1
 8.149741221800000E9     7.680058920828453E-3    5.381505085326832E-1   -2.593636288965518E-3    3.883064949163207E-4   -2.616942412593407E-3    4.432344913176919E-4    1.629653258637899E-1    4.833169981641074E-1
 8.149755913350000E9     8.533886108197478E-3    5.380401678920667E-1   -2.614776358532116E-3    4.066329657219632E-4   -2.624207339361327E-3    4.757681892965923E-4    1.638249111499976E-1    4.830812496913770E-1
 8.149770604900000E9     9.575028592802274E-3    5.381975067552508E-1   -2.603508634479316E-3    4.219801791577750E-4   -2.655185394279438E-3    4.466750584060935E-4    1.648673798383424E-1    4.827560122032301E-1
 8.149785296450000E9     1.072845942930634E-2    5.380913892915964E-1   -2.601221930631384E-3    4.216198532950706E-4   -2.612558762851125E-3    4.457459385884634E-4    1.657456714570472E-1    4.823271807445649E-1
 8.149799988000000E9     1.166227864513645E-2    5.381651283866866E-1   -2.612075746022934E-3    4.111810253043325E-4   -2.622087438678808E-3    4.506462841088721E-4    1.666117492665556E-1    4.821846329101278E-1
 8.149814679550000E9     1.274879360279823E-2    5.381649331110490E-1   -2.586950299500864E-3    4.251373169640329E-4   -2.622430163884774E-3    4.826105435017631E-4    1.672644024459457E-1    4.816983695469445E-1
 8.149829371100000E9     1.371496022033185E-2    5.381135399961130E-1   -2.596754489604990E-3    4.190905862457863E-4   -2.661104438771807E-3    5.017840198250259E-4    1.681817688868167E-1    4.813795776672822E-1
 8.149844062650000E9     1.478639562101183E-2    5.380585919309152E-1   -2.600775598212912E-3    4.201420068739750E-4   -2.617703894464920E-3    4.717666157011610E-4    1.689566967702376E-1    4.809679086399676E-1
 8.149858754200000E9     1.581174596620147E-2    5.381857829686391E-1   -2.586463383598436E-3    4.450904117424107E-4   -2.612190768362028E-3    5.018144142711328E-4    1.700165581860302E-1    4.806738984507255E-1
 8.149873445750000E9     1.685808936202111E-2    5.382674276720762E-1   -2.570521282563031E-3    4.463400615104086E-4   -2.653477971142945E-3    5.058563774277882E-4    1.709818500873774E-1    4.803948702843450E-1
 8.149888137300000E9     1.788536692360293E-2    5.382064126038740E-1   -2.623609925718479E-3    4.599274349668563E-4   -2.609261575908832E-3    5.487031247898612E-4    1.718010373891741E-1    4.800268029612218E-1
 8.149902828850000E9     1.886568555759910E-2    5.379965246462195E-1   -2.592403884664295E-3    4.524352273609073E-4   -2.618714171660611E-3    5.107018752091272E-4    1.727539560946481E-1    4.797653867565524E-1
 8.149917520400000E9     1.981618220550528E-2    5.380657455842222E-1   -2.597627946189727E-3    4.544971004700177E-4   -2.633572572984202E-3    5.125252449859230E-4    1.735139863750050E-1    4.793227490760859E-1
 8.149932211950000E9     2.085883528346300E-2    5.381514810938892E-1   -2.588219815812877E-3    4.712598271474121E-4   -2.634149018800654E-3    5.308985919527155E-4    1.744568076818201E-1    4.790667678879773E-1
 8.149946903500000E9     2.194779889546996E-2    5.380650032462762E-1   -2.596132868379480E-3    4.604395487984006E-4   -2.605634303396329E-3    5.521938764593088E-4    1.755028642350175E-1    4.786814260700927E-1
 8.149961595050000E9     2.295924461550172E-2    5.380875837311488E-1   -2.589773849137219E-3    4.865882016895272E-4   -2.584935385186126E-3    5.195112703703344E-4    1.762538135545285E-1    4.784278613928882E-1
 8.149976286600000E9     2.405076607570598E-2    5.380341898928606E-1   -2.596416926388312E-3    5.041755763552985E-4   -2.634339574716374E-3    5.252005142838470E-4    1.772537948241361E-1    4.780774849011172E-1
 8.149990978150000E9     2.501418786265194E-2    5.380205842945153E-1   -2.593545693778530E-3    5.120528311525862E-4   -2.663256595859596E-3    5.507657866874636E-4    1.782260594023883E-1    4.775699779422447E-1
 8.150005669700000E9     2.615176856115009E-2    5.380158045413019E-1   -2.601058722565074E-3    4.855279607919994E-4   -2.652969082185505E-3    5.308829148102290E-4    1.789576652657025E-1    4.773734619035983E-1
 8.150020361250000E9     2.710603831222129E-2    5.378497657037127E-1   -2.589900215344023E-3    4.906921844847740E-4   -2.613460571750019E-3    5.381029457944474E-4    1.797043155012609E-1    4.768638518733078E-1
 8.150035052800000E9     2.801716789934868E-2    5.379269171046964E-1   -2.596855572211243E-3    4.823483201271973E-4   -2.610822412260016E-3    5.616132440324838E-4    1.806849342600058E-1    4.764002115146841E-1
 8.150049744350000E9     2.911407255022514E-2    5.379500870001351E-1   -2.588637194446434E-3    5.063053559378049E-4   -2.604057390537015E-3    5.674994508609850E-4    1.816112048068505E-1    4.762178660417598E-1
 8.150064435900000E9     3.025081215427900E-2    5.377992671150656E-1   -2.602741761009760E-3    5.294884033972221E-4   -2.593315612266784E-3    5.565876220051250E-4    1.824011995599812E-1    4.756191188411514E-1
 8.150079127450000E9     3.116531213584094E-2    5.377997496833382E-1   -2.607959851574001E-3    5.149337294822145E-4   -2.613117257164225E-3    5.374276514989703E-4    1.832337462267525E-1    4.753876682131777E-1
 8.150093819000000E9     3.219665927608419E-2    5.378103117132353E-1   -2.619659737345407E-3    5.103636572977114E-4   -2.621600664562280E-3    6.041189947429766E-4    1.841774260564639E-1    4.750539007749534E-1
 8.150108510550000E9     3.319440935894728E-2    5.377618391788563E-1   -2.627680382375095E-3    5.325763435238625E-4   -2.626325659269878E-3    5.797069548074431E-4    1.849791268791164E-1    4.747929310417824E-1
 8.150123202100000E9     3.421231437276490E-2    5.378561663948930E-1   -2.597094892420707E-3    5.198365383439918E-4   -2.640319123277086E-3    6.302954864721192E-4    1.859512005216923E-1    4.744604687903803E-1
 8.150137893650000E9     3.528153308329995E-2    5.377010978565421E-1   -2.595756721354089E-3    5.672664910113992E-4   -2.584626704741039E-3    6.187449090124980E-4    1.867271510116698E-1    4.740721596861106E-1
 8.150152585200000E9     3.626495476822180E-2    5.375837582010033E-1   -2.599370848535322E-3    5.538394670022438E-4   -2.643536393234415E-3    5.787284463936120E-4    1.875796463151679E-1    4.736976134453686E-1
 8.150167276750000E9     3.718608129369981E-2    5.375428756400800E-1   -2.610631148750821E-3    5.466630708671335E-4   -2.608260144476659E-3    6.008469960714488E-4    1.885616271216039E-1    4.732858993154052E-1
 8.150181968300000E9     3.829170476664175E-2    5.374583222937148E-1   -2.582428038425769E-3    5.515313227820662E-4   -2.575280495117562E-3    6.274870567001221E-4    1.894934578153765E-1    4.728735780469777E-1
 8.150196659850000E9     3.930387236553747E-2    5.376025664778123E-1   -2.602492131811760E-3    5.681150661407243E-4   -2.628572907871267E-3    6.392344989916949E-4    1.902898432419421E-1    4.726010916779034E-1
 8.150211351400000E9     4.030899231883821E-2    5.374408500661160E-1   -2.589154652180423E-3    5.648402478811070E-4   -2.608558110150377E-3    6.019090677562652E-4    1.912144489099200E-1    4.722060352435216E-1
 8.150226042950000E9     4.143650226800981E-2    5.374242589827781E-1   -2.605072674764156E-3    5.463592532380657E-4   -2.609629230066515E-3    6.340056554936645E-4    1.919626126199213E-1    4.718795980459743E-1
 8.150240734500000E9     4.238687922539534E-2    5.374536820894711E-1   -2.605952253882158E-3    5.855438378746126E-4   -2.628152621005869E-3    6.198366892082541E-4    1.928164468124230E-1    4.715192705745347E-1
