#  HZ   S   RI   R     50.00 
! Rohde & Schwarz Vector Network Analyzer 
! Rohde-Schwarz,ZNB20-2Port,1311601062101988,3.16
! Created: UTC 3/21/2024, 1:09:01 AM
! freq[Hz]                re:S11                  im:S11                  re:S21                  im:S21                  re:S12                  im:S12                  re:S22                  im:S22
 8.148739465000000E9    -6.221647028472040E-2    5.327911102859660E-1   -2.619755863611433E-3    2.438183786068366E-5   -2.637628397858607E-3    9.322821424951205E-5    1.005325314965532E-1    5.012675881621225E-1
 8.148755001850000E9    -6.093971626935061E-2    5.329042553901512E-1   -2.618425122882528E-3    2.737779440226849E-5   -2.656325049452238E-3    1.142801946194154E-4    1.014964992511039E-1    5.009885250303224E-1
 8.148770538700000E9    -5.987531667055040E-2    5.331586583742791E-1   -2.625931355549246E-3    4.589557297780501E-5   -2.664723888903204E-3    1.241225607513504E-4    1.027592074239127E-1    5.007505327750067E-1
 8.148786075550000E9    -5.887960461696396E-2    5.332266919523801E-1   -2.617220801045385E-3    6.394356078814766E-5   -2.677587630770855E-3    9.179484840936118E-5    1.035998095438995E-1    5.007121225005010E-1
 8.148801612400000E9    -5.768755380282273E-2    5.334463603569561E-1   -2.607527480277403E-3    5.640778419050830E-5   -2.621505360850763E-3    1.016446797605836E-4    1.045931233134266E-1    5.005933628818051E-1
 8.148817149250000E9    -5.671722282189794E-2    5.335728415335443E-1   -2.605810624231098E-3    6.987121865545446E-5   -2.656931147804144E-3    1.269791011721477E-4    1.054091661114402E-1    5.000814077366446E-1
 8.148832686100000E9    -5.562441079040833E-2    5.337542097336242E-1   -2.612845553561618E-3    8.536010362105517E-5   -2.659972521539071E-3    1.273038202483896E-4    1.065720765222155E-1    4.999653878612191E-1
 8.148848222950000E9    -5.449802417941866E-2    5.338845744189511E-1   -2.610215631112613E-3    9.115650618414716E-5   -2.654949326975009E-3    1.468150671109021E-4    1.074129642527784E-1    4.996614374522735E-1
 8.148863759800000E9    -5.344165463207989E-2    5.339956703039591E-1   -2.610143239002675E-3    9.842625374111648E-5   -2.625487613361501E-3    1.123156707308725E-4    1.084247721880396E-1    4.994559474767995E-1
 8.148879296650000E9    -5.245012865549997E-2    5.340824881759618E-1   -2.624544095661736E-3    1.008578969112305E-4   -2.666340761868613E-3    1.629156061825719E-4    1.092188163462493E-1    4.992125546698565E-1
 8.148894833500000E9    -5.122203410977184E-2    5.343122411091689E-1   -2.617715261230513E-3    1.053814868491148E-4   -2.659898427279977E-3    1.421348272971795E-4    1.105406818188759E-1    4.991123954636046E-1
 8.148910370350000E9    -5.020035620144042E-2    5.343612744681379E-1   -2.611155877054396E-3    1.017185285647936E-4   -2.641263126714807E-3    1.491666736236074E-4    1.114532042735552E-1    4.988301920309435E-1
 8.148925907200000E9    -4.908756626034257E-2    5.345305782466921E-1   -2.621192108772373E-3    1.141523258831624E-4   -2.620595636341293E-3    1.605360123228421E-4    1.123551086533710E-1    4.985404196188005E-1
 8.148941444050000E9    -4.794255665558768E-2    5.345848767181450E-1   -2.622401502299213E-3    1.277027962831268E-4   -2.673059558146340E-3    1.710444552813663E-4    1.132960415263813E-1    4.983319494703987E-1
 8.148956980900000E9    -4.690788643278040E-2    5.347935811958118E-1   -2.630770608510121E-3    1.174983578295140E-4   -2.638574171379536E-3    1.774301488621728E-4    1.142336229697484E-1    4.979989516684481E-1
 8.148972517750000E9    -4.584747646741532E-2    5.348931916916837E-1   -2.600295183258311E-3    1.273175033646642E-4   -2.640996681248324E-3    1.739253508730640E-4    1.153451177059139E-1    4.977858848355505E-1
 8.148988054600000E9    -4.479457667710943E-2    5.351352211663293E-1   -2.593051582942474E-3    1.192147442996159E-4   -2.653893613109028E-3    1.680071425473127E-4    1.162060240151950E-1    4.976006499960994E-1
 8.149003591450000E9    -4.379567132381546E-2    5.351207559581932E-1   -2.579615649393863E-3    1.239142009018731E-4   -2.660183289223602E-3    2.222195818658643E-4    1.173001468056676E-1    4.974640280868210E-1
 8.149019128300000E9    -4.279936368786074E-2    5.351050815412876E-1   -2.621287736993122E-3    1.383439848351457E-4   -2.646570330139879E-3    2.146016703624287E-4    1.181895216424140E-1    4.971574235137588E-1
 8.149034665150000E9    -4.151241978083677E-2    5.352816338245513E-1   -2.616602712276885E-3    1.586617193686488E-4   -2.636404564988734E-3    1.815942483402119E-4    1.191915351609349E-1    4.969743688802887E-1
 8.149050202000000E9    -4.055756519267249E-2    5.355310602815024E-1   -2.624654138387777E-3    1.435391713304192E-4   -2.619810607934188E-3    1.881383015116946E-4    1.201515684473528E-1    4.965743055799361E-1
 8.149065738850000E9    -3.940565201402296E-2    5.355804906188090E-1   -2.635333644783860E-3    1.704092295647017E-4   -2.646442021292742E-3    2.044638590654994E-4    1.210100959457620E-1    4.963622850137431E-1
 8.149081275700000E9    -3.833799518044509E-2    5.356758275060884E-1   -2.612976235559056E-3    1.688157345166685E-4   -2.627358722076914E-3    2.046345003134977E-4    1.218240733898415E-1    4.960408566943140E-1
 8.149096812550000E9    -3.728051007890757E-2    5.357540302407523E-1   -2.605121371831919E-3    2.045481140395266E-4   -2.649462431098341E-3    2.190645235894464E-4    1.230726563883418E-1    4.958290369252791E-1
 8.149112349400000E9    -3.615929150608777E-2    5.359308802796571E-1   -2.622864843060910E-3    1.787808842139807E-4   -2.644974211490075E-3    2.417168904683978E-4    1.240312276632862E-1    4.955199003708250E-1
 8.149127886250000E9    -3.510407502572852E-2    5.359442745915460E-1   -2.599572287188775E-3    1.944629915763433E-4   -2.653726804096877E-3    2.087128809677544E-4    1.249519571659612E-1    4.951902511445458E-1
 8.149143423100000E9    -3.405927787764491E-2    5.360739053752142E-1   -2.599428838070339E-3    1.793472119608744E-4   -2.655809196752088E-3    2.273364178209472E-4    1.260209428356342E-1    4.949974901228445E-1
 8.149158959950000E9    -3.286021786781040E-2    5.361600616052634E-1   -2.627045261304149E-3    1.723691812098518E-4   -2.648843842486854E-3    2.284271590425774E-4    1.269351737349318E-1    4.947751828999162E-1
 8.149174496800000E9    -3.185398969690044E-2    5.362689109701978E-1   -2.615251701652877E-3    1.726201423379239E-4   -2.659996033843731E-3    2.960799667785690E-4    1.279252296952934E-1    4.944599273574918E-1
 8.149190033650000E9    -3.084164792650253E-2    5.362862290249599E-1   -2.609323016174052E-3    2.054447167087917E-4   -2.661478239884846E-3    2.155077774639011E-4    1.289088128156571E-1    4.942441820346737E-1
 8.149205570500000E9    -2.976902252294574E-2    5.363672891313169E-1   -2.589588563080172E-3    2.133062109585414E-4   -2.634610980576898E-3    2.322596498064932E-4    1.298377824191432E-1    4.938742788481617E-1
 8.149221107350000E9    -2.862741873067123E-2    5.365694924704800E-1   -2.597625614986967E-3    2.385335249816648E-4   -2.638543342100687E-3    2.628122847398862E-4    1.308800695198333E-1    4.936171218082626E-1
 8.149236644200000E9    -2.758234108655535E-2    5.365125257233525E-1   -2.616507344957482E-3    2.072452854482179E-4   -2.656197436476491E-3    2.730556229415526E-4    1.317041614023386E-1    4.932380653915604E-1
 8.149252181050000E9    -2.637649951633628E-2    5.366894408919918E-1   -2.612757617258728E-3    2.133008305723193E-4   -2.632232145314868E-3    2.455357270882884E-4    1.327919478823997E-1    4.930425987440561E-1
 8.149267717900000E9    -2.543159494087611E-2    5.366574921540836E-1   -2.624132351418523E-3    2.248745322204957E-4   -2.622084573511557E-3    2.589257896208781E-4    1.337100529498944E-1    4.927717408637231E-1
 8.149283254750000E9    -2.438297916425768E-2    5.367851154400177E-1   -2.613893740203870E-3    2.373620117868426E-4   -2.638081638713033E-3    2.965716962642533E-4    1.346856477677861E-1    4.925966273292862E-1
 8.149298791600000E9    -2.319988790494888E-2    5.368632006187146E-1   -2.608906102851339E-3    2.657574062422978E-4   -2.643375469156963E-3    3.094875599643541E-4    1.358338681655419E-1    4.922356758144411E-1
 8.149314328450000E9    -2.223746554558766E-2    5.370491737969125E-1   -2.611153649408819E-3    2.353033388876892E-4   -2.627367265196861E-3    3.047565309207558E-4    1.364684380926520E-1    4.919406394160990E-1
 8.149329865300000E9    -2.109941934133189E-2    5.369937868844348E-1   -2.597969093115174E-3    2.669752226719080E-4   -2.612346565625099E-3    3.223104372039510E-4    1.376203056099143E-1    4.917265671417890E-1
 8.149345402150000E9    -1.986860699266425E-2    5.370111515174351E-1   -2.627798021617648E-3    2.401200472284133E-4   -2.638143223754195E-3    3.277787452358516E-4    1.386019548282371E-1    4.914488306477566E-1
 8.149360939000000E9    -1.886045031164674E-2    5.371486701162390E-1   -2.612397848655675E-3    2.526819345815220E-4   -2.601495707216299E-3    3.451820066673815E-4    1.393939410332483E-1    4.910746168790905E-1
 8.149376475850000E9    -1.776194985396335E-2    5.371634704179935E-1   -2.604817661277816E-3    2.469711486901456E-4   -2.637122547535366E-3    3.220617478726250E-4    1.404700130512765E-1    4.907490090359186E-1
 8.149392012700000E9    -1.676204119166517E-2    5.372341517290959E-1   -2.606408860330846E-3    2.708343116559291E-4   -2.623963101590172E-3    3.189369017221912E-4    1.413810208394532E-1    4.903132852639679E-1
 8.149407549550000E9    -1.571008995817837E-2    5.373552167392084E-1   -2.610916299432389E-3    2.413712521321978E-4   -2.642800825884544E-3    3.430448939110431E-4    1.423054410513774E-1    4.901987616779674E-1
 8.149423086400000E9    -1.459139922808601E-2    5.373326107571641E-1   -2.617006796078404E-3    2.705650235363610E-4   -2.640087907342483E-3    3.649933031468257E-4    1.433424741443519E-1    4.899038666301567E-1
 8.149438623250000E9    -1.340161169638007E-2    5.375704309536964E-1   -2.605693741866329E-3    2.755028594811500E-4   -2.655999981939455E-3    3.240298002925065E-4    1.442589198964966E-1    4.895588071071821E-1
 8.149454160100000E9    -1.244388103809208E-2    5.375295003749596E-1   -2.599203031373067E-3    3.116242887489629E-4   -2.633058999031349E-3    3.137688626253705E-4    1.453369340087925E-1    4.893034630297278E-1
 8.149469696950000E9    -1.132709694685291E-2    5.375521718077055E-1   -2.598614291650534E-3    3.123916419841386E-4   -2.631189950831391E-3    3.744313595638095E-4    1.462777569855791E-1    4.890563236743994E-1
 8.149485233800000E9    -1.027341961075550E-2    5.376236457981299E-1   -2.612888440038187E-3    2.798831977132946E-4   -2.655251026762332E-3    3.776963550439664E-4    1.472690167729377E-1    4.886081292065645E-1
 8.149500770650000E9    -9.240410264865061E-3    5.375503936275529E-1   -2.624013625888161E-3    3.200637278402659E-4   -2.666414741180767E-3    3.257080383111951E-4    1.481628338598842E-1    4.883809726662485E-1
 8.149516307500000E9    -7.994317372123947E-3    5.376573823662625E-1   -2.615060597481118E-3    3.360100179555364E-4   -2.631407801297487E-3    3.758005408482395E-4    1.490879002952772E-1    4.880188456862659E-1
 8.149531844350000E9    -6.946548488312445E-3    5.378223498118556E-1   -2.610292825227682E-3    3.426736870196596E-4   -2.631824499408919E-3    4.093580308924036E-4    1.500227430189795E-1    4.876734290780738E-1
 8.149547381200000E9    -5.976622776849790E-3    5.377740864991032E-1   -2.606620316269505E-3    3.146790469102221E-4   -2.590904273750210E-3    3.941978746474619E-4    1.510597112919463E-1    4.874541995230690E-1
 8.149562918050000E9    -4.912412703348150E-3    5.377410836806098E-1   -2.597917794993250E-3    3.325705437012691E-4   -2.625748164621560E-3    4.022537226376233E-4    1.519596753126918E-1    4.872212613726674E-1
 8.149578454900000E9    -3.804563933026334E-3    5.378511489911516E-1   -2.622067663355560E-3    3.309620632771485E-4   -2.639602638986030E-3    3.880174984481132E-4    1.527874228974442E-1    4.868108380627889E-1
 8.149593991750000E9    -2.738730582814926E-3    5.379149500396002E-1   -2.574861774670203E-3    3.464853534529456E-4   -2.631718445730602E-3    3.848580224838568E-4    1.537933608984836E-1    4.864092589428682E-1
 8.149609528600000E9    -1.604923780884283E-3    5.379461843821014E-1   -2.615489402428717E-3    3.492650646192887E-4   -2.590309847456576E-3    4.099836869310446E-4    1.547753058033450E-1    4.861100694872304E-1
 8.149625065450000E9    -6.114534649665928E-4    5.379794014224902E-1   -2.612250015881885E-3    3.346212330039162E-4   -2.631198466034847E-3    4.302206242920683E-4    1.558578737567886E-1    4.858321179563247E-1
 8.149640602300000E9     5.312069007960710E-4    5.380670586654895E-1   -2.587334440190808E-3    3.871705425187182E-4   -2.630317542454821E-3    4.011050272516843E-4    1.566207510672050E-1    4.853975995793491E-1
 8.149656139150000E9     1.585059315025831E-3    5.380296084678192E-1   -2.601643462118273E-3    3.751761985751193E-4   -2.622288819377019E-3    4.025081470347171E-4    1.576239583483745E-1    4.851129282998033E-1
 8.149671676000000E9     2.726641870031727E-3    5.380203114244199E-1   -2.628070583276541E-3    3.914354432738270E-4   -2.631530795986783E-3    4.479988040837804E-4    1.585929353492713E-1    4.848504812112068E-1
 8.149687212850000E9     3.817161299971525E-3    5.380862726847981E-1   -2.594593648156889E-3    3.854792840309867E-4   -2.600684669517286E-3    4.035572384747668E-4    1.595675766097925E-1    4.844561683478747E-1
 8.149702749700000E9     4.916427209901143E-3    5.379980161422080E-1   -2.621110994047389E-3    3.936816627232910E-4   -2.636205400530140E-3    4.579940103706613E-4    1.604975332082852E-1    4.841750898647905E-1
 8.149718286550000E9     5.977294092296651E-3    5.380804399074455E-1   -2.608054401636770E-3    3.817991460484509E-4   -2.617034837949719E-3    4.307221187150622E-4    1.613784756163975E-1    4.838281166206423E-1
 8.149733823400000E9     6.950778927492126E-3    5.380518831636709E-1   -2.606734038949290E-3    4.029807927832431E-4   -2.659218024746750E-3    4.473656610426014E-4    1.623056695546305E-1    4.833716063222116E-1
 8.149749360250000E9     8.130865021837857E-3    5.380927228410687E-1   -2.603342140893036E-3    4.273621749826501E-4   -2.618277010123711E-3    4.439959989476997E-4    1.633162273103763E-1    4.830465202154618E-1
 8.149764897100000E9     9.162816747109736E-3    5.380730782076953E-1   -2.598055438986502E-3    4.079138816203276E-4   -2.603719753936959E-3    4.543245599143827E-4    1.643771992873432E-1    4.828538282333780E-1
 8.149780433950000E9     1.024906148123952E-2    5.379858992811981E-1   -2.613088802428463E-3    3.976893962762158E-4   -2.607757383699459E-3    4.684037098024962E-4    1.652731246329282E-1    4.824101588304928E-1
 8.149795970800000E9     1.144305722975233E-2    5.380740607006268E-1   -2.599362721927179E-3    4.254109716514835E-4   -2.628005010389607E-3    4.600908590365195E-4    1.662288725469186E-1    4.821573918542010E-1
 8.149811507650000E9     1.239778391199598E-2    5.380726838791906E-1   -2.580845160853189E-3    4.187484670595042E-4   -2.622283704217506E-3    4.769455097480108E-4    1.669267170777367E-1    4.817024660048098E-1
 8.149827044500000E9     1.348239006671944E-2    5.381183721904507E-1   -2.590163043939317E-3    4.357636303888751E-4   -2.596821245890740E-3    5.105901041860870E-4    1.679970486470795E-1    4.814566630613838E-1
 8.149842581350000E9     1.459962992918363E-2    5.382045919801635E-1   -2.594953616426421E-3    4.214631079493082E-4   -2.616516182500874E-3    5.054981052382349E-4    1.690088075711581E-1    4.810856498055689E-1
 8.149858118200000E9     1.564499360416520E-2    5.381260191175485E-1   -2.591393768895434E-3    4.488826753743629E-4   -2.632878661447864E-3    5.119998473617421E-4    1.698698129123392E-1    4.806111998090220E-1
 8.149873655050000E9     1.683707151775689E-2    5.379682656685497E-1   -2.600887685059129E-3    4.351245009047474E-4   -2.600675964576761E-3    5.050072124765857E-4    1.707969832952788E-1    4.803838934332730E-1
 8.149889191900000E9     1.785892832240440E-2    5.381116809906684E-1   -2.624884485775505E-3    4.441772899393444E-4   -2.632256171923664E-3    5.168158497702304E-4    1.717909709571488E-1    4.799610690705297E-1
 8.149904728750000E9     1.890833709975309E-2    5.381325367256904E-1   -2.619567065705213E-3    4.647811606342922E-4   -2.632125570050428E-3    4.734635246229443E-4    1.726816807520158E-1    4.796046104943201E-1
 8.149920265600000E9     1.989117493054434E-2    5.380283379127990E-1   -2.579852204071581E-3    4.532512782730391E-4   -2.631996407038274E-3    5.163531699885776E-4    1.735686082695898E-1    4.793322426360401E-1
 8.149935802450000E9     2.120685828504478E-2    5.380505083542491E-1   -2.608252512810256E-3    4.717347126805153E-4   -2.616934487024438E-3    5.463037683508062E-4    1.745475017924053E-1    4.788773241510475E-1
 8.149951339300000E9     2.240935024412189E-2    5.381719950035297E-1   -2.592623723643758E-3    4.589923575355900E-4   -2.623751765060624E-3    5.247920942050320E-4    1.754053464830863E-1    4.785427238192670E-1
 8.149966876150000E9     2.315245655678487E-2    5.379494251397683E-1   -2.603794691371667E-3    4.594048412840500E-4   -2.620933529000803E-3    5.226482324951576E-4    1.764053332751541E-1    4.782093400333201E-1
 8.149982413000000E9     2.426200518924607E-2    5.380311064672538E-1   -2.599588921996872E-3    4.631727462890493E-4   -2.623066369080288E-3    5.558229134991734E-4    1.774180854729157E-1    4.779348788850670E-1
 8.149997949850000E9     2.543245811246213E-2    5.380057849026750E-1   -2.601186672122853E-3    4.948029292950082E-4   -2.597831809305505E-3    5.341333462507719E-4    1.782627680108840E-1    4.774628148809905E-1
 8.150013486700000E9     2.656666960455946E-2    5.379080694981508E-1   -2.618925996825767E-3    5.045669520524170E-4   -2.611418707246757E-3    5.467011351085145E-4    1.791430788324067E-1    4.771212522890035E-1
 8.150029023550000E9     2.764404865711020E-2    5.379305563617276E-1   -2.608533221191986E-3    5.102909784480498E-4   -2.607534132441671E-3    5.439678785552068E-4    1.800703180303263E-1    4.767479462315628E-1
 8.150044560400000E9     2.864433562595394E-2    5.378558011494747E-1   -2.588949466149486E-3    5.140247573544077E-4   -2.618702312125921E-3    5.758509242195479E-4    1.810739559092008E-1    4.764242664007913E-1
 8.150060097250000E9     2.978430605666766E-2    5.378860615139365E-1   -2.612803775847696E-3    5.514478111404008E-4   -2.592263899707807E-3    5.764109081457391E-4    1.820450584672272E-1    4.759941953700908E-1
 8.150075634100000E9     3.080193374764270E-2    5.378044059500462E-1   -2.613887361548384E-3    5.020721067101407E-4   -2.632860526627761E-3    5.506587013550320E-4    1.829985770858542E-1    4.756889879809307E-1
 8.150091170950000E9     3.199473322955845E-2    5.376610510119335E-1   -2.573684719751865E-3    5.216735798581659E-4   -2.581594329600334E-3    5.998797192244661E-4    1.838607027233706E-1    4.751573838657661E-1
 8.150106707800000E9     3.300685014510989E-2    5.377306060544711E-1   -2.595208543512119E-3    5.298155898357889E-4   -2.618862171703667E-3    5.718306585128496E-4    1.846538175899790E-1    4.748336159764996E-1
 8.150122244650000E9     3.410282946160981E-2    5.378285254880026E-1   -2.608132430889025E-3    5.386283682781764E-4   -2.643822710225819E-3    5.931847750070023E-4    1.855462893765644E-1    4.745035782134082E-1
 8.150137781500000E9     3.513796141085310E-2    5.376148914866148E-1   -2.609068975389307E-3    5.513008398158525E-4   -2.621009708430832E-3    5.975083950156094E-4    1.865935521561797E-1    4.740824327125981E-1
