#  HZ   S   RI   R     50.00 
! Rohde & Schwarz Vector Network Analyzer 
! Rohde-Schwarz,ZNB20-2Port,1311601062101988,3.16
! Created: UTC 3/21/2024, 1:09:16 AM
! freq[Hz]                re:S11                  im:S11                  re:S21                  im:S21                  re:S12                  im:S12                  re:S22                  im:S22
 8.149005488000000E9    -4.399123626374585E-2    5.350580299344868E-1   -2.609924507907403E-3    1.064964602556068E-4   -2.668414677106235E-3    1.813946305434282E-4    1.171182706390424E-1    4.972421722111000E-1
 8.149019874075000E9    -4.286423754280169E-2    5.350653727527588E-1   -2.624181802321897E-3    1.351823517942330E-4   -2.639501401913848E-3    1.913045780956020E-4    1.181389459568365E-1    4.971070439953112E-1
 8.149034260150000E9    -4.176050399250598E-2    5.352716139455189E-1   -2.594430828211744E-3    1.561089709036006E-4   -2.647056991708784E-3    2.138745322188254E-4    1.190747857829871E-1    4.969475939595492E-1
 8.149048646225000E9    -4.081465853546615E-2    5.354129682936066E-1   -2.611904452428121E-3    1.722897857311386E-4   -2.675466512497901E-3    2.246465981713146E-4    1.198492529726046E-1    4.965935354510476E-1
 8.149063032300000E9    -3.981816852152240E-2    5.354046890538833E-1   -2.621983407155665E-3    1.706818407785086E-4   -2.632412524621501E-3    2.185527955460668E-4    1.208089020586434E-1    4.962664199321272E-1
 8.149077418375000E9    -3.885557077647127E-2    5.355557702390862E-1   -2.615535722906916E-3    1.511296848489301E-4   -2.639136326515924E-3    2.235909762556749E-4    1.216189402459918E-1    4.960671800267799E-1
 8.149091804450000E9    -3.782088299905102E-2    5.356731540774102E-1   -2.617950003261900E-3    1.559005017727537E-4   -2.637892120162282E-3    2.071907863107299E-4    1.227226922409169E-1    4.958683210418218E-1
 8.149106190525000E9    -3.692423646790968E-2    5.357504691928769E-1   -2.604693607084600E-3    1.512089478441456E-4   -2.648109420448856E-3    2.320204941581163E-4    1.233447998795455E-1    4.957092549233373E-1
 8.149120576600000E9    -3.585111896487182E-2    5.358706414871216E-1   -2.604630462853183E-3    1.742840609735128E-4   -2.672054863340467E-3    2.071498056308280E-4    1.244730933957981E-1    4.953999572655093E-1
 8.149134962675000E9    -3.485461364553458E-2    5.358620936580073E-1   -2.621235159099088E-3    1.794783716264984E-4   -2.651087220282701E-3    2.292107281636066E-4    1.252313903720235E-1    4.950947374751480E-1
 8.149149348750000E9    -3.385691329563399E-2    5.360183985254138E-1   -2.633579076945072E-3    2.056398115147528E-4   -2.640235929301204E-3    2.357826769161324E-4    1.262100757345266E-1    4.949209458494004E-1
 8.149163734825000E9    -3.289306837160495E-2    5.359962287723601E-1   -2.604379710679890E-3    2.148777682741731E-4   -2.632483394009105E-3    2.341898099774872E-4    1.270952457678038E-1    4.946313497497857E-1
 8.149178120900000E9    -3.186517242690778E-2    5.361771802384940E-1   -2.596098533522578E-3    2.011501230913464E-4   -2.664055531981352E-3    2.625015747479765E-4    1.280402436455712E-1    4.944893941837734E-1
 8.149192506975000E9    -3.078591489202153E-2    5.361590189390228E-1   -2.609166483151675E-3    1.981748971491460E-4   -2.645465001630781E-3    2.852742599253210E-4    1.289092322041266E-1    4.943260743433991E-1
 8.149206893050000E9    -2.976223416135374E-2    5.362923736580538E-1   -2.620482285069374E-3    1.772748362112877E-4   -2.662722073587565E-3    2.542742318057464E-4    1.298752738948593E-1    4.940401635555962E-1
 8.149221279125000E9    -2.879471121127288E-2    5.364681435222780E-1   -2.634145574505234E-3    2.257203641857810E-4   -2.640472582841578E-3    2.683307274085224E-4    1.306591472773458E-1    4.934956394800208E-1
 8.149235665200000E9    -2.794361536785986E-2    5.365015846786784E-1   -2.594833903455636E-3    2.273321478361875E-4   -2.675734596176986E-3    2.842799005714778E-4    1.315460673116161E-1    4.934365067622698E-1
 8.149250051275000E9    -2.683476335472814E-2    5.365840053307692E-1   -2.615918602199213E-3    2.080024732145819E-4   -2.639542243099839E-3    2.792884907231358E-4    1.325085966475421E-1    4.931967104821164E-1
 8.149264437350000E9    -2.592386098321357E-2    5.367624804564517E-1   -2.642452223848366E-3    2.134552614522892E-4   -2.642777853510529E-3    2.741964179145517E-4    1.332874265656671E-1    4.928619450012797E-1
 8.149278823425000E9    -2.487439908710427E-2    5.367286494786041E-1   -2.629259778285787E-3    2.306032124754798E-4   -2.644298486854569E-3    2.745092365293500E-4    1.342795971323234E-1    4.925647816068511E-1
 8.149293209500000E9    -2.389761856186777E-2    5.368021140178322E-1   -2.607628501416748E-3    2.471530829820395E-4   -2.618948129435157E-3    2.845053519604706E-4    1.350328594055209E-1    4.922795705984986E-1
 8.149307595575000E9    -2.292633073667597E-2    5.368951314785942E-1   -2.607197114651240E-3    2.484819468917235E-4   -2.654747131158017E-3    2.932377493076710E-4    1.359177652105003E-1    4.921215972823089E-1
 8.149321981650000E9    -2.184373303271591E-2    5.369625087411952E-1   -2.625584041780806E-3    2.709705488898784E-4   -2.638190447550016E-3    3.258892745171201E-4    1.369511840468614E-1    4.917199650234436E-1
 8.149336367725000E9    -2.090301314140642E-2    5.370223843687473E-1   -2.627423874954499E-3    2.394562440606898E-4   -2.649699812136959E-3    2.962945168046740E-4    1.376914404535118E-1    4.914815086378777E-1
 8.149350753800000E9    -1.989931950695936E-2    5.370900333394574E-1   -2.627894315519182E-3    2.631218904071564E-4   -2.635372097000111E-3    3.159848792849951E-4    1.386692055946563E-1    4.913007846499588E-1
 8.149365139875000E9    -1.897006534617964E-2    5.371115233334219E-1   -2.611208543702011E-3    2.568030371533679E-4   -2.639668992572875E-3    2.992516972650449E-4    1.395478441122492E-1    4.909515461306417E-1
 8.149379525950000E9    -1.795990673511592E-2    5.372428228448772E-1   -2.608962833484951E-3    2.915224057196889E-4   -2.628997574223296E-3    3.222321173157092E-4    1.404309723049071E-1    4.908451116616870E-1
 8.149393912025000E9    -1.675606629303742E-2    5.371490020683676E-1   -2.600874949148538E-3    2.626551196003434E-4   -2.605908948571812E-3    3.078049008597363E-4    1.413702282995095E-1    4.903951188882965E-1
 8.149408298100000E9    -1.587852313262457E-2    5.373842877994014E-1   -2.604324313197312E-3    2.911149771241412E-4   -2.660702279714851E-3    3.173708486763603E-4    1.421861688630537E-1    4.902285368672159E-1
 8.149422684175000E9    -1.482869568443789E-2    5.373120356028016E-1   -2.609179435917615E-3    2.695859511637164E-4   -2.638750687541667E-3    3.447345723215733E-4    1.432106498256950E-1    4.900046622672736E-1
 8.149437070250000E9    -1.389649666001579E-2    5.373657018795229E-1   -2.618896046221789E-3    2.937535261310813E-4   -2.634360309955697E-3    3.403850145206251E-4    1.439866642559741E-1    4.896670049097568E-1
 8.149451456325000E9    -1.276824640414917E-2    5.374222483959549E-1   -2.598093984838861E-3    3.021167940392640E-4   -2.635108266467881E-3    3.303449312282328E-4    1.449410354506631E-1    4.893561446774517E-1
 8.149465842400000E9    -1.181369794580114E-2    5.374684441830960E-1   -2.630969572669146E-3    2.941022305118049E-4   -2.652630159583656E-3    3.346591566027469E-4    1.458313483430816E-1    4.888938188346406E-1
 8.149480228475000E9    -1.088175739759333E-2    5.376084783015252E-1   -2.598055589856693E-3    3.093869877343217E-4   -2.642476840036469E-3    3.956060559671187E-4    1.465656113143400E-1    4.888095769518470E-1
 8.149494614550000E9    -9.887756898096244E-3    5.376105291526712E-1   -2.598544425868789E-3    2.980623788369275E-4   -2.640905139641431E-3    3.707284699263655E-4    1.475793322631472E-1    4.883981712417541E-1
 8.149509000625000E9    -8.718642105633308E-3    5.376484492251303E-1   -2.602035790183511E-3    3.030456244832796E-4   -2.628076180163481E-3    3.476922901984615E-4    1.485091422633082E-1    4.881974662429575E-1
 8.149523386700000E9    -7.816322625485822E-3    5.377631140227815E-1   -2.600849635814209E-3    3.292139768841293E-4   -2.650873516583139E-3    3.928073224023977E-4    1.492322224382945E-1    4.879494356043848E-1
 8.149537772775000E9    -6.836009827482388E-3    5.377384671954345E-1   -2.621552395786805E-3    3.116715899117493E-4   -2.649984821799145E-3    3.906134898160087E-4    1.503398056076170E-1    4.876877295856094E-1
 8.149552158850000E9    -5.836595841656703E-3    5.379158776093664E-1   -2.598787337932686E-3    3.332907560020102E-4   -2.627765355638084E-3    3.646930774542085E-4    1.509343011940137E-1    4.873840715607167E-1
 8.149566544925000E9    -4.746905772085111E-3    5.377194128514676E-1   -2.607262158022461E-3    3.221261125046180E-4   -2.676219940834816E-3    3.613557650704372E-4    1.519627479541561E-1    4.871295732715348E-1
 8.149580931000000E9    -3.758543264250122E-3    5.377237400178506E-1   -2.615130389850387E-3    3.352627072374845E-4   -2.641477381850821E-3    3.968025271728663E-4    1.529393725326446E-1    4.867170344755612E-1
 8.149595317075000E9    -2.581407088779736E-3    5.377574261388592E-1   -2.612301118101330E-3    3.366346107423366E-4   -2.639876176709362E-3    4.026480324509083E-4    1.536405580542010E-1    4.864232710669750E-1
 8.149609703150000E9    -1.906207996296288E-3    5.378029793321470E-1   -2.595847838748289E-3    3.424051511119413E-4   -2.658912361287317E-3    4.024475889506996E-4    1.544972937233187E-1    4.861158235233649E-1
 8.149624089225000E9    -8.387306152908089E-4    5.378955617743227E-1   -2.621963048345125E-3    3.468802647534259E-4   -2.615135717033379E-3    4.333711118228367E-4    1.553804756546978E-1    4.859679445858771E-1
 8.149638475300000E9     2.102101663440547E-4    5.379959066659793E-1   -2.609470737653694E-3    3.674132010300611E-4   -2.646734515364636E-3    4.014334909881848E-4    1.564127603492651E-1    4.855447081535590E-1
 8.149652861375000E9     1.230362164703194E-3    5.379906338209843E-1   -2.597907816065347E-3    3.697269185524090E-4   -2.638898731051738E-3    4.314975020905403E-4    1.572545241731361E-1    4.853393915968138E-1
 8.149667247450000E9     2.276989348674834E-3    5.379604525110622E-1   -2.606842789007611E-3    3.698727808736645E-4   -2.619497835729504E-3    4.384744792389533E-4    1.580351332482750E-1    4.848532887607943E-1
 8.149681633525000E9     3.193243310093165E-3    5.380223649283121E-1   -2.609178831706578E-3    3.840848854471936E-4   -2.650057103945841E-3    4.330679518078043E-4    1.589932592867665E-1    4.848666488682227E-1
 8.149696019600000E9     4.164417310551138E-3    5.380984407551189E-1   -2.612651257565627E-3    3.930554939552365E-4   -2.645106867564601E-3    4.235165827427180E-4    1.597971223279488E-1    4.842174678747565E-1
 8.149710405675000E9     5.146576489910203E-3    5.380327249380940E-1   -2.614808434060362E-3    3.970728752878099E-4   -2.612574216231686E-3    4.323622713737810E-4    1.608414952632637E-1    4.840089284670044E-1
 8.149724791750000E9     6.152191655277969E-3    5.380505718760693E-1   -2.578163376709597E-3    3.850148118108155E-4   -2.650837742682826E-3    4.211729038657290E-4    1.615404734695233E-1    4.837237257763834E-1
 8.149739177825000E9     7.183245754999652E-3    5.379546694468720E-1   -2.609933668537436E-3    4.106159076515976E-4   -2.622003992185012E-3    4.433817830519160E-4    1.624665393088455E-1    4.833424495432280E-1
 8.149753563900000E9     8.121902527909168E-3    5.380336370667422E-1   -2.598641417995785E-3    3.914385180614146E-4   -2.639885621429163E-3    4.627660027244518E-4    1.633033536262959E-1    4.829624329345495E-1
 8.149767949975000E9     9.179096823620961E-3    5.380863535795202E-1   -2.611177331916512E-3    4.302114428826911E-4   -2.631051573622791E-3    4.423530255594521E-4    1.641623045324357E-1    4.825900170134689E-1
 8.149782336050000E9     1.022934404153886E-2    5.381576476592332E-1   -2.611305407645003E-3    4.176240204689756E-4   -2.629094433508977E-3    4.421965941143095E-4    1.650849347703532E-1    4.825186692092774E-1
 8.149796722125000E9     1.126713078420020E-2    5.381108001912772E-1   -2.613927104965895E-3    4.162502042687405E-4   -2.602971803999570E-3    4.641792732334762E-4    1.659329460049457E-1    4.822615029374652E-1
 8.149811108200000E9     1.222070956176772E-2    5.381663639664088E-1   -2.592542513403191E-3    4.134783920477452E-4   -2.637463837055892E-3    4.533726268669389E-4    1.669055015388203E-1    4.818295067025514E-1
 8.149825494275000E9     1.324635434663216E-2    5.381004196643165E-1   -2.594578830723417E-3    4.019878140115852E-4   -2.622933470392561E-3    4.699767020204131E-4    1.678633621464697E-1    4.815346912255687E-1
 8.149839880350000E9     1.431635546639688E-2    5.380907488505335E-1   -2.603541381461861E-3    4.443243524909349E-4   -2.568169039553432E-3    4.757650263869627E-4    1.686067163252141E-1    4.812063952012599E-1
 8.149854266425000E9     1.515802093458350E-2    5.380548697964765E-1   -2.609700165792009E-3    4.510586745407517E-4   -2.626059125253797E-3    4.792794593186082E-4    1.694369447861979E-1    4.808116987101427E-1
 8.149868652500000E9     1.617350765946069E-2    5.381462903397771E-1   -2.585094988560578E-3    4.311153969400263E-4   -2.593798469867609E-3    5.034368053093386E-4    1.702165373533281E-1    4.804436520409405E-1
 8.149883038575000E9     1.723100081608774E-2    5.380668475706128E-1   -2.608874743329879E-3    4.563534484423665E-4   -2.616654366477909E-3    5.051766860123163E-4    1.711759259953042E-1    4.801082389703212E-1
 8.149897424650000E9     1.816910317862879E-2    5.380897833158351E-1   -2.585848545094149E-3    4.407281119116637E-4   -2.633254237026196E-3    5.096177034082136E-4    1.720381815351437E-1    4.798476296416923E-1
 8.149911810725000E9     1.911522205116407E-2    5.379954874171500E-1   -2.616185954896627E-3    4.465970804270105E-4   -2.635610199133880E-3    5.056774367014603E-4    1.729729154326825E-1    4.794741161848716E-1
 8.149926196800000E9     2.020853100190608E-2    5.380116474166821E-1   -2.615197840231432E-3    4.680779706037342E-4   -2.638306278522976E-3    5.067206996284769E-4    1.738051925390378E-1    4.790444745126258E-1
 8.149940582875000E9     2.128502281995612E-2    5.380782376582297E-1   -2.583919900854663E-3    4.841389529296063E-4   -2.616246168774683E-3    5.293171107636896E-4    1.746297820678051E-1    4.788140052011735E-1
 8.149954968950000E9     2.223529273549731E-2    5.380041969376624E-1   -2.597113994081929E-3    4.780535070987051E-4   -2.601234322635322E-3    5.686661023260570E-4    1.754885102321250E-1    4.785467927265534E-1
 8.149969355025000E9     2.328517860671982E-2    5.380608289120586E-1   -2.603107090321621E-3    4.643968977844897E-4   -2.629947356265715E-3    5.503479377490779E-4    1.764119460606096E-1    4.782227879946967E-1
 8.149983741100000E9     2.420897586814580E-2    5.379842904794281E-1   -2.595883659304379E-3    4.824659225273456E-4   -2.594467701948533E-3    5.246388535352310E-4    1.773519530610554E-1    4.779556520191225E-1
 8.149998127175000E9     2.529095501651686E-2    5.379820056082534E-1   -2.597201121854384E-3    4.994407715469345E-4   -2.619439826126945E-3    5.212543770386013E-4    1.780948016086716E-1    4.775199643397598E-1
 8.150012513250000E9     2.624449362587107E-2    5.379768019379682E-1   -2.603160452652348E-3    5.104909672478126E-4   -2.607435774902181E-3    5.722343748333138E-4    1.789840982686159E-1    4.771426209005376E-1
 8.150026899325000E9     2.721494375176184E-2    5.379435945409289E-1   -2.577535369337614E-3    5.086782656407867E-4   -2.593401319789723E-3    5.546575780537757E-4    1.798009440383352E-1    4.769495853702264E-1
 8.150041285400000E9     2.813706761310907E-2    5.379693885070236E-1   -2.602824052164387E-3    5.005836625931138E-4   -2.627303390446645E-3    5.649201375620232E-4    1.806920293715073E-1    4.763995853403856E-1
 8.150055671475000E9     2.914230656327051E-2    5.378225242505532E-1   -2.594684139741003E-3    5.109663636396803E-4   -2.583959801286477E-3    5.307443270766243E-4    1.815454730057075E-1    4.762057873026385E-1
 8.150070057550000E9     3.030152934970566E-2    5.378506207492479E-1   -2.586902004171705E-3    5.299264019001609E-4   -2.613230898962025E-3    5.769135197224654E-4    1.823359116837688E-1    4.758148245344589E-1
 8.150084443625000E9     3.127313165178481E-2    5.377981714121094E-1   -2.591522473455896E-3    5.198038010718990E-4   -2.620525066323244E-3    5.809371930833262E-4    1.831960015676717E-1    4.756005518292993E-1
 8.150098829700000E9     3.226935090817992E-2    5.377900038787884E-1   -2.589799569150497E-3    5.317702144585396E-4   -2.621576314944005E-3    6.054690817684523E-4    1.842069739539013E-1    4.749973849383927E-1
 8.150113215775000E9     3.318204841680732E-2    5.377359533184551E-1   -2.607563042591424E-3    5.498898841855538E-4   -2.621995792094161E-3    6.156744169143121E-4    1.850051710728093E-1    4.747781596889030E-1
 8.150127601850000E9     3.430735527558736E-2    5.376189952165171E-1   -2.622593881699756E-3    5.270072193562806E-4   -2.597328003700572E-3    5.629187925584616E-4    1.857514998246710E-1    4.743466537488644E-1
 8.150141987925000E9     3.527832792312641E-2    5.376388154753003E-1   -2.595932531205125E-3    5.408454400778096E-4   -2.616163067501122E-3    6.100365275988204E-4    1.867716936553231E-1    4.738511195603655E-1
 8.150156374000000E9     3.633794012822085E-2    5.375190046072280E-1   -2.610295818270309E-3    5.302778106688627E-4   -2.599046449763158E-3    5.932536362090957E-4    1.874834016506391E-1    4.736180159355227E-1
 8.150170760075000E9     3.726413052154302E-2    5.374845104564672E-1   -2.591338479500694E-3    5.468310667529062E-4   -2.621856649149312E-3    5.678164084574558E-4    1.883149698619825E-1    4.732785532446556E-1
 8.150185146150000E9     3.812824238706865E-2    5.374926748045760E-1   -2.590612119422441E-3    5.424853838874517E-4   -2.615892479845090E-3    5.966723688472070E-4    1.892127093829899E-1    4.728220985018817E-1
 8.150199532225000E9     3.927524766834230E-2    5.374192359103457E-1   -2.593549718860957E-3    5.594178226549115E-4   -2.606058739320888E-3    6.308849560116705E-4    1.899938511479020E-1    4.725140106211769E-1
 8.150213918300000E9     4.012138153093231E-2    5.373577536563064E-1   -2.589012596288395E-3    5.636564121081274E-4   -2.604272054643527E-3    6.147933518537054E-4    1.908314804318026E-1    4.722165333207652E-1
 8.150228304375000E9     4.129010632306671E-2    5.374498824105454E-1   -2.611301548686159E-3    5.734207091368926E-4   -2.597596468176653E-3    6.202910245264986E-4    1.916353267201923E-1    4.717850321203498E-1
 8.150242690450000E9     4.224313941546088E-2    5.372940243214809E-1   -2.597481844166943E-3    5.688629830015610E-4   -2.619177024419198E-3    6.333971489770319E-4    1.927078668385564E-1    4.713053900089317E-1
 8.150257076525000E9     4.340736923499253E-2    5.372068474017074E-1   -2.609635818779091E-3    5.674914666355136E-4   -2.626020630328653E-3    6.389374514113865E-4    1.935503239294256E-1    4.710979818361000E-1
 8.150271462600000E9     4.422222938160920E-2    5.371557960724939E-1   -2.582156813801374E-3    5.934859632845998E-4   -2.613286609535181E-3    6.679192595784996E-4    1.944696162830001E-1    4.706622871273071E-1
 8.150285848675000E9     4.520761466576281E-2    5.371718952021755E-1   -2.598178548100104E-3    5.776172998097536E-4   -2.632412209737378E-3    6.695702490006615E-4    1.951065308608361E-1    4.703165262764956E-1
 8.150300234750000E9     4.625652091948179E-2    5.370157673893884E-1   -2.572910117124914E-3    6.066096663602786E-4   -2.618444882760379E-3    6.399217216886764E-4    1.960912993025849E-1    4.699704845778021E-1
