#  HZ   S   RI   R     50.00 
! Rohde & Schwarz Vector Network Analyzer 
! Rohde-Schwarz,ZNB20-2Port,1311601062101988,3.16
! Created: UTC 3/21/2024, 1:09:26 AM
! freq[Hz]                re:S11                  im:S11                  re:S21                  im:S21                  re:S12                  im:S12                  re:S22                  im:S22
 8.149120152000000E9    -3.611226200015227E-2    5.358697127456282E-1   -2.611672494769209E-3    1.828251646722089E-4   -2.643759538087061E-3    2.076432771622850E-4    1.241591130324096E-1    4.954827177642522E-1
 8.149134051850000E9    -3.518007901459692E-2    5.358822267413705E-1   -2.623934304379675E-3    1.861080437129217E-4   -2.653976467811572E-3    2.267116904539515E-4    1.250810614940195E-1    4.951813266303738E-1
 8.149147951700000E9    -3.399161514008257E-2    5.360785637340253E-1   -2.592737859717668E-3    1.979116788553577E-4   -2.650062447336609E-3    2.444664066744354E-4    1.260010779609064E-1    4.949340895555536E-1
 8.149161851550000E9    -3.319534427704276E-2    5.360420358908735E-1   -2.616473494866681E-3    2.033453141479975E-4   -2.665052378908094E-3    2.289410830037595E-4    1.268281120314355E-1    4.945920354720257E-1
 8.149175751400000E9    -3.215061789629651E-2    5.362089906847399E-1   -2.603912574461796E-3    1.990441695230567E-4   -2.654970336840692E-3    2.622871745021380E-4    1.277420590041883E-1    4.944429110121774E-1
 8.149189651250000E9    -3.113784193495287E-2    5.362654796048467E-1   -2.613375814221220E-3    2.130450380327730E-4   -2.643525425153980E-3    3.010037100997416E-4    1.286519505366004E-1    4.941636000072402E-1
 8.149203551100000E9    -3.028625228965434E-2    5.363663989420245E-1   -2.607312560045116E-3    2.064374415232399E-4   -2.642612180919049E-3    2.671414638629601E-4    1.293770550991057E-1    4.939101323263873E-1
 8.149217450950000E9    -2.921892363635922E-2    5.364150595436502E-1   -2.636746854460168E-3    2.332741210964741E-4   -2.651229274219498E-3    2.783250872619773E-4    1.302722400581116E-1    4.937350231223450E-1
 8.149231350800000E9    -2.825532786548997E-2    5.364768899578156E-1   -2.598842526336157E-3    2.255843879665778E-4   -2.634346162190144E-3    2.731390946222741E-4    1.310338420388621E-1    4.936105789715370E-1
 8.149245250650000E9    -2.739218502107267E-2    5.365598129611844E-1   -2.589645401833620E-3    2.128822133583207E-4   -2.634138598290020E-3    2.741382143589713E-4    1.320659304529550E-1    4.932841879935260E-1
 8.149259150500000E9    -2.640203823665283E-2    5.366870626647866E-1   -2.608849907852089E-3    2.317670448466886E-4   -2.652609278638910E-3    2.915146271168332E-4    1.328899834891626E-1    4.929312290367668E-1
 8.149273050350000E9    -2.538586298840601E-2    5.367766295207663E-1   -2.616290557009391E-3    2.248520121165880E-4   -2.627828593509017E-3    2.796889245737241E-4    1.338686959270136E-1    4.927324213918914E-1
 8.149286950200000E9    -2.448408001169651E-2    5.369500801697819E-1   -2.595189685410101E-3    2.369599111455156E-4   -2.610373109333954E-3    2.713405997649653E-4    1.347298847541244E-1    4.924980093282121E-1
 8.149300850050000E9    -2.351201590211325E-2    5.369098074825026E-1   -2.625581455063847E-3    2.162782970902949E-4   -2.630697182468027E-3    2.896158881366806E-4    1.354815294015332E-1    4.923088682640068E-1
 8.149314749900000E9    -2.247278430133397E-2    5.368980627873896E-1   -2.623692667389445E-3    2.411000855376101E-4   -2.652638216228811E-3    3.080574183090867E-4    1.362859737645910E-1    4.919057059898989E-1
 8.149328649750000E9    -2.147715534901161E-2    5.369602033158153E-1   -2.605535152893179E-3    2.151113461088651E-4   -2.655812664819854E-3    2.915379881954117E-4    1.373107490759585E-1    4.917248585816630E-1
 8.149342549600000E9    -2.043083772019772E-2    5.370668523973104E-1   -2.616055064530845E-3    2.471091490318980E-4   -2.625792719461569E-3    3.043088002578726E-4    1.379792697916495E-1    4.915093428408321E-1
 8.149356449450000E9    -1.960338537989220E-2    5.370230172714918E-1   -2.616092605693175E-3    2.641948702698387E-4   -2.628685043723681E-3    3.051739606353483E-4    1.389395690020984E-1    4.911721714040173E-1
 8.149370349300000E9    -1.849325381875557E-2    5.370807764784303E-1   -2.607563093824276E-3    2.476766606631510E-4   -2.651511227150975E-3    3.092857890834486E-4    1.398560620150552E-1    4.910123832675792E-1
 8.149384249150000E9    -1.766565695858946E-2    5.372484276994060E-1   -2.603102258503152E-3    2.784144239362770E-4   -2.641167965665684E-3    3.273610855025181E-4    1.406468892430647E-1    4.906080981608530E-1
 8.149398149000000E9    -1.666993891659836E-2    5.373045859158461E-1   -2.603009864800167E-3    2.620908055437987E-4   -2.638824262909659E-3    2.889676430051543E-4    1.414807986587607E-1    4.905309600744846E-1
 8.149412048850000E9    -1.556437083138929E-2    5.373889943098999E-1   -2.599729169967929E-3    3.037881560313564E-4   -2.643327635366949E-3    3.095388905501454E-4    1.422689781447695E-1    4.902113242028173E-1
 8.149425948700000E9    -1.472857029604616E-2    5.374122937990430E-1   -2.626846146865105E-3    2.379847902438916E-4   -2.617658049539764E-3    3.189040977212281E-4    1.433393785716500E-1    4.897668381985616E-1
 8.149439848550000E9    -1.374368786278398E-2    5.374697200439962E-1   -2.596014115680403E-3    3.121044076944047E-4   -2.650697652111225E-3    3.458397542390637E-4    1.441009112459737E-1    4.895194903663841E-1
 8.149453748400000E9    -1.290732323496601E-2    5.374667503141940E-1   -2.617435611508013E-3    2.997131689508077E-4   -2.656262057284684E-3    3.487620172972278E-4    1.449413180697105E-1    4.893727221202641E-1
 8.149467648250000E9    -1.182311886224342E-2    5.375184530270221E-1   -2.595552457464561E-3    2.980649434284504E-4   -2.655659579036218E-3    3.700399383193018E-4    1.458050383596739E-1    4.891700386770165E-1
 8.149481548100000E9    -1.090812545265409E-2    5.376575229891311E-1   -2.608837659369709E-3    3.124904604391758E-4   -2.629763334028285E-3    3.465078748732036E-4    1.467500984140611E-1    4.887621155402636E-1
 8.149495447950000E9    -9.945051988588631E-3    5.375531188852803E-1   -2.618938158659773E-3    3.053286122700411E-4   -2.659082297274480E-3    3.740285630629719E-4    1.474239579853976E-1    4.884429422175180E-1
 8.149509347800000E9    -8.933123389075736E-3    5.376417753586947E-1   -2.625538297294376E-3    3.059269514957487E-4   -2.670266823481796E-3    3.451429535423267E-4    1.483603777040468E-1    4.882071499690387E-1
 8.149523247650000E9    -7.923170585167965E-3    5.376930694925429E-1   -2.615554263515468E-3    3.073054690231725E-4   -2.638529408411182E-3    4.069286951085406E-4    1.491633828765790E-1    4.878685020913214E-1
 8.149537147500000E9    -6.968284060654401E-3    5.377917341817771E-1   -2.605493201191265E-3    2.943576942814450E-4   -2.657991985987018E-3    3.776872457928775E-4    1.500852914634621E-1    4.876770543062086E-1
 8.149551047350000E9    -5.966210771250818E-3    5.378030706908656E-1   -2.619416370827313E-3    3.167098035368695E-4   -2.627833499620475E-3    3.886599820723180E-4    1.508669243828621E-1    4.874073029224008E-1
 8.149564947200000E9    -5.044018960286180E-3    5.377864010411192E-1   -2.628707065749837E-3    3.680531558607676E-4   -2.631411965911461E-3    4.021535664339202E-4    1.517287472146298E-1    4.871423955806435E-1
 8.149578847050000E9    -4.085285264828240E-3    5.377808894413018E-1   -2.605810852149650E-3    3.526425734775894E-4   -2.634165052023010E-3    3.897081820359188E-4    1.525171191436062E-1    4.867223289705516E-1
 8.149592746900000E9    -3.154025247762844E-3    5.378578950837615E-1   -2.617423870583755E-3    3.190888975552188E-4   -2.627511010492783E-3    4.003113135793116E-4    1.535402389336845E-1    4.865738440732258E-1
 8.149606646750000E9    -2.166150603541465E-3    5.377614126503439E-1   -2.620157304169833E-3    3.383396684591874E-4   -2.626985821665741E-3    3.769089790241406E-4    1.542750799842181E-1    4.862186121860861E-1
 8.149620546600000E9    -1.174798106784731E-3    5.378464692352182E-1   -2.585496743276268E-3    3.587013075350028E-4   -2.617933259391726E-3    3.862049554326271E-4    1.551733767490881E-1    4.859294999013380E-1
 8.149634446450000E9    -2.579352339545218E-4    5.379590346261113E-1   -2.612412331217962E-3    3.588556050928197E-4   -2.645791567892142E-3    3.916747611199347E-4    1.559806195210937E-1    4.856065348495149E-1
 8.149648346300000E9     6.683643605154224E-4    5.380368236009413E-1   -2.607404721831543E-3    3.866535995295306E-4   -2.642086598074576E-3    4.019804287397656E-4    1.568778253789713E-1    4.852594715343764E-1
 8.149662246150000E9     1.698909813869251E-3    5.380856085467450E-1   -2.613414314613077E-3    3.560827266790123E-4   -2.624662406460414E-3    4.160131449877934E-4    1.576775592410463E-1    4.850250973837869E-1
 8.149676146000000E9     2.707817038843977E-3    5.380430656336641E-1   -2.596792132905049E-3    3.699713391200789E-4   -2.619350706332008E-3    4.453348405602937E-4    1.585433868352074E-1    4.848579339724649E-1
 8.149690045850000E9     3.697118925805020E-3    5.380444762008181E-1   -2.593840334978190E-3    3.869133105294255E-4   -2.644224124904347E-3    4.475056732262546E-4    1.593539220203511E-1    4.845390755791015E-1
 8.149703945700000E9     4.640443228707384E-3    5.379522057598720E-1   -2.619933919871410E-3    3.906907234164095E-4   -2.632520546016225E-3    4.356832992787177E-4    1.602537619705557E-1    4.842008440578395E-1
 8.149717845550000E9     5.643941551546073E-3    5.381134880803502E-1   -2.594898747513011E-3    4.005524324108946E-4   -2.654054164047985E-3    4.426186939748161E-4    1.611008250195544E-1    4.838794908171241E-1
 8.149731745400000E9     6.594128910184513E-3    5.381075858900424E-1   -2.591820364905340E-3    4.064173469921462E-4   -2.656354605322641E-3    4.714186799206835E-4    1.618722142946994E-1    4.835476515666706E-1
 8.149745645250000E9     7.579742683656193E-3    5.380135347036028E-1   -2.604472088347865E-3    4.166244806847542E-4   -2.647409147979661E-3    4.255728418289928E-4    1.626532405715686E-1    4.832480351393599E-1
 8.149759545100000E9     8.440703925296774E-3    5.380641184021483E-1   -2.601750174700589E-3    4.272781059354944E-4   -2.624817722252405E-3    4.499945182849867E-4    1.636420186712478E-1    4.830316336840004E-1
 8.149773444950000E9     9.335519900662326E-3    5.381382044287369E-1   -2.597934997458376E-3    4.006763761661207E-4   -2.622522941152523E-3    4.722720944660791E-4    1.644280229122351E-1    4.827403978281091E-1
 8.149787344800000E9     1.032663978421761E-2    5.381243839156652E-1   -2.604127464424644E-3    4.094340692855911E-4   -2.621311202581906E-3    4.847718874494815E-4    1.651733005743880E-1    4.822920266419199E-1
 8.149801244650000E9     1.141929838839979E-2    5.380452399863649E-1   -2.594418237200303E-3    4.208245931820920E-4   -2.633703981363276E-3    4.796441182055618E-4    1.660130226194222E-1    4.819244301334740E-1
 8.149815144500000E9     1.229469936142372E-2    5.380863693804941E-1   -2.609046901125425E-3    4.189177623285135E-4   -2.629845802874170E-3    4.617354460387722E-4    1.671232252300772E-1    4.818721882429637E-1
 8.149829044350000E9     1.334421760204917E-2    5.380210798243635E-1   -2.594216367859636E-3    4.324012676760828E-4   -2.630113946567804E-3    4.679004312587997E-4    1.677872588297711E-1    4.813636725850539E-1
 8.149842944200000E9     1.427871370475046E-2    5.381950010311333E-1   -2.607610719171420E-3    4.197889057147712E-4   -2.616701683577732E-3    4.937148892491749E-4    1.685796281924069E-1    4.810884300578687E-1
 8.149856844050000E9     1.519779761589738E-2    5.380017782584688E-1   -2.609526971062771E-3    4.336678850900037E-4   -2.632404841595057E-3    5.000364373867057E-4    1.694060585787420E-1    4.807862209214759E-1
 8.149870743900000E9     1.629559042127907E-2    5.381109024435662E-1   -2.593754691682208E-3    4.568394325961745E-4   -2.610071094307615E-3    4.983723983064221E-4    1.703865749434714E-1    4.804324615511151E-1
 8.149884643750000E9     1.709233585618872E-2    5.381147332031012E-1   -2.604640024098208E-3    4.614698710865610E-4   -2.645389088799526E-3    5.181159791685272E-4    1.712985465556510E-1    4.801463962552903E-1
 8.149898543600000E9     1.810691163471652E-2    5.380166765527283E-1   -2.617498758020641E-3    4.354406022022955E-4   -2.632453769285303E-3    5.201380929045793E-4    1.720377881315740E-1    4.798930686941155E-1
 8.149912443450000E9     1.924160500823584E-2    5.380112002868710E-1   -2.618951546552083E-3    4.524265851226350E-4   -2.637615621689018E-3    4.966688298932342E-4    1.727920579225433E-1    4.796090209905620E-1
 8.149926343300000E9     2.010335604398501E-2    5.381277973061070E-1   -2.600266245562036E-3    4.653671659867625E-4   -2.643936803410999E-3    5.063394164806882E-4    1.737066625950124E-1    4.793508244365516E-1
 8.149940243150000E9     2.116978812725692E-2    5.380701321759109E-1   -2.634493729571608E-3    4.744681764749025E-4   -2.613628143381708E-3    5.124515535447246E-4    1.744814028283738E-1    4.788423245311811E-1
 8.149954143000000E9     2.210544309361262E-2    5.381003613741647E-1   -2.587330931047080E-3    4.695336176935200E-4   -2.641078269198646E-3    5.223987291401487E-4    1.754018476065197E-1    4.785247038714140E-1
 8.149968042850000E9     2.299902825448351E-2    5.379770932234053E-1   -2.589387323202496E-3    4.660954148677937E-4   -2.615800185208720E-3    5.090446592521843E-4    1.760779412463101E-1    4.783325667661047E-1
 8.149981942700000E9     2.404208476952804E-2    5.379296571662171E-1   -2.593351182115482E-3    4.821231559676279E-4   -2.626715854374963E-3    5.547354006093507E-4    1.769716621115912E-1    4.778322730539250E-1
 8.149995842550000E9     2.483239737609554E-2    5.379442100898625E-1   -2.611178994289705E-3    4.894100858258404E-4   -2.611090744624597E-3    5.387952301873247E-4    1.779235687640746E-1    4.775409101698542E-1
 8.150009742400000E9     2.596963649393151E-2    5.380327094919676E-1   -2.606196809624259E-3    4.998965117796771E-4   -2.638516985235306E-3    5.268578651552848E-4    1.786035911815779E-1    4.771704556693918E-1
 8.150023642250000E9     2.690750545042138E-2    5.378434229698388E-1   -2.594586552866037E-3    5.038336333271859E-4   -2.611493905284833E-3    5.592611122800242E-4    1.795920692409083E-1    4.768492600765883E-1
 8.150037542100000E9     2.792334459286266E-2    5.378408323493140E-1   -2.606430446717356E-3    5.016446248982243E-4   -2.630508063137742E-3    5.719556970344575E-4    1.803190807547934E-1    4.765810160046884E-1
 8.150051441950000E9     2.881664506526117E-2    5.379496746777983E-1   -2.596099207211662E-3    5.164031246179210E-4   -2.591322996307787E-3    5.607816024480030E-4    1.812041027290320E-1    4.761722927875968E-1
 8.150065341800000E9     2.961821862323467E-2    5.378145939987249E-1   -2.587346523787612E-3    5.093618276018446E-4   -2.636425733313884E-3    5.575380527557114E-4    1.817627515490279E-1    4.759524199870822E-1
 8.150079241650000E9     3.073723596891994E-2    5.376577257579214E-1   -2.567462676732008E-3    5.407975968893373E-4   -2.620598500134145E-3    5.664636880866890E-4    1.828934164628225E-1    4.755518178835434E-1
 8.150093141500000E9     3.179081831036613E-2    5.378122245777023E-1   -2.587746492626608E-3    5.475213253784506E-4   -2.611162204622503E-3    5.603194226068979E-4    1.836860007784669E-1    4.752213636805226E-1
 8.150107041350000E9     3.271937262168745E-2    5.378490768673083E-1   -2.580497801161871E-3    5.284937904718608E-4   -2.627096164069686E-3    5.783126574667871E-4    1.845556429386500E-1    4.749353102356652E-1
 8.150120941200000E9     3.369841139366731E-2    5.377409964207402E-1   -2.622357588433130E-3    5.377182194898853E-4   -2.619964298797986E-3    6.050284127506697E-4    1.853307823546882E-1    4.744271217268447E-1
 8.150134841050000E9     3.466578379977742E-2    5.376784471587573E-1   -2.602204246082466E-3    5.571483056624613E-4   -2.604694937357712E-3    6.112673952345974E-4    1.859033203312778E-1    4.741711925724158E-1
 8.150148740900000E9     3.558999139744658E-2    5.377298585664949E-1   -2.608710932109088E-3    5.449307450221363E-4   -2.632903054949359E-3    5.675540970556160E-4    1.868751028585335E-1    4.739679205086116E-1
 8.150162640750000E9     3.650116602095862E-2    5.376654363606617E-1   -2.586839925453106E-3    5.470972777196205E-4   -2.613918764200658E-3    5.897223325528160E-4    1.877839532657935E-1    4.734998079916953E-1
 8.150176540600000E9     3.753465759195659E-2    5.375038408569760E-1   -2.599973475582195E-3    5.552096568535599E-4   -2.622350363276880E-3    6.388609348738243E-4    1.886542178922268E-1    4.731821547564187E-1
 8.150190440450000E9     3.848252667852939E-2    5.374840196306349E-1   -2.586935694281463E-3    5.609357343354292E-4   -2.644518425826485E-3    6.010176407936114E-4    1.894308508898468E-1    4.726990422863661E-1
 8.150204340300000E9     3.950608084088668E-2    5.374911764175614E-1   -2.570584765813949E-3    5.700723380404819E-4   -2.610542246140000E-3    6.221855660380246E-4    1.903073850251250E-1    4.724908113198599E-1
 8.150218240150000E9     4.034539051018799E-2    5.374001758549598E-1   -2.598031102826194E-3    5.751951138127292E-4   -2.629671756352436E-3    6.456757779643278E-4    1.908838974996494E-1    4.721895164880461E-1
 8.150232140000000E9     4.142446939746645E-2    5.374422871424337E-1   -2.602075065991869E-3    5.637929182248534E-4   -2.618304493065975E-3    6.306836585133320E-4    1.918222699379116E-1    4.716448682009783E-1
 8.150246039850000E9     4.244567138835628E-2    5.372607749179463E-1   -2.599122625325835E-3    5.847315894722564E-4   -2.598836658994040E-3    6.149510083860947E-4    1.927579460056194E-1    4.713553454184237E-1
 8.150259939700000E9     4.325225814939969E-2    5.372683229441858E-1   -2.599532308177997E-3    5.964058973056344E-4   -2.595835119337194E-3    6.421839371668163E-4    1.934056262411089E-1    4.711684630566167E-1
 8.150273839550000E9     4.424796808567714E-2    5.371995818726122E-1   -2.575745330405127E-3    5.979512279152320E-4   -2.629536863792376E-3    6.163114905095215E-4    1.943511821149807E-1    4.706764971376517E-1
 8.150287739400000E9     4.520570352765484E-2    5.371068037306895E-1   -2.592068902310233E-3    5.812744339159053E-4   -2.627164042085695E-3    6.390875160678791E-4    1.951527074366009E-1    4.702546468866888E-1
 8.150301639250000E9     4.629699800793440E-2    5.369759980964461E-1   -2.572417909833397E-3    6.197467368196135E-4   -2.632051143100468E-3    6.612062097542048E-4    1.960211227055942E-1    4.700032055693550E-1
 8.150315539100000E9     4.712058501344100E-2    5.370664508955428E-1   -2.581432067251105E-3    6.055646012357965E-4   -2.599967705372500E-3    6.360053180102440E-4    1.968711038014474E-1    4.695098664628897E-1
 8.150329438950000E9     4.807781336102900E-2    5.369155870189314E-1   -2.583134670792796E-3    6.203544507916919E-4   -2.595197955822464E-3    6.420939962380589E-4    1.976899855596672E-1    4.692200000098944E-1
 8.150343338800000E9     4.915770555568164E-2    5.368795838492118E-1   -2.596242001474408E-3    6.320299943811947E-4   -2.587983453384042E-3    6.512450345791269E-4    1.984698523371829E-1    4.687895942186098E-1
 8.150357238650000E9     5.010715176847749E-2    5.368592133964952E-1   -2.609614970658839E-3    6.184929681945871E-4   -2.622664906994635E-3    6.644916731741123E-4    1.992469114339602E-1    4.687040756210242E-1
 8.150371138500000E9     5.111482418043251E-2    5.368370281561368E-1   -2.606456144320901E-3    6.271908454694623E-4   -2.601885052005265E-3    6.539344843733438E-4    2.000739713945175E-1    4.682854476852451E-1
