#  HZ   S   RI   R     50.00 
! Rohde & Schwarz Vector Network Analyzer 
! Rohde-Schwarz,ZNB20-2Port,1311601062101988,3.16
! Created: UTC 3/21/2024, 1:09:51 AM
! freq[Hz]                re:S11                  im:S11                  re:S21                  im:S21                  re:S12                  im:S12                  re:S22                  im:S22
 8.149260667000000E9    -2.658337021365228E-2    5.365630933587155E-1   -2.611698265690055E-3    2.189319539731196E-4   -2.632085379333010E-3    3.003808112259689E-4    1.327919089162804E-1    4.929587934915149E-1
 8.149274026775000E9    -2.576332959372511E-2    5.365360297758142E-1   -2.593826834165893E-3    2.091773685285864E-4   -2.638846334436588E-3    2.464903156158516E-4    1.335610937254175E-1    4.927713352276432E-1
 8.149287386550000E9    -2.475565174773808E-2    5.366241346526260E-1   -2.624471835959749E-3    2.442965764996019E-4   -2.605941343137852E-3    2.881024229180402E-4    1.344496123101062E-1    4.925766320939530E-1
 8.149300746325000E9    -2.385920240846629E-2    5.367258591605560E-1   -2.620985819718368E-3    2.301446142213308E-4   -2.600059984223052E-3    2.926621548224625E-4    1.353167583492252E-1    4.921694428425895E-1
 8.149314106100000E9    -2.298150721603160E-2    5.367972709285384E-1   -2.607007475725828E-3    2.434587389390743E-4   -2.629877109009971E-3    3.059164996007420E-4    1.360654207964053E-1    4.921584816572951E-1
 8.149327465875000E9    -2.199033271717993E-2    5.368304960387875E-1   -2.605387223172462E-3    2.313693983744341E-4   -2.637343463518572E-3    2.632239423791602E-4    1.369649914036552E-1    4.919192254790759E-1
 8.149340825650000E9    -2.096533029249469E-2    5.368656410081295E-1   -2.599570857805089E-3    2.761140228015315E-4   -2.625463836097274E-3    2.839393826296975E-4    1.377431216452973E-1    4.915706358955497E-1
 8.149354185425000E9    -2.004640079308798E-2    5.370054541766417E-1   -2.599929284143828E-3    2.551996212450751E-4   -2.648417613989976E-3    3.106389963727150E-4    1.385903425423517E-1    4.913243001228646E-1
 8.149367545200000E9    -1.909402926713032E-2    5.369229242091659E-1   -2.622773123482294E-3    2.714933983156697E-4   -2.670350057617386E-3    3.094949597213646E-4    1.394587370150767E-1    4.909562705450867E-1
 8.149380904975000E9    -1.817080826608491E-2    5.370289647715629E-1   -2.620751513793507E-3    2.748312981473622E-4   -2.698396012814052E-3    3.412766199449833E-4    1.401289521495102E-1    4.908258936603348E-1
 8.149394264750000E9    -1.721116229200934E-2    5.371027297321166E-1   -2.606030577033826E-3    2.807826700322709E-4   -2.652101816520583E-3    3.180699189677617E-4    1.410578970865959E-1    4.905347905361541E-1
 8.149407624525000E9    -1.624507438027478E-2    5.371576517808049E-1   -2.608797521116118E-3    2.559329332759209E-4   -2.621619571864525E-3    3.314968256648473E-4    1.417741523152841E-1    4.902374956792560E-1
 8.149420984300000E9    -1.541406018651781E-2    5.371698368001045E-1   -2.630302453238923E-3    2.924132310114406E-4   -2.647163730458488E-3    3.572532820562921E-4    1.426711745541194E-1    4.901052470816831E-1
 8.149434344075000E9    -1.454552092556118E-2    5.372759686239411E-1   -2.618887179334567E-3    2.849513135793051E-4   -2.639734643472454E-3    3.241151854423749E-4    1.434363206117611E-1    4.898180940895918E-1
 8.149447703850000E9    -1.348987698654830E-2    5.373045895332028E-1   -2.595179654735987E-3    2.800192816492351E-4   -2.596207513057333E-3    3.515096443959165E-4    1.441999589951352E-1    4.894844798129386E-1
 8.149461063625000E9    -1.264784597306779E-2    5.373211519102532E-1   -2.597205415214505E-3    2.890284271282557E-4   -2.646829156842078E-3    3.642407374405544E-4    1.451184843930778E-1    4.893519257051238E-1
 8.149474423400000E9    -1.172657769022461E-2    5.373941097201504E-1   -2.629663086366684E-3    3.046144174463941E-4   -2.659785717748768E-3    3.376082444476591E-4    1.460144501038058E-1    4.889169649085900E-1
 8.149487783175000E9    -1.074996094408113E-2    5.375233716889699E-1   -2.599221703574390E-3    2.894466113940119E-4   -2.659162348058120E-3    3.496713742234450E-4    1.469649272938723E-1    4.887046775620422E-1
 8.149501142950000E9    -9.860929944687400E-3    5.375296365453033E-1   -2.611900118493812E-3    3.090446865300848E-4   -2.662515335905656E-3    3.612737350061425E-4    1.477489744878299E-1    4.886175312003312E-1
 8.149514502725000E9    -8.830245375260688E-3    5.374856828574515E-1   -2.609877235799173E-3    3.379544433812054E-4   -2.619306980993497E-3    3.861224133173499E-4    1.485344542827086E-1    4.882699671879788E-1
 8.149527862500000E9    -7.990766989517112E-3    5.376034093281393E-1   -2.606559149752507E-3    3.108616855336801E-4   -2.656576746168083E-3    3.830589251415842E-4    1.492585400044024E-1    4.878584666453396E-1
 8.149541222275000E9    -7.020531944582475E-3    5.376106155423556E-1   -2.634805785116290E-3    3.550793962782565E-4   -2.609574246931914E-3    3.799874816439914E-4    1.501397280098136E-1    4.876530226666791E-1
 8.149554582050000E9    -6.051314609999943E-3    5.376238471743903E-1   -2.603122549483024E-3    3.120022881291160E-4   -2.639998036171482E-3    3.926437972307386E-4    1.508439821260590E-1    4.873675004744434E-1
 8.149567941825000E9    -5.134529460094314E-3    5.376804296577986E-1   -2.600598855316673E-3    3.335386460110816E-4   -2.617429168490786E-3    3.931534510870309E-4    1.516540790663075E-1    4.871328358757838E-1
 8.149581301600000E9    -4.220271142607142E-3    5.376291520473431E-1   -2.610694364893055E-3    3.211273760965734E-4   -2.646218686492717E-3    3.707805925946425E-4    1.525115279370107E-1    4.868158441827936E-1
 8.149594661375000E9    -3.246498081238134E-3    5.378480208516943E-1   -2.613117427400559E-3    3.174097687322270E-4   -2.654827394814194E-3    4.054860393354166E-4    1.533332501234036E-1    4.866851145678064E-1
 8.149608021150000E9    -2.444170425671847E-3    5.377446074770943E-1   -2.567883719070554E-3    3.281147423105988E-4   -2.658690845788107E-3    3.863849190951808E-4    1.541663639573485E-1    4.863320524287327E-1
 8.149621380925000E9    -1.406509292630619E-3    5.377460242280113E-1   -2.629493538012091E-3    3.688229023697940E-4   -2.605162500396193E-3    3.937473784619594E-4    1.550809317907524E-1    4.859311680370408E-1
 8.149634740700000E9    -5.197724310448617E-4    5.379362610104382E-1   -2.587869840322032E-3    3.256630724323796E-4   -2.645374788112314E-3    3.880697851722288E-4    1.558261762310531E-1    4.856804566421479E-1
 8.149648100475000E9     4.764869943600437E-4    5.378951167883547E-1   -2.613513908174979E-3    3.712929906880726E-4   -2.629703860567894E-3    3.829806677369124E-4    1.566262593587292E-1    4.854396735769515E-1
 8.149661460250000E9     1.351979923883127E-3    5.378677615767706E-1   -2.621346350698204E-3    3.907844793860603E-4   -2.633962478324644E-3    4.019170445091109E-4    1.573613693214206E-1    4.852237824898880E-1
 8.149674820025000E9     2.327531372182644E-3    5.379345588357644E-1   -2.619854868454059E-3    3.927342375699488E-4   -2.641739022611483E-3    3.855231496356201E-4    1.582407477317411E-1    4.848737966156245E-1
 8.149688179800000E9     3.206310869006563E-3    5.377357758065978E-1   -2.598450603387266E-3    3.718036390212024E-4   -2.625522523081281E-3    4.667351215545083E-4    1.589899002375159E-1    4.846244595742215E-1
 8.149701539575000E9     4.129290918192655E-3    5.378453621032635E-1   -2.603536358228887E-3    3.827846146896225E-4   -2.604853231533691E-3    4.319792684406529E-4    1.598301909378690E-1    4.843062844829575E-1
 8.149714899350000E9     5.081706997454507E-3    5.378463903377302E-1   -2.608228973272767E-3    3.955202440821730E-4   -2.618699601034715E-3    4.606614493911521E-4    1.607129365359714E-1    4.839920700767073E-1
 8.149728259125000E9     5.903650395284758E-3    5.379908972707218E-1   -2.598179864802360E-3    3.816660173963695E-4   -2.627422405919926E-3    4.376975566240229E-4    1.615091415958264E-1    4.838197509932258E-1
 8.149741618900000E9     6.897869351837534E-3    5.380052406860187E-1   -2.614173871376014E-3    3.841955463292129E-4   -2.636408724381836E-3    4.286023232681107E-4    1.622455274619095E-1    4.834415429498289E-1
 8.149754978675000E9     7.935706471238806E-3    5.379487445150929E-1   -2.615938191287083E-3    4.080175408900843E-4   -2.609809967889056E-3    4.507283577396109E-4    1.631888459494912E-1    4.830963694471765E-1
 8.149768338450000E9     8.779761076444922E-3    5.378582380460325E-1   -2.611560144422143E-3    4.187731811070461E-4   -2.603238479036689E-3    4.546096009354706E-4    1.639634628332393E-1    4.827311720067122E-1
 8.149781698225000E9     9.655387065647354E-3    5.379795009735594E-1   -2.594034351886471E-3    4.142460371548066E-4   -2.590437032798375E-3    4.516966348656711E-4    1.647709320688123E-1    4.825060544024720E-1
 8.149795058000000E9     1.073602349838508E-2    5.378447615109826E-1   -2.590623985665931E-3    4.163299506724440E-4   -2.613087136809302E-3    4.940208878845599E-4    1.655436694750056E-1    4.822823131432626E-1
 8.149808417775000E9     1.163762868699041E-2    5.379740296619340E-1   -2.601881164177850E-3    4.399248692036093E-4   -2.619679051678520E-3    4.706889762986593E-4    1.665507169359694E-1    4.819153064880947E-1
 8.149821777550000E9     1.264951495147742E-2    5.380682623921571E-1   -2.603642005554744E-3    4.160649053691333E-4   -2.598302062206360E-3    4.918655005147168E-4    1.670526188637189E-1    4.816011827525081E-1
 8.149835137325000E9     1.349836026609488E-2    5.380348301271762E-1   -2.596758792816763E-3    4.305845125527547E-4   -2.586360765332659E-3    4.916174072892059E-4    1.678827811258851E-1    4.812278340155817E-1
 8.149848497100000E9     1.432837634140229E-2    5.379395835522196E-1   -2.618057256232669E-3    4.388445437397037E-4   -2.594438666069524E-3    4.808601246247414E-4    1.687111738606930E-1    4.812008384065542E-1
 8.149861856875000E9     1.530157277437482E-2    5.380498068474097E-1   -2.623789923701546E-3    4.442381015970193E-4   -2.598910289334227E-3    4.959480987897974E-4    1.694792170243537E-1    4.806686226718967E-1
 8.149875216650000E9     1.628035442173952E-2    5.379650326308549E-1   -2.599661791703780E-3    4.385520486126825E-4   -2.636216511407125E-3    4.897827492292223E-4    1.703831517759907E-1    4.804332941131870E-1
 8.149888576425000E9     1.730370869406304E-2    5.378887024523886E-1   -2.593984976874278E-3    4.460070225910204E-4   -2.625776953293492E-3    4.912113463513895E-4    1.710810992034768E-1    4.800889410016382E-1
 8.149901936200000E9     1.799993779094036E-2    5.378999818418184E-1   -2.602521989667545E-3    4.490064282427596E-4   -2.617665800248274E-3    5.205661221030330E-4    1.721083449849682E-1    4.798113595309956E-1
 8.149915295975000E9     1.898715484594226E-2    5.379161836397072E-1   -2.599039030306129E-3    4.618931187062864E-4   -2.609865191221744E-3    4.929386681046715E-4    1.727894283984176E-1    4.795826701277229E-1
 8.149928655750000E9     1.996385356379647E-2    5.378816646266456E-1   -2.594067566880506E-3    4.552377965045442E-4   -2.607239262951763E-3    5.002585912865941E-4    1.736466536520830E-1    4.792266461165265E-1
 8.149942015525000E9     2.094062839141187E-2    5.378660559208844E-1   -2.617118279025377E-3    4.758088260832182E-4   -2.604171875979080E-3    5.398857096499349E-4    1.744551064675015E-1    4.788585572460389E-1
 8.149955375300000E9     2.182325708498848E-2    5.379126464849847E-1   -2.606504258721705E-3    4.606066194508279E-4   -2.620982977887457E-3    5.054906538655371E-4    1.751348415900863E-1    4.785856238410144E-1
 8.149968735075000E9     2.278669472800868E-2    5.378781125561929E-1   -2.622051833113247E-3    4.938238295069203E-4   -2.585954626897386E-3    5.631453719916331E-4    1.759510982063306E-1    4.783035732621229E-1
 8.149982094850000E9     2.362523731190201E-2    5.377228362353527E-1   -2.592549108336025E-3    4.781051647432109E-4   -2.636195367490635E-3    5.083244874301492E-4    1.768761863240105E-1    4.779645038777083E-1
 8.149995454625000E9     2.466685347704188E-2    5.378511684836802E-1   -2.587324751503175E-3    4.971093377790407E-4   -2.620168718407644E-3    5.309486672677808E-4    1.776355218459778E-1    4.776371557304310E-1
 8.150008814400000E9     2.554314133684450E-2    5.377219412652896E-1   -2.621184304695426E-3    5.075128907323043E-4   -2.610925565403863E-3    5.262238721648797E-4    1.784387452199820E-1    4.772357808944130E-1
 8.150022174175000E9     2.631878208840777E-2    5.377894701896216E-1   -2.602961294656799E-3    4.755759853875863E-4   -2.587437445275026E-3    5.547838704503037E-4    1.792317553920457E-1    4.770650176815366E-1
 8.150035533950000E9     2.744007336659131E-2    5.376421229563773E-1   -2.622676194191549E-3    5.081172677698577E-4   -2.597489951130465E-3    5.498016303887842E-4    1.801344109354890E-1    4.768308294212210E-1
 8.150048893725000E9     2.829014219619579E-2    5.377385976857810E-1   -2.616827192391715E-3    5.259257406922593E-4   -2.605972960422000E-3    5.640336377661559E-4    1.808566278284529E-1    4.763470081355791E-1
 8.150062253500000E9     2.932797591081491E-2    5.376635554482384E-1   -2.584475931129562E-3    5.250742729610965E-4   -2.635462284362461E-3    5.721418522473882E-4    1.815697266521597E-1    4.759608573730921E-1
 8.150075613275000E9     3.032349913182258E-2    5.375865637662586E-1   -2.608589862118828E-3    5.225060932168829E-4   -2.640675482226921E-3    5.877943088119594E-4    1.823472028439211E-1    4.758448344271449E-1
 8.150088973050000E9     3.111900111432072E-2    5.376671315954014E-1   -2.603309934472305E-3    5.371513338762247E-4   -2.629935878282821E-3    5.631046784969671E-4    1.831881202320640E-1    4.753119685095527E-1
 8.150102332825000E9     3.210464869533333E-2    5.376785583972974E-1   -2.584284688235072E-3    5.294071328947413E-4   -2.625050141690071E-3    5.975375125642927E-4    1.840750421879084E-1    4.751970755546005E-1
 8.150115692600000E9     3.297934140901379E-2    5.376173875502691E-1   -2.582070584784550E-3    5.211091861801781E-4   -2.602009600888769E-3    6.115731473337852E-4    1.847510440533897E-1    4.747340656725369E-1
 8.150129052375000E9     3.390084562103980E-2    5.374258900680006E-1   -2.606328978206706E-3    5.512945242303854E-4   -2.574812026989447E-3    5.618495453161077E-4    1.856378182828212E-1    4.744526580701877E-1
 8.150142412150000E9     3.491495922014136E-2    5.374448352005267E-1   -2.589021306711150E-3    5.416853779371554E-4   -2.625107845405946E-3    5.909841555488616E-4    1.863650030294585E-1    4.740474741094823E-1
 8.150155771925000E9     3.579842822016399E-2    5.374450864287712E-1   -2.584564535326676E-3    5.442255505048020E-4   -2.624931827040656E-3    6.159634265167592E-4    1.871771139514975E-1    4.738385670077847E-1
 8.150169131700000E9     3.666465735646254E-2    5.374723773824408E-1   -2.603075277459592E-3    5.369025451023297E-4   -2.597483027425527E-3    6.147460035182023E-4    1.878953122397470E-1    4.733594507088190E-1
 8.150182491475000E9     3.767291931537427E-2    5.374235761503233E-1   -2.593084730159778E-3    5.575559139234046E-4   -2.587284597403922E-3    6.112984318590767E-4    1.888671555363564E-1    4.731332102083485E-1
 8.150195851250000E9     3.863938289825294E-2    5.372998800445247E-1   -2.601530900711514E-3    5.536343973568982E-4   -2.583798342904599E-3    6.087403152737571E-4    1.894882197724135E-1    4.727522810152340E-1
 8.150209211025000E9     3.949532993658497E-2    5.373163827755435E-1   -2.612550625604631E-3    5.744618244984508E-4   -2.613173840400274E-3    6.118139793617490E-4    1.903099492734131E-1    4.724206207357877E-1
 8.150222570800000E9     4.037110476548796E-2    5.373286050876541E-1   -2.582945117107443E-3    5.573530432403860E-4   -2.609180232271237E-3    6.013313090241908E-4    1.911643248937337E-1    4.721309517925829E-1
 8.150235930575000E9     4.141117198236877E-2    5.372635487469248E-1   -2.583157678531700E-3    5.898030104467849E-4   -2.584050574484525E-3    6.246244706885683E-4    1.919104585361514E-1    4.718287173757909E-1
 8.150249290350000E9     4.228546851935886E-2    5.371864246863534E-1   -2.594973578912310E-3    5.732895578073950E-4   -2.632100151160259E-3    6.320135350524789E-4    1.926657928746226E-1    4.714129848454773E-1
 8.150262650125000E9     4.330465951712479E-2    5.370634448159357E-1   -2.600105454720882E-3    5.772683807201555E-4   -2.588204874468332E-3    6.392883106073380E-4    1.934827889536648E-1    4.710598546977485E-1
 8.150276009900000E9     4.401270868093913E-2    5.369819093513212E-1   -2.585357599416566E-3    5.730986559152292E-4   -2.627021189599708E-3    6.239397380338200E-4    1.942253055484860E-1    4.706717255779005E-1
 8.150289369675000E9     4.501467549341176E-2    5.370021432502226E-1   -2.605347148191389E-3    5.907181891276587E-4   -2.597795076624871E-3    6.078334047934867E-4    1.950341348854211E-1    4.702493179143865E-1
 8.150302729450000E9     4.606962773771037E-2    5.368812781243152E-1   -2.577543608609640E-3    6.069067382418504E-4   -2.592988967634465E-3    6.399797547887608E-4    1.958739979703721E-1    4.701282456960850E-1
 8.150316089225000E9     4.702259098364313E-2    5.368906018259844E-1   -2.599799265763505E-3    6.031380735088068E-4   -2.622968045728457E-3    6.381015572244149E-4    1.966416825887846E-1    4.696124027398090E-1
 8.150329449000000E9     4.786017510325707E-2    5.368135662497616E-1   -2.593891635119167E-3    6.143187966049619E-4   -2.596529769987735E-3    6.603270065302719E-4    1.973355735345925E-1    4.692608455763979E-1
 8.150342808775000E9     4.883120336406852E-2    5.367446108694792E-1   -2.574885338695485E-3    6.104423899373814E-4   -2.632241354167311E-3    6.661404595025063E-4    1.980894762944442E-1    4.689564165346053E-1
 8.150356168550000E9     4.975026864182205E-2    5.366098751672600E-1   -2.582020952022960E-3    6.172173125958973E-4   -2.588455055844733E-3    6.654710012070462E-4    1.990034519928829E-1    4.686613339771480E-1
 8.150369528325000E9     5.057301703698940E-2    5.366637392501463E-1   -2.578980252798256E-3    6.230796648028785E-4   -2.606103917092015E-3    6.516534682371460E-4    1.998338586072744E-1    4.683392688852560E-1
 8.150382888100000E9     5.163058678843777E-2    5.364996486353566E-1   -2.589399105767223E-3    6.400019660143814E-4   -2.593653736870501E-3    6.671866751383653E-4    2.004683434380750E-1    4.679515146962880E-1
 8.150396247875000E9     5.253064935194607E-2    5.364781049510274E-1   -2.592821777577972E-3    6.429234908330203E-4   -2.602597307949713E-3    6.567221873567102E-4    2.013952029181098E-1    4.674518840941597E-1
 8.150409607650000E9     5.347396992094682E-2    5.363655901958160E-1   -2.584824281264495E-3    6.278571681340201E-4   -2.628781022436361E-3    6.819139231090940E-4    2.021400006815858E-1    4.672680352962615E-1
 8.150422967425000E9     5.431723287998731E-2    5.364935764867009E-1   -2.580970246983112E-3    6.550619602400842E-4   -2.579152872861984E-3    6.648810653653189E-4    2.029194668563755E-1    4.667077725333858E-1
 8.150436327200000E9     5.521930375289846E-2    5.363144688422328E-1   -2.585720223702969E-3    6.567414894941349E-4   -2.590878808118131E-3    7.120640571757042E-4    2.036152657877625E-1    4.664497631288165E-1
 8.150449686975000E9     5.617148121393490E-2    5.362723569537862E-1   -2.587191333436998E-3    6.373320146620122E-4   -2.603472346708974E-3    6.861615239525142E-4    2.042706139643236E-1    4.660373545460988E-1
 8.150463046750000E9     5.728412451243339E-2    5.361395493930281E-1   -2.585286728919707E-3    6.624330516214639E-4   -2.592679438553973E-3    7.477207228520871E-4    2.052596607316790E-1    4.657926776483662E-1
