#  HZ   S   RI   R     50.00 
! Rohde & Schwarz Vector Network Analyzer 
! Rohde-Schwarz,ZNB20-2Port,1311601062101988,3.16
! Created: UTC 3/21/2024, 1:10:18 AM
! freq[Hz]                re:S11                  im:S11                  re:S21                  im:S21                  re:S12                  im:S12                  re:S22                  im:S22
 8.149481837000000E9    -1.161701253280392E-2    5.374222649714512E-1   -2.600119002502008E-3    3.030274991945954E-4   -2.670767422469644E-3    3.633318976633274E-4    1.462123409316567E-1    4.889292082789098E-1
 8.149494297650000E9    -1.068081811395115E-2    5.374234908014537E-1   -2.610022316828136E-3    3.001561770405477E-4   -2.644786033931360E-3    3.643363173859523E-4    1.469779480576058E-1    4.886638595559530E-1
 8.149506758300000E9    -9.917361025863387E-3    5.373752992386336E-1   -2.616098762128855E-3    3.146968840772692E-4   -2.633883703440971E-3    3.638206442420763E-4    1.477104802869557E-1    4.884083683687473E-1
 8.149519218950000E9    -8.972292642635694E-3    5.375826281017546E-1   -2.601370753261993E-3    3.078266141807595E-4   -2.631862215781336E-3    3.735901921058208E-4    1.484521816028375E-1    4.880362890906633E-1
 8.149531679600000E9    -8.065886415786943E-3    5.375895658660473E-1   -2.601119059640922E-3    3.027219414459249E-4   -2.658808636295060E-3    3.757229641446084E-4    1.492388744076072E-1    4.877531786261982E-1
 8.149544140250000E9    -7.169361548912357E-3    5.376551420724839E-1   -2.613089144718738E-3    3.232186097081262E-4   -2.635723777767665E-3    3.770984539085820E-4    1.500322450087301E-1    4.876290429981918E-1
 8.149556600900000E9    -6.313661674988526E-3    5.376474111494016E-1   -2.623015485286252E-3    3.553620948402289E-4   -2.614665732814968E-3    3.777009872829899E-4    1.507326588544027E-1    4.873799779561171E-1
 8.149569061550000E9    -5.452840776028861E-3    5.377393149938264E-1   -2.610491256462810E-3    3.540304460882193E-4   -2.658370857356491E-3    4.044653991783353E-4    1.514048865154530E-1    4.871812323837168E-1
 8.149581522200000E9    -4.485749621081334E-3    5.377026454841889E-1   -2.630742090877737E-3    3.228441489560434E-4   -2.652825624896462E-3    3.664543959526421E-4    1.520736180573392E-1    4.869496080417067E-1
 8.149593982850000E9    -3.738142543973845E-3    5.378223356379591E-1   -2.590529128937880E-3    3.136260763239542E-4   -2.624469295755316E-3    3.762999896957256E-4    1.530404728688435E-1    4.866590612598086E-1
 8.149606443500000E9    -2.894375253199839E-3    5.377503176496828E-1   -2.615448615093219E-3    3.382078311351464E-4   -2.625467408548287E-3    4.009247579166367E-4    1.538246986546019E-1    4.863133223039465E-1
 8.149618904150000E9    -1.916872725624513E-3    5.378227577291199E-1   -2.605495591797873E-3    3.482187473157708E-4   -2.625648121277725E-3    4.202828613439367E-4    1.545561680586151E-1    4.860778730175116E-1
 8.149631364800000E9    -1.201316353021150E-3    5.378323354896316E-1   -2.598905774304258E-3    3.202172126637686E-4   -2.637749805259213E-3    4.163336039824446E-4    1.552926697681306E-1    4.860172312749652E-1
 8.149643825450000E9    -2.339272428318822E-4    5.377277363121041E-1   -2.608705096640795E-3    3.805383644969454E-4   -2.627867104260440E-3    3.893469952175376E-4    1.561188347596440E-1    4.855426969934617E-1
 8.149656286100000E9     5.419039523355279E-4    5.378621895431480E-1   -2.601933761703541E-3    3.421978668832443E-4   -2.615518360975371E-3    3.800663503377284E-4    1.567393684919639E-1    4.853879687962402E-1
 8.149668746750000E9     1.483265506248916E-3    5.378416062811097E-1   -2.582457248808247E-3    3.418123291576630E-4   -2.625513675099027E-3    4.108611071890891E-4    1.575747959876561E-1    4.852175960438956E-1
 8.149681207400000E9     2.359628741080607E-3    5.378104297225010E-1   -2.587173961441628E-3    3.524175650583276E-4   -2.604092295436333E-3    4.531869427381159E-4    1.583812752541130E-1    4.848297374768348E-1
 8.149693668050000E9     3.102036836644301E-3    5.378462014068042E-1   -2.604815668431372E-3    3.778771002937000E-4   -2.615804734813864E-3    4.453165035888623E-4    1.589949018322002E-1    4.845420058161657E-1
 8.149706128700000E9     4.066253751568864E-3    5.378510102719343E-1   -2.584778362090943E-3    3.709513109567915E-4   -2.633732618673413E-3    4.425167543533578E-4    1.597187209828875E-1    4.843398161653093E-1
 8.149718589350000E9     5.013263386266536E-3    5.378395578849176E-1   -2.609950866497462E-3    3.774496848501057E-4   -2.644960661468013E-3    4.331957322197462E-4    1.606794134139119E-1    4.839542089211495E-1
 8.149731050000000E9     5.933953498303197E-3    5.378326623962904E-1   -2.609335368114580E-3    3.822994927077784E-4   -2.620131504761185E-3    4.590050098826348E-4    1.614183364695950E-1    4.836989967594096E-1
 8.149743510650000E9     6.665865483202922E-3    5.378793873637578E-1   -2.601898400657467E-3    3.823139115059472E-4   -2.618155707619383E-3    4.314244043801331E-4    1.620296296872822E-1    4.836239187576124E-1
 8.149755971300000E9     7.542303872773178E-3    5.378984319853454E-1   -2.636167584393776E-3    4.261532966402874E-4   -2.636739103155968E-3    4.595999103836603E-4    1.628843529795229E-1    4.832869298544308E-1
 8.149768431950000E9     8.513062092495872E-3    5.378916104505396E-1   -2.604590208218692E-3    4.003486278940023E-4   -2.632367445139421E-3    4.593743165412725E-4    1.636673894238198E-1    4.829765114501570E-1
 8.149780892600000E9     9.326726765053419E-3    5.378738710855225E-1   -2.609612184739366E-3    4.089033863272861E-4   -2.612882897957471E-3    5.050231169155135E-4    1.644669588470581E-1    4.827323881356154E-1
 8.149793353250000E9     1.020423065627053E-2    5.379996970083021E-1   -2.585995766284159E-3    4.396048223177698E-4   -2.618608545963150E-3    4.743245881439803E-4    1.651682233555871E-1    4.823752208023507E-1
 8.149805813900000E9     1.108868770178997E-2    5.378441099848413E-1   -2.614281267147578E-3    4.337498180769709E-4   -2.605565553651406E-3    4.724887800067652E-4    1.659493375906249E-1    4.820684917949043E-1
 8.149818274550000E9     1.195787660305501E-2    5.379709540767796E-1   -2.582447431818913E-3    4.157895541682744E-4   -2.635697898689459E-3    4.994085585386490E-4    1.666043510092736E-1    4.817843667950364E-1
 8.149830735200000E9     1.292474947075821E-2    5.380686450787907E-1   -2.601635146431207E-3    4.012625213503545E-4   -2.642429981064907E-3    4.527951698444971E-4    1.674409104362548E-1    4.816024981225797E-1
 8.149843195850000E9     1.360403923389184E-2    5.378793751827695E-1   -2.607293437331233E-3    4.284978566798915E-4   -2.625538835040783E-3    4.781075832371585E-4    1.681279678755549E-1    4.811180657942281E-1
 8.149855656500000E9     1.456786329313917E-2    5.379815685774592E-1   -2.604920274343824E-3    4.303762445369695E-4   -2.601327380975502E-3    4.715264522947735E-4    1.688673346955358E-1    4.808941843295360E-1
 8.149868117150000E9     1.550457169585769E-2    5.378876592167006E-1   -2.618608371836774E-3    4.377906759458190E-4   -2.620431703267281E-3    4.877904071188238E-4    1.696709193974465E-1    4.807012591835707E-1
 8.149880577800000E9     1.632121007693607E-2    5.378945616216212E-1   -2.574443070890948E-3    4.451752520119245E-4   -2.621615412491045E-3    4.806962022171312E-4    1.704520814820791E-1    4.804777860012969E-1
 8.149893038450000E9     1.720308388999720E-2    5.379932452040461E-1   -2.602778729408361E-3    4.524189036308506E-4   -2.634025796143327E-3    5.151148461942692E-4    1.712112529725604E-1    4.800302363614842E-1
 8.149905499100000E9     1.816364710044209E-2    5.379447435913686E-1   -2.592656431499201E-3    4.617180338100956E-4   -2.625033296280974E-3    5.108331244212774E-4    1.719317828485042E-1    4.798619243572527E-1
 8.149917959750000E9     1.892529292561581E-2    5.378924282955018E-1   -2.632735172830444E-3    4.469077453802400E-4   -2.634381535476052E-3    4.880100228602891E-4    1.727445319846821E-1    4.795606790536954E-1
 8.149930420400000E9     1.980389244465606E-2    5.379704656904754E-1   -2.590415020179273E-3    4.445571774089311E-4   -2.606554182444235E-3    5.240364743921627E-4    1.734078459923770E-1    4.792301545238595E-1
 8.149942881050000E9     2.073111392312055E-2    5.379161513833527E-1   -2.585306635889418E-3    4.661011714817402E-4   -2.606519720702947E-3    5.096957376672260E-4    1.741262907746211E-1    4.788222553900531E-1
 8.149955341700000E9     2.144693087271311E-2    5.378273791958286E-1   -2.596891117830334E-3    4.792904204893204E-4   -2.607694745233455E-3    5.359019126338974E-4    1.748925044119473E-1    4.788055722250135E-1
 8.149967802350000E9     2.238620420061542E-2    5.378686180301075E-1   -2.588266939781206E-3    4.544267300682886E-4   -2.630658489314239E-3    5.420798466221858E-4    1.757632292003143E-1    4.784661707431164E-1
 8.149980263000000E9     2.321887065974443E-2    5.377779672395984E-1   -2.603079604379851E-3    4.697788689104867E-4   -2.615319064557469E-3    5.108105937452247E-4    1.764019015772004E-1    4.780730816865402E-1
 8.149992723650000E9     2.418336272776445E-2    5.378149358537007E-1   -2.594688275974692E-3    5.045143554461279E-4   -2.613183816429931E-3    5.223169692252322E-4    1.773286588954573E-1    4.778040541123602E-1
 8.150005184300000E9     2.484746159990478E-2    5.378359629344635E-1   -2.594360419502551E-3    4.543127263261481E-4   -2.624882223787989E-3    5.575982181778088E-4    1.779475726799158E-1    4.774326913715133E-1
 8.150017644950000E9     2.572610078990328E-2    5.378477302532803E-1   -2.601875439943266E-3    4.968324662758748E-4   -2.637586261258017E-3    5.225549224689019E-4    1.786348164518025E-1    4.772892755052844E-1
 8.150030105600000E9     2.667876999806897E-2    5.377591779587494E-1   -2.591913007179370E-3    5.017707506447027E-4   -2.625853301804726E-3    5.553594386190086E-4    1.795144504553430E-1    4.769728066241974E-1
 8.150042566250000E9     2.763320485612962E-2    5.377355099801682E-1   -2.624679321377455E-3    5.143268643345792E-4   -2.628554938058247E-3    5.350034780113626E-4    1.800606251675463E-1    4.767902740666983E-1
 8.150055026900000E9     2.848370815098753E-2    5.376248755767054E-1   -2.621658582370290E-3    4.950271865716317E-4   -2.618345061825999E-3    5.482623547191745E-4    1.809008677902442E-1    4.764141599308744E-1
 8.150067487550000E9     2.939815761027358E-2    5.376453251322910E-1   -2.622109321833088E-3    5.258482564024809E-4   -2.639435932058922E-3    5.476429963197578E-4    1.817342498232045E-1    4.758807420528079E-1
 8.150079948200000E9     3.013267296677633E-2    5.377072295633830E-1   -2.583729520062805E-3    5.245313268509789E-4   -2.631366149914832E-3    5.713948326775249E-4    1.823857174437889E-1    4.758323758994455E-1
 8.150092408850000E9     3.103021618616263E-2    5.376929867858138E-1   -2.610087865822000E-3    5.222324034860884E-4   -2.617797165082075E-3    5.848365972132973E-4    1.831931565794094E-1    4.755284862225772E-1
 8.150104869500000E9     3.195485940206243E-2    5.375495355546719E-1   -2.605530350716380E-3    5.244262231651115E-4   -2.630059009411637E-3    5.486082929266380E-4    1.838368108837048E-1    4.750487420681361E-1
 8.150117330150000E9     3.284723918964341E-2    5.376295121736796E-1   -2.597684997565792E-3    5.375270178038070E-4   -2.598052702004198E-3    5.901893094085029E-4    1.845454304361614E-1    4.749454658087478E-1
 8.150129790800000E9     3.365433980047942E-2    5.374452805523554E-1   -2.588216389832340E-3    5.339467798046596E-4   -2.651663329231824E-3    5.410427226271911E-4    1.854472238260601E-1    4.745490320051036E-1
 8.150142251450000E9     3.446129171312481E-2    5.374839441500685E-1   -2.587560959700682E-3    5.467450895109256E-4   -2.612941975059213E-3    5.980729271410906E-4    1.861591838946007E-1    4.741530864374611E-1
 8.150154712100000E9     3.534209400941068E-2    5.374538077548675E-1   -2.586841566681841E-3    5.492313476938335E-4   -2.625485190458457E-3    5.800044554153829E-4    1.870576285729441E-1    4.740886674661925E-1
 8.150167172750000E9     3.619684337162640E-2    5.374614901096866E-1   -2.588161161950079E-3    5.447297236109792E-4   -2.605249260588679E-3    5.716357357758242E-4    1.875562141788417E-1    4.735201430114299E-1
 8.150179633400000E9     3.709054302770943E-2    5.374296625433499E-1   -2.584379348664624E-3    5.283418245520031E-4   -2.623787117873638E-3    5.886258409731023E-4    1.883254678517111E-1    4.732809246617556E-1
 8.150192094050000E9     3.795066170694311E-2    5.373924625592340E-1   -2.605877381201905E-3    5.484824855928705E-4   -2.640265148371062E-3    6.122219556347975E-4    1.891118502584041E-1    4.729994279749709E-1
 8.150204554700000E9     3.888160624935438E-2    5.371298082856982E-1   -2.601844859830544E-3    5.414981393008757E-4   -2.608690756418763E-3    6.000336071868973E-4    1.897947694617806E-1    4.726297580227710E-1
 8.150217015350000E9     3.972896645835813E-2    5.372292258801425E-1   -2.589982079205474E-3    5.568452429270938E-4   -2.619835475899887E-3    6.199119582474224E-4    1.905460809084676E-1    4.723930931985587E-1
 8.150229476000000E9     4.065152907797519E-2    5.371554683906059E-1   -2.588638235069972E-3    5.800253369735446E-4   -2.615554987047760E-3    6.412610254919630E-4    1.912983215026627E-1    4.719754063196977E-1
 8.150241936650000E9     4.137683444083279E-2    5.371274339464589E-1   -2.565737883005216E-3    5.738683384156263E-4   -2.592003673281543E-3    6.278495659324184E-4    1.920957565816918E-1    4.717084220545805E-1
 8.150254397300000E9     4.231498069596504E-2    5.372133079811015E-1   -2.578462662016475E-3    6.030859990110485E-4   -2.632172914257378E-3    6.496490632619823E-4    1.927990422083787E-1    4.713566887350409E-1
 8.150266857950000E9     4.319036028481642E-2    5.371562369149526E-1   -2.599123492343084E-3    5.898727815568442E-4   -2.612644164082510E-3    6.349320698082050E-4    1.934985400144604E-1    4.710120617575881E-1
 8.150279318600000E9     4.394596123400440E-2    5.370474160248042E-1   -2.579059494237737E-3    6.059447550344622E-4   -2.621822495613570E-3    6.398082644703055E-4    1.941306255658131E-1    4.707655297002489E-1
 8.150291779250000E9     4.494276476572474E-2    5.370033939293472E-1   -2.590599036669899E-3    5.938765275388055E-4   -2.641660268171581E-3    6.345364145703412E-4    1.948502454266114E-1    4.703819619250634E-1
 8.150304239900000E9     4.573471452005525E-2    5.369549565843278E-1   -2.600653595785252E-3    6.164422430740981E-4   -2.611795917718565E-3    6.719826084949333E-4    1.956796086353577E-1    4.700527732136082E-1
 8.150316700550000E9     4.676648977078003E-2    5.369393042182996E-1   -2.595221918816479E-3    6.136995192776686E-4   -2.607194729469230E-3    6.285564267480111E-4    1.963562092836469E-1    4.697280419999263E-1
 8.150329161200000E9     4.742813158198608E-2    5.368807704377782E-1   -2.594671679558245E-3    6.066955628724307E-4   -2.632096650991607E-3    6.401780765637620E-4    1.970359811160941E-1    4.695122751952432E-1
 8.150341621850000E9     4.841914526603155E-2    5.367254566030210E-1   -2.598423369891038E-3    6.344707023229278E-4   -2.595383176874759E-3    6.344360567627732E-4    1.978574268524983E-1    4.692396813400605E-1
 8.150354082500000E9     4.916563608603276E-2    5.367272485700000E-1   -2.579242644919738E-3    6.006663955005191E-4   -2.616421517779455E-3    6.624130792910320E-4    1.985302267086399E-1    4.687503497192305E-1
 8.150366543150000E9     5.012319791738992E-2    5.365761352002439E-1   -2.594208200165357E-3    6.299808607479506E-4   -2.594174427996511E-3    6.586967130809300E-4    1.994698579288747E-1    4.684395344674762E-1
 8.150379003800000E9     5.087792539354183E-2    5.364856442736530E-1   -2.584256184185230E-3    6.221625797812554E-4   -2.603001413219530E-3    6.673292922010551E-4    2.000453963610823E-1    4.680416894637486E-1
 8.150391464450000E9     5.192591082786412E-2    5.366756354539929E-1   -2.597068572954822E-3    6.385956459753409E-4   -2.634491563128596E-3    7.001538957722723E-4    2.008620105135851E-1    4.677477032532216E-1
 8.150403925100000E9     5.275794442196831E-2    5.363493419315535E-1   -2.583721534283457E-3    6.312144001149851E-4   -2.603070177716855E-3    6.775322599978559E-4    2.015455709356089E-1    4.675555671887834E-1
 8.150416385750000E9     5.359440687745692E-2    5.363173966521159E-1   -2.596331241076947E-3    6.236871630204702E-4   -2.600548054351488E-3    6.894369558294387E-4    2.021485799579518E-1    4.670479332497415E-1
 8.150428846400000E9     5.447214662668134E-2    5.362975117801136E-1   -2.558596677836821E-3    6.516206854985996E-4   -2.603360018689574E-3    6.701371486301164E-4    2.030242779276110E-1    4.668071590923955E-1
 8.150441307050000E9     5.540457041469943E-2    5.362678999305815E-1   -2.561209490999878E-3    6.263857840489578E-4   -2.609627909093326E-3    6.804529492527025E-4    2.035768414662843E-1    4.665258590737244E-1
 8.150453767700000E9     5.629167945953426E-2    5.361186795629646E-1   -2.557308048388063E-3    6.389818504923329E-4   -2.595361655504216E-3    6.833179524718476E-4    2.044086198089563E-1    4.660541913206246E-1
 8.150466228350000E9     5.712341388981592E-2    5.361209046220176E-1   -2.563995809246466E-3    6.653663396965894E-4   -2.590157296444554E-3    7.039060891294243E-4    2.050922722518498E-1    4.658594489835234E-1
 8.150478689000000E9     5.802535198557510E-2    5.360093986618132E-1   -2.584987976596828E-3    6.926442177553304E-4   -2.618784638337967E-3    7.217870194403135E-4    2.057235977960743E-1    4.655470480445307E-1
 8.150491149650000E9     5.875734913524479E-2    5.360548717114230E-1   -2.597625100446805E-3    6.932335523936474E-4   -2.618192043935425E-3    7.104133254576969E-4    2.065610571760381E-1    4.650208289251098E-1
 8.150503610300000E9     5.963461348310855E-2    5.358815722976448E-1   -2.590472766755036E-3    6.814157726977453E-4   -2.613581139376006E-3    7.402136803167392E-4    2.073782009175479E-1    4.647802777246136E-1
 8.150516070950000E9     6.058038031780624E-2    5.357872933504834E-1   -2.591236782186718E-3    6.808425545076723E-4   -2.626103059128860E-3    7.343216015223491E-4    2.079474364740813E-1    4.645558794761410E-1
 8.150528531600000E9     6.146380276486357E-2    5.357010177828396E-1   -2.575292074152974E-3    6.642635852934020E-4   -2.598944841018878E-3    7.465584057583656E-4    2.088205428447359E-1    4.641354115806139E-1
 8.150540992250000E9     6.227400551358307E-2    5.356932972095754E-1   -2.578662734236450E-3    6.980737999771586E-4   -2.602263466681480E-3    7.129924535947393E-4    2.094585508457902E-1    4.636023956125316E-1
 8.150553452900000E9     6.312518738065523E-2    5.355843592146265E-1   -2.591984967244877E-3    6.774679466590212E-4   -2.574235382346567E-3    7.536623975157851E-4    2.102639289606655E-1    4.633931267264448E-1
 8.150565913550000E9     6.396935765853902E-2    5.355383182804929E-1   -2.584561839299226E-3    7.193611662786958E-4   -2.588998435696331E-3    7.545822742360102E-4    2.109153012410801E-1    4.630721211515997E-1
 8.150578374200000E9     6.489639143598720E-2    5.354049932422580E-1   -2.555823204059622E-3    6.945547609915066E-4   -2.618810438037681E-3    7.907172727222747E-4    2.115530066853023E-1    4.627354814929126E-1
 8.150590834850000E9     6.576644596961569E-2    5.352788792336078E-1   -2.575627635744685E-3    7.214883202587218E-4   -2.602953370528908E-3    7.356564699388924E-4    2.122681003548658E-1    4.624758118780329E-1
 8.150603295500000E9     6.664026106599305E-2    5.351802365897794E-1   -2.572779506614029E-3    7.594902880209373E-4   -2.641357918916121E-3    7.504482339697925E-4    2.131428343643479E-1    4.620795867966314E-1
