#  HZ   S   RI   R     50.00 
! Rohde & Schwarz Vector Network Analyzer 
! Rohde-Schwarz,ZNB20-2Port,1311601062101988,3.16
! Created: UTC 3/21/2024, 1:10:20 AM
! freq[Hz]                re:S11                  im:S11                  re:S21                  im:S21                  re:S12                  im:S12                  re:S22                  im:S22
 8.149492027000000E9    -1.096951772699596E-2    5.374266247204675E-1   -2.593805569711499E-3    2.841278526401382E-4   -2.666914803211205E-3    3.545309245047631E-4    1.467779310998585E-1    4.887009275275587E-1
 8.149504450550000E9    -1.007227422631478E-2    5.373991624881551E-1   -2.618037344062075E-3    3.014874762006380E-4   -2.628229666674795E-3    3.491923094278119E-4    1.475197805719629E-1    4.885607813606901E-1
 8.149516874100000E9    -9.093297668925759E-3    5.374913451204382E-1   -2.622864271707257E-3    3.198178549349146E-4   -2.616284077273686E-3    3.688829688409159E-4    1.481552193588474E-1    4.883244494695205E-1
 8.149529297650000E9    -8.132523355854893E-3    5.375622079587820E-1   -2.621213539575549E-3    3.147276764660239E-4   -2.656747183478036E-3    3.510138240491793E-4    1.489983418045854E-1    4.878530603445465E-1
 8.149541721200000E9    -7.364870706800282E-3    5.376846885764356E-1   -2.630433068793970E-3    3.140984784197359E-4   -2.664835980258165E-3    3.563875926160666E-4    1.497772688967879E-1    4.878416309883094E-1
 8.149554144750000E9    -6.602733720566928E-3    5.376738445915593E-1   -2.601290551397315E-3    3.260834003020825E-4   -2.647315673409015E-3    3.698794534926039E-4    1.505375679144076E-1    4.874925844148351E-1
 8.149566568300000E9    -5.599576935704188E-3    5.375722830787183E-1   -2.618005990546359E-3    3.207076842098968E-4   -2.644369994698859E-3    3.896089406131441E-4    1.513425602439148E-1    4.872122425127707E-1
 8.149578991850000E9    -4.806216071492369E-3    5.376571932652852E-1   -2.601045216664731E-3    3.183005252978397E-4   -2.640176355698490E-3    3.926369504690781E-4    1.520004972564859E-1    4.870143527857659E-1
 8.149591415400000E9    -3.898695187015304E-3    5.376737189540326E-1   -2.614868107861125E-3    3.639305906684833E-4   -2.614207881923626E-3    4.087998394737541E-4    1.528708138594183E-1    4.868591982772562E-1
 8.149603838950000E9    -2.966104017956729E-3    5.376060544800783E-1   -2.611655520250782E-3    3.697070590232080E-4   -2.627400880619012E-3    3.826396057960001E-4    1.535646564906071E-1    4.864410981040571E-1
 8.149616262500000E9    -2.124480246401549E-3    5.377132077222333E-1   -2.620278256924096E-3    3.273347781862087E-4   -2.620711235818213E-3    4.254649085989932E-4    1.543212814203640E-1    4.861998922002760E-1
 8.149628686050000E9    -1.291142013299186E-3    5.377714646013956E-1   -2.597090997051423E-3    3.501238584107550E-4   -2.631543524580744E-3    4.038586045838870E-4    1.551662315255127E-1    4.859845936824610E-1
 8.149641109600000E9    -3.308470569885190E-4    5.377722862951244E-1   -2.590932842025408E-3    3.658902380552109E-4   -2.657417622396624E-3    4.300288580861017E-4    1.557534417609491E-1    4.856952614929573E-1
 8.149653533150000E9     4.771994751204735E-4    5.377389460020491E-1   -2.581373516153195E-3    4.051497340295078E-4   -2.640305009844288E-3    4.234317610534139E-4    1.567052594161233E-1    4.854603809534089E-1
 8.149665956700000E9     1.306270627069640E-3    5.378020450921508E-1   -2.583857878440096E-3    3.841704880789935E-4   -2.633473949525962E-3    4.130499889990408E-4    1.573860362779110E-1    4.851238543101040E-1
 8.149678380250000E9     2.102952072155927E-3    5.379561049586922E-1   -2.581288354757628E-3    3.625291914688491E-4   -2.632392904293431E-3    4.326171176464080E-4    1.580758039136823E-1    4.850382485224549E-1
 8.149690803800000E9     2.968763317087273E-3    5.377019764666179E-1   -2.613031388141995E-3    3.611477221711657E-4   -2.614312169998737E-3    4.403941850012637E-4    1.588866017949452E-1    4.847332822207501E-1
 8.149703227350000E9     4.042795296295345E-3    5.378721356918907E-1   -2.579426704815046E-3    3.680888876324535E-4   -2.628422633972029E-3    4.264208275200601E-4    1.597486216639180E-1    4.844271339270586E-1
 8.149715650900000E9     4.696970810588150E-3    5.379403295033450E-1   -2.589685875385155E-3    3.915726573899462E-4   -2.612957484598549E-3    4.332716528331079E-4    1.604340917959851E-1    4.839882989789253E-1
 8.149728074450000E9     5.738614337534493E-3    5.378421580633473E-1   -2.589379474884861E-3    4.041872438163935E-4   -2.626675276905945E-3    4.426958929774608E-4    1.610210758349603E-1    4.836453877178953E-1
 8.149740498000000E9     6.445207048465133E-3    5.379594074995960E-1   -2.616834471667506E-3    3.829991901198149E-4   -2.646046561174543E-3    4.755018800556166E-4    1.619253702357910E-1    4.834773177828649E-1
 8.149752921550000E9     7.467143288772906E-3    5.378944566875864E-1   -2.618347808655553E-3    3.873277068834171E-4   -2.620928974983163E-3    4.529643996795889E-4    1.627099507400399E-1    4.833739624650030E-1
 8.149765345100000E9     8.301160980189111E-3    5.379264662511078E-1   -2.606716151647911E-3    4.393321923013687E-4   -2.664555276965570E-3    4.872140146332668E-4    1.635174211927739E-1    4.831122642884776E-1
 8.149777768650000E9     9.150826989444227E-3    5.378662413405384E-1   -2.621195176418283E-3    4.202753867193156E-4   -2.613214939512559E-3    4.595814701922302E-4    1.641354906380503E-1    4.827050060366707E-1
 8.149790192200000E9     1.002263528588025E-2    5.379161519435004E-1   -2.598717014410749E-3    3.776546630697239E-4   -2.628404467742439E-3    4.611312247481157E-4    1.650158519198305E-1    4.824788010664923E-1
 8.149802615750000E9     1.082220596221515E-2    5.378752531263412E-1   -2.602199608341943E-3    3.956817897736943E-4   -2.639258463436045E-3    4.688434442173080E-4    1.657124557715872E-1    4.821204075923575E-1
 8.149815039300000E9     1.179006115739275E-2    5.378963182418979E-1   -2.602373893877928E-3    4.168422399626289E-4   -2.622644505467737E-3    4.778813126642584E-4    1.664685707795735E-1    4.819245552789150E-1
 8.149827462850000E9     1.254033318131293E-2    5.380162498030621E-1   -2.622625964492577E-3    4.242151006272317E-4   -2.625958301605986E-3    4.552107251495721E-4    1.673278291998734E-1    4.817008622379690E-1
 8.149839886400000E9     1.342867758845703E-2    5.379473179716254E-1   -2.611222625259633E-3    4.387237999182838E-4   -2.614891382589101E-3    4.850877432365351E-4    1.680106499553457E-1    4.811730586030444E-1
 8.149852309950000E9     1.425773208251072E-2    5.379472832557175E-1   -2.599354444856044E-3    4.253558975384153E-4   -2.610427368963939E-3    4.644676050580860E-4    1.686482633856029E-1    4.809764870324660E-1
 8.149864733500000E9     1.509560677796975E-2    5.379564804856470E-1   -2.594941854115883E-3    4.303474837649959E-4   -2.633052931651369E-3    4.995406307811086E-4    1.694404794783707E-1    4.807610259725997E-1
 8.149877157050000E9     1.592316018345405E-2    5.379057611637785E-1   -2.593828687743613E-3    4.327136734049312E-4   -2.598008200968934E-3    4.853436657743460E-4    1.702125489554197E-1    4.805574914894019E-1
 8.149889580600000E9     1.683300964838293E-2    5.378902989586062E-1   -2.599552643228055E-3    4.784226201418974E-4   -2.629767047621066E-3    4.770376300969206E-4    1.709964552317691E-1    4.802109862668191E-1
 8.149902004150000E9     1.773934257198721E-2    5.380168989501657E-1   -2.594990337849343E-3    4.384461861854526E-4   -2.623549953523640E-3    5.029563178780128E-4    1.715776223443871E-1    4.800531043982771E-1
 8.149914427700000E9     1.864264031689147E-2    5.379809127759030E-1   -2.582292196225684E-3    4.362828611537937E-4   -2.635515686254062E-3    5.064234387908921E-4    1.725337154448945E-1    4.798548965774209E-1
 8.149926851250000E9     1.938990281790972E-2    5.378867150635955E-1   -2.600525489210012E-3    4.588585944121489E-4   -2.652636322006326E-3    5.237526770275105E-4    1.732025446102196E-1    4.792938584486601E-1
 8.149939274800000E9     2.042922545827928E-2    5.378767026466335E-1   -2.594573372992781E-3    4.317113966524585E-4   -2.609426824040230E-3    4.946977711595362E-4    1.739494305964880E-1    4.790824223031871E-1
 8.149951698350000E9     2.128983172874500E-2    5.378867042017649E-1   -2.602513871096701E-3    4.558519212628408E-4   -2.629648751715072E-3    4.941509222322095E-4    1.746272019067831E-1    4.788036581150702E-1
 8.149964121900000E9     2.204008199754990E-2    5.379047127294547E-1   -2.599442313193627E-3    4.763762019146311E-4   -2.581194960179659E-3    5.396378696844562E-4    1.753292169867374E-1    4.785380083810076E-1
 8.149976545450000E9     2.298084473890021E-2    5.379546556838618E-1   -2.565870406411459E-3    4.683377807347637E-4   -2.576293458730013E-3    5.006691332431391E-4    1.762540378073499E-1    4.782554302636890E-1
 8.149988969000000E9     2.394664669081445E-2    5.378223190558419E-1   -2.614422573227672E-3    4.991795794464663E-4   -2.632690739302437E-3    5.178260146422500E-4    1.769047171725437E-1    4.778701605421416E-1
 8.150001392550000E9     2.465665965737995E-2    5.378669844350458E-1   -2.591036493525859E-3    5.119880021861675E-4   -2.615638148595657E-3    5.401255623040399E-4    1.773903627376267E-1    4.775972277590936E-1
 8.150013816100000E9     2.558060566170598E-2    5.378974516824720E-1   -2.615236109085264E-3    4.649426360588777E-4   -2.600058385093032E-3    5.314662942855424E-4    1.785175574967771E-1    4.773348551406751E-1
 8.150026239650000E9     2.635813165889700E-2    5.376986318405820E-1   -2.580870959728916E-3    4.991713266831356E-4   -2.631842291673173E-3    5.396805949216246E-4    1.790697545609532E-1    4.770352074781632E-1
 8.150038663200000E9     2.729156666961651E-2    5.376263173967014E-1   -2.605648587525980E-3    4.838000309482407E-4   -2.631813129848392E-3    5.405446810489365E-4    1.797974581294586E-1    4.766654615247670E-1
 8.150051086750000E9     2.809140749927967E-2    5.378358703287643E-1   -2.596052867233401E-3    4.887745835678700E-4   -2.590135714000233E-3    5.607139534651736E-4    1.805697527606292E-1    4.762998133155814E-1
 8.150063510300000E9     2.902024171186816E-2    5.376531244149984E-1   -2.573858952132594E-3    5.013646123555025E-4   -2.600817240436953E-3    5.662351292610433E-4    1.813713214426992E-1    4.760891817879370E-1
 8.150075933850000E9     2.993991108066582E-2    5.376565728124195E-1   -2.596039217942403E-3    4.929577934282212E-4   -2.617729226346959E-3    5.324496513056744E-4    1.820707116305391E-1    4.757805548772724E-1
 8.150088357400000E9     3.068263608966611E-2    5.376717912829441E-1   -2.599038063720467E-3    5.475907105584183E-4   -2.603176694256198E-3    5.926623903633081E-4    1.828016550986913E-1    4.754537551007708E-1
 8.150100780950000E9     3.160594036401371E-2    5.377136813249858E-1   -2.609394473495977E-3    5.428690146849240E-4   -2.620522948234963E-3    5.745078250246242E-4    1.835561857751442E-1    4.751800600143639E-1
 8.150113204500000E9     3.247564802525980E-2    5.376786259959647E-1   -2.587491402194221E-3    4.874472468906814E-4   -2.609263193431422E-3    6.107742735083346E-4    1.843253346644932E-1    4.748601144004353E-1
 8.150125628050000E9     3.334367415533938E-2    5.374714601834237E-1   -2.585132782728672E-3    5.379893580653957E-4   -2.620281450849327E-3    5.712433841735684E-4    1.850643508359678E-1    4.746562730454960E-1
 8.150138051600000E9     3.420184600717530E-2    5.375900867612389E-1   -2.581390159431612E-3    5.387798818385944E-4   -2.603145585260486E-3    5.920672085802793E-4    1.857472952748394E-1    4.743533404106351E-1
 8.150150475150000E9     3.519301419406905E-2    5.375175784572699E-1   -2.587433763446399E-3    5.252085845204401E-4   -2.600204425938596E-3    5.998592331615120E-4    1.865812970309927E-1    4.739930525507996E-1
 8.150162898700000E9     3.593047002568003E-2    5.374225246632202E-1   -2.598338448026615E-3    5.301538827714907E-4   -2.584818156033078E-3    5.902631884887622E-4    1.872371545457214E-1    4.737424259065403E-1
 8.150175322250000E9     3.681832885408929E-2    5.374397139508026E-1   -2.606231375753127E-3    5.525629197831399E-4   -2.632963480416984E-3    5.870016630697851E-4    1.880390938162025E-1    4.733565419393293E-1
 8.150187745800000E9     3.772648361401921E-2    5.372960706348430E-1   -2.598400794802079E-3    5.775243173116041E-4   -2.630066253159966E-3    5.707616642825129E-4    1.886963440747522E-1    4.730596852011926E-1
 8.150200169350000E9     3.865088541881735E-2    5.373184887939380E-1   -2.606450421960753E-3    5.455639971177197E-4   -2.640383424482304E-3    6.081894826629862E-4    1.895713597096730E-1    4.727472866328180E-1
 8.150212592900000E9     3.939786960618882E-2    5.373956932434579E-1   -2.575793924769893E-3    5.797032707260003E-4   -2.594648868746630E-3    6.221442530848734E-4    1.902222887496016E-1    4.724049569765570E-1
 8.150225016450000E9     4.024039016859542E-2    5.371061310242347E-1   -2.596330821860992E-3    5.813858794169842E-4   -2.590924213987613E-3    6.006953001608153E-4    1.908219400102619E-1    4.720236967367321E-1
 8.150237440000000E9     4.129500833387044E-2    5.372955294381451E-1   -2.581596071681157E-3    5.686544020299877E-4   -2.639537112647974E-3    6.407833406258100E-4    1.917138360752036E-1    4.717360264446034E-1
 8.150249863550000E9     4.206543319029858E-2    5.371041868274541E-1   -2.574161338306921E-3    5.840126241073105E-4   -2.610670762528426E-3    6.487734334485097E-4    1.925466366421627E-1    4.715518911946513E-1
 8.150262287100000E9     4.277653225253777E-2    5.370159645473558E-1   -2.589545697732172E-3    5.685836697992757E-4   -2.594922788107251E-3    6.160028291086787E-4    1.931738177462492E-1    4.710344577672436E-1
 8.150274710650000E9     4.381686048880568E-2    5.369303429832242E-1   -2.588139522100390E-3    6.184316111976665E-4   -2.598647125844498E-3    6.450550674688294E-4    1.937356068804335E-1    4.708567584054573E-1
 8.150287134200000E9     4.458409964196911E-2    5.369213506776308E-1   -2.587160122584210E-3    5.838024074076894E-4   -2.596065578959451E-3    6.230255951347415E-4    1.945625284920552E-1    4.705356278233592E-1
 8.150299557750000E9     4.545040899232380E-2    5.368224393113856E-1   -2.575427788583115E-3    6.002015886447607E-4   -2.606028266228219E-3    6.723520121737875E-4    1.952492275471268E-1    4.701009230277166E-1
 8.150311981300000E9     4.634424597976861E-2    5.369423364430904E-1   -2.628717978558788E-3    6.115181134531739E-4   -2.617006212939552E-3    6.512740221519521E-4    1.960775395893720E-1    4.696972226843985E-1
 8.150324404850000E9     4.715594479579831E-2    5.368354211382492E-1   -2.576316128788217E-3    6.204056985868694E-4   -2.614534620449224E-3    6.894765851191571E-4    1.968718559276175E-1    4.695614786683424E-1
 8.150336828400000E9     4.813200833581872E-2    5.367398387812128E-1   -2.578199576095544E-3    6.144713863507302E-4   -2.601843793616629E-3    6.841674687895725E-4    1.975529449344354E-1    4.693210076453472E-1
 8.150349251950000E9     4.915797294824046E-2    5.367279478707750E-1   -2.592055520080442E-3    6.145309597750738E-4   -2.585575038134310E-3    6.425857176850072E-4    1.982842526132727E-1    4.689923229916939E-1
 8.150361675500000E9     4.986507844904744E-2    5.365911871752713E-1   -2.599621733858405E-3    6.032835067606334E-4   -2.621944862729742E-3    6.697083403903113E-4    1.990285026812086E-1    4.685385692340187E-1
 8.150374099050000E9     5.071314293473090E-2    5.366733388134640E-1   -2.574332190552029E-3    6.236786963747924E-4   -2.607325748349094E-3    6.685925390046525E-4    1.997643871849016E-1    4.682076145695706E-1
 8.150386522600000E9     5.144778668173298E-2    5.363796316115702E-1   -2.594239118083564E-3    6.219079509294938E-4   -2.633430133737077E-3    6.873131599344446E-4    2.003123164970685E-1    4.680185771730996E-1
 8.150398946150000E9     5.246787939026116E-2    5.364638772886988E-1   -2.564100268934887E-3    6.264323058192741E-4   -2.627471756807136E-3    6.900726112538182E-4    2.013150785617847E-1    4.676071224246437E-1
 8.150411369700000E9     5.313173697926869E-2    5.364222684143943E-1   -2.573538774420119E-3    6.225634205583697E-4   -2.576062481631375E-3    6.644561199078416E-4    2.019759932146919E-1    4.672495840919445E-1
 8.150423793250000E9     5.400890274466591E-2    5.363713067156111E-1   -2.589877896628570E-3    6.532036012421521E-4   -2.609521645112293E-3    7.096811013087219E-4    2.025640723376840E-1    4.670643030204460E-1
 8.150436216800000E9     5.493616740402269E-2    5.362878973864872E-1   -2.601551036424034E-3    6.370062077378566E-4   -2.601142523459039E-3    6.750336584791639E-4    2.034027015345274E-1    4.667031752320960E-1
 8.150448640350000E9     5.580860152956488E-2    5.362501120656317E-1   -2.588004480034078E-3    6.493077713865219E-4   -2.595243021909812E-3    6.826999802495349E-4    2.041607781959593E-1    4.662130909927727E-1
 8.150461063900000E9     5.667232101924810E-2    5.360865111504519E-1   -2.593440813755088E-3    6.507843694067433E-4   -2.594709158055301E-3    7.328268655411984E-4    2.048641281678988E-1    4.659766697337992E-1
 8.150473487450000E9     5.754987065073001E-2    5.360657394929433E-1   -2.604126524481695E-3    6.455888450387844E-4   -2.609553800896500E-3    7.164443495835533E-4    2.054591306788165E-1    4.655323359005641E-1
 8.150485911000000E9     5.839738562259943E-2    5.360303146444494E-1   -2.563494045092211E-3    6.558092556340834E-4   -2.607835441839707E-3    7.422861960819848E-4    2.061620048254295E-1    4.651805588624756E-1
 8.150498334550000E9     5.934957964055625E-2    5.359713949640643E-1   -2.586798188884707E-3    6.772257569798443E-4   -2.605180318349772E-3    7.565440210431351E-4    2.071385637067707E-1    4.649402425930539E-1
 8.150510758100000E9     6.013590783117170E-2    5.358140164024673E-1   -2.586972814452956E-3    6.679448258086423E-4   -2.594378200854474E-3    7.189360378611035E-4    2.077274105610778E-1    4.645443388740079E-1
 8.150523181650000E9     6.096925141411822E-2    5.356889203071360E-1   -2.604154607091771E-3    6.724986282097972E-4   -2.604640575706728E-3    7.288999351583092E-4    2.083684616564415E-1    4.642890924277576E-1
 8.150535605200000E9     6.185841217444769E-2    5.356298726486535E-1   -2.602569592626418E-3    6.619119683507205E-4   -2.607164131568525E-3    7.322478174746870E-4    2.093439425170026E-1    4.639442179553134E-1
 8.150548028750000E9     6.284017607712518E-2    5.356508852186823E-1   -2.597453744615347E-3    7.001624137315975E-4   -2.577889487584461E-3    7.406697930454443E-4    2.098850871187085E-1    4.634656272291317E-1
 8.150560452300000E9     6.360757137027552E-2    5.355093499802538E-1   -2.568735414393457E-3    6.824650301808056E-4   -2.587954849448582E-3    7.648449954675697E-4    2.105130869159010E-1    4.630735002943513E-1
 8.150572875850000E9     6.453733373630731E-2    5.354150994770531E-1   -2.591473981859408E-3    6.959848439106728E-4   -2.616457681502743E-3    7.499895627712029E-4    2.111117752347839E-1    4.628665949987537E-1
 8.150585299400000E9     6.518576645427732E-2    5.352842728614899E-1   -2.563252199826482E-3    6.954548825861103E-4   -2.629019492253954E-3    7.730252734155738E-4    2.119287335519458E-1    4.626355933799352E-1
 8.150597722950000E9     6.612111833748943E-2    5.352441818460433E-1   -2.595391259760893E-3    7.029426708434036E-4   -2.599162140563104E-3    7.743294225520002E-4    2.126309652900446E-1    4.621562417908496E-1
 8.150610146500000E9     6.706198648050166E-2    5.352123000397264E-1   -2.595477776379379E-3    7.099504860035873E-4   -2.610082032072115E-3    7.968354018329073E-4    2.134744274948722E-1    4.618679628611146E-1
