#  HZ   S   RI   R     50.00 
! Rohde & Schwarz Vector Network Analyzer 
! Rohde-Schwarz,ZNB20-2Port,1311601062101988,3.16
! Created: UTC 3/21/2024, 1:10:25 AM
! freq[Hz]                re:S11                  im:S11                  re:S21                  im:S21                  re:S12                  im:S12                  re:S22                  im:S22
 8.149477143000000E9    -1.196337566474752E-2    5.372144465499684E-1   -2.615121892471195E-3    2.861393152535063E-4   -2.637609830897842E-3    3.536817771776761E-4    1.456911087802154E-1    4.888587085079408E-1
 8.149489656675000E9    -1.117567281694319E-2    5.374360459410824E-1   -2.618341115136715E-3    2.999665286806343E-4   -2.648917902381223E-3    3.413002827919598E-4    1.464556239344032E-1    4.888065424138902E-1
 8.149502170350000E9    -1.023404306692635E-2    5.375791983017766E-1   -2.621015531505257E-3    3.324046936982180E-4   -2.635816616987344E-3    3.462149903914914E-4    1.473435526876167E-1    4.885434125555520E-1
 8.149514684025000E9    -9.268256890743816E-3    5.374284253372651E-1   -2.609273568136510E-3    3.208862695974254E-4   -2.613750015404014E-3    3.700437897670722E-4    1.479851183513526E-1    4.882957095297401E-1
 8.149527197700000E9    -8.429693615590109E-3    5.375956599148249E-1   -2.601835942708433E-3    3.285672327366288E-4   -2.633148899610068E-3    3.732078289626592E-4    1.489396594174493E-1    4.881007835411791E-1
 8.149539711375000E9    -7.505874583436251E-3    5.374606678274271E-1   -2.617108196564137E-3    3.069203512850603E-4   -2.622894325619152E-3    3.751731107790928E-4    1.495163484231568E-1    4.878023520445361E-1
 8.149552225050000E9    -6.535402111928419E-3    5.376837858318174E-1   -2.616653030649641E-3    3.314715896936329E-4   -2.619485467744335E-3    3.864132743610538E-4    1.504119525259230E-1    4.877285008348023E-1
 8.149564738725000E9    -5.884531986116636E-3    5.375576369214222E-1   -2.609345983216091E-3    3.309975580669964E-4   -2.617371471083734E-3    3.536709594991372E-4    1.512180238795329E-1    4.872728587213984E-1
 8.149577252400000E9    -4.965667201480384E-3    5.375668878439327E-1   -2.589990222294414E-3    3.320531808136843E-4   -2.652482511928712E-3    3.784322730133708E-4    1.519831682353917E-1    4.869079347704225E-1
 8.149589766075000E9    -4.076206703755678E-3    5.376020867420984E-1   -2.582758538039273E-3    3.513544191256549E-4   -2.604321859679588E-3    3.960194706851565E-4    1.525315216019028E-1    4.867454668702111E-1
 8.149602279750000E9    -3.196881508181286E-3    5.375779327589645E-1   -2.622592798339586E-3    3.331944405387943E-4   -2.632878500620628E-3    3.940671416753097E-4    1.534837672956835E-1    4.864138783350240E-1
 8.149614793425000E9    -2.317650918844506E-3    5.376207851029158E-1   -2.623006017642130E-3    3.438499489574380E-4   -2.630763399273347E-3    3.888201229780985E-4    1.542412941582788E-1    4.861812927740715E-1
 8.149627307100000E9    -1.454716105293656E-3    5.377088795434776E-1   -2.633724950312842E-3    3.497229306172801E-4   -2.648354115801677E-3    4.050502228292381E-4    1.549169705758581E-1    4.860065076369615E-1
 8.149639820775000E9    -5.347494351899823E-4    5.377683187046985E-1   -2.605691526014801E-3    3.554956214819426E-4   -2.625569093076068E-3    4.139876303196512E-4    1.557275152159319E-1    4.857512689127191E-1
 8.149652334450000E9     3.947878213764386E-4    5.378183216285908E-1   -2.609476239650970E-3    3.694751066635972E-4   -2.606358367912823E-3    3.986708692490579E-4    1.564462642884344E-1    4.852713647052013E-1
 8.149664848125000E9     1.148021945300703E-3    5.377088869105843E-1   -2.567788294502608E-3    3.532479337256821E-4   -2.652914384630969E-3    4.283428411434196E-4    1.571062802018642E-1    4.850430247605225E-1
 8.149677361800000E9     2.008624028548990E-3    5.379356580942034E-1   -2.616835354572591E-3    3.709540488948318E-4   -2.620924210308403E-3    3.979085061224153E-4    1.579606447576155E-1    4.848480926593214E-1
 8.149689875475000E9     3.023852793561157E-3    5.379254976383647E-1   -2.594996799261085E-3    3.722757401869785E-4   -2.623134051779271E-3    4.262926432395755E-4    1.588323636837086E-1    4.844793735667931E-1
 8.149702389150000E9     3.753773067579066E-3    5.377831107270186E-1   -2.587568371361805E-3    3.546668431058949E-4   -2.627372760672837E-3    4.330634942786885E-4    1.595367024455986E-1    4.845575809642892E-1
 8.149714902825000E9     4.666540487567640E-3    5.376961810754212E-1   -2.587371722128206E-3    3.830529797968400E-4   -2.633635498696051E-3    4.466319611315143E-4    1.603473511616048E-1    4.839941636684491E-1
 8.149727416500000E9     5.486219553312950E-3    5.379488692908140E-1   -2.604472587469446E-3    3.679550650205172E-4   -2.615626189999648E-3    4.428889064006318E-4    1.610622872096367E-1    4.838825184424975E-1
 8.149739930175000E9     6.368702463353909E-3    5.379120939265366E-1   -2.586046568168776E-3    4.028384207465307E-4   -2.626185790472779E-3    4.304145867497162E-4    1.619075053752585E-1    4.836371023304014E-1
 8.149752443850000E9     7.280514504394025E-3    5.378291241371322E-1   -2.603068507754183E-3    3.841659064806863E-4   -2.623097242122699E-3    4.606842649028733E-4    1.625217131658949E-1    4.833103548154487E-1
 8.149764957525000E9     8.113948953210465E-3    5.378790006332168E-1   -2.622484895323350E-3    3.953409961265106E-4   -2.633453121283076E-3    4.315117557744509E-4    1.634569206446412E-1    4.829624339240392E-1
 8.149777471200000E9     9.021789613750520E-3    5.378606868988739E-1   -2.611278255341758E-3    4.157471497879589E-4   -2.616597966386821E-3    4.505269051230687E-4    1.642234536502125E-1    4.828072966803826E-1
 8.149789984875000E9     9.900257250977481E-3    5.379230510256343E-1   -2.592326113160155E-3    4.179826153134953E-4   -2.653114471801620E-3    4.665293300594696E-4    1.648416400245580E-1    4.824501045413929E-1
 8.149802498550000E9     1.072113683174084E-2    5.379618743421340E-1   -2.598015096788769E-3    3.990625236536410E-4   -2.628095228695924E-3    4.729225410700825E-4    1.656022031876768E-1    4.822155801182206E-1
 8.149815012225000E9     1.168912641350751E-2    5.380128524597130E-1   -2.606118644257533E-3    4.320385794961231E-4   -2.592639070517903E-3    4.659412224901582E-4    1.664812694480229E-1    4.819113634146296E-1
 8.149827525900000E9     1.251411238031478E-2    5.379631216553946E-1   -2.580451425794265E-3    4.434385622904877E-4   -2.609391885736988E-3    4.580718409094714E-4    1.672046512254501E-1    4.816343951947640E-1
 8.149840039575000E9     1.337753846264277E-2    5.378949641867747E-1   -2.595065222449898E-3    4.291730699753992E-4   -2.623583145045273E-3    4.754645446335122E-4    1.678909444266046E-1    4.812452682917153E-1
 8.149852553250000E9     1.430504557414658E-2    5.379391338370029E-1   -2.615892269120318E-3    4.241480505707046E-4   -2.610417778378513E-3    4.760372595870861E-4    1.686942464042431E-1    4.809993339366187E-1
 8.149865066925000E9     1.508921155644436E-2    5.379058823987367E-1   -2.609476549242476E-3    4.287414580541062E-4   -2.617949367955197E-3    4.880331343804456E-4    1.693076032064725E-1    4.807710791690414E-1
 8.149877580600000E9     1.595836553587751E-2    5.379196651317570E-1   -2.593174235336220E-3    4.509425132442945E-4   -2.614942125894592E-3    5.032636775064298E-4    1.701797164596309E-1    4.804960488051375E-1
 8.149890094275000E9     1.678456152538287E-2    5.379590800594797E-1   -2.611914966019025E-3    4.381430194046242E-4   -2.646583101522704E-3    5.253209088177565E-4    1.709777275698311E-1    4.801080939265678E-1
 8.149902607950000E9     1.772590756857982E-2    5.378908972346012E-1   -2.594412242633175E-3    4.451972775645683E-4   -2.644438832698378E-3    4.934395680692189E-4    1.716633067239625E-1    4.799817115670840E-1
 8.149915121625000E9     1.865883852637658E-2    5.379467694820824E-1   -2.593565369838780E-3    4.677930235886756E-4   -2.619363349085827E-3    5.276960478290062E-4    1.724526947153146E-1    4.795441626446941E-1
 8.149927635300000E9     1.959564250022819E-2    5.379617296190344E-1   -2.582887611145680E-3    4.627605486126623E-4   -2.614277884351801E-3    5.035403016806665E-4    1.730803097026539E-1    4.793451516822296E-1
 8.149940148975000E9     2.031951297931167E-2    5.377976352065834E-1   -2.578465628821382E-3    4.757849839722832E-4   -2.637121687409803E-3    5.269867102179520E-4    1.740317410904944E-1    4.789981358008764E-1
 8.149952662650000E9     2.121965549703133E-2    5.379898992391865E-1   -2.592020260328595E-3    4.599938010839864E-4   -2.577958560176151E-3    5.214384045743315E-4    1.748115289412717E-1    4.787995665306478E-1
 8.149965176325000E9     2.214918941242902E-2    5.378391372428308E-1   -2.608795884962462E-3    5.039127418868865E-4   -2.605717079223603E-3    5.161534161045347E-4    1.755065168522012E-1    4.785280579877322E-1
 8.149977690000000E9     2.310117035364616E-2    5.379192535025673E-1   -2.623294587193695E-3    4.812869682192039E-4   -2.628342473149667E-3    4.891143223766908E-4    1.762068503705908E-1    4.780456799879350E-1
 8.149990203675000E9     2.387166848335495E-2    5.377979804499718E-1   -2.580634852889745E-3    4.673668519092647E-4   -2.622109360031136E-3    5.474198185164806E-4    1.769557613975692E-1    4.778259825884659E-1
 8.150002717350000E9     2.461373433788203E-2    5.377174550406070E-1   -2.594107407703960E-3    4.947050296062750E-4   -2.609870025229255E-3    5.216472072655848E-4    1.775980110034233E-1    4.775146926914786E-1
 8.150015231025000E9     2.557196381316696E-2    5.377267075008523E-1   -2.589511159923007E-3    4.886051267503434E-4   -2.634134568076164E-3    5.487829067506215E-4    1.783710459696452E-1    4.773255466000820E-1
 8.150027744700000E9     2.651309485273234E-2    5.377393646472904E-1   -2.588478373934821E-3    4.824384937977014E-4   -2.611889118717002E-3    5.503927998530316E-4    1.791442878090989E-1    4.770619654753677E-1
 8.150040258375000E9     2.733723867238178E-2    5.377046658946358E-1   -2.602322047212521E-3    4.727851901339817E-4   -2.578148305326761E-3    5.423592218127279E-4    1.798591599693133E-1    4.767050441273297E-1
 8.150052772050000E9     2.821470604344061E-2    5.377127293829150E-1   -2.603976338609576E-3    5.019343871552589E-4   -2.669184129534063E-3    5.761390401099437E-4    1.806499271353579E-1    4.763006951808675E-1
 8.150065285725000E9     2.908565176502393E-2    5.377685007346586E-1   -2.595600716044929E-3    5.004636148019484E-4   -2.632784365142650E-3    5.996482611043571E-4    1.815167212562324E-1    4.760532493497007E-1
 8.150077799400000E9     2.998275183535936E-2    5.376932677754536E-1   -2.589864728355123E-3    5.216757202321551E-4   -2.627260588381850E-3    5.612198748988080E-4    1.821207408859497E-1    4.757276165256601E-1
 8.150090313075000E9     3.081409550509106E-2    5.376422920740602E-1   -2.576986997246515E-3    5.224815941329666E-4   -2.601180199984235E-3    5.689636003061300E-4    1.829962333655030E-1    4.755332194359722E-1
 8.150102826750000E9     3.170573225845190E-2    5.375909102313768E-1   -2.604153370106913E-3    5.273252227821300E-4   -2.598188298809514E-3    6.031331227471856E-4    1.836100378955492E-1    4.751723427411239E-1
 8.150115340425000E9     3.260200891068236E-2    5.376138832129665E-1   -2.594155638372107E-3    5.430332556176227E-4   -2.640674422380773E-3    5.651209559848676E-4    1.843333703840511E-1    4.748347099886865E-1
 8.150127854100000E9     3.337619955867181E-2    5.375643815078601E-1   -2.593877752052332E-3    5.143090009528785E-4   -2.611190548381265E-3    6.051180017084886E-4    1.852349868091278E-1    4.745630062731790E-1
 8.150140367775000E9     3.432284597009104E-2    5.375106915385172E-1   -2.611106795300951E-3    5.177949541027715E-4   -2.590568871647218E-3    5.877022391630256E-4    1.859044420707494E-1    4.741709154265666E-1
 8.150152881450000E9     3.515578286288291E-2    5.374714241775725E-1   -2.585131720461395E-3    5.427299543040886E-4   -2.614982498557995E-3    5.987137000951808E-4    1.867010584650510E-1    4.738707249796705E-1
 8.150165395125000E9     3.607168757108759E-2    5.374686586435018E-1   -2.581951947951771E-3    5.361379721494211E-4   -2.616893500474016E-3    6.007009248898811E-4    1.872551383953530E-1    4.737706812088996E-1
 8.150177908800000E9     3.687844877646770E-2    5.374219966401046E-1   -2.577448696210423E-3    5.520983835336844E-4   -2.588470660370708E-3    6.062928266982231E-4    1.881746853244045E-1    4.733145739229032E-1
 8.150190422475000E9     3.774384070905867E-2    5.374092031938661E-1   -2.594989297638258E-3    5.558215201347725E-4   -2.652851081976747E-3    6.181316654975764E-4    1.888847688757140E-1    4.731041955142113E-1
 8.150202936150000E9     3.865039579537830E-2    5.374181579932520E-1   -2.571888186097865E-3    5.621450479256542E-4   -2.613488968375557E-3    6.020451416668036E-4    1.897075574504114E-1    4.727196009452692E-1
 8.150215449825000E9     3.955562114578646E-2    5.372031021677686E-1   -2.597348562963288E-3    5.917366366594646E-4   -2.614727350989264E-3    6.178919556900203E-4    1.903660617899423E-1    4.724287078432609E-1
 8.150227963500000E9     4.033584975459846E-2    5.372943179167430E-1   -2.616204759804867E-3    5.680062924197465E-4   -2.607338563261673E-3    5.906356482028863E-4    1.910310986431679E-1    4.721948465426793E-1
 8.150240477175000E9     4.121419646538077E-2    5.371406604780512E-1   -2.596987461241164E-3    5.884735226848740E-4   -2.597107594363558E-3    6.082268109366821E-4    1.918419401458002E-1    4.717786198851576E-1
 8.150252990850000E9     4.219900151213535E-2    5.371098606325589E-1   -2.591297655011934E-3    5.717201551797565E-4   -2.606223375206411E-3    6.471461496048091E-4    1.924844366129926E-1    4.713192668058848E-1
 8.150265504525000E9     4.303241763506654E-2    5.371340832269844E-1   -2.573357203009441E-3    5.523023370556964E-4   -2.656104080915118E-3    6.353215149819742E-4    1.933457821320799E-1    4.711681954052105E-1
 8.150278018200000E9     4.383292981707584E-2    5.370215031850467E-1   -2.592429631028153E-3    5.660479911253465E-4   -2.617693529659963E-3    6.533968240007682E-4    1.939979654230936E-1    4.708803681675914E-1
 8.150290531875000E9     4.481263124066317E-2    5.369602648688812E-1   -2.605056407746429E-3    6.089447686192879E-4   -2.642505398067110E-3    6.387147436670771E-4    1.948306600371074E-1    4.704094447374865E-1
 8.150303045550000E9     4.554783751904732E-2    5.369633153036376E-1   -2.612234920928368E-3    5.725002254722034E-4   -2.590781741026144E-3    6.589021333072472E-4    1.954634725911064E-1    4.700915028336146E-1
 8.150315559225000E9     4.648645508461027E-2    5.368222131631090E-1   -2.589445241152863E-3    6.005841582605596E-4   -2.594495469209227E-3    6.412931175923459E-4    1.962479693013724E-1    4.698425631754559E-1
 8.150328072900000E9     4.740886201358022E-2    5.368393153034743E-1   -2.583776313546970E-3    6.138417328542092E-4   -2.626213759360626E-3    6.556563220942832E-4    1.969995657153493E-1    4.695279874704900E-1
 8.150340586575000E9     4.817099362620308E-2    5.367406455719951E-1   -2.575067506011132E-3    6.080496269383704E-4   -2.622757798794082E-3    6.394967587476282E-4    1.977017045252497E-1    4.691702404076440E-1
 8.150353100250000E9     4.901412162160592E-2    5.367401836864159E-1   -2.589584304234343E-3    6.207830696514157E-4   -2.598354020868842E-3    6.591101705772219E-4    1.983701544908285E-1    4.686853796747029E-1
 8.150365613925000E9     4.983954666509952E-2    5.366246164061651E-1   -2.570575877913798E-3    6.026770990803036E-4   -2.601846673486901E-3    6.633009207038442E-4    1.991508520150033E-1    4.684276702882929E-1
 8.150378127600000E9     5.082147486895067E-2    5.365841887157866E-1   -2.576548653679855E-3    6.340551871513260E-4   -2.623309253563362E-3    6.543774314539279E-4    1.998726949188331E-1    4.681219439978563E-1
 8.150390641275000E9     5.168735460436340E-2    5.366028400691352E-1   -2.599051019521390E-3    6.051536785323320E-4   -2.594947342879073E-3    7.008465256036423E-4    2.007159657537940E-1    4.678601236346103E-1
 8.150403154950000E9     5.259486756509571E-2    5.364662539502558E-1   -2.556473067683395E-3    6.305037098245512E-4   -2.616186913998894E-3    6.924069147741547E-4    2.012921219932324E-1    4.674621850046364E-1
 8.150415668625000E9     5.341970855740007E-2    5.364133880820442E-1   -2.578195071302003E-3    6.473181008635878E-4   -2.614834855541573E-3    6.831078549859401E-4    2.022180491759453E-1    4.671370116532454E-1
 8.150428182300000E9     5.430938801559440E-2    5.362168764359344E-1   -2.579385225436908E-3    6.580474198730811E-4   -2.619471578723635E-3    6.858658455671127E-4    2.027901157187885E-1    4.668650314096644E-1
 8.150440695975000E9     5.516902316519200E-2    5.362738831803072E-1   -2.578532281510979E-3    6.649746087137709E-4   -2.620188505723857E-3    6.909764637543380E-4    2.033766490869727E-1    4.664842558896675E-1
 8.150453209650000E9     5.598012628180528E-2    5.361362601903513E-1   -2.576930231389476E-3    6.329750540577974E-4   -2.597769091135925E-3    7.544150740619451E-4    2.043706937596904E-1    4.660437368284556E-1
 8.150465723325000E9     5.693427552743605E-2    5.361597505617852E-1   -2.586740319807226E-3    6.687052677487186E-4   -2.605705658499747E-3    6.904630053148172E-4    2.049699766864900E-1    4.659047944301972E-1
 8.150478237000000E9     5.786774424923383E-2    5.360047263418891E-1   -2.586688831343496E-3    6.451970987791309E-4   -2.619025351471923E-3    7.066301593306937E-4    2.057274460555553E-1    4.654895567045960E-1
 8.150490750675000E9     5.858693116894042E-2    5.358514242613358E-1   -2.588329545623788E-3    6.811633210625406E-4   -2.602207747295758E-3    7.078617100531635E-4    2.065655342030936E-1    4.651307126675304E-1
 8.150503264350000E9     5.950324201094534E-2    5.359208821060990E-1   -2.587561478322550E-3    6.487118637251177E-4   -2.582543233561217E-3    6.965999377128532E-4    2.072904835958049E-1    4.648134166594990E-1
 8.150515778025000E9     6.038566778769147E-2    5.358273680316423E-1   -2.590447505997895E-3    6.679958863006586E-4   -2.592730757186731E-3    7.246762567356522E-4    2.077408937074731E-1    4.644565139508647E-1
 8.150528291700000E9     6.129414951333105E-2    5.357196923358309E-1   -2.576870143108685E-3    6.868732716791049E-4   -2.596081173308121E-3    7.094531487894434E-4    2.087275995142940E-1    4.640890444255271E-1
 8.150540805375000E9     6.218437637549083E-2    5.356554926527346E-1   -2.585180286270944E-3    7.123563510849345E-4   -2.604141533306538E-3    7.307872680069457E-4    2.092963913690324E-1    4.636727519306382E-1
 8.150553319050000E9     6.304317013949183E-2    5.356452512381886E-1   -2.601039389059717E-3    6.699056105045002E-4   -2.572819675766377E-3    7.406769521735545E-4    2.101190043055089E-1    4.634280596793722E-1
 8.150565832725000E9     6.393269432835302E-2    5.355509725847915E-1   -2.564697134659131E-3    7.076323586653839E-4   -2.610543223070890E-3    7.572611296966158E-4    2.108041199929799E-1    4.630936552919825E-1
 8.150578346400000E9     6.479831629910961E-2    5.353575278802466E-1   -2.584155671706700E-3    7.011418722381517E-4   -2.626928198862598E-3    7.591083277279991E-4    2.113231619139696E-1    4.627547653962197E-1
 8.150590860075000E9     6.556391063353771E-2    5.354602247701896E-1   -2.568551785451120E-3    7.049103738049481E-4   -2.589954578170015E-3    7.891415930218642E-4    2.121886943873504E-1    4.623933268195364E-1
 8.150603373750000E9     6.653864575940022E-2    5.353517671147564E-1   -2.587162187696389E-3    7.016179981476292E-4   -2.574090363455597E-3    7.661040435692395E-4    2.129356309639971E-1    4.620326831668474E-1
