#  HZ   S   RI   R     50.00 
! Rohde & Schwarz Vector Network Analyzer 
! Rohde-Schwarz,ZNB20-2Port,1311601062101988,3.16
! Created: UTC 3/21/2024, 1:10:28 AM
! freq[Hz]                re:S11                  im:S11                  re:S21                  im:S21                  re:S12                  im:S12                  re:S22                  im:S22
 8.149511290000000E9    -9.737173709667828E-3    5.374296142644547E-1   -2.622521847152471E-3    3.028438641704221E-4   -2.660318080269755E-3    3.888002366279810E-4    1.477212733117256E-1    4.881843190780531E-1
 8.149523655300000E9    -8.807287340713716E-3    5.374446849745408E-1   -2.607639605826587E-3    3.279345387095193E-4   -2.610028403402478E-3    3.596520571649204E-4    1.483715126667678E-1    4.877160267527882E-1
 8.149536020600000E9    -7.750110084098595E-3    5.374812037068714E-1   -2.625164521146411E-3    2.914867974463377E-4   -2.656112875830440E-3    3.895165767932788E-4    1.491493622086207E-1    4.876720070500819E-1
 8.149548385900000E9    -6.985619271149776E-3    5.375432306206805E-1   -2.607847552112726E-3    3.221049627251828E-4   -2.680513913212352E-3    3.748497346483324E-4    1.499840464672469E-1    4.874754403282291E-1
 8.149560751200000E9    -6.129583039439296E-3    5.375569454214216E-1   -2.600162625579769E-3    3.482055381122436E-4   -2.623498499036513E-3    3.680309943287609E-4    1.506363484481070E-1    4.872376599831510E-1
 8.149573116500000E9    -5.254644881337643E-3    5.376447287557835E-1   -2.631846540350267E-3    3.306515392244037E-4   -2.631664851904213E-3    3.892339436045467E-4    1.512421369674242E-1    4.870291125043812E-1
 8.149585481800000E9    -4.439845177781524E-3    5.376133532291394E-1   -2.592645726322544E-3    3.562203238772745E-4   -2.621209000664410E-3    3.952490163265952E-4    1.521887060416465E-1    4.867646139860397E-1
 8.149597847100000E9    -3.516650633566258E-3    5.376771655426492E-1   -2.582771795957731E-3    3.462474643323031E-4   -2.627769966693381E-3    3.821299947922222E-4    1.528640793480058E-1    4.864498367739699E-1
 8.149610212400000E9    -2.666427128370995E-3    5.377986055674484E-1   -2.599523605993393E-3    3.451596920657869E-4   -2.614677403355122E-3    3.617592172791835E-4    1.538231785243906E-1    4.863129677672796E-1
 8.149622577700000E9    -1.823340025255037E-3    5.377246890711654E-1   -2.592772868597125E-3    3.573053405367880E-4   -2.609698183937584E-3    3.931310235503081E-4    1.545213284325622E-1    4.859348033699140E-1
 8.149634943000000E9    -1.058990038460356E-3    5.377343741995265E-1   -2.622344637288956E-3    3.398487161969489E-4   -2.637083751074124E-3    4.236607198096117E-4    1.552841960022809E-1    4.857582938622235E-1
 8.149647308300000E9    -1.097985660498579E-4    5.377950805650900E-1   -2.591085396581521E-3    3.780609691419807E-4   -2.612081693745462E-3    3.863574783262583E-4    1.558497033175640E-1    4.854599328587523E-1
 8.149659673600000E9     7.262850192106419E-4    5.377782291892049E-1   -2.607454477777754E-3    3.865958482872600E-4   -2.625802548552839E-3    4.326994458125269E-4    1.568101654709139E-1    4.851843754128660E-1
 8.149672038900000E9     1.547616490529929E-3    5.378239731247531E-1   -2.618278836414376E-3    3.672447015330044E-4   -2.624230993091262E-3    4.012750970738908E-4    1.574537710693864E-1    4.848677290806465E-1
 8.149684404200000E9     2.520421801775650E-3    5.378508778315602E-1   -2.610328406171271E-3    3.615214427148009E-4   -2.618611787833079E-3    4.472214924357717E-4    1.581854626875511E-1    4.846399256381717E-1
 8.149696769500000E9     3.335947494704132E-3    5.378780335555642E-1   -2.605453161278543E-3    3.760400460723584E-4   -2.662735501512459E-3    4.507473691339433E-4    1.589194784398646E-1    4.842816306219999E-1
 8.149709134800000E9     4.230836491889740E-3    5.378158921971841E-1   -2.610005039318554E-3    3.560303673873246E-4   -2.594647012640127E-3    4.284421789602462E-4    1.596493554595231E-1    4.841028535594207E-1
 8.149721500100000E9     5.170336612384484E-3    5.377603905097432E-1   -2.613420383050035E-3    3.732941805789152E-4   -2.618263997238345E-3    4.547683197335446E-4    1.604561605237370E-1    4.838765377797981E-1
 8.149733865400000E9     5.902760609298873E-3    5.378770567196669E-1   -2.631248544713701E-3    3.700208028630635E-4   -2.645147200854675E-3    4.253146267036105E-4    1.611705008166451E-1    4.835385220364003E-1
 8.149746230700000E9     6.836379405269262E-3    5.378380834667662E-1   -2.591673770530542E-3    3.719355148401092E-4   -2.623131947178706E-3    4.690824092550075E-4    1.619746629463409E-1    4.832991677252474E-1
 8.149758596000000E9     7.723174956651021E-3    5.378919475509411E-1   -2.596783022434308E-3    3.899515314683656E-4   -2.617767544088223E-3    4.451436633626727E-4    1.626182918339709E-1    4.830002434054627E-1
 8.149770961300000E9     8.487390073679022E-3    5.378796527132786E-1   -2.566585345922202E-3    3.808284147906013E-4   -2.630902135084435E-3    4.470712204149505E-4    1.634814491697791E-1    4.828488262023911E-1
 8.149783326600000E9     9.378053572434670E-3    5.379056398505869E-1   -2.601295750306159E-3    3.986689094180814E-4   -2.631668672778438E-3    4.469249178437775E-4    1.641967728475549E-1    4.825109240948073E-1
 8.149795691900000E9     1.030270494865863E-2    5.378599542833505E-1   -2.590815675106082E-3    4.153287147516427E-4   -2.633602772415900E-3    4.610079833021887E-4    1.650527960820259E-1    4.820501510285311E-1
 8.149808057200000E9     1.124287167290424E-2    5.379757783417669E-1   -2.598388016029438E-3    4.321897073536794E-4   -2.606331458439453E-3    4.636052424379025E-4    1.657278563793826E-1    4.819317907365246E-1
 8.149820422500000E9     1.196306848041265E-2    5.378950167551946E-1   -2.598341298597974E-3    3.990578931747022E-4   -2.651025386857381E-3    4.793343020604577E-4    1.664548745696204E-1    4.817241526009895E-1
 8.149832787800000E9     1.281821104448999E-2    5.378838824206358E-1   -2.591791506907350E-3    4.282316625079403E-4   -2.620823205795456E-3    4.728528731098555E-4    1.671833560319633E-1    4.813346962795325E-1
 8.149845153100000E9     1.369379120120834E-2    5.379880136274872E-1   -2.605287253668480E-3    4.263205181296981E-4   -2.593351223596205E-3    5.055801135026236E-4    1.680365672489787E-1    4.811552426615712E-1
 8.149857518400000E9     1.461423297353047E-2    5.379217579569153E-1   -2.576548301165991E-3    4.528134174188716E-4   -2.609939574705460E-3    4.872818887766525E-4    1.685787138667828E-1    4.808469925794836E-1
 8.149869883700000E9     1.535816236238963E-2    5.379146549814549E-1   -2.592167064844350E-3    4.302121304571786E-4   -2.626853633143312E-3    4.871982246763360E-4    1.693150473485710E-1    4.806158218340106E-1
 8.149882249000000E9     1.628529182845512E-2    5.379082098118131E-1   -2.585135207860860E-3    4.749745146493710E-4   -2.604565303085274E-3    5.001276563842340E-4    1.701330992104704E-1    4.802861209355887E-1
 8.149894614300000E9     1.722558263752965E-2    5.380097071813716E-1   -2.602675530815261E-3    4.629552236401934E-4   -2.636113126389080E-3    5.156950144846200E-4    1.709244551805957E-1    4.799685738203731E-1
 8.149906979600000E9     1.798843366080424E-2    5.378544365072679E-1   -2.600179975114469E-3    4.759596856528529E-4   -2.617666460950490E-3    5.246184354754447E-4    1.716927171893195E-1    4.796992462901690E-1
 8.149919344900000E9     1.889091322149031E-2    5.378870403584747E-1   -2.606594778418910E-3    4.153965542296134E-4   -2.626197247153647E-3    5.254113921135188E-4    1.724960718814208E-1    4.793760001723800E-1
 8.149931710200000E9     1.979569647174225E-2    5.379057559044678E-1   -2.592150430997295E-3    4.720696482093908E-4   -2.620683084276451E-3    4.877914415712132E-4    1.731749057383437E-1    4.792159997177783E-1
 8.149944075500000E9     2.074811465177069E-2    5.379487501708432E-1   -2.584786768598199E-3    4.260112928288509E-4   -2.635490450871270E-3    5.262863629680690E-4    1.737688138939678E-1    4.788895821924622E-1
 8.149956440800000E9     2.148279671666633E-2    5.378869889720640E-1   -2.594918795781464E-3    4.725077326051384E-4   -2.597406851025167E-3    5.472078067232240E-4    1.747905951309056E-1    4.786098938749300E-1
 8.149968806100000E9     2.248149243914067E-2    5.377938186220328E-1   -2.598187338370327E-3    4.592809215359471E-4   -2.626778261633604E-3    5.111425079323054E-4    1.754048979716254E-1    4.784201420378299E-1
 8.149981171400000E9     2.318597060297431E-2    5.377698602650191E-1   -2.607608102824944E-3    5.133858677987897E-4   -2.626228612663885E-3    5.515209101465603E-4    1.760651721877416E-1    4.778895812152875E-1
 8.149993536700000E9     2.405746634520683E-2    5.378314023135782E-1   -2.589013595635571E-3    4.952076978504750E-4   -2.628229134752663E-3    5.044590645848859E-4    1.769580843938360E-1    4.776843645976818E-1
 8.150005902000000E9     2.490260450902270E-2    5.378019057084661E-1   -2.601408668653004E-3    4.751334027962250E-4   -2.623386737560714E-3    5.260193988417837E-4    1.775817821756650E-1    4.773966806285022E-1
 8.150018267300000E9     2.573098855189353E-2    5.377813902242277E-1   -2.585766848639730E-3    4.760548567060108E-4   -2.611060091802801E-3    5.450052011545698E-4    1.783548764774575E-1    4.770885534302341E-1
 8.150030632600000E9     2.666674477707353E-2    5.377526632926451E-1   -2.604043711786463E-3    4.934021459642277E-4   -2.640040961942620E-3    5.507798447688502E-4    1.790931739609582E-1    4.769049133982237E-1
 8.150042997900000E9     2.761754639529771E-2    5.377017046006882E-1   -2.584207703165806E-3    4.976633872528606E-4   -2.645649633420239E-3    5.642242529333699E-4    1.799434327102581E-1    4.766698336487564E-1
 8.150055363200000E9     2.833545207300179E-2    5.377890915587219E-1   -2.597727628368544E-3    5.250094102202442E-4   -2.628973489417289E-3    5.950677028202862E-4    1.805617301702234E-1    4.761840284107575E-1
 8.150067728500000E9     2.930358259153232E-2    5.376233560394057E-1   -2.619080488828016E-3    5.051179754477529E-4   -2.622652926179021E-3    5.710463259043642E-4    1.812887626109177E-1    4.758541209715573E-1
 8.150080093800000E9     3.009554846876984E-2    5.376704902781212E-1   -2.597759663729752E-3    4.897080723464776E-4   -2.623524390540920E-3    5.853979720138472E-4    1.820297969454334E-1    4.757242786294991E-1
 8.150092459100000E9     3.094024288147328E-2    5.377151556134876E-1   -2.593325120794651E-3    5.052727421239110E-4   -2.615284876275582E-3    5.507152988765054E-4    1.827630761930940E-1    4.754854385324799E-1
 8.150104824400000E9     3.186054490942229E-2    5.375794891183113E-1   -2.630644476143125E-3    5.088806900144149E-4   -2.642645161196307E-3    5.625281223076089E-4    1.835026340016021E-1    4.751036044744655E-1
 8.150117189700000E9     3.260817334187521E-2    5.375890719817464E-1   -2.569023831791510E-3    5.275059916558279E-4   -2.584873413460821E-3    5.711894572274091E-4    1.841763424931740E-1    4.748459644220630E-1
 8.150129555000000E9     3.357603651005948E-2    5.374290159343708E-1   -2.600808717507181E-3    5.310912730639784E-4   -2.601448875054830E-3    5.671594095206501E-4    1.849271638038337E-1    4.744878658857313E-1
 8.150141920300000E9     3.442181104768965E-2    5.375525715307926E-1   -2.609931709766687E-3    5.542435775369419E-4   -2.625447283485110E-3    5.977764904889937E-4    1.857812352555322E-1    4.741145947579592E-1
 8.150154285600000E9     3.532418478498813E-2    5.374303271918054E-1   -2.605847374056173E-3    5.566259564657517E-4   -2.619678980134578E-3    5.950341112156683E-4    1.865056326897027E-1    4.738706690059795E-1
 8.150166650900000E9     3.596893009669720E-2    5.373587435404712E-1   -2.600053586292563E-3    5.622489569802652E-4   -2.611223856061433E-3    5.945859504374555E-4    1.870651875773717E-1    4.734725749952534E-1
 8.150179016200000E9     3.688761395858623E-2    5.373669408867391E-1   -2.584629035025004E-3    5.612902499636848E-4   -2.621455593389639E-3    5.844077983854800E-4    1.879353530705021E-1    4.731606455210445E-1
 8.150191381500000E9     3.774684083516914E-2    5.372670385659856E-1   -2.596467113529061E-3    5.419960268519013E-4   -2.601888938470658E-3    6.150969374232356E-4    1.885885462769543E-1    4.730122136021090E-1
 8.150203746800000E9     3.875127139654670E-2    5.373430614382105E-1   -2.602755660016406E-3    5.627942610689086E-4   -2.587523689707250E-3    5.954562435522466E-4    1.894114629777228E-1    4.724921127935409E-1
 8.150216112100000E9     3.956001396952238E-2    5.373251010808736E-1   -2.570928963474650E-3    5.644325012898192E-4   -2.608165630967195E-3    6.207560879283406E-4    1.901410510456684E-1    4.722216138832173E-1
 8.150228477400000E9     4.044397829504301E-2    5.372928564364049E-1   -2.605442095609317E-3    5.506826823799217E-4   -2.591666980001065E-3    6.534078833592791E-4    1.909124597250446E-1    4.719678988383508E-1
 8.150240842700000E9     4.131501418662813E-2    5.372130982218603E-1   -2.584524944664227E-3    5.713436038899672E-4   -2.595293705793611E-3    5.947161108164196E-4    1.916291178828248E-1    4.715313124136903E-1
 8.150253208000000E9     4.219441995641759E-2    5.370999455728335E-1   -2.605137800789991E-3    5.706006294793895E-4   -2.630814173894995E-3    6.281122537481107E-4    1.923094129820546E-1    4.713905223069546E-1
 8.150265573300000E9     4.296293516769922E-2    5.369652113018374E-1   -2.605055601313453E-3    5.754878774994178E-4   -2.584264260213257E-3    6.297517723221531E-4    1.929473331635276E-1    4.709146889152921E-1
 8.150277938600000E9     4.390555683618080E-2    5.370345347249564E-1   -2.583160139653501E-3    5.912858229778139E-4   -2.591363035033154E-3    6.200811053156389E-4    1.936728973585713E-1    4.706505024544573E-1
 8.150290303900000E9     4.466824637414526E-2    5.370955146524037E-1   -2.567253623675628E-3    5.878647625200313E-4   -2.620602488297894E-3    6.724619906335374E-4    1.943757089486816E-1    4.703022184306473E-1
 8.150302669200000E9     4.564132955916782E-2    5.368972553822328E-1   -2.588325783301468E-3    5.791539583840352E-4   -2.617885343963392E-3    6.496976709790280E-4    1.952722088907302E-1    4.699249179889256E-1
 8.150315034500000E9     4.632326381930967E-2    5.368489418877120E-1   -2.548994179467674E-3    5.920916623102127E-4   -2.588789423368786E-3    6.546686117530547E-4    1.958456297234520E-1    4.697901413768482E-1
 8.150327399800000E9     4.713624999145130E-2    5.367792196879040E-1   -2.567053497466722E-3    5.959860743864601E-4   -2.596031016475806E-3    6.429205331240827E-4    1.966784285863188E-1    4.694930569430639E-1
 8.150339765100000E9     4.820867317708167E-2    5.367774010469024E-1   -2.587874291203823E-3    6.194179184626508E-4   -2.625994024619964E-3    6.686529953448169E-4    1.973882579803068E-1    4.690652309259291E-1
 8.150352130400000E9     4.907709593198198E-2    5.366406044366259E-1   -2.576361804782269E-3    5.955230024451269E-4   -2.627691810745653E-3    6.711343565123848E-4    1.981067377485436E-1    4.687498637040857E-1
 8.150364495700000E9     4.974516172374144E-2    5.367562761322879E-1   -2.604884771331429E-3    6.189949401072118E-4   -2.609652258170005E-3    6.576755290325309E-4    1.988480548747354E-1    4.684453517711034E-1
 8.150376861000000E9     5.076331559455709E-2    5.364970223776974E-1   -2.581092390253996E-3    6.264332008906907E-4   -2.600826210264253E-3    6.754032704565193E-4    1.995705291035486E-1    4.682077102775652E-1
 8.150389226300000E9     5.166647094828914E-2    5.365346087911347E-1   -2.568051232180393E-3    6.228580362865502E-4   -2.617765532295873E-3    6.658237803655656E-4    2.002478732766099E-1    4.676961417735482E-1
 8.150401591600000E9     5.257025703923301E-2    5.364668239075268E-1   -2.595937650908185E-3    6.253748066048705E-4   -2.587732595176556E-3    6.634604844698591E-4    2.009791218036434E-1    4.675089056880542E-1
 8.150413956900000E9     5.338753655301423E-2    5.363837104492329E-1   -2.594627293850913E-3    6.477602424307830E-4   -2.600491843618201E-3    6.739317289263866E-4    2.017339434675642E-1    4.672241193404734E-1
 8.150426322200000E9     5.420209810027439E-2    5.362639193721883E-1   -2.578722144910379E-3    6.740097492984213E-4   -2.581482078337125E-3    7.133630222401266E-4    2.023419382076984E-1    4.666557811644097E-1
 8.150438687500000E9     5.504989895152241E-2    5.362820515578948E-1   -2.574146629441941E-3    6.607761065515154E-4   -2.620157164746136E-3    6.825329077819626E-4    2.031880724116893E-1    4.664842437884808E-1
 8.150451052800000E9     5.591734358719710E-2    5.360594745090329E-1   -2.567313281323079E-3    6.613891266602330E-4   -2.608088453830079E-3    7.197865590166295E-4    2.039355260080851E-1    4.661557848786202E-1
 8.150463418100000E9     5.684414128863084E-2    5.360429954138292E-1   -2.570746299151896E-3    6.570814311034356E-4   -2.619324982581771E-3    7.094976504046970E-4    2.046892748022671E-1    4.657263899429012E-1
 8.150475783400000E9     5.763192613915129E-2    5.360191206911713E-1   -2.573868716449937E-3    6.906357244596416E-4   -2.609572829074744E-3    6.879845742542725E-4    2.052745743137361E-1    4.655893312242971E-1
 8.150488148700000E9     5.846727225143009E-2    5.358960174764139E-1   -2.582791063230412E-3    6.777501052998429E-4   -2.611794833498209E-3    7.341640768460741E-4    2.061638871143215E-1    4.651346394313885E-1
 8.150500514000000E9     5.930806507720721E-2    5.358857367206199E-1   -2.554551183212692E-3    6.737652132018681E-4   -2.592941685724291E-3    7.234058736342548E-4    2.068350440309709E-1    4.648299061278517E-1
 8.150512879300000E9     6.025980285411607E-2    5.357594602072789E-1   -2.562479143854466E-3    6.520229070367744E-4   -2.610720831844139E-3    7.179568581490301E-4    2.075049026591203E-1    4.646384589163702E-1
 8.150525244600000E9     6.101792506812501E-2    5.357606620017027E-1   -2.615232959730076E-3    6.711539442873919E-4   -2.594672029408130E-3    7.433874037729193E-4    2.082540321908999E-1    4.641153728072198E-1
 8.150537609900000E9     6.191834167944080E-2    5.356880920996279E-1   -2.578118404826964E-3    6.952336428247067E-4   -2.613276114831187E-3    7.467444965131127E-4    2.088428804206211E-1    4.638838993106305E-1
 8.150549975200000E9     6.285075900412554E-2    5.356040914531960E-1   -2.579716746980783E-3    7.228701162070364E-4   -2.607045736072635E-3    7.234661257029338E-4    2.097239135386113E-1    4.634563921188040E-1
 8.150562340500000E9     6.356668366247978E-2    5.354073031304254E-1   -2.597564974043832E-3    6.695312921989722E-4   -2.606621346549827E-3    7.597336734671400E-4    2.103217979845356E-1    4.631297200059813E-1
 8.150574705800000E9     6.449264617019568E-2    5.353571081053971E-1   -2.603104507226757E-3    6.944774054064324E-4   -2.622780782423330E-3    7.435719580982111E-4    2.111285470279699E-1    4.628182868325645E-1
 8.150587071100000E9     6.535588765896184E-2    5.353217721957306E-1   -2.591675972318709E-3    6.943206005972542E-4   -2.594238877252421E-3    7.538548012092192E-4    2.117869418449445E-1    4.624695513877138E-1
 8.150599436400000E9     6.615517283575251E-2    5.352676598478266E-1   -2.616183086764898E-3    7.122675433677607E-4   -2.587376356346528E-3    7.675284475518279E-4    2.124147977466845E-1    4.620727118216876E-1
 8.150611801700000E9     6.708952450983251E-2    5.351312664474092E-1   -2.582357497743979E-3    6.964794103897353E-4   -2.588776468933007E-3    7.681198636556588E-4    2.134206662335567E-1    4.617103187463805E-1
 8.150624167000000E9     6.788444362355230E-2    5.350417615930085E-1   -2.590525412923966E-3    7.160295815997128E-4   -2.605814746264986E-3    7.546365696515453E-4    2.137428290094012E-1    4.613129292205994E-1
