#  HZ   S   RI   R     50.00 
! Rohde & Schwarz Vector Network Analyzer 
! Rohde-Schwarz,ZNB20-2Port,1311601062101988,3.16
! Created: UTC 3/21/2024, 12:52:15 AM
! freq[Hz]                re:S11                  im:S11                  re:S21                  im:S21                  re:S12                  im:S12                  re:S22                  im:S22
 8.151292479000000E9     1.264312881586247E-1    5.287066462556608E-1   -2.881971246093854E-3    1.210590660367003E-3   -2.905428773761833E-3    1.277330925868500E-3    2.697413303672753E-1    4.375565870211360E-1
 8.151294693175000E9     1.265741999533351E-1    5.285971771536443E-1   -2.897010025191257E-3    1.220635724167025E-3   -2.898431546388082E-3    1.259496648308133E-3    2.700101193355863E-1    4.373227362498210E-1
 8.151296907350000E9     1.266976648232566E-1    5.286555391105426E-1   -2.888150760647409E-3    1.224924886871836E-3   -2.906160391490651E-3    1.244691031398846E-3    2.699702608663236E-1    4.374505821960877E-1
 8.151299121525000E9     1.269708244176963E-1    5.285876619297341E-1   -2.898363693366267E-3    1.232808981877090E-3   -2.884493492314592E-3    1.275121288746589E-3    2.701872807359982E-1    4.371543710257623E-1
 8.151301335700000E9     1.270375981079153E-1    5.284387965028765E-1   -2.877753023627708E-3    1.228069232586874E-3   -2.916272521563324E-3    1.268559758591370E-3    2.701974676268256E-1    4.372182272996191E-1
 8.151303549875000E9     1.274034727660604E-1    5.286732223961478E-1   -2.941516281043696E-3    1.223486498977601E-3   -2.926857536068313E-3    1.298446345440509E-3    2.701834247345293E-1    4.371353748243145E-1
 8.151305764050000E9     1.274890809616928E-1    5.284134004517066E-1   -2.904787361446629E-3    1.208856268756564E-3   -2.936041410741189E-3    1.264440625532729E-3    2.705406442257523E-1    4.371474690627484E-1
 8.151307978225000E9     1.276171704527938E-1    5.285328009017541E-1   -2.907193074767999E-3    1.207016166542800E-3   -2.913998806188930E-3    1.261606286758409E-3    2.706304999743985E-1    4.369216259471725E-1
 8.151310192400000E9     1.278725967253321E-1    5.283870779131544E-1   -2.914611572115653E-3    1.217493279630044E-3   -2.898495948056387E-3    1.300064125780788E-3    2.705734965427279E-1    4.369295584672659E-1
 8.151312406575000E9     1.280441118333771E-1    5.283000018572562E-1   -2.913071649154685E-3    1.220366515113430E-3   -2.941547683893167E-3    1.254422279306600E-3    2.707934704342884E-1    4.368600527732641E-1
 8.151314620750000E9     1.280922126163833E-1    5.282521386575033E-1   -2.920115675063189E-3    1.233254649419727E-3   -2.932421784020600E-3    1.294384033135263E-3    2.711858994026963E-1    4.366575541741046E-1
 8.151316834925000E9     1.282685106935183E-1    5.281815762592941E-1   -2.903366349825721E-3    1.241285966353892E-3   -2.925035694049646E-3    1.289631339958783E-3    2.710613867212309E-1    4.366953880588132E-1
 8.151319049100000E9     1.284561063485878E-1    5.281101873939189E-1   -2.926996294725715E-3    1.226099076758114E-3   -2.918823402852713E-3    1.288696080136990E-3    2.712342438440486E-1    4.366622896363406E-1
 8.151321263275000E9     1.286524639284371E-1    5.281018521914974E-1   -2.928524814469589E-3    1.226541056459860E-3   -2.910322721823506E-3    1.292135391381144E-3    2.712830831378184E-1    4.365643659367684E-1
 8.151323477450000E9     1.288407538359957E-1    5.281394560255317E-1   -2.922031146777465E-3    1.221195658068716E-3   -2.948650407930411E-3    1.308317218623104E-3    2.714257237829738E-1    4.364821022370627E-1
 8.151325691625000E9     1.290765426163250E-1    5.280603643285507E-1   -2.928041625599787E-3    1.262919943683854E-3   -2.923084397981606E-3    1.295018386851562E-3    2.715995034191376E-1    4.363707930634025E-1
 8.151327905800000E9     1.291534729629879E-1    5.281693814090088E-1   -2.926865717933352E-3    1.233629282976374E-3   -2.926652604601346E-3    1.329909888077618E-3    2.717920757209087E-1    4.363048427402797E-1
 8.151330119975000E9     1.292676305059111E-1    5.279996967662246E-1   -2.918717814541061E-3    1.243409046639631E-3   -2.981212718561311E-3    1.332721541916589E-3    2.717584599488100E-1    4.361845196305502E-1
 8.151332334150000E9     1.295897126931185E-1    5.279727830955183E-1   -2.950720845061961E-3    1.254639166067956E-3   -2.933021065428533E-3    1.307148787342670E-3    2.719573052869533E-1    4.361074411030615E-1
 8.151334548325000E9     1.296723625198473E-1    5.280443414102943E-1   -2.951624023094983E-3    1.286870869590266E-3   -2.940336801242723E-3    1.315795685316198E-3    2.721398369521898E-1    4.360092632568399E-1
 8.151336762500000E9     1.298673885761050E-1    5.277986139977262E-1   -2.957069534626460E-3    1.256940895596525E-3   -2.937083065557060E-3    1.331186272031245E-3    2.720626301791251E-1    4.359760978292608E-1
 8.151338976675000E9     1.299226678167031E-1    5.277999882229265E-1   -2.945683136750579E-3    1.283725753392226E-3   -2.964572319124044E-3    1.371759478693709E-3    2.722350531917506E-1    4.359222387794214E-1
 8.151341190850000E9     1.301591223969125E-1    5.278775038290753E-1   -2.940389059297487E-3    1.289954172182422E-3   -2.957351311708480E-3    1.340279162477481E-3    2.723218443063562E-1    4.357966337090270E-1
 8.151343405025000E9     1.302524221565368E-1    5.278034976656709E-1   -2.946280534419299E-3    1.296216437479331E-3   -2.947690651031187E-3    1.336798519250655E-3    2.724800050566656E-1    4.358053292625360E-1
 8.151345619200000E9     1.305550855799898E-1    5.277146870432169E-1   -2.977200301369839E-3    1.298359236123861E-3   -2.970998304053759E-3    1.342777698296916E-3    2.726996035395700E-1    4.356893865176867E-1
 8.151347833375000E9     1.307793830168936E-1    5.276879785917398E-1   -2.965070391858169E-3    1.265200102017363E-3   -2.985946058698839E-3    1.327777037852105E-3    2.728252554726854E-1    4.355648717166599E-1
 8.151350047550000E9     1.307736191210913E-1    5.276395401910557E-1   -2.956398004798072E-3    1.289672150673635E-3   -2.985554782664044E-3    1.349175140086670E-3    2.729727584659575E-1    4.355854480669112E-1
 8.151352261725000E9     1.309661828647421E-1    5.275797683685046E-1   -2.980128292553573E-3    1.283955771343651E-3   -2.977539452218218E-3    1.322599975870832E-3    2.730410302533506E-1    4.354562144122918E-1
 8.151354475900000E9     1.312484405039478E-1    5.275819266044011E-1   -2.978436322681016E-3    1.285321556346171E-3   -2.969254922817935E-3    1.370370360236875E-3    2.732688537405882E-1    4.353228655086618E-1
 8.151356690075000E9     1.313311118356058E-1    5.275410228638908E-1   -2.952917212589955E-3    1.298154907230308E-3   -2.960720484419449E-3    1.341474571696160E-3    2.732841460068862E-1    4.352317660269913E-1
 8.151358904250000E9     1.315528078876830E-1    5.275552271070358E-1   -2.981950848232129E-3    1.290903036836745E-3   -2.984373671598434E-3    1.350131559391208E-3    2.734202944049290E-1    4.351676469543658E-1
 8.151361118425000E9     1.317189040518532E-1    5.275314985954148E-1   -2.988157754138048E-3    1.299090121630636E-3   -2.979930378938051E-3    1.345192523684882E-3    2.735081585125389E-1    4.351302693391935E-1
 8.151363332600000E9     1.317668883256638E-1    5.273287065541433E-1   -3.012393371949269E-3    1.311836197399096E-3   -2.986458392199494E-3    1.365931594846784E-3    2.737066234243714E-1    4.349099993680419E-1
 8.151365546775000E9     1.319871586996375E-1    5.273762952043700E-1   -2.989232842643042E-3    1.311479918442640E-3   -3.006443027445634E-3    1.366159016277488E-3    2.737500937770475E-1    4.348169229085718E-1
 8.151367760950000E9     1.323324155780367E-1    5.272589762364838E-1   -2.987824832697475E-3    1.320232979966519E-3   -2.996308813194811E-3    1.401414021055170E-3    2.739560546916365E-1    4.348780980322253E-1
 8.151369975125000E9     1.324113544635322E-1    5.272678293564848E-1   -2.983363371260100E-3    1.322352195142826E-3   -2.988205179305753E-3    1.372196535213436E-3    2.740391167229183E-1    4.347389090945423E-1
 8.151372189300000E9     1.325769740990365E-1    5.271521919107414E-1   -3.000626212621164E-3    1.316928469886709E-3   -3.030795198058940E-3    1.392920179184995E-3    2.743216548264641E-1    4.347011534965631E-1
 8.151374403475000E9     1.327052692953285E-1    5.272128656176146E-1   -3.019937717337473E-3    1.309339600249568E-3   -2.987057911364493E-3    1.399336104200490E-3    2.743020447114631E-1    4.346312335250977E-1
 8.151376617650000E9     1.328967070059447E-1    5.270712744656830E-1   -3.000834822721796E-3    1.324104068778321E-3   -3.010835489940230E-3    1.369905979017148E-3    2.742322636759248E-1    4.343779804871488E-1
 8.151378831825000E9     1.331424588620683E-1    5.270848958310625E-1   -2.970739077617677E-3    1.336675032438497E-3   -3.001763833575248E-3    1.381097158488847E-3    2.744688631259578E-1    4.345290355189663E-1
 8.151381046000000E9     1.332908012333084E-1    5.270666420039570E-1   -3.009884295942316E-3    1.340161572234930E-3   -3.027961803830106E-3    1.390916541563548E-3    2.745575474789910E-1    4.344115085407216E-1
 8.151383260175000E9     1.333927664783234E-1    5.268950978077459E-1   -3.008699348866379E-3    1.322738759006727E-3   -3.014163549376819E-3    1.376194112365474E-3    2.747083622177944E-1    4.342853688253884E-1
 8.151385474350000E9     1.337801234894135E-1    5.270507661235765E-1   -3.010516211942755E-3    1.340864879783532E-3   -3.035261837438261E-3    1.398131989176928E-3    2.748610433963513E-1    4.342540050501529E-1
 8.151387688525000E9     1.337805716314725E-1    5.268951071344407E-1   -3.010090664271217E-3    1.345968908443076E-3   -3.014263485968223E-3    1.386041216915850E-3    2.749743116782425E-1    4.341223757430760E-1
 8.151389902700000E9     1.340033439786291E-1    5.268867160802948E-1   -3.047175177471286E-3    1.349339217579534E-3   -3.043856847532227E-3    1.415596420845687E-3    2.750456733204797E-1    4.341229350413768E-1
 8.151392116875000E9     1.342167657187852E-1    5.268760750730311E-1   -3.017168438913129E-3    1.354322557120916E-3   -3.046817921649765E-3    1.395044183973502E-3    2.751820400691197E-1    4.340672524210849E-1
 8.151394331050000E9     1.343117159365332E-1    5.266946461434348E-1   -3.021801399684166E-3    1.358973589950589E-3   -3.029550921584372E-3    1.412174363751554E-3    2.753003982038238E-1    4.338603142013072E-1
 8.151396545225000E9     1.344609680234780E-1    5.268209200050511E-1   -3.031655273790903E-3    1.381297323276520E-3   -3.029744966487858E-3    1.428546358431890E-3    2.754297759501017E-1    4.337419658960494E-1
 8.151398759400000E9     1.347719165660903E-1    5.266316287307138E-1   -3.053277890717652E-3    1.354801233011450E-3   -3.053999905376981E-3    1.419848676573275E-3    2.755254905556918E-1    4.337432169397670E-1
 8.151400973575000E9     1.348508320609467E-1    5.266765107424770E-1   -3.049723648361732E-3    1.344839861082385E-3   -3.044811233776923E-3    1.437071469726661E-3    2.757623287736061E-1    4.337538168249061E-1
 8.151403187750000E9     1.350650497362625E-1    5.266201538331299E-1   -3.044589637477330E-3    1.356735185012785E-3   -3.071605967429912E-3    1.448876276859522E-3    2.757550436503257E-1    4.335385900100447E-1
 8.151405401925000E9     1.352627300105958E-1    5.265882151964876E-1   -3.050255706577542E-3    1.368014945714907E-3   -3.059314070661883E-3    1.417880607383045E-3    2.758984920189136E-1    4.335363764983573E-1
 8.151407616100000E9     1.354093898094688E-1    5.266207440355072E-1   -3.083072131710538E-3    1.383314224353956E-3   -3.051562622598184E-3    1.453447753282324E-3    2.758961928281224E-1    4.334236088537466E-1
 8.151409830275000E9     1.355488849426831E-1    5.264591887640612E-1   -3.068616859465855E-3    1.405687515268371E-3   -3.071073869395343E-3    1.437365721315537E-3    2.760986349434653E-1    4.333681189839624E-1
 8.151412044450000E9     1.356557492881601E-1    5.264853352860116E-1   -3.058351503495924E-3    1.423645876030916E-3   -3.076536346792885E-3    1.444755190962063E-3    2.762558196037376E-1    4.332514674050855E-1
 8.151414258625000E9     1.358935412326112E-1    5.265023103063858E-1   -3.094976039663546E-3    1.405971473111809E-3   -3.084291745743248E-3    1.478583104769447E-3    2.764190451101158E-1    4.331683557637724E-1
 8.151416472800000E9     1.360282064553191E-1    5.262498323627893E-1   -3.092907430837752E-3    1.407185829719483E-3   -3.099428863046476E-3    1.447852240053137E-3    2.765379311182001E-1    4.330932545000032E-1
 8.151418686975000E9     1.363538540531025E-1    5.262526298693632E-1   -3.073726451683071E-3    1.427240580336585E-3   -3.060589795320899E-3    1.427202024861670E-3    2.764940684644597E-1    4.331102124561795E-1
 8.151420901150000E9     1.364344054297584E-1    5.262192584904715E-1   -3.084491720200391E-3    1.393478628309891E-3   -3.103131944413499E-3    1.435754990473190E-3    2.768148545785735E-1    4.329329468006395E-1
 8.151423115325000E9     1.366402798730502E-1    5.262053626255528E-1   -3.082896129590541E-3    1.402345998034675E-3   -3.103770890284414E-3    1.453341795891114E-3    2.768317701623372E-1    4.328699309708555E-1
 8.151425329500000E9     1.368411689558278E-1    5.261956897632731E-1   -3.090756739392415E-3    1.416108946062828E-3   -3.120685381379639E-3    1.495232807739523E-3    2.769715180537324E-1    4.327861886884624E-1
 8.151427543675000E9     1.370396047079686E-1    5.260303318802076E-1   -3.096240365668736E-3    1.406667972652234E-3   -3.101490218010749E-3    1.482404926291654E-3    2.770740369242757E-1    4.327759580224644E-1
 8.151429757850000E9     1.371711354320878E-1    5.260251557848601E-1   -3.107469971416642E-3    1.454469211698734E-3   -3.125921500266880E-3    1.502571739051156E-3    2.773082610568146E-1    4.325777764287423E-1
 8.151431972025000E9     1.374011654448428E-1    5.260037463768944E-1   -3.098209900072478E-3    1.438900638024259E-3   -3.134845338246321E-3    1.497555416854640E-3    2.773708933549296E-1    4.326108478465694E-1
 8.151434186200000E9     1.376113767025925E-1    5.259311311897584E-1   -3.124515753291822E-3    1.434070433164449E-3   -3.138871440918241E-3    1.498678455391058E-3    2.773687152827967E-1    4.325407149731491E-1
 8.151436400375000E9     1.377102431920995E-1    5.259363339775651E-1   -3.116832052661005E-3    1.456893786278063E-3   -3.109321621034743E-3    1.522308106959223E-3    2.775133727829730E-1    4.323014058700734E-1
 8.151438614550000E9     1.379081914455264E-1    5.257627495697035E-1   -3.116147909512058E-3    1.449103673131796E-3   -3.136415491369042E-3    1.488169511120754E-3    2.777999688432095E-1    4.322669488327292E-1
 8.151440828725000E9     1.379971531898047E-1    5.257284045181509E-1   -3.157644474084203E-3    1.445761858468046E-3   -3.117680100132070E-3    1.532276401068248E-3    2.777426202171130E-1    4.323006496523522E-1
 8.151443042900000E9     1.382287812443118E-1    5.257935581439229E-1   -3.150801627790673E-3    1.466850723409934E-3   -3.134075437340016E-3    1.480323864098960E-3    2.778472509748674E-1    4.322049946990985E-1
 8.151445257075000E9     1.383273220973228E-1    5.255599751307710E-1   -3.128316996358063E-3    1.435599935908639E-3   -3.131292596075247E-3    1.536100796282068E-3    2.781915381137589E-1    4.320190187074154E-1
 8.151447471250000E9     1.386801334470415E-1    5.256780029649215E-1   -3.156738666572595E-3    1.464492616931110E-3   -3.163247253218827E-3    1.516425801618000E-3    2.781300079086106E-1    4.319299964320237E-1
 8.151449685425000E9     1.389217653496506E-1    5.255892799339688E-1   -3.148192477990803E-3    1.483932212240607E-3   -3.130905168250498E-3    1.534430319287859E-3    2.782659515872921E-1    4.319397115096784E-1
 8.151451899600000E9     1.389913251757702E-1    5.255932791757300E-1   -3.141467623415986E-3    1.478371328452152E-3   -3.150733997325086E-3    1.561102020105125E-3    2.784473855267769E-1    4.317762503264128E-1
 8.151454113775000E9     1.391260824543773E-1    5.254764617560140E-1   -3.180800492782987E-3    1.499064791957303E-3   -3.145943503702060E-3    1.550439394789959E-3    2.785443984839958E-1    4.317117040118838E-1
 8.151456327950000E9     1.394251813868038E-1    5.254475389550199E-1   -3.148571876479029E-3    1.485464772100730E-3   -3.175392718351258E-3    1.548050831541575E-3    2.786802718395676E-1    4.315640434972358E-1
 8.151458542125000E9     1.395014472848501E-1    5.254004214747271E-1   -3.171058830838732E-3    1.497219377854267E-3   -3.168463824632488E-3    1.542398431210716E-3    2.786625948137993E-1    4.315469792938110E-1
 8.151460756300000E9     1.396760428765622E-1    5.253415159769093E-1   -3.165244050561827E-3    1.490549938036909E-3   -3.187633550332323E-3    1.546907360890599E-3    2.788630023890686E-1    4.315015625084907E-1
 8.151462970475000E9     1.399770722684676E-1    5.252041977949449E-1   -3.174957722964585E-3    1.486602680834192E-3   -3.197310463293863E-3    1.570171300598152E-3    2.790716794733979E-1    4.314448683941879E-1
 8.151465184650000E9     1.400007739923154E-1    5.251990903834989E-1   -3.165731666647949E-3    1.523214968672093E-3   -3.191219727628739E-3    1.586509609001681E-3    2.791806308985517E-1    4.313085371447350E-1
 8.151467398825000E9     1.402658225968940E-1    5.250870587393799E-1   -3.230405409489410E-3    1.527508793021021E-3   -3.195684657128034E-3    1.573139241872407E-3    2.792144922897644E-1    4.313292862201900E-1
 8.151469613000000E9     1.405037867150683E-1    5.251703339068506E-1   -3.184866423436866E-3    1.559228004880352E-3   -3.215070675047730E-3    1.590070910319587E-3    2.792707051311675E-1    4.312128457872980E-1
 8.151471827175000E9     1.405472301480445E-1    5.251488820425245E-1   -3.224955685467050E-3    1.532123565095982E-3   -3.199222549003132E-3    1.583824167379260E-3    2.794783687716783E-1    4.310837365996167E-1
 8.151474041350000E9     1.407795168632490E-1    5.250151027532211E-1   -3.200850830033557E-3    1.544107369727589E-3   -3.202518422540935E-3    1.593954725222422E-3    2.796195049097188E-1    4.309013775317881E-1
 8.151476255525000E9     1.409496929830062E-1    5.249384097613885E-1   -3.220372558828841E-3    1.549708729600811E-3   -3.202423783218859E-3    1.562757435735939E-3    2.796449589066534E-1    4.309602655260750E-1
 8.151478469700000E9     1.412378697302139E-1    5.248679018500538E-1   -3.215079855930938E-3    1.533754352723276E-3   -3.215799688411716E-3    1.628171818440662E-3    2.799466968854787E-1    4.309042460645207E-1
 8.151480683875000E9     1.412423506870012E-1    5.247933213916374E-1   -3.231323273637204E-3    1.551686583929630E-3   -3.253791961705502E-3    1.594455792511102E-3    2.797936095138218E-1    4.306575665433437E-1
 8.151482898050000E9     1.416778943983462E-1    5.247732769485944E-1   -3.249873621423341E-3    1.565121866548594E-3   -3.234421690812614E-3    1.625549365730861E-3    2.800716534115392E-1    4.306103332134824E-1
 8.151485112225000E9     1.418586921118769E-1    5.247949054369735E-1   -3.253824657060690E-3    1.573460817764152E-3   -3.264579691475958E-3    1.624614523910215E-3    2.802750783711737E-1    4.304397086235180E-1
 8.151487326400000E9     1.419530632293272E-1    5.245629655914579E-1   -3.293203217203767E-3    1.602256661749551E-3   -3.238409254346161E-3    1.668176961861482E-3    2.802362481535361E-1    4.303776437159819E-1
 8.151489540575000E9     1.420924324715480E-1    5.244880209888066E-1   -3.261915725074963E-3    1.560412027379050E-3   -3.252480652451556E-3    1.634211017757164E-3    2.804860980072267E-1    4.305149504652038E-1
 8.151491754750000E9     1.423289471456691E-1    5.245642614922125E-1   -3.274215920462573E-3    1.598665640172590E-3   -3.263627129389298E-3    1.660204454781717E-3    2.805898512109098E-1    4.304228483373910E-1
