#  HZ   S   RI   R     50.00 
! Rohde & Schwarz Vector Network Analyzer 
! Rohde-Schwarz,ZNB20-2Port,1311601062101988,3.16
! Created: UTC 3/21/2024, 1:11:08 AM
! freq[Hz]                re:S11                  im:S11                  re:S21                  im:S21                  re:S12                  im:S12                  re:S22                  im:S22
 8.149823612000000E9     1.155252577621033E-2    5.378268014123911E-1   -2.568182578083558E-3    4.209763077446151E-4   -2.625351268677180E-3    4.611362657657524E-4    1.663999452993772E-1    4.818259923696167E-1
 8.149834719575000E9     1.230978082801409E-2    5.380154930843284E-1   -2.619599668252341E-3    4.265818394068046E-4   -2.626888396663761E-3    4.563820594512395E-4    1.669779735251071E-1    4.816937104478676E-1
 8.149845827150000E9     1.309922609881364E-2    5.378970631116574E-1   -2.590192078696795E-3    4.317732037427010E-4   -2.598536856938380E-3    4.483991670819885E-4    1.676233000034886E-1    4.813371099479515E-1
 8.149856934725000E9     1.399100667831066E-2    5.378200688235449E-1   -2.582549078440027E-3    4.396133518554594E-4   -2.611274305011971E-3    4.531314439785598E-4    1.683833003832546E-1    4.811602887116824E-1
 8.149868042300000E9     1.471912409975673E-2    5.379107856544108E-1   -2.600197333723368E-3    4.404375256686966E-4   -2.626575395612453E-3    4.713909878910256E-4    1.689794278082297E-1    4.806794262611967E-1
 8.149879149875000E9     1.542338787991658E-2    5.377291739486255E-1   -2.607896012510123E-3    4.639367219078130E-4   -2.618170326819325E-3    4.627100757519815E-4    1.695923003637207E-1    4.805541920788354E-1
 8.149890257450000E9     1.617243342946453E-2    5.379450131269878E-1   -2.592354228604125E-3    4.423728441547907E-4   -2.627170592643576E-3    4.931981172828276E-4    1.704237933421310E-1    4.802841919607835E-1
 8.149901365025000E9     1.714272614353596E-2    5.378020078334654E-1   -2.598942716195495E-3    4.141089539054712E-4   -2.615578351394962E-3    4.979976884498731E-4    1.709815296702728E-1    4.802211239858908E-1
 8.149912472600000E9     1.780411841129077E-2    5.377680697812699E-1   -2.621345463192040E-3    4.542998963925315E-4   -2.635692545526576E-3    4.844825744500662E-4    1.717480325889570E-1    4.799571452138441E-1
 8.149923580175000E9     1.857288587269457E-2    5.378620522092670E-1   -2.572583640404185E-3    4.447216634619628E-4   -2.592663614692623E-3    4.727048247004977E-4    1.722171930867464E-1    4.796352442271856E-1
 8.149934687750000E9     1.936654850428786E-2    5.378153303278821E-1   -2.596230100709300E-3    4.559459322686072E-4   -2.607888932958601E-3    5.115743532148802E-4    1.729619654847740E-1    4.792852952554225E-1
 8.149945795325000E9     2.016182637412058E-2    5.377717289196140E-1   -2.608044913671219E-3    4.652434236654876E-4   -2.619259478157612E-3    5.120673604723891E-4    1.735279223762810E-1    4.791011882084385E-1
 8.149956902900000E9     2.094495930739977E-2    5.377752011767866E-1   -2.609601915016570E-3    4.661154122688132E-4   -2.609694829665193E-3    5.121816725608850E-4    1.743984677989330E-1    4.787476845422704E-1
 8.149968010475000E9     2.178124418087032E-2    5.377809018272576E-1   -2.572272949094881E-3    4.598382276927612E-4   -2.582037777332267E-3    5.035097364116592E-4    1.748908737742648E-1    4.785730751498446E-1
 8.149979118050000E9     2.256229711545909E-2    5.377248308480553E-1   -2.584092298287518E-3    4.565301610056497E-4   -2.617053815380229E-3    5.019650990983525E-4    1.755431308460390E-1    4.781178162587614E-1
 8.149990225625000E9     2.333150581766550E-2    5.377437705847369E-1   -2.603572561143208E-3    4.715538241253878E-4   -2.619270209028608E-3    5.547391966828802E-4    1.763605328393681E-1    4.780970820820973E-1
 8.150001333200000E9     2.405164794360417E-2    5.377319556382222E-1   -2.598180888221634E-3    5.085412733819306E-4   -2.608438503303098E-3    5.257469222735325E-4    1.768584212253304E-1    4.777560999296881E-1
 8.150012440775000E9     2.476883406815937E-2    5.377921335140617E-1   -2.591295001888593E-3    4.850878192231124E-4   -2.608528968548740E-3    5.119993360271623E-4    1.776614628153333E-1    4.775303892489344E-1
 8.150023548350000E9     2.567087244343535E-2    5.376731321227627E-1   -2.573834077317429E-3    4.654384581792202E-4   -2.584020501731771E-3    5.525385917698182E-4    1.783047220160404E-1    4.773349058599903E-1
 8.150034655925000E9     2.649549789057521E-2    5.377392788108755E-1   -2.562277181355581E-3    4.875616829657394E-4   -2.620510210869003E-3    5.726031305977479E-4    1.790034041194292E-1    4.769547471218534E-1
 8.150045763500000E9     2.720743393803731E-2    5.377154227871319E-1   -2.576620217503889E-3    4.878414375092750E-4   -2.590110873146461E-3    5.308706537817643E-4    1.797197988229309E-1    4.766027500539218E-1
 8.150056871075000E9     2.789079087473318E-2    5.376677153803913E-1   -2.576105334012602E-3    5.201188371709726E-4   -2.622353661677344E-3    5.608489293495094E-4    1.803550748645898E-1    4.763397680401178E-1
 8.150067978650000E9     2.872276390300253E-2    5.376278108653209E-1   -2.611137164706805E-3    4.968416677306098E-4   -2.594209506827470E-3    5.727763939649464E-4    1.809009214945872E-1    4.761050555579948E-1
 8.150079086225000E9     2.943038231339736E-2    5.376379759015794E-1   -2.605136709743729E-3    5.271406608627488E-4   -2.630400871570039E-3    5.571916664045210E-4    1.816438803350303E-1    4.759328020353548E-1
 8.150090193800000E9     3.028318496251015E-2    5.376265680756762E-1   -2.603309208747869E-3    5.182160548422742E-4   -2.638127821211265E-3    5.569600263484822E-4    1.822179179134484E-1    4.755794918800612E-1
 8.150101301375000E9     3.116632725859471E-2    5.374387392071897E-1   -2.569813068283926E-3    5.385406388678410E-4   -2.593734471525379E-3    5.847417440155164E-4    1.828795929520758E-1    4.753802319947655E-1
 8.150112408950000E9     3.181736163161678E-2    5.375961544992522E-1   -2.604659376589204E-3    5.138052872844818E-4   -2.606793462521225E-3    5.559065076605832E-4    1.836248481298618E-1    4.749458316427810E-1
 8.150123516525000E9     3.246705526842358E-2    5.375142094780181E-1   -2.580113938683944E-3    5.174293620190079E-4   -2.614507123461397E-3    5.881749265267288E-4    1.842981785967284E-1    4.747414675777079E-1
 8.150134624100000E9     3.331254958589441E-2    5.374764484344599E-1   -2.597297963334819E-3    4.850248330891243E-4   -2.610104389377802E-3    5.873140857587952E-4    1.848381476867635E-1    4.745053067378893E-1
 8.150145731675000E9     3.408106069311062E-2    5.375272251456997E-1   -2.603878117696947E-3    5.073753476591696E-4   -2.576900185551003E-3    5.989115677301178E-4    1.856126095221979E-1    4.742518997640251E-1
 8.150156839250000E9     3.495610667929964E-2    5.374550614626153E-1   -2.585626366820948E-3    5.336336578351050E-4   -2.600186100956978E-3    6.080282967041083E-4    1.861862425529406E-1    4.739786068083580E-1
 8.150167946825000E9     3.565315514485767E-2    5.374415534098174E-1   -2.565325280134717E-3    5.554200213858811E-4   -2.601243024765677E-3    6.112421393241153E-4    1.870010689672819E-1    4.737124854220605E-1
 8.150179054400000E9     3.650370113024724E-2    5.374697777022668E-1   -2.588951238479174E-3    5.512558515809726E-4   -2.596491593264725E-3    6.016516889731477E-4    1.874751218230909E-1    4.735231150473639E-1
 8.150190161975000E9     3.724754517008774E-2    5.373141681117690E-1   -2.580586855673755E-3    5.492741436296727E-4   -2.604020208502309E-3    5.943391749120380E-4    1.881822167695293E-1    4.731540661106359E-1
 8.150201269550000E9     3.783247506456438E-2    5.372695501727001E-1   -2.583142236178906E-3    5.673939303050500E-4   -2.587086294293963E-3    6.009635885670480E-4    1.889863771500990E-1    4.729249692555680E-1
 8.150212377125000E9     3.871657684171199E-2    5.371902893476908E-1   -2.581832604749458E-3    5.539606499121396E-4   -2.595085699189265E-3    6.517021789640157E-4    1.894867122248934E-1    4.726170103115025E-1
 8.150223484700000E9     3.947400454839522E-2    5.372830356453737E-1   -2.585663226757956E-3    5.260477041403795E-4   -2.611468536128151E-3    6.015067948736104E-4    1.902681515446362E-1    4.724199553518329E-1
 8.150234592275000E9     4.030060740796912E-2    5.371731467558948E-1   -2.595821319141543E-3    5.788464119693011E-4   -2.585561810680164E-3    5.791803489188036E-4    1.908235434631713E-1    4.719340147090784E-1
 8.150245699850000E9     4.113766349141280E-2    5.371678712879258E-1   -2.596182619193808E-3    5.621349194132695E-4   -2.623790548922515E-3    6.521278244147385E-4    1.914618567545966E-1    4.718509734278022E-1
 8.150256807425000E9     4.189854441898258E-2    5.370482466685542E-1   -2.613828701926739E-3    5.693172143676583E-4   -2.592140359484496E-3    6.325418350718410E-4    1.921578642393251E-1    4.713842341137508E-1
 8.150267915000000E9     4.262542149705273E-2    5.369757161152275E-1   -2.586572314464173E-3    5.991520284493910E-4   -2.585070541526499E-3    6.283383575181525E-4    1.929294001167073E-1    4.712271337255838E-1
 8.150279022575000E9     4.334808993643915E-2    5.370637312204378E-1   -2.583237096020760E-3    5.851811668752571E-4   -2.605794680280613E-3    6.363678356667466E-4    1.934288234869644E-1    4.708802699117967E-1
 8.150290130150000E9     4.415298603874237E-2    5.369491907641498E-1   -2.611363145697451E-3    5.717326774831386E-4   -2.603899260891738E-3    6.406458241659558E-4    1.942570661593869E-1    4.705105876664250E-1
 8.150301237725000E9     4.506624033955756E-2    5.368882032094677E-1   -2.593586550332025E-3    5.771901531623695E-4   -2.610019595324095E-3    6.404290548545657E-4    1.947369871982157E-1    4.703637748413541E-1
 8.150312345300000E9     4.572571609808215E-2    5.368190176101282E-1   -2.571754716052604E-3    6.011055060791353E-4   -2.606733900525612E-3    6.399503819261438E-4    1.953735586816014E-1    4.701019989182091E-1
 8.150323452875000E9     4.643883646829503E-2    5.367605227850980E-1   -2.575438910162505E-3    5.901608397671114E-4   -2.580337410120699E-3    6.639822195717055E-4    1.959500158176739E-1    4.697349583411520E-1
 8.150334560450000E9     4.719652803856963E-2    5.368141820451962E-1   -2.569206720695463E-3    5.768668357402176E-4   -2.599809243937942E-3    6.530861180891596E-4    1.967009502853251E-1    4.695147924518996E-1
 8.150345668025000E9     4.804131156974632E-2    5.367672344046269E-1   -2.586717341061732E-3    5.981242596636013E-4   -2.589965291711603E-3    6.507226513675840E-4    1.973232180944663E-1    4.692877748648249E-1
 8.150356775600000E9     4.880932459786024E-2    5.366007678145358E-1   -2.582687184283232E-3    5.925876942101298E-4   -2.568493799824999E-3    6.595791232663624E-4    1.980856101719396E-1    4.688646416719324E-1
 8.150367883175000E9     4.966887771098743E-2    5.366188548767888E-1   -2.570391038423745E-3    6.183425831416295E-4   -2.615767963549271E-3    6.803056051190586E-4    1.986217569169184E-1    4.685607121471407E-1
 8.150378990750000E9     5.038460661238294E-2    5.365395376408195E-1   -2.574195556013883E-3    6.189585019376494E-4   -2.607911864150526E-3    6.843248419313886E-4    1.992436106211620E-1    4.682325449907528E-1
 8.150390098325000E9     5.106580729568094E-2    5.365661261618733E-1   -2.571501162944127E-3    6.072400284545774E-4   -2.598757460802840E-3    6.809376324741986E-4    1.999185731737394E-1    4.680885195879642E-1
 8.150401205900000E9     5.182490042912041E-2    5.365696829853644E-1   -2.607403722533630E-3    6.500291809454238E-4   -2.607802850926655E-3    7.012229574042549E-4    2.006405140034491E-1    4.677019570559640E-1
 8.150412313475000E9     5.265152149326460E-2    5.364041214930159E-1   -2.577926842294305E-3    6.271656238191911E-4   -2.584897621549747E-3    6.925723395657828E-4    2.012813897872065E-1    4.674192656965986E-1
 8.150423421050000E9     5.339108362081827E-2    5.362955814328754E-1   -2.580353218991158E-3    6.363235130436996E-4   -2.612802668047811E-3    6.724197093862592E-4    2.019940915761420E-1    4.671042165715029E-1
 8.150434528625000E9     5.415766924894233E-2    5.363291902641928E-1   -2.588263811747997E-3    6.787573275825111E-4   -2.604557637538318E-3    7.105104649204032E-4    2.026127396000947E-1    4.667911583415201E-1
 8.150445636200000E9     5.496955061023442E-2    5.362578026766529E-1   -2.581594332844833E-3    6.285789560717213E-4   -2.601478647264560E-3    6.642690149552641E-4    2.031986182918540E-1    4.665836905460026E-1
 8.150456743775000E9     5.575531129279120E-2    5.362013590769220E-1   -2.563691151189052E-3    6.414033251906575E-4   -2.606574375553295E-3    6.960908365349541E-4    2.038557278476812E-1    4.661691677295972E-1
 8.150467851350000E9     5.651315866484810E-2    5.360422803538136E-1   -2.579600017284471E-3    6.664573487831432E-4   -2.592828551282321E-3    7.047400263880521E-4    2.045607576718049E-1    4.661001218202744E-1
 8.150478958925000E9     5.726851126459252E-2    5.359651491497844E-1   -2.594621623345113E-3    6.566632888868455E-4   -2.582042453608097E-3    7.058056273858017E-4    2.051617270666413E-1    4.656042900958171E-1
 8.150490066500000E9     5.810193050833322E-2    5.358701490835904E-1   -2.609113591065688E-3    6.836874765326217E-4   -2.591493878377885E-3    7.324150148483269E-4    2.058270571557401E-1    4.652820975592814E-1
 8.150501174075000E9     5.891488497105483E-2    5.359636601103719E-1   -2.565613206624665E-3    6.497915802893652E-4   -2.616309065445162E-3    7.312891082001660E-4    2.065698081009688E-1    4.651003716475260E-1
 8.150512281650000E9     5.960570065516636E-2    5.358228688154550E-1   -2.562556817404881E-3    6.499883991054436E-4   -2.593928424035830E-3    7.300868097589464E-4    2.070364603334351E-1    4.648071982267771E-1
 8.150523389225000E9     6.038154952226717E-2    5.356927891505142E-1   -2.580517507015171E-3    6.839909339448030E-4   -2.578869394849230E-3    7.116699340393257E-4    2.076735292648195E-1    4.645185633691274E-1
 8.150534496800000E9     6.120908967922341E-2    5.357270525146144E-1   -2.589564773522068E-3    6.710677460660899E-4   -2.587022237708949E-3    7.455937035175179E-4    2.084134369325046E-1    4.640385082407442E-1
 8.150545604375000E9     6.195718109997755E-2    5.355815836933072E-1   -2.555267712479337E-3    6.732043422770892E-4   -2.580438437382318E-3    7.256948024802273E-4    2.090739981929186E-1    4.637688369697354E-1
 8.150556711950000E9     6.265504385138468E-2    5.355765995914029E-1   -2.568954040931428E-3    6.869084880500863E-4   -2.602872412263188E-3    7.182410317137932E-4    2.096589555877997E-1    4.633408833684539E-1
 8.150567819525000E9     6.348885270116457E-2    5.354512889821905E-1   -2.572944620154582E-3    6.906046101631679E-4   -2.601378185018777E-3    7.392073094299768E-4    2.102715985546141E-1    4.630821263765382E-1
 8.150578927100000E9     6.428901786447901E-2    5.354427613560990E-1   -2.573073366834660E-3    6.882221865837107E-4   -2.596859655580920E-3    7.497109165233130E-4    2.107738720899154E-1    4.629805815876955E-1
 8.150590034675000E9     6.494983812338352E-2    5.353416168427845E-1   -2.561879989532168E-3    7.089612601320467E-4   -2.597278643619249E-3    7.686425222357914E-4    2.116606104262961E-1    4.626748525393139E-1
 8.150601142250000E9     6.579773669067721E-2    5.351847033316907E-1   -2.565509776440067E-3    7.091911153065846E-4   -2.611748031167484E-3    7.374307248435896E-4    2.123265394584471E-1    4.623290419930893E-1
 8.150612249825000E9     6.639721494566303E-2    5.352522761246407E-1   -2.577883541755162E-3    7.142741384747370E-4   -2.602621307536885E-3    7.536013269400641E-4    2.129176656206505E-1    4.619661069991255E-1
 8.150623357400000E9     6.735701295124932E-2    5.351060764043910E-1   -2.593241820014197E-3    7.168255980013236E-4   -2.585900266394485E-3    7.638302309266704E-4    2.134497915890351E-1    4.615613224604628E-1
 8.150634464975000E9     6.800132459707577E-2    5.350154542110445E-1   -2.581667985864959E-3    7.299687092242483E-4   -2.592289789049015E-3    7.779451269329835E-4    2.141258404623929E-1    4.614429607530838E-1
 8.150645572550000E9     6.894061183910206E-2    5.349867713554814E-1   -2.592568278943332E-3    7.303303006501867E-4   -2.606896751806910E-3    7.820219181179756E-4    2.147970236089377E-1    4.609739259505679E-1
 8.150656680125000E9     6.952466202080915E-2    5.347813456262446E-1   -2.605027827486120E-3    7.343777851562463E-4   -2.579646839357968E-3    7.761383477278617E-4    2.154157686044376E-1    4.606822337831002E-1
 8.150667787700000E9     7.040432901035289E-2    5.347681424556844E-1   -2.573439449678898E-3    7.409570698102872E-4   -2.592139047118241E-3    7.920822510359729E-4    2.160237660878034E-1    4.604316021471363E-1
 8.150678895275000E9     7.115593379715832E-2    5.345724738446335E-1   -2.616667707120371E-3    7.415165318160917E-4   -2.607294235976530E-3    7.694814237625977E-4    2.167559449878848E-1    4.599060440570351E-1
 8.150690002850000E9     7.194253833942434E-2    5.345950458693853E-1   -2.558707160720394E-3    7.424249309945194E-4   -2.615576396385423E-3    7.904640288346020E-4    2.172870476215402E-1    4.597569072045686E-1
 8.150701110425000E9     7.265634540663209E-2    5.345271395042929E-1   -2.559030873860036E-3    7.404820650869664E-4   -2.594637191543596E-3    7.932809294554549E-4    2.178955117216596E-1    4.594229523503678E-1
 8.150712218000000E9     7.349290334939323E-2    5.344308374070486E-1   -2.609216549899884E-3    7.614345144858043E-4   -2.611234863152184E-3    7.971635221493269E-4    2.187497543703061E-1    4.590546667441484E-1
 8.150723325575000E9     7.425093541272551E-2    5.343356059086811E-1   -2.567656906250994E-3    7.460924056708507E-4   -2.593340471308543E-3    7.998758723419264E-4    2.193453377643360E-1    4.587230848938855E-1
 8.150734433150000E9     7.505745234701500E-2    5.343742345659233E-1   -2.595146981574107E-3    7.391131763898015E-4   -2.595976239822645E-3    8.406309113016602E-4    2.198592969943852E-1    4.584519040099519E-1
 8.150745540725000E9     7.577497808717255E-2    5.341919302329150E-1   -2.588229249639038E-3    7.911797145462234E-4   -2.593233462091835E-3    8.023710204156707E-4    2.205180276341084E-1    4.581555008109190E-1
 8.150756648300000E9     7.655548308686996E-2    5.340276470054161E-1   -2.575839743765216E-3    7.672956129521029E-4   -2.619984099905216E-3    7.933287579608016E-4    2.212034215275097E-1    4.577496647712270E-1
 8.150767755875000E9     7.732784416304550E-2    5.339718028377426E-1   -2.594307763194309E-3    7.688483816496974E-4   -2.595655221728248E-3    8.319645604775645E-4    2.217355791563309E-1    4.576103250379722E-1
 8.150778863450000E9     7.822917063924595E-2    5.338471249153258E-1   -2.553359965189949E-3    7.708463879906256E-4   -2.583316196220252E-3    8.264830699039589E-4    2.223669669248798E-1    4.570895347165663E-1
 8.150789971025000E9     7.876014475371544E-2    5.338027038724553E-1   -2.578799356704302E-3    7.731416684897434E-4   -2.616962305458959E-3    8.350609161206762E-4    2.230582192728193E-1    4.567933061577980E-1
 8.150801078600000E9     7.962020790930650E-2    5.336102072919586E-1   -2.563135830260231E-3    7.627364990727348E-4   -2.593059783791620E-3    8.211650179714942E-4    2.236989205621502E-1    4.564258937996422E-1
 8.150812186175000E9     8.046644789799537E-2    5.335721777388379E-1   -2.565502407514394E-3    7.891153933612174E-4   -2.595642598836210E-3    8.462680672260036E-4    2.242821156823563E-1    4.561684713106839E-1
 8.150823293750000E9     8.129746528086805E-2    5.335602911928452E-1   -2.574554832854555E-3    8.048119559543593E-4   -2.590733364219909E-3    8.548917287291858E-4    2.250795816029902E-1    4.558944688187412E-1
