#  HZ   S   RI   R     50.00 
! Rohde & Schwarz Vector Network Analyzer 
! Rohde-Schwarz,ZNB20-2Port,1311601062101988,3.16
! Created: UTC 3/21/2024, 1:11:12 AM
! freq[Hz]                re:S11                  im:S11                  re:S21                  im:S21                  re:S12                  im:S12                  re:S22                  im:S22
 8.149951885000000E9     2.034117952789709E-2    5.377709466879208E-1   -2.602829054474162E-3    4.631254190520302E-4   -2.622604741526567E-3    5.418175136478760E-4    1.738275533660108E-1    4.790046096202278E-1
 8.149962430825000E9     2.122050156457759E-2    5.377189046471398E-1   -2.584171207180266E-3    4.515664577872851E-4   -2.602280569199229E-3    5.111328815970341E-4    1.745003053613954E-1    4.786860349706742E-1
 8.149972976650000E9     2.185324484722289E-2    5.376164971839400E-1   -2.594880543997394E-3    4.787164560404474E-4   -2.604913554250229E-3    4.898230161077724E-4    1.751487296726675E-1    4.785022075755624E-1
 8.149983522475000E9     2.277408308199007E-2    5.377752490774965E-1   -2.577468207900707E-3    4.738570768937549E-4   -2.603685381873023E-3    5.106416417427421E-4    1.758608627998504E-1    4.782283626987007E-1
 8.149994068300000E9     2.338246768024147E-2    5.377650890844866E-1   -2.578891748079926E-3    4.888946884674243E-4   -2.632716975638439E-3    5.478861185427284E-4    1.764742468258822E-1    4.780805446633991E-1
 8.150004614125000E9     2.406078214270377E-2    5.376998104616880E-1   -2.586249185788146E-3    4.826905268370342E-4   -2.612161512067289E-3    5.469725956292536E-4    1.770692012621969E-1    4.776838805838411E-1
 8.150015159950000E9     2.493667908946742E-2    5.376448699697554E-1   -2.598471021451741E-3    5.173199935324299E-4   -2.613874300132862E-3    5.489160064215845E-4    1.777509103860291E-1    4.775980480650820E-1
 8.150025705775000E9     2.557884098677611E-2    5.377068100518623E-1   -2.598957326800488E-3    4.782002903525833E-4   -2.617426826052094E-3    5.215732912440545E-4    1.783485579511664E-1    4.772420114379610E-1
 8.150036251600000E9     2.629686582213926E-2    5.376934710662855E-1   -2.604420337572580E-3    5.035549399586443E-4   -2.645490356371124E-3    5.533731399719397E-4    1.789417683602837E-1    4.769564285881017E-1
 8.150046797425000E9     2.705533498707159E-2    5.376769086979781E-1   -2.594965697162958E-3    5.235217140710721E-4   -2.627908611377858E-3    5.843112281043578E-4    1.796729614199032E-1    4.767443548406782E-1
 8.150057343250000E9     2.788913437261010E-2    5.376793394613382E-1   -2.586707672137185E-3    4.950935292781010E-4   -2.631552154521205E-3    5.550765143403746E-4    1.803183455969915E-1    4.764769710694398E-1
 8.150067889075000E9     2.848450783741811E-2    5.375955131227285E-1   -2.583619011456346E-3    4.948160813455391E-4   -2.631595497235289E-3    5.482098314591435E-4    1.808473909432528E-1    4.761847642486705E-1
 8.150078434900000E9     2.936389821531706E-2    5.376231897243632E-1   -2.589050219880160E-3    5.095150138269728E-4   -2.605755529179560E-3    5.570407813515366E-4    1.814232540412673E-1    4.758808322540532E-1
 8.150088980725000E9     3.002353558343680E-2    5.375572812915259E-1   -2.577606965655798E-3    5.355079132157274E-4   -2.580837734243198E-3    5.644966427352830E-4    1.821949203381746E-1    4.756783096233542E-1
 8.150099526550000E9     3.069865015525465E-2    5.375736485531458E-1   -2.595336954906294E-3    5.080595840284143E-4   -2.652120528266862E-3    5.717601135153774E-4    1.827514857483682E-1    4.754354291536651E-1
 8.150110072375000E9     3.149654412212840E-2    5.375012242690519E-1   -2.585154495836578E-3    5.393099692560255E-4   -2.655668848145556E-3    5.687131219733756E-4    1.832523656854676E-1    4.752794572538313E-1
 8.150120618200000E9     3.223630872121408E-2    5.373797588302163E-1   -2.583710362516649E-3    4.997326511423133E-4   -2.642197343691250E-3    5.522457355139931E-4    1.840652495053558E-1    4.749405055473895E-1
 8.150131164025000E9     3.282343480205856E-2    5.374641173875838E-1   -2.590820335021312E-3    5.184703111411160E-4   -2.588854828349678E-3    5.770503859049433E-4    1.847247352765133E-1    4.745890260826890E-1
 8.150141709850000E9     3.379410841901866E-2    5.373562694745354E-1   -2.586330284765848E-3    4.747721485630987E-4   -2.580409901892357E-3    5.634548095301079E-4    1.852671828035581E-1    4.743970660731947E-1
 8.150152255675000E9     3.442868128272668E-2    5.373568595961706E-1   -2.576482202448340E-3    5.339945985374710E-4   -2.612071648183027E-3    6.113871917263357E-4    1.858926525587390E-1    4.740072424485282E-1
 8.150162801500000E9     3.517184165773708E-2    5.373479682738368E-1   -2.585948247109306E-3    5.366272049730397E-4   -2.609102688679498E-3    5.855444959202198E-4    1.864719680841515E-1    4.739474269096176E-1
 8.150173347325000E9     3.589998965101364E-2    5.372674451902226E-1   -2.553232795794549E-3    5.528461726456422E-4   -2.598921088280421E-3    5.929352299775622E-4    1.870102838322039E-1    4.737658400187496E-1
 8.150183893150000E9     3.656288819193833E-2    5.373203727684560E-1   -2.581324918454120E-3    5.427051217079695E-4   -2.596175033143011E-3    5.719734810815432E-4    1.877715739555559E-1    4.733351308437702E-1
 8.150194438975000E9     3.747543845093080E-2    5.373257277625112E-1   -2.577821505455971E-3    5.628152749067771E-4   -2.587625792212566E-3    5.655381969334921E-4    1.883917049754800E-1    4.730574589660558E-1
 8.150204984800000E9     3.814536276819028E-2    5.370482362581092E-1   -2.573442394052649E-3    5.479932070303176E-4   -2.605328457488456E-3    5.995649870648349E-4    1.890644155577260E-1    4.728140227274019E-1
 8.150215530625000E9     3.881942106807718E-2    5.371489814914068E-1   -2.590689622894299E-3    5.761451703331507E-4   -2.606624723049252E-3    6.134113475717507E-4    1.895709103205305E-1    4.724744666828954E-1
 8.150226076450000E9     3.968289337923712E-2    5.371937132926218E-1   -2.587767573911792E-3    5.555800117045401E-4   -2.593538167339848E-3    6.248603698159813E-4    1.903627114198157E-1    4.723531779762764E-1
 8.150236622275000E9     4.039228297086178E-2    5.371405720406832E-1   -2.575858044871695E-3    5.623858555518986E-4   -2.632238509198770E-3    6.252222132060154E-4    1.909275178486702E-1    4.720813022274832E-1
 8.150247168100000E9     4.107338727193764E-2    5.370104508397314E-1   -2.592512765296378E-3    5.560994689014901E-4   -2.636542580888510E-3    6.350665858037077E-4    1.917170456060855E-1    4.718018472973940E-1
 8.150257713925000E9     4.179164081565614E-2    5.370837372888162E-1   -2.573800402253952E-3    5.822477841779118E-4   -2.589099339126107E-3    6.177596881168441E-4    1.920890516132000E-1    4.715404018591505E-1
 8.150268259750000E9     4.257671677767041E-2    5.370829041942992E-1   -2.571303584247099E-3    5.833700787646644E-4   -2.588445426442740E-3    6.194669840732936E-4    1.928427095591439E-1    4.712807827581241E-1
 8.150278805575000E9     4.323442493438676E-2    5.369744050347524E-1   -2.580515058660719E-3    5.935671123982253E-4   -2.589387267174794E-3    6.341146525436023E-4    1.934182628702711E-1    4.709055168335020E-1
 8.150289351400000E9     4.399875303778219E-2    5.369422733736022E-1   -2.571646087481061E-3    5.797638154296447E-4   -2.613053740730066E-3    6.097250115628517E-4    1.940056041686159E-1    4.707446854884095E-1
 8.150299897225000E9     4.488191921362541E-2    5.368235150113716E-1   -2.597978384776417E-3    6.008105746016976E-4   -2.638244797273174E-3    6.276353898124619E-4    1.946247208302645E-1    4.705817504826201E-1
 8.150310443050000E9     4.561529439918022E-2    5.369320691925772E-1   -2.593803895702015E-3    5.981080584732727E-4   -2.605431603499130E-3    6.359854278030408E-4    1.954001063844417E-1    4.700614960750203E-1
 8.150320988875000E9     4.609034865359471E-2    5.367570361483146E-1   -2.578269479057108E-3    5.987945877557334E-4   -2.607695103352193E-3    6.438591496433123E-4    1.957827691098219E-1    4.697615785259978E-1
 8.150331534700000E9     4.695723101638492E-2    5.368331627664319E-1   -2.581127631507467E-3    6.213639181710952E-4   -2.613294355919218E-3    6.701769792590063E-4    1.964425448430425E-1    4.695567248714785E-1
 8.150342080525000E9     4.765951349843229E-2    5.367009411537845E-1   -2.575556000581933E-3    6.087287648865778E-4   -2.590729221618849E-3    6.542792670816148E-4    1.971820554142375E-1    4.693561794892778E-1
 8.150352626350000E9     4.855108843889688E-2    5.367376416014146E-1   -2.588561373032814E-3    5.974302834137391E-4   -2.604094391124007E-3    6.668061644651328E-4    1.976406944261707E-1    4.691814465846317E-1
 8.150363172175000E9     4.918628125867336E-2    5.366482179640677E-1   -2.576451659097465E-3    6.050527821297205E-4   -2.634036913707577E-3    6.860813069588078E-4    1.983306255083596E-1    4.687298210848968E-1
 8.150373718000000E9     4.989829921026851E-2    5.364959162371811E-1   -2.592626999838439E-3    6.007132904286848E-4   -2.589244273728122E-3    6.694225253981759E-4    1.989890590585426E-1    4.683282722211043E-1
 8.150384263825000E9     5.071420405869285E-2    5.364296954588562E-1   -2.580204120109623E-3    6.058899097476121E-4   -2.594638382884070E-3    6.387038803727820E-4    1.995291380245313E-1    4.682141616917678E-1
 8.150394809650000E9     5.128099629573773E-2    5.364301630812148E-1   -2.561190518520406E-3    6.265677844287395E-4   -2.585723224955165E-3    6.764108197071581E-4    2.001280024718167E-1    4.679270218502624E-1
 8.150405355475000E9     5.204510774162663E-2    5.364149601487392E-1   -2.588133597262651E-3    6.589674441119610E-4   -2.609637461665322E-3    6.947383586424702E-4    2.008674217564039E-1    4.677179380208242E-1
 8.150415901300000E9     5.287784490996664E-2    5.363687675712584E-1   -2.597107539709047E-3    6.316762180443058E-4   -2.591447634288536E-3    6.837119229553481E-4    2.015290554928899E-1    4.674177029093288E-1
 8.150426447125000E9     5.345352487357214E-2    5.363134118065369E-1   -2.593633511579517E-3    6.196781269200915E-4   -2.607019932803750E-3    6.914753049544409E-4    2.020294324467659E-1    4.671094352694454E-1
 8.150436992950000E9     5.437850792896366E-2    5.361917370206697E-1   -2.587252770140721E-3    6.552978684093425E-4   -2.604051505613570E-3    7.309107233058804E-4    2.027819660904595E-1    4.667434967708365E-1
 8.150447538775000E9     5.508654569765373E-2    5.361298808037809E-1   -2.604550369040953E-3    6.071366919941636E-4   -2.595762707213315E-3    7.258817688985749E-4    2.032555366051312E-1    4.665704892759200E-1
 8.150458084600000E9     5.581206116753693E-2    5.359901004836681E-1   -2.607434160505833E-3    6.558279135138886E-4   -2.590163504655139E-3    7.087754038237116E-4    2.039436816580736E-1    4.661805784515604E-1
 8.150468630425000E9     5.649721800082681E-2    5.360868174038889E-1   -2.585627124804122E-3    6.615115944447119E-4   -2.566945855569807E-3    7.029611280964179E-4    2.043661760268379E-1    4.658883236818848E-1
 8.150479176250000E9     5.726138800228762E-2    5.359745304180398E-1   -2.591684265133481E-3    6.937141030523531E-4   -2.585809522489656E-3    7.210882588352932E-4    2.052173141637658E-1    4.656414350652838E-1
 8.150489722075000E9     5.781234432075096E-2    5.359195510338355E-1   -2.558296151391426E-3    6.607516203343310E-4   -2.590369201202457E-3    7.185988326728874E-4    2.059270928507594E-1    4.654505997185331E-1
 8.150500267900000E9     5.860944540778692E-2    5.358307033082803E-1   -2.566741369107435E-3    6.676013934950497E-4   -2.591031083151400E-3    7.292948366869112E-4    2.064017266656810E-1    4.651038327710895E-1
 8.150510813725000E9     5.929176824603288E-2    5.357954515924516E-1   -2.570823473909173E-3    6.872934406217631E-4   -2.603481186325547E-3    7.099330492524565E-4    2.069231071548805E-1    4.648317145581665E-1
 8.150521359550000E9     6.009873698757677E-2    5.358357445044557E-1   -2.584996440176378E-3    6.463760226490259E-4   -2.588958628941314E-3    7.378054008474147E-4    2.076211778150014E-1    4.644228631672794E-1
 8.150531905375000E9     6.097890131733556E-2    5.356450246389309E-1   -2.565985431256650E-3    6.717207644110507E-4   -2.604318919031695E-3    6.960214339553368E-4    2.080876263408609E-1    4.642206326953088E-1
 8.150542451200000E9     6.167916427625354E-2    5.355653407039568E-1   -2.593670548857510E-3    6.874336467806007E-4   -2.583823609609081E-3    7.337554715455174E-4    2.087959565868310E-1    4.638647940698766E-1
 8.150552997025000E9     6.234032911683376E-2    5.355288843636411E-1   -2.591978502688494E-3    6.978879605486635E-4   -2.610588087910039E-3    7.245268432310668E-4    2.093648731380743E-1    4.635374326921757E-1
 8.150563542850000E9     6.324735383408808E-2    5.354880873061134E-1   -2.581899892383384E-3    7.015170545346797E-4   -2.602426679879618E-3    7.329144278901916E-4    2.100447396030019E-1    4.632801885963914E-1
 8.150574088675000E9     6.380441852470582E-2    5.353272059266161E-1   -2.577816472676373E-3    6.918543115505808E-4   -2.594650747318846E-3    7.195705417335738E-4    2.106993529438988E-1    4.630873276312036E-1
 8.150584634500000E9     6.446764108208472E-2    5.353343692742600E-1   -2.607613880514704E-3    6.902291706264913E-4   -2.585163670243009E-3    7.341882329298975E-4    2.111723576544273E-1    4.627249496258191E-1
 8.150595180325000E9     6.531944755951195E-2    5.352522945667217E-1   -2.588034963724888E-3    7.192626300634664E-4   -2.595370852838870E-3    7.340727077945020E-4    2.119654933735887E-1    4.625072220285954E-1
 8.150605726150000E9     6.609231936697654E-2    5.351169044501877E-1   -2.571764813712065E-3    7.100981235091791E-4   -2.603301799559265E-3    7.533276695396746E-4    2.124890074700466E-1    4.621127929641540E-1
 8.150616271975000E9     6.687269282460059E-2    5.351082930101491E-1   -2.578206014738455E-3    7.181994685719048E-4   -2.589003700704519E-3    7.486643187404139E-4    2.131024161228040E-1    4.618594713723587E-1
 8.150626817800000E9     6.749877682364899E-2    5.350317807088962E-1   -2.571017793508485E-3    7.238236827178208E-4   -2.585284195831523E-3    7.889709891144934E-4    2.136713076836759E-1    4.615329534255971E-1
 8.150637363625000E9     6.811562331686995E-2    5.348959651087054E-1   -2.572628307285178E-3    7.128421158892811E-4   -2.596429254677551E-3    7.513159123530817E-4    2.143189400168820E-1    4.611848641272557E-1
 8.150647909450000E9     6.881921951867841E-2    5.350294194932947E-1   -2.591049047969196E-3    7.314723286514699E-4   -2.576402403752228E-3    7.667523950702840E-4    2.149053827379002E-1    4.609853684488456E-1
 8.150658455275000E9     6.972228135728475E-2    5.347799370868584E-1   -2.572438139960712E-3    7.307202109924677E-4   -2.591023976935836E-3    7.874643160942194E-4    2.155706797497278E-1    4.605245335823754E-1
 8.150669001100000E9     7.041967003413026E-2    5.347859773257859E-1   -2.597538285326713E-3    7.246976817828759E-4   -2.605581697273741E-3    7.781860881482199E-4    2.160585435217561E-1    4.602361385784439E-1
 8.150679546925000E9     7.104649630461299E-2    5.346577489261296E-1   -2.558941599665372E-3    7.234835828565803E-4   -2.622391174312795E-3    7.753735651492840E-4    2.167932783587176E-1    4.599897724756682E-1
 8.150690092750000E9     7.190407186770684E-2    5.345140538715274E-1   -2.569295182549486E-3    7.429856909961332E-4   -2.582048986727242E-3    7.864510610385986E-4    2.173860572335011E-1    4.597879378036638E-1
 8.150700638575000E9     7.261840817532904E-2    5.343783326908323E-1   -2.564691387557205E-3    7.586876656814685E-4   -2.605183868157617E-3    7.939555425986987E-4    2.179212299050408E-1    4.595634358016021E-1
 8.150711184400000E9     7.338144741995566E-2    5.345525429720153E-1   -2.570138061485885E-3    7.351775997584262E-4   -2.583586025004742E-3    7.962750042370576E-4    2.185766111211903E-1    4.591402810842113E-1
 8.150721730225000E9     7.413021830012710E-2    5.343886498109061E-1   -2.587881563120870E-3    7.406215310088183E-4   -2.622593028489076E-3    7.856192385860732E-4    2.191831058787913E-1    4.588364020884173E-1
 8.150732276050000E9     7.482184321121590E-2    5.342728744419901E-1   -2.593337458609728E-3    7.509184217659187E-4   -2.625931059943397E-3    7.891418574255220E-4    2.196864743621222E-1    4.584884194967501E-1
 8.150742821875000E9     7.554754416805523E-2    5.340055061367596E-1   -2.591462376519587E-3    7.923822334600441E-4   -2.589278609313347E-3    8.200227850823144E-4    2.204147393503591E-1    4.582771462259693E-1
 8.150753367700000E9     7.629212409869082E-2    5.341238464084622E-1   -2.566662436737663E-3    7.656860564576290E-4   -2.592478323980848E-3    8.240314625033425E-4    2.209327842278348E-1    4.578835744781974E-1
 8.150763913525000E9     7.702326739395982E-2    5.339476520589342E-1   -2.608853814648372E-3    7.892564267364668E-4   -2.609099094344380E-3    8.121105957015388E-4    2.214338956450663E-1    4.576053650656167E-1
 8.150774459350000E9     7.781070647871897E-2    5.337539616904010E-1   -2.593369301343626E-3    7.760049583747017E-4   -2.619887710961805E-3    8.153601723488770E-4    2.222190525526414E-1    4.573191171124726E-1
 8.150785005175000E9     7.848121029345408E-2    5.337565152402022E-1   -2.595192499119941E-3    7.604322739309366E-4   -2.593478309471305E-3    8.199085340754826E-4    2.226312727983561E-1    4.569624290137068E-1
 8.150795551000000E9     7.926074637194409E-2    5.337377315528661E-1   -2.561661707449109E-3    7.891457736221932E-4   -2.558974116319637E-3    8.269380067507765E-4    2.233580265418662E-1    4.567156461937912E-1
 8.150806096825000E9     7.995307019586211E-2    5.336884527655309E-1   -2.569131709526312E-3    7.779915315348479E-4   -2.577313366553959E-3    8.371762809459794E-4    2.239399762392126E-1    4.563787034845849E-1
 8.150816642650000E9     8.068291811775560E-2    5.335129740450653E-1   -2.598610546010878E-3    7.777462095931524E-4   -2.608453934277383E-3    8.341413191043192E-4    2.246727549237587E-1    4.561787783690281E-1
 8.150827188475000E9     8.139947306828017E-2    5.334193774531076E-1   -2.581045865116348E-3    8.114000726109931E-4   -2.569524869265300E-3    8.314699448079635E-4    2.251863368522891E-1    4.557429341228385E-1
 8.150837734300000E9     8.215243551641295E-2    5.334059274814932E-1   -2.551794134950241E-3    7.919924602592312E-4   -2.623022664173428E-3    8.425374918049118E-4    2.257201507043588E-1    4.554207552896110E-1
 8.150848280125000E9     8.284623824000471E-2    5.331625167096701E-1   -2.572220699290833E-3    7.991739252650336E-4   -2.577278638269216E-3    8.534454512867083E-4    2.262615211074622E-1    4.550852830194214E-1
 8.150858825950000E9     8.349217173981738E-2    5.331068441590965E-1   -2.577634658958363E-3    7.926972862317270E-4   -2.624208876016106E-3    8.587969838193797E-4    2.268851792938160E-1    4.548387739554059E-1
 8.150869371775000E9     8.428803541887617E-2    5.330540242077497E-1   -2.572225339091544E-3    8.355595144667907E-4   -2.582614585300193E-3    8.572860301500502E-4    2.276699926530894E-1    4.546355536220025E-1
 8.150879917600000E9     8.519683224437670E-2    5.329056107369403E-1   -2.581906666849329E-3    8.345418683342336E-4   -2.572307587192213E-3    8.278278216132301E-4    2.281396255620975E-1    4.540392394417480E-1
 8.150890463425000E9     8.576663358607160E-2    5.328588541484882E-1   -2.574169666358496E-3    8.349833651357949E-4   -2.568501555616113E-3    8.697395746539883E-4    2.288259029309965E-1    4.538732816876835E-1
 8.150901009250000E9     8.660250856625298E-2    5.326154095423720E-1   -2.585495909772503E-3    8.272597580024981E-4   -2.566152127779172E-3    8.805248808533976E-4    2.293931181408453E-1    4.535365390973036E-1
