#  HZ   S   RI   R     50.00 
! Rohde & Schwarz Vector Network Analyzer 
! Rohde-Schwarz,ZNB20-2Port,1311601062101988,3.16
! Created: UTC 3/21/2024, 1:11:55 AM
! freq[Hz]                re:S11                  im:S11                  re:S21                  im:S21                  re:S12                  im:S12                  re:S22                  im:S22
 8.150111100000000E9     3.102813427869271E-2    5.373441927671265E-1   -2.596261945773192E-3    5.159381623857181E-4   -2.613026952545892E-3    5.551280522181731E-4    1.832759284105935E-1    4.756763068124189E-1
 8.150121099650000E9     3.172788467427937E-2    5.374290886558351E-1   -2.603302024324417E-3    5.104633782282493E-4   -2.609756685355904E-3    5.757155240526042E-4    1.837542167626383E-1    4.754770098468404E-1
 8.150131099300000E9     3.247018032956363E-2    5.373707496629000E-1   -2.592646037315559E-3    5.003298182507107E-4   -2.607055604106405E-3    5.775687699973640E-4    1.843831623894851E-1    4.750349404402772E-1
 8.150141098950000E9     3.313262165780734E-2    5.372744382576826E-1   -2.573588181269502E-3    5.480995985315375E-4   -2.619351096493513E-3    5.804131822741602E-4    1.850104572856228E-1    4.749302358415317E-1
 8.150151098600000E9     3.389533982485485E-2    5.373880551756804E-1   -2.593709383832875E-3    5.523412534774476E-4   -2.600552487113814E-3    5.573928709869372E-4    1.855193623302444E-1    4.744727179294779E-1
 8.150161098250000E9     3.467689266354199E-2    5.372579351825533E-1   -2.583640982209609E-3    5.333111716229861E-4   -2.618929896064100E-3    5.976190111942405E-4    1.863619859102754E-1    4.743324791223177E-1
 8.150171097900000E9     3.517067267892321E-2    5.373994998179995E-1   -2.615616449037332E-3    5.306172095217133E-4   -2.581603963565962E-3    5.816450677732744E-4    1.866960827907268E-1    4.741118575299107E-1
 8.150181097550000E9     3.597313437763698E-2    5.372129438837561E-1   -2.588861904079775E-3    5.327374074151662E-4   -2.617434128605669E-3    6.307670822803747E-4    1.873722506743542E-1    4.739620461279866E-1
 8.150191097200000E9     3.676456776480314E-2    5.371177141965917E-1   -2.565564956747648E-3    5.679216487864546E-4   -2.613933537460112E-3    5.825921330416340E-4    1.879118525422330E-1    4.735936914922640E-1
 8.150201096850000E9     3.731524789639847E-2    5.371234065014914E-1   -2.591833978271510E-3    5.208631141123423E-4   -2.605794548748125E-3    6.017787149575546E-4    1.886200172046097E-1    4.732912210668387E-1
 8.150211096500000E9     3.814018433199842E-2    5.371686478610594E-1   -2.584836611029509E-3    5.428553090862469E-4   -2.599783861297050E-3    6.192760531724329E-4    1.891214251189432E-1    4.731802470635595E-1
 8.150221096150000E9     3.877387987751565E-2    5.371276640277235E-1   -2.560359136653680E-3    5.657353735789009E-4   -2.576031199059744E-3    5.906227300538231E-4    1.895224890299800E-1    4.729812023045897E-1
 8.150231095800000E9     3.952494466342158E-2    5.371274401092893E-1   -2.589157954016783E-3    5.251077961849983E-4   -2.612171452396601E-3    5.831334051711912E-4    1.902094648362972E-1    4.727967494522520E-1
 8.150241095450000E9     4.010781744158194E-2    5.370483229596575E-1   -2.589216682207639E-3    5.773599695583624E-4   -2.579007664862885E-3    6.238043559333322E-4    1.908959187580785E-1    4.723541713727891E-1
 8.150251095100000E9     4.093442710377124E-2    5.369616324037595E-1   -2.582242539013168E-3    5.594154522387084E-4   -2.619457862239883E-3    6.194934192247056E-4    1.914666967352947E-1    4.721949880276988E-1
 8.150261094750000E9     4.152428275219591E-2    5.369605382230711E-1   -2.584495405571941E-3    5.609809468142997E-4   -2.625654848940220E-3    6.129696121433795E-4    1.920519861002525E-1    4.718073235067898E-1
 8.150271094400000E9     4.227584373882758E-2    5.369224476931910E-1   -2.606909151043420E-3    5.895132492936653E-4   -2.610134726097347E-3    6.235771577655503E-4    1.926639762912913E-1    4.716212724102419E-1
 8.150281094050000E9     4.300388043275661E-2    5.367758064966148E-1   -2.570274998919265E-3    5.704006628747452E-4   -2.624934215503356E-3    6.372224090562458E-4    1.933353043031898E-1    4.713822929114065E-1
 8.150291093700000E9     4.368897572657795E-2    5.368218858587458E-1   -2.581197713496468E-3    6.107268800515472E-4   -2.581140066584674E-3    6.526970247093936E-4    1.937049784843019E-1    4.711381781686246E-1
 8.150301093350000E9     4.443969454572918E-2    5.367610481814199E-1   -2.595793788657448E-3    6.038211150074321E-4   -2.597668398426517E-3    6.246993914251336E-4    1.945648242483814E-1    4.706672125249748E-1
 8.150311093000000E9     4.514204517483213E-2    5.367538570055349E-1   -2.592530106075560E-3    5.925960177273242E-4   -2.627832941404102E-3    6.596384399953860E-4    1.950820495345123E-1    4.705832075132031E-1
 8.150321092650000E9     4.579340301011001E-2    5.365916930748601E-1   -2.587836348938641E-3    5.936026787709563E-4   -2.607824103138532E-3    6.681299619233964E-4    1.957102589429616E-1    4.703520514481430E-1
 8.150331092300000E9     4.645352577871344E-2    5.367306413245729E-1   -2.597778104015896E-3    5.989656824749070E-4   -2.604540485895118E-3    6.542233063912978E-4    1.961978650139155E-1    4.701475679781718E-1
 8.150341091950000E9     4.712778450551357E-2    5.367146159134524E-1   -2.592448743187670E-3    5.973178707433933E-4   -2.593162450587965E-3    6.636670526328231E-4    1.969463108585895E-1    4.698649103506435E-1
 8.150351091600000E9     4.780953251856404E-2    5.366284064126797E-1   -2.600451684436343E-3    6.202554242173902E-4   -2.581507689786039E-3    6.272911144805739E-4    1.973996979180175E-1    4.694604064996024E-1
 8.150361091250000E9     4.856301412538186E-2    5.363697701011984E-1   -2.586820664280325E-3    6.100907776298719E-4   -2.596631241318683E-3    6.440943046557016E-4    1.979405415085249E-1    4.693326266242278E-1
 8.150371090900000E9     4.918907590923270E-2    5.365290125755839E-1   -2.560059480264726E-3    5.954452101718776E-4   -2.599556806663015E-3    6.441360275630715E-4    1.986701324294843E-1    4.689635918671821E-1
 8.150381090550000E9     4.996943334078726E-2    5.364243355128571E-1   -2.589378925502758E-3    6.049841939925660E-4   -2.634070918258292E-3    6.447049479254255E-4    1.991298917537489E-1    4.687362481574033E-1
 8.150391090200000E9     5.068803381814550E-2    5.363723857949957E-1   -2.581999817325581E-3    6.018479248657671E-4   -2.593653479396241E-3    6.719300187685324E-4    1.996740418551051E-1    4.684475870175768E-1
 8.150401089850000E9     5.132453301020905E-2    5.363302622847402E-1   -2.594006888496348E-3    6.408920231969015E-4   -2.584747377445894E-3    6.910400005117521E-4    2.002824408942860E-1    4.682407486261001E-1
 8.150411089500000E9     5.213613256784589E-2    5.362012362711898E-1   -2.584402627745972E-3    6.380605211147551E-4   -2.620810237551893E-3    6.654821697070470E-4    2.010301964426113E-1    4.680248318710377E-1
 8.150421089150000E9     5.275102179025837E-2    5.361903058032176E-1   -2.583917223812032E-3    6.113132064752282E-4   -2.579405022626788E-3    6.802374117964735E-4    2.014180363855555E-1    4.677194693492633E-1
 8.150431088800000E9     5.342202595100186E-2    5.362349267146526E-1   -2.617976446160086E-3    6.367938601039961E-4   -2.574853419070649E-3    6.902852461522472E-4    2.020558691990942E-1    4.674650503857356E-1
 8.150441088450000E9     5.408523360458563E-2    5.360988231377087E-1   -2.589867441327609E-3    6.468217722176690E-4   -2.611001151790726E-3    7.021847014289501E-4    2.027541154471501E-1    4.670414195582710E-1
 8.150451088100000E9     5.472985087188572E-2    5.360990887313013E-1   -2.586915212817397E-3    6.602282224405420E-4   -2.625271487649039E-3    6.908406664192379E-4    2.031595160190665E-1    4.669821658127424E-1
 8.150461087750000E9     5.564247932936792E-2    5.359072511298050E-1   -2.579804901738216E-3    6.465392933830270E-4   -2.590857129835843E-3    7.263815135493917E-4    2.038134949511205E-1    4.666345958050899E-1
 8.150471087400000E9     5.615538695504984E-2    5.358741942046538E-1   -2.587082502727965E-3    6.544959453165903E-4   -2.594142435495598E-3    6.912175817414350E-4    2.043587774119405E-1    4.663961321087572E-1
 8.150481087050000E9     5.683792086851740E-2    5.358345024355584E-1   -2.613090626354765E-3    6.571205136148324E-4   -2.622539588971016E-3    6.952876545553960E-4    2.048199655985064E-1    4.661631807282717E-1
 8.150491086700000E9     5.772220088953643E-2    5.358534904254233E-1   -2.597048252802054E-3    6.370136212761946E-4   -2.583806621840391E-3    7.378719936049186E-4    2.055210691965818E-1    4.658363546824797E-1
 8.150501086350000E9     5.829659877053985E-2    5.358106794724719E-1   -2.579656762037062E-3    6.569875960146268E-4   -2.613909269447543E-3    7.215251218995907E-4    2.061679638253461E-1    4.655930124265997E-1
 8.150511086000000E9     5.906685446768180E-2    5.356891140963409E-1   -2.598776481339926E-3    6.550107885554879E-4   -2.615352340668458E-3    7.140637794788888E-4    2.068125015698637E-1    4.652743508427725E-1
 8.150521085650000E9     5.970884363763966E-2    5.356349250892132E-1   -2.570928327635798E-3    6.749757824979598E-4   -2.572707243444511E-3    7.044306347466033E-4    2.073676701849716E-1    4.649707474469547E-1
 8.150531085300000E9     6.036885692780081E-2    5.356798854504375E-1   -2.561957960033634E-3    6.688678164074131E-4   -2.593900301903295E-3    7.144394337809714E-4    2.080053685056756E-1    4.648524909737726E-1
 8.150541084950000E9     6.104482588147488E-2    5.355754500930665E-1   -2.548469334575522E-3    6.662351967396574E-4   -2.603817786799987E-3    7.185498793381806E-4    2.085670413940258E-1    4.644049782355750E-1
 8.150551084600000E9     6.165901037704478E-2    5.356083190391200E-1   -2.575136295697725E-3    6.793222418120996E-4   -2.593386400088565E-3    7.159209329439794E-4    2.090438284376367E-1    4.642573921187896E-1
 8.150561084250000E9     6.246871344787704E-2    5.353982823311318E-1   -2.565988678545392E-3    6.892873505886934E-4   -2.575836465590240E-3    7.415448853858346E-4    2.095375684590192E-1    4.639353113854096E-1
 8.150571083900000E9     6.328050675218500E-2    5.353455764340034E-1   -2.581281644483957E-3    7.195995759250495E-4   -2.608007588810999E-3    7.169982102864073E-4    2.101965801312343E-1    4.636617797255689E-1
 8.150581083550000E9     6.375568047809273E-2    5.352508035382936E-1   -2.558337099252498E-3    7.065310167342135E-4   -2.593969884496919E-3    7.465834073379893E-4    2.107683701300521E-1    4.632923007349305E-1
 8.150591083200000E9     6.456963433467455E-2    5.351451089421624E-1   -2.575026324597364E-3    6.843400976345074E-4   -2.576239391731965E-3    7.190749727455637E-4    2.113700076488381E-1    4.630112175808760E-1
 8.150601082850000E9     6.520201798024387E-2    5.351468885846201E-1   -2.539548820856729E-3    6.884138899753228E-4   -2.602796113570529E-3    7.377737131191967E-4    2.118836729945243E-1    4.627012200706872E-1
 8.150611082500000E9     6.587404317330967E-2    5.351319587563668E-1   -2.588093899692329E-3    6.995457923845524E-4   -2.580935782107972E-3    7.615252264295040E-4    2.126579727972769E-1    4.624496100161749E-1
 8.150621082150000E9     6.656447303020367E-2    5.349571226337286E-1   -2.571888667839765E-3    6.932759331272640E-4   -2.565933405247641E-3    7.876480345612927E-4    2.131671391456483E-1    4.623677484068943E-1
 8.150631081800000E9     6.737197607523078E-2    5.349035058537006E-1   -2.607026145533807E-3    7.236538897991911E-4   -2.617724300842886E-3    7.398407099780052E-4    2.136043391624126E-1    4.620675785948876E-1
 8.150641081450000E9     6.802271336301120E-2    5.349548081345548E-1   -2.596627893828534E-3    7.049798037333888E-4   -2.588733388884967E-3    7.755889958472069E-4    2.143020944427224E-1    4.617569468404319E-1
 8.150651081100000E9     6.876166008200306E-2    5.347246383238502E-1   -2.584372684700386E-3    7.174789611691556E-4   -2.602789536196652E-3    7.724869048064826E-4    2.148374521580796E-1    4.612585133447997E-1
 8.150661080750000E9     6.936141885648418E-2    5.347856598682590E-1   -2.563253099305841E-3    7.255535769787832E-4   -2.619202683172290E-3    7.807769404050739E-4    2.154679671200623E-1    4.611284854364475E-1
 8.150671080400000E9     7.008755082149043E-2    5.346286773119669E-1   -2.572093043737306E-3    7.308774101263784E-4   -2.597606675542778E-3    7.774997603695400E-4    2.159172747926816E-1    4.608138283540925E-1
 8.150681080050000E9     7.082726842585228E-2    5.346880499304828E-1   -2.578169903125961E-3    7.315303611344747E-4   -2.616241247131498E-3    8.024353318497470E-4    2.165671946761982E-1    4.605016500382167E-1
 8.150691079700000E9     7.153599539030117E-2    5.345988570708415E-1   -2.570662277569483E-3    7.574086481305852E-4   -2.584548410480871E-3    7.694424379304762E-4    2.170868861877466E-1    4.602665361006935E-1
 8.150701079350000E9     7.223991282924015E-2    5.344031478110455E-1   -2.584066829420026E-3    7.326933913483087E-4   -2.607104404380633E-3    7.848163066416544E-4    2.176551507263448E-1    4.601118933161555E-1
 8.150711079000000E9     7.288137148804633E-2    5.343696649591508E-1   -2.584554536478379E-3    7.117773837483701E-4   -2.602553783645532E-3    7.758252214293400E-4    2.183004284524377E-1    4.596095503902700E-1
 8.150721078650000E9     7.358313647525266E-2    5.341674811170454E-1   -2.565301387153795E-3    7.450771133993612E-4   -2.603214085661674E-3    7.944370192405580E-4    2.188995586812933E-1    4.594246300532777E-1
 8.150731078300000E9     7.424545513514968E-2    5.341739806611029E-1   -2.555432723531045E-3    7.126816784753631E-4   -2.572078753606047E-3    8.159230755495816E-4    2.193711127970939E-1    4.590908926409970E-1
 8.150741077950000E9     7.481575004553345E-2    5.341664033698835E-1   -2.584907145511102E-3    7.705831806100645E-4   -2.576443987912387E-3    7.803408670845062E-4    2.200509040429945E-1    4.587425298853084E-1
 8.150751077600000E9     7.562822613779570E-2    5.340097061895300E-1   -2.567176482181951E-3    7.521719870813599E-4   -2.592033756540845E-3    7.997313456211805E-4    2.207393330804348E-1    4.585193725252349E-1
 8.150761077250000E9     7.631137222659870E-2    5.338650375693833E-1   -2.548012420409447E-3    7.536917639282882E-4   -2.595296250513052E-3    8.119987111747996E-4    2.211363275480223E-1    4.581816308362073E-1
 8.150771076900000E9     7.712108325085014E-2    5.338615422875670E-1   -2.588861997975528E-3    7.731823201121246E-4   -2.591150038183503E-3    8.007200421016078E-4    2.216915623664122E-1    4.580021326894098E-1
 8.150781076550000E9     7.772451499087285E-2    5.337560983898338E-1   -2.553849155397608E-3    7.578787715855591E-4   -2.550274818072666E-3    8.294510897324731E-4    2.223671687739161E-1    4.576550719860992E-1
 8.150791076200000E9     7.829900402198911E-2    5.337334723040168E-1   -2.585330876349588E-3    7.716679341397293E-4   -2.607494855163753E-3    7.956699976020266E-4    2.228044670015104E-1    4.573024506814030E-1
 8.150801075850000E9     7.914843786600100E-2    5.336036238553543E-1   -2.571303422510527E-3    7.849703840705432E-4   -2.605924076540601E-3    8.012525744172535E-4    2.234246693170012E-1    4.570900121533988E-1
 8.150811075500000E9     7.984617454085083E-2    5.335758983114800E-1   -2.591862436777870E-3    8.046210845630078E-4   -2.598076022714977E-3    8.067457351436126E-4    2.239989261964854E-1    4.566704947078855E-1
 8.150821075150000E9     8.048303081985846E-2    5.333612512353768E-1   -2.570554784427137E-3    7.917571582868651E-4   -2.586650637047370E-3    8.384897424243555E-4    2.245898790579906E-1    4.564046583235601E-1
 8.150831074800000E9     8.121579626367226E-2    5.334029125183685E-1   -2.568061252641874E-3    7.688049533979805E-4   -2.592777990171181E-3    8.258740345883404E-4    2.251652502317074E-1    4.560361324430198E-1
 8.150841074450000E9     8.193581502725127E-2    5.333215114891252E-1   -2.573713241316549E-3    7.997444146874897E-4   -2.588746560411379E-3    8.568429815809791E-4    2.256878979616648E-1    4.559191874097769E-1
 8.150851074100000E9     8.262677687404804E-2    5.331959502652291E-1   -2.568526393574323E-3    8.200275708362350E-4   -2.603882973176728E-3    8.364423720557620E-4    2.262448546220606E-1    4.556494796770125E-1
 8.150861073750000E9     8.319417210704802E-2    5.330781822823102E-1   -2.596221523376407E-3    7.630014993504320E-4   -2.603963085591641E-3    8.458257039855795E-4    2.267934859370817E-1    4.552998452159007E-1
 8.150871073400000E9     8.394786765875736E-2    5.329655109995026E-1   -2.615372611270811E-3    7.954602201847602E-4   -2.586478490238628E-3    8.613384777209838E-4    2.273899624147903E-1    4.549393317082065E-1
 8.150881073050000E9     8.472810072216232E-2    5.329760289796459E-1   -2.568431278386212E-3    8.189487755409208E-4   -2.586625179156853E-3    8.471638999508664E-4    2.278002036842744E-1    4.544828486516401E-1
 8.150891072700000E9     8.536577888666472E-2    5.328419866265358E-1   -2.590113516549570E-3    7.974044485966792E-4   -2.592830298329703E-3    8.849731824744599E-4    2.284414789926657E-1    4.544098862419261E-1
 8.150901072350000E9     8.603312117653190E-2    5.327654910642859E-1   -2.563305330338757E-3    8.172788173079671E-4   -2.624616166896120E-3    8.704898186523558E-4    2.290654092389838E-1    4.539932807910216E-1
 8.150911072000000E9     8.680094021702976E-2    5.325916106703286E-1   -2.602241522499032E-3    8.201010965294058E-4   -2.594382273062043E-3    8.764038547188172E-4    2.296142100793552E-1    4.539522453657309E-1
 8.150921071650000E9     8.748159083911680E-2    5.324613940000769E-1   -2.571168111509081E-3    8.069131094704610E-4   -2.580967036438869E-3    8.636727064926265E-4    2.301882962347040E-1    4.533740821008787E-1
 8.150931071300000E9     8.809562141920711E-2    5.324807687809554E-1   -2.608754819061572E-3    8.292160368010825E-4   -2.633406287620666E-3    8.537810053558605E-4    2.307742566914846E-1    4.531679332347463E-1
 8.150941070950000E9     8.882160472929611E-2    5.322692362575148E-1   -2.592186420653464E-3    8.269022553274586E-4   -2.567580266358782E-3    8.799548847053082E-4    2.313238641255705E-1    4.528504967595375E-1
 8.150951070600000E9     8.951090997390093E-2    5.321585876800801E-1   -2.592478309046810E-3    8.330537280535825E-4   -2.578965242258834E-3    8.810408144201055E-4    2.318925479817398E-1    4.525237313166383E-1
 8.150961070250000E9     9.010981773260697E-2    5.320288052284140E-1   -2.566764813698694E-3    8.294208055522532E-4   -2.555282005042993E-3    8.696750322878372E-4    2.324659737454286E-1    4.523868792248726E-1
 8.150971069900000E9     9.088761055527679E-2    5.319099072101551E-1   -2.591009821464369E-3    8.280622717120487E-4   -2.576708551955652E-3    8.796108196660671E-4    2.330745073853446E-1    4.519118411868639E-1
 8.150981069550000E9     9.154352441058951E-2    5.317759142551858E-1   -2.581028673102305E-3    8.607408673855074E-4   -2.586572177393999E-3    9.064248430713566E-4    2.335805332423318E-1    4.516588490096988E-1
 8.150991069200000E9     9.222172294617285E-2    5.318507512689924E-1   -2.569573958494090E-3    8.590994941410198E-4   -2.580014186061146E-3    9.129867367267557E-4    2.341392921866396E-1    4.514319919535391E-1
 8.151001068850000E9     9.301085335399542E-2    5.317333467397323E-1   -2.575752113994975E-3    8.521311290860645E-4   -2.608650739711909E-3    9.237315291439392E-4    2.346488001043766E-1    4.510360913660068E-1
 8.151011068500000E9     9.359799850801565E-2    5.314698822719499E-1   -2.583614216090274E-3    8.743563588212198E-4   -2.557861274881299E-3    9.327231920102904E-4    2.352262971737109E-1    4.505102234535132E-1
