#  HZ   S   RI   R     50.00 
! Rohde & Schwarz Vector Network Analyzer 
! Rohde-Schwarz,ZNB20-2Port,1311601062101988,3.16
! Created: UTC 3/21/2024, 1:12:12 AM
! freq[Hz]                re:S11                  im:S11                  re:S21                  im:S21                  re:S12                  im:S12                  re:S22                  im:S22
 8.150206144000000E9     3.752518799208152E-2    5.371219990308903E-1   -2.591180655844061E-3    5.234499872676237E-4   -2.578462502202582E-3    5.889468939312560E-4    1.886967175259115E-1    4.732673079093904E-1
 8.150215781675000E9     3.816413407641912E-2    5.371253523495803E-1   -2.569903985372800E-3    5.712241257430769E-4   -2.611542941608313E-3    5.748797315165441E-4    1.892607712052410E-1    4.732201957254345E-1
 8.150225419350000E9     3.876705753518671E-2    5.370975776472503E-1   -2.571954849868501E-3    5.697242505152698E-4   -2.621076461134985E-3    6.309699922200839E-4    1.898462637243366E-1    4.728260502383775E-1
 8.150235057025000E9     3.946760410688899E-2    5.370799239373127E-1   -2.578516087485190E-3    5.541108460235332E-4   -2.640576332083741E-3    6.169646833909749E-4    1.904675314084609E-1    4.726740045196035E-1
 8.150244694700000E9     4.022281474084293E-2    5.370162567335334E-1   -2.574308580981371E-3    5.594979560265879E-4   -2.596054904298456E-3    6.269141437368694E-4    1.909976717161462E-1    4.724378860368147E-1
 8.150254332375000E9     4.083345481844614E-2    5.368525631104729E-1   -2.552381286764085E-3    5.568355883125055E-4   -2.613434363109766E-3    6.128220932101116E-4    1.915298620145397E-1    4.722343156975555E-1
 8.150263970050000E9     4.148292323086000E-2    5.369428342308464E-1   -2.590281222517849E-3    5.511153930742492E-4   -2.599810310844023E-3    6.329240331993600E-4    1.921884747874871E-1    4.720248457256685E-1
 8.150273607725000E9     4.217142446210053E-2    5.369397801678584E-1   -2.567968922082290E-3    5.617067636207546E-4   -2.599262803520729E-3    6.362539490416918E-4    1.926974338519532E-1    4.717871445226260E-1
 8.150283245400000E9     4.285035198449338E-2    5.368183738140675E-1   -2.600845674910755E-3    6.052117393340530E-4   -2.590543034440940E-3    6.120451333800494E-4    1.933659597948243E-1    4.714592060351770E-1
 8.150292883075000E9     4.361369619602031E-2    5.368131986162223E-1   -2.555806330328665E-3    5.869323311427574E-4   -2.618666868817325E-3    6.017276653482727E-4    1.938689322679136E-1    4.712503518191263E-1
 8.150302520750000E9     4.428161588853492E-2    5.368154138308155E-1   -2.578505745522262E-3    5.760089990175723E-4   -2.588415954432219E-3    6.360184010536419E-4    1.945240813272722E-1    4.708829630029476E-1
 8.150312158425000E9     4.501466792645765E-2    5.369214319874720E-1   -2.570345758727690E-3    5.639040297799322E-4   -2.577909385658514E-3    6.630579689116356E-4    1.950591907176878E-1    4.707276604856974E-1
 8.150321796100000E9     4.558205704999176E-2    5.367207881540902E-1   -2.591476028646765E-3    5.911649367638497E-4   -2.589359824660234E-3    6.475925173274757E-4    1.954523118459442E-1    4.704310527049108E-1
 8.150331433775000E9     4.629893270919420E-2    5.366569610852688E-1   -2.591136564510013E-3    5.912481681616253E-4   -2.598860132747122E-3    6.102463477610775E-4    1.962079698305241E-1    4.702158549937999E-1
 8.150341071450000E9     4.706463478432615E-2    5.365395410058340E-1   -2.605438832019280E-3    6.109271827136716E-4   -2.648393134594001E-3    6.025056913462076E-4    1.967452917255188E-1    4.700644552737727E-1
 8.150350709125000E9     4.759973906825981E-2    5.365739513187109E-1   -2.572710144681157E-3    6.031471340648187E-4   -2.616836134346722E-3    6.571624215463233E-4    1.973244977722776E-1    4.697712780066751E-1
 8.150360346800000E9     4.835857396821779E-2    5.365200538067851E-1   -2.569533326088447E-3    6.083863097281371E-4   -2.604014517231332E-3    6.727343271038701E-4    1.978435538472660E-1    4.693781690318548E-1
 8.150369984475000E9     4.896702587944032E-2    5.365315704109158E-1   -2.584941518533192E-3    6.241663731138697E-4   -2.600552544329351E-3    6.570468021061971E-4    1.984040150318280E-1    4.693262718779654E-1
 8.150379622150000E9     4.966202475093550E-2    5.364350103015482E-1   -2.570568998858481E-3    6.256475626169811E-4   -2.600876359716043E-3    6.506530137220114E-4    1.990308528828802E-1    4.689645351732805E-1
 8.150389259825000E9     5.016572754814906E-2    5.363258782084259E-1   -2.580488873362442E-3    6.231898046231134E-4   -2.592281888473231E-3    6.665502447407675E-4    1.995662180596281E-1    4.686643204851156E-1
 8.150398897500000E9     5.104374428587109E-2    5.363774308070436E-1   -2.576030011363207E-3    6.483385589246282E-4   -2.630901277511288E-3    6.753388912123566E-4    2.000688738882683E-1    4.684503515827975E-1
 8.150408535175000E9     5.158409211541196E-2    5.363865006829414E-1   -2.586194416668193E-3    6.392410829405605E-4   -2.584161871300119E-3    6.500695747236774E-4    2.007181259165551E-1    4.682865482294825E-1
 8.150418172850000E9     5.234467307532306E-2    5.361462062994519E-1   -2.567877514041374E-3    6.149321056867048E-4   -2.602795139926541E-3    6.532964611442943E-4    2.012968571070424E-1    4.678882966839268E-1
 8.150427810525000E9     5.288682845615059E-2    5.362481935612579E-1   -2.557627098771614E-3    6.208751327052974E-4   -2.602340081872738E-3    6.855030495712566E-4    2.018114216027539E-1    4.676472252269788E-1
 8.150437448200000E9     5.369818915100374E-2    5.361889516606285E-1   -2.552822162174400E-3    6.293593044286617E-4   -2.616277462734741E-3    7.054529829034973E-4    2.024064773631472E-1    4.673617053840690E-1
 8.150447085875000E9     5.424847545900220E-2    5.361164982795027E-1   -2.566324118051460E-3    6.358382598220469E-4   -2.612805779568810E-3    6.869607369736538E-4    2.030123483998459E-1    4.671053956490063E-1
 8.150456723550000E9     5.490862130472394E-2    5.358840912117558E-1   -2.569587975240032E-3    6.405070729089915E-4   -2.621125627093982E-3    6.915358583392739E-4    2.035796159055821E-1    4.669925726205256E-1
 8.150466361225000E9     5.558893039756537E-2    5.359259966566741E-1   -2.592134768599298E-3    6.491536062870783E-4   -2.547784660110768E-3    6.864068076559679E-4    2.040887425515639E-1    4.664779859664236E-1
 8.150475998900000E9     5.635284172474034E-2    5.360012082636224E-1   -2.574605461258266E-3    6.490723280627755E-4   -2.577707227193625E-3    6.912588662234811E-4    2.046394138998293E-1    4.664883669518897E-1
 8.150485636575000E9     5.711990395340785E-2    5.358539625269895E-1   -2.593574389325147E-3    6.677397254989709E-4   -2.597231919065504E-3    7.539532005271990E-4    2.053022943127578E-1    4.661672624098445E-1
 8.150495274250000E9     5.761261764878418E-2    5.358533304842238E-1   -2.564083617970763E-3    6.545608771770930E-4   -2.591165481055587E-3    7.115279412001159E-4    2.057022405839234E-1    4.659004172602640E-1
 8.150504911925000E9     5.839121057295576E-2    5.357284431271809E-1   -2.577516174948678E-3    6.310960307459151E-4   -2.566735903491911E-3    7.045651811508407E-4    2.063327360922064E-1    4.657016263440101E-1
 8.150514549600000E9     5.895193689852044E-2    5.357427214839307E-1   -2.585280556010642E-3    6.627947508498026E-4   -2.623316610835990E-3    7.336258843122802E-4    2.068478146370251E-1    4.654773498656763E-1
 8.150524187275000E9     5.960555562212892E-2    5.356587007861543E-1   -2.587236348250097E-3    6.778863893149455E-4   -2.563426431467693E-3    6.841683356713116E-4    2.073662152159347E-1    4.652079449698806E-1
 8.150533824950000E9     6.041780536331422E-2    5.355479818782194E-1   -2.565415016196845E-3    6.726726209282240E-4   -2.632469233626698E-3    7.103637328756236E-4    2.079768739023321E-1    4.647665951569776E-1
 8.150543462625000E9     6.108638851888314E-2    5.355115016775692E-1   -2.570331124865352E-3    6.593623853740837E-4   -2.585243106960229E-3    7.409832390819836E-4    2.084528096216504E-1    4.646464698889570E-1
 8.150553100300000E9     6.183883841258898E-2    5.354152426432275E-1   -2.572908028814650E-3    6.744463756920972E-4   -2.555648285260965E-3    7.360525492187421E-4    2.091331931596256E-1    4.642469781308293E-1
 8.150562737975000E9     6.237610331715666E-2    5.353480563997922E-1   -2.563443918574231E-3    6.999541200550858E-4   -2.570104929001458E-3    7.285313028087779E-4    2.097339902560325E-1    4.639498759638906E-1
 8.150572375650000E9     6.310781230163176E-2    5.354284437292923E-1   -2.567817221065729E-3    6.980229968510520E-4   -2.573974559232988E-3    7.263445915638458E-4    2.101019996173470E-1    4.637221842447516E-1
 8.150582013325000E9     6.368582805257418E-2    5.353204143843929E-1   -2.586926392208929E-3    7.059223232239055E-4   -2.586122042318885E-3    7.469617572714944E-4    2.108023135426566E-1    4.635536275757428E-1
 8.150591651000000E9     6.439712385083925E-2    5.352152653892003E-1   -2.591960423352424E-3    6.981655723709187E-4   -2.565755166040127E-3    7.573163705269040E-4    2.113817399777983E-1    4.632153686698482E-1
 8.150601288675000E9     6.505761314905532E-2    5.350962708972201E-1   -2.550933948906836E-3    7.072042642491422E-4   -2.616580242391864E-3    7.166617662478164E-4    2.118841312888940E-1    4.629038049338077E-1
 8.150610926350000E9     6.566378967198086E-2    5.350599205875939E-1   -2.586439624341230E-3    6.834705413558665E-4   -2.603995783527868E-3    7.344352298686707E-4    2.124518742333564E-1    4.624283150313681E-1
 8.150620564025000E9     6.642881707225939E-2    5.349088026113368E-1   -2.596580266857508E-3    6.866936311530290E-4   -2.618566422683402E-3    7.817039693184493E-4    2.130209049389469E-1    4.623275832159761E-1
 8.150630201700000E9     6.708704980635012E-2    5.349441447468529E-1   -2.585050635283275E-3    7.374453814315055E-4   -2.594529999690606E-3    7.517382415515182E-4    2.135659604393253E-1    4.621468918001284E-1
 8.150639839375000E9     6.777772808766427E-2    5.349171790742432E-1   -2.584282098980992E-3    7.375680021883100E-4   -2.596730667665315E-3    7.345233759502764E-4    2.140461509768861E-1    4.618348182346233E-1
 8.150649477050000E9     6.851129149930646E-2    5.349424228518823E-1   -2.574940175982662E-3    7.090178601993375E-4   -2.608841536464891E-3    7.605288470815539E-4    2.145586119783092E-1    4.616494240974118E-1
 8.150659114725000E9     6.906124038344695E-2    5.348069110665257E-1   -2.570823173993131E-3    7.172682152543915E-4   -2.601923027016216E-3    7.421637298224781E-4    2.151685842626793E-1    4.612614046950882E-1
 8.150668752400000E9     6.970603325117772E-2    5.347312476349696E-1   -2.575592759030923E-3    7.265569829299570E-4   -2.600439235932340E-3    7.638484901620017E-4    2.157237612002906E-1    4.610751454054351E-1
 8.150678390075000E9     7.041071068050628E-2    5.345814524197101E-1   -2.561495786230319E-3    7.044323691989567E-4   -2.594442678014894E-3    7.817435001968607E-4    2.164671176730427E-1    4.608289970774933E-1
 8.150688027750000E9     7.121200615522370E-2    5.344942852242432E-1   -2.583187003581404E-3    7.436033296051613E-4   -2.615361655600165E-3    7.637249457825275E-4    2.169469769892455E-1    4.603601245164623E-1
 8.150697665425000E9     7.172360074623775E-2    5.343841560673671E-1   -2.587552039571561E-3    7.230284249884158E-4   -2.577962098492134E-3    7.845703016615610E-4    2.173342714494014E-1    4.602459382646554E-1
 8.150707303100000E9     7.246570231824792E-2    5.343799212501771E-1   -2.540141138842516E-3    7.465941910024313E-4   -2.580796521489203E-3    7.951054321493511E-4    2.178057256804599E-1    4.598780662574283E-1
 8.150716940775000E9     7.313308600744824E-2    5.343020828694410E-1   -2.586147439085633E-3    7.471272602248695E-4   -2.607191712731812E-3    8.129835983463030E-4    2.185155661069742E-1    4.596787713323797E-1
 8.150726578450000E9     7.379336816652446E-2    5.342000926536351E-1   -2.577291594471274E-3    7.579315261486891E-4   -2.605295154753039E-3    7.859615840749350E-4    2.192463162919222E-1    4.593623788213815E-1
 8.150736216125000E9     7.435580252667184E-2    5.341128961608895E-1   -2.553969251068770E-3    7.589203176937161E-4   -2.580888310425980E-3    8.002684354807227E-4    2.196381019776021E-1    4.590704656081246E-1
 8.150745853800000E9     7.505454567098126E-2    5.340186384962680E-1   -2.572952597168467E-3    7.284993468663386E-4   -2.599497451426339E-3    7.532050180104555E-4    2.201482627771862E-1    4.588362189463411E-1
 8.150755491475000E9     7.575469385750593E-2    5.340300153554062E-1   -2.567848051118891E-3    7.432388642169829E-4   -2.587925080279223E-3    8.238832821688849E-4    2.206087609954058E-1    4.585811120174609E-1
 8.150765129150000E9     7.649250876644358E-2    5.338455357605602E-1   -2.582394287873706E-3    7.295974518441637E-4   -2.584505138339157E-3    7.948007506565731E-4    2.213667577108007E-1    4.581607229075016E-1
 8.150774766825000E9     7.707245678488325E-2    5.336692686753042E-1   -2.554366784215090E-3    7.795917389586320E-4   -2.568471844052899E-3    8.075929099236429E-4    2.218140071874821E-1    4.579543777751841E-1
 8.150784404500000E9     7.772853247823414E-2    5.337073738433576E-1   -2.551607139020238E-3    7.583178495318925E-4   -2.584044726989993E-3    8.091394497526914E-4    2.222817369884693E-1    4.577119126884960E-1
 8.150794042175000E9     7.841867934169097E-2    5.337390238060777E-1   -2.560468634842666E-3    7.504383482354926E-4   -2.562528597872905E-3    8.518914486637216E-4    2.229645837851759E-1    4.573298923811222E-1
 8.150803679850000E9     7.897827055152659E-2    5.336511787619520E-1   -2.555810124022922E-3    7.786267668920241E-4   -2.548147489783165E-3    8.307290068137966E-4    2.233648194254582E-1    4.572678799481688E-1
 8.150813317525000E9     7.978600308717963E-2    5.334921950069400E-1   -2.576834462653996E-3    7.622366504872038E-4   -2.609109386287353E-3    8.232079693239540E-4    2.240689207617754E-1    4.569105643759188E-1
 8.150822955200000E9     8.030133503296710E-2    5.334432104939607E-1   -2.579169739275318E-3    7.627825994482730E-4   -2.585792489925508E-3    8.284385167704470E-4    2.246491971082595E-1    4.566653669047951E-1
 8.150832592875000E9     8.110212964183189E-2    5.332694474215064E-1   -2.584366653523290E-3    8.036155665982356E-4   -2.599316612558453E-3    8.328569174022213E-4    2.251540328491302E-1    4.563711525598987E-1
 8.150842230550000E9     8.183051552335228E-2    5.331986545671877E-1   -2.541026061932272E-3    7.917615596302650E-4   -2.568194835194269E-3    8.473810554328372E-4    2.257218287569736E-1    4.560301463021562E-1
 8.150851868225000E9     8.241083268772921E-2    5.331963007558824E-1   -2.581590718269795E-3    7.867612198241526E-4   -2.578808984250276E-3    8.278110569464333E-4    2.261641211466205E-1    4.557789386274672E-1
 8.150861505900000E9     8.299903771927941E-2    5.329385066150831E-1   -2.588604076331184E-3    8.047221715769452E-4   -2.579559586319743E-3    8.678955944559226E-4    2.268454131960652E-1    4.554021130052079E-1
 8.150871143575000E9     8.384169268039844E-2    5.329375225649087E-1   -2.589735584956129E-3    7.881894645245337E-4   -2.572204594401168E-3    8.491956558788293E-4    2.273200118330637E-1    4.551128772465656E-1
 8.150880781250000E9     8.445396689312254E-2    5.328455129128264E-1   -2.591559386747183E-3    7.890355430169450E-4   -2.588233802584924E-3    8.437593881355072E-4    2.278376815899234E-1    4.548299164422980E-1
 8.150890418925000E9     8.504355867569501E-2    5.327820113653825E-1   -2.586128131163201E-3    8.044284048728373E-4   -2.579532140461301E-3    8.347972934409240E-4    2.284217327415616E-1    4.544864547378872E-1
 8.150900056600000E9     8.575545128675219E-2    5.326804303731183E-1   -2.569023124815218E-3    8.166206490710253E-4   -2.579602838152456E-3    8.363926710667128E-4    2.289935876926648E-1    4.542395407574179E-1
 8.150909694275000E9     8.637180132436749E-2    5.326290783872689E-1   -2.554142654487973E-3    8.198724143564473E-4   -2.599849380024658E-3    8.643488193949343E-4    2.294202169903069E-1    4.540106388176915E-1
 8.150919331950000E9     8.708957452104869E-2    5.325266344604750E-1   -2.577279430147916E-3    8.194288872051037E-4   -2.586420303603475E-3    8.686948347904039E-4    2.300729340289033E-1    4.536586738310786E-1
 8.150928969625000E9     8.773513889842921E-2    5.324032967238372E-1   -2.573530438542245E-3    8.244639180480262E-4   -2.577349866420707E-3    8.786970613746118E-4    2.305976746999914E-1    4.534273400890224E-1
 8.150938607300000E9     8.841954924473816E-2    5.322357378421838E-1   -2.585871421371241E-3    8.169031644242853E-4   -2.601620818065572E-3    8.716685245797543E-4    2.312350704002664E-1    4.530465802350043E-1
 8.150948244975000E9     8.912266717428376E-2    5.321708357826315E-1   -2.590698155806172E-3    8.434216786368322E-4   -2.568318068475058E-3    8.988926083405114E-4    2.317327849443017E-1    4.528089205997297E-1
 8.150957882650000E9     8.970149935906610E-2    5.321177874032550E-1   -2.556086940060411E-3    8.398468791217134E-4   -2.580318397657373E-3    9.154060018676959E-4    2.322109798164849E-1    4.526852773276974E-1
 8.150967520325000E9     9.045758307308904E-2    5.321144828102815E-1   -2.556268017538668E-3    8.363675758888984E-4   -2.576410872548988E-3    8.824588405939986E-4    2.327584459066434E-1    4.521515317645006E-1
 8.150977158000000E9     9.114740493217512E-2    5.320225831368995E-1   -2.588661533287720E-3    8.554503530685397E-4   -2.595995938373737E-3    8.735652510973821E-4    2.333614109657612E-1    4.519988525094685E-1
 8.150986795675000E9     9.173660758992944E-2    5.318339167629419E-1   -2.581237337554633E-3    8.391102818624856E-4   -2.594427352823545E-3    8.716259070990507E-4    2.338178811124727E-1    4.515527453002188E-1
 8.150996433350000E9     9.244060806990581E-2    5.317228849226630E-1   -2.557670900822367E-3    8.438552630297824E-4   -2.578745332584308E-3    9.161199149620639E-4    2.343548044052721E-1    4.513862972050605E-1
 8.151006071025000E9     9.303361877658303E-2    5.316666793918515E-1   -2.576183262614181E-3    8.672245150066128E-4   -2.592551526649707E-3    8.917493513985922E-4    2.349188790033412E-1    4.510024541120353E-1
 8.151015708700000E9     9.382663696713969E-2    5.314963967009013E-1   -2.608215613157304E-3    8.576748368401382E-4   -2.563404112757914E-3    9.452216568691822E-4    2.355045255559768E-1    4.506494281552557E-1
 8.151025346375000E9     9.438652113641716E-2    5.314296511721831E-1   -2.576697461808815E-3    8.824504911151560E-4   -2.586330454926386E-3    9.279108106695923E-4    2.359978645219944E-1    4.504284941445389E-1
 8.151034984050000E9     9.513252743081869E-2    5.313793646838915E-1   -2.582263755840402E-3    8.770892647211622E-4   -2.587317526184334E-3    9.174134054529602E-4    2.366206819093440E-1    4.502049048877703E-1
 8.151044621725000E9     9.577693935635670E-2    5.311283425024454E-1   -2.590530354874050E-3    8.893563457688167E-4   -2.596240261411999E-3    9.238757204414498E-4    2.371734447699036E-1    4.499196443733343E-1
 8.151054259400000E9     9.634586240718633E-2    5.310754321189005E-1   -2.575052686073328E-3    8.810196356937582E-4   -2.620517709353368E-3    9.455489157341043E-4    2.375809969034045E-1    4.495019480085594E-1
 8.151063897075000E9     9.710841618391393E-2    5.310125772708477E-1   -2.577250571500338E-3    8.753834708922211E-4   -2.602719534687288E-3    9.149515995892760E-4    2.382062596244144E-1    4.492715135429820E-1
 8.151073534750000E9     9.779527455233487E-2    5.308701267781442E-1   -2.561587042471026E-3    8.735768395628553E-4   -2.583683067100058E-3    9.455792462052652E-4    2.386018117284505E-1    4.489682341257821E-1
