#  HZ   S   RI   R     50.00 
! Rohde & Schwarz Vector Network Analyzer 
! Rohde-Schwarz,ZNB20-2Port,1311601062101988,3.16
! Created: UTC 3/21/2024, 1:12:24 AM
! freq[Hz]                re:S11                  im:S11                  re:S21                  im:S21                  re:S12                  im:S12                  re:S22                  im:S22
 8.150296932000000E9     4.355198285290904E-2    5.367826916391417E-1   -2.592848537317823E-3    5.834288197483534E-4   -2.601963700274725E-3    6.366107200061273E-4    1.938326528858348E-1    4.712313642456020E-1
 8.150306207050000E9     4.417054740377727E-2    5.367091361057704E-1   -2.582283105794316E-3    5.762521255081467E-4   -2.615061454838523E-3    6.430414930790969E-4    1.944820841609587E-1    4.709909117516543E-1
 8.150315482100000E9     4.495455145687856E-2    5.366791734979858E-1   -2.561857704208897E-3    6.013948946291491E-4   -2.583565125172423E-3    6.331458819791138E-4    1.949266303504684E-1    4.707565306352334E-1
 8.150324757150000E9     4.555554818032059E-2    5.366721304193967E-1   -2.585309564488202E-3    5.686783240721536E-4   -2.607042150395922E-3    6.530182378220677E-4    1.955854843615043E-1    4.704996800139138E-1
 8.150334032200000E9     4.627925713790708E-2    5.366985768476046E-1   -2.580145378438037E-3    5.968264128552547E-4   -2.594015136487611E-3    6.536209717980815E-4    1.962223979296175E-1    4.703367808876993E-1
 8.150343307250000E9     4.690114976868978E-2    5.366093579356562E-1   -2.596372379297534E-3    6.207689058132605E-4   -2.584833987842262E-3    6.290715684015444E-4    1.967876210997190E-1    4.700373459142197E-1
 8.150352582300000E9     4.758343051904697E-2    5.365131812773489E-1   -2.556135636664876E-3    5.869427458234755E-4   -2.616476214372514E-3    6.597631467852185E-4    1.972694044138521E-1    4.698012171284659E-1
 8.150361857350000E9     4.823880483423710E-2    5.364773815589766E-1   -2.575259341520337E-3    6.064665804067022E-4   -2.602263267290922E-3    6.494266262585902E-4    1.979093518219127E-1    4.695448362112131E-1
 8.150371132400000E9     4.887686881749259E-2    5.362644501207137E-1   -2.582970695758072E-3    5.799056121184445E-4   -2.590364225807307E-3    6.771816746235585E-4    1.984152067714316E-1    4.693140409454038E-1
 8.150380407450000E9     4.947166608574673E-2    5.365691115338477E-1   -2.577801727666014E-3    6.043618916173950E-4   -2.590845636542421E-3    6.783287635317725E-4    1.989706655853026E-1    4.690779364047719E-1
 8.150389682500000E9     5.020063697778663E-2    5.363377073811997E-1   -2.590903540104804E-3    6.104898531995041E-4   -2.603645141563614E-3    6.884212004337168E-4    1.994634597206401E-1    4.688103903923773E-1
 8.150398957550000E9     5.084589911368299E-2    5.362521734684587E-1   -2.570441771389785E-3    6.197467176759624E-4   -2.590342597998732E-3    6.748637463492012E-4    1.998736727948017E-1    4.685608894005031E-1
 8.150408232600000E9     5.145336992808276E-2    5.362926815720122E-1   -2.572157556072278E-3    6.278370831175837E-4   -2.591451777192073E-3    6.829429828077073E-4    2.005756446305222E-1    4.683465169132328E-1
 8.150417507650000E9     5.204426712813668E-2    5.361464551037909E-1   -2.579981981128879E-3    6.175952448567202E-4   -2.603690109850084E-3    6.553600737767637E-4    2.011916743831756E-1    4.681432757585320E-1
 8.150426782700000E9     5.277255684252119E-2    5.361844476560480E-1   -2.571714019783034E-3    6.168990123496824E-4   -2.581417340197711E-3    6.924411817784244E-4    2.017181961057813E-1    4.677333513760336E-1
 8.150436057750000E9     5.335889807655172E-2    5.360740533238472E-1   -2.559193555043101E-3    6.342734320899423E-4   -2.614692475938092E-3    6.584603523792794E-4    2.022905180558225E-1    4.675307100293696E-1
 8.150445332800000E9     5.402262224942868E-2    5.360867441292635E-1   -2.577892090842435E-3    6.427991397910381E-4   -2.590337945776955E-3    6.753096634348083E-4    2.025940630145269E-1    4.673849728641257E-1
 8.150454607850000E9     5.476449545231742E-2    5.361505819977324E-1   -2.546350413853819E-3    6.283468221803496E-4   -2.597528601369855E-3    6.888046422750871E-4    2.032162338076701E-1    4.670728350970029E-1
 8.150463882900000E9     5.531658763793990E-2    5.360384853631364E-1   -2.591520559062977E-3    6.378965823921954E-4   -2.626902872221258E-3    6.801836197599802E-4    2.038813991145035E-1    4.669139004141716E-1
 8.150473157950000E9     5.601417011490469E-2    5.358294935000816E-1   -2.558675266066117E-3    6.428699073760251E-4   -2.586736683278999E-3    7.007400283446106E-4    2.043619669263944E-1    4.666617937123512E-1
 8.150482433000000E9     5.668280859550101E-2    5.358261222346674E-1   -2.567226036877040E-3    6.539014119759391E-4   -2.596179411187914E-3    7.038025551212248E-4    2.049776966147946E-1    4.663201055436087E-1
 8.150491708050000E9     5.727450308298576E-2    5.357891452162242E-1   -2.583910201621064E-3    6.447507728367977E-4   -2.579802026244491E-3    7.039786685416786E-4    2.052828231779564E-1    4.660614411609172E-1
 8.150500983100000E9     5.786274733555676E-2    5.356758201176240E-1   -2.587285633603583E-3    6.450542040465070E-4   -2.595372728402162E-3    6.947420109915819E-4    2.059219898748684E-1    4.657545905121965E-1
 8.150510258150000E9     5.855516282271067E-2    5.357369901986972E-1   -2.567562614170288E-3    6.622537753129189E-4   -2.581510545003334E-3    6.980935007129343E-4    2.065309842343688E-1    4.654947749819566E-1
 8.150519533200000E9     5.921357418830320E-2    5.357117284368227E-1   -2.562586367816374E-3    6.540841946800007E-4   -2.588774205221809E-3    7.218935252208124E-4    2.070198344748246E-1    4.652087351459004E-1
 8.150528808250000E9     5.979452072971473E-2    5.355380602230251E-1   -2.583542870784456E-3    6.903901193609502E-4   -2.595198590105022E-3    7.257293120590740E-4    2.075207375278264E-1    4.650497269155351E-1
 8.150538083300000E9     6.052383479773052E-2    5.355648972612664E-1   -2.586389887846687E-3    6.502395086219533E-4   -2.583147686902162E-3    7.345966883662871E-4    2.080900817359098E-1    4.647430862844321E-1
 8.150547358350000E9     6.114255164143586E-2    5.354201330256333E-1   -2.583698536092527E-3    6.810777172492233E-4   -2.587486994385237E-3    7.100079667756629E-4    2.086758368715202E-1    4.646024425565521E-1
 8.150556633400000E9     6.176442819137164E-2    5.354339141081863E-1   -2.587658236035889E-3    6.897948799572301E-4   -2.614695157767162E-3    7.374867621465812E-4    2.092281240283270E-1    4.644636567712830E-1
 8.150565908450000E9     6.244697353931157E-2    5.353338838798025E-1   -2.587802663018539E-3    6.901756228818018E-4   -2.561968193638917E-3    7.200884765398615E-4    2.096725666745497E-1    4.639729113363308E-1
 8.150575183500000E9     6.303740066150848E-2    5.353256889527457E-1   -2.563970773468637E-3    6.967837183567648E-4   -2.573498443110597E-3    7.427105474718500E-4    2.102023164809706E-1    4.637898635551407E-1
 8.150584458550000E9     6.368856030093964E-2    5.352596693768454E-1   -2.569401723768571E-3    6.729075873983649E-4   -2.574551182149990E-3    7.155957748531432E-4    2.108502458108407E-1    4.635728052387718E-1
 8.150593733600000E9     6.436927824034012E-2    5.351994363208249E-1   -2.590364809139800E-3    6.882400019800318E-4   -2.626068611315986E-3    7.463022198764915E-4    2.112991245326863E-1    4.633655546806989E-1
 8.150603008650000E9     6.491892781723860E-2    5.351378559461389E-1   -2.559047525440982E-3    6.809455532777366E-4   -2.555554735217774E-3    7.493346873768012E-4    2.118234861995098E-1    4.629707982985221E-1
 8.150612283700000E9     6.575298907012463E-2    5.349616165941203E-1   -2.599031287611084E-3    6.999427582225778E-4   -2.590003446460437E-3    7.792702685882767E-4    2.124459317151586E-1    4.628533580908365E-1
 8.150621558750000E9     6.627639065996126E-2    5.350386906614544E-1   -2.575234561891551E-3    6.919414952154091E-4   -2.593158941928910E-3    7.513624464214007E-4    2.129851123969877E-1    4.624312739333990E-1
 8.150630833800000E9     6.693949305616788E-2    5.350119958289826E-1   -2.592040873392601E-3    7.195441287813696E-4   -2.637693544513374E-3    7.746276865871510E-4    2.134898384235367E-1    4.623773132672661E-1
 8.150640108850000E9     6.757178521751872E-2    5.349008857156367E-1   -2.579475367239665E-3    6.846348074973862E-4   -2.614476170734072E-3    7.679452825639059E-4    2.140295327570306E-1    4.618152927885460E-1
 8.150649383900000E9     6.816568341793326E-2    5.347415656182782E-1   -2.591489054781700E-3    7.091747299516248E-4   -2.595975546861086E-3    7.351775474205958E-4    2.145041212645422E-1    4.617486166675996E-1
 8.150658658950000E9     6.879874416861563E-2    5.347107775693246E-1   -2.580545717262848E-3    7.036157163972850E-4   -2.571777336124328E-3    7.829108304187337E-4    2.150990889610754E-1    4.613140510732366E-1
 8.150667934000000E9     6.960994282777290E-2    5.346529280416923E-1   -2.594919576808733E-3    7.220147772081580E-4   -2.609806493595775E-3    7.956017833395271E-4    2.156417534561874E-1    4.612516215747500E-1
 8.150677209050000E9     7.010593127363846E-2    5.345541663045499E-1   -2.583994087164931E-3    7.184817988829631E-4   -2.565306228822509E-3    7.800936208401831E-4    2.161387951713332E-1    4.608055515825334E-1
 8.150686484100000E9     7.077684060979444E-2    5.344973726089869E-1   -2.553971285312074E-3    7.212153260108504E-4   -2.628720157989889E-3    7.534340059529458E-4    2.166148954660052E-1    4.606919101470177E-1
 8.150695759150000E9     7.152893077722226E-2    5.343480122671885E-1   -2.560681600636028E-3    7.448190675530458E-4   -2.571410962507964E-3    7.762026089644689E-4    2.170491658570778E-1    4.604439831416826E-1
 8.150705034200000E9     7.207394241782936E-2    5.343229578669190E-1   -2.564531898312612E-3    7.378696764477135E-4   -2.612807844401242E-3    7.698898122236787E-4    2.177676579986809E-1    4.601727744302333E-1
 8.150714309250000E9     7.268437808725366E-2    5.342396317289112E-1   -2.569651614837983E-3    7.206819750020542E-4   -2.607505753366918E-3    8.086514138076391E-4    2.183399487013841E-1    4.597990119303121E-1
 8.150723584300000E9     7.332698324045403E-2    5.341276002344114E-1   -2.604043875118100E-3    7.647555446723894E-4   -2.618823808408556E-3    7.825732659014147E-4    2.188361670253559E-1    4.595073130820931E-1
 8.150732859350000E9     7.398845115232275E-2    5.341013317547411E-1   -2.563900369310801E-3    7.416178325464118E-4   -2.615142078777742E-3    8.018871350359058E-4    2.192203169300459E-1    4.592663225917624E-1
 8.150742134400000E9     7.472686340649304E-2    5.340378355224312E-1   -2.592526479414164E-3    7.559710874877999E-4   -2.596842052360969E-3    8.066199536849989E-4    2.197962624478980E-1    4.590065477173521E-1
 8.150751409450000E9     7.532730885335781E-2    5.339352493459179E-1   -2.568913059850029E-3    7.025783803942313E-4   -2.581069552613993E-3    7.824144318310715E-4    2.203707661792060E-1    4.588361857595601E-1
 8.150760684500000E9     7.606186313664218E-2    5.339224556874157E-1   -2.542124721965327E-3    7.575764599420900E-4   -2.560053051530607E-3    8.313508553701197E-4    2.208624976778328E-1    4.584901942646081E-1
 8.150769959550000E9     7.654520873401545E-2    5.339059786558069E-1   -2.583682886518929E-3    7.424045253037286E-4   -2.611141975014621E-3    8.211659972515307E-4    2.214286857204822E-1    4.583551080821588E-1
 8.150779234600000E9     7.724043613582725E-2    5.337776443136584E-1   -2.584917896914726E-3    7.621248721461034E-4   -2.603606087425616E-3    7.958777425260545E-4    2.220031433065998E-1    4.579597342566473E-1
 8.150788509650000E9     7.789568059122021E-2    5.336155562098200E-1   -2.590264876858349E-3    7.785481504652904E-4   -2.581345552781594E-3    8.372084447364928E-4    2.226284005089596E-1    4.578118234123407E-1
 8.150797784700000E9     7.862852436683299E-2    5.335839117449299E-1   -2.566187320682811E-3    7.626148780938331E-4   -2.606298064487233E-3    8.085826773306663E-4    2.230386126527051E-1    4.575293888695107E-1
 8.150807059750000E9     7.914841243391611E-2    5.334878721073294E-1   -2.563892002709131E-3    7.806765412487059E-4   -2.590065513293577E-3    8.616836486859384E-4    2.236550293878430E-1    4.570287219502075E-1
 8.150816334800000E9     7.975480630561717E-2    5.334644974840543E-1   -2.553478116565428E-3    7.825199243442427E-4   -2.581344481177830E-3    8.473933865493882E-4    2.241225307030758E-1    4.569002220523284E-1
 8.150825609850000E9     8.043426877905491E-2    5.333630093340173E-1   -2.600558293395807E-3    7.852811585543230E-4   -2.619168330310826E-3    8.326174765692385E-4    2.248544366021381E-1    4.565880145079434E-1
 8.150834884900000E9     8.116759549972868E-2    5.332404460314857E-1   -2.558032915393732E-3    7.694780161776032E-4   -2.600418367239183E-3    8.635093588536698E-4    2.251670217373898E-1    4.563570455391955E-1
 8.150844159950000E9     8.168294042677721E-2    5.331715261261956E-1   -2.564282666995625E-3    7.863161348595608E-4   -2.569069052161870E-3    8.291193500255028E-4    2.257791203113679E-1    4.560989276159528E-1
 8.150853435000000E9     8.237756303247734E-2    5.331731073241480E-1   -2.566846933643193E-3    7.940431673231572E-4   -2.600895858091172E-3    8.518896269685557E-4    2.262170682391073E-1    4.558280614555143E-1
 8.150862710050000E9     8.304105869647752E-2    5.329965208381450E-1   -2.569240992887794E-3    7.869386941411820E-4   -2.570308871055397E-3    8.569677889663645E-4    2.267865554099652E-1    4.554295763785417E-1
 8.150871985100000E9     8.369269384394477E-2    5.328997992219858E-1   -2.573006414468712E-3    8.061848988032047E-4   -2.597642474786757E-3    8.596179284599946E-4    2.274046703486828E-1    4.552374272558404E-1
 8.150881260150000E9     8.422211177673998E-2    5.329389649079236E-1   -2.590255724573987E-3    7.864395181360764E-4   -2.595825654320232E-3    8.613343974959516E-4    2.277888030632214E-1    4.548779759818888E-1
 8.150890535200000E9     8.498274758705726E-2    5.327101831580994E-1   -2.590052598221324E-3    7.948506465322888E-4   -2.596201278266465E-3    8.453644409672965E-4    2.283241415176894E-1    4.546222471216113E-1
 8.150899810250000E9     8.569657493872461E-2    5.328138724937990E-1   -2.565265969239547E-3    8.033816555052301E-4   -2.617269870823648E-3    8.583465972283570E-4    2.288641062892719E-1    4.544469508043615E-1
 8.150909085300000E9     8.625000942510327E-2    5.325927501092952E-1   -2.563253345006932E-3    8.327592303107719E-4   -2.574020856003164E-3    8.924616253534187E-4    2.293612248211904E-1    4.541431128716065E-1
 8.150918360350000E9     8.690105667548498E-2    5.324874040786877E-1   -2.580765262267320E-3    8.044531710769918E-4   -2.598853120746673E-3    8.510259142362096E-4    2.299363411522192E-1    4.538454034291760E-1
 8.150927635400000E9     8.752571008385343E-2    5.324406451050980E-1   -2.594924282137581E-3    8.238620326317530E-4   -2.608713827699598E-3    8.677697131030897E-4    2.303840517635731E-1    4.536210492087968E-1
 8.150936910450000E9     8.819960303477808E-2    5.322889896236633E-1   -2.573061245725487E-3    8.343501807451560E-4   -2.593295632512635E-3    8.701452274662826E-4    2.308713059076894E-1    4.532124755581246E-1
 8.150946185500000E9     8.877178739611805E-2    5.322639340712938E-1   -2.560905090154921E-3    8.290821266981218E-4   -2.601833215820997E-3    8.249248590890171E-4    2.314292999582992E-1    4.530011071233710E-1
 8.150955460550000E9     8.945535913109545E-2    5.321111966105768E-1   -2.591948963913606E-3    8.427705399583207E-4   -2.573627079873778E-3    8.939265659324497E-4    2.319238468123257E-1    4.527710041667741E-1
 8.150964735600000E9     8.996267755466852E-2    5.320398557942446E-1   -2.585750438397229E-3    8.418571040508649E-4   -2.570876608546392E-3    8.883353174540036E-4    2.324974268427936E-1    4.526142744861281E-1
 8.150974010650000E9     9.064740351557742E-2    5.318823414069690E-1   -2.596580703983688E-3    8.504955534724669E-4   -2.587286823776057E-3    8.978159172452761E-4    2.329773660135746E-1    4.521088106668979E-1
 8.150983285700000E9     9.150115908988733E-2    5.319061284264798E-1   -2.602264802370598E-3    8.292439325842178E-4   -2.588380303554729E-3    8.830836492437331E-4    2.334672228610218E-1    4.519362079731245E-1
 8.150992560750000E9     9.186073713651238E-2    5.318305659297630E-1   -2.565068569695982E-3    8.282767590974036E-4   -2.584814813357757E-3    8.857038966008768E-4    2.342140794736031E-1    4.514683981856494E-1
 8.151001835800000E9     9.273509537106600E-2    5.316778026778284E-1   -2.560245650933882E-3    8.500871084230271E-4   -2.581230229502116E-3    8.838164346476899E-4    2.346275116919950E-1    4.512616289231531E-1
 8.151011110850000E9     9.318586534337528E-2    5.316158135298464E-1   -2.573106233936754E-3    8.542306484629741E-4   -2.596872119971925E-3    9.168013521007079E-4    2.351921533347323E-1    4.510456096355388E-1
 8.151020385900000E9     9.392264103908980E-2    5.315655845916124E-1   -2.590870725362670E-3    8.386477536032869E-4   -2.581042650794111E-3    8.986328547751520E-4    2.357580941626188E-1    4.507514832886995E-1
 8.151029660950000E9     9.461381449968133E-2    5.313736529921186E-1   -2.572917953845122E-3    8.580140531040227E-4   -2.604551416621538E-3    8.962694529800739E-4    2.361280171034063E-1    4.502493468241892E-1
 8.151038936000000E9     9.522422374900238E-2    5.312821644025045E-1   -2.563499866931660E-3    8.679280574250915E-4   -2.566019229941347E-3    9.042154121257262E-4    2.365075255141279E-1    4.500648782065912E-1
 8.151048211050000E9     9.587518779589781E-2    5.310898255045122E-1   -2.577999954423775E-3    8.746195052021013E-4   -2.592605285738144E-3    9.381347204030842E-4    2.373155912532033E-1    4.499391010366012E-1
 8.151057486100000E9     9.656372220586598E-2    5.309541142120133E-1   -2.610419767587722E-3    8.902529751208760E-4   -2.589778243359830E-3    9.217134494940876E-4    2.377358643126508E-1    4.495720141397250E-1
 8.151066761150000E9     9.730178873955241E-2    5.309825563635402E-1   -2.600364921974573E-3    8.489739352723321E-4   -2.587080387889193E-3    9.375017064648506E-4    2.382272303272764E-1    4.491201238827027E-1
 8.151076036200000E9     9.776607309606916E-2    5.308771205307407E-1   -2.577424061839076E-3    8.781209766357804E-4   -2.606389291820109E-3    9.336702913096034E-4    2.387668825830167E-1    4.490665480202183E-1
 8.151085311250000E9     9.837210805890502E-2    5.307007466213880E-1   -2.597447243909863E-3    8.759016309501281E-4   -2.573074660955494E-3    9.168979291176401E-4    2.392847244789100E-1    4.488026300676659E-1
 8.151094586300000E9     9.915312045676894E-2    5.307011772593641E-1   -2.574308306800381E-3    8.978044289761566E-4   -2.590588676692464E-3    9.587005684800220E-4    2.396465404164267E-1    4.484444902593886E-1
 8.151103861350000E9     9.973569167735186E-2    5.306167955631168E-1   -2.562157425310408E-3    8.666754588336721E-4   -2.605400546281134E-3    9.623978123172700E-4    2.402732116409985E-1    4.481308022394201E-1
 8.151113136400000E9     1.003510002038250E-1    5.304087750763424E-1   -2.578701657525781E-3    8.919849912408496E-4   -2.565412547809703E-3    9.475124203148982E-4    2.407751031227087E-1    4.478387466851877E-1
 8.151122411450000E9     1.010585688487903E-1    5.302366439111366E-1   -2.591187635339476E-3    9.256600891807224E-4   -2.580983592436341E-3    9.653985945790831E-4    2.413989140623334E-1    4.474119369071509E-1
 8.151131686500000E9     1.015944744024360E-1    5.302301661805189E-1   -2.578112291997387E-3    9.264398192741379E-4   -2.606206318586485E-3    9.674818341888285E-4    2.417630523011769E-1    4.471976746424496E-1
