#  HZ   S   RI   R     50.00 
! Rohde & Schwarz Vector Network Analyzer 
! Rohde-Schwarz,ZNB20-2Port,1311601062101988,3.16
! Created: UTC 3/21/2024, 1:12:26 AM
! freq[Hz]                re:S11                  im:S11                  re:S21                  im:S21                  re:S12                  im:S12                  re:S22                  im:S22
 8.150343395000000E9     4.683136991603651E-2    5.365338543042952E-1   -2.589046337082567E-3    5.790082207417898E-4   -2.598170865954937E-3    6.568594681763531E-4    1.966180710978312E-1    4.699476129369193E-1
 8.150352467325000E9     4.736899406700406E-2    5.365236139210847E-1   -2.574660524512451E-3    6.151282835558127E-4   -2.590585940531427E-3    6.491514721728685E-4    1.971307946069647E-1    4.697407514310545E-1
 8.150361539650000E9     4.803502488226592E-2    5.364358367381903E-1   -2.588295128706887E-3    6.050204415788202E-4   -2.606091163510264E-3    6.595663575359656E-4    1.979013283766792E-1    4.696634829478782E-1
 8.150370611975000E9     4.868656553047111E-2    5.364626032725501E-1   -2.583960793843814E-3    6.014642893512888E-4   -2.608719571341251E-3    6.515722864089093E-4    1.982816577749814E-1    4.692184312608524E-1
 8.150379684300000E9     4.934211244609071E-2    5.363751416764062E-1   -2.573071448017775E-3    5.919401825840421E-4   -2.597098511228878E-3    6.545682619840396E-4    1.987681753155933E-1    4.690413042056400E-1
 8.150388756625000E9     5.007706211733304E-2    5.363797934638747E-1   -2.576756687423190E-3    6.168929134574548E-4   -2.562932491048052E-3    6.594514604465584E-4    1.994590464350610E-1    4.689160599708801E-1
 8.150397828950000E9     5.065735267199750E-2    5.362505999361243E-1   -2.585111004542367E-3    5.919818478093804E-4   -2.622906142503014E-3    6.527079479734434E-4    1.998530618475363E-1    4.684961170879357E-1
 8.150406901275000E9     5.140273803082044E-2    5.363813283147865E-1   -2.566154650735888E-3    6.434739663627082E-4   -2.606272886557078E-3    6.837094034325930E-4    2.004696291311935E-1    4.684989830627927E-1
 8.150415973600000E9     5.190926188998182E-2    5.362702218377533E-1   -2.586432785179965E-3    6.347015598314941E-4   -2.591441182058288E-3    6.780261105225982E-4    2.008922750359825E-1    4.680583824804992E-1
 8.150425045925000E9     5.256412979067082E-2    5.363174006498923E-1   -2.596029586471727E-3    6.330064225495198E-4   -2.565741797653317E-3    6.792968107586980E-4    2.015389798950727E-1    4.679313727790018E-1
 8.150434118250000E9     5.312136097018785E-2    5.360778257018852E-1   -2.581430382509032E-3    6.367175836616855E-4   -2.598278082115384E-3    6.581694617154167E-4    2.021228080745984E-1    4.675314958072563E-1
 8.150443190575000E9     5.390755810028808E-2    5.360725813283467E-1   -2.569532299480522E-3    6.215805081277380E-4   -2.588342910924970E-3    6.987426185542122E-4    2.027270491744874E-1    4.674925765470496E-1
 8.150452262900000E9     5.447988363069375E-2    5.360419410709980E-1   -2.591690500390344E-3    6.458111068542702E-4   -2.576252045225446E-3    6.621659647967171E-4    2.030807292862181E-1    4.671385210149505E-1
 8.150461335225000E9     5.499507240273720E-2    5.360733651001292E-1   -2.573125987095483E-3    6.479482142137731E-4   -2.570094810188906E-3    6.779863588946939E-4    2.036919395603054E-1    4.669601725178735E-1
 8.150470407550000E9     5.565674037748833E-2    5.359870346599874E-1   -2.574597124058528E-3    6.479861854926220E-4   -2.576330727765700E-3    6.995688175822219E-4    2.042275288317237E-1    4.666813938079373E-1
 8.150479479875000E9     5.636161460026741E-2    5.359223630890591E-1   -2.563671759714726E-3    6.382177398793180E-4   -2.578345706448895E-3    7.071140013326748E-4    2.046879590518679E-1    4.663653396667881E-1
 8.150488552200000E9     5.700561961312977E-2    5.359814380783871E-1   -2.587578355915033E-3    6.540900447806986E-4   -2.587825369116035E-3    6.898103299411407E-4    2.052092051668189E-1    4.661264111881296E-1
 8.150497624525000E9     5.760045653003412E-2    5.358133329346310E-1   -2.562117878060177E-3    6.414756571755608E-4   -2.598516449746925E-3    7.138252083606786E-4    2.057308735695749E-1    4.660691145914390E-1
 8.150506696850000E9     5.819842000033520E-2    5.356492307410714E-1   -2.613744044826353E-3    6.524257938784872E-4   -2.596699399430279E-3    7.200981925953997E-4    2.063468676527578E-1    4.656297543471347E-1
 8.150515769175000E9     5.888009924083897E-2    5.356153559183794E-1   -2.590025826984546E-3    6.765418550096070E-4   -2.627647055313394E-3    7.081777147673210E-4    2.068072685815530E-1    4.654311385138060E-1
 8.150524841500000E9     5.956672511549565E-2    5.355851797801851E-1   -2.580725274845319E-3    6.604584706452134E-4   -2.553804012536877E-3    7.237194539302324E-4    2.073722911846360E-1    4.650172288470437E-1
 8.150533913825000E9     6.017760371487799E-2    5.354845592645601E-1   -2.565036907345200E-3    6.687851248161084E-4   -2.589691989034237E-3    7.101604249650029E-4    2.078951423221924E-1    4.650095042443477E-1
 8.150542986150000E9     6.081364834686299E-2    5.354436275473453E-1   -2.592369149772344E-3    6.741024737867402E-4   -2.590758677884473E-3    7.205871547106556E-4    2.083803883276263E-1    4.645824423762882E-1
 8.150552058475000E9     6.140516391182321E-2    5.355105294589672E-1   -2.566882225558584E-3    7.071244863792478E-4   -2.582227195333438E-3    7.205350286342544E-4    2.087940175192878E-1    4.644399531219182E-1
 8.150561130800000E9     6.201464804476301E-2    5.353089330774357E-1   -2.558332391006388E-3    6.805563434441146E-4   -2.618771317733712E-3    7.264268006447085E-4    2.095277023255913E-1    4.641081630913680E-1
 8.150570203125000E9     6.271452791900432E-2    5.353650972959539E-1   -2.589392860234333E-3    6.890360686218871E-4   -2.576751944250047E-3    7.729940683311407E-4    2.099537286041238E-1    4.638859473316648E-1
 8.150579275450000E9     6.334168221248962E-2    5.353100849177596E-1   -2.575896587093350E-3    6.481837628663322E-4   -2.590631380099944E-3    7.289054931538505E-4    2.104947304557314E-1    4.636791677622609E-1
 8.150588347775000E9     6.392416816209121E-2    5.352401648321879E-1   -2.579683660934424E-3    7.148600861794612E-4   -2.562360634584361E-3    7.484071886843396E-4    2.110010239112541E-1    4.634158666179847E-1
 8.150597420100000E9     6.453337839085453E-2    5.350804434835041E-1   -2.556068825494132E-3    7.046042676783223E-4   -2.571843326475795E-3    7.393746373602761E-4    2.115016942726052E-1    4.631031338983638E-1
 8.150606492425000E9     6.524829913232102E-2    5.350797695137347E-1   -2.586223250883932E-3    6.978235142169990E-4   -2.589713245664340E-3    7.306025897788392E-4    2.119355243690612E-1    4.628406649500437E-1
 8.150615564750000E9     6.587423134063425E-2    5.350196042431853E-1   -2.587406803317680E-3    6.864239783776332E-4   -2.579826207760545E-3    7.413322617516832E-4    2.124838865646196E-1    4.627372292883518E-1
 8.150624637075000E9     6.642398309564501E-2    5.350159010738439E-1   -2.579444958321691E-3    7.045235810326254E-4   -2.577899687517634E-3    7.623902335008304E-4    2.131830668928914E-1    4.624573466104583E-1
 8.150633709400000E9     6.702546860554680E-2    5.348491693779737E-1   -2.572944234897159E-3    7.248773901109754E-4   -2.560279467908621E-3    7.531038467349819E-4    2.135612759287526E-1    4.620719840679894E-1
 8.150642781725000E9     6.778417307371037E-2    5.348042093510029E-1   -2.551824527308861E-3    7.028173806796063E-4   -2.601024031605396E-3    7.433411213356480E-4    2.141545631522153E-1    4.618861874394597E-1
 8.150651854050000E9     6.830718128348469E-2    5.348310394753220E-1   -2.584769298694294E-3    7.024410287443731E-4   -2.597175148273002E-3    7.597671469376491E-4    2.146310920489095E-1    4.615603990472744E-1
 8.150660926375000E9     6.893273023756998E-2    5.347145234100414E-1   -2.582552514889233E-3    7.320971561614702E-4   -2.597794005934375E-3    7.776562349064425E-4    2.149964792963233E-1    4.615008351937557E-1
 8.150669998700000E9     6.957827556489483E-2    5.345640569389911E-1   -2.581563099736101E-3    7.151660672300977E-4   -2.605866584337398E-3    7.686884411687534E-4    2.156452548825920E-1    4.612009641562233E-1
 8.150679071025000E9     7.021357452647085E-2    5.346548910349802E-1   -2.575474984426833E-3    7.326866991239603E-4   -2.594754795540105E-3    7.452663216249344E-4    2.162861304377319E-1    4.608522236095964E-1
 8.150688143350000E9     7.077565037095700E-2    5.345897257342116E-1   -2.579406952892291E-3    7.408591267021033E-4   -2.599504054383356E-3    7.947150269740398E-4    2.166682738773784E-1    4.606327258364454E-1
 8.150697215675000E9     7.143932533561531E-2    5.343833871842110E-1   -2.583610171418126E-3    7.308518318210151E-4   -2.573068893021935E-3    7.935499778864719E-4    2.172500921331004E-1    4.605147082451380E-1
 8.150706288000000E9     7.206549979468960E-2    5.343701754406720E-1   -2.586668483193788E-3    7.402973038782523E-4   -2.565483745536771E-3    7.620818698855641E-4    2.178361315992277E-1    4.599641581153690E-1
 8.150715360325000E9     7.268552709257212E-2    5.343021043323872E-1   -2.576404757149293E-3    7.328881944479353E-4   -2.612554387488381E-3    7.651510963661768E-4    2.181513581532256E-1    4.598240303634937E-1
 8.150724432650000E9     7.337205872352366E-2    5.341940270193863E-1   -2.555367305254685E-3    7.441292491614312E-4   -2.612761427589212E-3    7.650945561615234E-4    2.188317732843588E-1    4.594894554554568E-1
 8.150733504975000E9     7.398667564998178E-2    5.341616735307864E-1   -2.554321878081529E-3    7.326179110581958E-4   -2.599752999949710E-3    8.146598075580208E-4    2.194584931703485E-1    4.593387055088428E-1
 8.150742577300000E9     7.458419389283012E-2    5.339974349487461E-1   -2.571235314737814E-3    7.262494635933306E-4   -2.581097678268746E-3    7.777521865872873E-4    2.199437707400921E-1    4.589570171306509E-1
 8.150751649625000E9     7.521905399172710E-2    5.340189296416936E-1   -2.591851033655686E-3    7.677202191612355E-4   -2.605747928889090E-3    7.951184014142684E-4    2.203470459643965E-1    4.587034395930305E-1
 8.150760721950000E9     7.601756826983032E-2    5.339379759522395E-1   -2.579970951736588E-3    7.816594709410025E-4   -2.585029668219107E-3    8.016632900824059E-4    2.209666573873746E-1    4.585184245372696E-1
 8.150769794275000E9     7.655792303317867E-2    5.338606664143222E-1   -2.593481028782064E-3    7.609310944882250E-4   -2.609721362115501E-3    8.289550692061950E-4    2.214560571501443E-1    4.583201653240519E-1
 8.150778866600000E9     7.716319171875095E-2    5.338251273932744E-1   -2.566167825305553E-3    7.651214620913255E-4   -2.595263309608465E-3    8.011378840899334E-4    2.220184660778437E-1    4.580599352405043E-1
 8.150787938925000E9     7.774056860174666E-2    5.337285164984181E-1   -2.569742129911387E-3    7.655011960743952E-4   -2.574555835213163E-3    8.321112865631707E-4    2.224826502140476E-1    4.576210381975301E-1
 8.150797011250000E9     7.835984306250275E-2    5.336921058629774E-1   -2.592764096371449E-3    7.488416708039587E-4   -2.583864806244268E-3    8.071470724678179E-4    2.230513477606473E-1    4.575900659318936E-1
 8.150806083575000E9     7.903975875156558E-2    5.335067201751019E-1   -2.572737282404978E-3    7.798336865157163E-4   -2.604274223289032E-3    8.256976844220965E-4    2.236218265639457E-1    4.571706742556222E-1
 8.150815155900000E9     7.960709151307037E-2    5.334785711091700E-1   -2.591332382243794E-3    7.879705091993503E-4   -2.606363518878783E-3    8.184609834835980E-4    2.239730737171517E-1    4.569366961040406E-1
 8.150824228225000E9     8.038442534819809E-2    5.333807854154600E-1   -2.592092802318631E-3    7.801589401818756E-4   -2.598987375773644E-3    8.295252030594019E-4    2.245218219713105E-1    4.566966139743228E-1
 8.150833300550000E9     8.092604716763870E-2    5.333693867379848E-1   -2.557124080175451E-3    7.725133609345601E-4   -2.610475293271786E-3    8.727060133652204E-4    2.249844288387836E-1    4.564579451335603E-1
 8.150842372875000E9     8.156125325089036E-2    5.332285175098569E-1   -2.561832003602072E-3    7.920279913863329E-4   -2.592100718407486E-3    8.244203685095831E-4    2.256551701961849E-1    4.561205173330067E-1
 8.150851445200000E9     8.224461825692184E-2    5.332052249043139E-1   -2.576583048227523E-3    7.828972701824932E-4   -2.565079959187676E-3    8.829068873908029E-4    2.260481024832245E-1    4.557348464803403E-1
 8.150860517525000E9     8.284235066645132E-2    5.330286522525376E-1   -2.569123388270299E-3    7.821945854350541E-4   -2.564546076148496E-3    8.541195719643233E-4    2.266021303308077E-1    4.555932853366305E-1
 8.150869589850000E9     8.345556682039430E-2    5.330222566897612E-1   -2.573377316492678E-3    7.947222271701719E-4   -2.588462451553870E-3    8.625238946484739E-4    2.271201339296100E-1    4.551952109861232E-1
 8.150878662175000E9     8.412197876824398E-2    5.329398256255600E-1   -2.589125862599827E-3    8.289761025770002E-4   -2.583799672743378E-3    8.548520294063870E-4    2.274512324590442E-1    4.550445736553017E-1
 8.150887734500000E9     8.469245379892844E-2    5.328154627616062E-1   -2.563846827057876E-3    8.003643306054268E-4   -2.573679479229121E-3    8.697051757117528E-4    2.281471973558169E-1    4.548718751713315E-1
 8.150896806825000E9     8.530320271647215E-2    5.327524067994012E-1   -2.556727104756153E-3    7.910715612347408E-4   -2.570337525736944E-3    8.899342392882182E-4    2.285947464510135E-1    4.544879913476816E-1
 8.150905879150000E9     8.603080290131478E-2    5.325879699674936E-1   -2.562541482278568E-3    8.112437284148531E-4   -2.604206489825741E-3    8.123869123496144E-4    2.292245019983297E-1    4.542905535022553E-1
 8.150914951475000E9     8.664700873360881E-2    5.326069146422799E-1   -2.596917849800266E-3    8.366117106068684E-4   -2.584959578420719E-3    8.470256241764741E-4    2.297619928574701E-1    4.539974646156918E-1
 8.150924023800000E9     8.727532663916143E-2    5.324674171306018E-1   -2.562186995085209E-3    8.216615188024729E-4   -2.602313967512289E-3    8.937959798339724E-4    2.300446968386952E-1    4.536956503722804E-1
 8.150933096125000E9     8.783152204001303E-2    5.323995089788568E-1   -2.575696411052915E-3    7.993639006643838E-4   -2.579796224865553E-3    8.848734294206996E-4    2.306704617999125E-1    4.533770817552846E-1
 8.150942168450000E9     8.852344223726075E-2    5.324004111399689E-1   -2.585989920274175E-3    8.075418490389746E-4   -2.602361970002697E-3    8.771005605572856E-4    2.312226532754658E-1    4.531633220311005E-1
 8.150951240775000E9     8.909981515450253E-2    5.322503278528771E-1   -2.594713099550794E-3    8.401602033597624E-4   -2.606989465374952E-3    9.029360412177414E-4    2.317446124277009E-1    4.528666492160126E-1
 8.150960313100000E9     8.979633441275676E-2    5.321297905035237E-1   -2.588897728019192E-3    8.300153755626116E-4   -2.612464943747222E-3    8.855550903404192E-4    2.321527006040508E-1    4.526129560911563E-1
 8.150969385425000E9     9.030675242444083E-2    5.320410777632001E-1   -2.578815309720908E-3    8.357006590878686E-4   -2.588717999377276E-3    8.756271550987316E-4    2.329011416451873E-1    4.521654962661424E-1
 8.150978457750000E9     9.116596672083734E-2    5.319117274934995E-1   -2.593250802258770E-3    8.251468337046653E-4   -2.552263341030652E-3    8.736326670570523E-4    2.331477590286063E-1    4.520054552358064E-1
 8.150987530075000E9     9.153264231434036E-2    5.317841257450949E-1   -2.572694592257449E-3    8.376491919339308E-4   -2.574478415125018E-3    8.903674596472778E-4    2.337756920718314E-1    4.516048935660996E-1
 8.150996602400000E9     9.222844150704596E-2    5.317287315657363E-1   -2.586902571194514E-3    8.318137983891508E-4   -2.598101883670886E-3    9.166558196240480E-4    2.342642637299390E-1    4.515200580311897E-1
 8.151005674725000E9     9.289034637175653E-2    5.316674366457607E-1   -2.594033397228277E-3    8.872077096043540E-4   -2.575416247301475E-3    9.162007823089269E-4    2.348449836806394E-1    4.511487114501871E-1
 8.151014747050000E9     9.357803792577431E-2    5.314524076147265E-1   -2.559589857070326E-3    8.782181887445582E-4   -2.556271875083686E-3    8.981411203379655E-4    2.352998343591422E-1    4.508829341320530E-1
 8.151023819375000E9     9.402165194649979E-2    5.313864119075914E-1   -2.577417684296908E-3    8.608296865595234E-4   -2.597668380706673E-3    9.233824860812170E-4    2.357062645872899E-1    4.505299498609660E-1
 8.151032891700000E9     9.476373987277237E-2    5.313476302132502E-1   -2.573134755577767E-3    8.426755491290742E-4   -2.581943286223545E-3    8.888751057417094E-4    2.363626463614145E-1    4.504328853323778E-1
 8.151041964025000E9     9.539158416197692E-2    5.312454498092317E-1   -2.573946844564785E-3    8.729442876778412E-4   -2.606119541549535E-3    9.401234823704735E-4    2.368287034339094E-1    4.500861860557678E-1
 8.151051036350000E9     9.603692721492839E-2    5.312175227455890E-1   -2.575293163900429E-3    8.884479057417762E-4   -2.549411134812800E-3    9.272058779016310E-4    2.373233541370016E-1    4.497696066266502E-1
 8.151060108675000E9     9.678540551346942E-2    5.310305048569834E-1   -2.586020514802278E-3    8.818470853071008E-4   -2.572110762644990E-3    9.094064944696974E-4    2.376809184030827E-1    4.493789416023818E-1
 8.151069181000000E9     9.725517719815771E-2    5.309704890967094E-1   -2.567957759058509E-3    8.965858565101324E-4   -2.601886055452218E-3    9.275433063777978E-4    2.383646738168459E-1    4.493129221899956E-1
 8.151078253325000E9     9.790835478632262E-2    5.308427809875605E-1   -2.565696112151007E-3    8.849391250829764E-4   -2.627834592858141E-3    9.431107505706863E-4    2.388481832485323E-1    4.489545170003297E-1
 8.151087325650000E9     9.858892650943364E-2    5.306907040563160E-1   -2.584816378810694E-3    8.874818925736081E-4   -2.575523460363284E-3    9.273734847786784E-4    2.393060432899881E-1    4.486492188543773E-1
 8.151096397975000E9     9.920457040721410E-2    5.306277790301011E-1   -2.565395612762364E-3    9.035592053220623E-4   -2.586777244301782E-3    8.961185961723703E-4    2.399626150503986E-1    4.483005957639514E-1
 8.151105470300000E9     9.976029481325860E-2    5.305217198343695E-1   -2.573895097127683E-3    9.068651459164179E-4   -2.604737646054137E-3    9.240214510794090E-4    2.404383825004391E-1    4.481206892829475E-1
 8.151114542625000E9     1.003834158686631E-1    5.304861432102247E-1   -2.575856970781799E-3    8.833312604164811E-4   -2.606439675832976E-3    9.347748369899812E-4    2.409137210830042E-1    4.478718303277054E-1
 8.151123614950000E9     1.010630934424429E-1    5.302738305916150E-1   -2.596330340405896E-3    8.921910746993227E-4   -2.586613026980813E-3    9.418483597829777E-4    2.412981721045200E-1    4.474465521311520E-1
 8.151132687275000E9     1.015919815240273E-1    5.302125655562496E-1   -2.592202627025521E-3    9.194376553319533E-4   -2.591098563896951E-3    9.436176760440852E-4    2.419243341535907E-1    4.471573058345014E-1
 8.151141759600000E9     1.022982419699736E-1    5.301026261548942E-1   -2.588804122060290E-3    9.073170574224013E-4   -2.581825513014141E-3    9.603374120168327E-4    2.423415469112907E-1    4.467759536863024E-1
 8.151150831925000E9     1.029605946445615E-1    5.299465853532919E-1   -2.612203751790377E-3    9.357731549293193E-4   -2.593955433430162E-3    9.642535327627234E-4    2.428474962352385E-1    4.466603018880109E-1
 8.151159904250000E9     1.035965787674990E-1    5.299481846017936E-1   -2.606408954180796E-3    9.172027263502369E-4   -2.596093547275218E-3    9.947647730017442E-4    2.433555752244582E-1    4.463221496428300E-1
