#  HZ   S   RI   R     50.00 
! Rohde & Schwarz Vector Network Analyzer 
! Rohde-Schwarz,ZNB20-2Port,1311601062101988,3.16
! Created: UTC 3/21/2024, 1:12:45 AM
! freq[Hz]                re:S11                  im:S11                  re:S21                  im:S21                  re:S12                  im:S12                  re:S22                  im:S22
 8.150431928000000E9     5.267168568825357E-2    5.361754256424084E-1   -2.558243160781207E-3    6.124954682643094E-4   -2.589827350648533E-3    6.666809300102885E-4    2.018879872049332E-1    4.679071863648253E-1
 8.150440673825000E9     5.339353331306861E-2    5.359532450858685E-1   -2.560726195761935E-3    6.303327990885661E-4   -2.578592268007745E-3    6.818229411751472E-4    2.023448733538750E-1    4.676841527996469E-1
 8.150449419650000E9     5.395692385387211E-2    5.360576438237696E-1   -2.585995344521473E-3    6.420139536687810E-4   -2.591257178005265E-3    6.669243618438507E-4    2.027132890006465E-1    4.674425722514617E-1
 8.150458165475000E9     5.460578860720783E-2    5.360779620997610E-1   -2.579188576235716E-3    6.433084766959365E-4   -2.606323879715218E-3    6.994467380219128E-4    2.034068617557930E-1    4.672361715660477E-1
 8.150466911300000E9     5.521883728515192E-2    5.359055436881051E-1   -2.568603363768617E-3    6.278431865955998E-4   -2.577540047270248E-3    6.880268458867481E-4    2.038200011632192E-1    4.668080805774706E-1
 8.150475657125000E9     5.576722856652183E-2    5.358884039714438E-1   -2.569113702354531E-3    6.328675181168299E-4   -2.592075435062230E-3    6.669316079637607E-4    2.043957601305386E-1    4.667494473781842E-1
 8.150484402950000E9     5.648061854941670E-2    5.358577038394206E-1   -2.567924886727209E-3    6.500588570764760E-4   -2.607842498148066E-3    7.242688031114739E-4    2.047467781898757E-1    4.665168273937404E-1
 8.150493148775000E9     5.704839464672456E-2    5.357584524192879E-1   -2.585259486925846E-3    6.531054732336648E-4   -2.587179116943646E-3    6.736147923390605E-4    2.054035912462813E-1    4.662693922601605E-1
 8.150501894600000E9     5.766347309646905E-2    5.357971791364204E-1   -2.598718371153822E-3    6.683058073916662E-4   -2.609522467521999E-3    6.912085855053824E-4    2.059100980549700E-1    4.660229450520821E-1
 8.150510640425000E9     5.835608630845055E-2    5.357068626774795E-1   -2.577439740735937E-3    6.435675489407608E-4   -2.615019992216169E-3    7.312255208112947E-4    2.063157952666384E-1    4.658093706455448E-1
 8.150519386250000E9     5.884873785081537E-2    5.356797347613881E-1   -2.578625417717099E-3    6.544463779069244E-4   -2.605399418341264E-3    7.232674208907771E-4    2.069329571066942E-1    4.656001712669254E-1
 8.150528132075000E9     5.945845672023389E-2    5.356458530514547E-1   -2.552893596205115E-3    6.760535462607259E-4   -2.612722798139008E-3    7.263831933126665E-4    2.074635871267138E-1    4.652799678560056E-1
 8.150536877900000E9     6.013023087659727E-2    5.354904886009269E-1   -2.567802500547343E-3    6.757021355536809E-4   -2.559276532223024E-3    7.244637982394000E-4    2.078295528724286E-1    4.650772905935042E-1
 8.150545623725000E9     6.070245382533435E-2    5.354334078003649E-1   -2.567468659741380E-3    6.822977989724236E-4   -2.578180289810759E-3    7.282305944892506E-4    2.084245961219343E-1    4.647994035701190E-1
 8.150554369550000E9     6.128284766983387E-2    5.354254955580617E-1   -2.572251382783681E-3    6.722398694774052E-4   -2.568899608567802E-3    7.241835879627169E-4    2.089399727327965E-1    4.645814064379813E-1
 8.150563115375000E9     6.199400480293455E-2    5.353509532708799E-1   -2.559267396750242E-3    6.895001559031368E-4   -2.620418495910269E-3    7.341163747704583E-4    2.093596268891675E-1    4.643175552236078E-1
 8.150571861200000E9     6.254817047617277E-2    5.353673992862755E-1   -2.597333344238724E-3    6.675161712105823E-4   -2.572273633498235E-3    7.316289124841064E-4    2.100689298722818E-1    4.640466984436606E-1
 8.150580607025000E9     6.319996966512165E-2    5.352231419842401E-1   -2.578141507052243E-3    6.725599052476448E-4   -2.597654852498240E-3    7.136423790869139E-4    2.104401037289288E-1    4.638045646796917E-1
 8.150589352850000E9     6.357974298107247E-2    5.351878587561755E-1   -2.559974528169572E-3    6.705675820109189E-4   -2.571241945319874E-3    7.786596418613639E-4    2.109981938128921E-1    4.635353967100689E-1
 8.150598098675000E9     6.443297847924226E-2    5.350858172703383E-1   -2.568392642440832E-3    7.043933805439116E-4   -2.607044478126762E-3    7.597861643651066E-4    2.115386618290376E-1    4.633787649133179E-1
 8.150606844500000E9     6.490253641092104E-2    5.351023300662187E-1   -2.558447838892454E-3    6.977432821560766E-4   -2.573619828075009E-3    7.406597930403071E-4    2.120191497648929E-1    4.630898539649658E-1
 8.150615590325000E9     6.560376229579006E-2    5.349520709720602E-1   -2.579995868375022E-3    7.340358793693233E-4   -2.565255920270585E-3    7.619393108041567E-4    2.126205219687815E-1    4.629749691112379E-1
 8.150624336150000E9     6.616709461992352E-2    5.350845670623278E-1   -2.587544566496674E-3    7.057111171928498E-4   -2.574782496294984E-3    7.472834312682684E-4    2.129321700641863E-1    4.625760927098162E-1
 8.150633081975000E9     6.674785594142578E-2    5.349294851673199E-1   -2.599713105539322E-3    7.052016125921776E-4   -2.610596236761174E-3    7.292043095846306E-4    2.135120559634894E-1    4.624766830906851E-1
 8.150641827800000E9     6.747619150945203E-2    5.347982470913548E-1   -2.577389311568555E-3    6.992255007719100E-4   -2.587855455964952E-3    7.552795356750466E-4    2.138080091211136E-1    4.621083583579501E-1
 8.150650573625000E9     6.801887120795704E-2    5.348769382430285E-1   -2.552882445941970E-3    7.134007308379691E-4   -2.583805723800985E-3    7.655706901862105E-4    2.144716214592102E-1    4.617846405646228E-1
 8.150659319450000E9     6.866645308545145E-2    5.347298040820971E-1   -2.578604698926911E-3    6.840340236825822E-4   -2.607503339734953E-3    7.773299323034024E-4    2.151027326468881E-1    4.616425480583488E-1
 8.150668065275000E9     6.918401219979016E-2    5.345960606975018E-1   -2.580283408227293E-3    7.256833652336829E-4   -2.596609670077102E-3    7.671965117672071E-4    2.155608841344821E-1    4.614574588761165E-1
 8.150676811100000E9     6.978488695514566E-2    5.344981807328201E-1   -2.581263083878184E-3    7.235592071235778E-4   -2.554800045466165E-3    7.846945003889303E-4    2.159712195967602E-1    4.610790708451359E-1
 8.150685556925000E9     7.040247860101299E-2    5.344895953725300E-1   -2.573142030626049E-3    7.151895019074699E-4   -2.630045596415625E-3    7.964138238138165E-4    2.165811610521550E-1    4.609987429947209E-1
 8.150694302750000E9     7.110028376782652E-2    5.344115176173548E-1   -2.578125766999599E-3    7.296799066813777E-4   -2.583486245867302E-3    7.785606799866950E-4    2.169557994495260E-1    4.607689800888218E-1
 8.150703048575000E9     7.178837495492019E-2    5.342605682834277E-1   -2.588372509555277E-3    7.133080917813164E-4   -2.598787685855406E-3    7.677901035881891E-4    2.174975455820352E-1    4.603802438735931E-1
 8.150711794400000E9     7.218143987360891E-2    5.341476738542634E-1   -2.584853552491902E-3    7.572575338809733E-4   -2.598373709857642E-3    7.888474719000022E-4    2.179004674306198E-1    4.601961867270339E-1
 8.150720540225000E9     7.284148545731069E-2    5.342522513347726E-1   -2.569365258145551E-3    7.542473649662780E-4   -2.581979786573163E-3    7.972686347526122E-4    2.185216961685346E-1    4.600103964237233E-1
 8.150729286050000E9     7.345134737243027E-2    5.341462060879263E-1   -2.583086292080535E-3    7.300178561899107E-4   -2.609704372778935E-3    7.652402990090767E-4    2.188994835224016E-1    4.597477396375431E-1
 8.150738031875000E9     7.412038824894977E-2    5.341363313978741E-1   -2.557864181268554E-3    7.320176757643178E-4   -2.570992202376536E-3    7.968641316623062E-4    2.195797857184681E-1    4.594992660096650E-1
 8.150746777700000E9     7.467012163678322E-2    5.339610596493144E-1   -2.573058849136453E-3    7.385981035721884E-4   -2.578503109668386E-3    7.741709855160881E-4    2.199917785525712E-1    4.591031769072567E-1
 8.150755523525000E9     7.534818565306328E-2    5.340260311972185E-1   -2.579353206372444E-3    7.442888787668686E-4   -2.555566232804785E-3    8.274374913044017E-4    2.205224606762760E-1    4.587915894774307E-1
 8.150764269350000E9     7.594741464526053E-2    5.338222863085578E-1   -2.574737348278721E-3    7.776374164568064E-4   -2.606258799812005E-3    7.915963503169029E-4    2.210810712982748E-1    4.585950888904199E-1
 8.150773015175000E9     7.644216874749528E-2    5.338334059752419E-1   -2.551998137523371E-3    7.266098256463922E-4   -2.576077107312008E-3    8.055085037134736E-4    2.214617666951313E-1    4.583663206640710E-1
 8.150781761000000E9     7.726758058925791E-2    5.337986865343985E-1   -2.586813762053719E-3    7.587300344034908E-4   -2.589961452431140E-3    8.152238649790350E-4    2.220977271694605E-1    4.581728147317168E-1
 8.150790506825000E9     7.782278181737029E-2    5.336652050749431E-1   -2.583854199391011E-3    7.568958547776099E-4   -2.583575950671684E-3    8.201498205235302E-4    2.224687007745655E-1    4.578640184973750E-1
 8.150799252650000E9     7.840199037899349E-2    5.334869364875885E-1   -2.583824574410817E-3    7.489104890491123E-4   -2.575162806356374E-3    8.033595176963830E-4    2.230802128961384E-1    4.576874418103139E-1
 8.150807998475000E9     7.888202284143910E-2    5.335276770377262E-1   -2.600501027709794E-3    7.596514901590134E-4   -2.600803035105054E-3    8.049839737553678E-4    2.236361995021375E-1    4.573955350755991E-1
 8.150816744300000E9     7.948727306687374E-2    5.334563353342241E-1   -2.583836204058186E-3    7.467947538438304E-4   -2.558165773776589E-3    8.395654507044998E-4    2.240501639539066E-1    4.571330592951272E-1
 8.150825490125000E9     8.001902384036171E-2    5.334061149379756E-1   -2.572092542345525E-3    7.787588818844697E-4   -2.581010790945966E-3    8.262793150934144E-4    2.243968081326388E-1    4.569113978357350E-1
 8.150834235950000E9     8.081140300780783E-2    5.332808362025722E-1   -2.534209625780879E-3    7.967557207139655E-4   -2.583903059873180E-3    8.415411919513765E-4    2.249346260130123E-1    4.566546136353740E-1
 8.150842981775000E9     8.149501437712404E-2    5.331372125051296E-1   -2.582368157989387E-3    7.781567326051687E-4   -2.622392088497909E-3    8.231001835698737E-4    2.253373691549635E-1    4.562898758509760E-1
 8.150851727600000E9     8.197489788012671E-2    5.331168121805980E-1   -2.549867425078669E-3    7.840234786040110E-4   -2.581086329851100E-3    8.333412258826818E-4    2.259023111838147E-1    4.560533482989356E-1
 8.150860473425000E9     8.262320805916862E-2    5.330943714387351E-1   -2.591039225631347E-3    8.048964081017915E-4   -2.605421763275225E-3    8.370513261066042E-4    2.265656443598581E-1    4.558099096454144E-1
 8.150869219250000E9     8.321395341240112E-2    5.329637273375719E-1   -2.578302572696848E-3    8.236054917822223E-4   -2.578050120548810E-3    8.225623460506359E-4    2.270527902107406E-1    4.555613502880369E-1
 8.150877965075000E9     8.389402307210329E-2    5.330129989469985E-1   -2.588983997320901E-3    7.881572518255729E-4   -2.573882291932373E-3    8.243233790420430E-4    2.274134321536709E-1    4.552140217635912E-1
 8.150886710900000E9     8.449222769167358E-2    5.328025107811422E-1   -2.560741733521043E-3    7.975415718725447E-4   -2.565484617054549E-3    8.450207586611149E-4    2.280288616343221E-1    4.549207471908685E-1
 8.150895456725000E9     8.496500002534063E-2    5.326246903340709E-1   -2.569025654362576E-3    7.967319563277704E-4   -2.571016843062964E-3    8.562943131822342E-4    2.284464908237654E-1    4.547276409890391E-1
 8.150904202550000E9     8.559106541352700E-2    5.327310808308149E-1   -2.582562060256918E-3    8.002958113739308E-4   -2.575828338488749E-3    8.421691256765479E-4    2.291002061975023E-1    4.545377187211471E-1
 8.150912948375000E9     8.632765521681175E-2    5.326806627499372E-1   -2.585230949303424E-3    7.915141002623059E-4   -2.607209233234384E-3    8.646722436431952E-4    2.293771604813785E-1    4.542075926278841E-1
 8.150921694200000E9     8.686414289096364E-2    5.324914510578221E-1   -2.596202198373467E-3    8.164794112533537E-4   -2.597231601673654E-3    8.736418261032827E-4    2.298535043059166E-1    4.540544709756065E-1
 8.150930440025000E9     8.741342565796278E-2    5.325017818670890E-1   -2.539698836763163E-3    7.984026867305536E-4   -2.572146890597410E-3    8.610574604865153E-4    2.304480104105258E-1    4.537635524011259E-1
 8.150939185850000E9     8.813075878964587E-2    5.324484806392856E-1   -2.571179165120599E-3    7.928609417051476E-4   -2.587318040104515E-3    8.532381384585999E-4    2.310093671415210E-1    4.536448671064862E-1
 8.150947931675000E9     8.864540304845760E-2    5.322487022845911E-1   -2.573962116170499E-3    8.222553247465026E-4   -2.577846667447153E-3    9.206009207019235E-4    2.314149328876881E-1    4.532524760668298E-1
 8.150956677500000E9     8.927110880258624E-2    5.321680701302903E-1   -2.592926145411044E-3    8.387627301102991E-4   -2.597783017495352E-3    8.848156327021522E-4    2.319354346706725E-1    4.528799132782401E-1
 8.150965423325000E9     8.989170041564824E-2    5.320088105767448E-1   -2.578091560921017E-3    8.415221654886825E-4   -2.598741094491656E-3    8.641508425984500E-4    2.325258259449687E-1    4.526715125516763E-1
 8.150974169150000E9     9.046819232224836E-2    5.320177008362986E-1   -2.569615361045626E-3    8.368872012638728E-4   -2.571443211474050E-3    8.807505196062529E-4    2.329895333184009E-1    4.524362405748488E-1
 8.150982914975000E9     9.120709587748159E-2    5.318170834274715E-1   -2.572700220900752E-3    8.518636976591830E-4   -2.571317884987625E-3    8.686985104225846E-4    2.333740422814564E-1    4.520180099728757E-1
 8.150991660800000E9     9.166514452679397E-2    5.317782486369745E-1   -2.571980084584265E-3    8.372800866730915E-4   -2.590636815236124E-3    8.597922664235759E-4    2.338445226003596E-1    4.518759543222065E-1
 8.151000406625000E9     9.226784084545790E-2    5.315987397540743E-1   -2.566797944640723E-3    8.499323301415681E-4   -2.577070475400749E-3    9.283040294275241E-4    2.344168546736716E-1    4.515438873072331E-1
 8.151009152450000E9     9.290863975674403E-2    5.315652334753905E-1   -2.577164955688872E-3    8.566349428363036E-4   -2.585691785357554E-3    9.461630735589178E-4    2.348727463084573E-1    4.512865633188933E-1
 8.151017898275000E9     9.350487132378416E-2    5.314780122597581E-1   -2.578172823520742E-3    8.859586597047751E-4   -2.586252403345697E-3    9.285381130167875E-4    2.355517870265120E-1    4.510011961867504E-1
 8.151026644100000E9     9.416133527949772E-2    5.313888303117391E-1   -2.603927021781532E-3    8.475124130329908E-4   -2.603998557282202E-3    9.298762093769123E-4    2.358860703071352E-1    4.507888884370184E-1
 8.151035389925000E9     9.476065119553465E-2    5.314991962513196E-1   -2.576872787935054E-3    8.832057043418120E-4   -2.603541715083597E-3    9.068650891211191E-4    2.362799223960793E-1    4.505801034103717E-1
 8.151044135750000E9     9.527861604150213E-2    5.311244189103330E-1   -2.587940530131545E-3    8.544580393201216E-4   -2.584835179140904E-3    9.151281531568419E-4    2.367991248221705E-1    4.502465303485878E-1
 8.151052881575000E9     9.588305346156455E-2    5.310809342851431E-1   -2.560320116818780E-3    8.736908079002968E-4   -2.602559877336678E-3    9.279990237858172E-4    2.374493361700324E-1    4.499467239108585E-1
 8.151061627400000E9     9.658878759217344E-2    5.310024534800590E-1   -2.586694697800057E-3    8.622111042466464E-4   -2.630119986309684E-3    9.450641307818854E-4    2.378717464656080E-1    4.496946862674028E-1
 8.151070373225000E9     9.716795076830639E-2    5.309455596362650E-1   -2.575838607348913E-3    8.760274965597764E-4   -2.581374493963378E-3    9.166490035096164E-4    2.383231315245437E-1    4.494177424767324E-1
 8.151079119050000E9     9.776052300731101E-2    5.308926508480097E-1   -2.591532133385437E-3    8.951807907784423E-4   -2.572718038691126E-3    9.465902955621077E-4    2.388302211281042E-1    4.492598416821852E-1
 8.151087864875000E9     9.840550998515923E-2    5.307424178121823E-1   -2.585683936609981E-3    8.777097082835552E-4   -2.597881444680259E-3    9.306389748166158E-4    2.393135619171322E-1    4.488457755124825E-1
 8.151096610700000E9     9.892825404644121E-2    5.305817122593380E-1   -2.576791711492288E-3    8.864311721829422E-4   -2.602777884397428E-3    9.384122816519421E-4    2.397088047513405E-1    4.484911562073468E-1
 8.151105356525000E9     9.958793705549460E-2    5.305796502121415E-1   -2.577968256398958E-3    9.036407252745007E-4   -2.577634713681953E-3    9.578007248637215E-4    2.402647858500869E-1    4.483349421403456E-1
 8.151114102350000E9     1.000587034511821E-1    5.304516938949619E-1   -2.579132770243644E-3    8.983457373484096E-4   -2.585552345337200E-3    9.541373160215486E-4    2.406398024931611E-1    4.479941020151558E-1
 8.151122848175000E9     1.008176976984605E-1    5.304538478035296E-1   -2.579279523227879E-3    9.227644535764766E-4   -2.613632620679506E-3    9.814492891205189E-4    2.412783181033437E-1    4.476616900359767E-1
 8.151131594000000E9     1.014346613810991E-1    5.303148027565239E-1   -2.560700678382162E-3    8.796866084792901E-4   -2.633445342975529E-3    9.425916085173290E-4    2.415210755145282E-1    4.475058381202451E-1
 8.151140339825000E9     1.018818496523240E-1    5.301132561652873E-1   -2.570606792904434E-3    9.272549560609770E-4   -2.613546955913149E-3    9.951087074157009E-4    2.422284302616680E-1    4.471258962161789E-1
 8.151149085650000E9     1.024828021678781E-1    5.300406652569419E-1   -2.572508979045967E-3    9.160540522675138E-4   -2.597357910987228E-3    9.638208121474745E-4    2.427544718664034E-1    4.469408856630143E-1
 8.151157831475000E9     1.032531838882345E-1    5.299343957253891E-1   -2.584490540881724E-3    9.010805596898828E-4   -2.562308662844957E-3    9.707105753918701E-4    2.432350844647625E-1    4.466132311287968E-1
 8.151166577300000E9     1.037884160409572E-1    5.298460756580166E-1   -2.599242479438945E-3    8.969564900065771E-4   -2.588209708747246E-3    9.611916302735914E-4    2.436724989821448E-1    4.463564915765932E-1
 8.151175323125000E9     1.043926618749815E-1    5.297184794962809E-1   -2.579425484374588E-3    9.171242028609586E-4   -2.600731765583814E-3    9.902716447214243E-4    2.441973854671624E-1    4.460418383772384E-1
 8.151184068950000E9     1.049761823043375E-1    5.295507347089973E-1   -2.570980581213870E-3    9.466800650205991E-4   -2.601723264982484E-3    9.518499038601220E-4    2.446636738061906E-1    4.457386576130704E-1
 8.151192814775000E9     1.056311372761352E-1    5.294849545414596E-1   -2.597299141351637E-3    9.179666436409410E-4   -2.613457959262255E-3    9.949573450448311E-4    2.449622281305355E-1    4.455051700847046E-1
 8.151201560600000E9     1.062358316061635E-1    5.294631930882462E-1   -2.590709660411458E-3    9.725360141624339E-4   -2.605588093997321E-3    9.848981347221264E-4    2.454952856405401E-1    4.452197366146226E-1
 8.151210306425000E9     1.069462050359475E-1    5.292779573584030E-1   -2.584066787428068E-3    9.138944403445898E-4   -2.580513901874593E-3    1.004763232837530E-3    2.459841458876029E-1    4.450156859134243E-1
 8.151219052250000E9     1.075464418006981E-1    5.292050184119290E-1   -2.589501581240895E-3    9.465827024512203E-4   -2.598471865020774E-3    1.022205776457898E-3    2.465447900981053E-1    4.446128533946173E-1
