#  HZ   S   RI   R     50.00 
! Rohde & Schwarz Vector Network Analyzer 
! Rohde-Schwarz,ZNB20-2Port,1311601062101988,3.16
! Created: UTC 3/21/2024, 1:12:49 AM
! freq[Hz]                re:S11                  im:S11                  re:S21                  im:S21                  re:S12                  im:S12                  re:S22                  im:S22
 8.150448731000000E9     5.390221791997071E-2    5.360414641452623E-1   -2.572545367983902E-3    6.123643800300044E-4   -2.592415998020301E-3    6.887932835827333E-4    2.028102620181324E-1    4.677087203824460E-1
 8.150457422775000E9     5.454194860289452E-2    5.360409832186933E-1   -2.581005822079491E-3    6.263614309420652E-4   -2.618873313892062E-3    6.875946278792483E-4    2.032641383790419E-1    4.673856025618471E-1
 8.150466114550000E9     5.509240993084269E-2    5.360308157558122E-1   -2.575778960873439E-3    6.365864793193917E-4   -2.558186214605564E-3    6.797582390534425E-4    2.037119467146583E-1    4.670680769506561E-1
 8.150474806325000E9     5.571854158842082E-2    5.358847756899713E-1   -2.575452294457556E-3    6.532218639408858E-4   -2.605583407930293E-3    6.496553791011976E-4    2.042688263220611E-1    4.667084572532493E-1
 8.150483498100000E9     5.640129734489455E-2    5.358208682360518E-1   -2.584196823797525E-3    6.673642857626656E-4   -2.565987949272786E-3    7.258938761964930E-4    2.047772483212046E-1    4.665703321282689E-1
 8.150492189875000E9     5.701191762065175E-2    5.358526284239381E-1   -2.563984418643041E-3    6.286551454825584E-4   -2.565394862535080E-3    6.918913778679474E-4    2.051724224514438E-1    4.664072666465791E-1
 8.150500881650000E9     5.762062298652493E-2    5.357225676061864E-1   -2.581125991189141E-3    6.567525790485536E-4   -2.608715095779249E-3    6.933898945728924E-4    2.058082819474793E-1    4.660620508129483E-1
 8.150509573425000E9     5.817554414146364E-2    5.357849645332082E-1   -2.563262068339630E-3    6.436896515525491E-4   -2.579070866703344E-3    7.057417765081792E-4    2.063891248002829E-1    4.658368676116644E-1
 8.150518265200000E9     5.873274478280230E-2    5.356393869552680E-1   -2.567981064806053E-3    6.551199485709532E-4   -2.586894214543985E-3    7.080978047639928E-4    2.067449283256851E-1    4.656808801640929E-1
 8.150526956975000E9     5.941090103210471E-2    5.357076278617674E-1   -2.581686887023742E-3    6.562467499688888E-4   -2.593275400662469E-3    7.206133108078702E-4    2.073160252253155E-1    4.654629061312087E-1
 8.150535648750000E9     5.999407435539844E-2    5.355225572890959E-1   -2.566722716316062E-3    6.685763488917936E-4   -2.549479648103606E-3    7.276144412404545E-4    2.078785555345054E-1    4.652190021846096E-1
 8.150544340525000E9     6.061519655038621E-2    5.355314754135371E-1   -2.568579042280917E-3    6.618962942667251E-4   -2.588505345615453E-3    7.198301030367402E-4    2.084014453545392E-1    4.649852946159118E-1
 8.150553032300000E9     6.125874430842086E-2    5.353414222019452E-1   -2.596074726041900E-3    6.869136476127768E-4   -2.593700321829415E-3    7.254836065994248E-4    2.089319836669203E-1    4.647155508593268E-1
 8.150561724075000E9     6.171048760664566E-2    5.354194927861869E-1   -2.553548449743350E-3    6.861774304864855E-4   -2.581526185287787E-3    7.351269810048558E-4    2.093505015445712E-1    4.643913567362184E-1
 8.150570415850000E9     6.242700496873373E-2    5.353015840208643E-1   -2.576111307815626E-3    6.760342408477055E-4   -2.575024487603196E-3    7.417730560841879E-4    2.098351061779431E-1    4.642463765228373E-1
 8.150579107625000E9     6.304702468171337E-2    5.353329993575739E-1   -2.569643251902324E-3    6.709041996354376E-4   -2.595423248341519E-3    7.154311769581523E-4    2.105175917978787E-1    4.638733263285172E-1
 8.150587799400000E9     6.348289137395069E-2    5.351415020158484E-1   -2.575862402351168E-3    7.039733369249212E-4   -2.585805711743528E-3    7.440884110965080E-4    2.109622498999619E-1    4.637848785373437E-1
 8.150596491175000E9     6.425513336902776E-2    5.352059133452362E-1   -2.555634429954318E-3    6.950976600975802E-4   -2.594837341662103E-3    7.725736960807249E-4    2.114533758088182E-1    4.634037181503667E-1
 8.150605182950000E9     6.482351201848932E-2    5.351228220584608E-1   -2.576646053638495E-3    6.936405215365768E-4   -2.570892838174574E-3    7.273080523844655E-4    2.118604378322776E-1    4.632277389876810E-1
 8.150613874725000E9     6.539977640679734E-2    5.349582217768286E-1   -2.583166275670741E-3    7.099033699875025E-4   -2.581312953617393E-3    7.420967967201657E-4    2.123775330564928E-1    4.629986907997039E-1
 8.150622566500000E9     6.604288607598548E-2    5.349122484940640E-1   -2.572687362241152E-3    7.401855360864918E-4   -2.582755693182767E-3    7.674556142236294E-4    2.128429020808817E-1    4.627214409144222E-1
 8.150631258275000E9     6.672264233096853E-2    5.348471667194143E-1   -2.542950180142666E-3    6.777350938105513E-4   -2.554327093870159E-3    7.584164659529564E-4    2.132939210616241E-1    4.625314212909153E-1
 8.150639950050000E9     6.735181207872767E-2    5.348018162200788E-1   -2.575689845044226E-3    7.140494242132170E-4   -2.593845654365769E-3    7.192373283757143E-4    2.138247226984827E-1    4.623265513434164E-1
 8.150648641825000E9     6.791183856243696E-2    5.348417744598627E-1   -2.573679913260771E-3    7.046633255853262E-4   -2.608738581970103E-3    7.328473322795494E-4    2.144646979887514E-1    4.622296607486893E-1
 8.150657333600000E9     6.837504701237811E-2    5.346374230528080E-1   -2.598867418580289E-3    7.152372849513236E-4   -2.583728211539013E-3    7.534975502761999E-4    2.148336540689263E-1    4.617545649772530E-1
 8.150666025375000E9     6.914675572285513E-2    5.346800809877984E-1   -2.587705374415553E-3    7.218018057644921E-4   -2.569816287618033E-3    7.519561918167482E-4    2.154571222486089E-1    4.615824393060117E-1
 8.150674717150000E9     6.962914277485821E-2    5.345817211458936E-1   -2.575016314194783E-3    7.084168485422782E-4   -2.558020245525058E-3    7.674616265184297E-4    2.159665483932481E-1    4.614393043701785E-1
 8.150683408925000E9     7.015057692525691E-2    5.344943278646487E-1   -2.560297460339164E-3    7.094198850208633E-4   -2.547446734050805E-3    7.691660879207519E-4    2.162449677849000E-1    4.610710167548432E-1
 8.150692100700000E9     7.096097130351187E-2    5.344111504690585E-1   -2.587783103787979E-3    7.183988323320005E-4   -2.587496883476056E-3    7.846829319772578E-4    2.169586137881779E-1    4.608375713074095E-1
 8.150700792475000E9     7.151747456370060E-2    5.344787186088784E-1   -2.585749251314751E-3    7.264130388885412E-4   -2.604099128051319E-3    7.845104312851007E-4    2.174067212800657E-1    4.605344593135570E-1
 8.150709484250000E9     7.209136868671569E-2    5.344131830549876E-1   -2.594896984059288E-3    7.185273189622613E-4   -2.562234480878432E-3    7.712062469496414E-4    2.178221184619089E-1    4.601518037419073E-1
 8.150718176025000E9     7.271098564556147E-2    5.342557000923073E-1   -2.573833133856237E-3    7.561698210093587E-4   -2.579582003356951E-3    7.871406675997734E-4    2.183297899527220E-1    4.601295709585093E-1
 8.150726867800000E9     7.320467289473019E-2    5.341187379398026E-1   -2.579864383503648E-3    7.270952945716144E-4   -2.576210526982035E-3    7.512067143694257E-4    2.187720164841972E-1    4.597846295194158E-1
 8.150735559575000E9     7.392366274574873E-2    5.341918304338398E-1   -2.579846340901831E-3    7.435219115062863E-4   -2.593711571747787E-3    8.037285143727910E-4    2.194574816563868E-1    4.595008894201705E-1
 8.150744251350000E9     7.452798561325018E-2    5.339805533417378E-1   -2.603364287494127E-3    7.287837883739445E-4   -2.594331837679609E-3    8.001020206001292E-4    2.199120538802586E-1    4.591098188220138E-1
 8.150752943125000E9     7.513760814094618E-2    5.339355040362729E-1   -2.559648958726492E-3    7.507436050487338E-4   -2.598641510581596E-3    8.053915455692300E-4    2.202721195040515E-1    4.588922993085940E-1
 8.150761634900000E9     7.568674713923157E-2    5.339120851005454E-1   -2.581834681474333E-3    7.769589900409107E-4   -2.587508295718917E-3    7.865945930514875E-4    2.208288279285527E-1    4.587064549092618E-1
 8.150770326675000E9     7.627579132041022E-2    5.338687100086673E-1   -2.534754741659315E-3    7.734755005041242E-4   -2.601289347013066E-3    7.913721509172179E-4    2.213410369212927E-1    4.586647093905241E-1
 8.150779018450000E9     7.694945394254940E-2    5.337336070033044E-1   -2.572159636487857E-3    7.776009444123523E-4   -2.593491403702271E-3    8.033307952240348E-4    2.218761295736495E-1    4.583530583743554E-1
 8.150787710225000E9     7.746773371892203E-2    5.336539545105925E-1   -2.577859372228541E-3    7.588873106825797E-4   -2.616412761620054E-3    8.248798655928873E-4    2.223295114172212E-1    4.580819281024631E-1
 8.150796402000000E9     7.809670541692013E-2    5.334669014999686E-1   -2.585483380265075E-3    7.539107135279772E-4   -2.618305209116297E-3    7.886039553702888E-4    2.229864412493896E-1    4.576312294718661E-1
 8.150805093775000E9     7.868081057919959E-2    5.334496019884842E-1   -2.583823984669579E-3    7.525067864009296E-4   -2.584127929474752E-3    8.120550888720511E-4    2.233368799536010E-1    4.575517510504150E-1
 8.150813785550000E9     7.927058877134469E-2    5.334080181638694E-1   -2.589251744091963E-3    7.780214985545638E-4   -2.581947784856274E-3    8.306655738170286E-4    2.237493961160451E-1    4.573325714061687E-1
 8.150822477325000E9     7.991053112242355E-2    5.334519453029299E-1   -2.575005063054632E-3    7.681074330018409E-4   -2.591682172888953E-3    8.003022029200387E-4    2.243211508945236E-1    4.570159566104806E-1
 8.150831169100000E9     8.050340035104002E-2    5.331929395340743E-1   -2.573690168771024E-3    7.595465073005326E-4   -2.591170605607552E-3    8.590732549602544E-4    2.248035741025485E-1    4.568650296960337E-1
 8.150839860875000E9     8.117187007290934E-2    5.333446282302574E-1   -2.557950419577334E-3    7.842079404696441E-4   -2.559108767778174E-3    8.652752126917689E-4    2.253548406699376E-1    4.564675867081803E-1
 8.150848552650000E9     8.170756432747947E-2    5.331733907582384E-1   -2.545487369085036E-3    7.921853440266954E-4   -2.562059884414923E-3    8.102480260699682E-4    2.258736127861962E-1    4.562317101198436E-1
 8.150857244425000E9     8.228420292588084E-2    5.329263582970254E-1   -2.591634524348111E-3    7.743749889616493E-4   -2.583725873333160E-3    8.382391037973888E-4    2.264149491216328E-1    4.560589858996273E-1
 8.150865936200000E9     8.299029196157572E-2    5.329348131320244E-1   -2.580136890128290E-3    8.080232083833460E-4   -2.575369485369407E-3    8.425544672929126E-4    2.266324852938190E-1    4.556744423163582E-1
 8.150874627975000E9     8.349979513015544E-2    5.329806413365966E-1   -2.576619222174904E-3    7.917775387098743E-4   -2.602015971619960E-3    8.460757757483909E-4    2.273443074307456E-1    4.555524680149823E-1
 8.150883319750000E9     8.409887912308475E-2    5.328449186714858E-1   -2.570626228430681E-3    7.893218091829924E-4   -2.590834585860594E-3    8.299959090310842E-4    2.278549863179588E-1    4.552060268088950E-1
 8.150892011525000E9     8.467153942738510E-2    5.326509470950250E-1   -2.583987740013317E-3    7.926537225927876E-4   -2.577037563822974E-3    8.460439120835831E-4    2.282391242954372E-1    4.549474829747802E-1
 8.150900703300000E9     8.538376931354663E-2    5.327710339419542E-1   -2.577137029763923E-3    8.202477067362908E-4   -2.603512074868850E-3    8.576211904986216E-4    2.288557752887521E-1    4.546872143601889E-1
 8.150909395075000E9     8.596512738153217E-2    5.326145311707148E-1   -2.566736377321079E-3    7.999060164524650E-4   -2.606604508321861E-3    8.544686319085568E-4    2.291782512030467E-1    4.542399073564450E-1
 8.150918086850000E9     8.654858654024303E-2    5.325208759977251E-1   -2.552582338403666E-3    8.092018267519845E-4   -2.568522328417505E-3    8.701893427020741E-4    2.296730234824095E-1    4.541358219351309E-1
 8.150926778625000E9     8.717531004468863E-2    5.323389297033047E-1   -2.576182723510914E-3    7.943388589011583E-4   -2.589323355351528E-3    8.555995551322793E-4    2.302723486189940E-1    4.539174353834577E-1
 8.150935470400000E9     8.764728981391770E-2    5.322904624180258E-1   -2.565800479523909E-3    8.251838938239974E-4   -2.584640612707408E-3    8.767300600839145E-4    2.307636149477916E-1    4.536316058409026E-1
 8.150944162175000E9     8.848463769948393E-2    5.322567015053504E-1   -2.586129551020067E-3    8.347948890961324E-4   -2.575701337616688E-3    8.782405175492544E-4    2.312553576095480E-1    4.532891625588323E-1
 8.150952853950000E9     8.891478202644904E-2    5.320995093498065E-1   -2.577130587672197E-3    8.175659436889987E-4   -2.587047468093790E-3    8.796831884122519E-4    2.316813966250149E-1    4.531186758444305E-1
 8.150961545725000E9     8.951389591385660E-2    5.319652264763043E-1   -2.576875830759502E-3    8.186996245938296E-4   -2.566506911121353E-3    8.859444628291921E-4    2.321821393409140E-1    4.527252739033037E-1
 8.150970237500000E9     9.030474414451925E-2    5.319177270669192E-1   -2.576834042978746E-3    8.237480951038178E-4   -2.594315627461021E-3    8.959747668729375E-4    2.326961523938620E-1    4.525791191340547E-1
 8.150978929275000E9     9.079733616070321E-2    5.318005457618694E-1   -2.589408370536269E-3    8.309475080504345E-4   -2.569441475347733E-3    8.974682300428599E-4    2.332117017329971E-1    4.523326994038726E-1
 8.150987621050000E9     9.139338529170651E-2    5.317630666978870E-1   -2.589887538758157E-3    8.622102280886194E-4   -2.554779028046476E-3    8.986559564341035E-4    2.335908394275109E-1    4.520055724047011E-1
 8.150996312825000E9     9.203681278533798E-2    5.317297290707380E-1   -2.561367950018780E-3    8.429313513133943E-4   -2.548056689047183E-3    9.023540010266661E-4    2.341476491323512E-1    4.519211300759195E-1
 8.151005004600000E9     9.258592198400038E-2    5.316064631619373E-1   -2.582001276248898E-3    8.346640787204192E-4   -2.577716097283600E-3    8.915583998380984E-4    2.346139874275918E-1    4.515883868173227E-1
 8.151013696375000E9     9.312380574762559E-2    5.314489429966460E-1   -2.594533035960851E-3    8.609741082532131E-4   -2.591022999040345E-3    9.146248327080047E-4    2.350330216311315E-1    4.510928287361431E-1
 8.151022388150000E9     9.373381004482709E-2    5.313789013973231E-1   -2.558312530949021E-3    8.572953126966723E-4   -2.576209359924145E-3    9.147502520710620E-4    2.355793480356484E-1    4.509514675896858E-1
 8.151031079925000E9     9.435784716079905E-2    5.312715157142548E-1   -2.590242228646979E-3    8.466447375193685E-4   -2.607982172225364E-3    9.077290385629093E-4    2.360890866873945E-1    4.505982283219250E-1
 8.151039771700000E9     9.499905280415234E-2    5.312786609940549E-1   -2.590510559177503E-3    8.754445857578642E-4   -2.569861359820421E-3    9.230600086770138E-4    2.366926363699104E-1    4.504206418225913E-1
 8.151048463475000E9     9.560535531142222E-2    5.312194035754056E-1   -2.552878597368658E-3    8.706581977766306E-4   -2.613902538390256E-3    8.939475080797033E-4    2.371206183442822E-1    4.501808329623827E-1
 8.151057155250000E9     9.617583057407332E-2    5.311018887369007E-1   -2.608493005163361E-3    8.753513048869379E-4   -2.599330301029380E-3    9.079778692721701E-4    2.377811670500496E-1    4.498155555138599E-1
 8.151065847025000E9     9.672648855446489E-2    5.309426046525020E-1   -2.565582667365896E-3    9.045463437904959E-4   -2.587268090718459E-3    9.316524007825808E-4    2.380262959803381E-1    4.496165176242942E-1
 8.151074538800000E9     9.741612081709707E-2    5.308898483836577E-1   -2.545294182161451E-3    8.738408859559060E-4   -2.598489295970597E-3    9.368066073567576E-4    2.386292594487078E-1    4.494305992388649E-1
 8.151083230575000E9     9.804477366368980E-2    5.308056043528805E-1   -2.556181550824320E-3    8.868662792030079E-4   -2.563148109862681E-3    9.576656072686247E-4    2.390200333247172E-1    4.490779780183083E-1
 8.151091922350000E9     9.865887289713861E-2    5.307363586549768E-1   -2.581992844208633E-3    9.059371700794584E-4   -2.617578718063433E-3    9.501164756018716E-4    2.394964141578305E-1    4.488144002677233E-1
 8.151100614125000E9     9.918546638160386E-2    5.306090279965927E-1   -2.573447348849756E-3    8.814496969743176E-4   -2.603138976130822E-3    9.451977075568262E-4    2.400391743112007E-1    4.485498932536781E-1
 8.151109305900000E9     9.980702757187135E-2    5.305459460073940E-1   -2.590347577136760E-3    8.914826676887016E-4   -2.588581696180741E-3    9.592186966583577E-4    2.405175543185549E-1    4.481731348845022E-1
 8.151117997675000E9     1.003709787721422E-1    5.304341598751348E-1   -2.585225712249426E-3    8.995584560243995E-4   -2.586229610490878E-3    9.441178510492087E-4    2.410099715055190E-1    4.479947140506543E-1
 8.151126689450000E9     1.009954611336751E-1    5.303552364253351E-1   -2.595596747131558E-3    8.969230112124180E-4   -2.583848719412142E-3    9.558443299082554E-4    2.414516823680326E-1    4.477134988664753E-1
 8.151135381225000E9     1.015202100938282E-1    5.301830204063946E-1   -2.565131585162246E-3    9.111026761254565E-4   -2.598242260466028E-3    9.307361405521292E-4    2.421310605798473E-1    4.473958685523146E-1
 8.151144073000000E9     1.021955562251761E-1    5.300491787477530E-1   -2.599854288287057E-3    9.064834168094247E-4   -2.611021596108115E-3    9.725805301639840E-4    2.423681437594972E-1    4.470470161412351E-1
 8.151152764775000E9     1.026847732792489E-1    5.299976641169500E-1   -2.593639103345904E-3    9.230699448842495E-4   -2.604783247869879E-3    9.414762645904985E-4    2.428678158445642E-1    4.469235441666785E-1
 8.151161456550000E9     1.034689621948311E-1    5.298606268373122E-1   -2.576922196622715E-3    8.976803127078637E-4   -2.602972724423934E-3    9.859152424747870E-4    2.433884607726397E-1    4.466111385601225E-1
 8.151170148325000E9     1.039581168238103E-1    5.297833906760192E-1   -2.595105461509229E-3    9.268415443909954E-4   -2.577308894126836E-3    1.000188509357714E-3    2.439873554409941E-1    4.462360591436789E-1
 8.151178840100000E9     1.046287705093972E-1    5.296933490869639E-1   -2.584687599025376E-3    9.243019072621265E-4   -2.579934562636562E-3    9.724975333254072E-4    2.443924745507171E-1    4.460441410407356E-1
 8.151187531875000E9     1.052189164062709E-1    5.294431268042441E-1   -2.586462280398059E-3    9.235006560024996E-4   -2.604903774441767E-3    1.013169444604349E-3    2.448047330189161E-1    4.457707654242590E-1
 8.151196223650000E9     1.058461347947274E-1    5.293364633247868E-1   -2.558258220492910E-3    9.217178276118303E-4   -2.552474661268899E-3    9.766429730404559E-4    2.453187882423281E-1    4.454190916811914E-1
 8.151204915425000E9     1.063499536875451E-1    5.293750753531618E-1   -2.595231444004424E-3    9.320242127203829E-4   -2.583212475267141E-3    9.813282503291741E-4    2.457667919841170E-1    4.451561293557783E-1
 8.151213607200000E9     1.070321835356026E-1    5.293816513835106E-1   -2.580992610742205E-3    9.271027723594832E-4   -2.603850057953415E-3    9.963568079474024E-4    2.462273475522311E-1    4.448648545261403E-1
 8.151222298975000E9     1.076494859888098E-1    5.291860729953966E-1   -2.585127803611897E-3    9.312538783356437E-4   -2.599558151521355E-3    9.546430216304901E-4    2.465873292011201E-1    4.445088936317264E-1
 8.151230990750000E9     1.081424442105902E-1    5.291428840457496E-1   -2.591118510760667E-3    9.363747266800521E-4   -2.578535346873454E-3    9.864683280193087E-4    2.473320716887805E-1    4.444933115071276E-1
