#  HZ   S   RI   R     50.00 
! Rohde & Schwarz Vector Network Analyzer 
! Rohde-Schwarz,ZNB20-2Port,1311601062101988,3.16
! Created: UTC 3/21/2024, 1:12:57 AM
! freq[Hz]                re:S11                  im:S11                  re:S21                  im:S21                  re:S12                  im:S12                  re:S22                  im:S22
 8.150460025000000E9     5.452051181316200E-2    5.359387006054853E-1   -2.569615780880421E-3    6.444635310079262E-4   -2.604364128131657E-3    6.877411498912907E-4    2.034267274411793E-1    4.672633115719359E-1
 8.150468695975000E9     5.514298857109821E-2    5.358879054703845E-1   -2.571216052883288E-3    6.542899747462513E-4   -2.611582857678217E-3    6.739419962109740E-4    2.037742740693957E-1    4.671124314467939E-1
 8.150477366950000E9     5.586495698163720E-2    5.358153869002877E-1   -2.567079047000410E-3    6.473630511275085E-4   -2.574472817930945E-3    7.102025001013432E-4    2.043373166718213E-1    4.667253832911578E-1
 8.150486037925000E9     5.628157905533458E-2    5.358663467121537E-1   -2.588831385400050E-3    6.363278219898505E-4   -2.587009217359013E-3    6.977820395812678E-4    2.049380303822924E-1    4.665992015031770E-1
 8.150494708900000E9     5.696828611217584E-2    5.358124491596826E-1   -2.580540621990489E-3    6.438095935290414E-4   -2.610907058780421E-3    6.953173088982073E-4    2.054937226991746E-1    4.664221013727032E-1
 8.150503379875000E9     5.767617734148035E-2    5.358426831337805E-1   -2.576674228591276E-3    6.604194609430915E-4   -2.596117664456620E-3    6.809061813751526E-4    2.058477621249887E-1    4.661246255963966E-1
 8.150512050850000E9     5.826014540846956E-2    5.356880833838429E-1   -2.579170216412914E-3    6.525759716638034E-4   -2.584869445808473E-3    7.121653675595737E-4    2.064046034347428E-1    4.658790189182092E-1
 8.150520721825000E9     5.881338894439853E-2    5.355677786849211E-1   -2.594016153932287E-3    6.525366006312690E-4   -2.590934217720342E-3    7.211262881287501E-4    2.068622260075071E-1    4.657315292546787E-1
 8.150529392800000E9     5.937115280904655E-2    5.356269222799531E-1   -2.561673854657996E-3    6.810410696528491E-4   -2.609516954117436E-3    7.213876921186003E-4    2.075667159952469E-1    4.653746142041991E-1
 8.150538063775000E9     6.003834935588614E-2    5.355849124056479E-1   -2.572419350723122E-3    6.596455543439425E-4   -2.594475408347571E-3    7.062245519090429E-4    2.079740282979448E-1    4.652136691162828E-1
 8.150546734750000E9     6.065372927766627E-2    5.354729782493400E-1   -2.556901126961945E-3    6.648227863872062E-4   -2.607795485514508E-3    7.126880749189993E-4    2.083846365955921E-1    4.648614075040712E-1
 8.150555405725000E9     6.129970292063212E-2    5.354484041115478E-1   -2.590417361584035E-3    6.776446723522197E-4   -2.605143012668910E-3    7.316814583619903E-4    2.088665015734113E-1    4.646534010722128E-1
 8.150564076700000E9     6.176425836046429E-2    5.351987571089737E-1   -2.561840255844813E-3    6.769834199402647E-4   -2.585035911293390E-3    7.500533581572023E-4    2.094709904913011E-1    4.644502769068922E-1
 8.150572747675000E9     6.249596444647897E-2    5.352926719735560E-1   -2.589643630312748E-3    6.672211254088893E-4   -2.572172228329214E-3    7.420498346558917E-4    2.099401635242319E-1    4.641934335264920E-1
 8.150581418650000E9     6.314032975556706E-2    5.351969935909444E-1   -2.576663011765674E-3    6.995466406527873E-4   -2.579517434505704E-3    7.194953135347086E-4    2.104033726410498E-1    4.638913946339530E-1
 8.150590089625000E9     6.375771446797364E-2    5.352546150504809E-1   -2.576126764847398E-3    6.860961098584613E-4   -2.585884773748625E-3    7.243601944819963E-4    2.110287895431317E-1    4.636612905488010E-1
 8.150598760600000E9     6.427080410229070E-2    5.350302360054827E-1   -2.565586498884286E-3    6.901392382988440E-4   -2.575502185109389E-3    7.739567182141895E-4    2.113560582740960E-1    4.635720750233248E-1
 8.150607431575000E9     6.490804195545738E-2    5.349826637745251E-1   -2.595428704772795E-3    6.881271149328376E-4   -2.576860185805508E-3    7.396510850481704E-4    2.121980789563301E-1    4.631169400972590E-1
 8.150616102550000E9     6.556580974915209E-2    5.349343680829813E-1   -2.584587243150468E-3    6.941400488671231E-4   -2.612224492898011E-3    7.342798891862752E-4    2.124590651994054E-1    4.629832070553220E-1
 8.150624773525000E9     6.603277601449022E-2    5.348591678531579E-1   -2.597119285845503E-3    7.168014917856839E-4   -2.587865434666727E-3    7.369942402521876E-4    2.130985314155565E-1    4.627986048258468E-1
 8.150633444500000E9     6.674750502582519E-2    5.348987957775195E-1   -2.590813764544941E-3    6.988895006548796E-4   -2.603096021202080E-3    7.338564895299554E-4    2.133760890392162E-1    4.625524889151293E-1
 8.150642115475000E9     6.737984353760476E-2    5.346568607218111E-1   -2.554508270626425E-3    6.924509451515560E-4   -2.608462439747544E-3    7.678334425300836E-4    2.139404966455634E-1    4.623238949530928E-1
 8.150650786450000E9     6.785895912071389E-2    5.347330974341963E-1   -2.572691477098180E-3    7.110703396724936E-4   -2.580668347588324E-3    7.459648688696661E-4    2.145831198635417E-1    4.620280254576561E-1
 8.150659457425000E9     6.839600670349935E-2    5.346562935796441E-1   -2.574575502350097E-3    7.201219476408781E-4   -2.599385495241190E-3    7.768369147424939E-4    2.150216743961339E-1    4.617554317172959E-1
 8.150668128400000E9     6.906403080933642E-2    5.346328238881897E-1   -2.587957786632841E-3    7.219826677372316E-4   -2.605132053554526E-3    7.775153578396852E-4    2.155201521296309E-1    4.614959948629825E-1
 8.150676799375000E9     6.969723581843804E-2    5.346264185261845E-1   -2.548229324473373E-3    7.167821343211265E-4   -2.598260254763190E-3    7.776117823452871E-4    2.159954666938846E-1    4.613418524690300E-1
 8.150685470350000E9     7.032794896427230E-2    5.343889893098046E-1   -2.577276400898095E-3    7.315773575959086E-4   -2.599411689135996E-3    7.771306268493328E-4    2.165201273055297E-1    4.610164460301694E-1
 8.150694141325000E9     7.087828147193702E-2    5.343465423951157E-1   -2.582401550776083E-3    7.417511242025462E-4   -2.579884946594069E-3    7.807107637017952E-4    2.170182712028575E-1    4.608544049451733E-1
 8.150702812300000E9     7.148193461637839E-2    5.344083467724703E-1   -2.554419646827851E-3    7.136564443085623E-4   -2.596380473402394E-3    7.808547657966559E-4    2.174719967347019E-1    4.605324172797109E-1
 8.150711483275000E9     7.212137912733310E-2    5.342837024708862E-1   -2.584023252958748E-3    7.141910598031983E-4   -2.588592739091657E-3    7.725774918231849E-4    2.178315430069238E-1    4.602899426110141E-1
 8.150720154250000E9     7.282738749094071E-2    5.342361479781186E-1   -2.547074271265013E-3    7.160451890975553E-4   -2.594473611808794E-3    8.033885475301163E-4    2.185554696879831E-1    4.600416504283166E-1
 8.150728825225000E9     7.332773668382424E-2    5.340591235237478E-1   -2.576574175209958E-3    7.278558375564428E-4   -2.581959961101037E-3    8.030980161654700E-4    2.189597841226824E-1    4.597650900150063E-1
 8.150737496200000E9     7.399787666165404E-2    5.341134654397374E-1   -2.590873416955075E-3    7.526713489983912E-4   -2.575895716584713E-3    7.739987438933553E-4    2.194142207154869E-1    4.596565147361738E-1
 8.150746167175000E9     7.436381717822978E-2    5.341374569551187E-1   -2.574598773635058E-3    7.453192272678431E-4   -2.597342859173904E-3    7.993574497529214E-4    2.198809103071541E-1    4.594128074533819E-1
 8.150754838150000E9     7.510810404845725E-2    5.339416092802156E-1   -2.568773981219617E-3    7.442273687523569E-4   -2.579075878973991E-3    7.966964199990189E-4    2.204743944546979E-1    4.590499301629973E-1
 8.150763509125000E9     7.575334425252372E-2    5.337310869650291E-1   -2.592578414526949E-3    7.344904827869025E-4   -2.602726890080128E-3    8.197879797230187E-4    2.209540422698089E-1    4.589434851786051E-1
 8.150772180100000E9     7.634215386374354E-2    5.337485068959844E-1   -2.560637085910410E-3    7.550025325682321E-4   -2.574788665063989E-3    8.263937164432258E-4    2.214786978913922E-1    4.585940425129014E-1
 8.150780851075000E9     7.697765934675009E-2    5.338592198619946E-1   -2.585224160683209E-3    7.315511217453433E-4   -2.586832329652214E-3    8.024047940739143E-4    2.218923225986759E-1    4.582938244028584E-1
 8.150789522050000E9     7.754542521502500E-2    5.336541566830812E-1   -2.576477108998459E-3    7.598759296104284E-4   -2.582184183598536E-3    8.020627029011873E-4    2.223695368500632E-1    4.580091216202536E-1
 8.150798193025000E9     7.804677442083680E-2    5.336249733454046E-1   -2.566638972968673E-3    7.786151522968892E-4   -2.576141363586474E-3    8.126688344379206E-4    2.229389397483596E-1    4.578109483323912E-1
 8.150806864000000E9     7.883040799260627E-2    5.335347477225202E-1   -2.600251720199310E-3    7.394063970103528E-4   -2.596936772488820E-3    8.529561062485131E-4    2.234046759657961E-1    4.574994245178083E-1
 8.150815534975000E9     7.935404436964971E-2    5.334598902009071E-1   -2.571234874408794E-3    7.719475962070699E-4   -2.616287312419396E-3    7.941984295611638E-4    2.240376406930617E-1    4.572499905089434E-1
 8.150824205950000E9     7.997403731759099E-2    5.334051387268168E-1   -2.555839775265726E-3    7.723563722048983E-4   -2.571094189036761E-3    8.453583414981182E-4    2.244014503051232E-1    4.571969907529747E-1
 8.150832876925000E9     8.057844617255593E-2    5.332460199109563E-1   -2.567345028292990E-3    7.719177644307926E-4   -2.576410335686078E-3    8.026444425151248E-4    2.247981062088814E-1    4.566181223674641E-1
 8.150841547900000E9     8.114287864769634E-2    5.332528908393352E-1   -2.571987111528155E-3    7.824912937954077E-4   -2.591143409716440E-3    8.125215641604134E-4    2.253387169423654E-1    4.564632050542644E-1
 8.150850218875000E9     8.178612980965391E-2    5.331425896016965E-1   -2.571909655842017E-3    7.755538829413266E-4   -2.568658140637628E-3    8.476357642264689E-4    2.260039603041959E-1    4.562609340005094E-1
 8.150858889850000E9     8.228669885130040E-2    5.331152067935118E-1   -2.572020233633946E-3    7.810532500330259E-4   -2.582788671220271E-3    8.388001124015541E-4    2.263019784682271E-1    4.558679284948040E-1
 8.150867560825000E9     8.293009055272814E-2    5.329367702170229E-1   -2.566819844582175E-3    8.010918100163912E-4   -2.582801189701603E-3    8.302619197600428E-4    2.269346672119064E-1    4.557796198579507E-1
 8.150876231800000E9     8.350388958753240E-2    5.330031311118507E-1   -2.574650454808462E-3    8.011512856598041E-4   -2.571631110998602E-3    8.404173457202044E-4    2.274357385517634E-1    4.555480206011689E-1
 8.150884902775000E9     8.422872658341676E-2    5.328364991010571E-1   -2.556682374824508E-3    8.047564198321875E-4   -2.622588323783776E-3    8.515999102331273E-4    2.278711978501406E-1    4.552270200796851E-1
 8.150893573750000E9     8.470266003857857E-2    5.327760454055193E-1   -2.572207078716225E-3    8.032054316077817E-4   -2.620414808369176E-3    8.733942449793118E-4    2.282814300738559E-1    4.550123088454727E-1
 8.150902244725000E9     8.526354055755422E-2    5.326872647256844E-1   -2.556309843113878E-3    8.055631817434363E-4   -2.584218585485721E-3    8.517214636776161E-4    2.289332813181822E-1    4.547166615394299E-1
 8.150910915700000E9     8.603581366196389E-2    5.326507453407695E-1   -2.569571273311695E-3    8.043785580788749E-4   -2.586208833887234E-3    8.854667940927461E-4    2.293629018084153E-1    4.545027877503020E-1
 8.150919586675000E9     8.658027511067631E-2    5.323977958632694E-1   -2.577419908447098E-3    8.183967759293515E-4   -2.621233134554562E-3    8.821503696645701E-4    2.298965966536621E-1    4.542600330516926E-1
 8.150928257650000E9     8.709257644883743E-2    5.323549710177425E-1   -2.571921144945145E-3    8.304398978123855E-4   -2.592827493970197E-3    8.648139753899521E-4    2.303096861120184E-1    4.539524057892779E-1
 8.150936928625000E9     8.775956394668474E-2    5.322438592708019E-1   -2.580188147569675E-3    8.216410500064879E-4   -2.588515778342350E-3    9.142466197846605E-4    2.307533309676475E-1    4.536368589489291E-1
 8.150945599600000E9     8.824885289687241E-2    5.322403126677371E-1   -2.547398700389940E-3    8.440543455371694E-4   -2.623766677808857E-3    8.759027569061181E-4    2.312675182659768E-1    4.533819695883279E-1
 8.150954270575000E9     8.909768364919304E-2    5.320640337327034E-1   -2.585166117848863E-3    8.119654454046264E-4   -2.591626245327994E-3    8.530061780499704E-4    2.317258596477928E-1    4.530690884679466E-1
 8.150962941550000E9     8.953882118173070E-2    5.320814661943183E-1   -2.537265149544205E-3    8.021250992750389E-4   -2.576327420457978E-3    8.746172544368941E-4    2.323057262775187E-1    4.527177336770554E-1
 8.150971612525000E9     9.020315253592512E-2    5.319771170805502E-1   -2.564051151799072E-3    8.210415424393544E-4   -2.578468702271156E-3    8.649048249729984E-4    2.327880576857582E-1    4.526492554279315E-1
 8.150980283500000E9     9.085758775713512E-2    5.319320851779077E-1   -2.574280619698267E-3    8.232883266332873E-4   -2.597934371815062E-3    8.864154229129810E-4    2.332738328634728E-1    4.525507676927054E-1
 8.150988954475000E9     9.143392429358300E-2    5.318384936540065E-1   -2.590032789055278E-3    8.577678128348898E-4   -2.592269317687311E-3    9.094402016476023E-4    2.336337674693304E-1    4.520795975858987E-1
 8.150997625450000E9     9.198865661666719E-2    5.316464038517431E-1   -2.582670723735798E-3    8.395974362408811E-4   -2.626563962293322E-3    8.835244565901167E-4    2.342179027796359E-1    4.518368972484197E-1
 8.151006296425000E9     9.260515476888052E-2    5.315109939848529E-1   -2.579530869596856E-3    8.582518590182438E-4   -2.586011065763088E-3    9.083586775004322E-4    2.345548925695375E-1    4.515005164695090E-1
 8.151014967400000E9     9.309473622861733E-2    5.315278904193238E-1   -2.560168664866835E-3    8.453367069586540E-4   -2.578007393190693E-3    9.222848433186905E-4    2.351313561468166E-1    4.512899714050251E-1
 8.151023638375000E9     9.379352231784144E-2    5.314043742920670E-1   -2.563605784597035E-3    8.808912827012748E-4   -2.556281619567131E-3    8.970020434203789E-4    2.356645559709193E-1    4.509559399077092E-1
 8.151032309350000E9     9.451042758705157E-2    5.313294499232646E-1   -2.572782576562916E-3    8.436750085731327E-4   -2.590332120814302E-3    8.924291805544976E-4    2.363146244787878E-1    4.508720355625323E-1
 8.151040980325000E9     9.497435612715865E-2    5.312321043078475E-1   -2.585689776945145E-3    8.635518787855936E-4   -2.541672383493242E-3    9.073445922922274E-4    2.365936489026375E-1    4.505171984524262E-1
 8.151049651300000E9     9.547617055785555E-2    5.310978478635895E-1   -2.566275860304822E-3    8.844784743951055E-4   -2.604552252890312E-3    9.057748181059235E-4    2.372317933874201E-1    4.501557125750104E-1
 8.151058322275000E9     9.616817141084377E-2    5.310843182296541E-1   -2.590719283120653E-3    8.812738178625514E-4   -2.613887004448744E-3    9.110226279145463E-4    2.376920104927460E-1    4.497900595879660E-1
 8.151066993250000E9     9.669617579785053E-2    5.310024035180549E-1   -2.584260612495985E-3    8.733174938120058E-4   -2.573830358606572E-3    9.281712180530426E-4    2.381116271175335E-1    4.497289031676588E-1
 8.151075664225000E9     9.738826206930017E-2    5.309157190723831E-1   -2.584004032721170E-3    9.016783134054079E-4   -2.587716494397275E-3    9.188250946835876E-4    2.385763334478018E-1    4.493517673842610E-1
 8.151084335200000E9     9.788271359081742E-2    5.307659931813989E-1   -2.575794165214351E-3    8.796313769479280E-4   -2.563389485837110E-3    9.456729322668589E-4    2.389900882443681E-1    4.492253230786868E-1
 8.151093006175000E9     9.858481371108374E-2    5.306484038876130E-1   -2.586373517888971E-3    8.849689985608969E-4   -2.595948435705770E-3    9.333747756380622E-4    2.395553882246069E-1    4.489356459558135E-1
 8.151101677150000E9     9.912641363699513E-2    5.305982567771601E-1   -2.588545939422748E-3    8.729593606921092E-4   -2.613666716843854E-3    9.567152251617912E-4    2.401632438676382E-1    4.485911814217961E-1
 8.151110348125000E9     9.966734196164020E-2    5.304722712630753E-1   -2.603811244213569E-3    8.778370466349839E-4   -2.568097936277026E-3    9.382417940133230E-4    2.406973508075187E-1    4.483367005578245E-1
 8.151119019100000E9     1.003604618392251E-1    5.304971770816658E-1   -2.586184157827649E-3    8.709277640427451E-4   -2.574546852017532E-3    9.266445150938265E-4    2.409514665885115E-1    4.480539188088582E-1
 8.151127690075000E9     1.010182235230678E-1    5.302245778610682E-1   -2.567114026019103E-3    8.935275265084723E-4   -2.594902394703947E-3    9.700052744759768E-4    2.414944502104451E-1    4.478829133655390E-1
 8.151136361050000E9     1.016434229834976E-1    5.300478869156843E-1   -2.584231992665843E-3    9.046258817238462E-4   -2.577977723638820E-3    9.581339899764427E-4    2.419794312981437E-1    4.474558871763233E-1
 8.151145032025000E9     1.022156805667512E-1    5.301088206513439E-1   -2.586296289940421E-3    9.004392787683897E-4   -2.601239081319131E-3    9.884913160839899E-4    2.424471684145379E-1    4.472222147177372E-1
 8.151153703000000E9     1.027634373152978E-1    5.298476402568105E-1   -2.573308153571705E-3    9.155545954021018E-4   -2.617525944015645E-3    9.645880675118153E-4    2.428170558334208E-1    4.469629425362576E-1
 8.151162373975000E9     1.032983172174290E-1    5.299529428504380E-1   -2.571495469820237E-3    9.092615164922459E-4   -2.573370641706590E-3    9.812635358511282E-4    2.434599487215492E-1    4.466640281995845E-1
 8.151171044950000E9     1.039698528385755E-1    5.297335401510774E-1   -2.556993821860151E-3    9.301818772195517E-4   -2.585068558822402E-3    9.525938741852859E-4    2.439939314009218E-1    4.464766694867600E-1
 8.151179715925000E9     1.045978961956324E-1    5.297429275200907E-1   -2.549082331157914E-3    9.286315298047776E-4   -2.599581946461612E-3    9.772379223130659E-4    2.442777463341207E-1    4.459840139971506E-1
 8.151188386900000E9     1.051987272967303E-1    5.295910315106869E-1   -2.578480169629469E-3    9.390851025238378E-4   -2.584486807072576E-3    9.438799306951905E-4    2.448145895304762E-1    4.458431211327205E-1
 8.151197057875000E9     1.057800730796875E-1    5.293824494411077E-1   -2.559962541490870E-3    9.064029530572916E-4   -2.595348132902211E-3    9.660702927052928E-4    2.453682606181908E-1    4.455499502442745E-1
 8.151205728850000E9     1.062703046974193E-1    5.293188758112722E-1   -2.578589103802121E-3    9.172083691078375E-4   -2.593343748199332E-3    9.716745026836835E-4    2.458656506211334E-1    4.452276994944406E-1
 8.151214399825000E9     1.070152393615781E-1    5.292172217612644E-1   -2.584691117936531E-3    9.503988050470959E-4   -2.591350684551923E-3    1.008801999526919E-3    2.462810141750580E-1    4.449860169346143E-1
 8.151223070800000E9     1.076197812740039E-1    5.291548982034732E-1   -2.585740771638236E-3    9.503696708939135E-4   -2.596839037868747E-3    9.826398536206323E-4    2.467475282765653E-1    4.446886329975999E-1
 8.151231741775000E9     1.081720215480021E-1    5.289322433142278E-1   -2.576299417213005E-3    9.518852727848464E-4   -2.592853394313106E-3    1.014942236861161E-3    2.471902922939840E-1    4.446610821609257E-1
 8.151240412750000E9     1.087716873453981E-1    5.288817505418102E-1   -2.604956249765434E-3    9.621876057275950E-4   -2.613086485864453E-3    1.038194863867968E-3    2.476669121409160E-1    4.441249243459126E-1
