#  HZ   S   RI   R     50.00 
! Rohde & Schwarz Vector Network Analyzer 
! Rohde-Schwarz,ZNB20-2Port,1311601062101988,3.16
! Created: UTC 3/21/2024, 1:13:04 AM
! freq[Hz]                re:S11                  im:S11                  re:S21                  im:S21                  re:S12                  im:S12                  re:S22                  im:S22
 8.150537362000000E9     5.979894628684902E-2    5.356515885959175E-1   -2.579235916440199E-3    6.822457398256668E-4   -2.586917673623563E-3    7.024839030684820E-4    2.077393036578725E-1    4.652554896409336E-1
 8.150545711975000E9     6.042287399642124E-2    5.354795312007028E-1   -2.553596620932217E-3    6.909063671934351E-4   -2.592266903454420E-3    7.104930750394046E-4    2.084304148636997E-1    4.649854692980342E-1
 8.150554061950000E9     6.101982453272969E-2    5.354851717714973E-1   -2.571891746473838E-3    6.717859642219915E-4   -2.605502179930169E-3    7.100118062927929E-4    2.089153029090810E-1    4.648515125384334E-1
 8.150562411925000E9     6.156225653091443E-2    5.352463061023696E-1   -2.587208783415833E-3    6.763886767430017E-4   -2.595609856921506E-3    7.633683351183164E-4    2.093099566453159E-1    4.646442132665031E-1
 8.150570761900000E9     6.213414600525039E-2    5.352690292893544E-1   -2.543596392620430E-3    6.619824775949318E-4   -2.584584211959267E-3    7.312418641336942E-4    2.097639485565223E-1    4.644590737051096E-1
 8.150579111875000E9     6.268401412733175E-2    5.351804814177420E-1   -2.579498873592444E-3    6.666219524545285E-4   -2.577634147459147E-3    7.071674135274537E-4    2.102130314934568E-1    4.640685053004553E-1
 8.150587461850000E9     6.330636864807773E-2    5.351852489445588E-1   -2.575574879472944E-3    6.808571737653412E-4   -2.618358814019851E-3    7.348977064558332E-4    2.107602139442659E-1    4.640739614841963E-1
 8.150595811825000E9     6.402137637460839E-2    5.351791957089852E-1   -2.573423177523554E-3    6.889228077304200E-4   -2.582752597740458E-3    7.010273179659257E-4    2.112042914467922E-1    4.635867314277239E-1
 8.150604161800000E9     6.453965150173958E-2    5.350384582344011E-1   -2.560977499848725E-3    6.860840649925119E-4   -2.604084677157940E-3    7.411133928335207E-4    2.118007452853557E-1    4.635967844620767E-1
 8.150612511775000E9     6.519611681478446E-2    5.349943211223342E-1   -2.546469346371644E-3    6.650491353427666E-4   -2.588087139690133E-3    7.491475219505652E-4    2.124178605852699E-1    4.631896931608560E-1
 8.150620861750000E9     6.572148666615835E-2    5.349480602192014E-1   -2.546580112886434E-3    6.931288917288665E-4   -2.599717001688955E-3    7.670128719969213E-4    2.125738876710666E-1    4.629967102882033E-1
 8.150629211725000E9     6.639015888295909E-2    5.349308310972445E-1   -2.577089599693644E-3    6.914579188745925E-4   -2.609734647375175E-3    7.638169569888729E-4    2.131059502875152E-1    4.627554409805439E-1
 8.150637561700000E9     6.675033942395937E-2    5.347038867894836E-1   -2.567643272965808E-3    6.877503515473628E-4   -2.605081507790227E-3    7.562439011282071E-4    2.137115949166679E-1    4.625223685924304E-1
 8.150645911675000E9     6.743308318087186E-2    5.348090192674803E-1   -2.569513550664251E-3    6.987052069898764E-4   -2.580191350810227E-3    7.637645723136466E-4    2.142114417957951E-1    4.622757658258358E-1
 8.150654261650000E9     6.809133300226294E-2    5.348075557081704E-1   -2.565836894150220E-3    6.922238723373342E-4   -2.586429135800057E-3    7.525765496300397E-4    2.145843370469486E-1    4.620400844754789E-1
 8.150662611625000E9     6.851225057165332E-2    5.346189919788054E-1   -2.578628536874480E-3    6.807474539785264E-4   -2.583373713688797E-3    7.454698008015247E-4    2.149619822845394E-1    4.619273470073128E-1
 8.150670961600000E9     6.924171126514403E-2    5.346570370333805E-1   -2.570542608209913E-3    7.084261846034661E-4   -2.556615125488907E-3    7.592623745271801E-4    2.155447473276133E-1    4.616697798778333E-1
 8.150679311575000E9     6.980118712129922E-2    5.345689620807309E-1   -2.577542452868645E-3    7.421541534618766E-4   -2.578904957982703E-3    7.625205967289221E-4    2.160272821236817E-1    4.613804458519558E-1
 8.150687661550000E9     7.037836214389229E-2    5.345909842366707E-1   -2.574271548095155E-3    7.246759417130301E-4   -2.546152991739349E-3    7.685744417459744E-4    2.165271835630014E-1    4.611614704075546E-1
 8.150696011525000E9     7.095781307431141E-2    5.344160991616894E-1   -2.577018703407093E-3    7.412483987921806E-4   -2.589780653085636E-3    7.781897895318417E-4    2.169870930532653E-1    4.609222432143182E-1
 8.150704361500000E9     7.145205151526379E-2    5.343088908035798E-1   -2.592253377569118E-3    7.236810862961884E-4   -2.585043938032093E-3    7.915936688706632E-4    2.173820198444799E-1    4.606773752586946E-1
 8.150712711475000E9     7.202087180755588E-2    5.342397333784545E-1   -2.574528620894996E-3    7.282431350841479E-4   -2.603332706829823E-3    7.678718785328371E-4    2.181408094219977E-1    4.603824036018832E-1
 8.150721061450000E9     7.261041332471238E-2    5.341540255723417E-1   -2.591055836320604E-3    7.285411048552322E-4   -2.568189315873901E-3    7.909758337415202E-4    2.184316331371132E-1    4.601886953428667E-1
 8.150729411425000E9     7.322767596880149E-2    5.340950980739174E-1   -2.593586908458713E-3    7.321887860458490E-4   -2.596903553487242E-3    7.808295149380295E-4    2.189811170506758E-1    4.599354230724709E-1
 8.150737761400000E9     7.374363407318747E-2    5.340386132619264E-1   -2.600172956128678E-3    7.553100158006201E-4   -2.580443292245725E-3    7.781296822266740E-4    2.193499789813358E-1    4.596097051453942E-1
 8.150746111375000E9     7.442436774033513E-2    5.340353842679068E-1   -2.549342775670183E-3    7.460047615074998E-4   -2.614626012661852E-3    8.053934172282570E-4    2.199059896907107E-1    4.595436870316438E-1
 8.150754461350000E9     7.488720675897116E-2    5.339207249330616E-1   -2.555890721585459E-3    7.394671997969878E-4   -2.566355468197768E-3    7.929130777786607E-4    2.203504659391487E-1    4.592386449060400E-1
 8.150762811325000E9     7.553370449636969E-2    5.338872110290985E-1   -2.588702519904927E-3    7.633889032947876E-4   -2.560335402762059E-3    7.928723190026150E-4    2.207387772397673E-1    4.590101453245027E-1
 8.150771161300000E9     7.613694634929624E-2    5.338212334228785E-1   -2.571862710904001E-3    7.579545990425236E-4   -2.583205551434777E-3    8.165441477532375E-4    2.214111943396590E-1    4.586011312957848E-1
 8.150779511275000E9     7.686266987744828E-2    5.338043807175600E-1   -2.572799652911070E-3    7.426544305765115E-4   -2.569136218436383E-3    8.281220911190418E-4    2.218298795794930E-1    4.583874161741888E-1
 8.150787861250000E9     7.734470061184455E-2    5.337427628557448E-1   -2.562814348705052E-3    7.457854984703716E-4   -2.613198564053347E-3    8.096776858172043E-4    2.222170003511169E-1    4.582722256723838E-1
 8.150796211225000E9     7.786529062674845E-2    5.336188539446619E-1   -2.557647608235161E-3    7.766506460395971E-4   -2.622883402922515E-3    8.495250582338536E-4    2.227956680072948E-1    4.579544790305429E-1
 8.150804561200000E9     7.840239601564777E-2    5.335541404231112E-1   -2.575851107719648E-3    7.621641821933478E-4   -2.592141336013180E-3    8.279483936785921E-4    2.231975782348649E-1    4.576320743329017E-1
 8.150812911175000E9     7.902317084188891E-2    5.334708127972930E-1   -2.576231276143014E-3    7.863813875464333E-4   -2.598450723108488E-3    8.533408855286130E-4    2.238425987337468E-1    4.574806814664550E-1
 8.150821261150000E9     7.960325465833555E-2    5.334400789792685E-1   -2.570511343270325E-3    7.237975263011437E-4   -2.590846915349337E-3    8.221143466557312E-4    2.243038491277466E-1    4.571805410154236E-1
 8.150829611125000E9     8.023733883681755E-2    5.332851854399112E-1   -2.571022857534734E-3    7.786425114161825E-4   -2.578026877420554E-3    7.937194516939136E-4    2.246941929942827E-1    4.570352576649301E-1
 8.150837961100000E9     8.081918455237963E-2    5.332735256696404E-1   -2.577142330583383E-3    7.922422416971794E-4   -2.605496546016336E-3    8.032596215655271E-4    2.252222730517293E-1    4.567554236445869E-1
 8.150846311075000E9     8.133479138999322E-2    5.332815569532378E-1   -2.560764598428811E-3    7.640035706843877E-4   -2.565120946141401E-3    8.332105414449775E-4    2.257138514676244E-1    4.565450581145753E-1
 8.150854661050000E9     8.204108918503208E-2    5.330919688209925E-1   -2.571525031602251E-3    7.609359571057892E-4   -2.581913443637444E-3    8.321119946712065E-4    2.260473867592538E-1    4.564463872886597E-1
 8.150863011025000E9     8.243073824388310E-2    5.330310949207528E-1   -2.578978481540187E-3    7.827903421520372E-4   -2.571580009439803E-3    8.473819351548114E-4    2.265828964498361E-1    4.560588472214639E-1
 8.150871361000000E9     8.304985068091443E-2    5.330379222841259E-1   -2.555098047640341E-3    8.074586231329971E-4   -2.583861210852591E-3    8.403091132812089E-4    2.270315898979202E-1    4.557099771096061E-1
 8.150879710975000E9     8.361547312898207E-2    5.329378633678893E-1   -2.581974686892842E-3    7.636417757612879E-4   -2.615186378030960E-3    8.477249567709885E-4    2.275775158703978E-1    4.554853142063446E-1
 8.150888060950000E9     8.430088959633894E-2    5.327000341431578E-1   -2.566146075754063E-3    7.944353631372379E-4   -2.596984003637926E-3    8.264981911821353E-4    2.280039954377048E-1    4.551875908779087E-1
 8.150896410925000E9     8.475662795207733E-2    5.326571046842177E-1   -2.597705006353158E-3    8.027455678070501E-4   -2.589047071465939E-3    8.641594864242866E-4    2.284895589504738E-1    4.550998549877348E-1
 8.150904760900000E9     8.545669118033745E-2    5.325718281537589E-1   -2.594930346945477E-3    8.173932403022468E-4   -2.578646486425885E-3    8.668748120111182E-4    2.288626787869359E-1    4.547599837354635E-1
 8.150913110875000E9     8.582324451418509E-2    5.325509936312761E-1   -2.568851293840633E-3    7.791269821980646E-4   -2.558098038272082E-3    8.564024961092062E-4    2.294292417234290E-1    4.544399243609400E-1
 8.150921460850000E9     8.659607259832032E-2    5.324638411483507E-1   -2.583105028123898E-3    8.083687396139810E-4   -2.580296407746790E-3    8.249259194462697E-4    2.298169422778838E-1    4.542920909788344E-1
 8.150929810825000E9     8.709278269179666E-2    5.323771120570908E-1   -2.582633089723057E-3    8.079476646283784E-4   -2.568812749188164E-3    8.531708428399069E-4    2.304617949804929E-1    4.540148639432415E-1
 8.150938160800000E9     8.769205063783204E-2    5.324026157447175E-1   -2.572684658980699E-3    7.795034062257764E-4   -2.564576050725126E-3    8.813694700091684E-4    2.307049791045813E-1    4.536890213496573E-1
 8.150946510775000E9     8.827841808806525E-2    5.322703678084370E-1   -2.587605531600403E-3    8.336399371590887E-4   -2.594377320740736E-3    8.422459501507876E-4    2.311669233795123E-1    4.535021177621696E-1
 8.150954860750000E9     8.881663422575932E-2    5.321734609171670E-1   -2.594262547803441E-3    8.259732751028238E-4   -2.609211164889376E-3    8.499968368593858E-4    2.318323157654658E-1    4.532826861967096E-1
 8.150963210725000E9     8.950120731663748E-2    5.321050172680221E-1   -2.580184162705051E-3    7.917659358383329E-4   -2.564017118276175E-3    8.849934254156863E-4    2.323086511717687E-1    4.530599251688395E-1
 8.150971560700000E9     8.997176658873941E-2    5.319959842647540E-1   -2.569725587927871E-3    8.434853362370346E-4   -2.572702039352671E-3    9.052386800494043E-4    2.326390936915227E-1    4.528425886069405E-1
 8.150979910675000E9     9.063018346034010E-2    5.317509737646215E-1   -2.549429181868023E-3    8.539368184920940E-4   -2.596859683925210E-3    8.623500124284459E-4    2.332501597576599E-1    4.524325954725881E-1
 8.150988260650000E9     9.115748425536352E-2    5.318629921056738E-1   -2.593166579639037E-3    8.489228615999348E-4   -2.574473855584383E-3    8.649204322371191E-4    2.336486368570028E-1    4.522614739169850E-1
 8.150996610625000E9     9.180556144954426E-2    5.316953176987322E-1   -2.588005582262135E-3    8.797936856994616E-4   -2.585081561661778E-3    9.074185033713785E-4    2.341667463549242E-1    4.520578497896871E-1
 8.151004960600000E9     9.245758691277331E-2    5.316582313748965E-1   -2.574674656140280E-3    8.579136559511349E-4   -2.594877805728877E-3    8.962302694258419E-4    2.345463838101105E-1    4.516596041481503E-1
 8.151013310575000E9     9.291441690686837E-2    5.315011878417423E-1   -2.555438172868568E-3    8.280201840528440E-4   -2.577005526076950E-3    9.020657122577878E-4    2.351153438835547E-1    4.514318637620129E-1
 8.151021660550000E9     9.352765421533996E-2    5.313729116778416E-1   -2.600282374982375E-3    8.590556195174841E-4   -2.576973837460049E-3    9.123415314642884E-4    2.355109625377438E-1    4.512821793591476E-1
 8.151030010525000E9     9.418648627941920E-2    5.314579651069709E-1   -2.564698480097541E-3    8.446124844170496E-4   -2.606415518867993E-3    9.244588207516565E-4    2.360216615106869E-1    4.509101936624788E-1
 8.151038360500000E9     9.459082573677233E-2    5.312804352739511E-1   -2.573173141679826E-3    8.400736028498778E-4   -2.584558016912893E-3    9.354999064067889E-4    2.363424412641210E-1    4.506253658376953E-1
 8.151046710475000E9     9.515017462012398E-2    5.311956338487280E-1   -2.570862751329137E-3    8.499802300456467E-4   -2.600579086019760E-3    9.038632108769595E-4    2.368637460233924E-1    4.504594675682395E-1
 8.151055060450000E9     9.587193514947549E-2    5.312088774634904E-1   -2.556436374527695E-3    8.780416387222340E-4   -2.564183477260798E-3    9.298088640640499E-4    2.374474995951369E-1    4.502182588789981E-1
 8.151063410425000E9     9.631951166515541E-2    5.309424944087234E-1   -2.597875148695880E-3    8.777562937042117E-4   -2.566293837326958E-3    9.450693487119709E-4    2.378032619030687E-1    4.498992506885202E-1
 8.151071760400000E9     9.698260603981972E-2    5.309208170243682E-1   -2.579276553204870E-3    8.671526346009282E-4   -2.593029777079067E-3    9.406299611371740E-4    2.383128238839434E-1    4.497292233450321E-1
 8.151080110375000E9     9.761837281016932E-2    5.309022666043189E-1   -2.578179523630928E-3    8.859871424748622E-4   -2.594657013031035E-3    9.341567909204264E-4    2.387611751350298E-1    4.493063496762678E-1
 8.151088460350000E9     9.810567287722625E-2    5.307788326425574E-1   -2.584150101187249E-3    8.702306534349367E-4   -2.570719075358600E-3    9.226962428801493E-4    2.391804842877926E-1    4.489843785821006E-1
 8.151096810325000E9     9.876627527302452E-2    5.306648010218117E-1   -2.586831589336239E-3    9.103203102654311E-4   -2.591267127825462E-3    9.743986367786083E-4    2.398020492076463E-1    4.489228011163544E-1
 8.151105160300000E9     9.933903128151465E-2    5.304301921545184E-1   -2.577002894081493E-3    9.061624534596294E-4   -2.575080574470819E-3    9.301043304479179E-4    2.401468276230302E-1    4.486023855294081E-1
 8.151113510275000E9     9.989889836608724E-2    5.303253044660070E-1   -2.595458360766828E-3    9.158610292932720E-4   -2.575617291827181E-3    9.337350668271187E-4    2.406601041230636E-1    4.483991949205307E-1
 8.151121860250000E9     1.003522729352648E-1    5.303717733071317E-1   -2.591355003972700E-3    9.047858076420470E-4   -2.591018759086014E-3    9.473297243272759E-4    2.410690077569954E-1    4.482127673547547E-1
 8.151130210225000E9     1.011252900717951E-1    5.302564315491993E-1   -2.586132917901848E-3    8.758990279073988E-4   -2.559641979121016E-3    9.044848912956536E-4    2.415861856760418E-1    4.477312249327390E-1
 8.151138560200000E9     1.015714665170617E-1    5.302092204493027E-1   -2.574607292422499E-3    8.888304099062019E-4   -2.591508963595997E-3    9.490098557895310E-4    2.419685949815640E-1    4.475896353765311E-1
 8.151146910175000E9     1.022184286830558E-1    5.300214184327587E-1   -2.584337144913181E-3    9.070914424849421E-4   -2.592692317495108E-3    9.469982762189568E-4    2.425410769275843E-1    4.472222857823920E-1
 8.151155260150000E9     1.027156513610246E-1    5.300120940878020E-1   -2.577351142812733E-3    9.338360777536033E-4   -2.618212418622380E-3    9.572860994905970E-4    2.430383220231980E-1    4.470371381818916E-1
 8.151163610125000E9     1.032728729173357E-1    5.298200747228956E-1   -2.556619598320296E-3    9.189359950283608E-4   -2.609792692434340E-3    9.369005902305536E-4    2.434777844309174E-1    4.467054396595105E-1
 8.151171960100000E9     1.038091687839988E-1    5.296743673219304E-1   -2.562542942147605E-3    9.176294621604698E-4   -2.584278181407368E-3    9.910340075310563E-4    2.438664938381889E-1    4.465687467708053E-1
 8.151180310075000E9     1.044676208915112E-1    5.296972581234752E-1   -2.577936365687974E-3    9.185056151279967E-4   -2.592285847644117E-3    1.023137313597050E-3    2.443558404294522E-1    4.461510959622970E-1
 8.151188660050000E9     1.051073865988393E-1    5.296452170611583E-1   -2.562464492629389E-3    9.300745348454771E-4   -2.574107459766726E-3    9.705544497022983E-4    2.448881435517554E-1    4.458674703191802E-1
 8.151197010025000E9     1.056599404907575E-1    5.293435457395094E-1   -2.576797287372771E-3    9.242782321114596E-4   -2.599508826213388E-3    9.656726085031506E-4    2.453493596544631E-1    4.457338718251917E-1
 8.151205360000000E9     1.062590870844931E-1    5.292047485813449E-1   -2.622678283158853E-3    9.767784269550275E-4   -2.616306172007790E-3    9.845850064654862E-4    2.457764366433648E-1    4.455265812650842E-1
 8.151213709975000E9     1.067500680632920E-1    5.291841674025304E-1   -2.569421009900626E-3    9.485058590437338E-4   -2.625519697888868E-3    9.602483270703469E-4    2.461171048272529E-1    4.451079459846061E-1
 8.151222059950000E9     1.073849617836183E-1    5.291422168330555E-1   -2.581677443303624E-3    9.435657977213835E-4   -2.584802911524036E-3    9.791825810341185E-4    2.466154964101372E-1    4.447577995793466E-1
 8.151230409925000E9     1.079550049445736E-1    5.289375501819215E-1   -2.588366781609463E-3    9.403940846820413E-4   -2.597778669938707E-3    1.012647335500367E-3    2.471717637681343E-1    4.447745302106012E-1
 8.151238759900000E9     1.084702111073382E-1    5.288800478602431E-1   -2.569890938079129E-3    9.357973610558034E-4   -2.595105500969045E-3    9.965247360030753E-4    2.475734144087159E-1    4.444773255479205E-1
 8.151247109875000E9     1.090963235086428E-1    5.288072094544261E-1   -2.594293315206869E-3    9.434745627785453E-4   -2.578656032942144E-3    1.024985503786378E-3    2.481002279948032E-1    4.440919108798729E-1
 8.151255459850000E9     1.097138832051497E-1    5.286768341602321E-1   -2.570170476618274E-3    9.648484765899317E-4   -2.603086653385405E-3    9.983494684467488E-4    2.484636495351522E-1    4.437060004344733E-1
 8.151263809825000E9     1.103106760538105E-1    5.285106297526271E-1   -2.610371774332220E-3    9.436439988286886E-4   -2.589151197499157E-3    1.017067638250871E-3    2.487895694413801E-1    4.437309372946679E-1
 8.151272159800000E9     1.107614076218316E-1    5.284738425915034E-1   -2.607765454508920E-3    9.613642554045008E-4   -2.567456025298918E-3    1.017547356328751E-3    2.494486013351994E-1    4.432654246248547E-1
 8.151280509775000E9     1.114962674059885E-1    5.283505738455079E-1   -2.589073953036168E-3    9.628058907571230E-4   -2.601691371812600E-3    1.019841255560101E-3    2.497093586314144E-1    4.428888751928730E-1
 8.151288859750000E9     1.120342739047715E-1    5.281837286678192E-1   -2.600573441894460E-3    9.716546412662271E-4   -2.629505672171462E-3    1.033522648005534E-3    2.504130991321067E-1    4.427042170498853E-1
