#  HZ   S   RI   R     50.00 
! Rohde & Schwarz Vector Network Analyzer 
! Rohde-Schwarz,ZNB20-2Port,1311601062101988,3.16
! Created: UTC 3/21/2024, 1:13:23 AM
! freq[Hz]                re:S11                  im:S11                  re:S21                  im:S21                  re:S12                  im:S12                  re:S22                  im:S22
 8.150551111000000E9     6.060269192409354E-2    5.354189999865790E-1   -2.577097634176016E-3    6.716071041202687E-4   -2.591172328578451E-3    7.246243728132578E-4    2.088383488966296E-1    4.653489646602004E-1
 8.150559479350000E9     6.109195027599219E-2    5.352182732111676E-1   -2.563473238811112E-3    6.757600351411743E-4   -2.589600065933121E-3    7.068763415355746E-4    2.091005828172648E-1    4.651755866180228E-1
 8.150567847700000E9     6.170689368459177E-2    5.352374101844087E-1   -2.579330026187343E-3    6.465865470157104E-4   -2.588684117945206E-3    7.154181038770068E-4    2.097226705551621E-1    4.649141368336390E-1
 8.150576216050000E9     6.234267904022352E-2    5.352121973753883E-1   -2.561726659821034E-3    6.581827840950018E-4   -2.603219615460748E-3    7.476426808375256E-4    2.100680093228256E-1    4.646096884949508E-1
 8.150584584400000E9     6.293372734936235E-2    5.352128932495094E-1   -2.600450189681183E-3    6.997734387786964E-4   -2.600387717906705E-3    7.261958241445611E-4    2.105300949898114E-1    4.645690670926681E-1
 8.150592952750000E9     6.352102647583488E-2    5.350897758586676E-1   -2.566199980053825E-3    6.732925894699322E-4   -2.606482697923887E-3    7.243046311723986E-4    2.111538046777733E-1    4.641967814471047E-1
 8.150601321100000E9     6.405806794413557E-2    5.350902966497176E-1   -2.563042954458664E-3    6.797865241307192E-4   -2.616274538822867E-3    7.302615057099583E-4    2.115764856977649E-1    4.640441382128837E-1
 8.150609689450000E9     6.469089728147911E-2    5.349793578719986E-1   -2.554926476910727E-3    6.636808850219618E-4   -2.613742961838784E-3    7.301938969636704E-4    2.120076256346247E-1    4.638865910099806E-1
 8.150618057800000E9     6.521592053439956E-2    5.350457365940638E-1   -2.590965870226983E-3    6.807604222389224E-4   -2.561414029523589E-3    7.411710472056588E-4    2.124629014521481E-1    4.634110860884029E-1
 8.150626426150000E9     6.571807771680087E-2    5.349296681028853E-1   -2.588340940202292E-3    7.134258803861641E-4   -2.571079412138999E-3    7.395978519137035E-4    2.130037786468824E-1    4.633249148933329E-1
 8.150634794500000E9     6.652461696572839E-2    5.347479842486917E-1   -2.565035099599225E-3    7.019455621426227E-4   -2.582776555141514E-3    7.593537842956598E-4    2.134667309935755E-1    4.630268928077581E-1
 8.150643162850000E9     6.708951279300000E-2    5.347571170848499E-1   -2.570119314975179E-3    7.164649739984883E-4   -2.600161111588777E-3    7.602437362752684E-4    2.140238740267127E-1    4.628517121474791E-1
 8.150651531200000E9     6.754897164582918E-2    5.346632360408977E-1   -2.554646370079253E-3    6.987317573925523E-4   -2.593366337598683E-3    7.550614868207661E-4    2.144587058104229E-1    4.624995434768529E-1
 8.150659899550000E9     6.828249351126357E-2    5.347399569555035E-1   -2.572752304718021E-3    7.284477131944483E-4   -2.607355083708883E-3    7.583060211124273E-4    2.150012099427355E-1    4.624363949799265E-1
 8.150668267900000E9     6.879262905085322E-2    5.345744840144464E-1   -2.601436919880399E-3    7.053229710504494E-4   -2.566605648525609E-3    7.369311756943661E-4    2.154749913587707E-1    4.621399955500289E-1
 8.150676636250000E9     6.942227427169789E-2    5.345306907866219E-1   -2.577301260555859E-3    7.169172650763443E-4   -2.549952400249988E-3    7.816554237041533E-4    2.158750159581470E-1    4.619506519410403E-1
 8.150685004600000E9     6.991589305136887E-2    5.343475568102550E-1   -2.565279149223271E-3    7.199993790174185E-4   -2.606729390831690E-3    7.400310116958219E-4    2.162621674072859E-1    4.617719650514851E-1
 8.150693372950000E9     7.054061176801446E-2    5.344143256917497E-1   -2.585207372555645E-3    7.051367915247038E-4   -2.588922331664550E-3    7.540568323789048E-4    2.168760215798115E-1    4.613935536684851E-1
 8.150701741300000E9     7.111560170937600E-2    5.343769079605284E-1   -2.559020182643222E-3    7.267340943500189E-4   -2.596121562467118E-3    7.513746194189300E-4    2.171701468359340E-1    4.612760098369341E-1
 8.150710109650000E9     7.186922272885839E-2    5.342035667903339E-1   -2.572882891668313E-3    7.280311897724816E-4   -2.610339631696114E-3    7.838541752496130E-4    2.178363494446148E-1    4.609582115664783E-1
 8.150718478000000E9     7.234388455556656E-2    5.342207131896074E-1   -2.582969020246849E-3    7.306420286830126E-4   -2.554944953098358E-3    8.257907656626180E-4    2.183168168513346E-1    4.606425385812625E-1
 8.150726846350000E9     7.292465423931399E-2    5.341807523428516E-1   -2.552889914630090E-3    7.174284469412914E-4   -2.589354394368190E-3    7.718994187274212E-4    2.187448355850936E-1    4.603955398050950E-1
 8.150735214700000E9     7.339019336053128E-2    5.340106371265773E-1   -2.601291036252400E-3    7.408008374870360E-4   -2.613850657478475E-3    7.815870162626981E-4    2.193351090961163E-1    4.602202428122534E-1
 8.150743583050000E9     7.394233389518549E-2    5.339867577273363E-1   -2.569075798393319E-3    7.355584974635577E-4   -2.600066816229039E-3    7.801529963980184E-4    2.198997239922492E-1    4.599117116030559E-1
 8.150751951400000E9     7.459841398097748E-2    5.339821666768818E-1   -2.569015230623140E-3    7.457911979160467E-4   -2.566778276056081E-3    7.967874214849749E-4    2.202504005434341E-1    4.598350121609228E-1
 8.150760319750000E9     7.523136341165589E-2    5.339467720782385E-1   -2.555949957631081E-3    7.732948117583128E-4   -2.592012117102093E-3    7.809006814122033E-4    2.206500990232321E-1    4.594837416487381E-1
 8.150768688100000E9     7.583200673199315E-2    5.338461909653619E-1   -2.554877984882469E-3    7.499525594185278E-4   -2.587308179839503E-3    8.021983657452511E-4    2.210674611294262E-1    4.592181688673977E-1
 8.150777056450000E9     7.622521529328170E-2    5.337244123784364E-1   -2.567237023277933E-3    7.555715164344599E-4   -2.587006612253792E-3    7.788441855924525E-4    2.216689730851291E-1    4.589537684837308E-1
 8.150785424800000E9     7.691105492439931E-2    5.337255880446214E-1   -2.542038450640607E-3    7.504247316474189E-4   -2.576523629626625E-3    8.162234819234083E-4    2.221074920068040E-1    4.587088741681966E-1
 8.150793793150000E9     7.746120496105026E-2    5.334807483298791E-1   -2.587907510416492E-3    7.662533988572241E-4   -2.575845523710985E-3    7.913302529223141E-4    2.226150616851152E-1    4.585800356653425E-1
 8.150802161500000E9     7.799596810266074E-2    5.335336086729445E-1   -2.577659190051097E-3    7.615132357852144E-4   -2.536280300839223E-3    8.484213553108635E-4    2.229625488822788E-1    4.582517838104500E-1
 8.150810529850000E9     7.867179730687909E-2    5.334771080811765E-1   -2.568329565839825E-3    7.592039840394417E-4   -2.607046928374491E-3    8.077826265938799E-4    2.235732768347554E-1    4.580590657402752E-1
 8.150818898200000E9     7.920552325877386E-2    5.334308276176404E-1   -2.561037599512822E-3    7.729949949358430E-4   -2.564078590414930E-3    8.134188562656567E-4    2.239900866804776E-1    4.578936355680293E-1
 8.150827266550000E9     7.984996240352309E-2    5.333329668844011E-1   -2.588466261043579E-3    7.544418516414681E-4   -2.583356942606406E-3    8.091040462376993E-4    2.244977378700416E-1    4.574545186782563E-1
 8.150835634900000E9     8.040344536185874E-2    5.331136412500701E-1   -2.582747770328338E-3    7.533126529450336E-4   -2.556883491638324E-3    8.441555090974470E-4    2.249254667679289E-1    4.572817291770269E-1
 8.150844003250000E9     8.097960814940508E-2    5.331786723250500E-1   -2.561052164404430E-3    7.706014575412016E-4   -2.554822920292644E-3    8.140922283278389E-4    2.254762092771525E-1    4.569997916027136E-1
 8.150852371600000E9     8.160908262688260E-2    5.331003707687535E-1   -2.570549158152303E-3    7.811742973447695E-4   -2.565551186503404E-3    8.448918506607019E-4    2.258391530445798E-1    4.569238509704809E-1
 8.150860739950000E9     8.209179826649221E-2    5.330158731573928E-1   -2.557100590588890E-3    8.024098364368774E-4   -2.583408746369317E-3    8.191788792079376E-4    2.265409101951890E-1    4.564715860029128E-1
 8.150869108300000E9     8.268808478030965E-2    5.328952080992819E-1   -2.562203076460135E-3    7.572701921605780E-4   -2.602869244835166E-3    8.266320071854962E-4    2.267979188595803E-1    4.563194796070025E-1
 8.150877476650000E9     8.324991192405323E-2    5.328663733684962E-1   -2.584932103293606E-3    7.941747095188415E-4   -2.601883339658939E-3    8.160306780526547E-4    2.274200577497988E-1    4.560447851544461E-1
 8.150885845000000E9     8.390058503469587E-2    5.327644298152833E-1   -2.552568994862140E-3    7.980486068036110E-4   -2.587356032597121E-3    8.051850490925247E-4    2.279841215602902E-1    4.557381896499359E-1
 8.150894213350000E9     8.441275583177117E-2    5.327568989706750E-1   -2.569372893384759E-3    8.074502817493856E-4   -2.590390443960983E-3    8.433169708344422E-4    2.282774954031826E-1    4.557348644553146E-1
 8.150902581700000E9     8.508635117758559E-2    5.326172557205311E-1   -2.575859304245373E-3    8.116124352017647E-4   -2.610215778566354E-3    8.311316940850474E-4    2.288962180262994E-1    4.553239377402545E-1
 8.150910950050000E9     8.554613920208734E-2    5.324369099883629E-1   -2.578538582364117E-3    7.974915567798001E-4   -2.618535037491119E-3    8.582093315036715E-4    2.291662041433368E-1    4.551011953922657E-1
 8.150919318400000E9     8.617852195646379E-2    5.323302235962408E-1   -2.589572989032076E-3    7.929441616583031E-4   -2.562544710224864E-3    8.333503939460780E-4    2.297407698472893E-1    4.546868312181310E-1
 8.150927686750000E9     8.678422965570270E-2    5.322975679343709E-1   -2.570943861012751E-3    7.838288125126250E-4   -2.607565849136613E-3    8.608314620892817E-4    2.301941942585873E-1    4.544204029766508E-1
 8.150936055100000E9     8.734575178793814E-2    5.321995376677203E-1   -2.563019639607719E-3    8.286488655883845E-4   -2.594086467788526E-3    8.672404890236129E-4    2.308705363502082E-1    4.542536878211670E-1
 8.150944423450000E9     8.788411830481398E-2    5.322943078974378E-1   -2.575791162221173E-3    8.109867670598713E-4   -2.570769199638112E-3    8.853583870289463E-4    2.311208143231255E-1    4.540489647620013E-1
 8.150952791800000E9     8.863127367825907E-2    5.321188201371629E-1   -2.580479320727807E-3    8.127067914057713E-4   -2.562185933824717E-3    8.654366521641597E-4    2.316376895660933E-1    4.537448145650080E-1
 8.150961160150000E9     8.911507358372944E-2    5.320994522463958E-1   -2.566290963674241E-3    7.901287538627758E-4   -2.608346225976016E-3    8.573827243049013E-4    2.320230148856339E-1    4.535598772617334E-1
 8.150969528500000E9     8.957740821680975E-2    5.320797614678644E-1   -2.583053323965961E-3    8.154175208412340E-4   -2.576510861224787E-3    8.827857802374388E-4    2.326152083450807E-1    4.532481640677284E-1
 8.150977896850000E9     9.026997483532499E-2    5.318411736391495E-1   -2.552239382024288E-3    8.410483573675123E-4   -2.569943644389425E-3    9.000496890706388E-4    2.330083770176035E-1    4.529486813687760E-1
 8.150986265200000E9     9.087157747779243E-2    5.318979333387611E-1   -2.574896594371260E-3    8.477054992142168E-4   -2.562663416655737E-3    8.489918523860031E-4    2.336000276802227E-1    4.527827864147261E-1
 8.150994633550000E9     9.136390895379373E-2    5.317601246810746E-1   -2.594747639689307E-3    8.418942767229599E-4   -2.578265699748184E-3    9.087097185264313E-4    2.340365450998188E-1    4.524618597345267E-1
 8.151003001900000E9     9.191466304843195E-2    5.316058859853332E-1   -2.604073126862691E-3    8.426584384101110E-4   -2.607149103795084E-3    8.903375449033489E-4    2.344966457603538E-1    4.524086731277254E-1
 8.151011370250000E9     9.268013079456523E-2    5.316799914601729E-1   -2.563587026253095E-3    8.488643012161755E-4   -2.583600316272118E-3    8.775561498538330E-4    2.350465778550986E-1    4.520018323799996E-1
 8.151019738600000E9     9.304993987491215E-2    5.314132092118188E-1   -2.577965809018722E-3    8.719217567526930E-4   -2.596854369614046E-3    9.386165419326376E-4    2.355612620191320E-1    4.517237309651971E-1
 8.151028106950000E9     9.376398818689789E-2    5.313077343095913E-1   -2.583066777413054E-3    8.551886424312085E-4   -2.602364792134580E-3    9.151241302583390E-4    2.358772301887210E-1    4.514337426030831E-1
 8.151036475300000E9     9.435488564559902E-2    5.312203991866260E-1   -2.569689675267971E-3    8.448932783585651E-4   -2.558906419289637E-3    9.076200249188000E-4    2.364651804243446E-1    4.510904254901129E-1
 8.151044843650000E9     9.489120426746843E-2    5.310259886192868E-1   -2.588908202973324E-3    8.747156359799936E-4   -2.575314607158066E-3    8.834600666559055E-4    2.367719937858660E-1    4.509820775812639E-1
 8.151053212000000E9     9.550811972300836E-2    5.311470609006864E-1   -2.571084306946842E-3    8.609950994950372E-4   -2.592911442658496E-3    8.966613062615140E-4    2.374015682031227E-1    4.505946122373003E-1
 8.151061580350000E9     9.606971852493840E-2    5.310189809871432E-1   -2.593757671178392E-3    8.567337439036234E-4   -2.577913169866789E-3    9.206078228936168E-4    2.377290507639963E-1    4.502999487624765E-1
 8.151069948700000E9     9.674297681530809E-2    5.309561457106788E-1   -2.548103925951667E-3    8.636533727646939E-4   -2.603877903473058E-3    9.119011049324524E-4    2.382735519081286E-1    4.500014348542744E-1
 8.151078317050000E9     9.717721717281698E-2    5.308231269568090E-1   -2.597944370078228E-3    8.761096958957443E-4   -2.558913899917550E-3    9.237810421676790E-4    2.387108902887913E-1    4.498518150380459E-1
 8.151086685400000E9     9.771946428309554E-2    5.308186306880678E-1   -2.562834619892435E-3    8.679985444943214E-4   -2.585179605768435E-3    9.445332950140013E-4    2.392365493334031E-1    4.496493458960895E-1
 8.151095053750000E9     9.834576538453625E-2    5.306031409801801E-1   -2.564501347169849E-3    8.613188518859168E-4   -2.617228153293415E-3    9.351140463971578E-4    2.395988616651312E-1    4.493372032511820E-1
 8.151103422100000E9     9.900674590518599E-2    5.305425636772867E-1   -2.575164035683235E-3    8.559498672967947E-4   -2.579717608949250E-3    9.202027078702354E-4    2.401729680790183E-1    4.490914959384835E-1
 8.151111790450000E9     9.954177737132038E-2    5.304648138869117E-1   -2.592444246859023E-3    9.074709832419408E-4   -2.586053002366832E-3    9.358529609592980E-4    2.404705257606684E-1    4.488695063301784E-1
 8.151120158800000E9     1.001184672598117E-1    5.304018694262241E-1   -2.598573132518591E-3    8.856705160288253E-4   -2.576581044462339E-3    9.421580368434783E-4    2.411130925823266E-1    4.485456284348295E-1
 8.151128527150000E9     1.006864881262271E-1    5.303071981058856E-1   -2.562426211531225E-3    8.894880532800828E-4   -2.611239734544267E-3    9.350974382481678E-4    2.414649584624742E-1    4.483784416975647E-1
 8.151136895500000E9     1.011952787704597E-1    5.301775335035671E-1   -2.575852600305488E-3    8.897739638041730E-4   -2.595898366555415E-3    9.684701125496470E-4    2.419255676167373E-1    4.481247931869370E-1
 8.151145263850000E9     1.017796803271568E-1    5.300707159413497E-1   -2.573457013481319E-3    9.186486071984382E-4   -2.572721002019633E-3    9.348798283974358E-4    2.425254640123303E-1    4.478222677682988E-1
 8.151153632200000E9     1.023293211182609E-1    5.299666765940905E-1   -2.574830119999163E-3    9.012422874615495E-4   -2.585989632178436E-3    9.392053511180535E-4    2.429080918303091E-1    4.474104033078135E-1
 8.151162000550000E9     1.029050735812260E-1    5.299349474811420E-1   -2.574213109944709E-3    8.981118948215073E-4   -2.605001653388794E-3    9.434373288922097E-4    2.433066449251825E-1    4.472739978047536E-1
 8.151170368900000E9     1.035742214869010E-1    5.297422162648847E-1   -2.577100730629775E-3    8.960706056855877E-4   -2.585297000740389E-3    9.453296502472452E-4    2.439494773461963E-1    4.469887396157795E-1
 8.151178737250000E9     1.041079156972265E-1    5.295809502619092E-1   -2.570954184700026E-3    9.065000155906734E-4   -2.600584729634333E-3    9.478685357687892E-4    2.444630340003586E-1    4.466753978748904E-1
 8.151187105600000E9     1.046429933092519E-1    5.295929543496833E-1   -2.564978512262124E-3    9.429188210935433E-4   -2.594924928965530E-3    9.723954664232586E-4    2.448349734148286E-1    4.465278911973730E-1
 8.151195473950000E9     1.054223536604675E-1    5.295242184837367E-1   -2.601241569918724E-3    9.221112564371798E-4   -2.588227139548925E-3    9.716894725554446E-4    2.452303219627861E-1    4.461256460602896E-1
 8.151203842300000E9     1.058212555035437E-1    5.294263165268237E-1   -2.576916255110839E-3    9.238627357643586E-4   -2.603533254599767E-3    9.789120389223733E-4    2.457865741227042E-1    4.459725646090307E-1
 8.151212210650000E9     1.064307023636584E-1    5.291847644737531E-1   -2.587404038409525E-3    9.528463301725708E-4   -2.575270705968875E-3    9.848285445186792E-4    2.459824378257124E-1    4.457112965539064E-1
 8.151220579000000E9     1.070713866456055E-1    5.290266516510246E-1   -2.571220067930110E-3    9.444040477743490E-4   -2.597149595899171E-3    9.951541100423806E-4    2.466626808481618E-1    4.454291053226266E-1
 8.151228947350000E9     1.076635755193656E-1    5.289588447983198E-1   -2.596151994129369E-3    9.428279482227206E-4   -2.591736794154282E-3    1.009872938642028E-3    2.472188406881013E-1    4.450183682283412E-1
 8.151237315700000E9     1.081728923496658E-1    5.289956775860705E-1   -2.568244501427608E-3    9.371577384078670E-4   -2.586456727532012E-3    1.007197139885758E-3    2.474800330430043E-1    4.449336952479980E-1
 8.151245684050000E9     1.088341939227284E-1    5.289146405601622E-1   -2.548875564238831E-3    9.389921710858557E-4   -2.593109562270428E-3    1.032342101670542E-3    2.480954319667301E-1    4.446222085957069E-1
 8.151254052400000E9     1.093579299756351E-1    5.287845105515453E-1   -2.589876765384470E-3    9.575872474679927E-4   -2.570450886209658E-3    9.943707236022719E-4    2.483828584011396E-1    4.442466015330007E-1
 8.151262420750000E9     1.100532135617259E-1    5.285345764763486E-1   -2.594069267465064E-3    9.549927057645984E-4   -2.599732150121431E-3    9.894922531196286E-4    2.489470712179922E-1    4.440440310714397E-1
 8.151270789100000E9     1.105647276849210E-1    5.285300163461957E-1   -2.621652455451236E-3    9.782756710250873E-4   -2.617003747812833E-3    1.013671461300002E-3    2.493878985858093E-1    4.438809558547183E-1
 8.151279157450000E9     1.110938346286607E-1    5.284316313387422E-1   -2.576608028951968E-3    9.660661011402488E-4   -2.569224871857212E-3    1.022795744910692E-3    2.498237351759973E-1    4.434791379360880E-1
 8.151287525800000E9     1.117218235379934E-1    5.282103575695067E-1   -2.579320281915930E-3    9.829341495134452E-4   -2.604930556125147E-3    9.956441327597001E-4    2.502906499715997E-1    4.433587319032702E-1
 8.151295894150000E9     1.121708594675213E-1    5.281554929801723E-1   -2.561689976510894E-3    9.573983889620457E-4   -2.623862966238013E-3    1.018702544917909E-3    2.506874238699792E-1    4.429012384977307E-1
 8.151304262500000E9     1.128045787070341E-1    5.280398077118199E-1   -2.592872995713089E-3    9.745725384353851E-4   -2.601582489527920E-3    1.011120828859466E-3    2.513445087529722E-1    4.426016811376499E-1
