#  HZ   S   RI   R     50.00 
! Rohde & Schwarz Vector Network Analyzer 
! Rohde-Schwarz,ZNB20-2Port,1311601062101988,3.16
! Created: UTC 3/21/2024, 1:13:28 AM
! freq[Hz]                re:S11                  im:S11                  re:S21                  im:S21                  re:S12                  im:S12                  re:S22                  im:S22
 8.150668133000000E9     6.850380535132142E-2    5.346920818157811E-1   -2.563918807333330E-3    6.959343785620879E-4   -2.594063866633960E-3    7.629645759191065E-4    2.154279946558564E-1    4.621798200705711E-1
 8.150675989725000E9     6.919482158188425E-2    5.345440600017494E-1   -2.596544496678688E-3    7.070882078084103E-4   -2.603177519509647E-3    7.823199919351751E-4    2.158769470216946E-1    4.619508659435722E-1
 8.150683846450000E9     6.969426389953108E-2    5.345088276750202E-1   -2.575296509331183E-3    7.144776500167506E-4   -2.550900987113214E-3    7.892685454014925E-4    2.162676433040492E-1    4.618105317859301E-1
 8.150691703175000E9     7.018479974379954E-2    5.344318601696570E-1   -2.585475337771523E-3    7.044832852223370E-4   -2.578815553603283E-3    7.642340211553414E-4    2.167826515650267E-1    4.614956142035494E-1
 8.150699559900000E9     7.081878406512090E-2    5.343283634999115E-1   -2.576012750565297E-3    7.150242492348919E-4   -2.601328774765956E-3    7.669318980710093E-4    2.172626038446145E-1    4.614380798823548E-1
 8.150707416625000E9     7.138330471659834E-2    5.342501812811263E-1   -2.579684423947803E-3    7.388912549652538E-4   -2.611875047074128E-3    7.709608949246534E-4    2.175837309882587E-1    4.610242143172827E-1
 8.150715273350000E9     7.185760124521104E-2    5.342270070867451E-1   -2.591579625606073E-3    7.271826190768138E-4   -2.578447811432569E-3    7.767489311732842E-4    2.181738532746046E-1    4.608160496376731E-1
 8.150723130075000E9     7.256234906237759E-2    5.342070727397854E-1   -2.577535258805680E-3    7.217942265193590E-4   -2.576494794134548E-3    7.986442132272447E-4    2.186493768276822E-1    4.606835566532921E-1
 8.150730986800000E9     7.301074546089817E-2    5.341519806218059E-1   -2.554630640770267E-3    7.235519807074464E-4   -2.602909868036442E-3    7.632943174070231E-4    2.189075642994760E-1    4.604437007393188E-1
 8.150738843525000E9     7.351676147589441E-2    5.340197420832657E-1   -2.577059488292664E-3    7.126894299548865E-4   -2.617388189589011E-3    8.102013325496661E-4    2.194607634403754E-1    4.603057006548777E-1
 8.150746700250000E9     7.407698978260356E-2    5.339400163802279E-1   -2.572296099095503E-3    7.127087833789599E-4   -2.593102064022296E-3    7.622504402780446E-4    2.200081238720293E-1    4.600200364245050E-1
 8.150754556975000E9     7.458717686416844E-2    5.339050624730520E-1   -2.562082066662073E-3    7.180483548211223E-4   -2.582810278037539E-3    7.914248402528379E-4    2.203503930859112E-1    4.598142979868399E-1
 8.150762413700000E9     7.515499348871155E-2    5.338489637510059E-1   -2.565833088487443E-3    7.450841674017767E-4   -2.625318701869868E-3    8.090593816871381E-4    2.208283480391577E-1    4.594864733363000E-1
 8.150770270425000E9     7.577786430585105E-2    5.337707773467103E-1   -2.581571168088809E-3    7.578679671648128E-4   -2.611315066849546E-3    8.103830925834483E-4    2.213424058176942E-1    4.592186629363965E-1
 8.150778127150000E9     7.636720660133574E-2    5.336330187078124E-1   -2.567774428321976E-3    7.427198605794188E-4   -2.573584699791930E-3    7.723611722581277E-4    2.216880497011020E-1    4.590173211732947E-1
 8.150785983875000E9     7.688961872040871E-2    5.336340744544400E-1   -2.577313694124987E-3    7.655726850054977E-4   -2.591624214037507E-3    8.189171528200145E-4    2.222018362974394E-1    4.589120904443472E-1
 8.150793840600000E9     7.732594385436445E-2    5.335707781150270E-1   -2.593065781300942E-3    7.654335626902600E-4   -2.598902534649263E-3    8.245156398280968E-4    2.227707062626776E-1    4.585524961053083E-1
 8.150801697325000E9     7.788011136819331E-2    5.336290444929322E-1   -2.575590003676634E-3    7.565508256521678E-4   -2.579332967408509E-3    8.185389247663363E-4    2.231782793680509E-1    4.584686201349901E-1
 8.150809554050000E9     7.850723287175941E-2    5.334929448705846E-1   -2.588179336796663E-3    7.641703852505490E-4   -2.585627310676702E-3    8.245806844501180E-4    2.235939405342859E-1    4.581947726742056E-1
 8.150817410775000E9     7.914073200295053E-2    5.334020704763082E-1   -2.566662346594153E-3    7.867830058400464E-4   -2.583925576042583E-3    8.359914967587225E-4    2.239646427570825E-1    4.579327540963481E-1
 8.150825267500000E9     7.953012947684270E-2    5.333753624711955E-1   -2.590044442496786E-3    7.930426034549838E-4   -2.545622648139149E-3    8.090280190212831E-4    2.245909836995660E-1    4.578017687359488E-1
 8.150833124225000E9     8.008824236456241E-2    5.331861217083141E-1   -2.579385882024447E-3    7.718725301658744E-4   -2.566058191865086E-3    8.051123839248962E-4    2.249166170580296E-1    4.574142660251795E-1
 8.150840980950000E9     8.055379050130028E-2    5.331591732812115E-1   -2.542709053038209E-3    7.733535250084323E-4   -2.560260386165590E-3    8.192632732967805E-4    2.254903325595508E-1    4.573038042304998E-1
 8.150848837675000E9     8.130955175288382E-2    5.332287154532214E-1   -2.565952523741835E-3    7.660835614094466E-4   -2.584046135388954E-3    8.078903691141080E-4    2.258417261336165E-1    4.569834908699926E-1
 8.150856694400000E9     8.165399717019306E-2    5.329084364202904E-1   -2.579918516000148E-3    7.622192792928350E-4   -2.561381719390995E-3    8.320224742951886E-4    2.262170248069529E-1    4.567291762093373E-1
 8.150864551125000E9     8.224196647695967E-2    5.329900346622898E-1   -2.588048734147025E-3    7.743488927030713E-4   -2.583761706661583E-3    8.242774096228909E-4    2.267231861839735E-1    4.566236683210974E-1
 8.150872407850000E9     8.285829075588422E-2    5.329572872565989E-1   -2.566683578957023E-3    8.033390491259816E-4   -2.583710798741080E-3    8.442544599608451E-4    2.270850385861947E-1    4.562726386947503E-1
 8.150880264575000E9     8.335390085508086E-2    5.327869265725146E-1   -2.607288537085866E-3    7.939307734520894E-4   -2.567872943103125E-3    8.645378350660454E-4    2.274989127400305E-1    4.559455973977156E-1
 8.150888121300000E9     8.396023949768049E-2    5.326231381091679E-1   -2.580640746137943E-3    8.073186581335522E-4   -2.586579675493423E-3    8.717449448993911E-4    2.280743889968870E-1    4.559087283067116E-1
 8.150895978025000E9     8.457836618211820E-2    5.326573864978638E-1   -2.572870444413036E-3    7.893822818106870E-4   -2.592254588475619E-3    8.387996334439042E-4    2.285144118179836E-1    4.555990686930860E-1
 8.150903834750000E9     8.494495982865552E-2    5.326449313212653E-1   -2.566331294922370E-3    7.900003396097553E-4   -2.582016278638751E-3    8.585652794931648E-4    2.289531486969245E-1    4.554223828004139E-1
 8.150911691475000E9     8.558110232749498E-2    5.325480103150502E-1   -2.559819862487416E-3    8.004483026476831E-4   -2.582613658748369E-3    8.587388094162962E-4    2.292945712982036E-1    4.551346731461254E-1
 8.150919548200000E9     8.603948737481053E-2    5.324996759509270E-1   -2.576901664632034E-3    8.169688807503750E-4   -2.587752131848253E-3    8.238231769741081E-4    2.297811451479337E-1    4.549191933855160E-1
 8.150927404925000E9     8.671447682932389E-2    5.324410694854887E-1   -2.579290947586641E-3    8.199129787879956E-4   -2.588842967031186E-3    8.510503476125029E-4    2.301030191409936E-1    4.546425656176769E-1
 8.150935261650000E9     8.720259287777259E-2    5.323794247209364E-1   -2.574808691971209E-3    8.168199325020092E-4   -2.581524128595623E-3    8.537189006609451E-4    2.306666818964854E-1    4.544634972909808E-1
 8.150943118375000E9     8.769216640790399E-2    5.321627288555789E-1   -2.577117473491171E-3    8.285953587144138E-4   -2.615903248899515E-3    8.708262714512950E-4    2.311418918204895E-1    4.540706865198228E-1
 8.150950975100000E9     8.827644125140617E-2    5.320948206137018E-1   -2.583248708111812E-3    8.132567078448738E-4   -2.553199599128786E-3    8.982604314071028E-4    2.317289981015828E-1    4.541258853103523E-1
 8.150958831825000E9     8.888492443920759E-2    5.321914722742297E-1   -2.578399556364791E-3    8.294584763222555E-4   -2.612772730069628E-3    8.676411534128427E-4    2.320011791296190E-1    4.537548715162664E-1
 8.150966688550000E9     8.924298467653709E-2    5.320111156634851E-1   -2.588114631800227E-3    8.269725771588595E-4   -2.572951498119792E-3    8.654930176232243E-4    2.326265244084664E-1    4.534544352823023E-1
 8.150974545275000E9     9.002667045651194E-2    5.319049634481928E-1   -2.599145847638012E-3    8.294480441707399E-4   -2.586539872632628E-3    8.582686728725238E-4    2.328834537673026E-1    4.532236867457517E-1
 8.150982402000000E9     9.039632157551085E-2    5.318900000752182E-1   -2.594233463233275E-3    8.282726106862418E-4   -2.570491651587590E-3    8.741658101279454E-4    2.334106864877063E-1    4.528342990361205E-1
 8.150990258725000E9     9.100812506943515E-2    5.317210882525661E-1   -2.577506108286567E-3    8.417730773988360E-4   -2.583576139542141E-3    8.604378801337222E-4    2.336671207773103E-1    4.527251480456563E-1
 8.150998115450000E9     9.148102571898192E-2    5.317731886589294E-1   -2.578391942336927E-3    8.184662628691202E-4   -2.588038029877452E-3    8.890706980558326E-4    2.341708934728529E-1    4.524789161595092E-1
 8.151005972175000E9     9.211634820930649E-2    5.316431897557957E-1   -2.559364113268392E-3    8.302144201204887E-4   -2.558751868679212E-3    9.096555395971963E-4    2.347286097171404E-1    4.524314562508225E-1
 8.151013828900000E9     9.254002489251849E-2    5.315604963596922E-1   -2.565761936321779E-3    8.468115297633371E-4   -2.602421890166239E-3    8.892974048264242E-4    2.351701233911146E-1    4.518879866702378E-1
 8.151021685625000E9     9.332159845879008E-2    5.314179963384278E-1   -2.587504026912747E-3    8.325035770436071E-4   -2.585581330771718E-3    8.961967863897413E-4    2.355275230464090E-1    4.517730271963161E-1
 8.151029542350000E9     9.371131118642113E-2    5.313912086293509E-1   -2.572314223447197E-3    8.605631376697571E-4   -2.573578229858058E-3    9.002453172269763E-4    2.361044098850182E-1    4.515263538560048E-1
 8.151037399075000E9     9.427280796359168E-2    5.313085528227673E-1   -2.557269943688218E-3    8.628282253063564E-4   -2.611038500032691E-3    8.685615780261531E-4    2.364617557087091E-1    4.513062565972940E-1
 8.151045255800000E9     9.481132620014554E-2    5.312472994410011E-1   -2.549461374725637E-3    8.727317414503992E-4   -2.581048840610627E-3    9.068715165358418E-4    2.370296711664576E-1    4.509588421378751E-1
 8.151053112525000E9     9.541159215965429E-2    5.310236844098949E-1   -2.559918973492438E-3    8.616140972183495E-4   -2.589322842614037E-3    9.252290465367434E-4    2.373873269539996E-1    4.507425274824854E-1
 8.151060969250000E9     9.587777469712666E-2    5.309933290592437E-1   -2.584828875987018E-3    8.697111707782228E-4   -2.570709290280199E-3    9.032923603028045E-4    2.378393379591603E-1    4.505926292843135E-1
 8.151068825975000E9     9.648053521758564E-2    5.309486597783234E-1   -2.557033381029219E-3    8.821430575354983E-4   -2.594010915373647E-3    9.066381915175030E-4    2.380947143665081E-1    4.502639151783475E-1
 8.151076682700000E9     9.692427604619833E-2    5.307440492285370E-1   -2.552097537757520E-3    8.928100285186583E-4   -2.573372678109452E-3    9.245129349633605E-4    2.386583563369333E-1    4.499996752812964E-1
 8.151084539425000E9     9.753349389906892E-2    5.307432922315770E-1   -2.585568874371336E-3    8.818300150501397E-4   -2.572514913603947E-3    9.030822590855197E-4    2.389731760895413E-1    4.498794834373028E-1
 8.151092396150000E9     9.811019661478874E-2    5.306320655711330E-1   -2.590659204532421E-3    8.732185262454253E-4   -2.571463045068187E-3    9.199317867287856E-4    2.396350569608489E-1    4.496259610851596E-1
 8.151100252875000E9     9.841443913550034E-2    5.305637532447984E-1   -2.587964550568725E-3    8.980184468886036E-4   -2.576991031664724E-3    9.327245809459543E-4    2.398643668209602E-1    4.492937580518425E-1
 8.151108109600000E9     9.922102081620784E-2    5.305901273115201E-1   -2.600241578752104E-3    8.742595741260822E-4   -2.608247689780440E-3    9.370775493807865E-4    2.404784391804483E-1    4.490627079840196E-1
 8.151115966325000E9     9.962139387543799E-2    5.303904017114686E-1   -2.540888536407093E-3    8.772709185476783E-4   -2.566850215399154E-3    9.320109300189615E-4    2.408059844245372E-1    4.488791359774330E-1
 8.151123823050000E9     1.003841699883697E-1    5.302532680221159E-1   -2.614220082288908E-3    8.886991973698475E-4   -2.596829695902172E-3    9.251939752434090E-4    2.412770447839294E-1    4.485478407653761E-1
 8.151131679775000E9     1.008622355334290E-1    5.302465857665292E-1   -2.579876098785698E-3    8.794792281856628E-4   -2.588365957153513E-3    9.598603791202511E-4    2.419293780591357E-1    4.484351164135157E-1
 8.151139536500000E9     1.012853689138594E-1    5.301187294890695E-1   -2.557864921702941E-3    9.059422444602743E-4   -2.599386481883079E-3    9.330465739723414E-4    2.421928182402010E-1    4.482456199182160E-1
 8.151147393225000E9     1.018980197106148E-1    5.299325998614394E-1   -2.562479922399867E-3    8.960527747807145E-4   -2.595728984401106E-3    9.458658750839612E-4    2.425077737883567E-1    4.479282964189867E-1
 8.151155249950000E9     1.024409882251050E-1    5.299697789530529E-1   -2.586083076477694E-3    9.238716301623056E-4   -2.597134063403529E-3    9.292900932564159E-4    2.431427361180287E-1    4.476241189369848E-1
 8.151163106675000E9     1.030419919399600E-1    5.297949583600653E-1   -2.566380331783026E-3    9.404164045783258E-4   -2.588070880375709E-3    9.758202791999834E-4    2.436357503816742E-1    4.473452297610124E-1
 8.151170963400000E9     1.035064061472657E-1    5.298391350481065E-1   -2.582238745116964E-3    9.238406079805837E-4   -2.566018364449345E-3    9.642803361047835E-4    2.439479622854453E-1    4.471230369561143E-1
 8.151178820125000E9     1.041444204325640E-1    5.297351136859181E-1   -2.568012240374986E-3    9.179793505310278E-4   -2.597143114697090E-3    9.610646865785611E-4    2.443828529393502E-1    4.468768750716034E-1
 8.151186676850000E9     1.046240114007336E-1    5.294985163029251E-1   -2.586683752652158E-3    9.161229536547005E-4   -2.599493521018783E-3    9.958333926380432E-4    2.448435090444716E-1    4.466007901412037E-1
 8.151194533575000E9     1.050973501987947E-1    5.294837749499693E-1   -2.581889063318930E-3    9.053273286875442E-4   -2.593186165461084E-3    9.646431694259850E-4    2.452707243487394E-1    4.463338068331232E-1
 8.151202390300000E9     1.057202524898208E-1    5.293532300817292E-1   -2.577595312413253E-3    9.335818815770261E-4   -2.591094424145621E-3    9.662069726692736E-4    2.456859040649393E-1    4.462875631917666E-1
 8.151210247025000E9     1.062943681694002E-1    5.293927186214168E-1   -2.590021437109128E-3    9.218051052136710E-4   -2.578304528241255E-3    1.009513748071362E-3    2.460994770976866E-1    4.457348601304371E-1
 8.151218103750000E9     1.067889908197796E-1    5.291186535747815E-1   -2.608765614823152E-3    9.439922052031166E-4   -2.572010972688562E-3    9.916746325519909E-4    2.466149260090275E-1    4.455571075541839E-1
 8.151225960475000E9     1.072834776863066E-1    5.291336183071055E-1   -2.585270010736086E-3    9.461320806194142E-4   -2.602849820777119E-3    9.679951352906559E-4    2.470358617140341E-1    4.454137986222362E-1
 8.151233817200000E9     1.078419751517422E-1    5.290695763548763E-1   -2.583508092776502E-3    9.332078730531533E-4   -2.601419177356994E-3    1.004582602399006E-3    2.474382675365074E-1    4.450029108930885E-1
 8.151241673925000E9     1.083806182123545E-1    5.288452657000895E-1   -2.592545208497516E-3    9.363012307647749E-4   -2.605088726109278E-3    9.959388334563209E-4    2.478411588348795E-1    4.447934262308909E-1
 8.151249530650000E9     1.087850714301693E-1    5.287545484896519E-1   -2.581188126113536E-3    9.393044343271724E-4   -2.618713173360440E-3    1.006766170443742E-3    2.482547917748833E-1    4.446114998407635E-1
 8.151257387375000E9     1.094493049878379E-1    5.286250781652791E-1   -2.619764915661823E-3    9.636737722724000E-4   -2.596072676771052E-3    1.005246279121850E-3    2.487383267911489E-1    4.443721369921408E-1
 8.151265244100000E9     1.100099242705764E-1    5.286043530708555E-1   -2.592627088358728E-3    9.569117819320772E-4   -2.602309074492685E-3    9.950104298873509E-4    2.492455036332754E-1    4.439924392670079E-1
 8.151273100825000E9     1.104744918982102E-1    5.282988420161934E-1   -2.588040307755870E-3    9.584715563648486E-4   -2.590844179766994E-3    1.005845509335788E-3    2.494725980098236E-1    4.437943725645669E-1
 8.151280957550000E9     1.110478627687287E-1    5.283865891152454E-1   -2.591365305505062E-3    9.718833798745836E-4   -2.607913218258300E-3    1.016767883396118E-3    2.501456005658336E-1    4.434616154791091E-1
 8.151288814275000E9     1.117218677485005E-1    5.283051437986328E-1   -2.569541324647026E-3    9.638109815334923E-4   -2.614421343170576E-3    1.028566563624509E-3    2.506626914603066E-1    4.432797499305751E-1
 8.151296671000000E9     1.123065122974785E-1    5.281008479949918E-1   -2.577024246128773E-3    9.845558687181088E-4   -2.610739056927516E-3    1.000719907973132E-3    2.509310503711001E-1    4.429853579947206E-1
 8.151304527725000E9     1.128519517524795E-1    5.280757225445433E-1   -2.580024754226106E-3    9.703676609711990E-4   -2.586967444827722E-3    1.033824389631806E-3    2.512484659399580E-1    4.426769824058554E-1
 8.151312384450000E9     1.133738143435686E-1    5.279439226151132E-1   -2.589098999619625E-3    9.952834110032865E-4   -2.587846659862844E-3    1.039308374944556E-3    2.517110398478346E-1    4.425532565470494E-1
 8.151320241175000E9     1.138383316741724E-1    5.279188026429829E-1   -2.606802563046372E-3    9.785187629095305E-4   -2.613503920667872E-3    1.028673016860006E-3    2.521996443649059E-1    4.423184562467788E-1
 8.151328097900000E9     1.145396391598869E-1    5.277303358517196E-1   -2.591632316201804E-3    1.000664855398778E-3   -2.604965810726328E-3    1.041121360373348E-3    2.525946037878171E-1    4.420077837708644E-1
 8.151335954625000E9     1.149907264563474E-1    5.276886322453520E-1   -2.587511853620244E-3    9.841942824527427E-4   -2.581215176921560E-3    1.057999120456217E-3    2.531627907040738E-1    4.418619234563322E-1
 8.151343811350000E9     1.154111198331201E-1    5.275312856461180E-1   -2.585737807453188E-3    9.906493182286907E-4   -2.614445972217687E-3    1.041778278184665E-3    2.535100153126329E-1    4.415812180520086E-1
 8.151351668075000E9     1.160435954985430E-1    5.275718106812111E-1   -2.603615213674628E-3    9.894773561965223E-4   -2.594281769800378E-3    1.040472638390240E-3    2.538941705502625E-1    4.411548576620429E-1
 8.151359524800000E9     1.164769665627520E-1    5.273222068224384E-1   -2.587097226505798E-3    1.006624040646587E-3   -2.596349749770687E-3    1.039799143996230E-3    2.542628661795482E-1    4.410361944617203E-1
 8.151367381525000E9     1.169992256660875E-1    5.271453803170794E-1   -2.577464363273779E-3    9.927793222839769E-4   -2.578985490221682E-3    1.061839774241293E-3    2.547514757028138E-1    4.406925163078048E-1
 8.151375238250000E9     1.175308557451907E-1    5.270878045775020E-1   -2.604577372137008E-3    1.023434260796141E-3   -2.611126304794541E-3    1.044267129033606E-3    2.552328709007006E-1    4.404694480617654E-1
