#  HZ   S   RI   R     50.00 
! Rohde & Schwarz Vector Network Analyzer 
! Rohde-Schwarz,ZNB20-2Port,1311601062101988,3.16
! Created: UTC 3/21/2024, 1:13:51 AM
! freq[Hz]                re:S11                  im:S11                  re:S21                  im:S21                  re:S12                  im:S12                  re:S22                  im:S22
 8.150773971000000E9     7.559912043829431E-2    5.337699909726038E-1   -2.548339005524807E-3    7.491063632830085E-4   -2.607400520682554E-3    7.994447834552271E-4    2.216318877801374E-1    4.596338296494488E-1
 8.150781441825000E9     7.609241160712493E-2    5.337372481350967E-1   -2.584432636078729E-3    7.511227921780704E-4   -2.550254254351918E-3    8.225417151615209E-4    2.220589791894521E-1    4.595155928886533E-1
 8.150788912650000E9     7.670364293072007E-2    5.337175316445858E-1   -2.564379391529860E-3    7.472427700749480E-4   -2.605417615849218E-3    8.465432626079595E-4    2.223291690485468E-1    4.593121815205727E-1
 8.150796383475000E9     7.721420652634305E-2    5.335659001873392E-1   -2.563780857816815E-3    7.624757996011984E-4   -2.562034097313270E-3    7.888858740064788E-4    2.229322201024604E-1    4.592367377414078E-1
 8.150803854300000E9     7.777789266850520E-2    5.335051914869170E-1   -2.569578353152551E-3    7.423190908289427E-4   -2.578849783341058E-3    7.965135440083012E-4    2.233380874737092E-1    4.588074932557659E-1
 8.150811325125000E9     7.834621943474189E-2    5.335196683531609E-1   -2.561477588093948E-3    7.450404630249842E-4   -2.571967755679747E-3    8.355065046006827E-4    2.236866087980805E-1    4.586183678983971E-1
 8.150818795950000E9     7.872069174589451E-2    5.333756468449408E-1   -2.596347825536150E-3    7.342271091436643E-4   -2.614922103997290E-3    8.317332291592577E-4    2.241416570836201E-1    4.584360873447688E-1
 8.150826266775000E9     7.929465527905367E-2    5.333350386744485E-1   -2.570069245666034E-3    7.617229610783970E-4   -2.579302609894971E-3    7.890496324155625E-4    2.246570272797914E-1    4.580755719696056E-1
 8.150833737600000E9     7.982507402393418E-2    5.332110529424227E-1   -2.556790571845351E-3    7.695252756258296E-4   -2.577388594011466E-3    8.431542026239731E-4    2.250336308703451E-1    4.579820777996108E-1
 8.150841208425000E9     8.031156552249626E-2    5.331680408467793E-1   -2.593646087787241E-3    7.887286954756217E-4   -2.569805413271914E-3    8.165674554966181E-4    2.255306161142943E-1    4.577062068332567E-1
 8.150848679250000E9     8.095249446757463E-2    5.330135637118193E-1   -2.555133245140673E-3    7.655998170048202E-4   -2.595920895024696E-3    8.520280553616128E-4    2.258041931265735E-1    4.575191743622636E-1
 8.150856150075000E9     8.141578387730874E-2    5.330509000166955E-1   -2.541444852030025E-3    7.916244673916149E-4   -2.571442467108232E-3    7.977862232257666E-4    2.261075693919355E-1    4.572107035206573E-1
 8.150863620900000E9     8.196169783797953E-2    5.329345296508533E-1   -2.559356027595659E-3    7.988759648907041E-4   -2.568379987116341E-3    8.442076874255073E-4    2.268417622088501E-1    4.570163279996416E-1
 8.150871091725000E9     8.253840737170889E-2    5.329600579349234E-1   -2.566961419242285E-3    8.104934385127796E-4   -2.566260741494163E-3    8.441749531328299E-4    2.272381482479552E-1    4.568423178274442E-1
 8.150878562550000E9     8.294731193329079E-2    5.328845737190138E-1   -2.560620668677710E-3    8.133517528384076E-4   -2.585403497725632E-3    8.392189982471943E-4    2.276232107515579E-1    4.565884016258022E-1
 8.150886033375000E9     8.355600889965165E-2    5.327847176913614E-1   -2.595577510708498E-3    7.919698041773972E-4   -2.590893239292610E-3    8.467158005175268E-4    2.280953293223532E-1    4.563928362972440E-1
 8.150893504200000E9     8.402097048632190E-2    5.327739493835351E-1   -2.573345733542515E-3    7.715973930587918E-4   -2.587880408737410E-3    8.641032843688951E-4    2.284469246369223E-1    4.561803926011986E-1
 8.150900975025000E9     8.451978777970372E-2    5.326718212559661E-1   -2.581402486974207E-3    7.937005016007975E-4   -2.591124693000927E-3    8.608988682397448E-4    2.289310682208643E-1    4.558894631393654E-1
 8.150908445850000E9     8.510723954918545E-2    5.325788132737944E-1   -2.573929915832946E-3    7.998033609569980E-4   -2.597352721010514E-3    8.435049043897848E-4    2.291271252407255E-1    4.557918132969181E-1
 8.150915916675000E9     8.562791892992795E-2    5.325450260189053E-1   -2.584902364964775E-3    7.984861988918416E-4   -2.571878848837891E-3    8.596341456222111E-4    2.296473255846206E-1    4.555827111203997E-1
 8.150923387500000E9     8.609277777058215E-2    5.323951740552059E-1   -2.586689642257342E-3    7.896300633817529E-4   -2.606988267277549E-3    8.652788910532446E-4    2.301043164678246E-1    4.552823176468658E-1
 8.150930858325000E9     8.655523803030547E-2    5.323902842032628E-1   -2.566914043217182E-3    7.896631978588660E-4   -2.579078386944117E-3    8.496153931012545E-4    2.306651973232225E-1    4.551477008768969E-1
 8.150938329150000E9     8.713399540775514E-2    5.324225129004339E-1   -2.582422058155696E-3    8.176068319970774E-4   -2.566054828720714E-3    8.677321987444614E-4    2.309157557567375E-1    4.549347013695708E-1
 8.150945799975000E9     8.761896660854819E-2    5.322708368150850E-1   -2.612482000818741E-3    7.824581373944228E-4   -2.614538287279350E-3    8.442732997152405E-4    2.313572390128315E-1    4.546281470564890E-1
 8.150953270800000E9     8.810173636372161E-2    5.321957970383655E-1   -2.589336998159708E-3    8.082919355022383E-4   -2.592081261978836E-3    8.833294537944200E-4    2.318465305663856E-1    4.544999401818381E-1
 8.150960741625000E9     8.873401098304107E-2    5.320543785532772E-1   -2.574199506784309E-3    7.750948482835540E-4   -2.574035681127108E-3    8.389512413714328E-4    2.321731826984157E-1    4.541531659556808E-1
 8.150968212450000E9     8.913652131281972E-2    5.320164005627344E-1   -2.578293378833697E-3    8.237857151414093E-4   -2.611752834330008E-3    8.750111574758387E-4    2.326863869483700E-1    4.539892925371511E-1
 8.150975683275000E9     8.965326982341627E-2    5.318668978408094E-1   -2.568298702383747E-3    8.170971533656798E-4   -2.560613877266509E-3    8.625501313918784E-4    2.329796802684491E-1    4.537376963652421E-1
 8.150983154100000E9     9.021096011301609E-2    5.318155218648103E-1   -2.593847676873761E-3    8.109295951150167E-4   -2.572478015247326E-3    9.034012361000709E-4    2.335910441483315E-1    4.535323483242726E-1
 8.150990624925000E9     9.065737124457730E-2    5.317274927660058E-1   -2.558263187164043E-3    8.140189677222923E-4   -2.556485012017114E-3    8.878042034879018E-4    2.337949016147181E-1    4.532393401796089E-1
 8.150998095750000E9     9.131714309075573E-2    5.316935044509802E-1   -2.567505645795165E-3    8.199812071045682E-4   -2.592098171145515E-3    8.677091764151177E-4    2.344642498464046E-1    4.531988961793098E-1
 8.151005566575000E9     9.174382263801302E-2    5.316276683089247E-1   -2.586260013856656E-3    8.622116702551956E-4   -2.564087599313032E-3    8.871798612132915E-4    2.347981238429280E-1    4.528293598898282E-1
 8.151013037400000E9     9.231592814234460E-2    5.314547538388648E-1   -2.570853827336471E-3    8.589751689651344E-4   -2.589854902817636E-3    8.957758028474248E-4    2.352624885166600E-1    4.525503301201858E-1
 8.151020508225000E9     9.279266143851286E-2    5.314984401203808E-1   -2.567242871737265E-3    8.286574841762578E-4   -2.602282548258146E-3    8.950263057684401E-4    2.356601249397576E-1    4.522360159714588E-1
 8.151027979050000E9     9.331579623339030E-2    5.314525386551721E-1   -2.572284035705205E-3    8.163591080578689E-4   -2.599299977352383E-3    8.656278428378148E-4    2.359793307965595E-1    4.520341224038066E-1
 8.151035449875000E9     9.383204180733726E-2    5.313513154397146E-1   -2.575796428226823E-3    8.379529904260928E-4   -2.552464828359696E-3    9.210401116386440E-4    2.363495142417165E-1    4.518303514725387E-1
 8.151042920700000E9     9.433205617823245E-2    5.311542698456062E-1   -2.554772269570819E-3    8.500572590933699E-4   -2.596122508998814E-3    9.150764151174775E-4    2.368073700088263E-1    4.516753283171635E-1
 8.151050391525000E9     9.501883887453504E-2    5.311401791421090E-1   -2.565268997437766E-3    8.437694982498191E-4   -2.568475502754931E-3    9.142129502972150E-4    2.372318220039578E-1    4.513845631248016E-1
 8.151057862350000E9     9.545827631170151E-2    5.310788507953048E-1   -2.580406567740617E-3    8.555756619039598E-4   -2.594022927839782E-3    8.916691779072230E-4    2.376677794969266E-1    4.510832046451722E-1
 8.151065333175000E9     9.595781583004874E-2    5.310145349692647E-1   -2.558521238074340E-3    8.760471886532052E-4   -2.566880169589886E-3    9.116202150292723E-4    2.382366212564557E-1    4.509748616725245E-1
 8.151072804000000E9     9.643935679633339E-2    5.308686531953972E-1   -2.571428577910829E-3    8.323000906278445E-4   -2.572782751785031E-3    8.936752329569144E-4    2.385684943620723E-1    4.507719986687572E-1
 8.151080274825000E9     9.684911465311660E-2    5.307773864078639E-1   -2.569962617021684E-3    8.844220178604359E-4   -2.596648423044616E-3    9.252597394689396E-4    2.388699534334658E-1    4.504288818416077E-1
 8.151087745650000E9     9.755062343550666E-2    5.307730168293068E-1   -2.587795687207219E-3    8.696029410479320E-4   -2.600193030410672E-3    9.145520684355579E-4    2.395096430481986E-1    4.503160236806719E-1
 8.151095216475000E9     9.798065158328303E-2    5.306641020174420E-1   -2.568125964910183E-3    8.726582226612755E-4   -2.577556215044399E-3    9.402345772826769E-4    2.397704427643507E-1    4.500611687649119E-1
 8.151102687300000E9     9.842381569850556E-2    5.305447599799828E-1   -2.587294957782023E-3    8.806559478089099E-4   -2.591051448010274E-3    9.371090577410554E-4    2.401956229317528E-1    4.498148804965212E-1
 8.151110158125000E9     9.886002108784769E-2    5.305907121869577E-1   -2.557444652565106E-3    8.869702397427786E-4   -2.602831726528507E-3    9.182583560709122E-4    2.404263279143328E-1    4.495573566247587E-1
 8.151117628950000E9     9.943771084798715E-2    5.304385108526136E-1   -2.579560439128381E-3    8.561744537637343E-4   -2.591907672136105E-3    9.159436172801358E-4    2.410708152244186E-1    4.495094859843141E-1
 8.151125099775000E9     1.000134320854235E-1    5.303274871804315E-1   -2.594350125764296E-3    8.936504991548031E-4   -2.596097618998527E-3    9.495742817489693E-4    2.413591433516646E-1    4.490820189127021E-1
 8.151132570600000E9     1.004598029917661E-1    5.302167246949344E-1   -2.536926124362164E-3    8.974562999419359E-4   -2.596132549208184E-3    9.296192793289905E-4    2.419577224696923E-1    4.488845306548268E-1
 8.151140041425000E9     1.011348111384942E-1    5.300964497301822E-1   -2.569672956616930E-3    8.852169208089437E-4   -2.599427749449563E-3    9.370189960468033E-4    2.423238998114954E-1    4.483620018295628E-1
 8.151147512250000E9     1.016088288827494E-1    5.300122533737867E-1   -2.555995584497747E-3    8.855001672409987E-4   -2.558628609362438E-3    9.578832238166237E-4    2.427623648384779E-1    4.483414259128585E-1
 8.151154983075000E9     1.021362570211925E-1    5.299932901221870E-1   -2.605202011486137E-3    9.034822539161997E-4   -2.608050951793890E-3    9.685386232979084E-4    2.431837309600541E-1    4.482335148221707E-1
 8.151162453900000E9     1.026346955396573E-1    5.299108259342181E-1   -2.565523891808403E-3    8.973005044215127E-4   -2.572253384931113E-3    9.572222321085599E-4    2.434474161922422E-1    4.480153646190585E-1
 8.151169924725000E9     1.032778628261607E-1    5.297601396556120E-1   -2.589372542968563E-3    9.007734631775083E-4   -2.573608642373840E-3    9.645864584355714E-4    2.440092855756013E-1    4.477042416915689E-1
 8.151177395550000E9     1.037218836257794E-1    5.295599697959710E-1   -2.582625115133614E-3    9.223317829720474E-4   -2.604885748760517E-3    9.359766838649324E-4    2.443859200612990E-1    4.474593055014956E-1
 8.151184866375000E9     1.041003726412694E-1    5.295339424665854E-1   -2.593802237657420E-3    9.157181612787311E-4   -2.584230903658880E-3    9.860266534664258E-4    2.448880831833715E-1    4.471614733008506E-1
 8.151192337200000E9     1.046890491433183E-1    5.295424442725760E-1   -2.591775337893110E-3    9.306042998828486E-4   -2.585291982869668E-3    9.401339649716715E-4    2.452097922515991E-1    4.470022829808512E-1
 8.151199808025000E9     1.051601882743533E-1    5.294675250192011E-1   -2.605368501772486E-3    9.276194972840995E-4   -2.580854407725685E-3    9.703682000719831E-4    2.456350276786639E-1    4.468053878149212E-1
 8.151207278850000E9     1.057678273782930E-1    5.293786915416286E-1   -2.589986997688849E-3    9.186085750353631E-4   -2.584920482467909E-3    9.668169064663394E-4    2.460633701952293E-1    4.464810626641191E-1
 8.151214749675000E9     1.063099707916618E-1    5.294347654793921E-1   -2.600171399031274E-3    9.499521186026099E-4   -2.574206094656274E-3    9.715566398463964E-4    2.464850463470158E-1    4.462318626591219E-1
 8.151222220500000E9     1.068457045363741E-1    5.291666715695327E-1   -2.574510125230995E-3    9.189772268539862E-4   -2.600990934166148E-3    1.022159115368618E-3    2.469457920366043E-1    4.460270822189412E-1
 8.151229691325000E9     1.073227851739021E-1    5.291271640694615E-1   -2.580447219469159E-3    9.458214269114124E-4   -2.598330161689823E-3    1.002091846368003E-3    2.473550867947173E-1    4.458038615972127E-1
 8.151237162150000E9     1.078343180961671E-1    5.289877960618027E-1   -2.590223678988291E-3    9.403117682116004E-4   -2.600462576336764E-3    9.896511339115329E-4    2.477468545306039E-1    4.456869099725517E-1
 8.151244632975000E9     1.084485112989326E-1    5.288801389636324E-1   -2.570067019978018E-3    9.356875216927808E-4   -2.577520839203196E-3    9.980836242755367E-4    2.480678044794001E-1    4.452539577077595E-1
 8.151252103800000E9     1.088899695841943E-1    5.288431742361228E-1   -2.564194073542379E-3    9.496774069823461E-4   -2.575285019699409E-3    1.010352296955393E-3    2.486468426338890E-1    4.450023436842491E-1
 8.151259574625000E9     1.092501147388919E-1    5.287544890180471E-1   -2.589189243831467E-3    9.373572582855964E-4   -2.599116529438023E-3    9.805725749360041E-4    2.489521221702549E-1    4.447909519121026E-1
 8.151267045450000E9     1.099487713632881E-1    5.285834357469752E-1   -2.590127377440825E-3    9.487966057861725E-4   -2.603093684563760E-3    9.941923845988784E-4    2.493387194113239E-1    4.444356770432866E-1
 8.151274516275000E9     1.104353434711252E-1    5.285551363659640E-1   -2.561690550108284E-3    9.731136366610428E-4   -2.592760015093939E-3    9.960485431229538E-4    2.498265128777679E-1    4.443024033643569E-1
 8.151281987100000E9     1.108545996867477E-1    5.283677576299903E-1   -2.563874743525100E-3    9.667921188000314E-4   -2.569652303142712E-3    1.010995700833663E-3    2.501825309681525E-1    4.440252878796732E-1
 8.151289457925000E9     1.115034461618143E-1    5.283065569029742E-1   -2.596623197382168E-3    9.638990993679134E-4   -2.600098123174864E-3    9.879569533319129E-4    2.505565637141377E-1    4.437848411328443E-1
 8.151296928750000E9     1.119620078078536E-1    5.282377397660940E-1   -2.592743397398478E-3    9.518145416747562E-4   -2.559846480814770E-3    9.939492789792915E-4    2.511237380400130E-1    4.437252482173609E-1
 8.151304399575000E9     1.124838970075674E-1    5.281269929085846E-1   -2.591211477799980E-3    9.669042228257597E-4   -2.598773494076064E-3    1.036506558814481E-3    2.513850857278406E-1    4.433637143433605E-1
 8.151311870400000E9     1.129514592138350E-1    5.279874609972870E-1   -2.590274827402937E-3    9.778410254736136E-4   -2.563416228885324E-3    1.032775202794728E-3    2.518022266767480E-1    4.430330486535140E-1
 8.151319341225000E9     1.135333727566245E-1    5.278437548840890E-1   -2.559001337273062E-3    9.564354829031994E-4   -2.568809810947240E-3    1.020006588308019E-3    2.522748874829901E-1    4.428882865243043E-1
 8.151326812050000E9     1.140419412427954E-1    5.278878085193901E-1   -2.608377383439670E-3    9.719637506479800E-4   -2.599242577785591E-3    1.043984464413208E-3    2.525521220782466E-1    4.426081435890568E-1
 8.151334282875000E9     1.144897976459848E-1    5.276699580749808E-1   -2.592713671747674E-3    9.830005094337690E-4   -2.578340805915256E-3    1.034795650104776E-3    2.530460138977227E-1    4.422753988173236E-1
 8.151341753700000E9     1.150107110918684E-1    5.275955116797052E-1   -2.592885965796962E-3    9.731389669191796E-4   -2.586125307419586E-3    1.043737153930553E-3    2.535199961196324E-1    4.420206439391751E-1
 8.151349224525000E9     1.155716226732490E-1    5.274543656324819E-1   -2.571153877308902E-3    9.701638187586821E-4   -2.605035909201160E-3    1.026176111204332E-3    2.538334025506978E-1    4.419832737063454E-1
 8.151356695350000E9     1.160830333532941E-1    5.274287565820053E-1   -2.601731964781456E-3    9.727269043519190E-4   -2.577860871504065E-3    1.041017959880684E-3    2.543204883015173E-1    4.416313996032050E-1
 8.151364166175000E9     1.165206696781149E-1    5.272514304042140E-1   -2.617296029943639E-3    1.007460795707043E-3   -2.613604320869585E-3    1.047425725732247E-3    2.546602136773428E-1    4.413382393777185E-1
 8.151371637000000E9     1.171550801197717E-1    5.272366559201261E-1   -2.610976270829205E-3    9.854454065231100E-4   -2.618480970519087E-3    1.058506128474839E-3    2.552284814374854E-1    4.410124761163460E-1
 8.151379107825000E9     1.176852341181884E-1    5.271055807511776E-1   -2.611604095679124E-3    1.001633548801472E-3   -2.585757679911285E-3    1.043311222533499E-3    2.554058351087793E-1    4.408281576113284E-1
 8.151386578650000E9     1.181601718694486E-1    5.270352646462411E-1   -2.589774238328233E-3    9.916096618007874E-4   -2.618255412532888E-3    1.052414358359398E-3    2.559202765041684E-1    4.406642842920028E-1
 8.151394049475000E9     1.186946612358901E-1    5.268811142288596E-1   -2.616397690955421E-3    1.001426681549951E-3   -2.602640109038083E-3    1.053396501447628E-3    2.562943961396106E-1    4.403345530298766E-1
 8.151401520300000E9     1.191973291763112E-1    5.267451342644609E-1   -2.576611386841591E-3    1.031431054634192E-3   -2.612915549704484E-3    1.063512021733127E-3    2.568193412325769E-1    4.400729075408159E-1
 8.151408991125000E9     1.197141417167171E-1    5.266196753722771E-1   -2.605072906465718E-3    1.013684938030784E-3   -2.619851268625357E-3    1.127112823975325E-3    2.572500523023837E-1    4.398968201372835E-1
 8.151416461950000E9     1.201690915085675E-1    5.265972912920718E-1   -2.596113274045843E-3    1.017543252273007E-3   -2.571478020256949E-3    1.085427512506876E-3    2.574741731084616E-1    4.395677910504293E-1
 8.151423932775000E9     1.207820830451323E-1    5.264984790587729E-1   -2.607841716049091E-3    1.026274818414540E-3   -2.621899822588299E-3    1.063904024799892E-3    2.579744457741840E-1    4.393955296446671E-1
 8.151431403600000E9     1.212953859969778E-1    5.264011354448462E-1   -2.583123728281247E-3    1.030728433095939E-3   -2.612419365392541E-3    1.094519944668620E-3    2.583890661437874E-1    4.390961602019309E-1
 8.151438874425000E9     1.218057189148621E-1    5.261581373514060E-1   -2.612554125544897E-3    1.006691787123394E-3   -2.582047404873220E-3    1.100648161526536E-3    2.587880039241870E-1    4.388664671668085E-1
 8.151446345250000E9     1.222932763617753E-1    5.260176223890796E-1   -2.623017484018042E-3    1.025641035212883E-3   -2.622476087451545E-3    1.112137942445861E-3    2.591850970331102E-1    4.385406089930194E-1
