#  HZ   S   RI   R     50.00 
! Rohde & Schwarz Vector Network Analyzer 
! Rohde-Schwarz,ZNB20-2Port,1311601062101988,3.16
! Created: UTC 3/21/2024, 1:14:08 AM
! freq[Hz]                re:S11                  im:S11                  re:S21                  im:S21                  re:S12                  im:S12                  re:S22                  im:S22
 8.150857865000000E9     8.123598086252447E-2    5.330276038072936E-1   -2.574683962648844E-3    7.796414786177245E-4   -2.602284319139456E-3    8.260926538492566E-4    2.262974023780377E-1    4.574914640656285E-1
 8.150865026700000E9     8.170698084703674E-2    5.329186132613510E-1   -2.587548857713861E-3    7.575600664293156E-4   -2.580186085808069E-3    8.349134157067925E-4    2.266851088180504E-1    4.573380090746215E-1
 8.150872188400000E9     8.232551845779909E-2    5.328565209232007E-1   -2.551606938338731E-3    7.682738469820213E-4   -2.565411331817070E-3    8.199677075042355E-4    2.270994149042796E-1    4.571503090941784E-1
 8.150879350100000E9     8.279024506805203E-2    5.328697536610294E-1   -2.575189972278780E-3    7.963570294087368E-4   -2.572261394155440E-3    7.901373398235634E-4    2.275274294926924E-1    4.569160183386729E-1
 8.150886511800000E9     8.328548408746120E-2    5.328707654000593E-1   -2.565960599686171E-3    8.015612003030398E-4   -2.612442382579202E-3    8.272169391571724E-4    2.278646200957712E-1    4.567162045008418E-1
 8.150893673500000E9     8.382338873128846E-2    5.326461877805508E-1   -2.555031839779729E-3    7.835117986968881E-4   -2.568910662987832E-3    8.470077492794711E-4    2.284338233708458E-1    4.564715555082191E-1
 8.150900835200000E9     8.422008201192385E-2    5.325634978594599E-1   -2.573685612685000E-3    7.913784695613069E-4   -2.581833188439988E-3    8.175983933122146E-4    2.287703887374826E-1    4.563336481105830E-1
 8.150907996900000E9     8.472916695283889E-2    5.325572349030812E-1   -2.558041505463330E-3    8.081662032645921E-4   -2.578101921054062E-3    8.340731610080811E-4    2.292002580349065E-1    4.562011383165176E-1
 8.150915158600000E9     8.530710487060367E-2    5.324562661521602E-1   -2.585992659431865E-3    7.662665496019632E-4   -2.558266691736297E-3    8.356434878903787E-4    2.295788210313182E-1    4.558675564431665E-1
 8.150922320300000E9     8.586739005385328E-2    5.324526494774050E-1   -2.582347200738844E-3    7.974329184729654E-4   -2.586414603136428E-3    8.362251258991814E-4    2.299806935094912E-1    4.556032973543445E-1
 8.150929482000000E9     8.628579634284071E-2    5.323658116425557E-1   -2.588937388586131E-3    7.880746376174627E-4   -2.586325250003628E-3    8.498235768484613E-4    2.303864715711434E-1    4.554725909745029E-1
 8.150936643700000E9     8.681787404598817E-2    5.322789256743480E-1   -2.581171454257439E-3    8.035227283608089E-4   -2.617413156846176E-3    8.463199038734856E-4    2.308359696549352E-1    4.550627525884212E-1
 8.150943805400000E9     8.738142493700078E-2    5.321608271750805E-1   -2.536568667100892E-3    8.190014876269057E-4   -2.582438149098873E-3    8.455103460160880E-4    2.312310722927191E-1    4.550191070352490E-1
 8.150950967100000E9     8.790539091236575E-2    5.321120677370316E-1   -2.570529904737752E-3    8.004769473176160E-4   -2.599148485208374E-3    8.898257450042315E-4    2.316801323364876E-1    4.549426231721310E-1
 8.150958128800000E9     8.828882221476902E-2    5.320845426520673E-1   -2.577590533908913E-3    8.229552994800042E-4   -2.589599109179897E-3    8.636795143125986E-4    2.320693706308543E-1    4.546211495520521E-1
 8.150965290500000E9     8.878545690716670E-2    5.320234062340793E-1   -2.602700708267493E-3    8.235156216915159E-4   -2.600268418577753E-3    8.737572448049771E-4    2.324650147351227E-1    4.543462156781455E-1
 8.150972452200000E9     8.938610655262211E-2    5.320216923975107E-1   -2.556096027920516E-3    8.171643724737164E-4   -2.600046805158438E-3    8.786605084982207E-4    2.327793554249399E-1    4.541539480887783E-1
 8.150979613900000E9     8.983353939360177E-2    5.318090091160891E-1   -2.543853920846416E-3    8.096773643091327E-4   -2.582498059766383E-3    8.854226300860253E-4    2.332024519744269E-1    4.538944078258678E-1
 8.150986775600000E9     9.025340704200802E-2    5.317805196521880E-1   -2.549923295152093E-3    8.412919459376256E-4   -2.600514731083227E-3    8.522148415571606E-4    2.336019963221725E-1    4.536631868847670E-1
 8.150993937300000E9     9.071457488676513E-2    5.316714640935672E-1   -2.565396798166350E-3    8.109139226474836E-4   -2.579216411158586E-3    8.772116104352352E-4    2.340320938399638E-1    4.535540505877099E-1
 8.151001099000000E9     9.127858413099819E-2    5.316590599258987E-1   -2.594316780415141E-3    8.403247103896267E-4   -2.613088450509355E-3    8.886181435191077E-4    2.344310627178156E-1    4.531417971945839E-1
 8.151008260700000E9     9.173662765756661E-2    5.315591628339489E-1   -2.585450007742376E-3    8.460771954028061E-4   -2.580833628619440E-3    9.053760364833968E-4    2.346980305179633E-1    4.529960701620351E-1
 8.151015422400000E9     9.232504189068168E-2    5.314189722730469E-1   -2.559197019463342E-3    8.304442497751374E-4   -2.568546240713566E-3    9.021719380275640E-4    2.352318087883134E-1    4.527713919005341E-1
 8.151022584100000E9     9.270331451763156E-2    5.314354212084935E-1   -2.572369928321902E-3    8.309572334698078E-4   -2.568037641684284E-3    8.589586498990715E-4    2.355936543784385E-1    4.526168094565932E-1
 8.151029745800000E9     9.328631450532937E-2    5.313955414725073E-1   -2.548247700064498E-3    8.342623528470912E-4   -2.579422729790208E-3    8.880556961374574E-4    2.359871985724358E-1    4.522892707034453E-1
 8.151036907500000E9     9.378364557357778E-2    5.311415231920044E-1   -2.580480364557321E-3    8.656572046994955E-4   -2.610599683727978E-3    9.090898988538093E-4    2.364299340849534E-1    4.521963304034579E-1
 8.151044069200000E9     9.421244704343412E-2    5.311373923888072E-1   -2.566890091483720E-3    8.650253601733688E-4   -2.607058877106809E-3    9.014043661282894E-4    2.369235937502000E-1    4.519422556327155E-1
 8.151051230900000E9     9.472758391812140E-2    5.309996513197269E-1   -2.562386749415978E-3    8.372783540248115E-4   -2.581738013022565E-3    9.092238006542595E-4    2.372286539047218E-1    4.517181316808619E-1
 8.151058392600000E9     9.525026410154395E-2    5.310393903137306E-1   -2.568399646157450E-3    8.457338450948710E-4   -2.595839511480187E-3    9.140762960373060E-4    2.376940866777452E-1    4.515985015395645E-1
 8.151065554300000E9     9.561883446631567E-2    5.309395857054084E-1   -2.554888908409873E-3    8.661417906635682E-4   -2.566725215577654E-3    9.251716304994674E-4    2.381111824061080E-1    4.513524708247339E-1
 8.151072716000000E9     9.631102750861108E-2    5.309113508143715E-1   -2.582765465309215E-3    8.532050338298352E-4   -2.586230429383839E-3    9.078757306549001E-4    2.384985538235230E-1    4.510241214198771E-1
 8.151079877700000E9     9.672634210210586E-2    5.307290037241220E-1   -2.575558993480752E-3    8.683595415443867E-4   -2.597078387084729E-3    9.211473562227753E-4    2.387670582986281E-1    4.509045522149617E-1
 8.151087039400000E9     9.723197486319152E-2    5.306818194042355E-1   -2.576629839781585E-3    8.617736550307998E-4   -2.554140549547499E-3    8.941610305572160E-4    2.392741741190483E-1    4.507287591109158E-1
 8.151094201100000E9     9.787627725879659E-2    5.306619317548005E-1   -2.561442309008414E-3    8.594484742732132E-4   -2.598030347643918E-3    8.970241838328611E-4    2.395508953024621E-1    4.502787005827695E-1
 8.151101362800000E9     9.822967157684907E-2    5.306440729696028E-1   -2.565238958753127E-3    8.732653181846653E-4   -2.607947256394778E-3    9.463641233264579E-4    2.400554562432198E-1    4.501426900215870E-1
 8.151108524500000E9     9.872400564011573E-2    5.304255839108618E-1   -2.551563949077804E-3    8.889626422616799E-4   -2.592889183074240E-3    9.375569877450102E-4    2.403606787955677E-1    4.499725566337320E-1
 8.151115686200000E9     9.924663460379868E-2    5.302683237067941E-1   -2.554661247713474E-3    8.889192520067896E-4   -2.573665797589013E-3    9.421248890333859E-4    2.407176108197468E-1    4.497629743400146E-1
 8.151122847900000E9     9.966554025272006E-2    5.303193942987499E-1   -2.572390601710889E-3    8.595627031086674E-4   -2.593633813052487E-3    9.261841321849534E-4    2.413896663608639E-1    4.495635752137013E-1
 8.151130009600000E9     1.002898860892099E-1    5.302173957729649E-1   -2.547558179512696E-3    9.082536086512360E-4   -2.610795065598766E-3    9.437289099337033E-4    2.416053384778674E-1    4.491489655604638E-1
 8.151137171300000E9     1.007075797249210E-1    5.301968776573516E-1   -2.569236931695621E-3    8.928076656550243E-4   -2.593310309134935E-3    9.336687920217825E-4    2.422159947582410E-1    4.491149971088690E-1
 8.151144333000000E9     1.011055882630520E-1    5.300266436308786E-1   -2.562393980729538E-3    8.816507269153593E-4   -2.578132960238714E-3    9.196319517865367E-4    2.423714332810213E-1    4.487309907409753E-1
 8.151151494700000E9     1.018126799948176E-1    5.299303880045241E-1   -2.592511144598931E-3    9.023680944851132E-4   -2.579563007053584E-3    9.412959174326177E-4    2.428305819213447E-1    4.484934172850243E-1
 8.151158656400000E9     1.021792290509462E-1    5.298893671404109E-1   -2.563822410634150E-3    9.080457451342732E-4   -2.572101999247532E-3    9.611225085575654E-4    2.431656401778682E-1    4.484629913846622E-1
 8.151165818100000E9     1.026910022608706E-1    5.297370012012754E-1   -2.591441503890686E-3    9.008186353889492E-4   -2.578916879125418E-3    9.549875308998160E-4    2.436614013009791E-1    4.480967210440265E-1
 8.151172979800000E9     1.031478054187559E-1    5.298617877908026E-1   -2.588595249512334E-3    8.915205777830708E-4   -2.586770582367132E-3    9.326522759432308E-4    2.439777641709746E-1    4.479773410669871E-1
 8.151180141500000E9     1.037198361967252E-1    5.296308068807346E-1   -2.582064111884915E-3    9.197138704077815E-4   -2.589864103926803E-3    9.578125335096909E-4    2.444149774666702E-1    4.478248216332157E-1
 8.151187303200000E9     1.041847900656892E-1    5.295381021502907E-1   -2.579245524619871E-3    9.290668876529790E-4   -2.600765432866178E-3    9.499200462744454E-4    2.448285519453035E-1    4.474073320562810E-1
 8.151194464900000E9     1.046316903331362E-1    5.294273554626626E-1   -2.578828515286612E-3    9.159196467769610E-4   -2.578640302842584E-3    9.396718443519694E-4    2.453073191350680E-1    4.473218651547498E-1
 8.151201626600000E9     1.051924631409508E-1    5.293433404131188E-1   -2.603278726671235E-3    9.216099558689536E-4   -2.577236892809637E-3    9.574354694655542E-4    2.457648218980474E-1    4.469872709398297E-1
 8.151208788300000E9     1.057277798314071E-1    5.292442894901046E-1   -2.569951787042750E-3    9.126815434725932E-4   -2.579640836637758E-3    9.856037665003379E-4    2.460464626434486E-1    4.469363617761571E-1
 8.151215950000000E9     1.063037294155687E-1    5.291396043411123E-1   -2.594154683297040E-3    9.454791130239017E-4   -2.594057410088114E-3    9.666997827109396E-4    2.464642896568512E-1    4.465325170718046E-1
 8.151223111700000E9     1.067370458379981E-1    5.291600024254748E-1   -2.558849490844510E-3    9.430413969066494E-4   -2.620017315522007E-3    9.793286349530767E-4    2.468893923100342E-1    4.463269457874033E-1
 8.151230273400000E9     1.071548172587437E-1    5.289890444266770E-1   -2.579701561972745E-3    9.054680250556432E-4   -2.555407540603208E-3    9.701789902963312E-4    2.471947315752133E-1    4.460740646934374E-1
 8.151237435100000E9     1.076368860113973E-1    5.289548946443567E-1   -2.591398473717474E-3    9.459565491252637E-4   -2.618520406697037E-3    9.641780639320370E-4    2.476836094380810E-1    4.458416758377002E-1
 8.151244596800000E9     1.081439766962600E-1    5.288660345656848E-1   -2.579892985009970E-3    9.239988532760358E-4   -2.590825722807273E-3    9.740625585548022E-4    2.478805756086003E-1    4.457008630598090E-1
 8.151251758500000E9     1.086896306998762E-1    5.287303568747592E-1   -2.590110027932579E-3    9.422774165322370E-4   -2.593109250695602E-3    1.001727000636513E-3    2.484697769082539E-1    4.453006759962315E-1
 8.151258920200000E9     1.092122049850672E-1    5.286491816258467E-1   -2.587030408370599E-3    9.441204332912497E-4   -2.590287881129163E-3    9.648958464380697E-4    2.488618561509524E-1    4.450215089272805E-1
 8.151266081900000E9     1.096486921201232E-1    5.286091892068201E-1   -2.557729156667119E-3    9.340382496870430E-4   -2.580992654835408E-3    9.988136469516161E-4    2.492551040743566E-1    4.448399893093260E-1
 8.151273243600000E9     1.101467255633682E-1    5.284321525212800E-1   -2.593349078492676E-3    9.659616712561686E-4   -2.557810598779285E-3    1.004630629162332E-3    2.496376208012387E-1    4.447094540442524E-1
 8.151280405300000E9     1.106274801234375E-1    5.283552917623275E-1   -2.589795916089700E-3    9.388494693912177E-4   -2.611886983811868E-3    1.000544567821254E-3    2.499668948472678E-1    4.444136990509204E-1
 8.151287567000000E9     1.110750085934187E-1    5.281960352485444E-1   -2.579183793862715E-3    9.678472181874663E-4   -2.585352726649321E-3    9.977537537132115E-4    2.504070578649801E-1    4.442144743058567E-1
 8.151294728700000E9     1.116163357445437E-1    5.281383096596363E-1   -2.585043178150333E-3    9.586776588766255E-4   -2.591633750940954E-3    9.806325519018417E-4    2.506801918923627E-1    4.439820863507035E-1
 8.151301890400000E9     1.122228002257864E-1    5.280331780150023E-1   -2.566544301868205E-3    9.538898384746444E-4   -2.582613860981089E-3    1.020566228762117E-3    2.510829254984276E-1    4.436344262123604E-1
 8.151309052100000E9     1.125489546730569E-1    5.281028540708150E-1   -2.579929328452693E-3    9.591072791758935E-4   -2.574363035976016E-3    1.027605281131205E-3    2.517259396289908E-1    4.433503904578427E-1
 8.151316213800000E9     1.131182183716072E-1    5.279835230658573E-1   -2.568662823003732E-3    9.636349864997075E-4   -2.585473880873938E-3    1.019012678578883E-3    2.518796640770448E-1    4.431653677400162E-1
 8.151323375500000E9     1.135239996948426E-1    5.278857733788588E-1   -2.607069215306506E-3    9.846342356719954E-4   -2.587285499405392E-3    1.026608155923994E-3    2.523999874346768E-1    4.429736742462213E-1
 8.151330537200000E9     1.140701589063466E-1    5.276400386282124E-1   -2.575515153320455E-3    9.574395718686265E-4   -2.561434508132617E-3    1.019690409466512E-3    2.527314811504101E-1    4.428525584421928E-1
 8.151337698900000E9     1.145050791513879E-1    5.277131881930198E-1   -2.571854744307362E-3    1.002467308046963E-3   -2.585078038207216E-3    1.041054170580807E-3    2.531993755571502E-1    4.425810118193632E-1
 8.151344860600000E9     1.151083314928399E-1    5.276153975387700E-1   -2.584953909213915E-3    9.898719863636713E-4   -2.595034938604447E-3    1.034137655566010E-3    2.534458789806619E-1    4.423263558694100E-1
 8.151352022300000E9     1.155422133644367E-1    5.274499129690735E-1   -2.609250763589950E-3    9.847694397590112E-4   -2.578323699728743E-3    1.026214423000067E-3    2.538631372988065E-1    4.421721575240586E-1
 8.151359184000000E9     1.160442396301701E-1    5.273761920916349E-1   -2.603875961305784E-3    9.808596409626121E-4   -2.622252652179487E-3    1.012160049663774E-3    2.543983843446284E-1    4.419478393620573E-1
 8.151366345700000E9     1.166430789660591E-1    5.272253720565411E-1   -2.593153600297302E-3    1.005289426781016E-3   -2.620534330823006E-3    1.040698568504027E-3    2.547024831200148E-1    4.415604900116635E-1
 8.151373507400000E9     1.170280486110503E-1    5.271086657480922E-1   -2.582462584216751E-3    9.918253252686432E-4   -2.636589016059414E-3    1.039914920585465E-3    2.550769793967105E-1    4.413278158633009E-1
 8.151380669100000E9     1.175528421996245E-1    5.270283348986057E-1   -2.610049285280414E-3    9.970394470057817E-4   -2.588831203081089E-3    1.046222143331212E-3    2.554854988531778E-1    4.411974356115952E-1
 8.151387830800000E9     1.180883407019204E-1    5.269388963316812E-1   -2.606966736488984E-3    9.926381158770997E-4   -2.608267970143558E-3    1.025980382227297E-3    2.558876234914197E-1    4.408049622267999E-1
 8.151394992500000E9     1.185341600983486E-1    5.268633650279035E-1   -2.607882873384257E-3    9.772761688366103E-4   -2.609992680951541E-3    1.054902544367462E-3    2.561122074244708E-1    4.405585555191085E-1
 8.151402154200000E9     1.189703112129757E-1    5.267511196822146E-1   -2.590895537533847E-3    1.015794471680281E-3   -2.615099440525055E-3    1.032479872406134E-3    2.566527824694735E-1    4.403734474836473E-1
 8.151409315900000E9     1.195560845504866E-1    5.266131729040264E-1   -2.583624174663997E-3    1.000419217825029E-3   -2.594354748120237E-3    1.060959864300952E-3    2.570586008459315E-1    4.401776912711872E-1
 8.151416477600000E9     1.200262038699080E-1    5.264254260833422E-1   -2.574038405098835E-3    1.022449946355714E-3   -2.587565201300355E-3    1.066939049918037E-3    2.576092057423260E-1    4.399206731969127E-1
 8.151423639300000E9     1.205938548373397E-1    5.264078641486859E-1   -2.589342360101254E-3    1.030363324878420E-3   -2.588260059925018E-3    1.053587833894350E-3    2.577937175356791E-1    4.396044119492813E-1
 8.151430801000000E9     1.210204875755433E-1    5.262388849297837E-1   -2.620391016514982E-3    1.025582502175934E-3   -2.630538786050784E-3    1.078629269820488E-3    2.582512587621882E-1    4.393653913751565E-1
 8.151437962700000E9     1.215236792610585E-1    5.262591612582352E-1   -2.592742197361079E-3    1.026125978448615E-3   -2.582645686727393E-3    1.020934511634197E-3    2.587260854376421E-1    4.392462432694186E-1
 8.151445124400000E9     1.219652338723851E-1    5.260837456932813E-1   -2.589745082427098E-3    1.031614127653540E-3   -2.602914080354907E-3    1.102511251553661E-3    2.590267873305353E-1    4.389747255609937E-1
 8.151452286100000E9     1.225618087206053E-1    5.260594141627472E-1   -2.587375165235449E-3    1.042750075886831E-3   -2.622145742603338E-3    1.085463011885642E-3    2.595463279461820E-1    4.387036146220181E-1
 8.151459447800000E9     1.231126169266786E-1    5.258795773277744E-1   -2.576466279944740E-3    1.048989529952821E-3   -2.622202069631303E-3    1.068977415882754E-3    2.597842051478507E-1    4.385143130020168E-1
 8.151466609500000E9     1.236073835864332E-1    5.257918819740375E-1   -2.611502635061863E-3    1.039695435942580E-3   -2.609539610056611E-3    1.083108918624277E-3    2.601297043638899E-1    4.382831592444765E-1
 8.151473771200000E9     1.239992319786456E-1    5.258273353525269E-1   -2.630506107167363E-3    1.039192563283674E-3   -2.604810171506939E-3    1.075079815669007E-3    2.605845933789304E-1    4.379676629119072E-1
 8.151480932900000E9     1.244629309112853E-1    5.256232483908546E-1   -2.600564098096657E-3    1.064608691194207E-3   -2.586038864980831E-3    1.111773908032699E-3    2.610102514489523E-1    4.377021509917957E-1
 8.151488094600000E9     1.250256030407117E-1    5.254967492431821E-1   -2.601007917298395E-3    1.059618258899455E-3   -2.597583222524481E-3    1.119173817280369E-3    2.613105451430913E-1    4.374940017794839E-1
 8.151495256300000E9     1.256706960080962E-1    5.253569122491806E-1   -2.616328822881072E-3    1.048904202323331E-3   -2.631221557082404E-3    1.107693365139703E-3    2.617544427960708E-1    4.373496862481213E-1
 8.151502418000000E9     1.260542153210871E-1    5.251958870231790E-1   -2.588424780083145E-3    1.060891385462984E-3   -2.608658642955845E-3    1.128005640691780E-3    2.621159653057567E-1    4.370893001656964E-1
