#  HZ   S   RI   R     50.00 
! Rohde & Schwarz Vector Network Analyzer 
! Rohde-Schwarz,ZNB20-2Port,1311601062101988,3.16
! Created: UTC 3/21/2024, 1:14:11 AM
! freq[Hz]                re:S11                  im:S11                  re:S21                  im:S21                  re:S12                  im:S12                  re:S22                  im:S22
 8.150881047000000E9     8.282254674808891E-2    5.329620486744938E-1   -2.582176769144891E-3    7.905701232231113E-4   -2.572317433203016E-3    8.292547868112069E-4    2.275094540925310E-1    4.568731710877649E-1
 8.150888113425000E9     8.337964828286235E-2    5.327128101188879E-1   -2.572001032699109E-3    8.061990918344018E-4   -2.580316731653696E-3    7.965758294557329E-4    2.279070802322520E-1    4.567954168006838E-1
 8.150895179850000E9     8.379623620665173E-2    5.327349368371891E-1   -2.553099798268332E-3    7.872525727781508E-4   -2.576895757343029E-3    8.475226647356749E-4    2.283540873596447E-1    4.564497297097085E-1
 8.150902246275000E9     8.431762509112359E-2    5.326231433442774E-1   -2.559046602839820E-3    7.825759245397945E-4   -2.588077670555179E-3    8.591571733864417E-4    2.288448692484789E-1    4.564588394116393E-1
 8.150909312700000E9     8.495793587986017E-2    5.324336129704565E-1   -2.549673305348266E-3    7.834483408171348E-4   -2.576970831786043E-3    8.433740838318699E-4    2.291458517068872E-1    4.562021782626881E-1
 8.150916379125000E9     8.535824834304234E-2    5.326090279589130E-1   -2.559905195733264E-3    7.861713207125355E-4   -2.581043270632010E-3    8.638327235225404E-4    2.295461276444063E-1    4.558138600538353E-1
 8.150923445550000E9     8.579338643955056E-2    5.323468027271282E-1   -2.583365059584793E-3    8.022287331754971E-4   -2.584621195317251E-3    8.367997135964394E-4    2.300933781036193E-1    4.557714608985862E-1
 8.150930511975000E9     8.636546122760513E-2    5.322597367486600E-1   -2.562000372081875E-3    7.781325100162602E-4   -2.597352591407510E-3    8.704105785488206E-4    2.303670209184173E-1    4.553637425993799E-1
 8.150937578400000E9     8.684775317350601E-2    5.323078758502873E-1   -2.572336412151368E-3    8.067483133678280E-4   -2.592818983816270E-3    8.813649432094118E-4    2.307856014817868E-1    4.552424431659033E-1
 8.150944644825000E9     8.732197343488238E-2    5.320546169609196E-1   -2.575612774817421E-3    7.993532524224940E-4   -2.570263355263581E-3    8.413777007589019E-4    2.311815627218227E-1    4.550570519456710E-1
 8.150951711250000E9     8.787417343488800E-2    5.320979547969457E-1   -2.569771413753194E-3    8.057325069160110E-4   -2.581890771933647E-3    8.384063069070549E-4    2.316337119488129E-1    4.548072651484270E-1
 8.150958777675000E9     8.829444138337682E-2    5.320950561729277E-1   -2.574608962216723E-3    8.236854027817874E-4   -2.589030482260962E-3    8.694614477080645E-4    2.319506538109516E-1    4.546171727244955E-1
 8.150965844100000E9     8.874036335533968E-2    5.319182186637109E-1   -2.574931783689324E-3    8.399562685308370E-4   -2.557867574285865E-3    8.728463620866552E-4    2.323808033192200E-1    4.543822325089096E-1
 8.150972910525000E9     8.938827279087691E-2    5.318961464385110E-1   -2.566432871924442E-3    8.070691192410990E-4   -2.589820213506048E-3    8.435523006279712E-4    2.326830516154369E-1    4.541916591546424E-1
 8.150979976950000E9     8.989356374745834E-2    5.318512305913348E-1   -2.574540316049564E-3    8.272088928862054E-4   -2.583771798173100E-3    8.779551979654223E-4    2.332211133148778E-1    4.538879897535402E-1
 8.150987043375000E9     9.036244379981991E-2    5.317518066585304E-1   -2.555522976735525E-3    8.221455214063861E-4   -2.596753675141061E-3    8.630895916607696E-4    2.338053687775591E-1    4.537852268150352E-1
 8.150994109800000E9     9.076279237962294E-2    5.316875476214125E-1   -2.559055798347806E-3    8.339158635914612E-4   -2.603174058102373E-3    8.567314268086054E-4    2.339742172597603E-1    4.533392597241183E-1
 8.151001176225000E9     9.129791840566233E-2    5.315360345842236E-1   -2.554897678997202E-3    8.163996439027121E-4   -2.591165738826202E-3    8.699989739521995E-4    2.345110499354321E-1    4.533435357866096E-1
 8.151008242650000E9     9.174260171415229E-2    5.315865019773770E-1   -2.560541823134251E-3    8.339348698257594E-4   -2.581148509927401E-3    9.104596535042675E-4    2.347244733530955E-1    4.531206015620751E-1
 8.151015309075000E9     9.216356988243538E-2    5.314440728783311E-1   -2.558672933558548E-3    8.322614965559019E-4   -2.581609725281877E-3    9.172135192591249E-4    2.351361930070043E-1    4.528129316451297E-1
 8.151022375500000E9     9.276679750434499E-2    5.315166513569494E-1   -2.570006530787814E-3    8.517739261890351E-4   -2.604565899865846E-3    8.845298103479803E-4    2.355614071282134E-1    4.527131532785088E-1
 8.151029441925000E9     9.319845827410264E-2    5.314183982850211E-1   -2.575295758080079E-3    8.666872029431468E-4   -2.592631532447921E-3    8.873104052250629E-4    2.360067989946434E-1    4.524375389819270E-1
 8.151036508350000E9     9.373905680723905E-2    5.313194893822815E-1   -2.568961969635571E-3    8.244603768216638E-4   -2.555352527191168E-3    9.235673622814636E-4    2.362318237680568E-1    4.523002166412397E-1
 8.151043574775000E9     9.413058880866396E-2    5.312595076709520E-1   -2.553018898641052E-3    8.386087478046393E-4   -2.588573912670695E-3    9.167376784941713E-4    2.368984844506130E-1    4.519218014236631E-1
 8.151050641200000E9     9.465133757117794E-2    5.311195866283216E-1   -2.558597204878871E-3    8.482546706726818E-4   -2.570861614388703E-3    8.919093451930741E-4    2.370742479060426E-1    4.517461739872262E-1
 8.151057707625000E9     9.509319378482509E-2    5.311545750210063E-1   -2.555161157531289E-3    8.799939025810046E-4   -2.592769126568139E-3    8.854623260262746E-4    2.375845866132417E-1    4.516761953593605E-1
 8.151064774050000E9     9.567143235955232E-2    5.309349357100461E-1   -2.571672994855727E-3    8.737519785819740E-4   -2.583492492852335E-3    8.944779036917682E-4    2.379572974729341E-1    4.513145978554672E-1
 8.151071840475000E9     9.620890740010701E-2    5.308972195495969E-1   -2.552549065111232E-3    8.663609803525041E-4   -2.570471245199167E-3    9.156568514928244E-4    2.383898206917242E-1    4.511290755929454E-1
 8.151078906900000E9     9.668322180480299E-2    5.307893573683188E-1   -2.575253258198114E-3    8.637752777744096E-4   -2.568195143179536E-3    9.010038950147520E-4    2.387913366949709E-1    4.508659346885623E-1
 8.151085973325000E9     9.719177980032381E-2    5.307663771703637E-1   -2.595591232938092E-3    8.662078204507283E-4   -2.606627839002728E-3    9.148507616790390E-4    2.389824413165558E-1    4.508068076382627E-1
 8.151093039750000E9     9.774244479678139E-2    5.305967168488455E-1   -2.565355069017595E-3    8.902971090678636E-4   -2.607075969768851E-3    9.100254806447876E-4    2.396240965422313E-1    4.505189440897607E-1
 8.151100106175000E9     9.813915310994559E-2    5.306557191579253E-1   -2.549940378884322E-3    8.525768363706018E-4   -2.603797619745574E-3    9.247876225384314E-4    2.399194731553225E-1    4.502977559263162E-1
 8.151107172600000E9     9.862023232470331E-2    5.304212836108320E-1   -2.564174738733984E-3    8.676767311662528E-4   -2.583742252678799E-3    9.117743159679458E-4    2.401799830893248E-1    4.500985158856974E-1
 8.151114239025000E9     9.918430625558398E-2    5.302506427145703E-1   -2.585416746278957E-3    8.702719009038220E-4   -2.573827937419357E-3    9.069075662693978E-4    2.407370848105139E-1    4.498582141267106E-1
 8.151121305450000E9     9.961064127467339E-2    5.302662824750216E-1   -2.556870997615672E-3    8.613616010505819E-4   -2.580946709210342E-3    9.508725114137156E-4    2.411246202846147E-1    4.495479442327028E-1
 8.151128371875000E9     1.000788203785192E-1    5.302281392432044E-1   -2.577797083820393E-3    8.982770018146615E-4   -2.602506801294621E-3    9.564598817641650E-4    2.415963779962350E-1    4.493582853444130E-1
 8.151135438300000E9     1.005490219419915E-1    5.301390641198184E-1   -2.562067384769889E-3    8.823337113139860E-4   -2.557079832505815E-3    9.411692700514748E-4    2.418956527057352E-1    4.492596607171712E-1
 8.151142504725000E9     1.010716601708382E-1    5.299784019927916E-1   -2.572007930079342E-3    8.911044828058533E-4   -2.568398727790339E-3    9.500215836988743E-4    2.423102934027702E-1    4.489008071385028E-1
 8.151149571150000E9     1.015382655560700E-1    5.299003081808075E-1   -2.548536507503072E-3    8.961693535717477E-4   -2.612642632555768E-3    9.538880251152231E-4    2.427287218679850E-1    4.487001665074229E-1
 8.151156637575000E9     1.020433170821199E-1    5.298700333388565E-1   -2.563400646455121E-3    8.767087998839149E-4   -2.590362893352420E-3    9.307720013646302E-4    2.430854568212297E-1    4.485004798704749E-1
 8.151163704000000E9     1.025488249945223E-1    5.298547093832330E-1   -2.559169217719530E-3    8.830035725552467E-4   -2.592465402276964E-3    9.161298328112522E-4    2.434519653693234E-1    4.482710819660591E-1
 8.151170770425000E9     1.029313496397513E-1    5.297929874217505E-1   -2.581597197607923E-3    9.191909086375523E-4   -2.585123067996998E-3    9.430376280836372E-4    2.438680362034484E-1    4.479994575116685E-1
 8.151177836850000E9     1.034910329882301E-1    5.296673245781296E-1   -2.581072489033484E-3    9.101124498001917E-4   -2.575154939256954E-3    9.750553445953893E-4    2.442395525205661E-1    4.476394094247974E-1
 8.151184903275000E9     1.039952287960356E-1    5.296590678195617E-1   -2.583927924084714E-3    9.201740899647784E-4   -2.574238938951019E-3    9.520680620917406E-4    2.447017976834807E-1    4.475578597132077E-1
 8.151191969700000E9     1.043945194946407E-1    5.295414483613686E-1   -2.560251045909417E-3    9.071354301300020E-4   -2.578992581576424E-3    9.731556606907622E-4    2.451238265812720E-1    4.474966792712334E-1
 8.151199036125000E9     1.050136739638805E-1    5.294160140031209E-1   -2.554066107910129E-3    8.826701722214019E-4   -2.583302787132962E-3    9.509794936168225E-4    2.453811107438142E-1    4.471954341904962E-1
 8.151206102550000E9     1.055690259117633E-1    5.293697620065803E-1   -2.566187490673176E-3    9.249859173700210E-4   -2.595315359258196E-3    9.396306828672723E-4    2.457759982932719E-1    4.468320949480965E-1
 8.151213168975000E9     1.058918010008814E-1    5.292133915386459E-1   -2.575484895622304E-3    9.129719013729714E-4   -2.614370029565853E-3    9.794757469490962E-4    2.462084205187012E-1    4.467162634324624E-1
 8.151220235400000E9     1.064418911588723E-1    5.290795269381248E-1   -2.582905563476878E-3    9.515699615921384E-4   -2.596691409664784E-3    9.704322102254783E-4    2.466534331557154E-1    4.464256301278203E-1
 8.151227301825000E9     1.067398306286451E-1    5.290419524160911E-1   -2.575918460590826E-3    9.655968398919894E-4   -2.578826824887434E-3    9.965811934873885E-4    2.470489440864835E-1    4.462272583040195E-1
 8.151234368250000E9     1.073427692889398E-1    5.289026917841088E-1   -2.579862373050964E-3    9.607914896982801E-4   -2.584707183417137E-3    9.825783707583427E-4    2.474670079597434E-1    4.459927764668901E-1
 8.151241434675000E9     1.079705917181891E-1    5.289229546513857E-1   -2.564915155190006E-3    9.195114738766732E-4   -2.581542608805306E-3    9.747475801818062E-4    2.478578585281448E-1    4.457632918202110E-1
 8.151248501100000E9     1.083974132660337E-1    5.286957801283234E-1   -2.578388271942616E-3    9.310476262128821E-4   -2.589934534580323E-3    9.946056872117053E-4    2.482752708672756E-1    4.454246404370121E-1
 8.151255567525000E9     1.088438913204218E-1    5.287213610829761E-1   -2.568015930881179E-3    9.187428188157528E-4   -2.580445092875930E-3    9.761382429396572E-4    2.484725408850270E-1    4.453318671837883E-1
 8.151262633950000E9     1.094431975097303E-1    5.286205677298619E-1   -2.593123447450171E-3    9.404914536020071E-4   -2.568428643956943E-3    1.028840143105021E-3    2.490432740894289E-1    4.450741277762330E-1
 8.151269700375000E9     1.097748841848727E-1    5.286277714958937E-1   -2.565735562107740E-3    9.523363895479717E-4   -2.638190081696027E-3    9.867358163201045E-4    2.493774620253650E-1    4.449303648090563E-1
 8.151276766800000E9     1.104198555163245E-1    5.285296714702226E-1   -2.595783376397747E-3    9.649541377105092E-4   -2.609278144375626E-3    9.855986610603727E-4    2.497370499404022E-1    4.445583401657281E-1
 8.151283833225000E9     1.109297540772312E-1    5.284461453739652E-1   -2.591353300599780E-3    9.731577569139296E-4   -2.601107018048023E-3    1.026980407921757E-3    2.502506388710027E-1    4.445295739885318E-1
 8.151290899650000E9     1.114516662869567E-1    5.282737141838226E-1   -2.569522858441412E-3    9.584385404302527E-4   -2.540164746342490E-3    1.032033793283163E-3    2.506391997952803E-1    4.441761930287659E-1
 8.151297966075000E9     1.119390803878574E-1    5.282502697943660E-1   -2.593562391175358E-3    9.655096830208065E-4   -2.615331944688018E-3    1.029884680969250E-3    2.510225793834216E-1    4.438864271288148E-1
 8.151305032500000E9     1.123219167170047E-1    5.280239289254773E-1   -2.624972586328272E-3    9.748694278989322E-4   -2.596162509871331E-3    1.018677575788295E-3    2.512594804975017E-1    4.437299854040740E-1
 8.151312098925000E9     1.126399523343834E-1    5.278884780546033E-1   -2.574652887510162E-3    9.718581535289507E-4   -2.620458996453271E-3    1.011188793278994E-3    2.517019780729172E-1    4.434908893365070E-1
 8.151319165350000E9     1.132623593756796E-1    5.278859135413836E-1   -2.587280118142785E-3    9.758649776063291E-4   -2.590049401659499E-3    1.028414457021657E-3    2.521312337314375E-1    4.431772610695401E-1
 8.151326231775000E9     1.138017204997716E-1    5.277830863764313E-1   -2.586377185691565E-3    9.718683601298630E-4   -2.639112799514493E-3    1.015490003553674E-3    2.524651919122816E-1    4.429971581615241E-1
 8.151333298200000E9     1.143095515901555E-1    5.276375091670805E-1   -2.589496145763598E-3    9.689390687296093E-4   -2.609780397365507E-3    1.032605746635159E-3    2.529419214757409E-1    4.427819309193237E-1
 8.151340364625000E9     1.147279294993932E-1    5.276682670078031E-1   -2.598760876133037E-3    9.799227106493614E-4   -2.592607641286286E-3    1.038432391995901E-3    2.533576868127997E-1    4.425743516284059E-1
 8.151347431050000E9     1.152722683188092E-1    5.275000893520333E-1   -2.563053427913428E-3    9.913165604895199E-4   -2.590153940239446E-3    1.039407528296488E-3    2.536056849713860E-1    4.422242024887198E-1
 8.151354497475000E9     1.157546988828827E-1    5.273732677805305E-1   -2.591204280328505E-3    9.538215465707007E-4   -2.610194660161826E-3    1.035924885474194E-3    2.540854555816498E-1    4.419887373266306E-1
 8.151361563900000E9     1.162544140036229E-1    5.273604005663488E-1   -2.585290396108207E-3    9.940741556647575E-4   -2.611895614337697E-3    1.048464742296498E-3    2.543981103939749E-1    4.418959282031039E-1
 8.151368630325000E9     1.166810184060585E-1    5.273077027569337E-1   -2.569238227345142E-3    9.912590801669761E-4   -2.578389986987242E-3    1.018027751484878E-3    2.547938064858471E-1    4.416176967272056E-1
 8.151375696750000E9     1.172185570843701E-1    5.270506624987529E-1   -2.587232717637871E-3    1.011370641236268E-3   -2.587344881371711E-3    1.035998734391576E-3    2.551797012894469E-1    4.413419864781026E-1
 8.151382763175000E9     1.177918858292945E-1    5.270142512295943E-1   -2.594091009183400E-3    9.859020497892459E-4   -2.563499402505550E-3    1.069393673948215E-3    2.555583900433164E-1    4.411225030226821E-1
 8.151389829600000E9     1.182591415404322E-1    5.269051421455202E-1   -2.589840842804868E-3    1.028466700184254E-3   -2.601202324754392E-3    1.072657788349690E-3    2.559921771852001E-1    4.410026303278300E-1
 8.151396896025000E9     1.185554487434318E-1    5.268162052509272E-1   -2.601572491640902E-3    1.023395029661378E-3   -2.589151847161188E-3    1.086036679191716E-3    2.564134392599924E-1    4.406742236665956E-1
 8.151403962450000E9     1.192754902219995E-1    5.267599710100838E-1   -2.613595886877117E-3    9.920327518070857E-4   -2.577299741103666E-3    1.053986038106807E-3    2.568375642548222E-1    4.404642673021718E-1
 8.151411028875000E9     1.196771760610024E-1    5.267205374135484E-1   -2.600191524811490E-3    1.008332019892956E-3   -2.595387682134378E-3    1.094040369557665E-3    2.572049838962778E-1    4.402123602341437E-1
 8.151418095300000E9     1.200677733265079E-1    5.265727682202809E-1   -2.617745008272945E-3    1.013578230597506E-3   -2.588893933136151E-3    1.077536172793001E-3    2.574854072896269E-1    4.400185194017737E-1
 8.151425161725000E9     1.207183243664699E-1    5.263375048343156E-1   -2.571887739477631E-3    9.933837066744562E-4   -2.599509779737321E-3    1.061288434558931E-3    2.579699087555125E-1    4.397914559717518E-1
 8.151432228150000E9     1.210307102845350E-1    5.262900651064170E-1   -2.607248331457683E-3    1.025918673681795E-3   -2.592889005681958E-3    1.091351726267241E-3    2.582431730055967E-1    4.394480078773124E-1
 8.151439294575000E9     1.215362367337297E-1    5.261102383927635E-1   -2.604967795377252E-3    1.042426059667677E-3   -2.637437482330020E-3    1.095717597791795E-3    2.587052098453166E-1    4.391872225008392E-1
 8.151446361000000E9     1.222069634311994E-1    5.261381503255385E-1   -2.582802269606493E-3    1.041382130221367E-3   -2.602093127561316E-3    1.079761150021225E-3    2.590109358786030E-1    4.388869739818039E-1
 8.151453427425000E9     1.225578867430384E-1    5.260594126186943E-1   -2.605712946089130E-3    1.032763277775005E-3   -2.640915201808773E-3    1.103105247273565E-3    2.595246911768953E-1    4.386818799812991E-1
 8.151460493850000E9     1.230002752161811E-1    5.258834170105948E-1   -2.600540464013444E-3    1.040894325889691E-3   -2.614423056436346E-3    1.080873153066493E-3    2.597825338662781E-1    4.384612745683211E-1
 8.151467560275000E9     1.235213745238987E-1    5.257954807705341E-1   -2.575732258017961E-3    1.039888379475487E-3   -2.618305269575907E-3    1.090480483528183E-3    2.602585230747392E-1    4.383614544282972E-1
 8.151474626700000E9     1.240649082521103E-1    5.255792650480636E-1   -2.616291991434056E-3    1.041374698423419E-3   -2.590716004667679E-3    1.096177583147167E-3    2.605775924548288E-1    4.380109999762327E-1
 8.151481693125000E9     1.245970699145862E-1    5.256250701160019E-1   -2.610031351153514E-3    1.053308277357779E-3   -2.621786732798911E-3    1.099082528208099E-3    2.610132966932879E-1    4.377689275220170E-1
 8.151488759550000E9     1.249965492854219E-1    5.254778760767175E-1   -2.621589507647907E-3    1.075209581261854E-3   -2.590808849895476E-3    1.101759041540725E-3    2.613075448999163E-1    4.376271130690924E-1
 8.151495825975000E9     1.254595900236640E-1    5.253075014182661E-1   -2.609349780256501E-3    1.070089065880486E-3   -2.608752341762035E-3    1.094597747120923E-3    2.617111378963467E-1    4.373054843015461E-1
 8.151502892400000E9     1.259101117631019E-1    5.253308701152752E-1   -2.601623311747127E-3    1.060669431455704E-3   -2.630735801945803E-3    1.104368489926960E-3    2.622070310129189E-1    4.371018087061962E-1
 8.151509958825000E9     1.265059984840788E-1    5.251064327892645E-1   -2.591288665662468E-3    1.056711554289882E-3   -2.607759190147800E-3    1.133945933956822E-3    2.625993587833677E-1    4.367122015880119E-1
 8.151517025250000E9     1.270197420492165E-1    5.250814506830888E-1   -2.599083862136741E-3    1.071875335779500E-3   -2.606134702739615E-3    1.106055560536432E-3    2.628484475972254E-1    4.366426866663208E-1
