#  HZ   S   RI   R     50.00 
! Rohde & Schwarz Vector Network Analyzer 
! Rohde-Schwarz,ZNB20-2Port,1311601062101988,3.16
! Created: UTC 3/21/2024, 1:14:20 AM
! freq[Hz]                re:S11                  im:S11                  re:S21                  im:S21                  re:S12                  im:S12                  re:S22                  im:S22
 8.150907327000000E9     8.448778542948948E-2    5.324917275467690E-1   -2.568178285185902E-3    8.002646643364042E-4   -2.605265938363392E-3    8.545809399573890E-4    2.290754139241914E-1    4.563562326836582E-1
 8.150914313925000E9     8.506483060703446E-2    5.324673936405433E-1   -2.562792379809414E-3    7.845261941741842E-4   -2.566450507787084E-3    8.208801560797373E-4    2.294788967467574E-1    4.562202572204311E-1
 8.150921300850000E9     8.559005363974417E-2    5.324487484539986E-1   -2.557376878201203E-3    8.091403836831691E-4   -2.609603498724553E-3    8.528667690180685E-4    2.298856624282949E-1    4.559695605706412E-1
 8.150928287775000E9     8.603598107263606E-2    5.323834698847745E-1   -2.564131022384471E-3    8.065883196360084E-4   -2.608606177526286E-3    8.720798012452005E-4    2.303269959639218E-1    4.558310614176436E-1
 8.150935274700000E9     8.656979835290926E-2    5.323338731728073E-1   -2.556354446684748E-3    7.773326977717164E-4   -2.577182037997078E-3    8.454953107322244E-4    2.305795250952682E-1    4.555334007244928E-1
 8.150942261625000E9     8.701239844075347E-2    5.322486268433613E-1   -2.565870094294228E-3    7.782043922254380E-4   -2.584829268209978E-3    8.612941692960899E-4    2.310851273591009E-1    4.553730488500020E-1
 8.150949248550000E9     8.751587813840077E-2    5.321704661348172E-1   -2.567152376194517E-3    8.082806798442354E-4   -2.596956437691052E-3    8.590240219010745E-4    2.316096369269799E-1    4.550997962926910E-1
 8.150956235475000E9     8.796731868634537E-2    5.320442629536667E-1   -2.557507753597678E-3    8.180019943936379E-4   -2.586368745953057E-3    8.765793277660816E-4    2.319182653252643E-1    4.549953724812492E-1
 8.150963222400000E9     8.854443363642801E-2    5.320680179673767E-1   -2.573915498972726E-3    8.179137511341148E-4   -2.581000917564614E-3    8.492862563101638E-4    2.321747194845407E-1    4.546777929205086E-1
 8.150970209325000E9     8.895688391798698E-2    5.319097376268455E-1   -2.555057274082520E-3    8.302729551040881E-4   -2.554672136311138E-3    8.531202016279812E-4    2.325680745925724E-1    4.544634358954674E-1
 8.150977196250000E9     8.948102084982291E-2    5.318879164268697E-1   -2.578854865734928E-3    8.220656864838836E-4   -2.604858664353141E-3    8.621823996413308E-4    2.330380438671216E-1    4.542570514958988E-1
 8.150984183175000E9     8.988936730918533E-2    5.317036852221886E-1   -2.584371922287939E-3    8.410814314869194E-4   -2.564325844552801E-3    8.918353588762413E-4    2.334011821778350E-1    4.540070292461655E-1
 8.150991170100000E9     9.037678373335253E-2    5.318178937590836E-1   -2.566203610325183E-3    7.914590275667616E-4   -2.606942561194588E-3    8.687383024703105E-4    2.338604814980579E-1    4.537702811481515E-1
 8.150998157025000E9     9.097785598608397E-2    5.316913565150032E-1   -2.583885621180811E-3    8.075964434138618E-4   -2.570580239279290E-3    8.673619224091644E-4    2.341362883948842E-1    4.537352234114535E-1
 8.151005143950000E9     9.135528715937467E-2    5.316520116695241E-1   -2.569076963021172E-3    8.509255430305044E-4   -2.561017295630291E-3    9.051635002190173E-4    2.346120037240003E-1    4.533519598931067E-1
 8.151012130875000E9     9.186765925328806E-2    5.316011352650498E-1   -2.569951479275210E-3    8.138482034937486E-4   -2.615762815994284E-3    8.902593222266430E-4    2.348614361084838E-1    4.532887468777900E-1
 8.151019117800000E9     9.236569506316428E-2    5.314597134753485E-1   -2.587367399204218E-3    8.315268235457462E-4   -2.588298395344088E-3    8.910214295279309E-4    2.354108969166334E-1    4.529415701225290E-1
 8.151026104725000E9     9.286235887379364E-2    5.313370020314281E-1   -2.590737552230471E-3    8.231252090757468E-4   -2.596426317169773E-3    8.854309400073752E-4    2.357986004941096E-1    4.527278171264623E-1
 8.151033091650000E9     9.335902691942810E-2    5.313568967203519E-1   -2.583668164336109E-3    8.517456075633074E-4   -2.556920164447802E-3    8.773451378018513E-4    2.362760469840126E-1    4.526083984162793E-1
 8.151040078575000E9     9.377710684900616E-2    5.311869712348543E-1   -2.580464742445358E-3    8.340026621763755E-4   -2.593317048353218E-3    9.057439786579835E-4    2.366844858831600E-1    4.524436147377439E-1
 8.151047065500000E9     9.427135449741095E-2    5.311741763926969E-1   -2.551069317573041E-3    8.249350801261397E-4   -2.568391122147736E-3    8.647151069099978E-4    2.368689890336323E-1    4.522398776121552E-1
 8.151054052425000E9     9.478710864130802E-2    5.311341012453799E-1   -2.550225521823511E-3    8.511371367969571E-4   -2.568294611814946E-3    8.857752250415751E-4    2.373974453855484E-1    4.519508284598711E-1
 8.151061039350000E9     9.534152468595976E-2    5.310271749509797E-1   -2.578008913417302E-3    8.372702804757037E-4   -2.606341321764315E-3    9.289019347362839E-4    2.378219382089015E-1    4.517073785615645E-1
 8.151068026275000E9     9.571650958161169E-2    5.308544494163293E-1   -2.562806872914426E-3    8.599480489203552E-4   -2.588339166602531E-3    8.951534078838480E-4    2.381755556356008E-1    4.514631441927632E-1
 8.151075013200000E9     9.617952374824588E-2    5.309428923827224E-1   -2.570890719989048E-3    8.505731210355281E-4   -2.577868842262794E-3    8.966693423099239E-4    2.384355798915136E-1    4.512604616067676E-1
 8.151082000125000E9     9.662908901809374E-2    5.307328590332951E-1   -2.584926255962497E-3    8.588473363348846E-4   -2.591484287533044E-3    9.144788277854302E-4    2.387704196324106E-1    4.510261335574292E-1
 8.151088987050000E9     9.722448784420894E-2    5.307061758234106E-1   -2.589256118640576E-3    8.624687110048036E-4   -2.587742484499449E-3    9.246498275228365E-4    2.393667981965218E-1    4.507404301317361E-1
 8.151095973975000E9     9.779548036240585E-2    5.306107298593319E-1   -2.551950869001407E-3    8.764715784159153E-4   -2.599798336534309E-3    8.965321140866495E-4    2.395409338139581E-1    4.507825337201066E-1
 8.151102960900000E9     9.821765337065351E-2    5.305590485192079E-1   -2.551621164217915E-3    8.626800919059645E-4   -2.591544448040361E-3    9.472395541782309E-4    2.401950797564054E-1    4.504675013300929E-1
 8.151109947825000E9     9.857152001566413E-2    5.305237208874960E-1   -2.562916014619450E-3    8.764792192564702E-4   -2.608394470087325E-3    8.937757473993571E-4    2.404550998859331E-1    4.502621274347267E-1
 8.151116934750000E9     9.917402498642444E-2    5.302770329716956E-1   -2.597028954073960E-3    8.816540320198881E-4   -2.575822092084509E-3    9.231528972518172E-4    2.408582870133558E-1    4.499209285677715E-1
 8.151123921675000E9     9.965730047401110E-2    5.303861191491975E-1   -2.559427185509481E-3    8.904225111054654E-4   -2.563706588646214E-3    9.286900691305726E-4    2.413204188914171E-1    4.498377909719837E-1
 8.151130908600000E9     1.000393450001636E-1    5.301883603425271E-1   -2.578643877789845E-3    8.970682820738079E-4   -2.586712589984021E-3    9.260325196420400E-4    2.416806609665506E-1    4.495937025731405E-1
 8.151137895525000E9     1.006147813764919E-1    5.301413743863214E-1   -2.581138433029411E-3    8.875499384438797E-4   -2.580042230791534E-3    9.732237053102478E-4    2.420623714574920E-1    4.494069335077495E-1
 8.151144882450000E9     1.011216047543245E-1    5.299618499779318E-1   -2.608835394224220E-3    9.063609098758782E-4   -2.583754684058588E-3    9.465949183244272E-4    2.422995015556776E-1    4.492112241696532E-1
 8.151151869375000E9     1.015998837401041E-1    5.299936136987125E-1   -2.558837388731475E-3    9.013437504855213E-4   -2.587240363462324E-3    9.600412708739819E-4    2.426686065289512E-1    4.487405958149698E-1
 8.151158856300000E9     1.020654482847930E-1    5.299234494948802E-1   -2.566042267076475E-3    8.905091626525071E-4   -2.588969579678611E-3    9.426974131011965E-4    2.430481726661979E-1    4.485639076948517E-1
 8.151165843225000E9     1.026087010223973E-1    5.297096786547341E-1   -2.578808939727091E-3    9.137512308645585E-4   -2.592814193312794E-3    9.347894089712603E-4    2.435235771455979E-1    4.483598772823746E-1
 8.151172830150000E9     1.031145167508436E-1    5.298016300329960E-1   -2.581888711748465E-3    9.084844753677150E-4   -2.603715093112677E-3    9.427570589460438E-4    2.439145383922947E-1    4.480329594173038E-1
 8.151179817075000E9     1.035431393739928E-1    5.296036047988709E-1   -2.577609064499943E-3    9.215462949652528E-4   -2.594845577468621E-3    9.719708860495964E-4    2.444337844584764E-1    4.480344960386970E-1
 8.151186804000000E9     1.039637943794996E-1    5.295723623395441E-1   -2.573753653649593E-3    9.075957888907307E-4   -2.584960299851690E-3    9.735729232722971E-4    2.448828082273539E-1    4.477591152904115E-1
 8.151193790925000E9     1.044905053960501E-1    5.294556871641376E-1   -2.581805381835558E-3    9.028279729648960E-4   -2.599680836411218E-3    9.661693354880850E-4    2.451571568363400E-1    4.475180152549452E-1
 8.151200777850000E9     1.050106799954861E-1    5.293752851278237E-1   -2.592151725210222E-3    9.284092807310131E-4   -2.584191711843253E-3    9.797593278171243E-4    2.455390542789597E-1    4.473296907712824E-1
 8.151207764775000E9     1.054829553959469E-1    5.293712797987069E-1   -2.563697047115272E-3    9.402044073166866E-4   -2.602643522032342E-3    9.688754448897319E-4    2.459641104895388E-1    4.471268494936767E-1
 8.151214751700000E9     1.059106709738234E-1    5.291341136654560E-1   -2.585292104786976E-3    9.237274037408673E-4   -2.581390551430451E-3    9.676229591044767E-4    2.464490820518609E-1    4.468561745338001E-1
 8.151221738625000E9     1.063434422027273E-1    5.291860046824798E-1   -2.581289666278597E-3    9.223622481613082E-4   -2.577767119221653E-3    1.000260180102736E-3    2.466695175735543E-1    4.467228156820119E-1
 8.151228725550000E9     1.069285662142226E-1    5.291142936769651E-1   -2.583290843279690E-3    9.150793399339553E-4   -2.571665642323405E-3    9.750054791294193E-4    2.470470811082183E-1    4.464672137552939E-1
 8.151235712475000E9     1.074083252521012E-1    5.289650171519406E-1   -2.579181578258179E-3    8.987264636438225E-4   -2.586360582806622E-3    9.824621973061952E-4    2.474504054309374E-1    4.462484350455936E-1
 8.151242699400000E9     1.079351726621934E-1    5.288131310561849E-1   -2.601034753789529E-3    9.323816546953980E-4   -2.577781004255320E-3    9.711466355237426E-4    2.481551437665137E-1    4.459223129418770E-1
 8.151249686325000E9     1.083059270229847E-1    5.287645770825039E-1   -2.554495923239608E-3    9.186886985982600E-4   -2.556756953872568E-3    9.952265797735331E-4    2.482777362968361E-1    4.457886996098227E-1
 8.151256673250000E9     1.089119302636586E-1    5.288637701468376E-1   -2.576895228617892E-3    9.507637118380777E-4   -2.606480545173064E-3    1.000350782180028E-3    2.485655580807467E-1    4.455368330378222E-1
 8.151263660175000E9     1.092729695167341E-1    5.286401264304823E-1   -2.585419657772663E-3    9.273749784683472E-4   -2.598242381132697E-3    9.666808486287653E-4    2.490716961582102E-1    4.451773582447556E-1
 8.151270647100000E9     1.098967254245526E-1    5.285594644617068E-1   -2.590800023225776E-3    9.417829628188600E-4   -2.602523709448838E-3    9.811406934044052E-4    2.493233803952838E-1    4.449668995159017E-1
 8.151277634025000E9     1.102480688606144E-1    5.284549462645854E-1   -2.577480605216880E-3    9.521251648605187E-4   -2.568242794911446E-3    1.003425008059494E-3    2.498745482789473E-1    4.448858738826824E-1
 8.151284620950000E9     1.107719571805028E-1    5.283596667014959E-1   -2.606454381944141E-3    9.550628761457998E-4   -2.598152337418804E-3    1.013551803034890E-3    2.500350115615869E-1    4.446261620310918E-1
 8.151291607875000E9     1.112533590204034E-1    5.282669099695360E-1   -2.588982424585883E-3    9.744522548438760E-4   -2.610196868269214E-3    9.747305180861791E-4    2.505489143971506E-1    4.443242053269424E-1
 8.151298594800000E9     1.118549813726763E-1    5.281990143166378E-1   -2.599927439268011E-3    9.289943723905558E-4   -2.551642001855467E-3    9.941506854010175E-4    2.509521783114610E-1    4.441513652688259E-1
 8.151305581725000E9     1.121785151763169E-1    5.279901310603666E-1   -2.557483178935983E-3    9.653947723625015E-4   -2.572346317161508E-3    1.006667830800714E-3    2.514105796697046E-1    4.439370451044701E-1
 8.151312568650000E9     1.125735772037239E-1    5.279775594737095E-1   -2.577231125201498E-3    9.601729686857752E-4   -2.592597198770975E-3    9.954466502934687E-4    2.517885436493660E-1    4.438048887425042E-1
 8.151319555575000E9     1.131981684345417E-1    5.278233558043077E-1   -2.600770054642256E-3    9.801107439163627E-4   -2.588709518500659E-3    1.008912699320293E-3    2.521577995728861E-1    4.434171061286413E-1
 8.151326542500000E9     1.136669778660025E-1    5.276461972314141E-1   -2.571607205318792E-3    9.648045398518688E-4   -2.591338705182859E-3    1.036042204347248E-3    2.524878991031256E-1    4.431175517681443E-1
 8.151333529425000E9     1.142510799165176E-1    5.276709650558730E-1   -2.586977981365171E-3    9.760574209737430E-4   -2.615501506023695E-3    1.027835285609207E-3    2.528327243312296E-1    4.428890211370374E-1
 8.151340516350000E9     1.146774893100557E-1    5.276185243608686E-1   -2.586612086882144E-3    9.929589609764546E-4   -2.605580121701720E-3    1.025048005403247E-3    2.532276437095361E-1    4.427361162183709E-1
 8.151347503275000E9     1.151563275354935E-1    5.275245494963609E-1   -2.582633095621563E-3    9.687876677361176E-4   -2.607389986787354E-3    9.954353151527297E-4    2.536455537618197E-1    4.425898462610348E-1
 8.151354490200000E9     1.154962078941312E-1    5.273333788327909E-1   -2.598863157049301E-3    9.800720736440544E-4   -2.581103110502744E-3    1.026476812751364E-3    2.541454267224016E-1    4.421694697564112E-1
 8.151361477125000E9     1.161211396708550E-1    5.273512624485434E-1   -2.561972040926254E-3    9.857802664820234E-4   -2.567766026100154E-3    1.022868369346472E-3    2.544190465569428E-1    4.420590539353176E-1
 8.151368464050000E9     1.165840917721364E-1    5.271750181680784E-1   -2.590155120568878E-3    9.934758739713987E-4   -2.583883205400958E-3    1.041374022204251E-3    2.547561957209999E-1    4.419425829224666E-1
 8.151375450975000E9     1.170052568387272E-1    5.270720607270354E-1   -2.598228657099389E-3    9.777059787560505E-4   -2.622022209309063E-3    1.030405588264642E-3    2.551583928722839E-1    4.415664964261397E-1
 8.151382437900000E9     1.175170019944885E-1    5.271407793196757E-1   -2.612265823991719E-3    1.001134893087159E-3   -2.576647751775079E-3    1.045494272466361E-3    2.555929680880736E-1    4.414398916306503E-1
 8.151389424825000E9     1.179163757922650E-1    5.269072160876869E-1   -2.599642853184446E-3    1.012244364439760E-3   -2.596345019060621E-3    1.054878285539542E-3    2.559509906630230E-1    4.411423611098335E-1
 8.151396411750000E9     1.185102724149350E-1    5.268716472553545E-1   -2.587085402167846E-3    1.013532934644076E-3   -2.606404747049994E-3    1.067245446455655E-3    2.563387832747958E-1    4.409382650775091E-1
 8.151403398675000E9     1.190817737618627E-1    5.267930570612755E-1   -2.573412611847388E-3    1.013263455738650E-3   -2.589375234480551E-3    1.081395106098549E-3    2.566811194256947E-1    4.406014197806776E-1
 8.151410385600000E9     1.193986017120401E-1    5.265873452112642E-1   -2.577901118224027E-3    1.000985376767452E-3   -2.599577512148591E-3    1.075636421981877E-3    2.569480798146938E-1    4.403911007795652E-1
 8.151417372525000E9     1.198846663109306E-1    5.265575298794350E-1   -2.609717978592335E-3    1.009288942274127E-3   -2.619507016519662E-3    1.084352720955123E-3    2.574376140297352E-1    4.400804531472253E-1
 8.151424359450000E9     1.204692420352103E-1    5.264462143737965E-1   -2.600226927023496E-3    1.010475183974791E-3   -2.618168999328833E-3    1.063694908909976E-3    2.578777565356132E-1    4.400228559129107E-1
 8.151431346375000E9     1.209371821326783E-1    5.263283959827548E-1   -2.594748264761805E-3    1.036949823743960E-3   -2.600745171276933E-3    1.053989041910347E-3    2.582685055264755E-1    4.397931056058290E-1
 8.151438333300000E9     1.213633528813158E-1    5.261759341071033E-1   -2.584085453291869E-3    1.032194445899849E-3   -2.599558924534407E-3    1.054755133002598E-3    2.586162265868455E-1    4.395037860855077E-1
 8.151445320225000E9     1.218864888966065E-1    5.261804189624256E-1   -2.605773407179041E-3    1.050465954895123E-3   -2.593123173232167E-3    1.068316843154814E-3    2.589693076582323E-1    4.392185006922266E-1
 8.151452307150000E9     1.223749289371254E-1    5.259294729080628E-1   -2.605124884294637E-3    1.021559547195626E-3   -2.587418228316395E-3    1.099602850416954E-3    2.595665654791813E-1    4.389484737272598E-1
 8.151459294075000E9     1.229169364645156E-1    5.259001861212864E-1   -2.599694927352310E-3    1.052709068726616E-3   -2.603948319982783E-3    1.057085708269102E-3    2.597363473899991E-1    4.388669044423087E-1
 8.151466281000000E9     1.233687514186869E-1    5.258692200174515E-1   -2.601113197141302E-3    1.047451388891910E-3   -2.624415026266748E-3    1.053955028221951E-3    2.601243167222045E-1    4.386196143532529E-1
 8.151473267925000E9     1.238373741135660E-1    5.256938337751990E-1   -2.602159194312892E-3    1.014674560076418E-3   -2.607455503677648E-3    1.115183650979216E-3    2.606060359855047E-1    4.382754067509604E-1
 8.151480254850000E9     1.242726245740323E-1    5.256623605754646E-1   -2.614636583175644E-3    1.021520011173379E-3   -2.603718331694099E-3    1.090213575202113E-3    2.610543736692901E-1    4.381224530607892E-1
 8.151487241775000E9     1.247053842167003E-1    5.255186335131645E-1   -2.644915081958586E-3    1.046601918418790E-3   -2.596841279160444E-3    1.074292703678124E-3    2.612564670220085E-1    4.379220215741337E-1
 8.151494228700000E9     1.252052684873328E-1    5.254395745489141E-1   -2.606581928625270E-3    1.051814849457064E-3   -2.572967473905877E-3    1.095806084087942E-3    2.618606968635261E-1    4.376386374077658E-1
 8.151501215625000E9     1.257496009000053E-1    5.252542679296605E-1   -2.613157669632275E-3    1.053799423573022E-3   -2.601765230101998E-3    1.114324270696418E-3    2.622030335447695E-1    4.373730951062204E-1
 8.151508202550000E9     1.263005750044427E-1    5.251452254632959E-1   -2.600258039169243E-3    1.038513289006966E-3   -2.588984715975466E-3    1.142223242677358E-3    2.623603751593671E-1    4.371373253826870E-1
 8.151515189475000E9     1.267386255773621E-1    5.249906257894780E-1   -2.596539001303316E-3    1.060453275156152E-3   -2.626452664694796E-3    1.126164614772991E-3    2.627545451115726E-1    4.368023819024757E-1
 8.151522176400000E9     1.272235868595596E-1    5.250536084451445E-1   -2.605294692705284E-3    1.078752986784227E-3   -2.595459660348319E-3    1.116351888326571E-3    2.633281968975184E-1    4.366068064172227E-1
 8.151529163325000E9     1.276520615397898E-1    5.248487938511565E-1   -2.630091840341442E-3    1.077727303262224E-3   -2.633623526523840E-3    1.129074405200988E-3    2.636817131731916E-1    4.364828445794545E-1
 8.151536150250000E9     1.282280836237560E-1    5.247074027714184E-1   -2.598997669616657E-3    1.076495002905564E-3   -2.618592750833918E-3    1.112639250840434E-3    2.639141998421364E-1    4.360819952164539E-1
