#  HZ   S   RI   R     50.00 
! Rohde & Schwarz Vector Network Analyzer 
! Rohde-Schwarz,ZNB20-2Port,1311601062101988,3.16
! Created: UTC 3/21/2024, 1:14:38 AM
! freq[Hz]                re:S11                  im:S11                  re:S21                  im:S21                  re:S12                  im:S12                  re:S22                  im:S22
 8.150998898000000E9     9.073954103216418E-2    5.316171152198428E-1   -2.588401972744726E-3    8.565261309537739E-4   -2.577203992128971E-3    8.572880560566525E-4    2.341737152399290E-1    4.541069525524854E-1
 8.151005545625000E9     9.118823011883666E-2    5.315630438434800E-1   -2.562191592742248E-3    8.448064683371163E-4   -2.593106287353306E-3    8.861422455137598E-4    2.345826305228451E-1    4.540596696879127E-1
 8.151012193250000E9     9.173543730375214E-2    5.315252346932775E-1   -2.573899917893660E-3    8.247385296515672E-4   -2.592983955661848E-3    8.580466170009590E-4    2.349737929719123E-1    4.538384219023432E-1
 8.151018840875000E9     9.205385546061411E-2    5.314152670042224E-1   -2.565172949480619E-3    8.354947606982428E-4   -2.558459126545377E-3    9.083697743885332E-4    2.352586738706346E-1    4.534367775193210E-1
 8.151025488500000E9     9.259145245717097E-2    5.313886300536920E-1   -2.574371333907364E-3    8.411495335654064E-4   -2.565148185928365E-3    8.698134012515027E-4    2.356996205025683E-1    4.534193747934831E-1
 8.151032136125000E9     9.319871378314186E-2    5.312876775341056E-1   -2.556552129637606E-3    8.301260990983671E-4   -2.562959767889583E-3    8.991087801622893E-4    2.360945304928963E-1    4.531458163581426E-1
 8.151038783750000E9     9.353444688438893E-2    5.312077379203042E-1   -2.559442625190621E-3    8.538378058289103E-4   -2.562404650423613E-3    8.964787207490459E-4    2.363944921383620E-1    4.530043238897645E-1
 8.151045431375000E9     9.392350016806077E-2    5.311284984489802E-1   -2.589069551912538E-3    8.548559995924651E-4   -2.585989815884808E-3    8.870302986795891E-4    2.368374792440323E-1    4.527209762114361E-1
 8.151052079000000E9     9.447449515372260E-2    5.311274581893136E-1   -2.571128768402288E-3    8.365077550627745E-4   -2.555015480361032E-3    9.099811932211958E-4    2.371412566294337E-1    4.524712519766941E-1
 8.151058726625000E9     9.484339594016782E-2    5.310301868954556E-1   -2.559625458713410E-3    8.474685084834892E-4   -2.550559460684792E-3    9.052126039390947E-4    2.376616324275113E-1    4.523355699717147E-1
 8.151065374250000E9     9.540957162916680E-2    5.309644446279337E-1   -2.560005778003643E-3    8.545555542672971E-4   -2.579245674882066E-3    9.150135511712144E-4    2.380059585829226E-1    4.520911244398757E-1
 8.151072021875000E9     9.589042991758236E-2    5.308166369774405E-1   -2.570702731532451E-3    8.500095817741428E-4   -2.565660440257968E-3    8.867657488720716E-4    2.382719417250826E-1    4.519640462412716E-1
 8.151078669500000E9     9.636527540141397E-2    5.308045457735709E-1   -2.557636953855060E-3    8.392904425513724E-4   -2.608484593234270E-3    9.000062658544402E-4    2.387964457453180E-1    4.516068297602865E-1
 8.151085317125000E9     9.676332250399267E-2    5.306919523896729E-1   -2.563848913458758E-3    8.439768037083751E-4   -2.576386304855905E-3    9.098495198663425E-4    2.390988880699660E-1    4.513456978485066E-1
 8.151091964750000E9     9.722957992958688E-2    5.307408034723048E-1   -2.554587933506844E-3    8.437648720793124E-4   -2.596581443487089E-3    9.277862426415022E-4    2.393325694070584E-1    4.512496843239592E-1
 8.151098612375000E9     9.763386641355105E-2    5.306194639693713E-1   -2.582240814262430E-3    8.794662484931581E-4   -2.587338038242010E-3    9.180519014636441E-4    2.397463373502560E-1    4.511814247213862E-1
 8.151105260000000E9     9.820435117109906E-2    5.304573677270561E-1   -2.568988437913944E-3    8.668318729820554E-4   -2.616208476278198E-3    9.248538694933361E-4    2.401563806322726E-1    4.509332416461193E-1
 8.151111907625000E9     9.854975949408737E-2    5.303522786251578E-1   -2.575188848523709E-3    8.845404667785493E-4   -2.568634947664382E-3    9.150009526235975E-4    2.405617485292110E-1    4.506379272813067E-1
 8.151118555250000E9     9.903850974407649E-2    5.303770700118631E-1   -2.554679567274095E-3    8.787329999484585E-4   -2.556691559361272E-3    9.073411536898134E-4    2.409522051893156E-1    4.505645885468872E-1
 8.151125202875000E9     9.946966859784298E-2    5.302122768018986E-1   -2.576320706992707E-3    8.648843668406948E-4   -2.588099509214952E-3    9.190003022354302E-4    2.412844303649846E-1    4.502022839957066E-1
 8.151131850500000E9     9.997124389647122E-2    5.301305554648585E-1   -2.560403844347979E-3    8.427407481913876E-4   -2.584795920562264E-3    9.137934635071243E-4    2.415485597017620E-1    4.499901065519264E-1
 8.151138498125000E9     1.003579893814896E-1    5.301297806254538E-1   -2.554164533738112E-3    8.515580263588355E-4   -2.550082567431575E-3    9.454673548312139E-4    2.420064068451921E-1    4.499826949713488E-1
 8.151145145750000E9     1.009120576424729E-1    5.299335393056309E-1   -2.598449520647506E-3    8.918417766345065E-4   -2.599549488725165E-3    9.235798827092410E-4    2.423825451354514E-1    4.496175761461454E-1
 8.151151793375000E9     1.014008072039559E-1    5.299551967645425E-1   -2.581218784226761E-3    8.840874170688172E-4   -2.577023965476872E-3    9.582065775162289E-4    2.427383293543534E-1    4.494846813158291E-1
 8.151158441000000E9     1.018311706855992E-1    5.298605872874635E-1   -2.549381916373467E-3    9.009907554341249E-4   -2.570824721117220E-3    9.378236635980161E-4    2.432059890080543E-1    4.490526434598923E-1
 8.151165088625000E9     1.022549841524268E-1    5.298243118927278E-1   -2.570007588375378E-3    8.858501761886013E-4   -2.595697321316515E-3    9.358788712929519E-4    2.435655715155622E-1    4.490405571905385E-1
 8.151171736250000E9     1.028236511911434E-1    5.296594962731850E-1   -2.576698254229250E-3    8.789636665776355E-4   -2.593521220837175E-3    9.214064000546046E-4    2.440151654464246E-1    4.487744155627517E-1
 8.151178383875000E9     1.032773362451208E-1    5.296702565242996E-1   -2.567519749005824E-3    8.985147860941634E-4   -2.562632383523985E-3    9.278739427616474E-4    2.442247551616864E-1    4.486180597289691E-1
 8.151185031500000E9     1.035429477720048E-1    5.295689134915390E-1   -2.592119348372878E-3    8.767542441638030E-4   -2.613329431163773E-3    9.507617509009735E-4    2.446219138504628E-1    4.482675586097206E-1
 8.151191679125000E9     1.041409277675722E-1    5.294644708573206E-1   -2.566663824975463E-3    8.914022346288984E-4   -2.575729638107665E-3    9.616907236433843E-4    2.448852160273310E-1    4.480152840217052E-1
 8.151198326750000E9     1.046834902031666E-1    5.293666630409203E-1   -2.570941173757245E-3    9.096788704342237E-4   -2.599976790489738E-3    9.339164285763517E-4    2.453228379515290E-1    4.479585351250758E-1
 8.151204974375000E9     1.050463186388249E-1    5.292930495841491E-1   -2.585630667544156E-3    9.124943524969068E-4   -2.587186133466853E-3    9.841168532492939E-4    2.457948576503696E-1    4.477502411102574E-1
 8.151211622000000E9     1.054718276222047E-1    5.291776138701954E-1   -2.566800574422240E-3    8.978342200347578E-4   -2.583432732861683E-3    9.751521233303020E-4    2.461870777355734E-1    4.475322953172013E-1
 8.151218269625000E9     1.058462613206256E-1    5.291963298941524E-1   -2.602432469116282E-3    9.057043400742814E-4   -2.588636180962295E-3    9.622827194426980E-4    2.464861434430323E-1    4.472723473223565E-1
 8.151224917250000E9     1.063889490073370E-1    5.290660078138237E-1   -2.600418597653481E-3    9.466030719619257E-4   -2.593027391225892E-3    9.674746291464680E-4    2.469305934975076E-1    4.472874544152247E-1
 8.151231564875000E9     1.068709189521225E-1    5.289458175925135E-1   -2.570819935389170E-3    9.406003793896098E-4   -2.566910382738539E-3    9.644881812646011E-4    2.471591878883269E-1    4.468318011958247E-1
 8.151238212500000E9     1.073011446456271E-1    5.289144184382786E-1   -2.603674293046245E-3    9.401896372204267E-4   -2.590378374438756E-3    9.736578504169756E-4    2.476455618397775E-1    4.465954504051243E-1
 8.151244860125000E9     1.077961344609804E-1    5.288476022026330E-1   -2.573878262562730E-3    9.488509868355427E-4   -2.593138896653907E-3    9.741372315844033E-4    2.479808371693265E-1    4.463707643083496E-1
 8.151251507750000E9     1.083293331032068E-1    5.287681490280711E-1   -2.560071500717830E-3    9.213554160244011E-4   -2.577732634491785E-3    9.971269371921684E-4    2.482874317800036E-1    4.461843439573304E-1
 8.151258155375000E9     1.086837463072759E-1    5.286985720548499E-1   -2.566188005744405E-3    9.238349932284212E-4   -2.593090819594710E-3    9.735587985757905E-4    2.487697754316977E-1    4.459624916247069E-1
 8.151264803000000E9     1.092013446414979E-1    5.285897967635574E-1   -2.557766905982156E-3    9.216385360334942E-4   -2.567351295923718E-3    9.862820228913147E-4    2.491591847059593E-1    4.459226836305801E-1
 8.151271450625000E9     1.096384264796097E-1    5.285683333034713E-1   -2.574418195988413E-3    9.282859780359409E-4   -2.593866943481275E-3    1.004618937080241E-3    2.493822788174739E-1    4.455671491105238E-1
 8.151278098250000E9     1.100873532421259E-1    5.284298540077839E-1   -2.576548454224386E-3    9.200860837388868E-4   -2.566936271741206E-3    1.001837958475375E-3    2.498136543019567E-1    4.453713556418889E-1
 8.151284745875000E9     1.106016576994637E-1    5.282969993959715E-1   -2.592013712681818E-3    9.266095636999628E-4   -2.587467948819843E-3    1.035537604208302E-3    2.501172092470429E-1    4.451499501900538E-1
 8.151291393500000E9     1.110003381787605E-1    5.281831266629792E-1   -2.578971597854426E-3    9.498369358056431E-4   -2.596799966812642E-3    1.012688965855624E-3    2.505860120172284E-1    4.449140625496776E-1
 8.151298041125000E9     1.115139256809917E-1    5.281075837824257E-1   -2.575184394508635E-3    9.541946089398130E-4   -2.574478312887023E-3    1.000829486511802E-3    2.509178594755000E-1    4.447480386343446E-1
 8.151304688750000E9     1.119776891439322E-1    5.280081577762996E-1   -2.578136106430482E-3    9.640913632899584E-4   -2.568150216790129E-3    1.018818881685823E-3    2.512788996379682E-1    4.444948159912271E-1
 8.151311336375000E9     1.124482867621659E-1    5.280450632129312E-1   -2.592539212097807E-3    9.670050604278875E-4   -2.597754628109161E-3    1.000793869949377E-3    2.515615508831137E-1    4.442443408730327E-1
 8.151317984000000E9     1.128738777360791E-1    5.279761888759315E-1   -2.592722097292227E-3    9.665257794766579E-4   -2.617379306096328E-3    1.020181244667775E-3    2.520271539846575E-1    4.440512535271248E-1
 8.151324631625000E9     1.134559695843221E-1    5.277632283142355E-1   -2.578914908625236E-3    9.680308021784574E-4   -2.620438426428397E-3    1.001168505492719E-3    2.524800016857771E-1    4.437642645524431E-1
 8.151331279250000E9     1.138757913950307E-1    5.277874461977774E-1   -2.583971438604527E-3    9.440768574713988E-4   -2.603516539045112E-3    1.003630038069037E-3    2.527868275186215E-1    4.435224774843602E-1
 8.151337926875000E9     1.141670825573210E-1    5.275781303234466E-1   -2.581444859619145E-3    9.678083159219055E-4   -2.583333438186754E-3    1.006150392794776E-3    2.531053460629628E-1    4.433585345299796E-1
 8.151344574500000E9     1.146535960258818E-1    5.275036688584746E-1   -2.580008568996722E-3    9.788449844439311E-4   -2.556439844237444E-3    1.020515983415741E-3    2.535362415753202E-1    4.431571321853223E-1
 8.151351222125000E9     1.151379351366785E-1    5.273599905174831E-1   -2.590794580106096E-3    9.864843960347813E-4   -2.612739840116086E-3    1.047383464767669E-3    2.539259106380931E-1    4.429235833336351E-1
 8.151357869750000E9     1.156634118196212E-1    5.273048275647704E-1   -2.588319630601581E-3    9.828758374736469E-4   -2.610312898538668E-3    1.009966547694616E-3    2.542460397643062E-1    4.426301680145319E-1
 8.151364517375000E9     1.161520298858415E-1    5.272026272645209E-1   -2.590315738249376E-3    9.994353845655536E-4   -2.578717844313061E-3    1.026564809427459E-3    2.545843683594098E-1    4.425111937884449E-1
 8.151371165000000E9     1.165457185804702E-1    5.272329163791997E-1   -2.599988953069149E-3    9.905152436133755E-4   -2.609406054269027E-3    1.046454454823823E-3    2.548823296063917E-1    4.423223130909818E-1
 8.151377812625000E9     1.169199976064849E-1    5.271379203435672E-1   -2.598833597736132E-3    9.938023793132859E-4   -2.600440959479627E-3    1.004547164952371E-3    2.552813905503767E-1    4.420234135443368E-1
 8.151384460250000E9     1.174611760694653E-1    5.270160085119713E-1   -2.602311928837909E-3    9.936350930744202E-4   -2.587033583706315E-3    1.052562436646779E-3    2.557723152873677E-1    4.418123154464683E-1
 8.151391107875000E9     1.180111606624813E-1    5.269079553687626E-1   -2.599697359793058E-3    9.968809326530677E-4   -2.621099408085845E-3    1.049294411868367E-3    2.560779312453462E-1    4.416495716658831E-1
 8.151397755500000E9     1.184338861420056E-1    5.267505678175114E-1   -2.578682680087455E-3    1.002102373092710E-3   -2.602119422039470E-3    1.038495346287823E-3    2.563876510859457E-1    4.413360366490895E-1
 8.151404403125000E9     1.188254896163861E-1    5.266296331439685E-1   -2.599443330640416E-3    1.003237589415281E-3   -2.564558471232639E-3    1.034054895601216E-3    2.567706670239342E-1    4.412200911942135E-1
 8.151411050750000E9     1.192454854974622E-1    5.265560980603985E-1   -2.595838888078646E-3    9.957777014273932E-4   -2.609147222217287E-3    1.065918466708390E-3    2.571705040585026E-1    4.409790193314768E-1
 8.151417698375000E9     1.196747389883181E-1    5.264884947764892E-1   -2.607680395556903E-3    1.007359589790426E-3   -2.601561557880041E-3    1.071852295291005E-3    2.575752887091207E-1    4.408113750561335E-1
 8.151424346000000E9     1.203198930392783E-1    5.263767972023247E-1   -2.579142102055870E-3    1.015755420230876E-3   -2.621378010314735E-3    1.079670215161142E-3    2.577570455804533E-1    4.406398288686546E-1
 8.151430993625000E9     1.207258663980357E-1    5.263216924932889E-1   -2.600492062782384E-3    1.010797535680128E-3   -2.590618353737378E-3    1.079079522738544E-3    2.583335361144078E-1    4.402388757687576E-1
 8.151437641250000E9     1.211105069524662E-1    5.261845654458510E-1   -2.603533413261394E-3    1.016690796022288E-3   -2.612423705725626E-3    1.065364754174359E-3    2.585954370778117E-1    4.399893176569389E-1
 8.151444288875000E9     1.215140327965852E-1    5.261618255597155E-1   -2.588852805260262E-3    1.015243279827934E-3   -2.599717258244747E-3    1.079443495968201E-3    2.589784584816155E-1    4.397657596241900E-1
 8.151450936500000E9     1.221123732005847E-1    5.261199901195426E-1   -2.580591422229068E-3    1.012771785706229E-3   -2.579915946571262E-3    1.067025746859225E-3    2.592843332322111E-1    4.396041843141084E-1
 8.151457584125000E9     1.224778757068400E-1    5.259458076197889E-1   -2.618307388361609E-3    1.010545084689610E-3   -2.599302327657855E-3    1.091342381819358E-3    2.596465333383488E-1    4.395076985562723E-1
 8.151464231750000E9     1.229605493604063E-1    5.257732377403180E-1   -2.588429905287405E-3    1.037988321606378E-3   -2.610626262131545E-3    1.102683323775062E-3    2.600460250992961E-1    4.392827785432800E-1
 8.151470879375000E9     1.235119879408927E-1    5.257558403584415E-1   -2.600086597547011E-3    1.056270134067918E-3   -2.633154138475916E-3    1.081845849389100E-3    2.604478195453713E-1    4.387721251492284E-1
 8.151477527000000E9     1.239214477438071E-1    5.255486593145428E-1   -2.581916405121627E-3    1.045737256081387E-3   -2.611884843820266E-3    1.064361551539910E-3    2.607389122624502E-1    4.387986195322782E-1
 8.151484174625000E9     1.243000897810000E-1    5.254749004183716E-1   -2.590833199291368E-3    1.043229782558277E-3   -2.631078660120346E-3    1.088780129254569E-3    2.611079761829043E-1    4.385671896394763E-1
 8.151490822250000E9     1.247587675248344E-1    5.255318862959137E-1   -2.631583219863126E-3    1.056247308741951E-3   -2.599165892009599E-3    1.092941393431576E-3    2.615649544179791E-1    4.381506049152753E-1
 8.151497469875000E9     1.253329370708208E-1    5.253601469760260E-1   -2.619767906002735E-3    1.049889927299624E-3   -2.598723440975258E-3    1.092002844499506E-3    2.618895809945460E-1    4.379888962042342E-1
 8.151504117500000E9     1.257302640921516E-1    5.252028572106104E-1   -2.615891169491620E-3    1.046063037154515E-3   -2.592075700472511E-3    1.093039666863819E-3    2.621647230562685E-1    4.378522959715574E-1
 8.151510765125000E9     1.261688446266165E-1    5.250655780712801E-1   -2.579807154274091E-3    1.072720221864381E-3   -2.600112309733210E-3    1.118759915047364E-3    2.625974881345406E-1    4.376047272591127E-1
 8.151517412750000E9     1.266499685102039E-1    5.249247283058058E-1   -2.631156040640468E-3    1.051643203902760E-3   -2.610832901511059E-3    1.105468374250051E-3    2.628894091324728E-1    4.374867413226866E-1
 8.151524060375000E9     1.271136934891822E-1    5.249531472145857E-1   -2.621341628387630E-3    1.070010601232405E-3   -2.590656225015842E-3    1.126339633060236E-3    2.633290616537565E-1    4.371440400527087E-1
 8.151530708000000E9     1.276444414002546E-1    5.247739694050787E-1   -2.614958510889216E-3    1.066396270068836E-3   -2.602494746593954E-3    1.136288994859863E-3    2.637187543281728E-1    4.369309966240232E-1
 8.151537355625000E9     1.280568447382431E-1    5.247266853281430E-1   -2.589611339480787E-3    1.068179571516707E-3   -2.604187255842624E-3    1.134707007422339E-3    2.639688592145475E-1    4.366291059486436E-1
 8.151544003250000E9     1.285188200743953E-1    5.247011867692701E-1   -2.596552890042100E-3    1.048405717834202E-3   -2.615555627431521E-3    1.141255547281632E-3    2.643865178251577E-1    4.364814835382022E-1
 8.151550650875000E9     1.288908776049765E-1    5.246134652952540E-1   -2.608885050828312E-3    1.095399077210402E-3   -2.598175760641184E-3    1.131610316189623E-3    2.647557237413640E-1    4.361724305742884E-1
 8.151557298500000E9     1.294053170916080E-1    5.244408878304031E-1   -2.607714718317843E-3    1.093490493680904E-3   -2.606759791384840E-3    1.122073553611540E-3    2.651801803533968E-1    4.360139273728433E-1
 8.151563946125000E9     1.298923150135288E-1    5.242866491540465E-1   -2.609135064653221E-3    1.108234070942341E-3   -2.607379649317460E-3    1.143008752171332E-3    2.655157449519094E-1    4.357587682509023E-1
 8.151570593750000E9     1.302819201389815E-1    5.242632581401498E-1   -2.628726509314683E-3    1.089415060758868E-3   -2.597330089602376E-3    1.125922810332012E-3    2.658482469627466E-1    4.356139492396230E-1
 8.151577241375000E9     1.307966627217156E-1    5.241160993751577E-1   -2.609413832146159E-3    1.090247778372626E-3   -2.608479897502807E-3    1.153822628621066E-3    2.662027896656108E-1    4.353526142575071E-1
 8.151583889000000E9     1.313198891665086E-1    5.238885363771877E-1   -2.613831306928819E-3    1.091734379090948E-3   -2.640278146662028E-3    1.135416298698628E-3    2.664244181643749E-1    4.351172566878132E-1
 8.151590536625000E9     1.318516729860217E-1    5.239266247108352E-1   -2.603623376689013E-3    1.091300563753834E-3   -2.626694963351837E-3    1.165311649320856E-3    2.668051296643965E-1    4.348467648664110E-1
 8.151597184250000E9     1.321996701765902E-1    5.237469828811564E-1   -2.614707664021606E-3    1.100920136905178E-3   -2.632781042320389E-3    1.146447070331401E-3    2.671542578385478E-1    4.346464156864862E-1
