#  HZ   S   RI   R     50.00 
! Rohde & Schwarz Vector Network Analyzer 
! Rohde-Schwarz,ZNB20-2Port,1311601062101988,3.16
! Created: UTC 3/21/2024, 1:14:41 AM
! freq[Hz]                re:S11                  im:S11                  re:S21                  im:S21                  re:S12                  im:S12                  re:S22                  im:S22
 8.151007397000000E9     9.131479136632080E-2    5.316297133815450E-1   -2.588002667401974E-3    8.324944124860289E-4   -2.575001936833778E-3    9.026892671450610E-4    2.346583965990892E-1    4.540097169817126E-1
 8.151014015000000E9     9.160839098650640E-2    5.314163121904860E-1   -2.589167045534772E-3    8.210884959099468E-4   -2.587674467495122E-3    8.588271886197622E-4    2.351316692126526E-1    4.537452344024738E-1
 8.151020633000000E9     9.217924300338060E-2    5.314295375171919E-1   -2.557543012327144E-3    8.268186238964586E-4   -2.569294065158489E-3    8.638449180775275E-4    2.354011314484906E-1    4.535191298325894E-1
 8.151027251000000E9     9.266920122767813E-2    5.313260163915330E-1   -2.564877360562775E-3    8.288341089826341E-4   -2.579416139944333E-3    8.706698808139669E-4    2.356845911854363E-1    4.534389290258039E-1
 8.151033869000000E9     9.309333378532229E-2    5.311881172284114E-1   -2.544886456803226E-3    8.265998681494585E-4   -2.584978497829713E-3    8.755588895191512E-4    2.361691305840642E-1    4.531590606714405E-1
 8.151040487000000E9     9.371169196838956E-2    5.313157596314987E-1   -2.561414600233477E-3    8.444779937753329E-4   -2.566428316129171E-3    8.872817147374985E-4    2.364829691465346E-1    4.529919854470461E-1
 8.151047105000000E9     9.400969693641908E-2    5.311133200872653E-1   -2.566498220217335E-3    8.303660999849789E-4   -2.607965719308042E-3    8.571712948771671E-4    2.368686248978415E-1    4.526678702708035E-1
 8.151053723000000E9     9.455155015303851E-2    5.311409299635939E-1   -2.580039290280332E-3    8.500949633462373E-4   -2.574575533455971E-3    8.803032873179247E-4    2.372863744775052E-1    4.525114269989056E-1
 8.151060341000000E9     9.500035046911649E-2    5.310157478876059E-1   -2.572595958691886E-3    8.218449537935662E-4   -2.567967697470345E-3    8.874165121910918E-4    2.375436030320965E-1    4.523545526144903E-1
 8.151066959000000E9     9.538642958005557E-2    5.308848894382789E-1   -2.573563130156981E-3    8.320809856879195E-4   -2.585136617366761E-3    8.974215766530908E-4    2.380773002336677E-1    4.521497063864794E-1
 8.151073577000000E9     9.588713601020482E-2    5.308362325766565E-1   -2.592445642127817E-3    8.473599830309183E-4   -2.579466299709737E-3    9.241876134917675E-4    2.384567699379383E-1    4.518725572339896E-1
 8.151080195000000E9     9.637505486798684E-2    5.307423339904203E-1   -2.578451719329135E-3    8.594626740294428E-4   -2.602697427360910E-3    8.913605407929636E-4    2.386935025853847E-1    4.518085247338604E-1
 8.151086813000000E9     9.686226247924133E-2    5.307134562652832E-1   -2.580625643363301E-3    8.511476867978331E-4   -2.589855719395006E-3    9.337400505274086E-4    2.390542989304008E-1    4.515299780970276E-1
 8.151093431000000E9     9.732647554017176E-2    5.305723746703613E-1   -2.548577054350871E-3    8.431937344608063E-4   -2.574809098642962E-3    9.371808639500975E-4    2.396463963948503E-1    4.514296513142308E-1
 8.151100049000000E9     9.784866710357949E-2    5.305339593192003E-1   -2.578603144714706E-3    8.446787793315190E-4   -2.607034055244763E-3    9.168324307729779E-4    2.398915177925551E-1    4.511603423108274E-1
 8.151106667000000E9     9.827787322711669E-2    5.305534914633036E-1   -2.551212789220923E-3    8.725857687873081E-4   -2.580862847149845E-3    9.001626079244278E-4    2.404602016726126E-1    4.508336028680326E-1
 8.151113285000000E9     9.862126239708401E-2    5.303813882622076E-1   -2.563271164280767E-3    8.640763838344323E-4   -2.594446499433208E-3    9.411017941127291E-4    2.406074978506999E-1    4.506596518152495E-1
 8.151119903000000E9     9.915637922119515E-2    5.303289012445007E-1   -2.576213904801818E-3    8.579074210002479E-4   -2.585382971437930E-3    9.039369956711328E-4    2.409980518341520E-1    4.504453015706424E-1
 8.151126521000000E9     9.963723650846912E-2    5.301456026942243E-1   -2.571889344266547E-3    8.798598844519123E-4   -2.585624717903654E-3    9.348809704410538E-4    2.413664637831799E-1    4.503013669277510E-1
 8.151133139000000E9     1.000432865122072E-1    5.302332948287134E-1   -2.574393803295140E-3    8.970908470975793E-4   -2.574840482613041E-3    9.282558215808886E-4    2.417060668081358E-1    4.501166721010643E-1
 8.151139757000000E9     1.004954072365151E-1    5.302112365889772E-1   -2.573577159753743E-3    8.796986701528366E-4   -2.618017106408718E-3    9.163237334258082E-4    2.421572257054699E-1    4.497515291527437E-1
 8.151146375000000E9     1.010840888442253E-1    5.300921099309946E-1   -2.564171800043872E-3    8.752114977566180E-4   -2.580485462342780E-3    9.707467269206352E-4    2.424895843007025E-1    4.495900504699646E-1
 8.151152993000000E9     1.013937692006616E-1    5.299892743889334E-1   -2.559327571141173E-3    8.938279778224872E-4   -2.566783302583957E-3    9.307339055495003E-4    2.427600434169473E-1    4.493997797081027E-1
 8.151159611000000E9     1.018611334617218E-1    5.299518682395432E-1   -2.560070389395337E-3    8.694118899357544E-4   -2.573985836598357E-3    9.336384087173523E-4    2.431609623614524E-1    4.492066068812625E-1
 8.151166229000000E9     1.023439910199402E-1    5.297828396793146E-1   -2.594225317128530E-3    8.868258683985058E-4   -2.581669189088320E-3    9.638918998955536E-4    2.436572068714033E-1    4.490323010655641E-1
 8.151172847000000E9     1.028743562683101E-1    5.296583897780039E-1   -2.581769292857535E-3    8.821853344097027E-4   -2.585587316833251E-3    9.538336871252619E-4    2.439966957572000E-1    4.488797803008442E-1
 8.151179465000000E9     1.033439849166129E-1    5.296396935243004E-1   -2.550681628847903E-3    8.821083832814321E-4   -2.583173863157628E-3    9.517620964315327E-4    2.444610069573067E-1    4.486767331748749E-1
 8.151186083000000E9     1.036922295824017E-1    5.295324892353646E-1   -2.542614789873364E-3    8.976553910137195E-4   -2.605582035405374E-3    9.299787184096199E-4    2.446929357486948E-1    4.484162739028753E-1
 8.151192701000000E9     1.040091243592193E-1    5.294594306311480E-1   -2.575846564682433E-3    8.941159102970768E-4   -2.563234654850986E-3    9.456199866460517E-4    2.450242662640378E-1    4.481102425727069E-1
 8.151199319000000E9     1.046892263953912E-1    5.294596670639953E-1   -2.549895494258434E-3    9.111239339744748E-4   -2.552651002795852E-3    9.686732305086484E-4    2.455136470701212E-1    4.480238250601318E-1
 8.151205937000000E9     1.051396864861760E-1    5.293164839451102E-1   -2.591160228677686E-3    9.086429806390608E-4   -2.586241379446501E-3    9.501751128951679E-4    2.457900910235763E-1    4.476993191381041E-1
 8.151212555000000E9     1.055158553120616E-1    5.292304037063941E-1   -2.560861413531941E-3    9.103106602213197E-4   -2.578481416343689E-3    9.742286554815025E-4    2.462218098339715E-1    4.474727780611572E-1
 8.151219173000000E9     1.060942727772741E-1    5.292440414713588E-1   -2.574016569784367E-3    8.898128474735614E-4   -2.553040691005536E-3    9.431912019020362E-4    2.465224187142614E-1    4.474176891877501E-1
 8.151225791000000E9     1.063684086035073E-1    5.291352903350464E-1   -2.579103271631067E-3    9.019953128268465E-4   -2.583289105539092E-3    9.510402461406835E-4    2.468398991339669E-1    4.470584964300945E-1
 8.151232409000000E9     1.068949673689485E-1    5.289409992307920E-1   -2.572771877118435E-3    9.096249255647562E-4   -2.587031663259500E-3    9.916127642995557E-4    2.473588659141398E-1    4.469069471307728E-1
 8.151239027000000E9     1.073058888495955E-1    5.289429368474160E-1   -2.562051694421813E-3    9.340729338583011E-4   -2.558929784836946E-3    9.532031664962446E-4    2.476382732043878E-1    4.465947878391300E-1
 8.151245645000000E9     1.078382618653138E-1    5.288916224745558E-1   -2.561358001858917E-3    9.170970353654785E-4   -2.560161606593963E-3    9.800275286879748E-4    2.479700326636358E-1    4.466050215940854E-1
 8.151252263000000E9     1.083483737857265E-1    5.287796694719252E-1   -2.595667672949446E-3    9.439185699412399E-4   -2.581171180917963E-3    9.569655573577341E-4    2.483878484192404E-1    4.462547679609240E-1
 8.151258881000000E9     1.086151697620921E-1    5.286806991944923E-1   -2.566892275159070E-3    9.170912642866515E-4   -2.608213652929338E-3    1.008121289109263E-3    2.487312531750718E-1    4.460857625250809E-1
 8.151265499000000E9     1.091198004318279E-1    5.285859865882614E-1   -2.576412680640634E-3    9.245059523045620E-4   -2.574420005287670E-3    9.843033767299382E-4    2.491872340771396E-1    4.457508590578182E-1
 8.151272117000000E9     1.096382691884943E-1    5.285124606958452E-1   -2.562858239882787E-3    9.586250984970513E-4   -2.558567494314829E-3    9.939846719515671E-4    2.496111154794954E-1    4.455320546498627E-1
 8.151278735000000E9     1.100808198116908E-1    5.285325785285011E-1   -2.577786792740522E-3    9.375498034289115E-4   -2.565833212844320E-3    9.912320669265957E-4    2.498028242374624E-1    4.452417262690144E-1
 8.151285353000000E9     1.104884057718033E-1    5.283225164351614E-1   -2.600826914808284E-3    9.468971252171911E-4   -2.586048181480682E-3    9.937853690096072E-4    2.503296080463382E-1    4.452288863097036E-1
 8.151291971000000E9     1.110121048865366E-1    5.282283799805262E-1   -2.602692027486718E-3    9.382924069794827E-4   -2.583254932813543E-3    1.001345891406920E-3    2.504478884342363E-1    4.449810256209927E-1
 8.151298589000000E9     1.114277073932028E-1    5.281681199040459E-1   -2.586076379357549E-3    9.735278158535894E-4   -2.598037025566068E-3    1.008792250105623E-3    2.508488991024784E-1    4.448569975649574E-1
 8.151305207000000E9     1.118531685242646E-1    5.280013112061778E-1   -2.586248953701672E-3    9.574307589214538E-4   -2.582074684526247E-3    9.869101133791137E-4    2.512778550519850E-1    4.445772379007124E-1
 8.151311825000000E9     1.124541803945128E-1    5.278734307804263E-1   -2.601041185244206E-3    9.631260044885867E-4   -2.598745631370435E-3    9.901616168951613E-4    2.516631396957862E-1    4.443416153587093E-1
 8.151318443000000E9     1.129942842872718E-1    5.279643729074440E-1   -2.593037111927069E-3    9.482901560706181E-4   -2.586942096334368E-3    1.014862122729839E-3    2.520795189454950E-1    4.441325258506488E-1
 8.151325061000000E9     1.132918297069875E-1    5.278629430616019E-1   -2.590746435426333E-3    9.585019041468201E-4   -2.582626624376459E-3    1.027191980484128E-3    2.523466435101263E-1    4.439039976700899E-1
 8.151331679000000E9     1.137549089482103E-1    5.276137207995236E-1   -2.585555091166141E-3    9.562818911749983E-4   -2.599401256228733E-3    1.002845654298116E-3    2.526461030403712E-1    4.436752186458865E-1
 8.151338297000000E9     1.141814184112193E-1    5.276692913542091E-1   -2.614254670180472E-3    9.791840070393727E-4   -2.568651591910132E-3    1.012629246555031E-3    2.532040586165374E-1    4.433892655002572E-1
 8.151344915000000E9     1.146334328552528E-1    5.275596300694879E-1   -2.576186074557627E-3    9.517006855985701E-4   -2.595054988942776E-3    1.035176911993049E-3    2.536778216477943E-1    4.434008492098646E-1
 8.151351533000000E9     1.151580094057505E-1    5.273964206293730E-1   -2.586085495714923E-3    9.770903970193164E-4   -2.580272873133103E-3    1.034076883070398E-3    2.538513697437487E-1    4.430966114510065E-1
 8.151358151000000E9     1.155774335558492E-1    5.273553235501888E-1   -2.583651346526854E-3    9.682021801051215E-4   -2.603137458708052E-3    1.026697911053496E-3    2.541934645143701E-1    4.427516073758954E-1
 8.151364769000000E9     1.161501523842160E-1    5.273222535114501E-1   -2.614366974441887E-3    9.994753573303694E-4   -2.591026948389860E-3    1.045988063279325E-3    2.544811506239031E-1    4.427036943512584E-1
 8.151371387000000E9     1.164803900958412E-1    5.272494071081179E-1   -2.593053629096620E-3    9.908768461864097E-4   -2.587099524947039E-3    1.022481883711546E-3    2.549766040815123E-1    4.424799988267041E-1
 8.151378005000000E9     1.169326130939967E-1    5.270489187987496E-1   -2.584556755154829E-3    9.895079967226145E-4   -2.587558329491031E-3    1.058050400676020E-3    2.552097711889529E-1    4.421626767271787E-1
 8.151384623000000E9     1.174033410646001E-1    5.271070778338375E-1   -2.587157503946102E-3    1.013232601847521E-3   -2.615741050997039E-3    1.027546333309927E-3    2.555445827932424E-1    4.418751558063057E-1
 8.151391241000000E9     1.179477669456598E-1    5.269373824199201E-1   -2.573010905868692E-3    9.993179067285633E-4   -2.639338904778254E-3    1.050160108743567E-3    2.560196035893652E-1    4.416790157989638E-1
 8.151397859000000E9     1.182873078922119E-1    5.266842840848013E-1   -2.588297835292360E-3    9.817207339099462E-4   -2.618490528145732E-3    1.048169797801160E-3    2.563742547547996E-1    4.414169001621392E-1
 8.151404477000000E9     1.188052188710668E-1    5.267925165167835E-1   -2.575600749737753E-3    1.028132503480855E-3   -2.619513968150783E-3    1.040732396975172E-3    2.566513964731155E-1    4.412476681597371E-1
 8.151411095000000E9     1.192543950822806E-1    5.266444707229451E-1   -2.584744503904137E-3    9.936809311896948E-4   -2.587892733534289E-3    1.062914680356666E-3    2.571123138718597E-1    4.410455570031988E-1
 8.151417713000000E9     1.198392255362470E-1    5.265073045795184E-1   -2.566232118286437E-3    1.015041378879313E-3   -2.594176964873758E-3    1.054558789982071E-3    2.573690007465065E-1    4.408157981957475E-1
 8.151424331000000E9     1.201274941260247E-1    5.264020787646344E-1   -2.588065988281249E-3    1.011474596254845E-3   -2.627946876674448E-3    1.066597000160973E-3    2.577271681365583E-1    4.407098851825461E-1
 8.151430949000000E9     1.204964896794437E-1    5.263042616203508E-1   -2.587492508184013E-3    1.030306107086758E-3   -2.581687496448380E-3    1.047139345263346E-3    2.582553473226513E-1    4.403879513830132E-1
 8.151437567000000E9     1.211579193244906E-1    5.262207074213472E-1   -2.566625364151027E-3    1.022077987355097E-3   -2.630125619373758E-3    1.057194375192580E-3    2.586627155156425E-1    4.401678936568310E-1
 8.151444185000000E9     1.215499074632164E-1    5.262317568236835E-1   -2.588692595892195E-3    1.024714238732021E-3   -2.580185847702042E-3    1.059061880306048E-3    2.589538178511466E-1    4.399106728637542E-1
 8.151450803000000E9     1.220445820807330E-1    5.260390275154589E-1   -2.589535733120865E-3    1.041825096247731E-3   -2.576323122897200E-3    1.086545641512250E-3    2.593232705839495E-1    4.396872251410218E-1
 8.151457421000000E9     1.225012290080364E-1    5.260469281336725E-1   -2.577103111598461E-3    1.012484931573556E-3   -2.584153189275636E-3    1.069056899530687E-3    2.596039572931337E-1    4.395015791424126E-1
 8.151464039000000E9     1.229392510869555E-1    5.258873558680985E-1   -2.604013069937901E-3    1.043974355824934E-3   -2.610795340783692E-3    1.083001728533795E-3    2.599338621065932E-1    4.393462663068951E-1
 8.151470657000000E9     1.233593299162056E-1    5.256947913299763E-1   -2.611564971422668E-3    1.025025773445361E-3   -2.612961352411902E-3    1.091144260499137E-3    2.604864328732814E-1    4.390119561395896E-1
 8.151477275000000E9     1.237330796271821E-1    5.256372495431678E-1   -2.594398414819682E-3    1.056759918959199E-3   -2.610181117702686E-3    1.103792046161352E-3    2.606968541276615E-1    4.387777383806310E-1
 8.151483893000000E9     1.242402667703740E-1    5.256909419171952E-1   -2.617758188715899E-3    1.028800138636354E-3   -2.595369060336880E-3    1.093606507247504E-3    2.610434392844085E-1    4.386752155075211E-1
 8.151490511000000E9     1.247141519414423E-1    5.255688933512850E-1   -2.584981767039755E-3    1.035050587258477E-3   -2.597515088349444E-3    1.125689763771988E-3    2.614049362373510E-1    4.383560930825747E-1
 8.151497129000000E9     1.252602803255242E-1    5.254069413725045E-1   -2.615537279728958E-3    1.029723927306804E-3   -2.614062106810469E-3    1.097169027832098E-3    2.618301243036558E-1    4.382225991829533E-1
 8.151503747000000E9     1.256959209737263E-1    5.252965913082466E-1   -2.611787494501673E-3    1.049111345563449E-3   -2.591812189426937E-3    1.131166727563580E-3    2.621273863813018E-1    4.379116756500591E-1
 8.151510365000000E9     1.260844058822456E-1    5.252133299315818E-1   -2.622754231706606E-3    1.073440711953381E-3   -2.625244316593544E-3    1.098763981522929E-3    2.626159153576608E-1    4.376819686370239E-1
 8.151516983000000E9     1.264965187893321E-1    5.251306743735259E-1   -2.621709814786901E-3    1.068844513299452E-3   -2.586287666480095E-3    1.096819052532184E-3    2.629475166634030E-1    4.374445378940774E-1
 8.151523601000000E9     1.270907098110215E-1    5.250099482163835E-1   -2.616349417436734E-3    1.061372379749784E-3   -2.634738072035703E-3    1.114639619982875E-3    2.631843996024127E-1    4.371390258418043E-1
 8.151530219000000E9     1.274594350879391E-1    5.247894151144276E-1   -2.635419473482278E-3    1.075147148409963E-3   -2.624993900508308E-3    1.103595633393829E-3    2.636139286684872E-1    4.370405950163664E-1
 8.151536837000000E9     1.280241332627881E-1    5.247030278805450E-1   -2.622369159864259E-3    1.078530383905325E-3   -2.626035634125517E-3    1.116790276468704E-3    2.638867508691688E-1    4.367584364876499E-1
 8.151543455000000E9     1.284546462542549E-1    5.246745073661033E-1   -2.630467167570377E-3    1.067620806379671E-3   -2.629801393031915E-3    1.120663745447636E-3    2.643626974996168E-1    4.365516602601409E-1
 8.151550073000000E9     1.288062130047488E-1    5.244892450056611E-1   -2.601265409899810E-3    1.075894551767226E-3   -2.618730353371494E-3    1.102235535909362E-3    2.647249119311960E-1    4.363621632964889E-1
 8.151556691000000E9     1.294216585731674E-1    5.244978517896991E-1   -2.610466008675969E-3    1.092467519303072E-3   -2.657330164021309E-3    1.142818798564459E-3    2.650701743695075E-1    4.360330980022952E-1
 8.151563309000000E9     1.297936836367011E-1    5.242708482013245E-1   -2.609946490348613E-3    1.101653423974101E-3   -2.642788085314020E-3    1.141048245799324E-3    2.654070860459051E-1    4.358390550640728E-1
 8.151569927000000E9     1.301604847018694E-1    5.242623863642345E-1   -2.606656733632536E-3    1.068927670809054E-3   -2.602253195790451E-3    1.109851742096092E-3    2.657037758904495E-1    4.355712186840478E-1
 8.151576545000000E9     1.306666689715196E-1    5.242326162561424E-1   -2.618175575469583E-3    1.093387369722202E-3   -2.652190041564983E-3    1.130806701480069E-3    2.661175033958215E-1    4.353314283759389E-1
 8.151583163000000E9     1.310623483009528E-1    5.241188185451578E-1   -2.625010836021072E-3    1.100167068957717E-3   -2.596993155854053E-3    1.132786206168325E-3    2.664223696190531E-1    4.352126019578076E-1
 8.151589781000000E9     1.316188844592576E-1    5.238937588057431E-1   -2.591114977895337E-3    1.094066489869207E-3   -2.612297654163894E-3    1.169854087481598E-3    2.667928894109455E-1    4.349335850999048E-1
 8.151596399000000E9     1.321480548999900E-1    5.237644239932823E-1   -2.628339340692766E-3    1.104134092826128E-3   -2.603280850363054E-3    1.133681653933397E-3    2.669782284202408E-1    4.348137185563029E-1
 8.151603017000000E9     1.325195453201779E-1    5.236634085131880E-1   -2.621588494498834E-3    1.118692334144952E-3   -2.604194327087905E-3    1.169387745412448E-3    2.675623890988267E-1    4.345153233746590E-1
