#  HZ   S   RI   R     50.00 
! Rohde & Schwarz Vector Network Analyzer 
! Rohde-Schwarz,ZNB20-2Port,1311601062101988,3.16
! Created: UTC 3/21/2024, 12:52:42 AM
! freq[Hz]                re:S11                  im:S11                  re:S21                  im:S21                  re:S12                  im:S12                  re:S22                  im:S22
 8.151222399000000E9     1.208699244952212E-1    5.298756855568293E-1   -2.815038119525482E-3    1.146966038127377E-3   -2.851406368208429E-3    1.188949335728613E-3    2.655056986654478E-1    4.402755370746259E-1
 8.151224988750000E9     1.210330216672155E-1    5.297685820924998E-1   -2.822535366647074E-3    1.114415093777396E-3   -2.855524682698749E-3    1.165046838374561E-3    2.655489053165637E-1    4.400974734569648E-1
 8.151227578500000E9     1.212398130803018E-1    5.297795956016059E-1   -2.828258160134307E-3    1.150663815710173E-3   -2.842934104486812E-3    1.209654718660080E-3    2.657863792213259E-1    4.401191599879086E-1
 8.151230168250000E9     1.214602199649057E-1    5.296264412315089E-1   -2.822384032303534E-3    1.129173895003504E-3   -2.836851163530421E-3    1.209834619246567E-3    2.658458977904234E-1    4.399938098818026E-1
 8.151232758000000E9     1.216860595582962E-1    5.296759030451881E-1   -2.822541648802026E-3    1.156406882411497E-3   -2.808337239898212E-3    1.208149097144017E-3    2.659164138441387E-1    4.398600356481138E-1
 8.151235347750000E9     1.217087556643755E-1    5.296916463175518E-1   -2.841961222932000E-3    1.166492323356752E-3   -2.812801033753470E-3    1.210703231562981E-3    2.661731776525316E-1    4.397533659324657E-1
 8.151237937500000E9     1.220216592451857E-1    5.295725809989640E-1   -2.819049497816978E-3    1.163138329409203E-3   -2.824017005155891E-3    1.207463153961070E-3    2.663698563822178E-1    4.396196790488357E-1
 8.151240527250000E9     1.221819905557996E-1    5.295059930764017E-1   -2.831824343261081E-3    1.182612412512330E-3   -2.823711475732914E-3    1.208258871124997E-3    2.665339202622946E-1    4.394678253169473E-1
 8.151243117000000E9     1.224239563588294E-1    5.293917108743127E-1   -2.838995483357117E-3    1.154877200182039E-3   -2.853771872873076E-3    1.218922882481740E-3    2.665742714484748E-1    4.395532497093235E-1
 8.151245706750000E9     1.225990406909309E-1    5.293067528938042E-1   -2.864296580304392E-3    1.142140270616621E-3   -2.842024876481694E-3    1.203854876639139E-3    2.669344710038887E-1    4.394098176422821E-1
 8.151248296500000E9     1.227265390490588E-1    5.294039851678819E-1   -2.853841659147283E-3    1.169004321665224E-3   -2.855424617174540E-3    1.197134289335988E-3    2.667518590794174E-1    4.393445567287741E-1
 8.151250886250000E9     1.227654550244232E-1    5.293864845904054E-1   -2.831830848948062E-3    1.183221618968568E-3   -2.834986588858891E-3    1.194850410628867E-3    2.670722664679315E-1    4.392377546503688E-1
 8.151253476000000E9     1.232485891134050E-1    5.292935588105619E-1   -2.846718509533299E-3    1.171608423309454E-3   -2.857791084886609E-3    1.212365891258311E-3    2.672249145161312E-1    4.390415629531532E-1
 8.151256065750000E9     1.233387604548900E-1    5.293313627212849E-1   -2.850362109489678E-3    1.179137524959341E-3   -2.879645879888884E-3    1.211401853774780E-3    2.673468129626667E-1    4.390173557255803E-1
 8.151258655500000E9     1.235696249103707E-1    5.293127579755800E-1   -2.850769662936567E-3    1.175385228413350E-3   -2.889325036935758E-3    1.239571874452983E-3    2.675531260157201E-1    4.388736743800823E-1
 8.151261245250000E9     1.237654524568040E-1    5.292089953568304E-1   -2.850086154707664E-3    1.158266194623858E-3   -2.860530043330956E-3    1.196942626635906E-3    2.675362568649946E-1    4.388221270480038E-1
 8.151263835000000E9     1.240343224550949E-1    5.291107177522805E-1   -2.843646832065373E-3    1.170256959305805E-3   -2.829653887319403E-3    1.227744346424856E-3    2.677151009089456E-1    4.388535794043887E-1
 8.151266424750000E9     1.241762869810534E-1    5.290969791042055E-1   -2.888808882206790E-3    1.183893674692254E-3   -2.851260470357287E-3    1.233106853010850E-3    2.678701571846952E-1    4.386797361897439E-1
 8.151269014500000E9     1.243484787883057E-1    5.289412885544481E-1   -2.858014090520220E-3    1.194054359561125E-3   -2.885979684747061E-3    1.240101118727283E-3    2.679587339782314E-1    4.385714337091435E-1
 8.151271604250000E9     1.244103522127953E-1    5.289677408172410E-1   -2.842856064923826E-3    1.181186261414122E-3   -2.867485957507022E-3    1.216037883726932E-3    2.680608415830206E-1    4.385401702768664E-1
 8.151274194000000E9     1.246796435795397E-1    5.290085894896087E-1   -2.882314218488443E-3    1.187020461444164E-3   -2.873786888084385E-3    1.258714169933600E-3    2.683000578914147E-1    4.383981274086080E-1
 8.151276783750000E9     1.248781923305436E-1    5.288543898564220E-1   -2.868915334016725E-3    1.198675954176590E-3   -2.902759390478851E-3    1.246452012386702E-3    2.685831693781064E-1    4.383209570543527E-1
 8.151279373500000E9     1.251497099065827E-1    5.287705178046983E-1   -2.898291725974107E-3    1.178671560051405E-3   -2.904296755401072E-3    1.253806774209140E-3    2.686490305917867E-1    4.383317047584332E-1
 8.151281963250000E9     1.252560101720213E-1    5.289229897546891E-1   -2.896130489220459E-3    1.202798180745312E-3   -2.881175104812271E-3    1.256137596906115E-3    2.687462856213808E-1    4.381546386343965E-1
 8.151284553000000E9     1.255363548293142E-1    5.287193534633707E-1   -2.884110378675940E-3    1.217871938805843E-3   -2.864240256896466E-3    1.261756642093187E-3    2.688067765474580E-1    4.380977662883455E-1
 8.151287142750000E9     1.256859749160103E-1    5.288116070559841E-1   -2.872291133830846E-3    1.219430332756860E-3   -2.841469597458255E-3    1.252564601014892E-3    2.690504598456216E-1    4.379406368009504E-1
 8.151289732500000E9     1.258472215923718E-1    5.286557388756740E-1   -2.881733787862754E-3    1.189518482535116E-3   -2.882508025195190E-3    1.249709834684359E-3    2.690321583419548E-1    4.377830947060636E-1
 8.151292322250000E9     1.261541005497426E-1    5.285432587245881E-1   -2.871320270104093E-3    1.169829579816612E-3   -2.894545707242897E-3    1.278143187491778E-3    2.694311409320697E-1    4.377914858010452E-1
 8.151294912000000E9     1.264321452044012E-1    5.285519530064420E-1   -2.867098800118520E-3    1.190681350230758E-3   -2.892268880647635E-3    1.283734969468670E-3    2.695612434306369E-1    4.377373482604480E-1
 8.151297501750000E9     1.264762441243358E-1    5.285796277742235E-1   -2.865064918335626E-3    1.209220698485783E-3   -2.871716698654137E-3    1.277039661066760E-3    2.695871754730714E-1    4.376779070977719E-1
 8.151300091500000E9     1.266534377303234E-1    5.285096810674328E-1   -2.873599653390675E-3    1.225629471490704E-3   -2.898555187609582E-3    1.276852018541453E-3    2.696458705362598E-1    4.375137100080738E-1
 8.151302681250000E9     1.268919760073011E-1    5.284752024516272E-1   -2.892681886273086E-3    1.224960058896316E-3   -2.894795145887298E-3    1.276367239690115E-3    2.698947148198382E-1    4.374594534926648E-1
 8.151305271000000E9     1.270354539014425E-1    5.284576782920593E-1   -2.887876476304941E-3    1.228547818611627E-3   -2.902914270011821E-3    1.264854984093997E-3    2.701063709218505E-1    4.373602979796380E-1
 8.151307860750000E9     1.271758829299138E-1    5.284172644052570E-1   -2.931986728497895E-3    1.248228163093440E-3   -2.905445572206084E-3    1.286419788306930E-3    2.701867427296765E-1    4.372435777590824E-1
 8.151310450500000E9     1.274499430097604E-1    5.283734852590997E-1   -2.890182381076633E-3    1.221294235328824E-3   -2.951220866292322E-3    1.278016242739958E-3    2.702297875536408E-1    4.371955584230773E-1
 8.151313040250000E9     1.275683581156944E-1    5.281918536245092E-1   -2.899104150331012E-3    1.206668505932530E-3   -2.917617524135710E-3    1.314992647311889E-3    2.705864910212518E-1    4.369292099813464E-1
 8.151315630000000E9     1.277682415487500E-1    5.282399482056941E-1   -2.895755703101765E-3    1.252310378508964E-3   -2.893525752016977E-3    1.278087636880299E-3    2.705470823965757E-1    4.370740615504678E-1
 8.151318219750000E9     1.279718091885340E-1    5.282171009820337E-1   -2.920097410350414E-3    1.235050692716642E-3   -2.935702018737875E-3    1.284911361442724E-3    2.707630176303578E-1    4.367867224855451E-1
 8.151320809500000E9     1.282736888440908E-1    5.281228148649521E-1   -2.933138994770787E-3    1.251669763832299E-3   -2.930182456698423E-3    1.291056682700468E-3    2.709244780901044E-1    4.367730541620263E-1
 8.151323399250000E9     1.284022433614174E-1    5.280306696973361E-1   -2.909753384738963E-3    1.244546133730454E-3   -2.935254314800857E-3    1.270088474490815E-3    2.709974031292902E-1    4.367042683267717E-1
 8.151325989000000E9     1.286480051511431E-1    5.280352819132929E-1   -2.903566762675537E-3    1.264209677592104E-3   -2.956571920993200E-3    1.307195421927437E-3    2.712110999030007E-1    4.365238166771410E-1
 8.151328578750000E9     1.286330807906571E-1    5.280058735422164E-1   -2.927549296551021E-3    1.248143886341869E-3   -2.947679013357217E-3    1.302430907111521E-3    2.713766041528523E-1    4.364670496524714E-1
 8.151331168500000E9     1.289082908135528E-1    5.279849408452230E-1   -2.922697716264488E-3    1.218284175235910E-3   -2.920750021000643E-3    1.279227003975247E-3    2.715600849658970E-1    4.364417976882909E-1
 8.151333758250000E9     1.293059738492964E-1    5.279419542354780E-1   -2.927185032453474E-3    1.255948353444152E-3   -2.932876115488612E-3    1.304545503214132E-3    2.715199760224996E-1    4.365238986176027E-1
 8.151336348000000E9     1.293332278908640E-1    5.278177124121483E-1   -2.923440383478776E-3    1.257267964914000E-3   -2.912245906696204E-3    1.293120345891700E-3    2.717054251525750E-1    4.362906702681251E-1
 8.151338937750000E9     1.296145444641012E-1    5.278432140758242E-1   -2.937894258595142E-3    1.275356731217216E-3   -2.958723735516818E-3    1.330127314860724E-3    2.719788214795682E-1    4.361788568626268E-1
 8.151341527500000E9     1.297467068439433E-1    5.277315373029450E-1   -2.949041423696925E-3    1.284488067785969E-3   -2.952888417743775E-3    1.308692744216633E-3    2.720362018628594E-1    4.359848226937891E-1
 8.151344117250000E9     1.300183274947684E-1    5.277594245084044E-1   -2.942216341261742E-3    1.253414860807095E-3   -2.929510157041057E-3    1.310460155895656E-3    2.721703627470077E-1    4.357418591794944E-1
 8.151346707000000E9     1.301797352392136E-1    5.276384515690501E-1   -2.956869971251603E-3    1.275506274223415E-3   -2.968200761445460E-3    1.339917313348792E-3    2.723474620412173E-1    4.358326691678948E-1
 8.151349296750000E9     1.303657949760647E-1    5.276012564331456E-1   -2.940137694943746E-3    1.279090631434631E-3   -2.986759950982646E-3    1.305554972647595E-3    2.723119903797616E-1    4.357070466717468E-1
 8.151351886500000E9     1.306859059791909E-1    5.275564635444309E-1   -2.929638136821493E-3    1.281503029211112E-3   -2.943197872439565E-3    1.318812714062829E-3    2.725171611484538E-1    4.355552843153122E-1
 8.151354476250000E9     1.307638681827859E-1    5.275263136220142E-1   -2.944828170866868E-3    1.299377364187347E-3   -2.947885074346453E-3    1.334609530436624E-3    2.727417343379529E-1    4.354132868540367E-1
 8.151357066000000E9     1.309998672512746E-1    5.275063081365133E-1   -2.965285047277518E-3    1.301769726516749E-3   -2.973637713676574E-3    1.354666393040195E-3    2.729522825159460E-1    4.353966868694492E-1
 8.151359655750000E9     1.312132141534580E-1    5.273904110716903E-1   -2.958246555733606E-3    1.284644337721266E-3   -3.009825481951747E-3    1.345646791043433E-3    2.729788487192542E-1    4.353822891149711E-1
 8.151362245500000E9     1.313491767397215E-1    5.274452527135740E-1   -2.952669079089534E-3    1.281070671325800E-3   -2.992890962199921E-3    1.371578340661665E-3    2.729789552025984E-1    4.353060693185349E-1
 8.151364835250000E9     1.316302396172864E-1    5.273254413126337E-1   -2.967124562406324E-3    1.328121654021410E-3   -2.974356869363873E-3    1.347197291344080E-3    2.732463233922266E-1    4.350858677800983E-1
 8.151367425000000E9     1.317483181706104E-1    5.271595070704389E-1   -2.989716826559148E-3    1.322991608249588E-3   -2.988498691202282E-3    1.335051160995559E-3    2.733534635900333E-1    4.352844662140820E-1
 8.151370014750000E9     1.319868646506111E-1    5.272806609751214E-1   -2.991055802210535E-3    1.298293075470658E-3   -2.972391455860215E-3    1.357484161123555E-3    2.735580675119430E-1    4.351059263306614E-1
 8.151372604500000E9     1.321093164484196E-1    5.272819706615145E-1   -2.966841627026486E-3    1.336825426813739E-3   -2.994742083457716E-3    1.402054097134378E-3    2.736176188087280E-1    4.348631207011294E-1
 8.151375194250000E9     1.323002345350934E-1    5.270771308486903E-1   -2.994027289945294E-3    1.304305648442942E-3   -3.015647019183959E-3    1.370388933609054E-3    2.738495653746044E-1    4.348098806797302E-1
 8.151377784000000E9     1.325067579004071E-1    5.270520123152714E-1   -2.969916787794652E-3    1.312684237153667E-3   -2.996488137047643E-3    1.391177957091934E-3    2.738978770730044E-1    4.347497854602182E-1
 8.151380373750000E9     1.327960391671308E-1    5.270162231159075E-1   -2.995737040096575E-3    1.309482436450958E-3   -3.014253057131988E-3    1.409536075066292E-3    2.741467939819395E-1    4.345502150425043E-1
 8.151382963500000E9     1.328925713669556E-1    5.270402558368147E-1   -2.984496148999694E-3    1.319575435790021E-3   -2.997947589232364E-3    1.383355309080447E-3    2.742230769178828E-1    4.345990419045687E-1
 8.151385553250000E9     1.331803692151116E-1    5.269439265957107E-1   -2.980861939982195E-3    1.350861756290306E-3   -3.024604032586006E-3    1.381154416340256E-3    2.743949760302869E-1    4.344314461361777E-1
 8.151388143000000E9     1.333572210599244E-1    5.269177734802684E-1   -3.004946981554421E-3    1.300952268598977E-3   -3.013713027001287E-3    1.397457622879805E-3    2.745582939679528E-1    4.344426092689734E-1
 8.151390732750000E9     1.335496961241327E-1    5.269809125534849E-1   -3.018018725582648E-3    1.360716559318057E-3   -3.030772581705269E-3    1.382324115399524E-3    2.747107622830348E-1    4.343466969716770E-1
 8.151393322500000E9     1.337333512480285E-1    5.267625964985352E-1   -3.007143997324225E-3    1.352137736810816E-3   -3.012498765378255E-3    1.411576011464943E-3    2.749231322584787E-1    4.342042674091772E-1
 8.151395912250000E9     1.339693510701397E-1    5.266620313580587E-1   -3.009730340954035E-3    1.368427872012698E-3   -3.038344793577029E-3    1.427749793017484E-3    2.749174171588620E-1    4.341131770251410E-1
 8.151398502000000E9     1.341320110741221E-1    5.267714805190402E-1   -2.995099916423047E-3    1.356046104856043E-3   -3.045385972068759E-3    1.422416231392767E-3    2.750170925320538E-1    4.339846442113086E-1
 8.151401091750000E9     1.344588384998660E-1    5.265308109486090E-1   -3.005287469058597E-3    1.358390713310968E-3   -3.032745182456153E-3    1.437130154542608E-3    2.751697234350320E-1    4.339018157513013E-1
 8.151403681500000E9     1.345833803258076E-1    5.265505508346408E-1   -3.034314896427433E-3    1.376995150975635E-3   -3.065794850313425E-3    1.407456462955005E-3    2.752525166766018E-1    4.339413657263452E-1
 8.151406271250000E9     1.347647139443833E-1    5.266214322496656E-1   -3.031381120220121E-3    1.356997297648493E-3   -3.042423886067219E-3    1.433546828068657E-3    2.752974353294361E-1    4.338556149238362E-1
 8.151408861000000E9     1.350355902000010E-1    5.264557819052971E-1   -3.024456045137749E-3    1.382524093163467E-3   -3.029592902859278E-3    1.445866226940047E-3    2.756468517840790E-1    4.336054383997937E-1
 8.151411450750000E9     1.351993244979901E-1    5.263882649184405E-1   -3.047267527950164E-3    1.372950310225328E-3   -3.067437625591914E-3    1.453271548687605E-3    2.757154522708626E-1    4.334700849562368E-1
 8.151414040500000E9     1.354482569688263E-1    5.264776528245928E-1   -3.026952075118927E-3    1.399704079345872E-3   -3.042759084611559E-3    1.405345267246516E-3    2.760566796436397E-1    4.333270287034336E-1
 8.151416630250000E9     1.356310408948287E-1    5.262288198194116E-1   -3.030717548502920E-3    1.392270425542456E-3   -3.041509930817036E-3    1.467984201373387E-3    2.760184731030173E-1    4.333860660780270E-1
 8.151419220000000E9     1.358232222400549E-1    5.262181136949901E-1   -3.045207526177013E-3    1.385409336770415E-3   -3.071701075628057E-3    1.459442029817275E-3    2.761360590086331E-1    4.332386990722403E-1
 8.151421809750000E9     1.358989803138239E-1    5.262279546952305E-1   -3.067821170448977E-3    1.394657514739125E-3   -3.043891168835538E-3    1.459090367191618E-3    2.763859677426816E-1    4.331257101128122E-1
 8.151424399500000E9     1.361539979574158E-1    5.261759476701344E-1   -3.048309446779116E-3    1.387832109444348E-3   -3.076188640396852E-3    1.474669496927431E-3    2.764275274241432E-1    4.330446743906793E-1
 8.151426989250000E9     1.364816599644987E-1    5.260348084575677E-1   -3.091115631434112E-3    1.404634993205406E-3   -3.078397661939754E-3    1.453502818232390E-3    2.766597333362363E-1    4.330312786226974E-1
 8.151429579000000E9     1.365813141680319E-1    5.260229017208615E-1   -3.076812201950283E-3    1.399296728416240E-3   -3.060374759676100E-3    1.472712370681216E-3    2.766382002950256E-1    4.328862971014040E-1
 8.151432168750000E9     1.368180646486274E-1    5.259645339331415E-1   -3.072587950402160E-3    1.424757068719914E-3   -3.081187757194107E-3    1.496406929134656E-3    2.768680932777767E-1    4.327342932724581E-1
 8.151434758500000E9     1.369800029365482E-1    5.259657559294458E-1   -3.064228383115936E-3    1.419200349441987E-3   -3.093168154188499E-3    1.510863487519037E-3    2.770070569075571E-1    4.326913159064791E-1
 8.151437348250000E9     1.372724281763112E-1    5.259211818228962E-1   -3.072247983399352E-3    1.433636913386847E-3   -3.115586095543542E-3    1.493906882594070E-3    2.772145210034848E-1    4.326664884381256E-1
 8.151439938000000E9     1.375165982780615E-1    5.257401983207721E-1   -3.068423297082749E-3    1.420766516434175E-3   -3.079624392594592E-3    1.506142773157009E-3    2.773470940990209E-1    4.325220322140690E-1
 8.151442527750000E9     1.376092449244224E-1    5.256849922601043E-1   -3.092726898281524E-3    1.467216299149026E-3   -3.110194364912627E-3    1.507420715765206E-3    2.775413089904841E-1    4.324757963812465E-1
 8.151445117500000E9     1.380122635597664E-1    5.256372546304442E-1   -3.111029705516679E-3    1.465977690703789E-3   -3.126629211425951E-3    1.508024677600757E-3    2.774829219728268E-1    4.324476263568983E-1
 8.151447707250000E9     1.381006336873366E-1    5.256477943082351E-1   -3.104883455632426E-3    1.464752997715193E-3   -3.102353388331906E-3    1.508923144804985E-3    2.777994919076236E-1    4.321301043882162E-1
 8.151450297000000E9     1.382338848828102E-1    5.255400134314959E-1   -3.098051469192938E-3    1.443377199754423E-3   -3.117223270209037E-3    1.519472582073061E-3    2.779127195935649E-1    4.320515716866946E-1
 8.151452886750000E9     1.384875219566699E-1    5.254296437775086E-1   -3.132553327473809E-3    1.461012003067847E-3   -3.113371736470206E-3    1.508235065818558E-3    2.780972952051504E-1    4.319362260286952E-1
 8.151455476500000E9     1.386157408933982E-1    5.254630314392518E-1   -3.107748251409879E-3    1.467110915113198E-3   -3.132185878169537E-3    1.517169147419786E-3    2.781752763879515E-1    4.317826213006996E-1
