#  HZ   S   RI   R     50.00 
! Rohde & Schwarz Vector Network Analyzer 
! Rohde-Schwarz,ZNB20-2Port,1311601062101988,3.16
! Created: UTC 3/21/2024, 1:15:38 AM
! freq[Hz]                re:S11                  im:S11                  re:S21                  im:S21                  re:S12                  im:S12                  re:S22                  im:S22
 8.151279359000000E9     1.093651997299474E-1    5.284295248051247E-1   -2.556189702497162E-3    9.460892143595106E-4   -2.582357338246335E-3    9.775696671181994E-4    2.490537445500451E-1    4.466486435995931E-1
 8.151284974800000E9     1.098222047948803E-1    5.283090528095945E-1   -2.579827448801481E-3    9.118644868024465E-4   -2.577441039474112E-3    9.492343784703042E-4    2.495249336237590E-1    4.463072031634814E-1
 8.151290590600000E9     1.100692267998231E-1    5.283637007633800E-1   -2.581048419223995E-3    9.209783010497818E-4   -2.560412144963550E-3    9.859806389442667E-4    2.498148436042840E-1    4.462646951597082E-1
 8.151296206400000E9     1.105418864104424E-1    5.281928214405712E-1   -2.575479796127926E-3    9.437149105256233E-4   -2.597675270517181E-3    9.995634121782321E-4    2.502141084835571E-1    4.459332588804112E-1
 8.151301822200000E9     1.109445481852018E-1    5.281070123463731E-1   -2.564377889799571E-3    9.113355423637527E-4   -2.569173562173937E-3    9.872347095216517E-4    2.503708066192183E-1    4.458841139123119E-1
 8.151307438000000E9     1.113508964995390E-1    5.281497014960919E-1   -2.582292853811289E-3    9.522949213511228E-4   -2.579279931712184E-3    9.756153223355752E-4    2.505787009700757E-1    4.457485001862040E-1
 8.151313053800000E9     1.117488136930968E-1    5.280159747124417E-1   -2.575050068148696E-3    9.577938226334024E-4   -2.568592410219000E-3    9.837511080174452E-4    2.509063483021981E-1    4.454286411434793E-1
 8.151318669600000E9     1.121086647879997E-1    5.279455789518164E-1   -2.572004771391476E-3    9.401444236345985E-4   -2.568546199103598E-3    9.859934481040570E-4    2.513659611674590E-1    4.453686899559730E-1
 8.151324285400000E9     1.126294042913771E-1    5.278131288128511E-1   -2.562033211410177E-3    9.387001425260950E-4   -2.606279808226398E-3    9.960699976027736E-4    2.516235181867086E-1    4.452529192610278E-1
 8.151329901200000E9     1.128602255526291E-1    5.277702834427773E-1   -2.578522624947334E-3    9.447192731890744E-4   -2.577997129017347E-3    1.013164372884594E-3    2.519408470124116E-1    4.449302645869069E-1
 8.151335517000000E9     1.134437459268184E-1    5.276665541445033E-1   -2.548823097295139E-3    9.532460065517267E-4   -2.581145736891095E-3    1.008412971869094E-3    2.523226528885776E-1    4.448360364208547E-1
 8.151341132800000E9     1.137259417659090E-1    5.275908491207580E-1   -2.580302948915157E-3    9.742125414277298E-4   -2.585492657604080E-3    1.024213220988013E-3    2.526025346732885E-1    4.444813513756112E-1
 8.151346748600000E9     1.140313069473979E-1    5.276164992745941E-1   -2.589475864744496E-3    9.402672147642256E-4   -2.597048489104402E-3    1.020843184256491E-3    2.529713950908340E-1    4.443454236631504E-1
 8.151352364400000E9     1.145846819680450E-1    5.276007808303865E-1   -2.570165839371485E-3    9.487410436232656E-4   -2.623310416741069E-3    1.028925581245504E-3    2.531023218371424E-1    4.441766624841524E-1
 8.151357980200000E9     1.149797209804677E-1    5.274369938112686E-1   -2.565535596850332E-3    9.585520637841354E-4   -2.595217233147928E-3    9.997515520411809E-4    2.533274890725501E-1    4.440024822097579E-1
 8.151363596000000E9     1.152526436928172E-1    5.274139549196051E-1   -2.579265270316864E-3    9.704177660865165E-4   -2.596935816985354E-3    1.003227252780220E-3    2.538575626313496E-1    4.437962043320399E-1
 8.151369211800000E9     1.156165825759638E-1    5.272604618159560E-1   -2.533471865497989E-3    9.777635535721319E-4   -2.591755924143964E-3    9.904033665379731E-4    2.541221194653906E-1    4.438309641452754E-1
 8.151374827600000E9     1.160651912632163E-1    5.271327050908280E-1   -2.568933843940354E-3    9.536060816108309E-4   -2.571452419225257E-3    1.034813191572784E-3    2.542731810417360E-1    4.434576965747872E-1
 8.151380443400000E9     1.165048569542342E-1    5.271203073835224E-1   -2.575340115770905E-3    9.941097586498250E-4   -2.594189492630749E-3    1.025626633438542E-3    2.546760838784543E-1    4.431939179701165E-1
 8.151386059200000E9     1.168996469434682E-1    5.270360637067703E-1   -2.593954804569280E-3    9.700477681828549E-4   -2.599583284419046E-3    1.009090636689031E-3    2.549738405826716E-1    4.432061941073954E-1
 8.151391675000000E9     1.172330583911349E-1    5.269910448584801E-1   -2.583398538750450E-3    1.022514406126391E-3   -2.560886858752688E-3    1.034819237797763E-3    2.552333648508009E-1    4.429024080945737E-1
 8.151397290800000E9     1.175579181833016E-1    5.269733755745418E-1   -2.578861429111047E-3    9.784202448037147E-4   -2.610588479643986E-3    1.039261889286820E-3    2.555955252942861E-1    4.426784634000974E-1
 8.151402906600000E9     1.177991444354451E-1    5.267858914813477E-1   -2.565521517153877E-3    9.926138897348314E-4   -2.580320492278557E-3    1.000027286157870E-3    2.559708946864627E-1    4.425341617083245E-1
 8.151408522400000E9     1.184978850709622E-1    5.266952528528593E-1   -2.568811807696598E-3    9.676685757184830E-4   -2.575299440557936E-3    1.028883242266294E-3    2.561796310581992E-1    4.422995592095531E-1
 8.151414138200000E9     1.188309841555096E-1    5.265342221055325E-1   -2.597109479088448E-3    1.000667484959256E-3   -2.585226552914413E-3    1.061483330616855E-3    2.566512770932637E-1    4.422911687813243E-1
 8.151419754000000E9     1.191462478791525E-1    5.264665639782684E-1   -2.560810816731296E-3    1.003173980936111E-3   -2.589444425150418E-3    1.029765341291040E-3    2.569304257328325E-1    4.420380928673501E-1
 8.151425369800000E9     1.195771982314732E-1    5.263789235268159E-1   -2.579828966395744E-3    9.917898270362345E-4   -2.576541765491994E-3    1.058442309986930E-3    2.573392881071633E-1    4.419143294111515E-1
 8.151430985600000E9     1.199870630271947E-1    5.263983313131306E-1   -2.581362083067999E-3    1.014292775607889E-3   -2.567702571250043E-3    1.034188586966064E-3    2.574457496499784E-1    4.415546699574628E-1
 8.151436601400000E9     1.204214222818033E-1    5.262861201140138E-1   -2.582961180915522E-3    1.010314043857338E-3   -2.576037466009090E-3    1.052857754366444E-3    2.579322811171652E-1    4.414266844719869E-1
 8.151442217200000E9     1.207610448038033E-1    5.262605516598468E-1   -2.594328975343736E-3    1.019255961302125E-3   -2.612406957890759E-3    1.080955589522108E-3    2.580677164458867E-1    4.412876565837289E-1
 8.151447833000000E9     1.210800155522233E-1    5.260592279791459E-1   -2.583683337399866E-3    9.863582894504845E-4   -2.610261697408174E-3    1.042950006159837E-3    2.583635706498730E-1    4.411136483459927E-1
 8.151453448800000E9     1.215350592255882E-1    5.260473376139504E-1   -2.578356981640356E-3    9.982697864882558E-4   -2.571373728538519E-3    1.047149615579363E-3    2.586369976234815E-1    4.409026355926716E-1
 8.151459064600000E9     1.219235754368129E-1    5.259000130595254E-1   -2.591237175222074E-3    1.008663175166919E-3   -2.578802103875853E-3    1.045921224101493E-3    2.590789900744754E-1    4.406421200191216E-1
 8.151464680400000E9     1.222974342939017E-1    5.258596521375544E-1   -2.573197783153114E-3    1.009607823449726E-3   -2.591321239817714E-3    1.063165277235798E-3    2.593470370063239E-1    4.404092473993886E-1
 8.151470296200000E9     1.226570489915292E-1    5.257088735101429E-1   -2.583274455524950E-3    1.010384103422820E-3   -2.607982773764714E-3    1.080475942100218E-3    2.597277514521703E-1    4.402798265148931E-1
 8.151475912000000E9     1.229981271191472E-1    5.257311372976320E-1   -2.575322950908472E-3    1.051162037114467E-3   -2.596144266587010E-3    1.067594944564260E-3    2.600288838281405E-1    4.401285839600842E-1
 8.151481527800000E9     1.234471331512772E-1    5.256146759567639E-1   -2.570118554265301E-3    1.020931128356615E-3   -2.575443217927628E-3    1.043562906258763E-3    2.602248964742542E-1    4.399191955025022E-1
 8.151487143600000E9     1.238470683353875E-1    5.255817621319584E-1   -2.567532360794330E-3    1.017467767366047E-3   -2.602382479854262E-3    1.068942988402732E-3    2.606807917740883E-1    4.396590284662493E-1
 8.151492759400000E9     1.243336128745638E-1    5.255622149211598E-1   -2.558480762833958E-3    1.003319561465242E-3   -2.622211508139068E-3    1.063544708064469E-3    2.610975309581359E-1    4.394378762767827E-1
 8.151498375200000E9     1.246993372052575E-1    5.253752897621822E-1   -2.581096921029649E-3    1.006522191038509E-3   -2.612136281542345E-3    1.101844099185200E-3    2.612437084432066E-1    4.395138114377706E-1
 8.151503991000000E9     1.250416850459458E-1    5.253151468578570E-1   -2.600877293697732E-3    1.036096284209966E-3   -2.592312301132406E-3    1.088987711396115E-3    2.616503650293651E-1    4.390855876063577E-1
 8.151509606800000E9     1.253786616166704E-1    5.253196052469675E-1   -2.574149292284088E-3    1.040018371098325E-3   -2.597399376136641E-3    1.056584192363455E-3    2.618359539956283E-1    4.389572488077890E-1
 8.151515222600000E9     1.257482517805299E-1    5.251298671400333E-1   -2.593096985967819E-3    1.036368347803365E-3   -2.583546014366748E-3    1.090955898080816E-3    2.621120200700700E-1    4.387546122295420E-1
 8.151520838400000E9     1.261090164359978E-1    5.250471167447621E-1   -2.603500597505795E-3    1.038552862407739E-3   -2.590057843547254E-3    1.092169097760269E-3    2.625036460765244E-1    4.385861424622501E-1
 8.151526454200000E9     1.265496705861473E-1    5.249919476034346E-1   -2.589762913433010E-3    1.043883482701069E-3   -2.600014717246074E-3    1.076072898578266E-3    2.625888236138317E-1    4.384835669367973E-1
 8.151532070000000E9     1.270496802196507E-1    5.249654122775905E-1   -2.549598693084642E-3    1.051991329265246E-3   -2.592504637078860E-3    1.093071240013709E-3    2.629662958985047E-1    4.382563552044915E-1
 8.151537685800000E9     1.273596655474467E-1    5.249191877662899E-1   -2.586304908031750E-3    1.038306587557188E-3   -2.588725296749319E-3    1.099676135353063E-3    2.632947998342284E-1    4.378786434712240E-1
 8.151543301600000E9     1.277564178418878E-1    5.247004794915905E-1   -2.606480375988405E-3    1.049804179062141E-3   -2.613557873272807E-3    1.126117994960784E-3    2.637812122184714E-1    4.378414478206621E-1
 8.151548917400000E9     1.281203619118924E-1    5.246461885812511E-1   -2.579033616347134E-3    1.048299035406610E-3   -2.575464374593932E-3    1.099446421740526E-3    2.639036110951877E-1    4.376144983710572E-1
 8.151554533200000E9     1.284615130053142E-1    5.245949987980845E-1   -2.617859574784211E-3    1.056035017927860E-3   -2.605247337118675E-3    1.119568693393289E-3    2.642735971109111E-1    4.373058498535141E-1
 8.151560149000000E9     1.289094853319259E-1    5.244121563395560E-1   -2.595229140200774E-3    1.064548330848254E-3   -2.598815576890871E-3    1.128955353724989E-3    2.643821639027496E-1    4.372072107263815E-1
 8.151565764800000E9     1.293101338771749E-1    5.242943965602463E-1   -2.595322932020037E-3    1.073689649684801E-3   -2.589694564556823E-3    1.077004942816941E-3    2.649744861262273E-1    4.370611374027584E-1
 8.151571380600000E9     1.297059587897546E-1    5.242388273846841E-1   -2.624326462881740E-3    1.073732272837977E-3   -2.602465571055225E-3    1.104825029385053E-3    2.652595853405252E-1    4.368119823385442E-1
 8.151576996400000E9     1.300619799943913E-1    5.242769594022045E-1   -2.578348641941513E-3    1.073351143732475E-3   -2.591222671250852E-3    1.125396922095232E-3    2.654164161006456E-1    4.366515569965386E-1
 8.151582612200000E9     1.304680757550823E-1    5.240971706407398E-1   -2.578841436199078E-3    1.090849295364832E-3   -2.584534915725886E-3    1.106860960206537E-3    2.657823482727700E-1    4.364263280161974E-1
 8.151588228000000E9     1.309863811066751E-1    5.239185251581033E-1   -2.606427819981405E-3    1.097011540750274E-3   -2.613827057483164E-3    1.128378047918083E-3    2.661762020939050E-1    4.362974132886360E-1
 8.151593843800000E9     1.312077575468497E-1    5.239222186819587E-1   -2.601800817485207E-3    1.081351392728664E-3   -2.613367829550336E-3    1.137747329295805E-3    2.662276178897350E-1    4.362420911729896E-1
 8.151599459600000E9     1.316568127524573E-1    5.238521478368832E-1   -2.588404189931401E-3    1.058172407820959E-3   -2.591183994925774E-3    1.146424094062459E-3    2.667122930369383E-1    4.358104811175547E-1
 8.151605075400000E9     1.320006583230561E-1    5.237269713846984E-1   -2.610946513235146E-3    1.087941267437249E-3   -2.621897219865816E-3    1.122770515628449E-3    2.669113131491174E-1    4.357032817723806E-1
 8.151610691200000E9     1.324567835544858E-1    5.236290474626555E-1   -2.609648119421510E-3    1.116953371767155E-3   -2.611761661199481E-3    1.121238325373386E-3    2.672296230038616E-1    4.355192066231481E-1
 8.151616307000000E9     1.327650605065498E-1    5.237154550980813E-1   -2.617708324678857E-3    1.104800958402295E-3   -2.614999768815122E-3    1.132886972529196E-3    2.676880263765560E-1    4.352156229034461E-1
 8.151621922800000E9     1.331873465144693E-1    5.234787528809870E-1   -2.602370763267380E-3    1.085341726800393E-3   -2.607776830811374E-3    1.153822926868933E-3    2.678152809535989E-1    4.350801440544645E-1
 8.151627538600000E9     1.334905365506880E-1    5.233594068352463E-1   -2.597088230803781E-3    1.110372621121961E-3   -2.588162479747419E-3    1.134171954887434E-3    2.683221201395671E-1    4.348880871217755E-1
 8.151633154400000E9     1.340120838281242E-1    5.232929678371210E-1   -2.623833116387668E-3    1.105053382504293E-3   -2.603951778709814E-3    1.159178950646471E-3    2.685827651153055E-1    4.346064029540129E-1
 8.151638770200000E9     1.343794043679985E-1    5.231850703673429E-1   -2.639397785058458E-3    1.103853294453479E-3   -2.576663799204216E-3    1.160610664551113E-3    2.688118911296791E-1    4.344681129309536E-1
 8.151644386000000E9     1.348148459658612E-1    5.231240920669433E-1   -2.600133854483690E-3    1.121229921178509E-3   -2.590439649252130E-3    1.174908617856003E-3    2.692347407743632E-1    4.341551967189768E-1
 8.151650001800000E9     1.350753578810104E-1    5.230079346458343E-1   -2.617196230347894E-3    1.099472593752176E-3   -2.596129730266602E-3    1.168626169845367E-3    2.693908363026893E-1    4.341457816001517E-1
 8.151655617600000E9     1.355122566136884E-1    5.229065860165307E-1   -2.621988283713622E-3    1.128053797398646E-3   -2.637062160918584E-3    1.144181733004898E-3    2.697392565068863E-1    4.339456144083578E-1
 8.151661233400000E9     1.359713610912287E-1    5.229138297778901E-1   -2.593971443459684E-3    1.123995876341610E-3   -2.624655656473243E-3    1.153634530622873E-3    2.700350234338299E-1    4.338288812092286E-1
 8.151666849200000E9     1.362608517847549E-1    5.227600696444603E-1   -2.588518674140642E-3    1.128547462849258E-3   -2.623872076575895E-3    1.174898719670103E-3    2.704069891314130E-1    4.335435230607521E-1
 8.151672465000000E9     1.366773429989959E-1    5.225905285452668E-1   -2.623285338254165E-3    1.115674513595558E-3   -2.618799880868905E-3    1.192664397328343E-3    2.706101800400143E-1    4.334102642032507E-1
 8.151678080800000E9     1.369329892552258E-1    5.225892614788270E-1   -2.615009337126875E-3    1.127246226584314E-3   -2.614753888697152E-3    1.179792068548934E-3    2.709109674864562E-1    4.332118298570453E-1
 8.151683696600000E9     1.374533088813945E-1    5.224306169239358E-1   -2.611391023170352E-3    1.127820198602333E-3   -2.623392379122802E-3    1.199446867579085E-3    2.712145251137913E-1    4.329137161134100E-1
 8.151689312400000E9     1.380053707631071E-1    5.224052956515305E-1   -2.645039598121812E-3    1.151766797651155E-3   -2.620619895464225E-3    1.199919941372942E-3    2.714833229937068E-1    4.327548951192052E-1
 8.151694928200000E9     1.382936444143051E-1    5.222185366367965E-1   -2.622085497665280E-3    1.119829177491261E-3   -2.624247553132284E-3    1.153706245981259E-3    2.718459647552106E-1    4.326539417919131E-1
 8.151700544000000E9     1.386036419600482E-1    5.221676231128797E-1   -2.624745834746056E-3    1.144860594989211E-3   -2.634149000021934E-3    1.183639415903916E-3    2.720422305938925E-1    4.322712265041734E-1
 8.151706159800000E9     1.390619232049441E-1    5.221008651891730E-1   -2.620310950572282E-3    1.149251946922420E-3   -2.678713326623110E-3    1.198543744566721E-3    2.724370499998252E-1    4.321003632512335E-1
 8.151711775600000E9     1.394265862819767E-1    5.220175585758308E-1   -2.608049807204945E-3    1.162259250383029E-3   -2.635467136890199E-3    1.191096812775391E-3    2.726628015872389E-1    4.320176853884393E-1
 8.151717391400000E9     1.397894617214983E-1    5.217945654900341E-1   -2.667651741058371E-3    1.152981466256517E-3   -2.610968662583694E-3    1.222434117276834E-3    2.729555255250802E-1    4.316788559757272E-1
 8.151723007200000E9     1.403373422750409E-1    5.217377498863874E-1   -2.628748127718776E-3    1.158349300009852E-3   -2.639325542013413E-3    1.193264186045466E-3    2.733251339495159E-1    4.315570948175566E-1
 8.151728623000000E9     1.405395432322140E-1    5.216371140373731E-1   -2.655177784141887E-3    1.154507638913364E-3   -2.619885011328744E-3    1.188364230448825E-3    2.735858654935680E-1    4.314333797598245E-1
 8.151734238800000E9     1.409005692427067E-1    5.217049813237473E-1   -2.638059217323523E-3    1.152560640655572E-3   -2.606014365052681E-3    1.208608883664653E-3    2.738676476305308E-1    4.311641625293913E-1
 8.151739854600000E9     1.414689305102390E-1    5.213974149618613E-1   -2.638506468550932E-3    1.139357554702699E-3   -2.664743758803558E-3    1.220728196587780E-3    2.741932670177327E-1    4.309139849769411E-1
 8.151745470400000E9     1.419195543276036E-1    5.213512857218133E-1   -2.628883575259304E-3    1.171044362502249E-3   -2.668256918108886E-3    1.216384866262109E-3    2.745640537415159E-1    4.306914621290134E-1
 8.151751086200000E9     1.421764966832728E-1    5.212046140327372E-1   -2.641479438556962E-3    1.210194105138276E-3   -2.649109633476325E-3    1.224922085134716E-3    2.749348077816292E-1    4.305927857636927E-1
 8.151756702000000E9     1.425154789270500E-1    5.211812904183590E-1   -2.667507265671644E-3    1.190013409849287E-3   -2.663912827816167E-3    1.221476761144421E-3    2.750977439925129E-1    4.303278051536367E-1
 8.151762317800000E9     1.430667406799661E-1    5.210825709961011E-1   -2.659227786409926E-3    1.185317958324987E-3   -2.631272653748178E-3    1.218708883292340E-3    2.755060752387970E-1    4.302312655517916E-1
 8.151767933600000E9     1.433717557779696E-1    5.210575145446777E-1   -2.669426339869623E-3    1.178112132807310E-3   -2.649674727302267E-3    1.225180948843525E-3    2.756379967817174E-1    4.298289845791995E-1
 8.151773549400000E9     1.437460646096847E-1    5.209138180226356E-1   -2.648042186469064E-3    1.192651041360580E-3   -2.670762942177160E-3    1.236719860141966E-3    2.760808103805256E-1    4.297934390069262E-1
 8.151779165200000E9     1.440923653291762E-1    5.207854486745358E-1   -2.658989043927133E-3    1.204038364310916E-3   -2.652767151934294E-3    1.254144202279645E-3    2.762084078948431E-1    4.297006642101612E-1
 8.151784781000000E9     1.444700072729321E-1    5.207735462651315E-1   -2.675578862955009E-3    1.211730479714639E-3   -2.665764035421173E-3    1.239248610211456E-3    2.764853744979404E-1    4.294363977310532E-1
