#  HZ   S   RI   R     50.00 
! Rohde & Schwarz Vector Network Analyzer 
! Rohde-Schwarz,ZNB20-2Port,1311601062101988,3.16
! Created: UTC 3/21/2024, 12:52:47 AM
! freq[Hz]                re:S11                  im:S11                  re:S21                  im:S21                  re:S12                  im:S12                  re:S22                  im:S22
 8.151206523000000E9     1.195115443969126E-1    5.300044420920590E-1   -2.807187407536609E-3    1.122258903286329E-3   -2.781997279282904E-3    1.164665250977726E-3    2.645006880315725E-1    4.408408491491403E-1
 8.151209195275000E9     1.197151792504006E-1    5.299251936882591E-1   -2.793052455073780E-3    1.148028896410483E-3   -2.812319648721612E-3    1.193250561625814E-3    2.646331551146093E-1    4.406123232934043E-1
 8.151211867550000E9     1.200299739539949E-1    5.299334986371916E-1   -2.821316375477044E-3    1.133754865814111E-3   -2.820225191807259E-3    1.163422842958130E-3    2.649157654394496E-1    4.405627241041600E-1
 8.151214539825000E9     1.202487416870967E-1    5.299264026420143E-1   -2.806366556727976E-3    1.135683953029548E-3   -2.836350414211512E-3    1.184443293206758E-3    2.650110669945167E-1    4.406111119167104E-1
 8.151217212100000E9     1.203803156107989E-1    5.298762838537171E-1   -2.817285938053345E-3    1.139121778563494E-3   -2.806643883554455E-3    1.200582998302917E-3    2.650864722188031E-1    4.404201863225178E-1
 8.151219884375000E9     1.206246267190824E-1    5.299458818797459E-1   -2.790078452731367E-3    1.128086129873303E-3   -2.821237785115551E-3    1.189118986410679E-3    2.652526496944589E-1    4.403368912629842E-1
 8.151222556650000E9     1.209205996547588E-1    5.299063092556670E-1   -2.817124478816304E-3    1.148185168287318E-3   -2.829581480352309E-3    1.167282579302691E-3    2.654466528990477E-1    4.403276057604308E-1
 8.151225228925000E9     1.209943180145123E-1    5.297761929279559E-1   -2.816661908286161E-3    1.153275364381557E-3   -2.828318132520633E-3    1.195472780527807E-3    2.656687345039013E-1    4.401302758542505E-1
 8.151227901200000E9     1.212352310227918E-1    5.297268590570923E-1   -2.838152378396182E-3    1.130282994380282E-3   -2.834473612009178E-3    1.186217110663334E-3    2.657407191806520E-1    4.399140227667463E-1
 8.151230573475000E9     1.214678698423137E-1    5.295903598635570E-1   -2.811985178045776E-3    1.163721595383340E-3   -2.829027911819795E-3    1.202522555168403E-3    2.658631674807994E-1    4.399685396301236E-1
 8.151233245750000E9     1.215681817285114E-1    5.295846166803803E-1   -2.836646756335615E-3    1.147387608484221E-3   -2.807989134902325E-3    1.182134243107110E-3    2.660605807661480E-1    4.398276233318983E-1
 8.151235918025000E9     1.218709353978077E-1    5.295059440653935E-1   -2.836960153882976E-3    1.170798255320684E-3   -2.846262343447594E-3    1.202857306133342E-3    2.661346101747783E-1    4.398282831114104E-1
 8.151238590300000E9     1.220644575481351E-1    5.296117774963677E-1   -2.836482149640933E-3    1.133543350582741E-3   -2.829278357085649E-3    1.199629000624500E-3    2.663341413170463E-1    4.395811057401704E-1
 8.151241262575000E9     1.222766157742505E-1    5.295097481980053E-1   -2.817400370708731E-3    1.135018969833733E-3   -2.820447425704486E-3    1.228896157004099E-3    2.663902641391483E-1    4.395919390135750E-1
 8.151243934850000E9     1.224464805391517E-1    5.294817318416064E-1   -2.838938162114565E-3    1.164629563651861E-3   -2.833384733426959E-3    1.188681726426525E-3    2.667049557626807E-1    4.395532748404300E-1
 8.151246607125000E9     1.226686607921853E-1    5.294170915458565E-1   -2.871430357939370E-3    1.167496767406892E-3   -2.837556569050139E-3    1.196127832478443E-3    2.667823271252651E-1    4.394104012915006E-1
 8.151249279400000E9     1.228587574515253E-1    5.293255320907476E-1   -2.838778827332420E-3    1.163975144048478E-3   -2.850621851306869E-3    1.219202859208500E-3    2.668404451997510E-1    4.394105877242325E-1
 8.151251951675000E9     1.229321956110847E-1    5.292537433178330E-1   -2.842873047985799E-3    1.158737819267511E-3   -2.860132987605792E-3    1.201173632207133E-3    2.671043220451025E-1    4.392740416546482E-1
 8.151254623950000E9     1.231302141538209E-1    5.293404789733660E-1   -2.857930491699557E-3    1.179056117532285E-3   -2.854117134489696E-3    1.240174691430848E-3    2.672088909838468E-1    4.390943365177866E-1
 8.151257296225000E9     1.233322568971415E-1    5.293130606486994E-1   -2.830299101463247E-3    1.185336032802707E-3   -2.863418518374286E-3    1.216683003688604E-3    2.674165735052961E-1    4.390796617195016E-1
 8.151259968500000E9     1.235767797434783E-1    5.291319350816924E-1   -2.860401004718374E-3    1.171186918589291E-3   -2.874336235161823E-3    1.223531150225871E-3    2.675434595269497E-1    4.389482924127548E-1
 8.151262640775000E9     1.238043253003996E-1    5.291432639291018E-1   -2.828279343596849E-3    1.190799217416460E-3   -2.874903633512324E-3    1.245058927498610E-3    2.674976704671495E-1    4.388319151172046E-1
 8.151265313050000E9     1.239634278866640E-1    5.289787014766648E-1   -2.812457675511593E-3    1.175727008255252E-3   -2.854252477380537E-3    1.236385718415814E-3    2.678818449696147E-1    4.387379493152754E-1
 8.151267985325000E9     1.242232987869696E-1    5.291861546229073E-1   -2.848569050197172E-3    1.172658744279604E-3   -2.862424765128454E-3    1.255111514495378E-3    2.679794077450290E-1    4.387754243083771E-1
 8.151270657600000E9     1.244195095474860E-1    5.290599631252690E-1   -2.860143260608410E-3    1.176201635567035E-3   -2.850893784923749E-3    1.229242805764526E-3    2.680005861396860E-1    4.385070860770365E-1
 8.151273329875000E9     1.247244995024521E-1    5.290459821972358E-1   -2.861011147455023E-3    1.204823001950073E-3   -2.860247969609390E-3    1.208799509438645E-3    2.681812008531220E-1    4.384699280401363E-1
 8.151276002150000E9     1.247372052657473E-1    5.288744892469268E-1   -2.887422183196950E-3    1.160269409145571E-3   -2.881023467051884E-3    1.236228352218669E-3    2.683003106554145E-1    4.383524335840226E-1
 8.151278674425000E9     1.249747552006532E-1    5.289061738877878E-1   -2.851843251238534E-3    1.189695439549044E-3   -2.883802976443011E-3    1.276642796691218E-3    2.686737272666755E-1    4.383702893853441E-1
 8.151281346700000E9     1.253624376979716E-1    5.288011851599549E-1   -2.866639332503128E-3    1.183690968149957E-3   -2.881722174238193E-3    1.265425062195644E-3    2.685952658875997E-1    4.381407472227967E-1
 8.151284018975000E9     1.254725144620897E-1    5.287977818921284E-1   -2.859703887190818E-3    1.216220858109548E-3   -2.883922882812146E-3    1.271197751564175E-3    2.688015379539134E-1    4.381590299371743E-1
 8.151286691250000E9     1.255909835100168E-1    5.288118503603879E-1   -2.868829636226952E-3    1.236411417692004E-3   -2.878025278540224E-3    1.260959268238433E-3    2.689555600394196E-1    4.378190100926824E-1
 8.151289363525000E9     1.258401127042260E-1    5.287201414235910E-1   -2.882025367631395E-3    1.209905317692332E-3   -2.892471591599613E-3    1.266482236851864E-3    2.690959697006540E-1    4.379441770468278E-1
 8.151292035800000E9     1.259516331616970E-1    5.285938950842428E-1   -2.852581752265961E-3    1.219115103541200E-3   -2.873237231938135E-3    1.264170020005902E-3    2.692244625110819E-1    4.377526341195998E-1
 8.151294708075000E9     1.262505038560182E-1    5.286261721325559E-1   -2.902206486840801E-3    1.199445150555606E-3   -2.888229410460871E-3    1.246540304814247E-3    2.693361023461656E-1    4.376984280532740E-1
 8.151297380350000E9     1.264351696526717E-1    5.286356959305432E-1   -2.900133380351235E-3    1.216483579486480E-3   -2.879281821685377E-3    1.246613455992416E-3    2.696168373304614E-1    4.375753786502278E-1
 8.151300052625000E9     1.265962568394705E-1    5.285274680894004E-1   -2.899339711796055E-3    1.223897613044380E-3   -2.915570389637335E-3    1.260483351540825E-3    2.697085794937150E-1    4.375275658806858E-1
 8.151302724900000E9     1.267911803474116E-1    5.285554482052521E-1   -2.914540378229206E-3    1.193724341157375E-3   -2.899555543728790E-3    1.285212803789411E-3    2.698710370520435E-1    4.373428867528714E-1
 8.151305397175000E9     1.270572669934702E-1    5.282777557136098E-1   -2.914807254351622E-3    1.210518226372286E-3   -2.915644586726251E-3    1.255320487759107E-3    2.699380425827199E-1    4.374191739788575E-1
 8.151308069450000E9     1.272603097396255E-1    5.284580734825690E-1   -2.885657383147084E-3    1.215551564456274E-3   -2.911576649016817E-3    1.295120132988758E-3    2.699930491225107E-1    4.373466163976344E-1
 8.151310741725000E9     1.274369976062548E-1    5.283253196938255E-1   -2.886664569270253E-3    1.213050914082844E-3   -2.926793221041192E-3    1.287361014641846E-3    2.702890425175351E-1    4.370542932813541E-1
 8.151313414000000E9     1.275186048514098E-1    5.282674657076851E-1   -2.871783223210605E-3    1.239437045264613E-3   -2.932546306785742E-3    1.288852818805628E-3    2.703504065133794E-1    4.371774944504346E-1
 8.151316086275000E9     1.278440000689548E-1    5.282577707291713E-1   -2.911456082419435E-3    1.257501589833032E-3   -2.908044294612364E-3    1.315326826718621E-3    2.706464355644431E-1    4.368994830489316E-1
 8.151318758550000E9     1.279972999043119E-1    5.281375585280089E-1   -2.905372990398477E-3    1.234021345045730E-3   -2.915372769883154E-3    1.318468616870496E-3    2.707565773118226E-1    4.369761850552509E-1
 8.151321430825000E9     1.282187377870713E-1    5.280899639434494E-1   -2.914338686355248E-3    1.250149274179898E-3   -2.897952106195803E-3    1.265165267522877E-3    2.707795456451847E-1    4.366606620128578E-1
 8.151324103100000E9     1.284468649075445E-1    5.281328034015825E-1   -2.907497173162329E-3    1.241357181484762E-3   -2.917424233721900E-3    1.306758988605013E-3    2.709909906063295E-1    4.367235886445551E-1
 8.151326775375000E9     1.286611192877684E-1    5.280228848442218E-1   -2.915332979188748E-3    1.250137063957425E-3   -2.941484581958577E-3    1.309252196446363E-3    2.710830176483467E-1    4.365215678732263E-1
 8.151329447650000E9     1.288377907506383E-1    5.280323371607609E-1   -2.906077625249693E-3    1.262960040779152E-3   -2.930029126504191E-3    1.309229010617525E-3    2.714607804820045E-1    4.364462666703667E-1
 8.151332119925000E9     1.289650978934485E-1    5.279709261273853E-1   -2.914208161013281E-3    1.258970082856276E-3   -2.952497724031703E-3    1.301530402685521E-3    2.714070385097138E-1    4.363684420946966E-1
 8.151334792200000E9     1.291879377363632E-1    5.279114957096644E-1   -2.946230446846988E-3    1.271698510492385E-3   -2.922288062809453E-3    1.320420841104477E-3    2.715027580325460E-1    4.363480820199965E-1
 8.151337464475000E9     1.293656450698628E-1    5.278196169730506E-1   -2.935647008061298E-3    1.260443239851667E-3   -2.957368840269310E-3    1.318310189324722E-3    2.716735911592242E-1    4.362380466309497E-1
 8.151340136750000E9     1.295365784309829E-1    5.278258487570556E-1   -2.951001574902638E-3    1.265892629914436E-3   -2.929457560656620E-3    1.320978127568143E-3    2.719436016869426E-1    4.362201707847786E-1
 8.151342809025000E9     1.298201328262331E-1    5.277557194399672E-1   -2.916436578457038E-3    1.275240501771742E-3   -2.925892589094331E-3    1.339419979322635E-3    2.720154698408001E-1    4.361018005251546E-1
 8.151345481300000E9     1.299522368742985E-1    5.276256577476039E-1   -2.946212689939682E-3    1.274746134958565E-3   -2.963882940151482E-3    1.344820320122688E-3    2.722008644604774E-1    4.359090910398293E-1
 8.151348153575000E9     1.300553422494252E-1    5.276083890198069E-1   -2.938282973040168E-3    1.280262807429971E-3   -2.972075376207469E-3    1.325163670856204E-3    2.723446105276700E-1    4.357599562975454E-1
 8.151350825850000E9     1.303417748329961E-1    5.276376691499959E-1   -2.950214350462536E-3    1.277119181760865E-3   -2.954285119473019E-3    1.313791079649858E-3    2.723558842268176E-1    4.357684708813359E-1
 8.151353498125000E9     1.305846266404551E-1    5.274290974335882E-1   -2.970136361650082E-3    1.289645586495281E-3   -2.952953345599483E-3    1.340840468376211E-3    2.725171374982238E-1    4.358470424025673E-1
 8.151356170400000E9     1.309027467004101E-1    5.274823377581315E-1   -2.960496963745350E-3    1.279866089774318E-3   -2.939601476477621E-3    1.363953189346713E-3    2.728343290648661E-1    4.355210574556134E-1
 8.151358842675000E9     1.310023435017372E-1    5.273656228169273E-1   -2.941968462762228E-3    1.272150858538557E-3   -2.964628638834852E-3    1.326458965209059E-3    2.728716863165965E-1    4.353133647640795E-1
 8.151361514950000E9     1.311737680518098E-1    5.273260101960160E-1   -2.928220564525040E-3    1.291980974541187E-3   -2.964603251168461E-3    1.360801599646005E-3    2.730883387171421E-1    4.353001382304774E-1
 8.151364187225000E9     1.314368681560597E-1    5.274344308819804E-1   -2.974279791998879E-3    1.281806383473974E-3   -2.982603265961024E-3    1.361962875366203E-3    2.731718141755526E-1    4.353948338090810E-1
 8.151366859500000E9     1.316551835366811E-1    5.272648014140711E-1   -2.957774297986922E-3    1.303547342277348E-3   -2.982082209360019E-3    1.370981673561578E-3    2.733068138415761E-1    4.351314805941356E-1
 8.151369531775000E9     1.318231432604417E-1    5.272393154498374E-1   -2.965129551319539E-3    1.323345223973546E-3   -2.988334772077892E-3    1.354447952867989E-3    2.734992236601081E-1    4.351786738379429E-1
 8.151372204050000E9     1.321112899869078E-1    5.271221424436766E-1   -2.968083380135684E-3    1.328056518812718E-3   -2.987704223664568E-3    1.368537572634546E-3    2.735141271492603E-1    4.349425994322207E-1
 8.151374876325000E9     1.323259157126067E-1    5.272452081543300E-1   -2.978448307395193E-3    1.310112926643957E-3   -2.965183435012805E-3    1.394372836890278E-3    2.737853595690138E-1    4.349080255606470E-1
 8.151377548600000E9     1.324600278735644E-1    5.271187921804108E-1   -3.020879602586452E-3    1.333497896494252E-3   -3.015587156745157E-3    1.369142552985566E-3    2.739605666572099E-1    4.347537644016432E-1
 8.151380220875000E9     1.326335719580809E-1    5.270206954157012E-1   -2.995163985466582E-3    1.337103041778129E-3   -2.963162149867031E-3    1.349448294156062E-3    2.742190085682039E-1    4.346855606760825E-1
 8.151382893150000E9     1.329701979385471E-1    5.270177562210652E-1   -3.005447349556050E-3    1.325260657455949E-3   -2.993442311539253E-3    1.384894991286939E-3    2.740513355136109E-1    4.345189041981501E-1
 8.151385565425000E9     1.331126735582310E-1    5.269758843540963E-1   -3.000684879408944E-3    1.320872624378907E-3   -3.024645637289690E-3    1.382382021424060E-3    2.743568917608150E-1    4.345177519551567E-1
 8.151388237700000E9     1.333509818586430E-1    5.269800805926989E-1   -2.995383042323104E-3    1.328125466968182E-3   -2.976455115445598E-3    1.396674576579224E-3    2.745141161410073E-1    4.344280131098075E-1
 8.151390909975000E9     1.334420378197592E-1    5.266733681246463E-1   -3.020889043295468E-3    1.331373936572040E-3   -3.013795105823088E-3    1.370018133751344E-3    2.746741562629053E-1    4.342324873449920E-1
 8.151393582250000E9     1.337426787986696E-1    5.268357205871563E-1   -3.000251864736913E-3    1.337923260865998E-3   -3.034416139817698E-3    1.422389041777097E-3    2.747142718727112E-1    4.342273022874453E-1
 8.151396254525000E9     1.338776844738939E-1    5.266065393389716E-1   -3.014468430431844E-3    1.379443977456180E-3   -3.003745665598231E-3    1.389416250105784E-3    2.748693367559454E-1    4.340979799886210E-1
 8.151398926800000E9     1.340815781203883E-1    5.266940686700700E-1   -3.013428093428136E-3    1.345379824854989E-3   -3.031930763490939E-3    1.417519308010515E-3    2.749783992084394E-1    4.339927323246501E-1
 8.151401599075000E9     1.343999333205476E-1    5.266515492853585E-1   -3.003941638491403E-3    1.370726373477336E-3   -3.016863859330133E-3    1.434333718240267E-3    2.754612249951637E-1    4.340308041556905E-1
 8.151404271350000E9     1.344709920278457E-1    5.265824330633375E-1   -3.034197249636114E-3    1.376161128622687E-3   -3.005642489296318E-3    1.445368149946640E-3    2.753697573977500E-1    4.337579487358553E-1
 8.151406943625000E9     1.348169270000930E-1    5.264898393550422E-1   -3.035862813880495E-3    1.377361458795292E-3   -3.065313005128867E-3    1.429665601937510E-3    2.755832964592587E-1    4.337007419618471E-1
 8.151409615900000E9     1.350609058732230E-1    5.265538188832283E-1   -3.026391981700850E-3    1.381897223591972E-3   -3.043970432657292E-3    1.422807941091373E-3    2.756570539070478E-1    4.337397067905745E-1
 8.151412288175000E9     1.351621202488013E-1    5.263855274915089E-1   -3.029609050432740E-3    1.363498488187584E-3   -3.023771968217965E-3    1.428633301872048E-3    2.757004897214881E-1    4.334735442758792E-1
 8.151414960450000E9     1.354632466671775E-1    5.263502698058438E-1   -3.050764450880630E-3    1.375360247635753E-3   -3.042962445836183E-3    1.447127504220134E-3    2.760068512268038E-1    4.334795843841410E-1
 8.151417632725000E9     1.355422654223552E-1    5.263072568972930E-1   -3.063616931636496E-3    1.393486262655791E-3   -3.063943999661698E-3    1.478924946204417E-3    2.760832654507810E-1    4.332689331131861E-1
 8.151420305000000E9     1.358737364587868E-1    5.261853794551300E-1   -3.055454288548742E-3    1.406381308788061E-3   -3.075803633363215E-3    1.450999049384579E-3    2.762123081756541E-1    4.332977518460853E-1
 8.151422977275000E9     1.360131275026141E-1    5.261678099635975E-1   -3.073590107292678E-3    1.413175523213801E-3   -3.064277396424026E-3    1.451356923263003E-3    2.762852574677833E-1    4.332285379937628E-1
 8.151425649550000E9     1.361668289200492E-1    5.260713694303873E-1   -3.036687373659122E-3    1.412645679018130E-3   -3.053949610218953E-3    1.445685990850453E-3    2.765102667875148E-1    4.330777898465444E-1
 8.151428321825000E9     1.364030155140755E-1    5.259172927187639E-1   -3.085155457333696E-3    1.414644399459800E-3   -3.096636847599887E-3    1.494595370648830E-3    2.766485945484087E-1    4.329901742492701E-1
 8.151430994100000E9     1.366459829159639E-1    5.259511121508763E-1   -3.047572036829615E-3    1.418906418798789E-3   -3.082248129526010E-3    1.472784965018938E-3    2.767285867845713E-1    4.329948939790468E-1
 8.151433666375000E9     1.368149960213933E-1    5.258937919616623E-1   -3.073082557828438E-3    1.405861769007906E-3   -3.062202316208378E-3    1.478759084494684E-3    2.769268007542273E-1    4.327555265082766E-1
 8.151436338650000E9     1.370499352515710E-1    5.258663686389810E-1   -3.062294722646525E-3    1.434512418508838E-3   -3.110526689598683E-3    1.495380289601665E-3    2.771449293896929E-1    4.327019146504644E-1
 8.151439010925000E9     1.371921162503925E-1    5.257089207771942E-1   -3.101282842905145E-3    1.439638243322325E-3   -3.097528902708971E-3    1.496116334899661E-3    2.771783484820211E-1    4.325358125266024E-1
 8.151441683200000E9     1.374410957131223E-1    5.257430619449747E-1   -3.090824872797962E-3    1.450342419105185E-3   -3.103059114783624E-3    1.511356121930655E-3    2.774253830490505E-1    4.324526790300399E-1
 8.151444355475000E9     1.377047951384542E-1    5.256770389497457E-1   -3.108886849727293E-3    1.440943715513062E-3   -3.109622602180125E-3    1.502240137615620E-3    2.774030211150734E-1    4.323714062915273E-1
 8.151447027750000E9     1.379225866537955E-1    5.256050429983909E-1   -3.113686028980852E-3    1.443697270680127E-3   -3.116847678178031E-3    1.498820037478705E-3    2.776643765214292E-1    4.322742289298000E-1
