#  HZ   S   RI   R     50.00 
! Rohde & Schwarz Vector Network Analyzer 
! Rohde-Schwarz,ZNB20-2Port,1311601062101988,3.16
! Created: UTC 3/21/2024, 1:15:52 AM
! freq[Hz]                re:S11                  im:S11                  re:S21                  im:S21                  re:S12                  im:S12                  re:S22                  im:S22
 8.151350937000000E9     1.140384049287145E-1    5.274792822753175E-1   -2.560296942661077E-3    9.574486706752356E-4   -2.585601190701945E-3    1.009754974869141E-3    2.531277271655955E-1    4.443436826636130E-1
 8.151356287150000E9     1.145024080476805E-1    5.275384708876282E-1   -2.562779338890791E-3    9.405281189347114E-4   -2.576559627790337E-3    9.993381961425423E-4    2.534174446558919E-1    4.442940148995153E-1
 8.151361637300000E9     1.148575493477856E-1    5.273525054121374E-1   -2.559386259807664E-3    9.433305702962049E-4   -2.562086930215367E-3    1.001158635583666E-3    2.535762691656274E-1    4.439685759043636E-1
 8.151366987450000E9     1.151801698610380E-1    5.273991451200092E-1   -2.574866464164206E-3    9.394377906667002E-4   -2.578487381809868E-3    9.899642428061451E-4    2.539518267820832E-1    4.439579841125344E-1
 8.151372337600000E9     1.156480616148899E-1    5.272656819137882E-1   -2.557298497820454E-3    9.465379378662634E-4   -2.557703191077123E-3    1.019130601219337E-3    2.541106553679852E-1    4.436616598124084E-1
 8.151377687750000E9     1.160620674918972E-1    5.272253503737397E-1   -2.568385502312367E-3    9.574165365989204E-4   -2.584292244698147E-3    1.011263975684627E-3    2.545068040403666E-1    4.435316948279642E-1
 8.151383037900000E9     1.164216307806405E-1    5.271028258974466E-1   -2.574051565999932E-3    9.863186194623069E-4   -2.567943604788643E-3    1.034796110715127E-3    2.548372165439975E-1    4.432704634138749E-1
 8.151388388050000E9     1.168270553964877E-1    5.271671489460116E-1   -2.596494394999973E-3    9.716596573368457E-4   -2.592493841587248E-3    1.020541455441449E-3    2.550598996155969E-1    4.431951430170224E-1
 8.151393738200000E9     1.171874962220427E-1    5.269838765391716E-1   -2.565892841350576E-3    9.929183782447554E-4   -2.597351452341222E-3    1.014294620397635E-3    2.551984736699608E-1    4.428689514589244E-1
 8.151399088350000E9     1.176048550576912E-1    5.269598473637492E-1   -2.573019138052789E-3    9.908990263257831E-4   -2.579813522545330E-3    1.034341364442791E-3    2.555856932306623E-1    4.427878774438613E-1
 8.151404438500000E9     1.178558252582190E-1    5.269059251550435E-1   -2.568667149335650E-3    9.910430599490124E-4   -2.566048134840494E-3    1.035812214352936E-3    2.559806713867008E-1    4.425691485444526E-1
 8.151409788650000E9     1.183742153268401E-1    5.267159075792489E-1   -2.564254289682651E-3    9.838777424603046E-4   -2.574899868879542E-3    1.025324791159526E-3    2.563389088997770E-1    4.424446402114445E-1
 8.151415138800000E9     1.186468765111744E-1    5.267033474325661E-1   -2.549484540428334E-3    9.996576241317785E-4   -2.564139462874026E-3    1.025799648825701E-3    2.564906391096440E-1    4.422684647640169E-1
 8.151420488950000E9     1.190363387213276E-1    5.265253403069152E-1   -2.587351674902657E-3    9.827497853160643E-4   -2.566697195348399E-3    1.032670699012423E-3    2.567937988414617E-1    4.422062141906474E-1
 8.151425839100000E9     1.193820432412750E-1    5.264862500422681E-1   -2.564879037990680E-3    9.986455195506276E-4   -2.577305697766194E-3    1.036615667336433E-3    2.569083410391715E-1    4.418622364369256E-1
 8.151431189250000E9     1.197916248271380E-1    5.264821500015898E-1   -2.589116183195067E-3    9.854642347620823E-4   -2.591168680020685E-3    1.027847683453142E-3    2.573052039380922E-1    4.417793629618030E-1
 8.151436539400000E9     1.200996507517573E-1    5.263668250996388E-1   -2.578326513965845E-3    1.009053443557839E-3   -2.567808281087986E-3    1.031196999957097E-3    2.576923502204473E-1    4.415362931565104E-1
 8.151441889550000E9     1.204825578799186E-1    5.262008432973877E-1   -2.596108179685955E-3    1.009159719358130E-3   -2.605949459271313E-3    1.048429451677485E-3    2.580535894903384E-1    4.413484892623850E-1
 8.151447239700000E9     1.209134494060749E-1    5.262274105112907E-1   -2.597761474263956E-3    1.001381276890696E-3   -2.566420812551968E-3    1.054746143612435E-3    2.582893140522297E-1    4.412757105814464E-1
 8.151452589850000E9     1.211614734260524E-1    5.261299524790117E-1   -2.566724525584026E-3    1.028062661114694E-3   -2.598480044693413E-3    1.059245526809419E-3    2.586161486786710E-1    4.409697023932737E-1
 8.151457940000000E9     1.216723437743690E-1    5.260288161098688E-1   -2.567719301479596E-3    1.003810220158674E-3   -2.587937059152134E-3    1.068488712383708E-3    2.589659396580212E-1    4.409027882366821E-1
 8.151463290150000E9     1.220211049148013E-1    5.259399789144567E-1   -2.578331842010890E-3    9.909943829289581E-4   -2.579302925137997E-3    1.031239388963016E-3    2.590411773035363E-1    4.406603587158727E-1
 8.151468640300000E9     1.224361060210968E-1    5.258964797019607E-1   -2.600643572857800E-3    1.037426044292825E-3   -2.592956078773912E-3    1.063738178019394E-3    2.595481231125086E-1    4.406352649341288E-1
 8.151473990450000E9     1.227625222004718E-1    5.258630772190209E-1   -2.612799026816270E-3    1.008453786013530E-3   -2.585889777246254E-3    1.031531089797266E-3    2.597222802455309E-1    4.402217216456721E-1
 8.151479340600000E9     1.231129099944929E-1    5.257078317756219E-1   -2.575471032897538E-3    9.897956773909232E-4   -2.563224847002346E-3    1.058400855459794E-3    2.602166690170279E-1    4.400345719116025E-1
 8.151484690750000E9     1.235287460818524E-1    5.256531799652683E-1   -2.596760779966572E-3    1.000857522609291E-3   -2.592926349677420E-3    1.038361854146220E-3    2.602591040786044E-1    4.398952636780867E-1
 8.151490040900000E9     1.240502694401459E-1    5.255232175634159E-1   -2.594219883561576E-3    1.026496174090015E-3   -2.543735472471902E-3    1.067595342913783E-3    2.606159698468422E-1    4.398507349141375E-1
 8.151495391050000E9     1.242633887505075E-1    5.254464305675426E-1   -2.565044892846020E-3    1.018919416435246E-3   -2.580988482407061E-3    1.048421581367899E-3    2.609110323015841E-1    4.395046946097129E-1
 8.151500741200000E9     1.246103166906878E-1    5.254119040333354E-1   -2.593578533376194E-3    1.025380796282031E-3   -2.616861022230039E-3    1.087972484225734E-3    2.612383895199593E-1    4.394509999871554E-1
 8.151506091350000E9     1.249321623774752E-1    5.253773552222202E-1   -2.587026546344203E-3    1.025119780846197E-3   -2.600848116439146E-3    1.101480189969082E-3    2.614916348544707E-1    4.392196662831243E-1
 8.151511441500000E9     1.252929507958643E-1    5.253067572778735E-1   -2.589393677195919E-3    1.023191492899959E-3   -2.572825674564572E-3    1.098165759672466E-3    2.616986161556871E-1    4.390865168255365E-1
 8.151516791650000E9     1.257656826691424E-1    5.251097159703676E-1   -2.584358003010709E-3    1.021614956187900E-3   -2.579989600921597E-3    1.064146593613655E-3    2.621981820153384E-1    4.388509887583369E-1
 8.151522141800000E9     1.260427568483039E-1    5.251576486027990E-1   -2.595157857519726E-3    1.049180183202913E-3   -2.606069938415010E-3    1.079119250141488E-3    2.623294852742209E-1    4.386445724907251E-1
 8.151527491950000E9     1.263945442496642E-1    5.249441604272239E-1   -2.592638194405645E-3    1.051652644549955E-3   -2.623181993115118E-3    1.096555093236422E-3    2.626771378760812E-1    4.385266105847073E-1
 8.151532842100000E9     1.269674226751089E-1    5.249288852735842E-1   -2.598616682975346E-3    1.021859451496005E-3   -2.575872079636253E-3    1.089378735027411E-3    2.628791363690526E-1    4.382549102122629E-1
 8.151538192250000E9     1.272800036796592E-1    5.248392132711092E-1   -2.581899426704816E-3    1.046761977032570E-3   -2.601143710675963E-3    1.085982730726678E-3    2.633027177595473E-1    4.380204795579807E-1
 8.151543542400000E9     1.276846201037799E-1    5.247859786728434E-1   -2.609330380539182E-3    1.037883652426565E-3   -2.584693379065677E-3    1.111465169699459E-3    2.635693916614796E-1    4.380041388658704E-1
 8.151548892550000E9     1.279351873226563E-1    5.247199901218150E-1   -2.615539985135647E-3    1.032083529877317E-3   -2.622725277202603E-3    1.097955626012247E-3    2.637961673677326E-1    4.378641786901054E-1
 8.151554242700000E9     1.282594574377662E-1    5.246203310222068E-1   -2.595368096090990E-3    1.079762032179802E-3   -2.605383095296876E-3    1.081708274982650E-3    2.640886858920806E-1    4.376352346891246E-1
 8.151559592850000E9     1.286684312121877E-1    5.245829748606083E-1   -2.604778282701491E-3    1.058539932624006E-3   -2.599569776837132E-3    1.126060170000483E-3    2.644714298154039E-1    4.373091780827419E-1
 8.151564943000000E9     1.289631058798095E-1    5.243533703994091E-1   -2.600986858459334E-3    1.042693121655875E-3   -2.586951114987827E-3    1.116911831834592E-3    2.647173627184787E-1    4.372283288710153E-1
 8.151570293150000E9     1.295316321762595E-1    5.243392982379442E-1   -2.616710193455050E-3    1.090720719052149E-3   -2.594307047319139E-3    1.094764840071073E-3    2.650622685355231E-1    4.369534992224768E-1
 8.151575643300000E9     1.298278600264440E-1    5.242304629114390E-1   -2.594850982423284E-3    1.066288984194610E-3   -2.596528550391000E-3    1.120605365877605E-3    2.652930976675157E-1    4.367754222000311E-1
 8.151580993450000E9     1.300937511470767E-1    5.242165925350895E-1   -2.602835237219350E-3    1.092982954804297E-3   -2.630665478091915E-3    1.128651736216061E-3    2.655545403891368E-1    4.366939523399880E-1
 8.151586343600000E9     1.305355157310432E-1    5.239683496510280E-1   -2.611544256722804E-3    1.070863550482217E-3   -2.633702494036297E-3    1.104864404147191E-3    2.659213035224238E-1    4.364460149650911E-1
 8.151591693750000E9     1.309445923718769E-1    5.239790478082827E-1   -2.613707083177962E-3    1.071487827129923E-3   -2.611383538197991E-3    1.142015616800662E-3    2.661590918101532E-1    4.362757701443199E-1
 8.151597043900000E9     1.313385717180619E-1    5.239158066178076E-1   -2.600845346818639E-3    1.077686888738198E-3   -2.623046817207816E-3    1.109462839211902E-3    2.663711798751020E-1    4.360071154950372E-1
 8.151602394050000E9     1.315803790542367E-1    5.237886365735950E-1   -2.619257123757038E-3    1.074302164039563E-3   -2.582380615568300E-3    1.111575402784600E-3    2.667629574141119E-1    4.358687834436339E-1
 8.151607744200000E9     1.320062293719809E-1    5.237062735482028E-1   -2.603233162609749E-3    1.065811183791161E-3   -2.607897301786146E-3    1.137809637992823E-3    2.670106801658225E-1    4.356310076605722E-1
 8.151613094350000E9     1.322833044405449E-1    5.235860202186651E-1   -2.600010081452480E-3    1.081413280487584E-3   -2.611675082580343E-3    1.162201938724980E-3    2.672911991139725E-1    4.356389963656916E-1
 8.151618444500000E9     1.328504189157048E-1    5.235425126383925E-1   -2.609015932376253E-3    1.099607670107052E-3   -2.632446382839135E-3    1.146362045016101E-3    2.676193324677293E-1    4.352210318886229E-1
 8.151623794650000E9     1.332098040421330E-1    5.235190655905451E-1   -2.612820050454946E-3    1.068795508811050E-3   -2.616836090323351E-3    1.139201946506286E-3    2.679441682896726E-1    4.351529713927626E-1
 8.151629144800000E9     1.335142371238646E-1    5.235221958783028E-1   -2.615669482762749E-3    1.057257433417758E-3   -2.617584868660941E-3    1.129220576661490E-3    2.682246999066377E-1    4.349672378772908E-1
 8.151634494950000E9     1.339418879277453E-1    5.231360860687029E-1   -2.596599937511551E-3    1.085655568399652E-3   -2.624072401342486E-3    1.139456500625969E-3    2.684629528571312E-1    4.349344659351005E-1
 8.151639845100000E9     1.341844199803557E-1    5.232533791471542E-1   -2.599127631058114E-3    1.089591432681503E-3   -2.635130263030620E-3    1.152522940302576E-3    2.687320171557618E-1    4.346330462444306E-1
 8.151645195250000E9     1.345451401740132E-1    5.230757868211575E-1   -2.596397707709141E-3    1.093952085422549E-3   -2.598364715732941E-3    1.162095688908055E-3    2.690371001898264E-1    4.345490561929511E-1
 8.151650545400000E9     1.349295850405740E-1    5.231097623429062E-1   -2.620116886709208E-3    1.126563446141697E-3   -2.627677941458921E-3    1.144922430616405E-3    2.694310705059657E-1    4.342901600864646E-1
 8.151655895550000E9     1.353471820641439E-1    5.229055606720705E-1   -2.620837301049449E-3    1.117210902392954E-3   -2.606564410071898E-3    1.176071413036987E-3    2.697235104930003E-1    4.341565598583428E-1
 8.151661245700000E9     1.358096015255153E-1    5.229055743285475E-1   -2.597624445394652E-3    1.134913390628153E-3   -2.610687270520156E-3    1.190099452823296E-3    2.698374688635603E-1    4.338718652001810E-1
 8.151666595850000E9     1.361080938884952E-1    5.226939911782534E-1   -2.594448347285542E-3    1.117195900306099E-3   -2.622630191001429E-3    1.184380758828254E-3    2.701886338294321E-1    4.335484374174979E-1
 8.151671946000000E9     1.365532619761050E-1    5.226399340978078E-1   -2.590195643004430E-3    1.116294669156293E-3   -2.624803944547337E-3    1.215154341628807E-3    2.704531266305744E-1    4.334888853429699E-1
 8.151677296150000E9     1.367658795233189E-1    5.226616412816978E-1   -2.632509540972178E-3    1.103723484570278E-3   -2.627430143563435E-3    1.160924871048886E-3    2.707704514022801E-1    4.333554957024565E-1
 8.151682646300000E9     1.372284684188923E-1    5.226044159419837E-1   -2.593443485720357E-3    1.119171973802987E-3   -2.647017494840471E-3    1.162940451206100E-3    2.710558743688899E-1    4.331363351329976E-1
 8.151687996450000E9     1.375590403607856E-1    5.223274220834266E-1   -2.614782389563410E-3    1.137467249280749E-3   -2.626092417444503E-3    1.171596806658871E-3    2.713053101986787E-1    4.331049931642657E-1
 8.151693346600000E9     1.379294274608996E-1    5.223250295170160E-1   -2.620812792018842E-3    1.144543994788038E-3   -2.645623998549120E-3    1.189728830382929E-3    2.716104743603966E-1    4.328026771934191E-1
 8.151698696750000E9     1.384317357123432E-1    5.222531345745649E-1   -2.638165653550763E-3    1.114297437815820E-3   -2.606385333000048E-3    1.170689220600498E-3    2.719781163947426E-1    4.324873979671183E-1
 8.151704046900000E9     1.386725508357125E-1    5.221500580616218E-1   -2.631571382703243E-3    1.099264417316607E-3   -2.661315111073705E-3    1.156307554746972E-3    2.722306543197548E-1    4.324471939897259E-1
 8.151709397050000E9     1.390589428075926E-1    5.220136532115733E-1   -2.638132880706485E-3    1.160098165685795E-3   -2.643486735693052E-3    1.184337276236226E-3    2.724998786274360E-1    4.320586821171935E-1
 8.151714747200000E9     1.394277831236695E-1    5.218922940470289E-1   -2.623320610270702E-3    1.178677050875561E-3   -2.638186620333540E-3    1.198482415573366E-3    2.728413977123474E-1    4.320581908035505E-1
 8.151720097350000E9     1.397142935347303E-1    5.218700474133026E-1   -2.621185341263268E-3    1.155677404653116E-3   -2.638969994562802E-3    1.204285716131078E-3    2.730641767211004E-1    4.317817273102782E-1
 8.151725447500000E9     1.401362053285644E-1    5.217906163650526E-1   -2.647802898538903E-3    1.149809377007706E-3   -2.618402602664478E-3    1.210555419874440E-3    2.733986884050030E-1    4.317018034407000E-1
 8.151730797650000E9     1.405506309207226E-1    5.216732903440410E-1   -2.616870302296336E-3    1.140981256737299E-3   -2.603387911881389E-3    1.202132493277930E-3    2.736375103775314E-1    4.314891968292774E-1
 8.151736147800000E9     1.409302274785634E-1    5.216240649550362E-1   -2.637710416482887E-3    1.156419749677527E-3   -2.630696746418551E-3    1.218234083093965E-3    2.739095909034562E-1    4.311920417311154E-1
 8.151741497950000E9     1.413156594325114E-1    5.215072991770283E-1   -2.605266445263700E-3    1.139694444292123E-3   -2.638044853151815E-3    1.197664874919385E-3    2.742538311497111E-1    4.310871388070962E-1
 8.151746848100000E9     1.417876149312265E-1    5.213918150589693E-1   -2.624282948138418E-3    1.168182997701695E-3   -2.667163587975520E-3    1.226495187334429E-3    2.744459229458825E-1    4.307775701012256E-1
 8.151752198250000E9     1.420739812764848E-1    5.211443085772491E-1   -2.644600858398011E-3    1.166843106425546E-3   -2.638822996744068E-3    1.230472129152538E-3    2.749268332975623E-1    4.305895746008335E-1
 8.151757548400000E9     1.423412880272866E-1    5.212048843832439E-1   -2.638416710222862E-3    1.172713647352517E-3   -2.663442396308013E-3    1.221411515066986E-3    2.751199013757418E-1    4.305189570149829E-1
 8.151762898550000E9     1.427708007875845E-1    5.210964454674617E-1   -2.630276797585047E-3    1.185373486160908E-3   -2.635871781899337E-3    1.224364040651565E-3    2.753606806217572E-1    4.303264905256592E-1
 8.151768248700000E9     1.431781913104220E-1    5.210609322654431E-1   -2.642270364730298E-3    1.179860640963890E-3   -2.642528596169320E-3    1.205337824744621E-3    2.755830936046360E-1    4.302168884815730E-1
 8.151773598850000E9     1.435302820834972E-1    5.207578967258392E-1   -2.623775120873736E-3    1.180002277188324E-3   -2.643570810750596E-3    1.199951074005178E-3    2.759033691917757E-1    4.300118523034173E-1
 8.151778949000000E9     1.439355941223182E-1    5.208239699206367E-1   -2.622513048730400E-3    1.190175150311445E-3   -2.667024788157028E-3    1.220968051017330E-3    2.760390865768376E-1    4.298521716170197E-1
 8.151784299150000E9     1.443158644354472E-1    5.207094573361356E-1   -2.651091651625197E-3    1.205861379239601E-3   -2.632486632378975E-3    1.240950125106842E-3    2.764092565283549E-1    4.295651630026023E-1
 8.151789649300000E9     1.446815700598771E-1    5.206702259977395E-1   -2.629278625735193E-3    1.183750676156729E-3   -2.645720202073742E-3    1.234472001568644E-3    2.766060639241343E-1    4.293987282204771E-1
 8.151794999450000E9     1.450133931080346E-1    5.205027179994978E-1   -2.642020395935679E-3    1.192641874636124E-3   -2.677835878906733E-3    1.276815215829640E-3    2.769954855619846E-1    4.291281005514736E-1
 8.151800349600000E9     1.454154074692205E-1    5.204837166082300E-1   -2.656281831795171E-3    1.189537707838716E-3   -2.632433625302491E-3    1.265434989269027E-3    2.773349174119459E-1    4.290854035976228E-1
 8.151805699750000E9     1.457647591135127E-1    5.203864470427166E-1   -2.635909227207107E-3    1.236480673180225E-3   -2.683710535661030E-3    1.269714083182869E-3    2.776203113890107E-1    4.287775990625534E-1
 8.151811049900000E9     1.461286955773953E-1    5.201642954169902E-1   -2.655106459088360E-3    1.209476661444896E-3   -2.638498890659486E-3    1.261189347403694E-3    2.779352734074560E-1    4.285933092711725E-1
 8.151816400050000E9     1.465894153941644E-1    5.201693822854736E-1   -2.681836284954205E-3    1.228927980466626E-3   -2.644254003881905E-3    1.254471142490541E-3    2.781342089422555E-1    4.283203897505938E-1
 8.151821750200000E9     1.467697541044942E-1    5.199979392932200E-1   -2.664093540081373E-3    1.213485403853725E-3   -2.671115802164215E-3    1.242665709948839E-3    2.783550392777409E-1    4.281644215021588E-1
 8.151827100350000E9     1.472570541080156E-1    5.199972601973798E-1   -2.671282018084980E-3    1.222477063162834E-3   -2.680220771069637E-3    1.291721632617528E-3    2.787121970440488E-1    4.279463345314218E-1
 8.151832450500000E9     1.476442644269700E-1    5.198503654028602E-1   -2.641976622124917E-3    1.222683484023727E-3   -2.666637717776238E-3    1.289609787745692E-3    2.790184028659121E-1    4.276672043157379E-1
