#  HZ   S   RI   R     50.00 
! Rohde & Schwarz Vector Network Analyzer 
! Rohde-Schwarz,ZNB20-2Port,1311601062101988,3.16
! Created: UTC 3/21/2024, 1:15:57 AM
! freq[Hz]                re:S11                  im:S11                  re:S21                  im:S21                  re:S12                  im:S12                  re:S22                  im:S22
 8.151359169000000E9     1.147463190000650E-1    5.274071841769988E-1   -2.569454429785189E-3    9.672433258264393E-4   -2.594423624729983E-3    9.797844448672405E-4    2.532693043575643E-1    4.441533454511978E-1
 8.151364501225000E9     1.150597607846022E-1    5.273977532523934E-1   -2.554871906970126E-3    9.616504437773054E-4   -2.603107058619543E-3    1.024739767542911E-3    2.538299994052752E-1    4.439655316240542E-1
 8.151369833450000E9     1.153831349262980E-1    5.272493868196934E-1   -2.563643144538504E-3    9.555210450729013E-4   -2.571429923629739E-3    1.015398425756613E-3    2.540905398857618E-1    4.439009308011062E-1
 8.151375165675000E9     1.158672829843030E-1    5.272410791084156E-1   -2.568861878272871E-3    9.778446414128699E-4   -2.590367607122818E-3    1.022899138536301E-3    2.542003039294520E-1    4.436942492806701E-1
 8.151380497900000E9     1.162447638327374E-1    5.271723123445792E-1   -2.585478079340204E-3    9.772905117470612E-4   -2.576126697017643E-3    1.021162854280015E-3    2.544307536386311E-1    4.434736580760096E-1
 8.151385830125000E9     1.166204385556597E-1    5.270524143215741E-1   -2.586790413804767E-3    9.466328274485344E-4   -2.558630192280394E-3    1.022025319126166E-3    2.548248260406906E-1    4.432296286517101E-1
 8.151391162350000E9     1.169343704300225E-1    5.269978259008532E-1   -2.594036598936298E-3    9.881442300452915E-4   -2.587520607546852E-3    1.009638643754906E-3    2.551756776917565E-1    4.431039605943110E-1
 8.151396494575000E9     1.174056707889198E-1    5.270072616763685E-1   -2.565647696555627E-3    9.579191403311691E-4   -2.545111362493607E-3    1.027181885368962E-3    2.554836173154547E-1    4.430505222443307E-1
 8.151401826800000E9     1.176293736677414E-1    5.268550174394087E-1   -2.568722731987523E-3    9.672158626391252E-4   -2.597331858782338E-3    1.013344057723337E-3    2.558203144648335E-1    4.428447685917470E-1
 8.151407159025000E9     1.179708260719206E-1    5.267272849909423E-1   -2.602051868133703E-3    9.941044155326040E-4   -2.598497542444644E-3    1.029437518753341E-3    2.560684080912461E-1    4.425188765102368E-1
 8.151412491250000E9     1.183937116619398E-1    5.267145339250164E-1   -2.585790776781420E-3    9.744703155634504E-4   -2.560224157950995E-3    1.031540468264736E-3    2.563489440352119E-1    4.424187837531263E-1
 8.151417823475000E9     1.188093113418245E-1    5.266388219538437E-1   -2.563987855181143E-3    9.750907500909694E-4   -2.549870613708788E-3    1.044000709887326E-3    2.566048060765096E-1    4.422172279516332E-1
 8.151423155700000E9     1.192299775488143E-1    5.264039419139209E-1   -2.580845470780027E-3    9.575209354573749E-4   -2.571988388751606E-3    1.021913346882097E-3    2.569641470371707E-1    4.420136324267493E-1
 8.151428487925000E9     1.195080021753354E-1    5.265105571016522E-1   -2.573054535352813E-3    9.842882841676998E-4   -2.572818868360932E-3    1.042549801140233E-3    2.572557109172651E-1    4.418291985992470E-1
 8.151433820150000E9     1.198929047093834E-1    5.264756326759354E-1   -2.563903077095661E-3    1.001162194808476E-3   -2.569379605783722E-3    1.037852485034922E-3    2.575918807969971E-1    4.417319595410498E-1
 8.151439152375000E9     1.203278200403962E-1    5.263546976327380E-1   -2.600237449438892E-3    1.000524224120243E-3   -2.604946625562978E-3    1.043033785174834E-3    2.577976927588427E-1    4.415170795883624E-1
 8.151444484600000E9     1.205080097919169E-1    5.261907416939275E-1   -2.606793320637372E-3    9.950533547416407E-4   -2.619528515586481E-3    1.011469277911030E-3    2.580484585808679E-1    4.413895455790646E-1
 8.151449816825000E9     1.210946378705275E-1    5.260816194409419E-1   -2.572237266397814E-3    1.012303949056987E-3   -2.581497099861376E-3    1.057988049733136E-3    2.583238353872974E-1    4.411214568436565E-1
 8.151455149050000E9     1.214960323908741E-1    5.259924279397172E-1   -2.560913361452088E-3    1.004129250492006E-3   -2.610583068316917E-3    1.066813065601107E-3    2.587054850325270E-1    4.409492957344933E-1
 8.151460481275000E9     1.217966226610959E-1    5.260472259330730E-1   -2.609573981685216E-3    1.018028692306680E-3   -2.574122399593252E-3    1.066680759561088E-3    2.590623515640560E-1    4.408123388216331E-1
 8.151465813500000E9     1.221737050190300E-1    5.258038186139320E-1   -2.578860561467071E-3    1.007426716788031E-3   -2.589927762145048E-3    1.052270101124521E-3    2.591981951629106E-1    4.407484501909159E-1
 8.151471145725000E9     1.225054289480629E-1    5.259494230593753E-1   -2.585661695407253E-3    1.005731314448676E-3   -2.573941422856137E-3    1.039114846053522E-3    2.595385202177202E-1    4.403569647171087E-1
 8.151476477950000E9     1.228036707066156E-1    5.257580791841517E-1   -2.591976934886153E-3    1.036059354258370E-3   -2.600654693043751E-3    1.048345793411000E-3    2.599005575135611E-1    4.403160997065336E-1
 8.151481810175000E9     1.232535886263513E-1    5.257382653234468E-1   -2.609778393370640E-3    1.008851108632977E-3   -2.567815397292956E-3    1.035854182174531E-3    2.601970693461526E-1    4.401773529533064E-1
 8.151487142400000E9     1.235794513681450E-1    5.255899056404991E-1   -2.582356838563388E-3    1.019099581683641E-3   -2.590972136654146E-3    1.053809811527377E-3    2.603336109395116E-1    4.399705224047143E-1
 8.151492474625000E9     1.239755790749414E-1    5.254493778040146E-1   -2.569429951866280E-3    1.047872796213362E-3   -2.592104800877178E-3    1.050995686219332E-3    2.608757476269097E-1    4.398462676444445E-1
 8.151497806850000E9     1.243597495619178E-1    5.254160006703742E-1   -2.558247167482648E-3    1.029720093708244E-3   -2.588313651846351E-3    1.071712315362662E-3    2.609934690555827E-1    4.396175011809662E-1
 8.151503139075000E9     1.247092024193236E-1    5.254421033350763E-1   -2.580026084064334E-3    1.028338534401209E-3   -2.600207675365849E-3    1.076177866313845E-3    2.613506634533885E-1    4.393139262186045E-1
 8.151508471300000E9     1.251947030772187E-1    5.252018859195309E-1   -2.562994207156444E-3    1.024424311124016E-3   -2.571807145447312E-3    1.070816847993792E-3    2.615834673079566E-1    4.391927575980533E-1
 8.151513803525000E9     1.254553557182480E-1    5.251092090287599E-1   -2.566890355158257E-3    1.045775724322339E-3   -2.596227838139585E-3    1.064024204944673E-3    2.618167622827864E-1    4.389912556926811E-1
 8.151519135750000E9     1.258526202887386E-1    5.250563216065349E-1   -2.583241325719771E-3    1.052262769181274E-3   -2.571132846609775E-3    1.088844342505986E-3    2.621191805874815E-1    4.388518816131988E-1
 8.151524467975000E9     1.261788312078651E-1    5.249363546865298E-1   -2.581726650256459E-3    1.039682480164034E-3   -2.584315100443508E-3    1.117146169947571E-3    2.625759853749016E-1    4.386820041931003E-1
 8.151529800200000E9     1.265581415410191E-1    5.249799528410535E-1   -2.562994045828044E-3    1.047685049077138E-3   -2.587329506020553E-3    1.115556098976743E-3    2.628233515291498E-1    4.385531158449806E-1
 8.151535132425000E9     1.268895389947993E-1    5.249955614114442E-1   -2.598742861991182E-3    1.055562533165793E-3   -2.563251018598611E-3    1.104584907362137E-3    2.630899203695721E-1    4.382095165953858E-1
 8.151540464650000E9     1.273154030196546E-1    5.247374372938762E-1   -2.583774475955346E-3    1.043303082825446E-3   -2.603226306209989E-3    1.096037507381900E-3    2.633374008732946E-1    4.380557060867141E-1
 8.151545796875000E9     1.278209925983305E-1    5.246985938472741E-1   -2.597797064423900E-3    1.047206334091645E-3   -2.580272874493506E-3    1.114935946828440E-3    2.636149502956116E-1    4.379416753241384E-1
 8.151551129100000E9     1.280256146337672E-1    5.246437893229299E-1   -2.602331779694106E-3    1.045636520670992E-3   -2.566918651739643E-3    1.098690745349794E-3    2.639522213286007E-1    4.377454819832415E-1
 8.151556461325000E9     1.285169444972454E-1    5.245835711847763E-1   -2.598815588648492E-3    1.045114443704091E-3   -2.602430937230494E-3    1.080805920028901E-3    2.640672330389574E-1    4.375665448606820E-1
 8.151561793550000E9     1.286984428245946E-1    5.245000189449921E-1   -2.582608095510512E-3    1.064558288113330E-3   -2.576985564609099E-3    1.100810860894717E-3    2.645763497160064E-1    4.374333160147406E-1
 8.151567125775000E9     1.291385851013763E-1    5.244404444965376E-1   -2.598652988001201E-3    1.050731536285656E-3   -2.607786593037225E-3    1.116295965136051E-3    2.647986115138333E-1    4.372015320086716E-1
 8.151572458000000E9     1.295506149017686E-1    5.243093285185588E-1   -2.579907412506384E-3    1.067274472307956E-3   -2.597964939063570E-3    1.110706064424243E-3    2.650780822519812E-1    4.369133719352437E-1
 8.151577790225000E9     1.298676453272908E-1    5.242703362900829E-1   -2.598559993814186E-3    1.058063693947564E-3   -2.575864584529979E-3    1.133055945217653E-3    2.653532344067646E-1    4.368706752661552E-1
 8.151583122450000E9     1.303399892533993E-1    5.241653575832612E-1   -2.579158319734194E-3    1.043064103376826E-3   -2.615383161230951E-3    1.130817078246515E-3    2.655146936817404E-1    4.365221674225493E-1
 8.151588454675000E9     1.306733542836971E-1    5.240203840198996E-1   -2.561190601976823E-3    1.076638317028744E-3   -2.584348484773370E-3    1.126269116223987E-3    2.660026980754456E-1    4.365830094535418E-1
 8.151593786900000E9     1.309585684629956E-1    5.239436410667735E-1   -2.576111167823344E-3    1.099781460464391E-3   -2.585443782243384E-3    1.135082212963766E-3    2.662049867156658E-1    4.363903366923051E-1
 8.151599119125000E9     1.313587817922764E-1    5.240045447685986E-1   -2.617350809209427E-3    1.056738467250510E-3   -2.608285003859393E-3    1.143667837799467E-3    2.665314239143664E-1    4.360601160379955E-1
 8.151604451350000E9     1.318369391236086E-1    5.237626689704580E-1   -2.582097245458400E-3    1.078603730951967E-3   -2.595239271170701E-3    1.112757787027412E-3    2.669129710826372E-1    4.360056106968563E-1
 8.151609783575000E9     1.320501543652293E-1    5.237543184835595E-1   -2.587079107669203E-3    1.090810682865267E-3   -2.580724034785448E-3    1.137375113653227E-3    2.669990838898332E-1    4.355923712176559E-1
 8.151615115800000E9     1.324738136703532E-1    5.236625579699447E-1   -2.614907206249561E-3    1.061243977072560E-3   -2.603868918632791E-3    1.103699133218276E-3    2.673278084689733E-1    4.354784800479897E-1
 8.151620448025000E9     1.328276813822430E-1    5.234391077322589E-1   -2.614775687603707E-3    1.083302258209011E-3   -2.634259485962583E-3    1.122864442877935E-3    2.676217283499087E-1    4.354212733609725E-1
 8.151625780250000E9     1.331951815397344E-1    5.234164304331720E-1   -2.605081531998944E-3    1.096277721677552E-3   -2.616908196868058E-3    1.142120662233798E-3    2.679076968379307E-1    4.351338165091467E-1
 8.151631112475000E9     1.335273702931673E-1    5.233933475313848E-1   -2.608314332721720E-3    1.086013010416764E-3   -2.615032199691475E-3    1.156440899354167E-3    2.682877490579112E-1    4.349779486109772E-1
 8.151636444700000E9     1.339657738991513E-1    5.232183246032553E-1   -2.603082272385552E-3    1.086882875660193E-3   -2.614868515885203E-3    1.151174322630385E-3    2.686101859588687E-1    4.347669688589983E-1
 8.151641776925000E9     1.343275761800882E-1    5.232927401614131E-1   -2.598791565047094E-3    1.111927764453051E-3   -2.614527717950415E-3    1.125601100891660E-3    2.687109018375031E-1    4.346377022333435E-1
 8.151647109150000E9     1.347015994307478E-1    5.230487357862091E-1   -2.575890883353979E-3    1.099969790249250E-3   -2.606838322265636E-3    1.154457892744410E-3    2.691910847896020E-1    4.345494904563690E-1
 8.151652441375000E9     1.351201665436797E-1    5.229868892352422E-1   -2.592456167364321E-3    1.083549626718874E-3   -2.626665458710066E-3    1.155743661875296E-3    2.694795552826557E-1    4.343847309880722E-1
 8.151657773600000E9     1.354445170789673E-1    5.229165100894689E-1   -2.606648124842510E-3    1.113045843657101E-3   -2.650006472774891E-3    1.161581777046078E-3    2.697683715642326E-1    4.341644812076884E-1
 8.151663105825000E9     1.358554615463110E-1    5.229102602457159E-1   -2.598549465086429E-3    1.100544944677751E-3   -2.632131291678168E-3    1.137413771718709E-3    2.700448853964289E-1    4.338898189000351E-1
 8.151668438050000E9     1.361901449962221E-1    5.226082745511629E-1   -2.633814214885657E-3    1.111964291863706E-3   -2.593680715776314E-3    1.180839506561995E-3    2.702970975171907E-1    4.336751781982262E-1
 8.151673770275000E9     1.366198143999928E-1    5.226989220429696E-1   -2.612777655158725E-3    1.109387011335108E-3   -2.629054129728236E-3    1.158243196490561E-3    2.705943804465621E-1    4.335980713821380E-1
 8.151679102500000E9     1.369585942637962E-1    5.224884097149762E-1   -2.612571482401861E-3    1.116597435260458E-3   -2.597368472759862E-3    1.161715551407514E-3    2.708459359693549E-1    4.333341858185850E-1
 8.151684434725000E9     1.372495880326327E-1    5.225336491989059E-1   -2.622496795685615E-3    1.127086966669736E-3   -2.614219745749451E-3    1.185730361070581E-3    2.711301641661035E-1    4.331560872053693E-1
 8.151689766950000E9     1.376984168134269E-1    5.223420733088571E-1   -2.635479586713144E-3    1.135116336681146E-3   -2.617495700500971E-3    1.175613789479951E-3    2.713816696753605E-1    4.327972942309251E-1
 8.151695099175000E9     1.379882061268036E-1    5.223651234018092E-1   -2.643765838922442E-3    1.114876978892889E-3   -2.619847513902583E-3    1.188851239269313E-3    2.716527519034943E-1    4.327459885822535E-1
 8.151700431400000E9     1.383998710399233E-1    5.222227305523200E-1   -2.618690975430252E-3    1.129993288747337E-3   -2.638701597844502E-3    1.151774283078065E-3    2.719512102196476E-1    4.327084673270173E-1
 8.151705763625000E9     1.385875663850674E-1    5.222100678782443E-1   -2.656558355436829E-3    1.136717731905331E-3   -2.623226848316154E-3    1.179233201708871E-3    2.721708533910410E-1    4.323237018267556E-1
 8.151711095850000E9     1.391184581252184E-1    5.221338790611113E-1   -2.626336321666446E-3    1.151996445315265E-3   -2.628298428946828E-3    1.216629171965754E-3    2.725528632167308E-1    4.322238862476650E-1
 8.151716428075000E9     1.395326026331088E-1    5.218698628372245E-1   -2.612144624775526E-3    1.155572980934601E-3   -2.643563433413195E-3    1.194766541518601E-3    2.727647985588463E-1    4.320236711773097E-1
 8.151721760300000E9     1.398065114308091E-1    5.218748091402694E-1   -2.612245122013426E-3    1.162931420138214E-3   -2.617226846540509E-3    1.197319721983808E-3    2.731715564569401E-1    4.317767072172338E-1
 8.151727092525000E9     1.402344915280014E-1    5.218439628487448E-1   -2.591207684636790E-3    1.156082570529399E-3   -2.619695455240789E-3    1.195015661333761E-3    2.733629550271382E-1    4.316327157832602E-1
 8.151732424750000E9     1.406573753175927E-1    5.217497601199000E-1   -2.614222217024556E-3    1.137507733215231E-3   -2.610125851193150E-3    1.216300821097322E-3    2.737003692226390E-1    4.314309406218066E-1
 8.151737756975000E9     1.409410011149749E-1    5.215232079543698E-1   -2.640383682842600E-3    1.144799165476374E-3   -2.660761514502527E-3    1.224956496339575E-3    2.739932579359177E-1    4.311432716265303E-1
 8.151743089200000E9     1.413625374428960E-1    5.215228919521668E-1   -2.620123600853508E-3    1.138201861571357E-3   -2.606146059924791E-3    1.193523999502444E-3    2.741402850505901E-1    4.309617579506083E-1
 8.151748421425000E9     1.417374580389446E-1    5.213834856784594E-1   -2.644877260064895E-3    1.148101035773228E-3   -2.618930880861048E-3    1.202233492897615E-3    2.745494701483016E-1    4.307865154552938E-1
 8.151753753650000E9     1.420043170657153E-1    5.212901560009354E-1   -2.652070952070393E-3    1.144429706902800E-3   -2.642372058141506E-3    1.202705406244000E-3    2.748228047061387E-1    4.307316581500125E-1
 8.151759085875000E9     1.424033946040285E-1    5.211998749306597E-1   -2.638362613327916E-3    1.145542517201575E-3   -2.621380396590549E-3    1.228403460733605E-3    2.749482184288662E-1    4.304247405271897E-1
 8.151764418100000E9     1.426488919078068E-1    5.211093883297896E-1   -2.658049248114518E-3    1.150278113968266E-3   -2.650617475353432E-3    1.223849528659573E-3    2.753857340173710E-1    4.302903961478947E-1
 8.151769750325000E9     1.431568709877670E-1    5.209398469801290E-1   -2.638388782106393E-3    1.162626876118530E-3   -2.632065139421586E-3    1.242991901918960E-3    2.755665022457794E-1    4.301159871498750E-1
 8.151775082550000E9     1.436764160677391E-1    5.209383305546725E-1   -2.649734158714115E-3    1.189073864475956E-3   -2.663897275114097E-3    1.235183640121237E-3    2.760082755161434E-1    4.298739429492883E-1
 8.151780414775000E9     1.439143758373354E-1    5.208305472121089E-1   -2.656295932538337E-3    1.186405836323785E-3   -2.680884692378738E-3    1.224635851620673E-3    2.762190061930374E-1    4.297247473216121E-1
 8.151785747000000E9     1.443555225978266E-1    5.206431451479762E-1   -2.649439121760535E-3    1.194431873409201E-3   -2.639225061395677E-3    1.234900506390797E-3    2.765912212991737E-1    4.296065891574926E-1
 8.151791079225000E9     1.446477080254920E-1    5.206426668228438E-1   -2.662845719634834E-3    1.186902522745789E-3   -2.634191568658506E-3    1.256911345478089E-3    2.769019559991389E-1    4.293494600356845E-1
 8.151796411450000E9     1.451097116436175E-1    5.205562992351791E-1   -2.677998204299641E-3    1.208221804470972E-3   -2.655899607394710E-3    1.270111231741434E-3    2.770331739968476E-1    4.293386770468018E-1
 8.151801743675000E9     1.454702193846640E-1    5.204615602496038E-1   -2.628948609360325E-3    1.191032240895408E-3   -2.661206009363324E-3    1.236285552816471E-3    2.773548797646442E-1    4.289253604032276E-1
 8.151807075900000E9     1.458968599637827E-1    5.203421931850329E-1   -2.634563498294773E-3    1.187257416689002E-3   -2.660819196782398E-3    1.264210202820024E-3    2.775614065056270E-1    4.287566829021960E-1
 8.151812408125000E9     1.462535701756051E-1    5.203440738851646E-1   -2.649074150463486E-3    1.203543442696196E-3   -2.672891558071335E-3    1.246000835695804E-3    2.778673860024357E-1    4.285740842096549E-1
 8.151817740350000E9     1.465272279075508E-1    5.200845231811276E-1   -2.659689884191172E-3    1.228868930502894E-3   -2.651786189852739E-3    1.239865183664236E-3    2.779971435744976E-1    4.284054575150480E-1
 8.151823072575000E9     1.469535881378665E-1    5.200673231350607E-1   -2.645856630615928E-3    1.217202534785780E-3   -2.673182141554062E-3    1.284654418629017E-3    2.784447474201949E-1    4.282378033438507E-1
 8.151828404800000E9     1.471634317293105E-1    5.199245847603035E-1   -2.664439460750412E-3    1.249549997913154E-3   -2.683915110918498E-3    1.271288018900315E-3    2.787274123172571E-1    4.280060807301994E-1
 8.151833737025000E9     1.477294879670494E-1    5.197353143797939E-1   -2.664814040446396E-3    1.214964677764703E-3   -2.657319516325575E-3    1.276987924324718E-3    2.790577815276581E-1    4.278487818873380E-1
 8.151839069250000E9     1.480299261452815E-1    5.197037711607498E-1   -2.629028013353102E-3    1.212988777497560E-3   -2.675448967662185E-3    1.284782531026163E-3    2.793771411509303E-1    4.276200340785271E-1
