#  HZ   S   RI   R     50.00 
! Rohde & Schwarz Vector Network Analyzer 
! Rohde-Schwarz,ZNB20-2Port,1311601062101988,3.16
! Created: UTC 3/21/2024, 1:16:02 AM
! freq[Hz]                re:S11                  im:S11                  re:S21                  im:S21                  re:S12                  im:S12                  re:S22                  im:S22
 8.151383401000000E9     1.161510554691983E-1    5.272005111543476E-1   -2.574845172091411E-3    9.627291002651916E-4   -2.570459534713988E-3    1.012285930906198E-3    2.547613289356848E-1    4.433870676852649E-1
 8.151388644250000E9     1.166137831363218E-1    5.269809158757557E-1   -2.568674165398995E-3    9.671143111648152E-4   -2.583209111505080E-3    9.906258194163531E-4    2.549294814481950E-1    4.432517595200176E-1
 8.151393887500000E9     1.170587823851012E-1    5.270371719347202E-1   -2.563704025872182E-3    9.757948210421503E-4   -2.570467608260587E-3    9.940720151095205E-4    2.552361145712333E-1    4.429593668355309E-1
 8.151399130750000E9     1.174025654824540E-1    5.269677889538076E-1   -2.561894595301730E-3    9.769462813786593E-4   -2.600810786965972E-3    1.014701663264220E-3    2.556875671907635E-1    4.428605426397748E-1
 8.151404374000000E9     1.177381686828158E-1    5.268450888805919E-1   -2.554632924351246E-3    9.695466841888673E-4   -2.584972971601882E-3    1.025691578310067E-3    2.557622415256043E-1    4.426452884153116E-1
 8.151409617250000E9     1.181662348676299E-1    5.267602978429246E-1   -2.575374799483826E-3    9.914509093100438E-4   -2.593204201419958E-3    1.018436765855244E-3    2.561613051141474E-1    4.425564120723626E-1
 8.151414860500000E9     1.185662759092886E-1    5.267179110614247E-1   -2.558827535079931E-3    9.525175931024720E-4   -2.562712981116906E-3    1.054246562562651E-3    2.564647690052660E-1    4.422737626311498E-1
 8.151420103750000E9     1.188676887620581E-1    5.265280254420091E-1   -2.570432066786472E-3    9.990002812326855E-4   -2.582444803790760E-3    1.029099623215698E-3    2.566333549278782E-1    4.422067686755857E-1
 8.151425347000000E9     1.192771094398224E-1    5.265375488517946E-1   -2.557214506665596E-3    9.846531654685096E-4   -2.619587099159160E-3    1.042256725946170E-3    2.569931981331647E-1    4.420196797747566E-1
 8.151430590250000E9     1.195797168428601E-1    5.263006123138457E-1   -2.575032253914493E-3    9.966831135751369E-4   -2.598994547124270E-3    1.049328384179669E-3    2.573816576147294E-1    4.416510973417496E-1
 8.151435833500000E9     1.200305624870697E-1    5.263082254741872E-1   -2.593397669082922E-3    1.005562635715341E-3   -2.573026799087833E-3    1.062149684070203E-3    2.575922402888921E-1    4.416564365560329E-1
 8.151441076750000E9     1.203360342573822E-1    5.263056214127873E-1   -2.565758654873719E-3    9.950194758139045E-4   -2.607995125279841E-3    1.039428796559536E-3    2.578876713613514E-1    4.413738385089422E-1
 8.151446320000000E9     1.206182022138551E-1    5.260774707278282E-1   -2.587054789928964E-3    9.942746909082853E-4   -2.590723446999017E-3    1.068346636219664E-3    2.580443257894632E-1    4.413706925772849E-1
 8.151451563250000E9     1.209983764143916E-1    5.261465448942650E-1   -2.565314831901839E-3    1.010981530131289E-3   -2.560423546968243E-3    1.063231834652714E-3    2.585539828190887E-1    4.410599381250236E-1
 8.151456806500000E9     1.214522694608697E-1    5.260724410699484E-1   -2.567334618021507E-3    9.760826770105389E-4   -2.579300280384542E-3    1.044145047235505E-3    2.587459457000954E-1    4.409471176214284E-1
 8.151462049750000E9     1.217958552511459E-1    5.259794908835309E-1   -2.579321694618113E-3    9.931423987323280E-4   -2.580762062573678E-3    1.097276770519093E-3    2.590666636998634E-1    4.408171688151488E-1
 8.151467293000000E9     1.221678092509733E-1    5.258521992898545E-1   -2.581993083131194E-3    1.010780541464577E-3   -2.554739753886948E-3    1.034416288102411E-3    2.594291977667421E-1    4.406388589091159E-1
 8.151472536250000E9     1.224931135886496E-1    5.257595308178400E-1   -2.573015100504182E-3    1.009130988738339E-3   -2.598305868102373E-3    1.039994236931698E-3    2.596252317356844E-1    4.403430554652684E-1
 8.151477779500000E9     1.229642882024089E-1    5.257434143688492E-1   -2.571631790087338E-3    1.024728861960726E-3   -2.586418250268871E-3    1.040815422247473E-3    2.598993628859492E-1    4.402203347481500E-1
 8.151483022750000E9     1.232236565809882E-1    5.256166077806429E-1   -2.574064547059658E-3    1.002044800987573E-3   -2.600984630486952E-3    1.064951765345513E-3    2.601960469093510E-1    4.401077978289822E-1
 8.151488266000000E9     1.236000842431031E-1    5.255299158913176E-1   -2.594272747484295E-3    1.027573808209230E-3   -2.601126581981954E-3    1.073508468310022E-3    2.603281069941362E-1    4.398795913622642E-1
 8.151493509250000E9     1.239950350733215E-1    5.255302521994973E-1   -2.573937999362591E-3    1.045777770111120E-3   -2.614173038488738E-3    1.040434096089684E-3    2.606899145336632E-1    4.397218834398723E-1
 8.151498752500000E9     1.243024282107840E-1    5.253062234806996E-1   -2.568492963030823E-3    1.044285742046588E-3   -2.582521385812475E-3    1.059538750679015E-3    2.611615200071027E-1    4.394646117194426E-1
 8.151503995750000E9     1.247061279499417E-1    5.252214175371148E-1   -2.580050235251880E-3    1.016967041100504E-3   -2.564084973715247E-3    1.045113244888583E-3    2.612807789196442E-1    4.392977445075370E-1
 8.151509239000000E9     1.250309660267552E-1    5.252949605622560E-1   -2.582069512369990E-3    1.037563011181459E-3   -2.542457686388664E-3    1.086210558136678E-3    2.616089373974532E-1    4.391588874538166E-1
 8.151514482250000E9     1.253597130094033E-1    5.252040259155232E-1   -2.556358346248159E-3    1.082251629096435E-3   -2.603988074968918E-3    1.077743382338403E-3    2.618536789829856E-1    4.390674046719652E-1
 8.151519725500000E9     1.258090097385730E-1    5.252208810911819E-1   -2.580316642894853E-3    1.037509375554683E-3   -2.599927870848669E-3    1.083671933402850E-3    2.621593869745725E-1    4.387101439532656E-1
 8.151524968750000E9     1.261252750470243E-1    5.250287801396979E-1   -2.583176179239573E-3    1.043944631550371E-3   -2.575737151180887E-3    1.074468529919114E-3    2.623068570357381E-1    4.388073354960544E-1
 8.151530212000000E9     1.266837102543217E-1    5.250289774815919E-1   -2.559728018303680E-3    1.041185992872432E-3   -2.571687438122102E-3    1.067296135821469E-3    2.626760596456391E-1    4.384791091185818E-1
 8.151535455250000E9     1.268302140103085E-1    5.249211086873798E-1   -2.584183108240583E-3    1.025655995953610E-3   -2.586617671825639E-3    1.079457863412943E-3    2.629437524385921E-1    4.383176213556925E-1
 8.151540698500000E9     1.273191078791078E-1    5.247609303165930E-1   -2.578163176031809E-3    1.061690462848391E-3   -2.584319187983938E-3    1.091265697674683E-3    2.633661084714492E-1    4.380248852868258E-1
 8.151545941750000E9     1.275373930235973E-1    5.246848488978060E-1   -2.564708524284935E-3    1.041379758854396E-3   -2.590235205456072E-3    1.095924681485139E-3    2.636411944079363E-1    4.380208996733704E-1
 8.151551185000000E9     1.279558701101796E-1    5.246119511031520E-1   -2.617923232398705E-3    1.046358350468988E-3   -2.587472275900567E-3    1.114241480061530E-3    2.638124238872979E-1    4.378045659902685E-1
 8.151556428250000E9     1.282892498265179E-1    5.245992208769166E-1   -2.583126289421883E-3    1.045970354324425E-3   -2.588951571256234E-3    1.092623304932805E-3    2.641316033710284E-1    4.375546128626626E-1
 8.151561671500000E9     1.289356636134419E-1    5.244656186958999E-1   -2.588791958863035E-3    1.055486440950339E-3   -2.623493186798150E-3    1.111828803530646E-3    2.646049641186874E-1    4.375979169548329E-1
 8.151566914750000E9     1.290201277602442E-1    5.243917718998143E-1   -2.591282475072767E-3    1.065599084707459E-3   -2.596537763953368E-3    1.105641491831815E-3    2.646353424553726E-1    4.373573334264406E-1
 8.151572158000000E9     1.294573726936879E-1    5.242827244490719E-1   -2.607573207176243E-3    1.077717302172624E-3   -2.606739083878470E-3    1.128416279364237E-3    2.649482757798827E-1    4.370245218763055E-1
 8.151577401250000E9     1.297683754793623E-1    5.243074437608726E-1   -2.566192650622098E-3    1.054829459762253E-3   -2.572415631318260E-3    1.102330991768982E-3    2.654229492951939E-1    4.368244942497834E-1
 8.151582644500000E9     1.301105266815649E-1    5.242639744721825E-1   -2.611733839926359E-3    1.058452828667742E-3   -2.601928548863718E-3    1.114695405683213E-3    2.655158468474602E-1    4.367414498968973E-1
 8.151587887750000E9     1.305572521489060E-1    5.241517851339358E-1   -2.594024280814954E-3    1.094304606230415E-3   -2.604383204129264E-3    1.128367084364622E-3    2.659326842875182E-1    4.365299964015362E-1
 8.151593131000000E9     1.309211763420316E-1    5.239171454285697E-1   -2.587279190445686E-3    1.074865000013225E-3   -2.594212832642160E-3    1.125150849936411E-3    2.661624979567163E-1    4.362404006023766E-1
 8.151598374250000E9     1.311852610218371E-1    5.238836548848905E-1   -2.594233115795851E-3    1.083166663303277E-3   -2.591836978637570E-3    1.085696431975073E-3    2.663393204530782E-1    4.361676397442016E-1
 8.151603617500000E9     1.315736678770746E-1    5.238516215037823E-1   -2.595197607027296E-3    1.094196483483987E-3   -2.613105461160579E-3    1.104390452998537E-3    2.667013941823687E-1    4.359543569196723E-1
 8.151608860750000E9     1.319153681492620E-1    5.236225803587755E-1   -2.602599672359033E-3    1.089393080850410E-3   -2.614963795057905E-3    1.091917299298105E-3    2.669330325811550E-1    4.358561427916903E-1
 8.151614104000000E9     1.323761880637830E-1    5.236292973069241E-1   -2.614776898479340E-3    1.082190312179879E-3   -2.586566202707254E-3    1.123065415198932E-3    2.672794851796220E-1    4.355863545585743E-1
 8.151619347250000E9     1.326708492273245E-1    5.236558739482460E-1   -2.600236514276659E-3    1.076657623812027E-3   -2.627515978221170E-3    1.145668815961549E-3    2.675463142385789E-1    4.354216030669746E-1
 8.151624590500000E9     1.329791898883872E-1    5.233593706281139E-1   -2.585348057418824E-3    1.074910561353894E-3   -2.617359489912183E-3    1.128595652049831E-3    2.679444730071439E-1    4.352177154994060E-1
 8.151629833750000E9     1.334838424754856E-1    5.233793327985583E-1   -2.619839539989000E-3    1.106818417647837E-3   -2.618186050364314E-3    1.124163704677959E-3    2.681361933261216E-1    4.351408998541695E-1
 8.151635077000000E9     1.337024483191602E-1    5.233752107552826E-1   -2.612134120112863E-3    1.075547762796464E-3   -2.583559803032092E-3    1.150692942228552E-3    2.683844937167081E-1    4.349165021737600E-1
 8.151640320250000E9     1.341621745360036E-1    5.231619792069954E-1   -2.621588650684173E-3    1.108747818656198E-3   -2.594879934561591E-3    1.134336944001179E-3    2.685340636726242E-1    4.346175112646993E-1
 8.151645563500000E9     1.345767697008755E-1    5.231878073400155E-1   -2.604797654205093E-3    1.102014885846644E-3   -2.609531038161333E-3    1.157713049004691E-3    2.689514257745715E-1    4.345862091661250E-1
 8.151650806750000E9     1.349068315717717E-1    5.230352227456161E-1   -2.619570711175276E-3    1.080843661177551E-3   -2.628846264876017E-3    1.159588377823363E-3    2.692439612028038E-1    4.341682978037291E-1
 8.151656050000000E9     1.351804062523005E-1    5.229080558903755E-1   -2.593467850782089E-3    1.099070560633900E-3   -2.592797927133910E-3    1.148609757567510E-3    2.696552960771897E-1    4.340387581228439E-1
 8.151661293250000E9     1.356743333318826E-1    5.229154627685515E-1   -2.607676191295897E-3    1.115809160035866E-3   -2.606124406744178E-3    1.145051910363194E-3    2.699431474722109E-1    4.338703805749519E-1
 8.151666536500000E9     1.359881984848826E-1    5.228318910461501E-1   -2.589403206762290E-3    1.116546537060944E-3   -2.619219098759584E-3    1.170078068147784E-3    2.699922585769789E-1    4.337539259717729E-1
 8.151671779750000E9     1.363464221561756E-1    5.227732515723291E-1   -2.599146050517811E-3    1.113681140799340E-3   -2.625961020719530E-3    1.163596185755826E-3    2.704152563914122E-1    4.335927398443949E-1
 8.151677023000000E9     1.367642694531463E-1    5.225763587509992E-1   -2.607837378647323E-3    1.122131323356780E-3   -2.632556320531121E-3    1.164200089971166E-3    2.706684046467321E-1    4.332908969513207E-1
 8.151682266250000E9     1.370665069263494E-1    5.226133118739268E-1   -2.617815401145299E-3    1.131438843595298E-3   -2.642018216432038E-3    1.145060837555558E-3    2.710378674201077E-1    4.331447776366186E-1
 8.151687509500000E9     1.373765462530259E-1    5.224416081224769E-1   -2.612116505710335E-3    1.125667512024697E-3   -2.603656699189947E-3    1.172381445114737E-3    2.711636628001359E-1    4.330394744761693E-1
 8.151692752750000E9     1.377041553077056E-1    5.224163180272129E-1   -2.628575264183234E-3    1.130974610666929E-3   -2.605038548698553E-3    1.156451604758899E-3    2.716304590574483E-1    4.327967259477710E-1
 8.151697996000000E9     1.381528461908609E-1    5.222269239665982E-1   -2.621021736297066E-3    1.158611314819757E-3   -2.628317942446323E-3    1.163739260885338E-3    2.718751807980741E-1    4.327542152417729E-1
 8.151703239250000E9     1.385434010077261E-1    5.221237119092579E-1   -2.619838710406736E-3    1.129098072338206E-3   -2.608187077526637E-3    1.159814051602069E-3    2.720259535391125E-1    4.325396405137737E-1
 8.151708482500000E9     1.389075328415143E-1    5.220646573884912E-1   -2.627161246711833E-3    1.132032500225006E-3   -2.634982722044257E-3    1.196594837202391E-3    2.723819767286448E-1    4.322402401754588E-1
 8.151713725750000E9     1.392100908108722E-1    5.219503063624682E-1   -2.617868477451801E-3    1.147644394685817E-3   -2.630012968780247E-3    1.181926255976238E-3    2.726776799311499E-1    4.321329772860263E-1
 8.151718969000000E9     1.396308668397965E-1    5.218190277689543E-1   -2.598795225931095E-3    1.159913816708803E-3   -2.649060753749314E-3    1.170781836448487E-3    2.728182494943691E-1    4.318952122759532E-1
 8.151724212250000E9     1.399983266913685E-1    5.218946879817501E-1   -2.595829097999107E-3    1.127903706585190E-3   -2.600591485403766E-3    1.210687230982894E-3    2.732184685019121E-1    4.317761581321287E-1
 8.151729455500000E9     1.403622745409803E-1    5.217117181952766E-1   -2.618200551150018E-3    1.153477675534508E-3   -2.616447806937807E-3    1.206585999097232E-3    2.734266690081020E-1    4.314851988495377E-1
 8.151734698750000E9     1.407268231902470E-1    5.215896041792678E-1   -2.624906983800800E-3    1.177184166744728E-3   -2.644423526149923E-3    1.189664901539290E-3    2.736912181273322E-1    4.314073619119191E-1
 8.151739942000000E9     1.409900823685486E-1    5.215009135263823E-1   -2.629661768685529E-3    1.157654655799186E-3   -2.618263710063492E-3    1.191657731496362E-3    2.740985346463993E-1    4.312119665452051E-1
 8.151745185250000E9     1.413905650537794E-1    5.214647758825592E-1   -2.625919250330809E-3    1.156910574782434E-3   -2.646999539491735E-3    1.175150022419945E-3    2.742635372183606E-1    4.310072894399243E-1
 8.151750428500000E9     1.417966786265214E-1    5.213178086796780E-1   -2.647021117345159E-3    1.150020268224466E-3   -2.642657966865208E-3    1.236350753142850E-3    2.747123543782834E-1    4.309007281879106E-1
 8.151755671750000E9     1.421198420987611E-1    5.212185603753289E-1   -2.638424738419195E-3    1.166277116245572E-3   -2.644972009170607E-3    1.208676860232082E-3    2.748771093116366E-1    4.305539941445595E-1
 8.151760915000000E9     1.424696917098463E-1    5.212140447174674E-1   -2.640848863234597E-3    1.192168240616055E-3   -2.636626391162638E-3    1.211764451208780E-3    2.751702046625220E-1    4.304187511802998E-1
 8.151766158250000E9     1.428674332642625E-1    5.210425906002639E-1   -2.645907848167954E-3    1.162423936623390E-3   -2.647904442397234E-3    1.222300596094880E-3    2.754416539811618E-1    4.302922055475299E-1
 8.151771401500000E9     1.432268850861454E-1    5.210079081328566E-1   -2.646669461394824E-3    1.164114305356556E-3   -2.606214190641581E-3    1.233351212066622E-3    2.758032728269971E-1    4.301642061894825E-1
 8.151776644750000E9     1.437303329587084E-1    5.209535865359869E-1   -2.623625895284972E-3    1.197401038481280E-3   -2.660301946731142E-3    1.246443210632627E-3    2.759939678543876E-1    4.298088157960798E-1
 8.151781888000000E9     1.440141174171722E-1    5.207743445272791E-1   -2.618541645427854E-3    1.150705074711769E-3   -2.627361780574130E-3    1.223874744675932E-3    2.761830632520859E-1    4.296933735727689E-1
 8.151787131250000E9     1.444947384335890E-1    5.206426883487161E-1   -2.632479940106162E-3    1.176504968344351E-3   -2.623256837977547E-3    1.225880287161339E-3    2.766251753973237E-1    4.294785399294530E-1
 8.151792374500000E9     1.446352069087960E-1    5.205943470310864E-1   -2.655249589224661E-3    1.187517363259422E-3   -2.648447060209105E-3    1.244080761682858E-3    2.768191563007756E-1    4.292281248580199E-1
 8.151797617750000E9     1.451342440655711E-1    5.203676559779904E-1   -2.653735940297907E-3    1.219968410246388E-3   -2.645224475105851E-3    1.255667186601389E-3    2.770594702531930E-1    4.291925054822348E-1
 8.151802861000000E9     1.454799626509526E-1    5.204723521224055E-1   -2.643453999486929E-3    1.179278656684122E-3   -2.690932968351264E-3    1.251530184101676E-3    2.773002106685056E-1    4.289642523401104E-1
 8.151808104250000E9     1.458142328342324E-1    5.204691403554111E-1   -2.647807836874350E-3    1.227467582122289E-3   -2.647830771307178E-3    1.267971271155366E-3    2.776451200548292E-1    4.288956676348232E-1
 8.151813347500000E9     1.461551085993371E-1    5.202087742585454E-1   -2.634502908843891E-3    1.224799491674454E-3   -2.638809961956125E-3    1.252086908520424E-3    2.781340144831291E-1    4.286001209600667E-1
 8.151818590750000E9     1.465967410822955E-1    5.201407156872611E-1   -2.640316929165148E-3    1.222570604662535E-3   -2.659995184582784E-3    1.254274479856181E-3    2.780772455088421E-1    4.283138075891770E-1
 8.151823834000000E9     1.469321070040064E-1    5.199125632953533E-1   -2.657618890466741E-3    1.212780457744833E-3   -2.636138606143965E-3    1.261994782170392E-3    2.785333888864771E-1    4.281052148202421E-1
 8.151829077250000E9     1.472497809981805E-1    5.198379693378357E-1   -2.696894483192779E-3    1.217469999895977E-3   -2.657643220619995E-3    1.288398260932451E-3    2.788159001413671E-1    4.281136562080015E-1
 8.151834320500000E9     1.476204949764804E-1    5.198128937125553E-1   -2.649593572191901E-3    1.226141080186291E-3   -2.648763836905215E-3    1.283784875450933E-3    2.790997286486442E-1    4.278756786325703E-1
 8.151839563750000E9     1.479558112658556E-1    5.198248349365466E-1   -2.663483319752841E-3    1.229600959097928E-3   -2.666998548875102E-3    1.285860615533502E-3    2.794155572635382E-1    4.275484898588243E-1
 8.151844807000000E9     1.483897700861290E-1    5.196259113012447E-1   -2.652571630538676E-3    1.228877099018721E-3   -2.653429878613860E-3    1.289658991806509E-3    2.796554887730595E-1    4.274660428633894E-1
 8.151850050250000E9     1.488558417943129E-1    5.195462028753721E-1   -2.670224051606595E-3    1.228371766604254E-3   -2.673400182759863E-3    1.270072784494978E-3    2.799551524590918E-1    4.272383092509228E-1
 8.151855293500000E9     1.491469759993808E-1    5.193531052372445E-1   -2.663932393475548E-3    1.246334120508740E-3   -2.675292208173968E-3    1.298217279600855E-3    2.802811965758554E-1    4.272148945322949E-1
