#  HZ   S   RI   R     50.00 
! Rohde & Schwarz Vector Network Analyzer 
! Rohde-Schwarz,ZNB20-2Port,1311601062101988,3.16
! Created: UTC 3/21/2024, 1:16:17 AM
! freq[Hz]                re:S11                  im:S11                  re:S21                  im:S21                  re:S12                  im:S12                  re:S22                  im:S22
 8.151466085000000E9     1.218111398773157E-1    5.259770866162023E-1   -2.574790453907581E-3    9.930886763803439E-4   -2.591580995746975E-3    1.032500651959434E-3    2.590152368189909E-1    4.408599904830652E-1
 8.151471010125000E9     1.221528835159060E-1    5.259105297020696E-1   -2.570387914779826E-3    1.013799247875160E-3   -2.589616586817384E-3    1.074255424722856E-3    2.594497218403196E-1    4.407244878216947E-1
 8.151475935250000E9     1.225744253157748E-1    5.258901625513791E-1   -2.585909089620989E-3    1.030114913820563E-3   -2.583325170708666E-3    1.068873828949117E-3    2.596623795051023E-1    4.405951101378273E-1
 8.151480860375000E9     1.229062910797980E-1    5.257689549290463E-1   -2.570350757654688E-3    1.030032731747252E-3   -2.568114093900542E-3    1.044978590555424E-3    2.599686399330143E-1    4.404035798942511E-1
 8.151485785500000E9     1.232706778990540E-1    5.256753682031796E-1   -2.577503315047866E-3    1.016038568340897E-3   -2.553716758385861E-3    1.066958106176268E-3    2.600865490823984E-1    4.402398384899286E-1
 8.151490710625000E9     1.235520267517479E-1    5.256269357805621E-1   -2.568162653788352E-3    9.962981468919134E-4   -2.606995978428578E-3    1.063046593000605E-3    2.604108612741710E-1    4.400108240692312E-1
 8.151495635750000E9     1.239789173389762E-1    5.255698286293050E-1   -2.585574603002102E-3    1.041665471462864E-3   -2.586272473411745E-3    1.069950778087803E-3    2.607299524452820E-1    4.398609929475408E-1
 8.151500560875000E9     1.242428774204399E-1    5.254812119188269E-1   -2.568542469535736E-3    1.020254059998675E-3   -2.569684377103421E-3    1.085591728656580E-3    2.610215564076021E-1    4.397361051387084E-1
 8.151505486000000E9     1.245842870948122E-1    5.253026149951167E-1   -2.586824739738986E-3    1.034633274809398E-3   -2.603332975012689E-3    1.072286657099779E-3    2.613376101764447E-1    4.395752734537554E-1
 8.151510411125000E9     1.249321805671213E-1    5.252141337475057E-1   -2.584611487395140E-3    1.034623955680194E-3   -2.595304750353405E-3    1.061145854742910E-3    2.614653203272962E-1    4.393981690628260E-1
 8.151515336250000E9     1.252667330829899E-1    5.252644280871374E-1   -2.595729502766462E-3    1.058766713759055E-3   -2.588343197155655E-3    1.058496107762546E-3    2.617880255653798E-1    4.392198526188285E-1
 8.151520261375000E9     1.255518251210614E-1    5.251084859211381E-1   -2.571848889336212E-3    1.047027691862813E-3   -2.606458356822289E-3    1.092225269037242E-3    2.621658082991266E-1    4.390049217563506E-1
 8.151525186500000E9     1.261216001428982E-1    5.250848204603311E-1   -2.594821615350055E-3    1.046345695498019E-3   -2.607075175833410E-3    1.087338494747307E-3    2.622831338324031E-1    4.390894578972856E-1
 8.151530111625000E9     1.264052152568162E-1    5.248848047712135E-1   -2.581595058712861E-3    1.035800660375297E-3   -2.609228115430070E-3    1.081916765931091E-3    2.626589091307203E-1    4.387006981950884E-1
 8.151535036750000E9     1.266878877566694E-1    5.249981986413381E-1   -2.579024231932064E-3    1.042657961383195E-3   -2.614063651574686E-3    1.102207604247688E-3    2.629378805010136E-1    4.385563906417194E-1
 8.151539961875000E9     1.271003633379609E-1    5.249035676941579E-1   -2.586241711415106E-3    1.050919759534268E-3   -2.584737997241257E-3    1.088390673580895E-3    2.630605865289219E-1    4.383317727363206E-1
 8.151544887000000E9     1.273565935153239E-1    5.247773605449549E-1   -2.608516970030032E-3    1.046928061801873E-3   -2.594566833385323E-3    1.090311269663771E-3    2.635259751829769E-1    4.381735894846190E-1
 8.151549812125000E9     1.277084320524444E-1    5.247486812633171E-1   -2.571282912539396E-3    1.039550764005329E-3   -2.590472194770418E-3    1.114677319312966E-3    2.635855773128502E-1    4.381268694564118E-1
 8.151554737250000E9     1.281723477223574E-1    5.245784283372198E-1   -2.600729929322527E-3    1.046369716117670E-3   -2.599601373187488E-3    1.097892058529912E-3    2.638568478581848E-1    4.379012073108731E-1
 8.151559662375000E9     1.284797268768098E-1    5.246398203982880E-1   -2.572070689332452E-3    1.049475266173801E-3   -2.580239036241012E-3    1.128443965349623E-3    2.642203321178783E-1    4.378237163008920E-1
 8.151564587500000E9     1.286890605674562E-1    5.244949187677527E-1   -2.579719754224530E-3    1.052660934179068E-3   -2.586504647426893E-3    1.079239596606804E-3    2.644975716426912E-1    4.376375701010983E-1
 8.151569512625000E9     1.290706400111371E-1    5.244184834487839E-1   -2.580637612812427E-3    1.037729285610746E-3   -2.592418785232665E-3    1.105376685383716E-3    2.648217254608735E-1    4.373575668506275E-1
 8.151574437750000E9     1.294077694773172E-1    5.242432595580332E-1   -2.583441687282552E-3    1.060590430103460E-3   -2.578932362728388E-3    1.082011240166301E-3    2.651270291068752E-1    4.371331977619299E-1
 8.151579362875000E9     1.296807307315240E-1    5.241582792239410E-1   -2.590081191840673E-3    1.078247152212231E-3   -2.605095798554924E-3    1.129977686870090E-3    2.652537318023687E-1    4.371569098907051E-1
 8.151584288000000E9     1.301041820800844E-1    5.241156735638619E-1   -2.582832063175522E-3    1.091554235021464E-3   -2.599672081389749E-3    1.116931205515033E-3    2.656343209420203E-1    4.369141246406530E-1
 8.151589213125000E9     1.304700039566444E-1    5.241431033576315E-1   -2.581822310989604E-3    1.065983918172874E-3   -2.599260355164572E-3    1.074709394141726E-3    2.657815869789316E-1    4.366688901893626E-1
 8.151594138250000E9     1.307601166814449E-1    5.239968767181922E-1   -2.586239933744804E-3    1.066044164714135E-3   -2.604367198827538E-3    1.103268465044174E-3    2.661380286133494E-1    4.366360635333884E-1
 8.151599063375000E9     1.310119610892062E-1    5.239248762171363E-1   -2.594488429349256E-3    1.079183352321458E-3   -2.606728314137727E-3    1.117846002118972E-3    2.662909632354429E-1    4.362740882140599E-1
 8.151603988500000E9     1.314822429892354E-1    5.238797289979895E-1   -2.595712696652438E-3    1.072473622940668E-3   -2.615783962692952E-3    1.107684064643137E-3    2.665532282158489E-1    4.362785899589984E-1
 8.151608913625000E9     1.317439870741182E-1    5.237024603730585E-1   -2.600096405394651E-3    1.069234953594807E-3   -2.594078714708915E-3    1.144661566398482E-3    2.666933500342991E-1    4.361147321910677E-1
 8.151613838750000E9     1.321641058280459E-1    5.236541334697250E-1   -2.588236776883181E-3    1.072099568065603E-3   -2.565241342205823E-3    1.110535637549235E-3    2.671066527691398E-1    4.358665543685163E-1
 8.151618763875000E9     1.324452426943523E-1    5.235255892920815E-1   -2.577531461861971E-3    1.084223399212762E-3   -2.613757018375758E-3    1.165400877347857E-3    2.674825346580354E-1    4.357855568981568E-1
 8.151623689000000E9     1.327496962401309E-1    5.236198763879319E-1   -2.581548244420837E-3    1.077760675787737E-3   -2.583809081088915E-3    1.121440824404577E-3    2.676463385445868E-1    4.355067823787879E-1
 8.151628614125000E9     1.331238469243847E-1    5.233810945777470E-1   -2.640709922968809E-3    1.089784627150018E-3   -2.606992171974298E-3    1.129867763297845E-3    2.680363079593330E-1    4.354117594233243E-1
 8.151633539250000E9     1.334683045642566E-1    5.234581353544693E-1   -2.616917830884111E-3    1.082211730848791E-3   -2.585820398721509E-3    1.134374274118153E-3    2.682626344597170E-1    4.351406081893394E-1
 8.151638464375000E9     1.338555957064457E-1    5.232103369698904E-1   -2.570209625888410E-3    1.094248596614572E-3   -2.593951286278455E-3    1.154325905845587E-3    2.684991615521679E-1    4.349872149187675E-1
 8.151643389500000E9     1.341136698469981E-1    5.231679548567526E-1   -2.595828771106848E-3    1.080908052210432E-3   -2.604202939593374E-3    1.159485454630552E-3    2.687683947491185E-1    4.348788524415079E-1
 8.151648314625000E9     1.346184621941802E-1    5.230888802678515E-1   -2.588199222085813E-3    1.071611834598706E-3   -2.605700546310200E-3    1.128936347428134E-3    2.690860073298534E-1    4.345668927935418E-1
 8.151653239750000E9     1.348303389541040E-1    5.230569243357456E-1   -2.605774195197311E-3    1.120569397551371E-3   -2.623254933119091E-3    1.177184269328250E-3    2.692041893175211E-1    4.345070827693939E-1
 8.151658164875000E9     1.351982822077769E-1    5.229024451707842E-1   -2.591007368370513E-3    1.122226241467609E-3   -2.609697374591938E-3    1.127311119826091E-3    2.695086903201545E-1    4.343545341567327E-1
 8.151663090000000E9     1.356449670561159E-1    5.228615207241710E-1   -2.593776736636755E-3    1.126078882119355E-3   -2.620606987433059E-3    1.172313286227185E-3    2.698274388303805E-1    4.341313433418724E-1
 8.151668015125000E9     1.359296821068213E-1    5.228141202852010E-1   -2.602197273803798E-3    1.111574688328455E-3   -2.598676388055293E-3    1.154431139177242E-3    2.701553949056488E-1    4.339003618031706E-1
 8.151672940250000E9     1.362571888021440E-1    5.227065489081122E-1   -2.616866150129908E-3    1.100728497576386E-3   -2.617126280030193E-3    1.164488119259110E-3    2.704461893211975E-1    4.338641632560867E-1
 8.151677865375000E9     1.366432567169213E-1    5.226170133609280E-1   -2.612923252762217E-3    1.118376174560758E-3   -2.646842901462315E-3    1.188761234045233E-3    2.706603095485158E-1    4.335729777247153E-1
 8.151682790500000E9     1.369140046888355E-1    5.225600088802858E-1   -2.596798399558596E-3    1.123536488679308E-3   -2.646196347244438E-3    1.140325615945594E-3    2.709324449098094E-1    4.334378415989613E-1
 8.151687715625000E9     1.372760687835319E-1    5.224644299756118E-1   -2.603586110888972E-3    1.124856093673164E-3   -2.620130695476610E-3    1.172613811745455E-3    2.710403410983332E-1    4.332540983479572E-1
 8.151692640750000E9     1.376028408204386E-1    5.223566288077223E-1   -2.593151130741276E-3    1.113688059779921E-3   -2.619939191401167E-3    1.171793597942191E-3    2.712615380627878E-1    4.330852974771303E-1
 8.151697565875000E9     1.380292029801279E-1    5.223938617035910E-1   -2.614387428037002E-3    1.126976212186200E-3   -2.623472613059089E-3    1.165320440740786E-3    2.716814897813944E-1    4.328070557473070E-1
 8.151702491000000E9     1.383544829129713E-1    5.221631406537663E-1   -2.616443757468476E-3    1.123408868911844E-3   -2.637136014332193E-3    1.194759693398004E-3    2.720160209359236E-1    4.326659885598652E-1
 8.151707416125000E9     1.387000976581747E-1    5.222751717635260E-1   -2.612895091006393E-3    1.151390034087851E-3   -2.606806761706970E-3    1.198882547042868E-3    2.722207793249282E-1    4.325406216672940E-1
 8.151712341250000E9     1.389852242324289E-1    5.220529834659402E-1   -2.627166914792970E-3    1.121133242733875E-3   -2.627484873646921E-3    1.170587980454452E-3    2.723422608864615E-1    4.324105564604994E-1
 8.151717266375000E9     1.392374143024608E-1    5.219580748673537E-1   -2.611375839391293E-3    1.108356739799481E-3   -2.601479013643022E-3    1.184801247591747E-3    2.726875583885032E-1    4.322991662687836E-1
 8.151722191500000E9     1.396228090872317E-1    5.219058313712122E-1   -2.609754996593113E-3    1.137858430266178E-3   -2.629121757877094E-3    1.198234532485455E-3    2.729028766619161E-1    4.320041000223924E-1
 8.151727116625000E9     1.399038434174396E-1    5.218028386401610E-1   -2.623500483514870E-3    1.150362403613741E-3   -2.595771139537185E-3    1.204504591946468E-3    2.732310352430219E-1    4.319179896584414E-1
 8.151732041750000E9     1.402754179445141E-1    5.217704569736883E-1   -2.610901890098817E-3    1.138988184687877E-3   -2.625572629011484E-3    1.217991772992569E-3    2.734068105220694E-1    4.317879126462009E-1
 8.151736966875000E9     1.406886800093340E-1    5.216532990635567E-1   -2.640351681065912E-3    1.142710478801846E-3   -2.634807363249570E-3    1.214473963511035E-3    2.738130758083534E-1    4.316157385361896E-1
 8.151741892000000E9     1.410204217877641E-1    5.215621833329983E-1   -2.622785151872194E-3    1.140459475487729E-3   -2.641546892571383E-3    1.186964434374200E-3    2.741257377471067E-1    4.313273499255247E-1
 8.151746817125000E9     1.413954564200862E-1    5.214727653611281E-1   -2.622567165885179E-3    1.164657474873482E-3   -2.617226950597129E-3    1.198317152545942E-3    2.742963527349295E-1    4.311019929016879E-1
 8.151751742250000E9     1.416685727342083E-1    5.214156452079218E-1   -2.623279025396716E-3    1.161308612458265E-3   -2.632424247941733E-3    1.208639790812210E-3    2.745663680172855E-1    4.309940309420505E-1
 8.151756667375000E9     1.421078914491979E-1    5.212587642646609E-1   -2.625785225391379E-3    1.172511911070001E-3   -2.643883017267876E-3    1.189786133675530E-3    2.748465243703743E-1    4.308859555318226E-1
 8.151761592500000E9     1.424334240760419E-1    5.212529758774375E-1   -2.613921716642533E-3    1.168234612727147E-3   -2.662248409810297E-3    1.200818169013307E-3    2.750167393643635E-1    4.306888372879545E-1
 8.151766517625000E9     1.426555735135470E-1    5.212081386302311E-1   -2.633376892932970E-3    1.174340729000011E-3   -2.643469032275213E-3    1.207362378869402E-3    2.754706412034139E-1    4.304686906136290E-1
 8.151771442750000E9     1.430218748962929E-1    5.210133606639611E-1   -2.625470530568341E-3    1.161260102852775E-3   -2.619009902520098E-3    1.221125248766571E-3    2.757108913737159E-1    4.303665927018273E-1
 8.151776367875000E9     1.434162079011376E-1    5.209571233046252E-1   -2.627754517333735E-3    1.186197863895278E-3   -2.659846405320244E-3    1.229875470355517E-3    2.758658765279358E-1    4.301740381819877E-1
 8.151781293000000E9     1.438040939651656E-1    5.208347752871755E-1   -2.634281831900664E-3    1.149208997499246E-3   -2.657234672792719E-3    1.205701653899053E-3    2.761232746405273E-1    4.299255264729895E-1
 8.151786218125000E9     1.440735006443247E-1    5.207892140927681E-1   -2.632017218836579E-3    1.182658954115019E-3   -2.634426873126601E-3    1.232444750080010E-3    2.764247427406073E-1    4.298557884358443E-1
 8.151791143250000E9     1.444831303024145E-1    5.207352710216668E-1   -2.613178447908805E-3    1.195145705143661E-3   -2.650491283952512E-3    1.242253454672387E-3    2.765607724488602E-1    4.296002727852343E-1
 8.151796068375000E9     1.447552116543732E-1    5.204528484404491E-1   -2.622610547345172E-3    1.196739887074991E-3   -2.637269862526286E-3    1.243870461847095E-3    2.767978022580248E-1    4.295001289929188E-1
 8.151800993500000E9     1.450613899572346E-1    5.204727410255994E-1   -2.626565184563702E-3    1.187252130290598E-3   -2.665054381932328E-3    1.232623881874617E-3    2.771172530756636E-1    4.293681552554653E-1
 8.151805918625000E9     1.455146088396699E-1    5.203840297414301E-1   -2.652059202635219E-3    1.219122460833250E-3   -2.647708242507622E-3    1.228404154277187E-3    2.773877134938113E-1    4.290932145492013E-1
 8.151810843750000E9     1.458040079110586E-1    5.202967829262508E-1   -2.653138867125159E-3    1.201028415489694E-3   -2.655441876764462E-3    1.243734749515126E-3    2.776736785777327E-1    4.289117904212690E-1
 8.151815768875000E9     1.460637483111200E-1    5.201526106862175E-1   -2.609760993074914E-3    1.213847664501937E-3   -2.636391828647568E-3    1.275685936780129E-3    2.780321669569679E-1    4.286611511378901E-1
 8.151820694000000E9     1.464824594900652E-1    5.201379886450569E-1   -2.700643227170190E-3    1.200386337732481E-3   -2.669366632460593E-3    1.265988851546393E-3    2.782260436317044E-1    4.284832220330603E-1
 8.151825619125000E9     1.467918257917731E-1    5.200705228703915E-1   -2.651931438885388E-3    1.209984798931137E-3   -2.661355177427131E-3    1.305205058767272E-3    2.785571009725951E-1    4.283528142409009E-1
 8.151830544250000E9     1.471875818805858E-1    5.199227716816983E-1   -2.647053752839989E-3    1.194819260845710E-3   -2.656327831302452E-3    1.292175254786948E-3    2.786188779477359E-1    4.281630394960441E-1
 8.151835469375000E9     1.475966770224902E-1    5.198515104132208E-1   -2.647785447379118E-3    1.231631826975975E-3   -2.672912662731905E-3    1.244237442681026E-3    2.789416574095138E-1    4.280628227956775E-1
 8.151840394500000E9     1.479742922772061E-1    5.197234959382139E-1   -2.658160725431401E-3    1.221110079209119E-3   -2.665752965386555E-3    1.270868552920688E-3    2.792706586166483E-1    4.278875869128216E-1
 8.151845319625000E9     1.482042734254614E-1    5.196000412716981E-1   -2.668292271931310E-3    1.227522694686355E-3   -2.640435589463864E-3    1.277987184766291E-3    2.795157651945337E-1    4.277108043909785E-1
 8.151850244750000E9     1.486499788797156E-1    5.195270499429108E-1   -2.677818838600041E-3    1.218264117428133E-3   -2.660916477403008E-3    1.274445749156982E-3    2.798242985563318E-1    4.274800272986460E-1
 8.151855169875000E9     1.489228287115082E-1    5.195673627114716E-1   -2.636143965140716E-3    1.225156174122560E-3   -2.678923854266769E-3    1.303213947167051E-3    2.801465849039873E-1    4.273627446901601E-1
 8.151860095000000E9     1.492058278232161E-1    5.194106998153487E-1   -2.690550855296381E-3    1.211985507334174E-3   -2.713664048579479E-3    1.284496386492051E-3    2.802861221138264E-1    4.271683833412060E-1
 8.151865020125000E9     1.496499444229815E-1    5.193466354976386E-1   -2.678458042147097E-3    1.236878022714040E-3   -2.661045926895704E-3    1.325298589565380E-3    2.804619716975650E-1    4.269281087840445E-1
 8.151869945250000E9     1.500449545281262E-1    5.192421723623031E-1   -2.687663980650689E-3    1.254180536681798E-3   -2.663986873504429E-3    1.286843706432784E-3    2.808929566249252E-1    4.267830575196606E-1
 8.151874870375000E9     1.504295716502094E-1    5.190279322391690E-1   -2.674831104252006E-3    1.258895702525513E-3   -2.649115255713641E-3    1.286364069969190E-3    2.810128135561394E-1    4.266709222785521E-1
 8.151879795500000E9     1.506187252753248E-1    5.189277637886385E-1   -2.659693056041045E-3    1.264284272156413E-3   -2.680264679098253E-3    1.325588268595297E-3    2.812981623644171E-1    4.266594649446655E-1
 8.151884720625000E9     1.510337775814915E-1    5.188243820067850E-1   -2.672572918914039E-3    1.227617200289983E-3   -2.670550044676636E-3    1.257882990222487E-3    2.815718565356587E-1    4.263715789296707E-1
 8.151889645750000E9     1.514111254026671E-1    5.188155800922152E-1   -2.654791268315157E-3    1.266121830320775E-3   -2.654093306191872E-3    1.289730360757371E-3    2.818865663418675E-1    4.261249711340940E-1
 8.151894570875000E9     1.516523713544395E-1    5.187397424997520E-1   -2.687396770176312E-3    1.276475553799404E-3   -2.689509248314110E-3    1.302597039745909E-3    2.821623287806456E-1    4.259028147780147E-1
 8.151899496000000E9     1.521107319387514E-1    5.186342399690937E-1   -2.683231759659381E-3    1.266402602721817E-3   -2.696512281562060E-3    1.314544444194969E-3    2.823149661200113E-1    4.257896527026219E-1
 8.151904421125000E9     1.522878712322074E-1    5.186353919035420E-1   -2.671127680198124E-3    1.252320833120364E-3   -2.681663007843929E-3    1.292176362125262E-3    2.827488156741192E-1    4.254185432639684E-1
 8.151909346250000E9     1.527037625864779E-1    5.184196269335363E-1   -2.670723365689436E-3    1.277337634024490E-3   -2.718999921946292E-3    1.306006222024900E-3    2.828971432943402E-1    4.255161522197579E-1
