#  HZ   S   RI   R     50.00 
! Rohde & Schwarz Vector Network Analyzer 
! Rohde-Schwarz,ZNB20-2Port,1311601062101988,3.16
! Created: UTC 3/21/2024, 1:16:26 AM
! freq[Hz]                re:S11                  im:S11                  re:S21                  im:S21                  re:S12                  im:S12                  re:S22                  im:S22
 8.151498544000000E9     1.239593369430075E-1    5.255039985382208E-1   -2.577740875771003E-3    1.023094972326569E-3   -2.576631640219330E-3    1.058822207518265E-3    2.610247812133282E-1    4.399165034956213E-1
 8.151503364900000E9     1.242255665768270E-1    5.254190251120269E-1   -2.576966849800665E-3    1.015421295893334E-3   -2.584507430573410E-3    1.060896387921067E-3    2.610049591201934E-1    4.397461468288600E-1
 8.151508185800000E9     1.246566396172492E-1    5.252698509828925E-1   -2.592221865128032E-3    1.038418447749587E-3   -2.580761457479782E-3    1.075228842227987E-3    2.613950509901141E-1    4.396464366883231E-1
 8.151513006700000E9     1.250628267841299E-1    5.251471857411303E-1   -2.546043513800476E-3    1.018560405212261E-3   -2.582569465407697E-3    1.068504219829379E-3    2.616708717953634E-1    4.393933415636307E-1
 8.151517827600000E9     1.253036266916359E-1    5.252388730153928E-1   -2.563113578014408E-3    1.026234026984701E-3   -2.590990096167142E-3    1.076697087112676E-3    2.620371523982152E-1    4.393193731287007E-1
 8.151522648500000E9     1.256413863583134E-1    5.250551618412491E-1   -2.584097540366401E-3    1.050734116841945E-3   -2.595034275241090E-3    1.079779738016158E-3    2.621848864455638E-1    4.391278458652296E-1
 8.151527469400000E9     1.260031604832032E-1    5.250017076437068E-1   -2.606749199449725E-3    1.077917322442935E-3   -2.575804915428671E-3    1.078147770506812E-3    2.622594629881498E-1    4.390184340008217E-1
 8.151532290300000E9     1.264104594627762E-1    5.250339106559720E-1   -2.581089552428028E-3    1.005832318919826E-3   -2.576899452739939E-3    1.052991444886093E-3    2.625859706452572E-1    4.388743304169800E-1
 8.151537111200000E9     1.267072553862607E-1    5.248058231704253E-1   -2.570291598793286E-3    1.019777236526749E-3   -2.573901879101770E-3    1.078702262083642E-3    2.629576725317660E-1    4.386723331012022E-1
 8.151541932100000E9     1.270871334331373E-1    5.248096822596331E-1   -2.578317829339116E-3    1.026859590818275E-3   -2.617349617955013E-3    1.081333934758536E-3    2.630568038293783E-1    4.384531241891053E-1
 8.151546753000000E9     1.273397813434866E-1    5.246461681397017E-1   -2.573303530086345E-3    1.032983890994987E-3   -2.573659612462262E-3    1.064934883664972E-3    2.634311062989741E-1    4.382985995643916E-1
 8.151551573900000E9     1.277318968965868E-1    5.246397923224630E-1   -2.574025716411238E-3    1.044510576353803E-3   -2.625592441262260E-3    1.103425167588760E-3    2.637671104703263E-1    4.382255399862338E-1
 8.151556394800000E9     1.280201773916184E-1    5.246384339537339E-1   -2.587509801076046E-3    1.041023365079894E-3   -2.598057835918102E-3    1.113400586063883E-3    2.640381030466462E-1    4.379085207723377E-1
 8.151561215700000E9     1.283221974239524E-1    5.245408565126221E-1   -2.597339887959896E-3    1.041058889942861E-3   -2.590938083501771E-3    1.096095514320551E-3    2.641681313149074E-1    4.379282682424441E-1
 8.151566036600000E9     1.287318087958216E-1    5.244624032337661E-1   -2.601022475946415E-3    1.025677644582456E-3   -2.561120021225754E-3    1.090187446488559E-3    2.645284293906038E-1    4.376372931508109E-1
 8.151570857500000E9     1.290147830699594E-1    5.242960510348817E-1   -2.592116171890666E-3    1.081021930860412E-3   -2.597086410138457E-3    1.114618536485686E-3    2.647857545042954E-1    4.374581506040713E-1
 8.151575678400000E9     1.293331324107145E-1    5.243509045334898E-1   -2.572459180041676E-3    1.061637730311033E-3   -2.601516513453067E-3    1.121177126536279E-3    2.649034448515675E-1    4.373727881244539E-1
 8.151580499300000E9     1.298227561755504E-1    5.242800101511043E-1   -2.574425507414589E-3    1.062011683000180E-3   -2.546946051542081E-3    1.123816003286281E-3    2.651306677691325E-1    4.370540752807074E-1
 8.151585320200000E9     1.300946530942619E-1    5.241474321112954E-1   -2.594685440926415E-3    1.067971605133348E-3   -2.588186368876423E-3    1.127531247463840E-3    2.657419070396997E-1    4.370469851171951E-1
 8.151590141100000E9     1.304996959100534E-1    5.240823969014262E-1   -2.600210237848713E-3    1.051705957890482E-3   -2.582344117850113E-3    1.119407942099665E-3    2.657538936056823E-1    4.367846676834674E-1
 8.151594962000000E9     1.307483755653978E-1    5.240325104309886E-1   -2.587377829562911E-3    1.080240739136505E-3   -2.590947232882235E-3    1.125840879912669E-3    2.660681156848826E-1    4.366842066803648E-1
 8.151599782900000E9     1.311295689850526E-1    5.238058512145981E-1   -2.595680788778155E-3    1.056600665853468E-3   -2.585441564402942E-3    1.107445327880017E-3    2.662830632932537E-1    4.364537750453830E-1
 8.151604603800000E9     1.314407110397796E-1    5.239116908647571E-1   -2.584012591725489E-3    1.089136257043735E-3   -2.573193693263880E-3    1.119816908564820E-3    2.665915786628213E-1    4.363513815491129E-1
 8.151609424700000E9     1.316736101222410E-1    5.236556214291191E-1   -2.573911480127635E-3    1.062765939111855E-3   -2.580502418840811E-3    1.111975131833142E-3    2.667573627822883E-1    4.361656049851925E-1
 8.151614245600000E9     1.321484137451778E-1    5.236910900176691E-1   -2.576717450826098E-3    1.097540622135420E-3   -2.586495422855127E-3    1.129698871214597E-3    2.672160785501973E-1    4.360139197803459E-1
 8.151619066500000E9     1.323796187354850E-1    5.235772310790744E-1   -2.590277440380778E-3    1.054208460146653E-3   -2.571285844519877E-3    1.132634221803130E-3    2.673692992108838E-1    4.357212262763727E-1
 8.151623887400000E9     1.326635260402811E-1    5.234714716664364E-1   -2.602028105085032E-3    1.065890116585828E-3   -2.605110220854041E-3    1.111482546279537E-3    2.676904746229901E-1    4.357007316223006E-1
 8.151628708300000E9     1.330041512160028E-1    5.234037798296889E-1   -2.583412486985640E-3    1.097273790374110E-3   -2.621973068452942E-3    1.152118905042886E-3    2.678719111596082E-1    4.355433562492766E-1
 8.151633529200000E9     1.333810783688864E-1    5.233472968475357E-1   -2.598813322089084E-3    1.112831867905209E-3   -2.591801608064712E-3    1.128784646716984E-3    2.681156818015644E-1    4.352497900114420E-1
 8.151638350100000E9     1.338185750198962E-1    5.232952056159238E-1   -2.584736024035532E-3    1.113277949958573E-3   -2.601726173280618E-3    1.124323038336405E-3    2.683936591046613E-1    4.351729114998449E-1
 8.151643171000000E9     1.340788129939615E-1    5.232022987269771E-1   -2.605237698798562E-3    1.094965614749580E-3   -2.598063470143709E-3    1.146988493529095E-3    2.686523989109422E-1    4.350872085520694E-1
 8.151647991900000E9     1.344100648195976E-1    5.231870856289539E-1   -2.610718074950038E-3    1.103582650976817E-3   -2.632592905113911E-3    1.135943442020853E-3    2.689626358196964E-1    4.347142142926702E-1
 8.151652812800000E9     1.347418633183060E-1    5.230388127583562E-1   -2.578517247121700E-3    1.113661216341440E-3   -2.658631849527580E-3    1.133998854108298E-3    2.691709355860242E-1    4.345648300689260E-1
 8.151657633700000E9     1.350690201875220E-1    5.229123509894955E-1   -2.597712762065152E-3    1.100909509487233E-3   -2.590864754774633E-3    1.153179203581315E-3    2.693810603192326E-1    4.345445987129403E-1
 8.151662454600000E9     1.353376062934174E-1    5.228429663587817E-1   -2.577205043950411E-3    1.082345615152785E-3   -2.619940478681145E-3    1.119519045973927E-3    2.696909440193138E-1    4.342557530866714E-1
 8.151667275500000E9     1.355935915082024E-1    5.227955665281554E-1   -2.589999855731082E-3    1.108277839987385E-3   -2.623171753247299E-3    1.166133336049885E-3    2.699727465398999E-1    4.340876891371040E-1
 8.151672096400000E9     1.361076765684249E-1    5.226870952302695E-1   -2.604850004477318E-3    1.096157958618224E-3   -2.596146122098309E-3    1.178962292108643E-3    2.701574550732371E-1    4.340054982938343E-1
 8.151676917300000E9     1.363723538097934E-1    5.227102098250689E-1   -2.606080435897719E-3    1.100170776907080E-3   -2.624647276474682E-3    1.126408593953469E-3    2.704410814435592E-1    4.338343833296877E-1
 8.151681738200000E9     1.367766174643812E-1    5.225901273251321E-1   -2.613571871961031E-3    1.112993087185665E-3   -2.575907733308810E-3    1.143246042866876E-3    2.709000762425529E-1    4.336074055644681E-1
 8.151686559100000E9     1.370913243105372E-1    5.225087709989370E-1   -2.619264834044004E-3    1.099112539664905E-3   -2.635519858421598E-3    1.174792181451277E-3    2.710027486037773E-1    4.334422179475442E-1
 8.151691380000000E9     1.374024299841135E-1    5.224108185090732E-1   -2.590402683007751E-3    1.115642244233000E-3   -2.632745246137316E-3    1.155819988001273E-3    2.712975467861811E-1    4.333200036141697E-1
 8.151696200900000E9     1.377776635167300E-1    5.223578369900154E-1   -2.605977871271448E-3    1.146184148730032E-3   -2.617471430064809E-3    1.158039436837996E-3    2.715736195026867E-1    4.331813149050979E-1
 8.151701021800000E9     1.380462980488840E-1    5.223103364162671E-1   -2.622497535133200E-3    1.131991549546744E-3   -2.636387820187258E-3    1.175654936522680E-3    2.717667800007276E-1    4.330462596988572E-1
 8.151705842700000E9     1.384394336540045E-1    5.221026150351044E-1   -2.617516258119791E-3    1.115691845731253E-3   -2.615080585758373E-3    1.176579103173247E-3    2.720624129362511E-1    4.328022574274574E-1
 8.151710663600000E9     1.387537889183796E-1    5.219979318846466E-1   -2.619617161010661E-3    1.137390498578988E-3   -2.624620864970264E-3    1.173344710520175E-3    2.723368801159217E-1    4.326061830607693E-1
 8.151715484500000E9     1.390300930360838E-1    5.220434834201121E-1   -2.612094984696605E-3    1.138418605808560E-3   -2.613310102704948E-3    1.145029624683813E-3    2.725295314551574E-1    4.324307783213870E-1
 8.151720305400000E9     1.394530129966597E-1    5.218645082147765E-1   -2.611401339282024E-3    1.104008287113977E-3   -2.630555438298551E-3    1.188745381140617E-3    2.728292225303410E-1    4.324036404105764E-1
 8.151725126300000E9     1.396808210691564E-1    5.217813900166531E-1   -2.595894326051129E-3    1.140757559797689E-3   -2.644327387752569E-3    1.209102163743008E-3    2.731035050126447E-1    4.320308157573488E-1
 8.151729947200000E9     1.400807403375901E-1    5.217614894509660E-1   -2.621017386238632E-3    1.111938139102394E-3   -2.601246145654212E-3    1.177774570931436E-3    2.733037375560377E-1    4.320421241545864E-1
 8.151734768100000E9     1.404359899537408E-1    5.216493858439939E-1   -2.619984252591166E-3    1.134179991030634E-3   -2.639363700732505E-3    1.162722396750290E-3    2.736852072902519E-1    4.316919784047528E-1
 8.151739589000000E9     1.407692947255333E-1    5.215397147143104E-1   -2.631903185631573E-3    1.152464651167003E-3   -2.627338343235038E-3    1.213471609532926E-3    2.740092347463074E-1    4.315589101506620E-1
 8.151744409900000E9     1.410636636524258E-1    5.214770295822261E-1   -2.625823223046288E-3    1.162010648689669E-3   -2.630763780626533E-3    1.201514000666248E-3    2.740788950313366E-1    4.314693268063702E-1
 8.151749230800000E9     1.414324128701064E-1    5.214905472588947E-1   -2.612867657155886E-3    1.161129054002157E-3   -2.636298190674238E-3    1.202370925879871E-3    2.743265153913764E-1    4.313034343260603E-1
 8.151754051700000E9     1.417567722822619E-1    5.213257269260303E-1   -2.613642759534066E-3    1.126186211616000E-3   -2.638594123139727E-3    1.235865300436384E-3    2.747363924528165E-1    4.310926302463037E-1
 8.151758872600000E9     1.420653267435101E-1    5.211671520767215E-1   -2.634728567867604E-3    1.155256016796179E-3   -2.634330329461944E-3    1.204484858335963E-3    2.748354643789143E-1    4.308527856519669E-1
 8.151763693500000E9     1.425032100471336E-1    5.211866168864108E-1   -2.639035900002102E-3    1.192942033648286E-3   -2.606557537359278E-3    1.178923327381025E-3    2.750803249627379E-1    4.305808537515398E-1
 8.151768514400000E9     1.427182960837340E-1    5.211253951144221E-1   -2.613587216584251E-3    1.180316012276538E-3   -2.628514778958973E-3    1.241006858230424E-3    2.754192441826471E-1    4.305625571003589E-1
 8.151773335300000E9     1.431565736882717E-1    5.209231915744158E-1   -2.618968689344705E-3    1.150674954117187E-3   -2.608687718984168E-3    1.196718077375648E-3    2.755919548376046E-1    4.303536963245832E-1
 8.151778156200000E9     1.434525451211283E-1    5.209757443779190E-1   -2.607908105711254E-3    1.168900934142672E-3   -2.606999131210342E-3    1.192719694288980E-3    2.758444573534780E-1    4.302034023060592E-1
 8.151782977100000E9     1.437714429651566E-1    5.207645747971252E-1   -2.644888946533307E-3    1.158652658822813E-3   -2.645183108484923E-3    1.219650813792610E-3    2.760593243134166E-1    4.300447595740965E-1
 8.151787798000000E9     1.439931642950721E-1    5.208554934343163E-1   -2.622992580091872E-3    1.178999214326501E-3   -2.621022653085847E-3    1.234264860738702E-3    2.765319504809451E-1    4.298576104690293E-1
 8.151792618900000E9     1.445086833891952E-1    5.206181647214492E-1   -2.635058890196095E-3    1.189058153476938E-3   -2.637345961693829E-3    1.197555106042755E-3    2.766683678311714E-1    4.295845129016850E-1
 8.151797439800000E9     1.449172500322592E-1    5.205819310833528E-1   -2.608852521348614E-3    1.186860490762409E-3   -2.636465233091022E-3    1.224316239446106E-3    2.769456386364907E-1    4.295888850293257E-1
 8.151802260700000E9     1.451384830907896E-1    5.204401746375503E-1   -2.610710973957520E-3    1.189940871170158E-3   -2.652906492455534E-3    1.253888515174107E-3    2.771704385374069E-1    4.292998921531789E-1
 8.151807081600000E9     1.454808855893848E-1    5.203942695789072E-1   -2.664949772222731E-3    1.186209385645156E-3   -2.632957104658441E-3    1.225005240694631E-3    2.774141763449628E-1    4.292383630396313E-1
 8.151811902500000E9     1.458052359663152E-1    5.203072341518377E-1   -2.646031125434026E-3    1.213853502429308E-3   -2.656961721545815E-3    1.244079025613938E-3    2.777069162693881E-1    4.289927445545957E-1
 8.151816723400000E9     1.462038350050083E-1    5.202354394533727E-1   -2.666214018278182E-3    1.193819725708628E-3   -2.648901897723718E-3    1.262751594618350E-3    2.778576438793424E-1    4.287015408829905E-1
 8.151821544300000E9     1.464452890658325E-1    5.200035923047983E-1   -2.640297074319138E-3    1.180011265091087E-3   -2.685426155735646E-3    1.237256858981805E-3    2.781374404080645E-1    4.287439862040368E-1
 8.151826365200000E9     1.468104325710021E-1    5.200666447893936E-1   -2.615008534389115E-3    1.190543155115914E-3   -2.657488047648151E-3    1.238452375679599E-3    2.785003348335378E-1    4.285404211922584E-1
 8.151831186100000E9     1.471938143361132E-1    5.199911524919302E-1   -2.663487813905153E-3    1.199656202300773E-3   -2.649815683653307E-3    1.260799969801866E-3    2.786320435204377E-1    4.282920987769033E-1
 8.151836007000000E9     1.474189370508106E-1    5.197786564471772E-1   -2.639564899400438E-3    1.202558649203470E-3   -2.666308678591996E-3    1.243769746555780E-3    2.789183336352592E-1    4.282535689573452E-1
 8.151840827900000E9     1.479206707482627E-1    5.198244727132874E-1   -2.626603057481102E-3    1.211640055706642E-3   -2.658460088442618E-3    1.262660534615246E-3    2.792631701680343E-1    4.278335592132754E-1
 8.151845648800000E9     1.481757819620443E-1    5.195395584097527E-1   -2.665724506521610E-3    1.232546676124081E-3   -2.660743928049047E-3    1.252006217917601E-3    2.795218264660365E-1    4.277322624378517E-1
 8.151850469700000E9     1.485109284842937E-1    5.195833483512006E-1   -2.648681291180866E-3    1.239425756504319E-3   -2.646954365305740E-3    1.277431554004469E-3    2.797709601612563E-1    4.275732982373322E-1
 8.151855290600000E9     1.489322577487313E-1    5.193698353306561E-1   -2.648551356126513E-3    1.231363793288730E-3   -2.636370364055185E-3    1.264154965197833E-3    2.800163250978555E-1    4.273576002789850E-1
 8.151860111500000E9     1.491601757732519E-1    5.194846180772130E-1   -2.637822225529984E-3    1.242867229465362E-3   -2.682043598440556E-3    1.279736388818175E-3    2.802817850301705E-1    4.272585326614810E-1
 8.151864932400000E9     1.495048338926716E-1    5.193110168005575E-1   -2.659659209120632E-3    1.246589708445052E-3   -2.662950942224085E-3    1.284952624900425E-3    2.804746019090670E-1    4.270235705735920E-1
 8.151869753300000E9     1.498334506841380E-1    5.191846275740992E-1   -2.647020909517751E-3    1.218520721744080E-3   -2.621176354744328E-3    1.288250983672397E-3    2.807034818727916E-1    4.270730121182945E-1
 8.151874574200000E9     1.501526654177583E-1    5.191565212198472E-1   -2.651692760342533E-3    1.240696321077940E-3   -2.643356635690117E-3    1.314470406640109E-3    2.810576414384222E-1    4.267375434406505E-1
 8.151879395100000E9     1.505700260248166E-1    5.189642599050942E-1   -2.655232311343293E-3    1.233108690488033E-3   -2.644568072371233E-3    1.315913660026253E-3    2.813975807038629E-1    4.267140355660416E-1
 8.151884216000000E9     1.508613940204299E-1    5.188441683740320E-1   -2.666185472213710E-3    1.271947262584071E-3   -2.656630099437234E-3    1.325185135401746E-3    2.815828894508519E-1    4.263954849498580E-1
 8.151889036900000E9     1.510866187091127E-1    5.188044575873747E-1   -2.688846743050670E-3    1.245562198394612E-3   -2.704225627920257E-3    1.290569830292720E-3    2.817120886203379E-1    4.260903897684616E-1
 8.151893857800000E9     1.513259296793218E-1    5.188329205303405E-1   -2.662754444925342E-3    1.277853895628582E-3   -2.686931338123000E-3    1.279454830246843E-3    2.820310388103812E-1    4.261483926437127E-1
 8.151898678700000E9     1.519455666814939E-1    5.186470888958494E-1   -2.668644873018668E-3    1.259045383154841E-3   -2.662652242954171E-3    1.328286826168257E-3    2.822575017712571E-1    4.258520721690981E-1
 8.151903499600000E9     1.522852331537942E-1    5.184900205531751E-1   -2.693351359232354E-3    1.274970018927577E-3   -2.669120832348062E-3    1.338461961791796E-3    2.824800259225246E-1    4.258685428391116E-1
 8.151908320500000E9     1.525346356823096E-1    5.184290926762810E-1   -2.671304596568830E-3    1.281109794324411E-3   -2.648775732835170E-3    1.318039073826191E-3    2.827704397805842E-1    4.255000665329750E-1
 8.151913141400000E9     1.528682337676599E-1    5.183065098745439E-1   -2.690519797416839E-3    1.293193635158505E-3   -2.673039345125343E-3    1.339723610513488E-3    2.830330444692483E-1    4.253195632523698E-1
 8.151917962300000E9     1.532498372793808E-1    5.182407499462099E-1   -2.680185313706166E-3    1.288689550659586E-3   -2.676362743583562E-3    1.342374373204850E-3    2.834471208927032E-1    4.252393738189818E-1
 8.151922783200000E9     1.535438478018607E-1    5.182623234967046E-1   -2.687269962368291E-3    1.274590416146762E-3   -2.699246607473321E-3    1.297809923065452E-3    2.835415567724673E-1    4.250101875984343E-1
 8.151927604100000E9     1.539092958703955E-1    5.181336088892284E-1   -2.681660740143905E-3    1.299340801832805E-3   -2.685159827161768E-3    1.328310478109319E-3    2.837300677722098E-1    4.248542014362188E-1
 8.151932425000000E9     1.541921712126028E-1    5.178731100975633E-1   -2.689200365981961E-3    1.278742899054572E-3   -2.687622177620423E-3    1.351127574120266E-3    2.841161341174773E-1    4.246357619958389E-1
