#  HZ   S   RI   R     50.00 
! Rohde & Schwarz Vector Network Analyzer 
! Rohde-Schwarz,ZNB20-2Port,1311601062101988,3.16
! Created: UTC 3/21/2024, 12:52:55 AM
! freq[Hz]                re:S11                  im:S11                  re:S21                  im:S21                  re:S12                  im:S12                  re:S22                  im:S22
 8.151190063000000E9     1.183972824800396E-1    5.302342386342486E-1   -2.761729066458678E-3    1.087566005893677E-3   -2.807612674463398E-3    1.174667447474646E-3    2.635243384869911E-1    4.413439642187098E-1
 8.151192823550000E9     1.185534797851674E-1    5.302420577969372E-1   -2.810059545900724E-3    1.104865170949889E-3   -2.819597896275846E-3    1.144773933076124E-3    2.637150880443300E-1    4.412912724762535E-1
 8.151195584100000E9     1.188023317637082E-1    5.301597077983431E-1   -2.792658614892260E-3    1.099688554796276E-3   -2.838187396168980E-3    1.164434195616795E-3    2.637727246032623E-1    4.412675923181472E-1
 8.151198344650000E9     1.188943331447944E-1    5.301870142225821E-1   -2.808314981656334E-3    1.139901348963597E-3   -2.796704181141072E-3    1.161175493503918E-3    2.640994993169057E-1    4.412195600262863E-1
 8.151201105200000E9     1.192330381235817E-1    5.301951738583168E-1   -2.798978715506972E-3    1.106583205259293E-3   -2.830728294569377E-3    1.138947381206074E-3    2.640871375270111E-1    4.409778220598390E-1
 8.151203865750000E9     1.192767884416948E-1    5.301003462646874E-1   -2.802097732309874E-3    1.114151891186300E-3   -2.798792785724107E-3    1.149171300598144E-3    2.643650748954640E-1    4.410228101601352E-1
 8.151206626300000E9     1.194310056792046E-1    5.300100701312856E-1   -2.794126605558237E-3    1.143447547209026E-3   -2.827433657005536E-3    1.214927726569275E-3    2.645951942811183E-1    4.408665327801424E-1
 8.151209386850000E9     1.197522857235342E-1    5.300342271649582E-1   -2.816503883342463E-3    1.120988605732199E-3   -2.799235377085403E-3    1.192108480474659E-3    2.646374662376865E-1    4.408970318321504E-1
 8.151212147400000E9     1.199360725842677E-1    5.299010364109740E-1   -2.795922618155633E-3    1.142741240298597E-3   -2.817740164779454E-3    1.176144633571575E-3    2.648639679809598E-1    4.406090977067476E-1
 8.151214907950000E9     1.202559850798139E-1    5.298757301245860E-1   -2.804261931518890E-3    1.144442743884680E-3   -2.783587550528601E-3    1.198859435047476E-3    2.648851801548019E-1    4.403895146725419E-1
 8.151217668500000E9     1.202557217686931E-1    5.299084108488337E-1   -2.827073295371028E-3    1.136029465941091E-3   -2.831163249187992E-3    1.184002447121693E-3    2.651060297097460E-1    4.403695180248932E-1
 8.151220429050000E9     1.206215488384400E-1    5.297941206381382E-1   -2.842561615527523E-3    1.145647872557022E-3   -2.816073043727701E-3    1.187507612472065E-3    2.651415691999573E-1    4.403723073993187E-1
 8.151223189600000E9     1.207441855132583E-1    5.298818483835620E-1   -2.830114582441160E-3    1.142377083821708E-3   -2.844963597046156E-3    1.171720180293185E-3    2.653754459921205E-1    4.403745698262015E-1
 8.151225950150000E9     1.210185032230707E-1    5.298064954703245E-1   -2.847178585792766E-3    1.138286265790661E-3   -2.828393786110056E-3    1.206814482210542E-3    2.655779502611049E-1    4.401515519551504E-1
 8.151228710700000E9     1.211857266826786E-1    5.297092371889464E-1   -2.795255521745375E-3    1.117967064972436E-3   -2.837373226504304E-3    1.203861076964693E-3    2.656925076377940E-1    4.400978394149788E-1
 8.151231471250000E9     1.213602159031089E-1    5.295875700857580E-1   -2.844081497523156E-3    1.157303372252566E-3   -2.833531204607313E-3    1.187674749306834E-3    2.658674339004314E-1    4.402048268874273E-1
 8.151234231800000E9     1.215972790691860E-1    5.296505553801025E-1   -2.796700472112409E-3    1.146615218647368E-3   -2.810451358751625E-3    1.208105520034772E-3    2.659773989315209E-1    4.398739891799597E-1
 8.151236992350000E9     1.218112538694213E-1    5.295885969478242E-1   -2.838458546348091E-3    1.158658477627351E-3   -2.831452963122448E-3    1.219257439139908E-3    2.659867721235999E-1    4.397964747665484E-1
 8.151239752900000E9     1.220553533020831E-1    5.295376797055743E-1   -2.825467380651707E-3    1.165341612087793E-3   -2.812734019595750E-3    1.200707860748373E-3    2.663650894843469E-1    4.398456466174722E-1
 8.151242513450000E9     1.222884139355301E-1    5.294498718841898E-1   -2.836471126373699E-3    1.155962313808406E-3   -2.841150068511886E-3    1.225386965154565E-3    2.664550342750940E-1    4.395499439883019E-1
 8.151245274000000E9     1.224630869492153E-1    5.294403439919563E-1   -2.827461556491504E-3    1.163986052202199E-3   -2.837760668930719E-3    1.230651802546725E-3    2.666028597320809E-1    4.394622735780765E-1
 8.151248034550000E9     1.226307954929427E-1    5.293992835127380E-1   -2.840192256097517E-3    1.159232474522234E-3   -2.818769178144924E-3    1.230484877633122E-3    2.667329528144660E-1    4.394522478954186E-1
 8.151250795100000E9     1.228940061063070E-1    5.293058655062306E-1   -2.848251047730744E-3    1.171305011833354E-3   -2.859717060231049E-3    1.246907981908692E-3    2.667889239077052E-1    4.394406969311123E-1
 8.151253555650000E9     1.230019073990969E-1    5.292243884015176E-1   -2.838066182691406E-3    1.165311440906765E-3   -2.822148145008340E-3    1.228923069753295E-3    2.670425726691448E-1    4.392525904191788E-1
 8.151256316200000E9     1.232724220138540E-1    5.292517057304088E-1   -2.809722291452041E-3    1.146094259859532E-3   -2.832992026574146E-3    1.227278261485801E-3    2.672143842995613E-1    4.391016705457516E-1
 8.151259076750000E9     1.235318133071681E-1    5.292517853556051E-1   -2.841742735582875E-3    1.144106601008856E-3   -2.847062247915662E-3    1.253950539121132E-3    2.672532502890080E-1    4.390276620296429E-1
 8.151261837300000E9     1.235217995984521E-1    5.290438734835354E-1   -2.836848664970143E-3    1.151939210645830E-3   -2.839511569816921E-3    1.228916769734133E-3    2.675969688687703E-1    4.389916424345113E-1
 8.151264597850000E9     1.238350462524955E-1    5.290457627900088E-1   -2.861952646604640E-3    1.187665305598939E-3   -2.850819094533300E-3    1.237920611544541E-3    2.676742761367462E-1    4.389900758577187E-1
 8.151267358400000E9     1.239951120260291E-1    5.289670676382947E-1   -2.872644749993171E-3    1.175656496704100E-3   -2.854369530491526E-3    1.220929302728835E-3    2.678860621510633E-1    4.387633754774933E-1
 8.151270118950000E9     1.243052906138484E-1    5.289827700981337E-1   -2.843654362606491E-3    1.188062619290501E-3   -2.847643433083109E-3    1.229384793396091E-3    2.680874313901760E-1    4.386139590186818E-1
 8.151272879500000E9     1.245360813337582E-1    5.289940106656629E-1   -2.820780064453531E-3    1.185240951346297E-3   -2.871992271833280E-3    1.240783453318762E-3    2.681740486356429E-1    4.385707952759952E-1
 8.151275640050000E9     1.247196685432174E-1    5.287986187004750E-1   -2.865187437043625E-3    1.190466963938909E-3   -2.856399373273930E-3    1.256011156451801E-3    2.682411329336453E-1    4.384937905865670E-1
 8.151278400600000E9     1.249381185017928E-1    5.287953228603628E-1   -2.842302979848701E-3    1.182621029822383E-3   -2.848264645512725E-3    1.261995868652426E-3    2.683112891451367E-1    4.385301668847791E-1
 8.151281161150000E9     1.250683847833758E-1    5.288354036904795E-1   -2.833574882150916E-3    1.183749285887034E-3   -2.887277460921187E-3    1.230861527401601E-3    2.684730024032277E-1    4.381361924696661E-1
 8.151283921700000E9     1.254116696129703E-1    5.287107930310736E-1   -2.875062846999286E-3    1.204758389912340E-3   -2.881131359852821E-3    1.266936878949145E-3    2.687250546434850E-1    4.381555308732949E-1
 8.151286682250000E9     1.254714021611352E-1    5.287831613855042E-1   -2.879472101270413E-3    1.191452943176600E-3   -2.864480906865012E-3    1.247292420754933E-3    2.689656889646665E-1    4.379985143809298E-1
 8.151289442800000E9     1.257030022298131E-1    5.286725385606805E-1   -2.883532813006641E-3    1.191770785534692E-3   -2.875666271837641E-3    1.240745738334464E-3    2.689575096979595E-1    4.379741442947503E-1
 8.151292203350000E9     1.259045971723853E-1    5.287448086223291E-1   -2.864451057944401E-3    1.220687192767977E-3   -2.904172142446061E-3    1.253138384113057E-3    2.691720518843077E-1    4.378462125347257E-1
 8.151294963900000E9     1.261048865259362E-1    5.286027949534160E-1   -2.892795739519475E-3    1.183724895648427E-3   -2.871807039247662E-3    1.273410898657719E-3    2.692030751180016E-1    4.376334994247990E-1
 8.151297724450000E9     1.263623923819804E-1    5.284924677105853E-1   -2.877169944837434E-3    1.226845233890340E-3   -2.891042806730761E-3    1.267060522886011E-3    2.694002947037925E-1    4.375935736687145E-1
 8.151300485000000E9     1.266130378559643E-1    5.283907437939230E-1   -2.885648974130710E-3    1.236557501531079E-3   -2.872723627843554E-3    1.282521128427211E-3    2.697193504166938E-1    4.374797295504957E-1
 8.151303245550000E9     1.267147478170157E-1    5.283716676635998E-1   -2.875760679682397E-3    1.226467455538061E-3   -2.891442905188764E-3    1.262902145509667E-3    2.698627290183159E-1    4.375418195076062E-1
 8.151306006100000E9     1.268845062893278E-1    5.283935703440836E-1   -2.854965675136842E-3    1.216295431459284E-3   -2.925448211499932E-3    1.292303235753046E-3    2.699503705532561E-1    4.372338220915658E-1
 8.151308766650000E9     1.270373780308080E-1    5.283367252938647E-1   -2.896947560793033E-3    1.231018686487312E-3   -2.920243822581773E-3    1.300109204005920E-3    2.700565039547582E-1    4.372537953270419E-1
 8.151311527200000E9     1.273305613981469E-1    5.283103955045063E-1   -2.885219866654085E-3    1.240879906845856E-3   -2.888509719556029E-3    1.279916110263829E-3    2.701555229209192E-1    4.371992324884185E-1
 8.151314287750000E9     1.276198992142755E-1    5.283409591307892E-1   -2.910686973664373E-3    1.236623721426299E-3   -2.894476913486030E-3    1.281301447605945E-3    2.702421980986343E-1    4.371538661640818E-1
 8.151317048300000E9     1.276564801300789E-1    5.282090217782656E-1   -2.891263087391042E-3    1.221257773641092E-3   -2.920286377413587E-3    1.270113212291991E-3    2.703201223582200E-1    4.369806231990064E-1
 8.151319808850000E9     1.280182423217935E-1    5.282125001474007E-1   -2.904947357646586E-3    1.246549391582163E-3   -2.932503129392364E-3    1.295540595313172E-3    2.705278516522595E-1    4.368980360309426E-1
 8.151322569400000E9     1.281485336223291E-1    5.280118022649080E-1   -2.899774131909183E-3    1.256652377134773E-3   -2.890214848200811E-3    1.320463427741503E-3    2.707870594817942E-1    4.368462698892231E-1
 8.151325329950000E9     1.284268347603002E-1    5.280701130826020E-1   -2.902768054430799E-3    1.247210905034746E-3   -2.913690899061534E-3    1.301777836999522E-3    2.710031414428508E-1    4.366922366994257E-1
 8.151328090500000E9     1.286018351472466E-1    5.279536203897148E-1   -2.920684143204288E-3    1.242790112792013E-3   -2.915625688351472E-3    1.300246000104938E-3    2.711882701928940E-1    4.365617183863659E-1
 8.151330851050000E9     1.289278994775665E-1    5.279264782344384E-1   -2.933676900068261E-3    1.259280640728977E-3   -2.908877457434055E-3    1.309349649391001E-3    2.712993785913270E-1    4.365108267394532E-1
 8.151333611600000E9     1.290278551321458E-1    5.277874422224106E-1   -2.925688787556026E-3    1.275199243898101E-3   -2.956001079477575E-3    1.314011116029548E-3    2.715066602172442E-1    4.364120503493591E-1
 8.151336372150000E9     1.292903053568219E-1    5.278307155247127E-1   -2.911089613807252E-3    1.280080837938931E-3   -2.904546247441451E-3    1.285103044661574E-3    2.716751974938942E-1    4.361679777583511E-1
 8.151339132700000E9     1.294325405155083E-1    5.279220671694497E-1   -2.945424147220732E-3    1.274346773097628E-3   -2.950183273192219E-3    1.347824595003885E-3    2.716534563201199E-1    4.363840664901272E-1
 8.151341893250000E9     1.297526700322779E-1    5.277865990477502E-1   -2.939028607893895E-3    1.286375816654616E-3   -2.949068361160510E-3    1.316988302735745E-3    2.718636390596175E-1    4.361981283387844E-1
 8.151344653800000E9     1.298921322387281E-1    5.276916647002323E-1   -2.940678676031502E-3    1.282654747990740E-3   -2.927091582080545E-3    1.309090299810403E-3    2.720573524494798E-1    4.359848285368974E-1
 8.151347414350000E9     1.300735351158684E-1    5.276439183710332E-1   -2.917362210671918E-3    1.287021535857290E-3   -2.933985706214572E-3    1.328382184041267E-3    2.722136790330265E-1    4.358707936128765E-1
 8.151350174900000E9     1.302515304179033E-1    5.276066740974079E-1   -2.930339128875737E-3    1.289661262503747E-3   -2.951744175524312E-3    1.329360253609037E-3    2.722257025752434E-1    4.357901048358619E-1
 8.151352935450000E9     1.304784869246134E-1    5.275108528406065E-1   -2.940623321529872E-3    1.279050488191445E-3   -2.927666760324965E-3    1.322343991278648E-3    2.723399453011421E-1    4.357038324240181E-1
 8.151355696000000E9     1.307410802103128E-1    5.276102662213047E-1   -2.926106049780189E-3    1.278702562782272E-3   -2.931855399171361E-3    1.358523587399066E-3    2.726916155442548E-1    4.354648253416416E-1
 8.151358456550000E9     1.309122645327255E-1    5.274205773641303E-1   -2.941058083595328E-3    1.285063941439780E-3   -2.958561924179379E-3    1.362395060582454E-3    2.727459469591495E-1    4.354813555694009E-1
 8.151361217100000E9     1.311070537001560E-1    5.273534100300691E-1   -2.967019440588019E-3    1.305937681134016E-3   -2.960589635505978E-3    1.333069421733186E-3    2.728712721360125E-1    4.354572188978761E-1
 8.151363977650000E9     1.313568061168549E-1    5.273557607289577E-1   -2.966363029393593E-3    1.326096738417641E-3   -2.975382010570601E-3    1.381090131526775E-3    2.731055195538125E-1    4.353507786935316E-1
 8.151366738200000E9     1.314649679585602E-1    5.272412293813630E-1   -2.982471732743582E-3    1.300977052018313E-3   -2.961201816151536E-3    1.372714848593863E-3    2.730913482638073E-1    4.350746290062757E-1
 8.151369498750000E9     1.317018288993864E-1    5.273085595869688E-1   -2.974902111972220E-3    1.313071036618655E-3   -2.975469106612429E-3    1.373621565194428E-3    2.734642640655462E-1    4.350349117925155E-1
 8.151372259300000E9     1.319810632636322E-1    5.271026494930547E-1   -2.966161070251244E-3    1.300503292480514E-3   -2.911633123860778E-3    1.371035828478756E-3    2.735497787685533E-1    4.351579073319902E-1
 8.151375019850000E9     1.320962559380673E-1    5.271814468812107E-1   -2.987695829578150E-3    1.310988206773959E-3   -2.963928878820134E-3    1.397318116705857E-3    2.736195268779503E-1    4.349698174401523E-1
 8.151377780400000E9     1.323729337197580E-1    5.269480261393875E-1   -2.962572330792872E-3    1.315358434107256E-3   -2.977650893000284E-3    1.360894932799819E-3    2.738690776576619E-1    4.348649035152349E-1
 8.151380540950000E9     1.325492269688950E-1    5.270354829666557E-1   -2.983628231949215E-3    1.312665276815632E-3   -2.979508749213977E-3    1.372223548160620E-3    2.741922503099545E-1    4.347357548782402E-1
 8.151383301500000E9     1.328216863957158E-1    5.270373477923102E-1   -3.005477043473789E-3    1.310362754343705E-3   -3.021780842045842E-3    1.373455885077823E-3    2.741332646632927E-1    4.346181051244751E-1
 8.151386062050000E9     1.329726100573625E-1    5.269852963205084E-1   -2.996391093733911E-3    1.318649558649649E-3   -3.008285800282402E-3    1.367426902224737E-3    2.742156708338203E-1    4.344730341739376E-1
 8.151388822600000E9     1.332954253043442E-1    5.268030970626055E-1   -2.997036876913286E-3    1.347943385392185E-3   -3.014550623634075E-3    1.409768843252552E-3    2.745198429256530E-1    4.344037826688556E-1
 8.151391583150000E9     1.334542097477540E-1    5.266453884575512E-1   -3.009458009437011E-3    1.360002099189013E-3   -3.014943940638528E-3    1.384672641244989E-3    2.746002264113884E-1    4.343403475814514E-1
 8.151394343700000E9     1.337180357928940E-1    5.267302063875197E-1   -2.974904017975761E-3    1.348497919693895E-3   -3.005497068885101E-3    1.383883257574845E-3    2.747786543001223E-1    4.341225433692366E-1
 8.151397104250000E9     1.339002461935349E-1    5.266652984620140E-1   -3.000934570143643E-3    1.360358113694767E-3   -2.990688798498976E-3    1.389192697822542E-3    2.747783119332012E-1    4.340864121831125E-1
 8.151399864800000E9     1.340522521427071E-1    5.264880455958387E-1   -3.014403935012862E-3    1.345756166867771E-3   -3.006563525351444E-3    1.390799005688118E-3    2.751309441728877E-1    4.340725858201935E-1
 8.151402625350000E9     1.343462839827446E-1    5.265888055704401E-1   -3.032130378253650E-3    1.360466341272871E-3   -3.000803365124100E-3    1.425091478571076E-3    2.751141151619280E-1    4.339254946657534E-1
 8.151405385900000E9     1.345725320724359E-1    5.264949639737797E-1   -3.039739521929677E-3    1.358076518467026E-3   -3.040956198882085E-3    1.429019799740315E-3    2.754181956688142E-1    4.337325527380709E-1
 8.151408146450000E9     1.347183393902888E-1    5.264432868018306E-1   -3.022825186144706E-3    1.376518241559192E-3   -3.025044871931723E-3    1.431519032245862E-3    2.754355788528100E-1    4.337692704228933E-1
 8.151410907000000E9     1.350300554109387E-1    5.263831511930553E-1   -3.028710254851802E-3    1.378813973646594E-3   -3.017601892332355E-3    1.415812127698603E-3    2.756119850166653E-1    4.337139137427526E-1
 8.151413667550000E9     1.351772879311491E-1    5.263516613859557E-1   -3.031751511084629E-3    1.388464686082946E-3   -3.056907172691105E-3    1.440214898213176E-3    2.758573106786384E-1    4.336185248122336E-1
 8.151416428100000E9     1.354126096708632E-1    5.262286859274995E-1   -3.046609645206150E-3    1.389496068026043E-3   -3.023906718161282E-3    1.438712156468850E-3    2.758661546804508E-1    4.335906619375793E-1
 8.151419188650000E9     1.355011233080356E-1    5.262226563106934E-1   -3.045857587817035E-3    1.406426152053015E-3   -3.072944383667021E-3    1.430443986509525E-3    2.760704819471699E-1    4.333604170304934E-1
 8.151421949200000E9     1.357800863544409E-1    5.261651654503025E-1   -3.070811939522974E-3    1.390086533680765E-3   -3.025232469937111E-3    1.461315272588617E-3    2.763975197827942E-1    4.332197625773867E-1
 8.151424709750000E9     1.360115881498200E-1    5.259800173428019E-1   -3.034635679310393E-3    1.400648728887842E-3   -3.052704486158657E-3    1.462894071143145E-3    2.764683941129838E-1    4.331558777110305E-1
 8.151427470300000E9     1.362747452096201E-1    5.262110719044284E-1   -3.061372547551594E-3    1.417172797610326E-3   -3.076072728526092E-3    1.475153693643492E-3    2.764159499275589E-1    4.331229060292305E-1
 8.151430230850000E9     1.364845308393291E-1    5.260095768531702E-1   -3.058322150064326E-3    1.402782699557028E-3   -3.077431369874459E-3    1.490300032860692E-3    2.768695888795923E-1    4.330216483713412E-1
 8.151432991400000E9     1.366285799374926E-1    5.259668007080855E-1   -3.061178797879919E-3    1.419660660224760E-3   -3.075231088056450E-3    1.476180383788762E-3    2.768352498195470E-1    4.329757284857444E-1
 8.151435751950000E9     1.369028718100839E-1    5.258675208482375E-1   -3.079497726281365E-3    1.416572609609093E-3   -3.072039688939180E-3    1.465870701735001E-3    2.769613306330620E-1    4.327896147213886E-1
 8.151438512500000E9     1.371714360699309E-1    5.257919309446502E-1   -3.077302751091099E-3    1.415366997113027E-3   -3.070346093450160E-3    1.490725363158798E-3    2.771966818275641E-1    4.325905771944901E-1
