#  HZ   S   RI   R     50.00 
! Rohde & Schwarz Vector Network Analyzer 
! Rohde-Schwarz,ZNB20-2Port,1311601062101988,3.16
! Created: UTC 3/21/2024, 1:17:14 AM
! freq[Hz]                re:S11                  im:S11                  re:S21                  im:S21                  re:S12                  im:S12                  re:S22                  im:S22
 8.151707671000000E9     1.378409121413451E-1    5.222202887743218E-1   -2.593495968849836E-3    1.098604925010636E-3   -2.589608070215025E-3    1.154423849011054E-3    2.714475845901760E-1    4.343801241413135E-1
 8.151711738400000E9     1.381525017161827E-1    5.221001107756404E-1   -2.575166171123312E-3    1.123604991897167E-3   -2.615305150123702E-3    1.159277477585753E-3    2.716431098680256E-1    4.341678113323638E-1
 8.151715805800000E9     1.384000772033734E-1    5.221021638608494E-1   -2.600056947002111E-3    1.111295452758726E-3   -2.567799827517040E-3    1.150875004804901E-3    2.719586566689788E-1    4.341094237932452E-1
 8.151719873200000E9     1.387220760019583E-1    5.220289485428645E-1   -2.598797083320241E-3    1.135870728956774E-3   -2.595497048521187E-3    1.143171702393955E-3    2.721504911645202E-1    4.339825923519070E-1
 8.151723940600000E9     1.391008261995282E-1    5.219472261525555E-1   -2.604817429054566E-3    1.111654882002583E-3   -2.587302718076508E-3    1.151796690889409E-3    2.722669893705814E-1    4.336332752778680E-1
 8.151728008000000E9     1.392744380172758E-1    5.218720085262255E-1   -2.613073989485984E-3    1.122202805693571E-3   -2.603511745206767E-3    1.146772043714042E-3    2.724361605584847E-1    4.335757795853137E-1
 8.151732075400000E9     1.396435957050630E-1    5.218065493685453E-1   -2.615184963564686E-3    1.146194195512386E-3   -2.582604902845717E-3    1.170427058480801E-3    2.727141435960482E-1    4.336120261241397E-1
 8.151736142800000E9     1.398669296894481E-1    5.217473130935280E-1   -2.589922830768178E-3    1.135940257943874E-3   -2.610578474902378E-3    1.171836598907785E-3    2.729298424509224E-1    4.332632118863194E-1
 8.151740210200000E9     1.402124825290237E-1    5.216894854982006E-1   -2.591160480241854E-3    1.120198775399741E-3   -2.621261291807217E-3    1.154360233567793E-3    2.732879512303293E-1    4.331881458829815E-1
 8.151744277600000E9     1.405156833893484E-1    5.217371998872898E-1   -2.606372558868859E-3    1.131434643809401E-3   -2.623755411943010E-3    1.157892468050583E-3    2.733717586721119E-1    4.332141147742687E-1
 8.151748345000000E9     1.407407837923179E-1    5.214775842654598E-1   -2.602970023741725E-3    1.147588965066398E-3   -2.631693196537800E-3    1.182634796865605E-3    2.736792538106015E-1    4.330242712950169E-1
 8.151752412400000E9     1.410337158517558E-1    5.213636656040384E-1   -2.585711445806511E-3    1.121066859825612E-3   -2.613908820433183E-3    1.198565788693595E-3    2.738174947244393E-1    4.327683085840752E-1
 8.151756479800000E9     1.412569414316653E-1    5.213632660016168E-1   -2.600681574764733E-3    1.120544357491996E-3   -2.608581517977375E-3    1.147140397871871E-3    2.739733321274124E-1    4.326762801027293E-1
 8.151760547200000E9     1.416918882504835E-1    5.212594748215578E-1   -2.563456626331420E-3    1.169727493610300E-3   -2.581158573133565E-3    1.192871781795352E-3    2.741120997107818E-1    4.324433483997454E-1
 8.151764614600000E9     1.419203370929316E-1    5.212350971497246E-1   -2.605015393681219E-3    1.129458844402100E-3   -2.634164547541095E-3    1.172204290496447E-3    2.744182727570312E-1    4.323147030693115E-1
 8.151768682000000E9     1.420889369367513E-1    5.211631695127616E-1   -2.619741941834464E-3    1.128280705663498E-3   -2.593243673472421E-3    1.200954446667376E-3    2.748005452437915E-1    4.320136953120992E-1
 8.151772749400000E9     1.424038070831968E-1    5.210359231828630E-1   -2.608019498135090E-3    1.129896539231230E-3   -2.626286443109570E-3    1.203710526657640E-3    2.749676379134969E-1    4.321196850716724E-1
 8.151776816800000E9     1.427310293300142E-1    5.209693657186872E-1   -2.595827323240933E-3    1.143601897655880E-3   -2.617959206420957E-3    1.189109866529859E-3    2.751830683013372E-1    4.319101213936088E-1
 8.151780884200000E9     1.430701482035005E-1    5.208845011490170E-1   -2.592508513152186E-3    1.179166720607322E-3   -2.651719827668858E-3    1.217584782599036E-3    2.753128283611859E-1    4.318482393348150E-1
 8.151784951600000E9     1.433355929900573E-1    5.208436280462934E-1   -2.632046641103387E-3    1.167124158397000E-3   -2.590382687167064E-3    1.204840876376180E-3    2.756210683249185E-1    4.316704391202277E-1
 8.151789019000000E9     1.435951451301102E-1    5.208640790001784E-1   -2.613983508524560E-3    1.141451897106716E-3   -2.594936035833876E-3    1.202838372214647E-3    2.759004376878852E-1    4.314846510984035E-1
 8.151793086400000E9     1.438787272814931E-1    5.206498360297070E-1   -2.620741694485816E-3    1.159487072523482E-3   -2.593439799537323E-3    1.214880656177357E-3    2.760676446579441E-1    4.314094001278205E-1
 8.151797153800000E9     1.442770767264012E-1    5.205658080330522E-1   -2.637100459141242E-3    1.157321789246383E-3   -2.642925578637944E-3    1.184212005460351E-3    2.762433529654270E-1    4.312467531142903E-1
 8.151801221200000E9     1.446026126599361E-1    5.205384765718382E-1   -2.600662884637709E-3    1.158268619799838E-3   -2.623465923834828E-3    1.196700001751103E-3    2.764023873909208E-1    4.310119381615403E-1
 8.151805288600000E9     1.447166379722714E-1    5.204742853811322E-1   -2.594615912964859E-3    1.192104379102781E-3   -2.610571472404123E-3    1.204719205943081E-3    2.765299397656257E-1    4.308241665127495E-1
 8.151809356000000E9     1.449412172511885E-1    5.204247557185858E-1   -2.637731954018401E-3    1.156368101894582E-3   -2.607612399357468E-3    1.218983389220732E-3    2.769453023885454E-1    4.306997063192182E-1
 8.151813423400000E9     1.452560514506564E-1    5.203227057815556E-1   -2.622680641140432E-3    1.168002302595327E-3   -2.613993675184411E-3    1.200590584920576E-3    2.771443933448635E-1    4.305076659529110E-1
 8.151817490800000E9     1.455806205280861E-1    5.202824325734102E-1   -2.627874963430695E-3    1.172779469404010E-3   -2.643626904176998E-3    1.240474732224488E-3    2.772622942728281E-1    4.303342991651776E-1
 8.151821558200000E9     1.458375584294211E-1    5.202628958788015E-1   -2.624576744266527E-3    1.166368686841271E-3   -2.613120701863231E-3    1.225502288459914E-3    2.775284654759380E-1    4.303657621782928E-1
 8.151825625600000E9     1.460658193614129E-1    5.200408204576663E-1   -2.621362771919569E-3    1.184077334614498E-3   -2.617213454268420E-3    1.221613461314838E-3    2.777277272777079E-1    4.302856668529762E-1
 8.151829693000000E9     1.464212916109723E-1    5.201591439716140E-1   -2.616756279165298E-3    1.180714920146236E-3   -2.621290991209327E-3    1.244783168423137E-3    2.779885567887320E-1    4.300744165155750E-1
 8.151833760400000E9     1.468070168624445E-1    5.200442407384572E-1   -2.633209677692612E-3    1.195130749834052E-3   -2.646738952525385E-3    1.224579648516428E-3    2.781642318707014E-1    4.298947304663369E-1
 8.151837827800000E9     1.470616832367233E-1    5.199265586387813E-1   -2.624590915918144E-3    1.167229800873456E-3   -2.624895897673821E-3    1.251232963631150E-3    2.783681001258098E-1    4.297994303025610E-1
 8.151841895200000E9     1.471185365448763E-1    5.198141838207043E-1   -2.634866180681090E-3    1.167318113719836E-3   -2.628681877864596E-3    1.192134336855511E-3    2.786556972755246E-1    4.296045246587676E-1
 8.151845962600000E9     1.475192891610046E-1    5.196259643665804E-1   -2.660206952054732E-3    1.193432977542183E-3   -2.641150105674895E-3    1.266037495057212E-3    2.788846000263068E-1    4.294222221985476E-1
 8.151850030000000E9     1.478240815469470E-1    5.197402282319068E-1   -2.638538927203431E-3    1.222166535889142E-3   -2.624822079397277E-3    1.232014823474224E-3    2.790305015856305E-1    4.293237499278614E-1
 8.151854097400000E9     1.481035174722833E-1    5.196501291184725E-1   -2.631760672218130E-3    1.194263402910736E-3   -2.670021103454701E-3    1.228960181500373E-3    2.792862741457067E-1    4.291247768522942E-1
 8.151858164800000E9     1.483965278446015E-1    5.195025358938051E-1   -2.611985177168704E-3    1.220574648522035E-3   -2.658683986251891E-3    1.227336510974514E-3    2.795266890262150E-1    4.290546330697005E-1
 8.151862232200000E9     1.486846841722726E-1    5.194757633254993E-1   -2.637912477308232E-3    1.211482760432305E-3   -2.651013755914479E-3    1.237713064738645E-3    2.796777544352432E-1    4.288888964362711E-1
 8.151866299600000E9     1.491074207518952E-1    5.194710979400324E-1   -2.640084163222929E-3    1.186257269630343E-3   -2.639756474118374E-3    1.272022159363820E-3    2.798569655566648E-1    4.287250429185105E-1
 8.151870367000000E9     1.493367388473031E-1    5.192974527667229E-1   -2.623236063916548E-3    1.196820049692004E-3   -2.669711145073314E-3    1.292848275380459E-3    2.800702665179085E-1    4.285649264712327E-1
 8.151874434400000E9     1.495086547188161E-1    5.191914719803112E-1   -2.643044752995480E-3    1.214071740337246E-3   -2.618585750933848E-3    1.263545296145738E-3    2.802780001313053E-1    4.284657986755748E-1
 8.151878501800000E9     1.497567799336382E-1    5.191361105611471E-1   -2.639226298823974E-3    1.209854449143356E-3   -2.637526269063127E-3    1.268351695502445E-3    2.805540868140695E-1    4.283547081390075E-1
 8.151882569200000E9     1.501553743924011E-1    5.190150255280969E-1   -2.635745946623384E-3    1.220698024885543E-3   -2.662982339684510E-3    1.294515257669085E-3    2.807621850448557E-1    4.281789227917950E-1
 8.151886636600000E9     1.503840659130515E-1    5.190143731228141E-1   -2.657002542024013E-3    1.227801484177353E-3   -2.645950899855138E-3    1.262099344214586E-3    2.810018025424452E-1    4.279860133531544E-1
 8.151890704000000E9     1.507710252721741E-1    5.189106929167200E-1   -2.671155205814664E-3    1.219910305559238E-3   -2.678024942250985E-3    1.241835232056295E-3    2.811454614014895E-1    4.279413772193362E-1
 8.151894771400000E9     1.508806526899518E-1    5.188653743577887E-1   -2.656519238353994E-3    1.204978391226658E-3   -2.621354743757881E-3    1.273585403761663E-3    2.813626319207807E-1    4.277339039530245E-1
 8.151898838800000E9     1.514121066941972E-1    5.186778601055265E-1   -2.677281195124796E-3    1.263260475761903E-3   -2.667762521601075E-3    1.271125207293900E-3    2.816053522892379E-1    4.276730681803266E-1
 8.151902906200000E9     1.514583885365626E-1    5.187102331654970E-1   -2.676721042990525E-3    1.224836860993512E-3   -2.666462379400225E-3    1.303154384657299E-3    2.817669559628544E-1    4.273569514050165E-1
 8.151906973600000E9     1.517759152654364E-1    5.186681384515123E-1   -2.662243472927779E-3    1.236953062953152E-3   -2.655916296830621E-3    1.268703531263031E-3    2.821016565455259E-1    4.271200453307814E-1
 8.151911041000000E9     1.520844382685028E-1    5.184364418277633E-1   -2.665705448924593E-3    1.209423540198526E-3   -2.652378560695200E-3    1.301765484207478E-3    2.823520398150091E-1    4.270935578879917E-1
 8.151915108400000E9     1.524103791021926E-1    5.184504571124504E-1   -2.637177541394948E-3    1.225944068362661E-3   -2.649699361614404E-3    1.290039148560955E-3    2.824981614803398E-1    4.268948780566612E-1
 8.151919175800000E9     1.526277112717465E-1    5.183798066297863E-1   -2.677048893882695E-3    1.245834458517254E-3   -2.679361413379814E-3    1.317102130705295E-3    2.825774479319661E-1    4.268688395530042E-1
 8.151923243200000E9     1.530039553547168E-1    5.182451741051158E-1   -2.651525607942917E-3    1.249392015515638E-3   -2.692578178714493E-3    1.307943128674949E-3    2.827862899492156E-1    4.266222161899184E-1
 8.151927310600000E9     1.531440847702277E-1    5.181869694993542E-1   -2.626464906232273E-3    1.237728911416999E-3   -2.670936051258978E-3    1.314957358299296E-3    2.831597894269573E-1    4.263980590447343E-1
 8.151931378000000E9     1.534309083957272E-1    5.181433875390861E-1   -2.653629115642459E-3    1.260703688681839E-3   -2.647951864579669E-3    1.312016947103850E-3    2.834547491172241E-1    4.263754798673888E-1
 8.151935445400000E9     1.538720851791814E-1    5.181386931955657E-1   -2.667001037986570E-3    1.274677819830978E-3   -2.665350293406013E-3    1.284390657139475E-3    2.834965554454911E-1    4.262621010747892E-1
 8.151939512800000E9     1.541103588665493E-1    5.178820051164991E-1   -2.635922495529869E-3    1.273822040086706E-3   -2.675261635565500E-3    1.278794000074109E-3    2.837124158728931E-1    4.261131594796765E-1
 8.151943580200000E9     1.543393675880936E-1    5.177871797377993E-1   -2.655453275859248E-3    1.279052112387417E-3   -2.664311342375626E-3    1.312458625426411E-3    2.838855147647548E-1    4.260166110858494E-1
 8.151947647600000E9     1.546011916282556E-1    5.178487198079806E-1   -2.669311590769778E-3    1.291094393065409E-3   -2.661361076776373E-3    1.311427578418135E-3    2.842666040200728E-1    4.257446612084688E-1
 8.151951715000000E9     1.549789695145795E-1    5.176874237865877E-1   -2.661167648215617E-3    1.280936989380654E-3   -2.669925844649619E-3    1.314830398253653E-3    2.844458734537189E-1    4.255184431072686E-1
 8.151955782400000E9     1.552707990683527E-1    5.175986440316065E-1   -2.696172044392557E-3    1.275575553517392E-3   -2.673906348028105E-3    1.336924964200447E-3    2.846374688888765E-1    4.254186730141542E-1
 8.151959849800000E9     1.555044555447888E-1    5.174709136138517E-1   -2.694441418432722E-3    1.250399654407429E-3   -2.677872599468497E-3    1.363161173718413E-3    2.847757793246363E-1    4.252297099970219E-1
 8.151963917200000E9     1.559040687677627E-1    5.175005619342551E-1   -2.700596292352846E-3    1.248219768484623E-3   -2.700352581665052E-3    1.322148665291015E-3    2.850795654681241E-1    4.250807745474955E-1
 8.151967984600000E9     1.561254277212742E-1    5.174237507029438E-1   -2.655506016808706E-3    1.270532685924963E-3   -2.691355831840238E-3    1.340687693352557E-3    2.851389318285755E-1    4.249180084582930E-1
 8.151972052000000E9     1.564804837901047E-1    5.173248122098011E-1   -2.680913425545497E-3    1.298345621467597E-3   -2.685272792383857E-3    1.346921112202305E-3    2.854853401604932E-1    4.249745914124510E-1
 8.151976119400000E9     1.567336411844849E-1    5.172747706275889E-1   -2.659024887676250E-3    1.301951357160626E-3   -2.731527500279435E-3    1.347320033061434E-3    2.856542611763689E-1    4.246320353049198E-1
 8.151980186800000E9     1.569937342972358E-1    5.171832089225495E-1   -2.685352646270467E-3    1.288161369056192E-3   -2.670986471820861E-3    1.355485019261101E-3    2.858988894846401E-1    4.244193137500745E-1
 8.151984254200000E9     1.573026953330637E-1    5.171550288502893E-1   -2.668487252292673E-3    1.265800227044086E-3   -2.713157683262008E-3    1.320870470713405E-3    2.860699735218526E-1    4.243002436688081E-1
 8.151988321600000E9     1.576536841069866E-1    5.169296880269441E-1   -2.695142118468808E-3    1.312510625704657E-3   -2.692237355598864E-3    1.329201958870559E-3    2.864077854901128E-1    4.241482990943031E-1
 8.151992389000000E9     1.577851665794783E-1    5.169890454218430E-1   -2.711342540831016E-3    1.320897476313205E-3   -2.686872943294793E-3    1.339162597576127E-3    2.866445832688416E-1    4.242034300875767E-1
 8.151996456400000E9     1.581540144664394E-1    5.166516674225357E-1   -2.673510422373497E-3    1.313620142216652E-3   -2.678309791516916E-3    1.348024074325975E-3    2.867133774379357E-1    4.238742577148109E-1
 8.152000523800000E9     1.583099312744259E-1    5.166722566356637E-1   -2.711631777110762E-3    1.285081143865383E-3   -2.715798068608835E-3    1.385652815733508E-3    2.870444539264855E-1    4.238734149388737E-1
 8.152004591200000E9     1.586838462844468E-1    5.166172090204235E-1   -2.697279686046836E-3    1.333979547304712E-3   -2.697877892436146E-3    1.376754521474010E-3    2.870408977733168E-1    4.236119499251981E-1
 8.152008658600000E9     1.590360317122621E-1    5.165221943805484E-1   -2.688117813196885E-3    1.319497688896935E-3   -2.692733744927274E-3    1.373005010364584E-3    2.873684655901781E-1    4.235405323317775E-1
 8.152012726000000E9     1.592064978859044E-1    5.164404701505889E-1   -2.725736549406863E-3    1.332026843026391E-3   -2.699792242066923E-3    1.387401886846811E-3    2.875668067446744E-1    4.232789337232191E-1
 8.152016793400000E9     1.596217720783976E-1    5.163258943157498E-1   -2.701274884185687E-3    1.312924059492408E-3   -2.723853452020748E-3    1.350690019811358E-3    2.878969229501270E-1    4.232332955371990E-1
 8.152020860800000E9     1.598693289648436E-1    5.163864858434525E-1   -2.719358153491808E-3    1.354950292628949E-3   -2.733240947490706E-3    1.348253858306338E-3    2.880191014093928E-1    4.230730622389903E-1
 8.152024928200000E9     1.600880860714043E-1    5.161725460899664E-1   -2.724993708083080E-3    1.350181258288361E-3   -2.737154471800790E-3    1.392780049578691E-3    2.882242586584771E-1    4.228378912856663E-1
 8.152028995600000E9     1.603810140939729E-1    5.161039423634666E-1   -2.704855688996871E-3    1.325428797734283E-3   -2.717334029455246E-3    1.398491354327035E-3    2.884049208648555E-1    4.227763153422297E-1
 8.152033063000000E9     1.607711840720847E-1    5.160770548437117E-1   -2.716571783699271E-3    1.349208257897663E-3   -2.716729776449445E-3    1.404317902891663E-3    2.887472723505116E-1    4.227356029758508E-1
 8.152037130400000E9     1.611173442797362E-1    5.160016233403182E-1   -2.715939770112933E-3    1.361971991909256E-3   -2.740978264725747E-3    1.366233306826613E-3    2.888859256191063E-1    4.224597126065041E-1
 8.152041197800000E9     1.613261148125886E-1    5.157378649891631E-1   -2.722860183729265E-3    1.361345027242065E-3   -2.713521240084573E-3    1.398304697382702E-3    2.891200726626765E-1    4.222796645801724E-1
 8.152045265200000E9     1.615671910502800E-1    5.157551900168391E-1   -2.729719349579855E-3    1.345150740239296E-3   -2.708148069542561E-3    1.386176042536911E-3    2.893778290431046E-1    4.220774315380797E-1
 8.152049332600000E9     1.618659368616728E-1    5.156447590138922E-1   -2.733725227036294E-3    1.359385861812125E-3   -2.753408346445084E-3    1.402801547944319E-3    2.895831989317285E-1    4.219478781347228E-1
 8.152053400000000E9     1.621692056865953E-1    5.156650951735072E-1   -2.706825738782807E-3    1.363673737094140E-3   -2.718316795285132E-3    1.412336868823346E-3    2.896908778724434E-1    4.217287458868216E-1
 8.152057467400000E9     1.624414348083528E-1    5.155326351611702E-1   -2.750896912950964E-3    1.359926168888027E-3   -2.746442717547467E-3    1.415409956583755E-3    2.897575505549770E-1    4.216860739074065E-1
 8.152061534800000E9     1.626816575412121E-1    5.153925721381687E-1   -2.732933951935452E-3    1.388261032140246E-3   -2.753613875632748E-3    1.418065786846371E-3    2.900614792873832E-1    4.216406157778316E-1
 8.152065602200000E9     1.630854289205411E-1    5.153234957000389E-1   -2.738101974249564E-3    1.378584109607870E-3   -2.761960592351342E-3    1.437748306135922E-3    2.903777367149424E-1    4.213904856878294E-1
 8.152069669600000E9     1.633864402022208E-1    5.153611620395896E-1   -2.745205119612739E-3    1.383673405304453E-3   -2.756663972080827E-3    1.431924791306240E-3    2.906327801767863E-1    4.213221320493538E-1
 8.152073737000000E9     1.636547000822612E-1    5.151174660205552E-1   -2.758426245695757E-3    1.390489312178345E-3   -2.758847074307892E-3    1.410672977124773E-3    2.907087395729983E-1    4.212033655417308E-1
