#  HZ   S   RI   R     50.00 
! Rohde & Schwarz Vector Network Analyzer 
! Rohde-Schwarz,ZNB20-2Port,1311601062101988,3.16
! Created: UTC 3/21/2024, 1:17:18 AM
! freq[Hz]                re:S11                  im:S11                  re:S21                  im:S21                  re:S12                  im:S12                  re:S22                  im:S22
 8.151719060000000E9     1.385364648620930E-1    5.220321309598026E-1   -2.590749848116226E-3    1.124743236223807E-3   -2.578728224395906E-3    1.161984193089120E-3    2.721084347294442E-1    4.340437669053647E-1
 8.151723097450000E9     1.388283363009417E-1    5.219161299146320E-1   -2.585651134291698E-3    1.118291400241541E-3   -2.610142065505024E-3    1.114383090970404E-3    2.722258559498415E-1    4.338289489150360E-1
 8.151727134900000E9     1.391708042709252E-1    5.219438256356294E-1   -2.602425896849772E-3    1.082873177262639E-3   -2.596747395658401E-3    1.175540776297772E-3    2.726307773951112E-1    4.337607850726377E-1
 8.151731172350000E9     1.394931483259178E-1    5.218452542935726E-1   -2.585650723123219E-3    1.097663330455257E-3   -2.586454763106536E-3    1.177501270208938E-3    2.727131989314162E-1    4.335825591226196E-1
 8.151735209800000E9     1.398032663439593E-1    5.218388819335920E-1   -2.600845473921578E-3    1.125613369652015E-3   -2.591376664417022E-3    1.181036791356877E-3    2.728779291735533E-1    4.333046527386151E-1
 8.151739247250000E9     1.400875072667221E-1    5.216392794924544E-1   -2.613136372693013E-3    1.136790378350900E-3   -2.594397455852281E-3    1.163302772561467E-3    2.729590367413733E-1    4.333144888746865E-1
 8.151743284700000E9     1.403520567153199E-1    5.216949547044973E-1   -2.588940274486196E-3    1.100693002557791E-3   -2.586513852356241E-3    1.144939749275149E-3    2.733539502184120E-1    4.330870353922428E-1
 8.151747322150000E9     1.405889430521450E-1    5.215292419130440E-1   -2.591645538965815E-3    1.121971651808110E-3   -2.618312624608489E-3    1.171622848377489E-3    2.734087654918626E-1    4.329692639128012E-1
 8.151751359600000E9     1.408855899823269E-1    5.214566800343939E-1   -2.598443306915673E-3    1.144941681180499E-3   -2.594673751076685E-3    1.171184573159040E-3    2.736971952723101E-1    4.328342365472082E-1
 8.151755397050000E9     1.411954129944789E-1    5.213863844404223E-1   -2.592694560251834E-3    1.131115754877772E-3   -2.617874504153084E-3    1.164676274869117E-3    2.739183604826836E-1    4.327397653673143E-1
 8.151759434500000E9     1.414504579561696E-1    5.212132167627246E-1   -2.614139592417459E-3    1.099689794348454E-3   -2.611812689406435E-3    1.174481442110114E-3    2.740501810115655E-1    4.325711242151523E-1
 8.151763471950000E9     1.417174627262419E-1    5.213429371646721E-1   -2.623760913468243E-3    1.156615555073085E-3   -2.613048541290634E-3    1.187762972560783E-3    2.744760444953289E-1    4.324782631173114E-1
 8.151767509400000E9     1.419691933694588E-1    5.212194386921947E-1   -2.618475723352766E-3    1.137737883129014E-3   -2.581960226384409E-3    1.194670273401858E-3    2.745908849391856E-1    4.323031167120857E-1
 8.151771546850000E9     1.423693322525490E-1    5.211066877300956E-1   -2.620817918436811E-3    1.154851624093631E-3   -2.632001180259609E-3    1.170813608250772E-3    2.747384040961718E-1    4.321380043768113E-1
 8.151775584300000E9     1.425970244445042E-1    5.210559607622742E-1   -2.607723100335905E-3    1.146207276369924E-3   -2.609688750873306E-3    1.197863842964602E-3    2.751355883634363E-1    4.320171675568707E-1
 8.151779621750000E9     1.429102689861394E-1    5.209839263279903E-1   -2.597311713810365E-3    1.170799639927602E-3   -2.593903769391488E-3    1.200586269742670E-3    2.752478921283960E-1    4.318176112529011E-1
 8.151783659200000E9     1.430928639918907E-1    5.209303517298342E-1   -2.625310710119954E-3    1.135400240910704E-3   -2.599929495381773E-3    1.187250308090905E-3    2.755074711963589E-1    4.317425781887029E-1
 8.151787696650000E9     1.434831037450213E-1    5.208372592888927E-1   -2.612450645376097E-3    1.161141848705934E-3   -2.610126460724455E-3    1.195569454197043E-3    2.756158250487946E-1    4.316935575167676E-1
 8.151791734100000E9     1.437608349005843E-1    5.207954346757007E-1   -2.598708294191947E-3    1.167293994830549E-3   -2.630096963629024E-3    1.204867267054370E-3    2.759299690456791E-1    4.314814050853839E-1
 8.151795771550000E9     1.439466550864149E-1    5.206316480611777E-1   -2.627548556370263E-3    1.141167544662097E-3   -2.638487230597219E-3    1.197386051216975E-3    2.760904334309721E-1    4.313075986449399E-1
 8.151799809000000E9     1.442996968210439E-1    5.207153115692412E-1   -2.610577608284514E-3    1.158210816164205E-3   -2.588243487658671E-3    1.206625302438290E-3    2.762462920168975E-1    4.309975649290726E-1
 8.151803846450000E9     1.444891639338465E-1    5.205958676106753E-1   -2.606158242814952E-3    1.161375333211906E-3   -2.621342333135644E-3    1.222182455068783E-3    2.765986320998834E-1    4.309967959899894E-1
 8.151807883900000E9     1.448701025405549E-1    5.204966042846725E-1   -2.604900202080328E-3    1.161285926097674E-3   -2.613548988403584E-3    1.222985372278348E-3    2.766662443262131E-1    4.309013537739843E-1
 8.151811921350000E9     1.451465605713993E-1    5.204025657991420E-1   -2.624443470855040E-3    1.173006884376782E-3   -2.599794117323066E-3    1.216626493388022E-3    2.770498477627838E-1    4.306578017333272E-1
 8.151815958800000E9     1.453908498280818E-1    5.202945723283793E-1   -2.624801257438306E-3    1.158726477553106E-3   -2.603216444552707E-3    1.233995364260495E-3    2.771409489620736E-1    4.307221952582192E-1
 8.151819996250000E9     1.457635765291350E-1    5.203926917613149E-1   -2.607834741596190E-3    1.173298383309575E-3   -2.616065230656967E-3    1.225706516927707E-3    2.774453772176145E-1    4.304310371206898E-1
 8.151824033700000E9     1.458829031297438E-1    5.200868826365753E-1   -2.629275496695276E-3    1.181503014913701E-3   -2.624479616261601E-3    1.262779239446579E-3    2.775989599862764E-1    4.302742442033772E-1
 8.151828071150000E9     1.464028026933488E-1    5.200654502488157E-1   -2.594849894203885E-3    1.191748151114854E-3   -2.626089942766621E-3    1.216508237369496E-3    2.778263138494576E-1    4.301615723259738E-1
 8.151832108600000E9     1.465323144651339E-1    5.200334063761175E-1   -2.614206332431945E-3    1.144329862164074E-3   -2.621013034745584E-3    1.195481026560619E-3    2.781467552383299E-1    4.300182026036728E-1
 8.151836146050000E9     1.469094699272034E-1    5.199574403155404E-1   -2.604574272120936E-3    1.186219673132203E-3   -2.626005703648132E-3    1.224139621266214E-3    2.782086051008673E-1    4.298852078389283E-1
 8.151840183500000E9     1.470826591550389E-1    5.199130915541171E-1   -2.646144485033571E-3    1.178017250512106E-3   -2.631953846600990E-3    1.195137368971467E-3    2.785763792289975E-1    4.298140535112045E-1
 8.151844220950000E9     1.474494464818773E-1    5.198192545137237E-1   -2.641301462920962E-3    1.194599779743891E-3   -2.621323129896826E-3    1.230588318374030E-3    2.787704592930090E-1    4.295125669711414E-1
 8.151848258400000E9     1.476954814542670E-1    5.195775266737653E-1   -2.617435732633107E-3    1.205695873470378E-3   -2.643192890759182E-3    1.234624034712015E-3    2.789673755667889E-1    4.294362884771201E-1
 8.151852295850000E9     1.480102676889514E-1    5.196476493906252E-1   -2.622741967298839E-3    1.181804258255186E-3   -2.622793338270300E-3    1.240062211637568E-3    2.791360373546370E-1    4.292874590808451E-1
 8.151856333300000E9     1.484009241446024E-1    5.195130063962056E-1   -2.610448013564182E-3    1.193212386425215E-3   -2.646271303585324E-3    1.272649601607021E-3    2.793319772531684E-1    4.290130775593444E-1
 8.151860370750000E9     1.485783865161463E-1    5.195177821961819E-1   -2.645199670850331E-3    1.218598282072774E-3   -2.651423713941750E-3    1.247509005371446E-3    2.795581074941623E-1    4.289036784526565E-1
 8.151864408200000E9     1.487579885069797E-1    5.194823585205847E-1   -2.625559896623139E-3    1.207082349838792E-3   -2.619504089359390E-3    1.240503112444051E-3    2.798305460967641E-1    4.288238258222246E-1
 8.151868445650000E9     1.490678414304538E-1    5.193974218191036E-1   -2.623922818709473E-3    1.214583541539879E-3   -2.628852890103963E-3    1.226663677121151E-3    2.799982123074918E-1    4.285783076005749E-1
 8.151872483100000E9     1.494466760906168E-1    5.192540252629348E-1   -2.665301312975922E-3    1.202887088148182E-3   -2.655979083036615E-3    1.226677513589743E-3    2.803748941579712E-1    4.285719149569078E-1
 8.151876520550000E9     1.496811863898015E-1    5.191768279234960E-1   -2.640363904854748E-3    1.222727361406853E-3   -2.640697192097979E-3    1.254057718208531E-3    2.801913886739087E-1    4.282646763729409E-1
 8.151880558000000E9     1.500710678193322E-1    5.191170306895206E-1   -2.642485487672234E-3    1.201191407227067E-3   -2.644221135216205E-3    1.234614788610249E-3    2.805514897284548E-1    4.282863920205050E-1
 8.151884595450000E9     1.502796598526520E-1    5.190387657238911E-1   -2.634971014242953E-3    1.206490871900641E-3   -2.673335092495629E-3    1.270424940711717E-3    2.807325832615703E-1    4.281096007768355E-1
 8.151888632900000E9     1.504469030116793E-1    5.189121813494818E-1   -2.609095353065167E-3    1.216092839271874E-3   -2.612670331894211E-3    1.246724650856888E-3    2.809750776204971E-1    4.279529131670570E-1
 8.151892670350000E9     1.507114089158324E-1    5.188319265211151E-1   -2.637873774105941E-3    1.188992552139323E-3   -2.650317137331275E-3    1.280235130182393E-3    2.813195707800085E-1    4.277237001830290E-1
 8.151896707800000E9     1.511333708876783E-1    5.188169115563122E-1   -2.640810332791676E-3    1.219572898930741E-3   -2.645968004714077E-3    1.287072619886172E-3    2.814873177997532E-1    4.276513476614113E-1
 8.151900745250000E9     1.513954695712484E-1    5.186124136803422E-1   -2.636579712862186E-3    1.233592364790175E-3   -2.657947186284630E-3    1.284979816631671E-3    2.817032229154099E-1    4.275293194523569E-1
 8.151904782700000E9     1.516082711888257E-1    5.185740400186154E-1   -2.629576217233971E-3    1.227272880821237E-3   -2.652966727994564E-3    1.282125396460349E-3    2.820172204624817E-1    4.273918560795273E-1
 8.151908820150000E9     1.519551156751314E-1    5.184593290789874E-1   -2.644592239579070E-3    1.252241154921335E-3   -2.648343661574021E-3    1.292866355669816E-3    2.819972448814486E-1    4.272016791125654E-1
 8.151912857600000E9     1.521179588512997E-1    5.185075736040067E-1   -2.652932209047019E-3    1.217489908265983E-3   -2.651330139757389E-3    1.281944775414644E-3    2.822540261986297E-1    4.270019297350534E-1
 8.151916895050000E9     1.525032806107933E-1    5.184766946677350E-1   -2.626009527251214E-3    1.246649995467506E-3   -2.702513359976043E-3    1.293230548541507E-3    2.825806632657127E-1    4.269277922882480E-1
 8.151920932500000E9     1.527649224329801E-1    5.182386578243651E-1   -2.665774218425813E-3    1.242773085838671E-3   -2.692204079084248E-3    1.300520015099027E-3    2.826132060814899E-1    4.267459431990501E-1
 8.151924969950000E9     1.530164790699878E-1    5.181908860233599E-1   -2.672778563571883E-3    1.243631966729179E-3   -2.640740506007100E-3    1.313715174774841E-3    2.829631107971008E-1    4.266280242574658E-1
 8.151929007400000E9     1.533205003290463E-1    5.181239814835611E-1   -2.664100265001397E-3    1.267399023247576E-3   -2.687720997937358E-3    1.335307256031363E-3    2.830730751798030E-1    4.264718753481084E-1
 8.151933044850000E9     1.535574371689378E-1    5.180699668151174E-1   -2.677050191326107E-3    1.256288569938612E-3   -2.665905549193493E-3    1.306487509625049E-3    2.832935443229105E-1    4.263674882983721E-1
 8.151937082300000E9     1.538085361359926E-1    5.181065544041694E-1   -2.683505993409867E-3    1.245493602560242E-3   -2.661168686176246E-3    1.277631968137025E-3    2.837055456269714E-1    4.263154301569001E-1
 8.151941119750000E9     1.542524934939733E-1    5.180622066801930E-1   -2.650518225611714E-3    1.261276622374749E-3   -2.646835483575668E-3    1.324165094373996E-3    2.837921330364970E-1    4.260617519380673E-1
 8.151945157200000E9     1.544327663223341E-1    5.178436454348561E-1   -2.665859413961799E-3    1.261477815501763E-3   -2.680572022457771E-3    1.341105209007063E-3    2.840257181315007E-1    4.257546298899402E-1
 8.151949194650000E9     1.546884712339889E-1    5.177435137642447E-1   -2.685754482003736E-3    1.282328523774417E-3   -2.679347799817770E-3    1.336771098800592E-3    2.842704147317792E-1    4.257709526218588E-1
 8.151953232100000E9     1.550865306785669E-1    5.176346868489634E-1   -2.682090540589245E-3    1.244324965831190E-3   -2.656057261306529E-3    1.328776128549989E-3    2.844217816758694E-1    4.255331127509698E-1
 8.151957269550000E9     1.551967863429203E-1    5.176214908134800E-1   -2.677477059954015E-3    1.262891604790558E-3   -2.677304245722284E-3    1.315719003499380E-3    2.846827316576132E-1    4.254186095602601E-1
 8.151961307000000E9     1.554920730450668E-1    5.176138338038424E-1   -2.678528410908994E-3    1.303145163867341E-3   -2.675862629824242E-3    1.308748983641807E-3    2.849559319297276E-1    4.251378379693723E-1
 8.151965344450000E9     1.559237537913975E-1    5.173971053288955E-1   -2.672731871771031E-3    1.256308472210682E-3   -2.679478336386257E-3    1.326392026891828E-3    2.850894021954901E-1    4.250829150915058E-1
 8.151969381900000E9     1.561532507414225E-1    5.173231311479040E-1   -2.682922565485177E-3    1.305345632287176E-3   -2.684670414569437E-3    1.315599357073356E-3    2.853344702281953E-1    4.250616506092048E-1
 8.151973419350000E9     1.565152086821964E-1    5.174010942452613E-1   -2.684236012168380E-3    1.298903527262710E-3   -2.688343561180625E-3    1.333888611434655E-3    2.854610132927871E-1    4.247878753822635E-1
 8.151977456800000E9     1.567275673882804E-1    5.171408081365341E-1   -2.683386781179668E-3    1.282825166539844E-3   -2.689232774308224E-3    1.326447244545560E-3    2.856503355720815E-1    4.246103276020383E-1
 8.151981494250000E9     1.570341249952583E-1    5.171530301366838E-1   -2.699733030381779E-3    1.287193645650687E-3   -2.713450406448409E-3    1.356692852247744E-3    2.859412631889639E-1    4.245492542663278E-1
 8.151985531700000E9     1.571960431757249E-1    5.170280101064089E-1   -2.667434099748306E-3    1.322527740766816E-3   -2.724727678796968E-3    1.334699419360960E-3    2.862032774733284E-1    4.243988066248440E-1
 8.151989569150000E9     1.577078106891562E-1    5.169645438631988E-1   -2.701300568733879E-3    1.303230912558404E-3   -2.681171937296543E-3    1.348607556931985E-3    2.863760486245543E-1    4.242214895336653E-1
 8.151993606600000E9     1.578194928564601E-1    5.168719846057023E-1   -2.693152568196551E-3    1.300348087030441E-3   -2.690278437149956E-3    1.394429166653079E-3    2.866082875256967E-1    4.239800764420705E-1
 8.151997644050000E9     1.581540803609614E-1    5.167259015093199E-1   -2.697463835186997E-3    1.309703367485337E-3   -2.704400180529472E-3    1.321199339598694E-3    2.866756436269742E-1    4.239891545958707E-1
 8.152001681500000E9     1.584828712933292E-1    5.167074941376105E-1   -2.685463904116702E-3    1.299696166451180E-3   -2.708965176518991E-3    1.354133604822499E-3    2.870907274497800E-1    4.238637131394085E-1
 8.152005718950000E9     1.587339208079502E-1    5.166144475517830E-1   -2.703314346328904E-3    1.324652247063294E-3   -2.700285333089261E-3    1.359994236807339E-3    2.872162774329701E-1    4.236630120754168E-1
 8.152009756400000E9     1.590792334168727E-1    5.165364237963662E-1   -2.706788358811251E-3    1.321572481184761E-3   -2.659350706913956E-3    1.356643856852473E-3    2.873913531590974E-1    4.235314026560266E-1
 8.152013793850000E9     1.591889330929630E-1    5.165277876277742E-1   -2.687241041198170E-3    1.317955394966688E-3   -2.712320606399860E-3    1.329434733996745E-3    2.876681495555456E-1    4.232971950945109E-1
 8.152017831300000E9     1.596121071272163E-1    5.164683816897800E-1   -2.712067530646083E-3    1.330480861451724E-3   -2.703284714045589E-3    1.345181623187064E-3    2.878360317818936E-1    4.231658906294443E-1
 8.152021868750000E9     1.598978292226280E-1    5.163144454268997E-1   -2.723070878108447E-3    1.323295014400285E-3   -2.708571388905429E-3    1.363968868422244E-3    2.880793909644768E-1    4.229723083991581E-1
 8.152025906200000E9     1.601869625317629E-1    5.161215879543815E-1   -2.716990893592658E-3    1.334014028129941E-3   -2.708276294888264E-3    1.369169948366515E-3    2.882188965089058E-1    4.228171165539822E-1
 8.152029943650000E9     1.604752620043446E-1    5.159914516887925E-1   -2.715162465783870E-3    1.324783421378862E-3   -2.731033621291684E-3    1.378919163295229E-3    2.885189414796561E-1    4.227700815438821E-1
 8.152033981100000E9     1.607777028769312E-1    5.160152151773132E-1   -2.719916366777798E-3    1.349760571689183E-3   -2.729224623292780E-3    1.396133166823968E-3    2.886605427370451E-1    4.227162570864349E-1
 8.152038018550000E9     1.610340315338691E-1    5.160021356420246E-1   -2.723077098332313E-3    1.337780986492582E-3   -2.701619414027609E-3    1.402429848803195E-3    2.888877562928993E-1    4.225299298209860E-1
 8.152042056000000E9     1.613527084622186E-1    5.157364707403497E-1   -2.723658945607488E-3    1.352042886136325E-3   -2.758195469700838E-3    1.401732039721832E-3    2.890400284527450E-1    4.222601474622311E-1
 8.152046093450000E9     1.616777074291729E-1    5.157741835858570E-1   -2.706923431459253E-3    1.379626086712680E-3   -2.727389053224812E-3    1.429836365749117E-3    2.893120815401845E-1    4.221253838008018E-1
 8.152050130900000E9     1.618047602104847E-1    5.158179390875752E-1   -2.728764870595000E-3    1.355639379888292E-3   -2.720112068906936E-3    1.414717699289306E-3    2.895652506298712E-1    4.220409015484488E-1
 8.152054168350000E9     1.621188779212446E-1    5.156106853227874E-1   -2.715011355560071E-3    1.355888029731151E-3   -2.735718269520169E-3    1.401941205547846E-3    2.898123203681956E-1    4.217269131699872E-1
 8.152058205800000E9     1.624697858072098E-1    5.155205437751668E-1   -2.732504900163086E-3    1.374360931190335E-3   -2.722702823898129E-3    1.428706602553741E-3    2.897853131690288E-1    4.217740919102285E-1
 8.152062243250000E9     1.627760522096661E-1    5.154657756665402E-1   -2.747278304943438E-3    1.377446664571525E-3   -2.717317644378506E-3    1.428746439491837E-3    2.902675858391848E-1    4.216061880028026E-1
 8.152066280700000E9     1.629956227564163E-1    5.153231287880656E-1   -2.747972318408115E-3    1.391776052606917E-3   -2.721143316528416E-3    1.422055086380399E-3    2.902717930429594E-1    4.214940631007786E-1
 8.152070318150000E9     1.634305616251450E-1    5.152334521159073E-1   -2.754802637893646E-3    1.377552521104697E-3   -2.707076782493629E-3    1.414453144714290E-3    2.905160876268361E-1    4.213079024905129E-1
 8.152074355600000E9     1.635915939668371E-1    5.151519116753277E-1   -2.730676539038108E-3    1.383802163887887E-3   -2.735221312558864E-3    1.440741692829614E-3    2.908507322078984E-1    4.209902110495470E-1
 8.152078393050000E9     1.638891594428245E-1    5.150687518637231E-1   -2.755063963076204E-3    1.392581539439251E-3   -2.765130681227701E-3    1.472536630642145E-3    2.908577966173284E-1    4.209607675338590E-1
 8.152082430500000E9     1.642366570640386E-1    5.149828101533547E-1   -2.755133875401483E-3    1.392264439722456E-3   -2.739034270274546E-3    1.470811487661448E-3    2.911659558795643E-1    4.209293711842820E-1
