#  HZ   S   RI   R     50.00 
! Rohde & Schwarz Vector Network Analyzer 
! Rohde-Schwarz,ZNB20-2Port,1311601062101988,3.16
! Created: UTC 3/21/2024, 1:17:58 AM
! freq[Hz]                re:S11                  im:S11                  re:S21                  im:S21                  re:S12                  im:S12                  re:S22                  im:S22
 8.151894790000000E9     1.502948976892642E-1    5.190502970711035E-1   -2.629657772248837E-3    1.223568464788355E-3   -2.636202104117643E-3    1.246792513702288E-3    2.809854744142390E-1    4.281015889834278E-1
 8.151898197000000E9     1.506332504688316E-1    5.188423104067433E-1   -2.605235724454041E-3    1.188890736348355E-3   -2.651952779776994E-3    1.260242318759920E-3    2.812645207212627E-1    4.281099857213586E-1
 8.151901604000000E9     1.508693813332198E-1    5.188891134872754E-1   -2.634147792715153E-3    1.218632736620025E-3   -2.633422141541341E-3    1.268836417435324E-3    2.813118191746494E-1    4.278887632622568E-1
 8.151905011000000E9     1.510826128885883E-1    5.187024289284526E-1   -2.610519345272636E-3    1.212053196751087E-3   -2.617516848319804E-3    1.241445903530824E-3    2.815307933531616E-1    4.276449389908839E-1
 8.151908418000000E9     1.513659492414142E-1    5.186590324751336E-1   -2.618805209752534E-3    1.205625444545200E-3   -2.642674529843776E-3    1.262797731216352E-3    2.815616437600290E-1    4.277992290995700E-1
 8.151911825000000E9     1.515284934611441E-1    5.186600175710216E-1   -2.626378151566016E-3    1.195008143262801E-3   -2.657840334852998E-3    1.278550672118357E-3    2.816852835724106E-1    4.275383581416522E-1
 8.151915232000000E9     1.518564424782119E-1    5.186007104394647E-1   -2.629722309066261E-3    1.209673603212609E-3   -2.616157840398071E-3    1.271602344599446E-3    2.820786387093246E-1    4.273765403296009E-1
 8.151918639000000E9     1.519824004503015E-1    5.185041958629347E-1   -2.654284570981353E-3    1.222039741123411E-3   -2.663275301193036E-3    1.252253007788160E-3    2.820636204576522E-1    4.272715315112278E-1
 8.151922046000000E9     1.522718148654613E-1    5.185388570934186E-1   -2.612774188499387E-3    1.189342284570041E-3   -2.629947595035377E-3    1.275710483625542E-3    2.823559827304677E-1    4.271652441066213E-1
 8.151925453000000E9     1.526602131905306E-1    5.184159832854859E-1   -2.646970943438088E-3    1.220368113186258E-3   -2.634412989245028E-3    1.249087626318417E-3    2.826055382002325E-1    4.271111194299802E-1
 8.151928860000000E9     1.527686806376587E-1    5.183505061061244E-1   -2.632481199914196E-3    1.229339794558774E-3   -2.634084817031259E-3    1.259040636771308E-3    2.827426856463611E-1    4.268915124870425E-1
 8.151932267000000E9     1.529969361103720E-1    5.182555216008605E-1   -2.635528439171796E-3    1.241499391204390E-3   -2.662061913068564E-3    1.249241764461540E-3    2.829692135533375E-1    4.268263362515600E-1
 8.151935674000000E9     1.532815222900019E-1    5.181040867717935E-1   -2.662431991994355E-3    1.194383601926181E-3   -2.616233859683664E-3    1.268140342034810E-3    2.831311787054639E-1    4.266946840722934E-1
 8.151939081000000E9     1.535500512212698E-1    5.181738629003907E-1   -2.634281940026601E-3    1.246580954110063E-3   -2.651846410740361E-3    1.265635046869309E-3    2.832037945945647E-1    4.266020570240135E-1
 8.151942488000000E9     1.536702343212145E-1    5.180570461810716E-1   -2.668719686706190E-3    1.250470389260423E-3   -2.659952243811708E-3    1.296320073975991E-3    2.834052610192313E-1    4.263901363565976E-1
 8.151945895000000E9     1.540059814095396E-1    5.179740326575047E-1   -2.640327483355586E-3    1.247099190297733E-3   -2.685840070539378E-3    1.279361275057997E-3    2.837728465060828E-1    4.262664573295929E-1
 8.151949302000000E9     1.541137220240801E-1    5.178898721613184E-1   -2.677882001422198E-3    1.205446086899213E-3   -2.634198830752561E-3    1.292654493393339E-3    2.837561353898392E-1    4.261855926703762E-1
 8.151952709000000E9     1.544068451952767E-1    5.178887733147201E-1   -2.649927435111526E-3    1.233074003735823E-3   -2.645160722732627E-3    1.313411635423721E-3    2.840174692318724E-1    4.260754620307977E-1
 8.151956116000000E9     1.546914324420574E-1    5.178195799945495E-1   -2.661444650786811E-3    1.251658917841136E-3   -2.651788014635579E-3    1.303526546601083E-3    2.842718128589313E-1    4.258783324418513E-1
 8.151959523000000E9     1.550076548261827E-1    5.177050191782085E-1   -2.663914601490977E-3    1.246555052060574E-3   -2.663658840568655E-3    1.303787118012630E-3    2.844023106981918E-1    4.258275201935856E-1
 8.151962930000000E9     1.551533826366863E-1    5.175861494692271E-1   -2.660378277833165E-3    1.271657558965522E-3   -2.637839796768640E-3    1.288174930709820E-3    2.845804916277924E-1    4.256757967415423E-1
 8.151966337000000E9     1.553828077159086E-1    5.173989898450594E-1   -2.666835720831877E-3    1.285824804803570E-3   -2.673807462297115E-3    1.295557118217686E-3    2.846721821815965E-1    4.256361127190442E-1
 8.151969744000000E9     1.556289047340882E-1    5.175320904050390E-1   -2.672032496463572E-3    1.237128589297177E-3   -2.638630912038272E-3    1.289240155227285E-3    2.848337833916103E-1    4.255003902894199E-1
 8.151973151000000E9     1.559793331120215E-1    5.174073263892676E-1   -2.647815927967062E-3    1.237772884475993E-3   -2.658910120250645E-3    1.328250982763486E-3    2.849414107385914E-1    4.252480993030600E-1
 8.151976558000000E9     1.561544452743727E-1    5.173408671944092E-1   -2.650609847669071E-3    1.254862715733141E-3   -2.680894077562457E-3    1.307099670679724E-3    2.852161571155434E-1    4.251669681873742E-1
 8.151979965000000E9     1.564446697539734E-1    5.172727318855932E-1   -2.656929492234513E-3    1.258537186292090E-3   -2.661003963005885E-3    1.333618388961906E-3    2.854947716105579E-1    4.250147205395302E-1
 8.151983372000000E9     1.566105230775148E-1    5.173639821600940E-1   -2.657454743821094E-3    1.239899067989443E-3   -2.669341049075920E-3    1.303589190865203E-3    2.856171972433531E-1    4.248332543453209E-1
 8.151986779000000E9     1.568424323105251E-1    5.170698791107150E-1   -2.667109633581306E-3    1.278563838115077E-3   -2.682947370066075E-3    1.324933157830788E-3    2.857812589972784E-1    4.247206466537264E-1
 8.151990186000000E9     1.569989880616080E-1    5.170675675901413E-1   -2.664119384110358E-3    1.257047337940351E-3   -2.679457322190447E-3    1.334578313162731E-3    2.859692087966549E-1    4.248195063236511E-1
 8.151993593000000E9     1.574009573539283E-1    5.169688643846791E-1   -2.659166288450423E-3    1.257915576307607E-3   -2.679754059593223E-3    1.302056968597496E-3    2.861243281718749E-1    4.246937418335118E-1
 8.151997000000000E9     1.574802216226933E-1    5.170565953090456E-1   -2.656446897866424E-3    1.288159680287162E-3   -2.661055826141057E-3    1.329614716693903E-3    2.863189796016763E-1    4.243839853990858E-1
 8.152000407000000E9     1.578583721870221E-1    5.168825927035972E-1   -2.665932259290555E-3    1.293863209914701E-3   -2.675078437047035E-3    1.293207156720307E-3    2.865764536424837E-1    4.244295061165855E-1
 8.152003814000000E9     1.581540566704853E-1    5.168289031262352E-1   -2.665855964209468E-3    1.277819066304800E-3   -2.670477911280325E-3    1.355679993781484E-3    2.865880734323373E-1    4.242165119203315E-1
 8.152007221000000E9     1.581979233988365E-1    5.167364856359501E-1   -2.672515300108234E-3    1.288464014125349E-3   -2.667976692929200E-3    1.345998828958932E-3    2.868998536126553E-1    4.239605610984127E-1
 8.152010628000000E9     1.585511463628132E-1    5.166492771238992E-1   -2.666072128268803E-3    1.287642177396158E-3   -2.676105001695829E-3    1.330614407229318E-3    2.869819690560306E-1    4.238608390704747E-1
 8.152014035000000E9     1.588068394736413E-1    5.164558666304742E-1   -2.676869293657864E-3    1.269668900895608E-3   -2.700233150006751E-3    1.327876008754221E-3    2.871034038611440E-1    4.238433652949903E-1
 8.152017442000000E9     1.589958563035515E-1    5.165209123707885E-1   -2.663304772254066E-3    1.287144840421472E-3   -2.683112205982002E-3    1.342081817642905E-3    2.873478157093306E-1    4.235249161799872E-1
 8.152020849000000E9     1.592693527852838E-1    5.165015852203221E-1   -2.678198980632063E-3    1.308334020173994E-3   -2.682189420270807E-3    1.343443865902602E-3    2.874405869910078E-1    4.235656505112632E-1
 8.152024256000000E9     1.595674037738239E-1    5.164142854050272E-1   -2.674852144612684E-3    1.275604345353343E-3   -2.698117195385956E-3    1.342422551650924E-3    2.877604055059387E-1    4.233275856979105E-1
 8.152027663000000E9     1.596765548145006E-1    5.162707325672666E-1   -2.661826039019410E-3    1.306923584672334E-3   -2.693621311294990E-3    1.335846803483954E-3    2.879279407552170E-1    4.233303556968325E-1
 8.152031070000000E9     1.599395247737745E-1    5.162110176621402E-1   -2.685296926944014E-3    1.290541088882555E-3   -2.724524749423634E-3    1.385096374992869E-3    2.880447571588306E-1    4.232359071437893E-1
 8.152034477000000E9     1.601961561758662E-1    5.160981524371181E-1   -2.657877089501380E-3    1.294675208934273E-3   -2.694659097668915E-3    1.388128077746850E-3    2.882658213663791E-1    4.231695206791754E-1
 8.152037884000000E9     1.605211354908982E-1    5.160183644906834E-1   -2.716220766218963E-3    1.330539141118779E-3   -2.715952255039644E-3    1.350462540011079E-3    2.885507108749666E-1    4.228824558979733E-1
 8.152041291000000E9     1.606723266876124E-1    5.160902668789996E-1   -2.704600576152954E-3    1.305978494402706E-3   -2.706811192075497E-3    1.357494335325128E-3    2.886369588696718E-1    4.227484336486378E-1
 8.152044698000000E9     1.610053874172064E-1    5.159367702456853E-1   -2.688061986475010E-3    1.304516834229221E-3   -2.679765975765028E-3    1.344098877428462E-3    2.888400839789564E-1    4.226131024808979E-1
 8.152048105000000E9     1.611945501052421E-1    5.158659730128449E-1   -2.688217337410395E-3    1.321754335324930E-3   -2.670015282902595E-3    1.361751647645429E-3    2.890982341324281E-1    4.226218573969539E-1
 8.152051512000000E9     1.613619384138698E-1    5.157656420822219E-1   -2.725432355316555E-3    1.304408898492813E-3   -2.698643719728131E-3    1.364891541658927E-3    2.891393523362124E-1    4.222782260376851E-1
 8.152054919000000E9     1.616034679282469E-1    5.156593383216156E-1   -2.706383014753285E-3    1.301152873948573E-3   -2.708721322686198E-3    1.353440413052871E-3    2.894742352089694E-1    4.222288967925396E-1
 8.152058326000000E9     1.618177297668467E-1    5.156696618191843E-1   -2.723220290606774E-3    1.313506067898663E-3   -2.701251890580310E-3    1.378597291782286E-3    2.895511726622598E-1    4.221730909101616E-1
 8.152061733000000E9     1.621893506705260E-1    5.156606603554670E-1   -2.694707005249831E-3    1.338698319118712E-3   -2.711255644403763E-3    1.408011834453748E-3    2.897531782453484E-1    4.220947319564061E-1
 8.152065140000000E9     1.624382584471334E-1    5.156010607272438E-1   -2.702278802169132E-3    1.305490594698263E-3   -2.718902618311598E-3    1.403621303696745E-3    2.898937024067100E-1    4.217507738755329E-1
 8.152068547000000E9     1.626566263792999E-1    5.153327675260543E-1   -2.686892425010571E-3    1.333312417656261E-3   -2.705886322757218E-3    1.413148127110792E-3    2.901161400405495E-1    4.216139399160531E-1
 8.152071954000000E9     1.629326130579503E-1    5.153154852442385E-1   -2.703424902989067E-3    1.355575210452848E-3   -2.716339391043310E-3    1.417731780632635E-3    2.901527174347715E-1    4.216495317724848E-1
 8.152075361000000E9     1.631945649629772E-1    5.153475703611933E-1   -2.714464935084329E-3    1.354347473643418E-3   -2.698569437039318E-3    1.404675334896355E-3    2.903570368037036E-1    4.214849353885708E-1
 8.152078768000000E9     1.632888215271488E-1    5.152377179987454E-1   -2.734015745747362E-3    1.358206433557610E-3   -2.705215923142396E-3    1.387186573668393E-3    2.905385147430679E-1    4.214898940909620E-1
 8.152082175000000E9     1.635912049889000E-1    5.151036357932466E-1   -2.718351978352667E-3    1.345469825703415E-3   -2.743396707943712E-3    1.416163502875605E-3    2.906325687324114E-1    4.213286652734533E-1
 8.152085582000000E9     1.638282756294872E-1    5.151513464930924E-1   -2.697278012524611E-3    1.350833877304107E-3   -2.689025371997022E-3    1.439252956093511E-3    2.910309169764747E-1    4.212786599678648E-1
 8.152088989000000E9     1.641049833945570E-1    5.150356410000702E-1   -2.715372979840198E-3    1.357775693110386E-3   -2.713922016090733E-3    1.443377552239670E-3    2.910399430541231E-1    4.209600411218100E-1
 8.152092396000000E9     1.644682510485593E-1    5.148321868761149E-1   -2.703867469986661E-3    1.340721962002324E-3   -2.745810949715472E-3    1.411588171978874E-3    2.912602933538399E-1    4.208002415823682E-1
 8.152095803000000E9     1.645851578497446E-1    5.148309544864854E-1   -2.736432410772887E-3    1.359947883293653E-3   -2.724643440906333E-3    1.445176024685033E-3    2.915558684894465E-1    4.207396943871760E-1
 8.152099210000000E9     1.648105908493026E-1    5.148582574899013E-1   -2.715665695210354E-3    1.359493528893239E-3   -2.736407856743606E-3    1.415829625968454E-3    2.917518026259824E-1    4.207068560064775E-1
 8.152102617000000E9     1.651450426599246E-1    5.146502588300672E-1   -2.739590797573334E-3    1.384536133843614E-3   -2.736891671887287E-3    1.410048419483645E-3    2.917975130938921E-1    4.204838591894717E-1
 8.152106024000000E9     1.652834156117199E-1    5.145949213392477E-1   -2.735481360043862E-3    1.379835462176058E-3   -2.732460829385283E-3    1.442146942831821E-3    2.918967399819978E-1    4.204220851082872E-1
 8.152109431000000E9     1.655646678246963E-1    5.145273464916454E-1   -2.750311023734974E-3    1.351285927198507E-3   -2.739455867645680E-3    1.454321964787148E-3    2.920366784336858E-1    4.202077217999501E-1
 8.152112838000000E9     1.658889540521665E-1    5.143756547436792E-1   -2.766395770926639E-3    1.402093815029578E-3   -2.738799887920233E-3    1.457986246648870E-3    2.923635858218248E-1    4.200127810208114E-1
 8.152116245000000E9     1.659976040101988E-1    5.144135758356030E-1   -2.736297862717037E-3    1.391875062825590E-3   -2.738844228245556E-3    1.426744028199073E-3    2.924709995926163E-1    4.201184930095549E-1
 8.152119652000000E9     1.663619403850334E-1    5.142587844619299E-1   -2.742621727006754E-3    1.368915590363577E-3   -2.722240971974971E-3    1.426765031186935E-3    2.928744286583492E-1    4.198956261131371E-1
 8.152123059000000E9     1.665738235046492E-1    5.142764740873644E-1   -2.737915803437105E-3    1.388511383359443E-3   -2.746320362899058E-3    1.449279667940831E-3    2.930460334095017E-1    4.197594439570417E-1
 8.152126466000000E9     1.667881201660797E-1    5.141768103518299E-1   -2.744232544454700E-3    1.391785623399433E-3   -2.734629858270720E-3    1.474435966188429E-3    2.932592644845668E-1    4.195824795341143E-1
 8.152129873000000E9     1.671120258232611E-1    5.141132494862548E-1   -2.761887849204832E-3    1.422564526515692E-3   -2.763588712304635E-3    1.454628167821884E-3    2.933603854035216E-1    4.193390794948849E-1
 8.152133280000000E9     1.673712989193266E-1    5.140458832777834E-1   -2.754803906804779E-3    1.417194121958840E-3   -2.755390901111621E-3    1.443032250958423E-3    2.933916161563871E-1    4.194428029438551E-1
 8.152136687000000E9     1.674722664860612E-1    5.138494032297819E-1   -2.750934930921467E-3    1.421721321120858E-3   -2.763312628724920E-3    1.443124063466068E-3    2.936841504939581E-1    4.192867527442135E-1
 8.152140094000000E9     1.678229076101678E-1    5.138111875185899E-1   -2.774373765369615E-3    1.402340266065544E-3   -2.750242709232416E-3    1.477730218976346E-3    2.938187017966242E-1    4.190583524677256E-1
 8.152143501000000E9     1.680731631653774E-1    5.137553576970758E-1   -2.759378634290125E-3    1.408578460290183E-3   -2.770801548124235E-3    1.484517197295049E-3    2.939051370451866E-1    4.189746819130147E-1
 8.152146908000000E9     1.682906287255132E-1    5.136098510962416E-1   -2.773147939268160E-3    1.419547331930456E-3   -2.775736548012606E-3    1.455250620307659E-3    2.940384000809464E-1    4.188782063673420E-1
 8.152150315000000E9     1.685125628817197E-1    5.135894260195430E-1   -2.779446205333801E-3    1.432389179635583E-3   -2.781894024413777E-3    1.475629012136987E-3    2.943269469199327E-1    4.186745611316155E-1
 8.152153722000000E9     1.687069706180666E-1    5.134711709124700E-1   -2.779647609182185E-3    1.442765347602355E-3   -2.757436980144893E-3    1.496925015558368E-3    2.943034901852404E-1    4.185310605815179E-1
 8.152157129000000E9     1.690299718530426E-1    5.133656089436592E-1   -2.774231330773762E-3    1.405096268501295E-3   -2.843785213437693E-3    1.509943496120317E-3    2.946623935842289E-1    4.183910894141920E-1
 8.152160536000000E9     1.694174486773732E-1    5.134642605830242E-1   -2.784210261721652E-3    1.446671661629371E-3   -2.786132913202379E-3    1.479757852162481E-3    2.948919846613272E-1    4.181866081832949E-1
 8.152163943000000E9     1.694809153699735E-1    5.132782299607040E-1   -2.767662042426173E-3    1.428760338008264E-3   -2.795490135736168E-3    1.506440190239411E-3    2.949946642784295E-1    4.182028873088393E-1
 8.152167350000000E9     1.697318496991344E-1    5.131462617881209E-1   -2.789743992118434E-3    1.450207269537736E-3   -2.814664533028013E-3    1.521660637470293E-3    2.952026085397497E-1    4.181592640048689E-1
 8.152170757000000E9     1.699565900599453E-1    5.130829700400578E-1   -2.780752813605469E-3    1.453378349807855E-3   -2.790772809920227E-3    1.507855039340362E-3    2.953851616623711E-1    4.179308279578001E-1
 8.152174164000000E9     1.702789248546916E-1    5.130191320023415E-1   -2.801951649253215E-3    1.484590510448404E-3   -2.815958983312766E-3    1.527290605765946E-3    2.955578405901564E-1    4.178015156615384E-1
 8.152177571000000E9     1.704647539079515E-1    5.129387539676786E-1   -2.805026586651862E-3    1.460699932168611E-3   -2.818026176693387E-3    1.508519384756172E-3    2.955919324100754E-1    4.177193252937465E-1
 8.152180978000000E9     1.707953147392724E-1    5.128360938117381E-1   -2.770652503557021E-3    1.460349320070857E-3   -2.811852881512425E-3    1.525788766169688E-3    2.958263535673309E-1    4.175430812772612E-1
 8.152184385000000E9     1.709471341606670E-1    5.127696220382936E-1   -2.827481594806804E-3    1.484560590669725E-3   -2.825005827631063E-3    1.547556754172498E-3    2.961316328653842E-1    4.173432103894922E-1
 8.152187792000000E9     1.712172098639189E-1    5.126705439670631E-1   -2.811262068262797E-3    1.462120130208678E-3   -2.823348276999422E-3    1.535197536498097E-3    2.963265958548135E-1    4.172091403203724E-1
 8.152191199000000E9     1.715399539188268E-1    5.126011862088723E-1   -2.815434045128780E-3    1.505296321738347E-3   -2.811144562933624E-3    1.536859655901531E-3    2.964313384750266E-1    4.172332768421069E-1
 8.152194606000000E9     1.718220158010579E-1    5.124696694758292E-1   -2.834965457735996E-3    1.511859250857334E-3   -2.824218668734757E-3    1.511470052619010E-3    2.965793459861881E-1    4.170455615511096E-1
 8.152198013000000E9     1.720236321832928E-1    5.124553413030896E-1   -2.832287358056148E-3    1.493370343434788E-3   -2.814182663235818E-3    1.540577069274683E-3    2.967607046385233E-1    4.169490720622352E-1
 8.152201420000000E9     1.722176992404187E-1    5.123330365029237E-1   -2.821618151800880E-3    1.499184825238459E-3   -2.830798812973553E-3    1.565803688227868E-3    2.968961519168404E-1    4.168419968534888E-1
