#  HZ   S   RI   R     50.00 
! Rohde & Schwarz Vector Network Analyzer 
! Rohde-Schwarz,ZNB20-2Port,1311601062101988,3.16
! Created: UTC 3/21/2024, 12:52:59 AM
! freq[Hz]                re:S11                  im:S11                  re:S21                  im:S21                  re:S12                  im:S12                  re:S22                  im:S22
 8.151174688000000E9     1.170945019975172E-1    5.304732813171481E-1   -2.793388725764707E-3    1.111952822510767E-3   -2.800994115734944E-3    1.152643321685243E-3    2.626275510371207E-1    4.417605590979515E-1
 8.151177528875000E9     1.173421908115066E-1    5.304829554805928E-1   -2.765382237809519E-3    1.088627766150674E-3   -2.782670466264393E-3    1.130617080651580E-3    2.628293880143993E-1    4.417319456503098E-1
 8.151180369750000E9     1.175879144200838E-1    5.304898198337178E-1   -2.805930080166461E-3    1.107601774096338E-3   -2.780390683510704E-3    1.155663241474816E-3    2.629136328172205E-1    4.417639728711553E-1
 8.151183210625000E9     1.178290558948586E-1    5.303859743595356E-1   -2.777783219170395E-3    1.121899337287421E-3   -2.789929953125155E-3    1.138341155330330E-3    2.631046901002691E-1    4.416819330430229E-1
 8.151186051500000E9     1.179527687750961E-1    5.303217922214284E-1   -2.793249042512265E-3    1.101067129782321E-3   -2.744818480259333E-3    1.117758830307223E-3    2.632644025230296E-1    4.415432666049390E-1
 8.151188892375000E9     1.182583123555186E-1    5.302947858246149E-1   -2.774579977925048E-3    1.106682352740965E-3   -2.811776056316479E-3    1.150134378855466E-3    2.634110781828530E-1    4.415492013304976E-1
 8.151191733250000E9     1.184458410851801E-1    5.303330664012728E-1   -2.774463084820507E-3    1.115646318650032E-3   -2.801816607702543E-3    1.126289424785643E-3    2.636460937870688E-1    4.415192807334359E-1
 8.151194574125000E9     1.185313082821488E-1    5.301774554687956E-1   -2.791420191975497E-3    1.104959136898760E-3   -2.780619009194409E-3    1.164529995144520E-3    2.636356739258489E-1    4.412109752850639E-1
 8.151197415000000E9     1.187504533020260E-1    5.302860347501883E-1   -2.798329669342039E-3    1.139514965102781E-3   -2.819295746257780E-3    1.141070381081263E-3    2.639183003339919E-1    4.411661412712988E-1
 8.151200255875000E9     1.191207958472090E-1    5.300669532351410E-1   -2.766123791421776E-3    1.119772034475114E-3   -2.819326974050986E-3    1.154798855247288E-3    2.640552654706992E-1    4.410425807220594E-1
 8.151203096750000E9     1.191695342436582E-1    5.300417304251550E-1   -2.832927069252436E-3    1.132036274958161E-3   -2.824133529595711E-3    1.201809017806970E-3    2.642331769432689E-1    4.410940405102907E-1
 8.151205937625000E9     1.193911274661890E-1    5.299940339852289E-1   -2.795129095300186E-3    1.100377156101882E-3   -2.805159026397498E-3    1.199159780553190E-3    2.644498399992776E-1    4.408895299205058E-1
 8.151208778500000E9     1.197040473504204E-1    5.299798356534695E-1   -2.823884972409361E-3    1.135575616559549E-3   -2.804529323351302E-3    1.170407160393198E-3    2.645702270428525E-1    4.407597743915836E-1
 8.151211619375000E9     1.199264623842855E-1    5.299640827516017E-1   -2.798636124651401E-3    1.114979860702440E-3   -2.826037316847373E-3    1.173207027545398E-3    2.646598945012043E-1    4.407773598997424E-1
 8.151214460250000E9     1.201922477786844E-1    5.299424073744445E-1   -2.826570135131222E-3    1.132614014182621E-3   -2.811359987518042E-3    1.179320690321456E-3    2.648267585115932E-1    4.406285212209575E-1
 8.151217301125000E9     1.202394612616415E-1    5.298209582713505E-1   -2.810289105069001E-3    1.145814637059729E-3   -2.831399371313801E-3    1.189533844350898E-3    2.650387929778772E-1    4.405738086700957E-1
 8.151220142000000E9     1.205687065988021E-1    5.296974209696738E-1   -2.804012152578454E-3    1.144132496931223E-3   -2.823375440938575E-3    1.172210760580159E-3    2.652131988860331E-1    4.403123416712694E-1
 8.151222982875000E9     1.208087980155009E-1    5.298006475267988E-1   -2.815294957990188E-3    1.121076174719062E-3   -2.821917588775970E-3    1.183164445350273E-3    2.652194610941095E-1    4.403941274661819E-1
 8.151225823750000E9     1.208699143708077E-1    5.296992644985390E-1   -2.835281277239548E-3    1.146661804645353E-3   -2.821524023151012E-3    1.157293417499781E-3    2.654395640623239E-1    4.401119147520411E-1
 8.151228664625000E9     1.212464818670152E-1    5.296089347946102E-1   -2.807483697127532E-3    1.136917730525489E-3   -2.835326394282682E-3    1.174899829525904E-3    2.656340437741428E-1    4.401484676907628E-1
 8.151231505500000E9     1.214333007949472E-1    5.296280037380423E-1   -2.829749537320914E-3    1.154014080388621E-3   -2.842053081638234E-3    1.165347864864497E-3    2.657842206480443E-1    4.399268556241621E-1
 8.151234346375000E9     1.215360198311396E-1    5.295769358746417E-1   -2.812301494194712E-3    1.164585776808899E-3   -2.857923730070940E-3    1.204814311024660E-3    2.659057071862170E-1    4.400056508354890E-1
 8.151237187250000E9     1.218979218734996E-1    5.295399050130012E-1   -2.830562598813411E-3    1.155066235811836E-3   -2.801353817860792E-3    1.220142950973265E-3    2.660297761921426E-1    4.398373119829077E-1
 8.151240028125000E9     1.220976867538343E-1    5.294512654447057E-1   -2.824187673998908E-3    1.163123692122759E-3   -2.825775391729989E-3    1.222836128885737E-3    2.662789670590408E-1    4.397292487595086E-1
 8.151242869000000E9     1.221533061762515E-1    5.293738039036745E-1   -2.831802354482676E-3    1.135797378645936E-3   -2.829831117723584E-3    1.205619424367293E-3    2.663223195810430E-1    4.395924166485362E-1
 8.151245709875000E9     1.224199040815904E-1    5.294573322266395E-1   -2.827344506396162E-3    1.153607469170967E-3   -2.816366461634946E-3    1.226415477676620E-3    2.665916544991890E-1    4.396072810454018E-1
 8.151248550750000E9     1.226144745849583E-1    5.293402670116182E-1   -2.865193788310201E-3    1.166107668875406E-3   -2.849019163447864E-3    1.200337022954788E-3    2.668227742315904E-1    4.393767278808154E-1
 8.151251391625000E9     1.228644679248361E-1    5.292010211331143E-1   -2.838961763234933E-3    1.164985805039133E-3   -2.830435093619971E-3    1.203554463567413E-3    2.668490646386846E-1    4.392533276663267E-1
 8.151254232500000E9     1.231926651586617E-1    5.292032913058213E-1   -2.827971576982524E-3    1.156497565451002E-3   -2.858230160311466E-3    1.208601195599979E-3    2.670810313935595E-1    4.393975032084335E-1
 8.151257073375000E9     1.232454639274226E-1    5.291493103673147E-1   -2.864553753834802E-3    1.184429833786326E-3   -2.869657348192442E-3    1.245534616083453E-3    2.670886528918226E-1    4.389290077356360E-1
 8.151259914250000E9     1.233537989118194E-1    5.291432694344169E-1   -2.838969459507176E-3    1.160454550549364E-3   -2.822578232558467E-3    1.230964468067361E-3    2.673229158072099E-1    4.391185762996959E-1
 8.151262755125000E9     1.235955663154585E-1    5.290959583416580E-1   -2.855131607287627E-3    1.177083489911292E-3   -2.850935524219791E-3    1.254760955165482E-3    2.675490667270431E-1    4.388700708742153E-1
 8.151265596000000E9     1.238977051431565E-1    5.290001250396051E-1   -2.850398539365969E-3    1.176935625666600E-3   -2.824738027146200E-3    1.227055291236025E-3    2.675641109297638E-1    4.389125767931522E-1
 8.151268436875000E9     1.240070136127442E-1    5.289469305066181E-1   -2.853554273036947E-3    1.200219447832935E-3   -2.847395933385405E-3    1.194732305432125E-3    2.676801302829544E-1    4.386763869900367E-1
 8.151271277750000E9     1.242928608264004E-1    5.289675688624792E-1   -2.837896484921494E-3    1.198782536669880E-3   -2.878681724628819E-3    1.243194052984225E-3    2.678730728096543E-1    4.387381832570119E-1
 8.151274118625000E9     1.244204638002862E-1    5.288496977598194E-1   -2.846610232005542E-3    1.184395781772858E-3   -2.849734443564348E-3    1.258553604338008E-3    2.680480160567082E-1    4.386123903301818E-1
 8.151276959500000E9     1.247001832630376E-1    5.288705162106091E-1   -2.873814807184093E-3    1.191771450643329E-3   -2.856516040271210E-3    1.234175155899328E-3    2.682049436338512E-1    4.384073878830991E-1
 8.151279800375000E9     1.248873370582320E-1    5.288788123922333E-1   -2.862124686777932E-3    1.207191479954431E-3   -2.841236287488848E-3    1.233795909345987E-3    2.684898963721840E-1    4.383069287946097E-1
 8.151282641250000E9     1.251103797750266E-1    5.287282419091234E-1   -2.853108342823045E-3    1.207067557108999E-3   -2.858108589503528E-3    1.244797551269431E-3    2.685204020367404E-1    4.383117536982966E-1
 8.151285482125000E9     1.253220575780432E-1    5.287784412422584E-1   -2.863809515724856E-3    1.176666416122361E-3   -2.906235823586453E-3    1.231642097988471E-3    2.686674655983223E-1    4.381164753455100E-1
 8.151288323000000E9     1.253889197326785E-1    5.286678092607441E-1   -2.860563709373870E-3    1.194711724218327E-3   -2.834323953942079E-3    1.226709096501616E-3    2.688446614509991E-1    4.380911203116344E-1
 8.151291163875000E9     1.257424528871250E-1    5.286708558266449E-1   -2.898437123731613E-3    1.216262421920671E-3   -2.883372436552149E-3    1.265359476817520E-3    2.690041347942274E-1    4.379369250707017E-1
 8.151294004750000E9     1.259196552017167E-1    5.286860183398148E-1   -2.879316251275731E-3    1.180467176974197E-3   -2.893824665116376E-3    1.272561986537690E-3    2.692540531137930E-1    4.378046642607327E-1
 8.151296845625000E9     1.261166865923627E-1    5.285935945120553E-1   -2.862190477498422E-3    1.204375139575016E-3   -2.842180844032161E-3    1.267988458956801E-3    2.693374163695836E-1    4.376443329100015E-1
 8.151299686500000E9     1.264301794957146E-1    5.285141725477415E-1   -2.864714733660722E-3    1.214462637250239E-3   -2.902249565011234E-3    1.264763071010011E-3    2.695388376745968E-1    4.378318143490670E-1
 8.151302527375000E9     1.265696544549797E-1    5.285814236042861E-1   -2.866044602923888E-3    1.234234782471569E-3   -2.896815307925074E-3    1.258997424464595E-3    2.696912794340881E-1    4.375513888116472E-1
 8.151305368250000E9     1.269546186549294E-1    5.283845032734411E-1   -2.910810145418077E-3    1.230262321749202E-3   -2.873567392557584E-3    1.294720375397551E-3    2.697739755656203E-1    4.374402720825168E-1
 8.151308209125000E9     1.269676070746415E-1    5.283392865573414E-1   -2.880120806523409E-3    1.218371067695542E-3   -2.900098076937916E-3    1.267645714927044E-3    2.699308152409074E-1    4.372519098404204E-1
 8.151311050000000E9     1.272939809567710E-1    5.283177808403701E-1   -2.886886766337809E-3    1.240270706525989E-3   -2.924181802420329E-3    1.266029537631018E-3    2.701543816524101E-1    4.373170592900517E-1
 8.151313890875000E9     1.273708423431766E-1    5.282181347492311E-1   -2.909425770262333E-3    1.249234316048401E-3   -2.900014281626260E-3    1.275809256909976E-3    2.704616403464668E-1    4.371129062080814E-1
 8.151316731750000E9     1.276351750783510E-1    5.281168272627133E-1   -2.908793609395865E-3    1.222367095467340E-3   -2.939925599022117E-3    1.285086811211114E-3    2.702925412698111E-1    4.372896993381387E-1
 8.151319572625000E9     1.279681618024346E-1    5.280838136431066E-1   -2.898910373178872E-3    1.242374923134545E-3   -2.909097188342667E-3    1.291991765881626E-3    2.705810567077929E-1    4.369087837755751E-1
 8.151322413500000E9     1.280325353548549E-1    5.281041133561739E-1   -2.893142009442975E-3    1.246919879181935E-3   -2.894299845592377E-3    1.267643438765412E-3    2.708581825317684E-1    4.369111605276835E-1
 8.151325254375000E9     1.282809583882860E-1    5.280146691068858E-1   -2.901225624277080E-3    1.244881363988729E-3   -2.909415831999942E-3    1.288623024877813E-3    2.709801622895004E-1    4.368007752302382E-1
 8.151328095250000E9     1.284983244856815E-1    5.279932116872835E-1   -2.905689662082568E-3    1.239412672747499E-3   -2.889701571441117E-3    1.293515704757153E-3    2.709252573467538E-1    4.365796687906645E-1
 8.151330936125000E9     1.287750706311767E-1    5.278970491639647E-1   -2.895715972430361E-3    1.270035928838398E-3   -2.904737730047014E-3    1.287763415273227E-3    2.712709681023735E-1    4.367680864773211E-1
 8.151333777000000E9     1.289946035014562E-1    5.278364559929725E-1   -2.924780173637211E-3    1.272573405860561E-3   -2.922974661530450E-3    1.320133686851416E-3    2.713531874998747E-1    4.364265366879069E-1
 8.151336617875000E9     1.291636830744356E-1    5.278218484761734E-1   -2.904352949094825E-3    1.253119707765725E-3   -2.932904485133141E-3    1.306824684524554E-3    2.714447110502431E-1    4.363364877688538E-1
 8.151339458750000E9     1.295217786410288E-1    5.278131369138161E-1   -2.926944571296974E-3    1.258467208204383E-3   -2.903921960061007E-3    1.311510668301039E-3    2.716807279441502E-1    4.362486101998584E-1
 8.151342299625000E9     1.296327560796114E-1    5.277221800907866E-1   -2.914589035075399E-3    1.286158564239825E-3   -2.957767442036265E-3    1.348333205946997E-3    2.718152227684318E-1    4.360869096309178E-1
 8.151345140500000E9     1.298953069693804E-1    5.277058109972248E-1   -2.922236523257805E-3    1.266261962933881E-3   -2.929754766376911E-3    1.344801566922540E-3    2.720202445340637E-1    4.360275702200367E-1
 8.151347981375000E9     1.300376200587595E-1    5.275477086401780E-1   -2.926343451421978E-3    1.263512803932671E-3   -2.925326540006317E-3    1.314287853238952E-3    2.721759231342274E-1    4.360499077599428E-1
 8.151350822250000E9     1.303447251862014E-1    5.275844937994176E-1   -2.923754433257576E-3    1.292524942772148E-3   -2.953384716055448E-3    1.351107053162121E-3    2.722896811120559E-1    4.358601534955014E-1
 8.151353663125000E9     1.305561282539526E-1    5.274349552338048E-1   -2.943866024707433E-3    1.278563827627499E-3   -2.946563204842342E-3    1.344381317033009E-3    2.724329201378803E-1    4.356624015350369E-1
 8.151356504000000E9     1.306779593233143E-1    5.275828125808816E-1   -2.941934720055430E-3    1.307794409945490E-3   -2.952621268656043E-3    1.355330754615136E-3    2.725397155530431E-1    4.357120777789631E-1
 8.151359344875000E9     1.308804132093737E-1    5.274376111127163E-1   -2.948670333272356E-3    1.273978752530774E-3   -2.957743100105199E-3    1.331821457516379E-3    2.727409578417337E-1    4.354450952892546E-1
 8.151362185750000E9     1.310890109167845E-1    5.274259703270605E-1   -2.939710995168404E-3    1.283965434520172E-3   -2.939415401221327E-3    1.313253488101231E-3    2.728588428190314E-1    4.353701450826546E-1
 8.151365026625000E9     1.314274317212872E-1    5.273851686592018E-1   -2.980860811966812E-3    1.297051175776660E-3   -2.950562828386853E-3    1.349123017353343E-3    2.731750146124220E-1    4.354233990251133E-1
 8.151367867500000E9     1.315171512993615E-1    5.272996490371640E-1   -2.945249965595058E-3    1.297343480120007E-3   -2.965769179786941E-3    1.368345244311245E-3    2.732454409917844E-1    4.352965180964062E-1
 8.151370708375000E9     1.317676909265459E-1    5.271786371396970E-1   -2.962145409906664E-3    1.301815603719249E-3   -2.962608526827923E-3    1.373431973938804E-3    2.733439742556459E-1    4.351355384390917E-1
 8.151373549250000E9     1.319756334328675E-1    5.271980017665219E-1   -2.969859228699895E-3    1.290974060967499E-3   -2.960096829039460E-3    1.378017990729884E-3    2.734268200435971E-1    4.350186015070198E-1
 8.151376390125000E9     1.322105643329051E-1    5.270697155815067E-1   -2.960426799383179E-3    1.298127003079587E-3   -2.985623348866878E-3    1.351145263242152E-3    2.735020204631146E-1    4.349219975789578E-1
 8.151379231000000E9     1.324809921190563E-1    5.269723576611185E-1   -2.982554906739381E-3    1.335504870682103E-3   -2.988138292116964E-3    1.391565490166228E-3    2.738791287313779E-1    4.348598979282254E-1
 8.151382071875000E9     1.326219238832403E-1    5.270247961851503E-1   -2.973460937381457E-3    1.318689419685855E-3   -2.980252943933622E-3    1.351015119414470E-3    2.741240237987969E-1    4.347733944975575E-1
 8.151384912750000E9     1.330228643957136E-1    5.269137738618843E-1   -2.977622320559739E-3    1.336372008621827E-3   -2.968961628453559E-3    1.383736179556591E-3    2.742266079583837E-1    4.345932035737818E-1
 8.151387753625000E9     1.332009754590968E-1    5.269098870504721E-1   -3.000366704703342E-3    1.296104660514225E-3   -3.019820924214406E-3    1.379377738736926E-3    2.743077537936994E-1    4.346219169174831E-1
 8.151390594500000E9     1.333289195484341E-1    5.268988105699691E-1   -2.982496557216679E-3    1.344203412515569E-3   -2.977864082820240E-3    1.391908756971794E-3    2.743309351753130E-1    4.344163769202597E-1
 8.151393435375000E9     1.334894513672792E-1    5.267936964524422E-1   -3.005283676373337E-3    1.347942321005482E-3   -2.994535026380715E-3    1.419635172763679E-3    2.745159822682131E-1    4.343055495475300E-1
 8.151396276250000E9     1.337505751615917E-1    5.266913517722084E-1   -3.023650842075228E-3    1.354133267147062E-3   -3.010447870562333E-3    1.410685380512566E-3    2.747528823098044E-1    4.342155641626192E-1
 8.151399117125000E9     1.339414656891263E-1    5.266522529905825E-1   -3.017860581371804E-3    1.372667204440728E-3   -3.029767238726903E-3    1.446529546362172E-3    2.749411032869766E-1    4.341739552650619E-1
 8.151401958000000E9     1.342037721912865E-1    5.265506670268731E-1   -3.012690880144523E-3    1.344120053937808E-3   -3.048763135551636E-3    1.425717729219036E-3    2.751135631435932E-1    4.340524443866201E-1
 8.151404798875000E9     1.342825591272585E-1    5.264796299812883E-1   -3.024596359779221E-3    1.363227597707493E-3   -3.026205531619663E-3    1.400028296719990E-3    2.752480580362633E-1    4.339424690315124E-1
 8.151407639750000E9     1.346313120116098E-1    5.263799959022180E-1   -3.011093616132500E-3    1.367637394471730E-3   -3.043041740282440E-3    1.405222265113585E-3    2.753787749474920E-1    4.337447322291099E-1
 8.151410480625000E9     1.348810589261508E-1    5.264306036210431E-1   -3.024444038411282E-3    1.394042302411548E-3   -3.064379585424894E-3    1.423917742066981E-3    2.754584469117058E-1    4.337190071257199E-1
 8.151413321500000E9     1.350163023916621E-1    5.263836541950973E-1   -3.028002540451916E-3    1.387386339964486E-3   -3.012923339814925E-3    1.420248277571291E-3    2.755771706882801E-1    4.335910167265580E-1
 8.151416162375000E9     1.352958544881483E-1    5.262692266721984E-1   -3.034502685844673E-3    1.386738472138057E-3   -3.046658082829193E-3    1.446233017999481E-3    2.758276721782901E-1    4.334909800561491E-1
 8.151419003250000E9     1.355498333502632E-1    5.261021887716227E-1   -3.042999726824685E-3    1.377494395039266E-3   -3.033974278694197E-3    1.425656564651123E-3    2.761200088211551E-1    4.335034255633577E-1
 8.151421844125000E9     1.356341862349695E-1    5.260437136921915E-1   -3.040724584623017E-3    1.385694055591636E-3   -3.068715273784231E-3    1.444513344711474E-3    2.760362804234687E-1    4.331997878262698E-1
 8.151424685000000E9     1.358826773710473E-1    5.262288225785012E-1   -3.061088112346922E-3    1.406970417575915E-3   -3.034822629305190E-3    1.456274404188522E-3    2.763288831434695E-1    4.332518722051097E-1
 8.151427525875000E9     1.362018540702263E-1    5.259828961080240E-1   -3.052511505711478E-3    1.406340440339698E-3   -3.043413293386163E-3    1.464113414056493E-3    2.763162057918814E-1    4.330231228993225E-1
 8.151430366750000E9     1.363339734466089E-1    5.259126519798074E-1   -3.055689415475827E-3    1.395651901558662E-3   -3.067614026869358E-3    1.493613427318536E-3    2.765113163728706E-1    4.330029639822502E-1
