#  HZ   S   RI   R     50.00 
! Rohde & Schwarz Vector Network Analyzer 
! Rohde-Schwarz,ZNB20-2Port,1311601062101988,3.16
! Created: UTC 3/21/2024, 1:18:08 AM
! freq[Hz]                re:S11                  im:S11                  re:S21                  im:S21                  re:S12                  im:S12                  re:S22                  im:S22
 8.151931965000000E9     1.528301490653354E-1    5.181704471894908E-1   -2.605912475500799E-3    1.218213309736415E-3   -2.655742975881403E-3    1.242650038968453E-3    2.827747215316062E-1    4.270227015444990E-1
 8.151935245525000E9     1.530378868662407E-1    5.182016198400459E-1   -2.636485774247664E-3    1.213723763638707E-3   -2.647086429345542E-3    1.283923063814955E-3    2.829310751791869E-1    4.268021369794308E-1
 8.151938526050000E9     1.533247201929717E-1    5.181219167630633E-1   -2.643334239293385E-3    1.224392057361704E-3   -2.628407408216699E-3    1.266692765722196E-3    2.831604665286430E-1    4.267295733792406E-1
 8.151941806575000E9     1.535697792714252E-1    5.180895020314674E-1   -2.637849095477482E-3    1.233176333824053E-3   -2.625389785330103E-3    1.281120982962891E-3    2.831969238009375E-1    4.265130744605047E-1
 8.151945087100000E9     1.537621670751510E-1    5.180367425383620E-1   -2.632420058340892E-3    1.241416338765787E-3   -2.619845056781272E-3    1.261092404033025E-3    2.834625561878455E-1    4.264650977240600E-1
 8.151948367625000E9     1.540944946502543E-1    5.179032558397821E-1   -2.618245302310467E-3    1.240387946056804E-3   -2.653912836619706E-3    1.276813718912295E-3    2.836909156016774E-1    4.263842263312994E-1
 8.151951648150000E9     1.542084213990340E-1    5.178732494698551E-1   -2.669911491361662E-3    1.253018529908765E-3   -2.631311959443882E-3    1.265611005305836E-3    2.837532682368825E-1    4.263552288851089E-1
 8.151954928675000E9     1.544861845840617E-1    5.179183635667910E-1   -2.652900184299878E-3    1.244625554905319E-3   -2.626634765729065E-3    1.291019044524059E-3    2.839291938801994E-1    4.261202929076170E-1
 8.151958209200000E9     1.546489979422358E-1    5.179127219090330E-1   -2.660342109095845E-3    1.244388205734786E-3   -2.630503891544214E-3    1.281025300129177E-3    2.841188463776928E-1    4.259567002144596E-1
 8.151961489725000E9     1.548906787433240E-1    5.175948051822608E-1   -2.643823637299613E-3    1.236756917200779E-3   -2.676735262466163E-3    1.282103795936042E-3    2.843823703814742E-1    4.259261353287307E-1
 8.151964770250000E9     1.551277110364862E-1    5.176709607997173E-1   -2.643058883004919E-3    1.258360195447550E-3   -2.651559604789191E-3    1.294485269467123E-3    2.843642772976267E-1    4.257633344089694E-1
 8.151968050775000E9     1.553774707437226E-1    5.177253491620214E-1   -2.649554623852253E-3    1.258779260827679E-3   -2.671910825380471E-3    1.282617491973799E-3    2.847659657167788E-1    4.255631386401942E-1
 8.151971331300000E9     1.557140633595783E-1    5.175195670225311E-1   -2.655169932068567E-3    1.270986665757331E-3   -2.642900717302997E-3    1.297554026853664E-3    2.848328687294278E-1    4.255270898033395E-1
 8.151974611825000E9     1.559180257355989E-1    5.173878931736383E-1   -2.636517406686538E-3    1.252512733865227E-3   -2.659058551356550E-3    1.317057535941063E-3    2.849948648987239E-1    4.254973995824876E-1
 8.151977892350000E9     1.561045473827058E-1    5.173584759701439E-1   -2.642012034925314E-3    1.258996155026715E-3   -2.665913902219653E-3    1.305432687480130E-3    2.851500179483923E-1    4.252713569063069E-1
 8.151981172875000E9     1.562390184523478E-1    5.173058347624004E-1   -2.649109346162666E-3    1.245039330297099E-3   -2.667727498430102E-3    1.311840531392988E-3    2.852619281372460E-1    4.252110476362466E-1
 8.151984453400000E9     1.565163197487564E-1    5.171905792738560E-1   -2.672082962277850E-3    1.261235170784278E-3   -2.653531584018840E-3    1.302822756860495E-3    2.855498473959177E-1    4.250276931437733E-1
 8.151987733925000E9     1.568128096231678E-1    5.170913576227009E-1   -2.649895516394014E-3    1.282500159369961E-3   -2.643577418733374E-3    1.335852769335771E-3    2.856863395834628E-1    4.250519631285394E-1
 8.151991014450000E9     1.570550113106551E-1    5.171337585185155E-1   -2.648463649878300E-3    1.290385218694947E-3   -2.625947138413725E-3    1.315329636439217E-3    2.857609583284205E-1    4.248396650831562E-1
 8.151994294975000E9     1.571455691571983E-1    5.170331411889182E-1   -2.649314403872483E-3    1.261882757426497E-3   -2.659226853494530E-3    1.296611266651099E-3    2.861527175990999E-1    4.248102059440225E-1
 8.151997575500000E9     1.576628823656255E-1    5.169142359815010E-1   -2.664477457258323E-3    1.245132652972583E-3   -2.674122743646221E-3    1.322234541153704E-3    2.861893116248571E-1    4.245598819598677E-1
 8.152000856025000E9     1.577382751865782E-1    5.167550696923953E-1   -2.681350009521111E-3    1.283595364904111E-3   -2.656370693690167E-3    1.338873064564518E-3    2.864570937118001E-1    4.244761284107609E-1
 8.152004136550000E9     1.580208744516525E-1    5.167336753102956E-1   -2.686609392837970E-3    1.295743470263396E-3   -2.676862907119316E-3    1.320427830586241E-3    2.864260464338658E-1    4.242261285190798E-1
 8.152007417075000E9     1.581055327361477E-1    5.167055600749028E-1   -2.671046387147389E-3    1.300335319313327E-3   -2.668504943911601E-3    1.312812180979308E-3    2.866198609301048E-1    4.242177644649788E-1
 8.152010697600000E9     1.583762284564394E-1    5.166819395480525E-1   -2.670872159831269E-3    1.242937504724539E-3   -2.655245994952472E-3    1.334911720907440E-3    2.868940582849181E-1    4.241145701754442E-1
 8.152013978125000E9     1.587282362167721E-1    5.165595348659859E-1   -2.706219344865140E-3    1.300616321988659E-3   -2.668673011678635E-3    1.335506478714942E-3    2.870270822817619E-1    4.238317718283732E-1
 8.152017258650000E9     1.588327692273891E-1    5.164895740706559E-1   -2.666118065433200E-3    1.277696695043609E-3   -2.652078112074741E-3    1.345897480785105E-3    2.872765614561146E-1    4.238010197555412E-1
 8.152020539175000E9     1.591354205264312E-1    5.164232748235013E-1   -2.669969612204378E-3    1.282104785001230E-3   -2.677123432988468E-3    1.349366933652565E-3    2.872965764938961E-1    4.236889770239132E-1
 8.152023819700000E9     1.593936830020438E-1    5.164684931114504E-1   -2.675888536439846E-3    1.288286733250453E-3   -2.683676362374626E-3    1.333642823147976E-3    2.874876201212381E-1    4.236137204153803E-1
 8.152027100225000E9     1.595673716866997E-1    5.163691178042961E-1   -2.681340808390064E-3    1.286831684791412E-3   -2.681307578866742E-3    1.320013453053421E-3    2.877331089134022E-1    4.233806845439337E-1
 8.152030380750000E9     1.597605505792947E-1    5.161398174136959E-1   -2.698465562956638E-3    1.314650489116178E-3   -2.679455874342474E-3    1.369106746729968E-3    2.879975825051529E-1    4.233542946361503E-1
 8.152033661275000E9     1.600426130518312E-1    5.162111726682846E-1   -2.693506525066991E-3    1.300244147828767E-3   -2.668183973859013E-3    1.350394665638645E-3    2.881408023092760E-1    4.231885150100977E-1
 8.152036941800000E9     1.602236529207115E-1    5.161701883317796E-1   -2.689999701609691E-3    1.304205260216487E-3   -2.697094530158268E-3    1.357233573210548E-3    2.882396419611475E-1    4.231023870970277E-1
 8.152040222325000E9     1.604602412054306E-1    5.160836376777448E-1   -2.683961917977854E-3    1.304825910365774E-3   -2.653337682652330E-3    1.371559274481623E-3    2.884420730475947E-1    4.228962070545413E-1
 8.152043502850000E9     1.606144342047408E-1    5.158960019760542E-1   -2.685651622411220E-3    1.323418980336575E-3   -2.677259420813276E-3    1.372436312889407E-3    2.885524917455295E-1    4.230802100915339E-1
 8.152046783375000E9     1.609977191860650E-1    5.159617843711582E-1   -2.697024373021123E-3    1.329878844127847E-3   -2.702276066031377E-3    1.358151937902885E-3    2.888414325782919E-1    4.227755606605654E-1
 8.152050063900000E9     1.611824386431303E-1    5.159261671566165E-1   -2.679986786571470E-3    1.329363622586019E-3   -2.715353761881431E-3    1.367052626120166E-3    2.889324920217965E-1    4.226557935289460E-1
 8.152053344425000E9     1.614242632169899E-1    5.157504150492346E-1   -2.698099268155916E-3    1.317551419596978E-3   -2.702722978238149E-3    1.353313473552159E-3    2.891982619788979E-1    4.226446995846417E-1
 8.152056624950000E9     1.617205535153303E-1    5.157114601205772E-1   -2.674080723359444E-3    1.329636094383327E-3   -2.723719849290745E-3    1.382900690165871E-3    2.892864423079108E-1    4.222814310288012E-1
 8.152059905475000E9     1.619626052301088E-1    5.157163854668444E-1   -2.690479416982027E-3    1.348203061510780E-3   -2.691387972995844E-3    1.360550317397200E-3    2.894622238862808E-1    4.224272797118517E-1
 8.152063186000000E9     1.620924793704233E-1    5.155186084246721E-1   -2.664705650164701E-3    1.303745638199143E-3   -2.690415785293216E-3    1.389024387125827E-3    2.895775566679191E-1    4.220060679638140E-1
 8.152066466525000E9     1.624070961741050E-1    5.155256664477239E-1   -2.700750996311718E-3    1.336826348680215E-3   -2.698295746227874E-3    1.383734347039293E-3    2.898426804413067E-1    4.219788313534428E-1
 8.152069747050000E9     1.627260270758826E-1    5.154818269124168E-1   -2.702410163925374E-3    1.360204430955471E-3   -2.701530393583586E-3    1.403108925158551E-3    2.899015837488946E-1    4.218316702347848E-1
 8.152073027575000E9     1.628598014710240E-1    5.153175412080754E-1   -2.707266545043224E-3    1.342088976998983E-3   -2.699041812520214E-3    1.411122099733187E-3    2.901244258208278E-1    4.218290785148798E-1
 8.152076308100000E9     1.630087346865606E-1    5.153465287475869E-1   -2.702788788104050E-3    1.341491631887050E-3   -2.734019757761908E-3    1.396968112648244E-3    2.902432448099520E-1    4.216595055228353E-1
 8.152079588625000E9     1.632620454425139E-1    5.152354612934297E-1   -2.696412526847416E-3    1.350643699648141E-3   -2.728255260144237E-3    1.402026177369776E-3    2.905235244003926E-1    4.214197335326751E-1
 8.152082869150000E9     1.635646056283575E-1    5.151599614990043E-1   -2.719095214719492E-3    1.352050791343749E-3   -2.708135729963881E-3    1.406147895303354E-3    2.906407451873540E-1    4.214197102844477E-1
 8.152086149675000E9     1.637839136837433E-1    5.151302965871762E-1   -2.711549285958327E-3    1.334395740351772E-3   -2.724639422672669E-3    1.418530720793476E-3    2.908500454408652E-1    4.212066861429566E-1
 8.152089430200000E9     1.639573953159049E-1    5.151044562526720E-1   -2.705967989095801E-3    1.350604201150836E-3   -2.749413179289958E-3    1.386424134558684E-3    2.909567668016577E-1    4.210726822051900E-1
 8.152092710725000E9     1.641781126040325E-1    5.149048616128619E-1   -2.714143216823005E-3    1.363356772325113E-3   -2.714353207155173E-3    1.441798567285276E-3    2.910963404178858E-1    4.210202071292525E-1
 8.152095991250000E9     1.644089600934037E-1    5.148703028708788E-1   -2.727706764243497E-3    1.352832498018115E-3   -2.745656657556999E-3    1.422091995690399E-3    2.913308130573338E-1    4.209561841623298E-1
 8.152099271775000E9     1.647138335732601E-1    5.147458472171637E-1   -2.705909242406260E-3    1.369995792182971E-3   -2.741581465444324E-3    1.404577451219482E-3    2.916523279829363E-1    4.207284422386166E-1
 8.152102552300000E9     1.650773890469773E-1    5.147238831548404E-1   -2.722364438454215E-3    1.342205229627423E-3   -2.708397736135514E-3    1.415831030127908E-3    2.915891313903970E-1    4.207315960008853E-1
 8.152105832825000E9     1.651259825641868E-1    5.145379101791860E-1   -2.725698861954050E-3    1.370762117161447E-3   -2.734709407071312E-3    1.438686001330684E-3    2.917360039973285E-1    4.204487767113260E-1
 8.152109113350000E9     1.654557949743884E-1    5.146578061073550E-1   -2.730352002719120E-3    1.375765368223013E-3   -2.728033758480054E-3    1.404867364982435E-3    2.921484132155819E-1    4.204103460642307E-1
 8.152112393875000E9     1.655536948468362E-1    5.145585708879794E-1   -2.712770958116812E-3    1.380975758873831E-3   -2.708105858043187E-3    1.408609285234025E-3    2.921768327930435E-1    4.202692207461443E-1
 8.152115674400000E9     1.658352206566738E-1    5.144255049477081E-1   -2.736875110716689E-3    1.368536597921907E-3   -2.726838842026715E-3    1.429758843095142E-3    2.923307520659750E-1    4.202534681324242E-1
 8.152118954925000E9     1.660935388554802E-1    5.142996541570531E-1   -2.729940729304748E-3    1.364748679169057E-3   -2.743793620058831E-3    1.483092662251158E-3    2.924941710449039E-1    4.200093345939767E-1
 8.152122235450000E9     1.664220753306597E-1    5.142758171866878E-1   -2.763532673037530E-3    1.411123633357898E-3   -2.753700177988843E-3    1.434237828504815E-3    2.926841460397198E-1    4.199225441482838E-1
 8.152125515975000E9     1.665818355920906E-1    5.141609314696933E-1   -2.742303328050364E-3    1.414326865337268E-3   -2.732434132249338E-3    1.418927053828118E-3    2.928303332359403E-1    4.198442392220126E-1
 8.152128796500000E9     1.667720610045265E-1    5.141726859968887E-1   -2.743061360009489E-3    1.382504949663547E-3   -2.739717041619952E-3    1.436134809113741E-3    2.929982048779764E-1    4.196931014754372E-1
 8.152132077025000E9     1.670438536274816E-1    5.140304703262842E-1   -2.745116507789577E-3    1.390059128182088E-3   -2.728381819443518E-3    1.458152856222308E-3    2.932600183601023E-1    4.195131771165672E-1
 8.152135357550000E9     1.672038408875190E-1    5.139364128638274E-1   -2.754730466626570E-3    1.410044833085271E-3   -2.763883284305303E-3    1.472859007484018E-3    2.932695452280801E-1    4.194249858322313E-1
 8.152138638075000E9     1.675738668283924E-1    5.140016840973203E-1   -2.769517481082827E-3    1.383526976422713E-3   -2.755655574730504E-3    1.499154019617530E-3    2.935369855103156E-1    4.193810851219388E-1
 8.152141918600000E9     1.678252875089845E-1    5.137757040607629E-1   -2.738551174489600E-3    1.403283753672615E-3   -2.759391268123228E-3    1.478716016209549E-3    2.938123565350411E-1    4.191320688537333E-1
 8.152145199125000E9     1.679688763494724E-1    5.137030230809388E-1   -2.760254193063135E-3    1.407956548113525E-3   -2.742721308520050E-3    1.478782815230474E-3    2.940170367253972E-1    4.190200448744594E-1
 8.152148479650000E9     1.682423812858760E-1    5.136738518154066E-1   -2.758608283772567E-3    1.389066127969273E-3   -2.784403226313348E-3    1.486339052156829E-3    2.942014113569679E-1    4.189068429371078E-1
 8.152151760175000E9     1.686069776099202E-1    5.134788785204969E-1   -2.760967364835365E-3    1.454960802451768E-3   -2.777537245092104E-3    1.457023065093633E-3    2.941972101321380E-1    4.188011442483570E-1
 8.152155040700000E9     1.686936633359289E-1    5.135554001774587E-1   -2.752525515536565E-3    1.423256469638291E-3   -2.765525826983928E-3    1.486035450785359E-3    2.943728587302432E-1    4.186737508378690E-1
 8.152158321225000E9     1.689077837742723E-1    5.133207998775832E-1   -2.743595326716117E-3    1.407721645574010E-3   -2.776319521068599E-3    1.487953539140044E-3    2.946414518320170E-1    4.184789647164630E-1
 8.152161601750000E9     1.692655753816337E-1    5.133953836610944E-1   -2.762447567157188E-3    1.422522766762781E-3   -2.766836008929268E-3    1.507824822025964E-3    2.945720527384864E-1    4.184153867325123E-1
 8.152164882275000E9     1.692974798890499E-1    5.134067777498277E-1   -2.763426159546971E-3    1.467948109336219E-3   -2.747581794771686E-3    1.513469835690212E-3    2.948564203335399E-1    4.183735380741418E-1
 8.152168162800000E9     1.696445062582716E-1    5.131450867089502E-1   -2.776330928701570E-3    1.432164233213710E-3   -2.754099271007262E-3    1.500960714020402E-3    2.950864893953064E-1    4.181668585359588E-1
 8.152171443325000E9     1.699234874516072E-1    5.130897795003603E-1   -2.758647638575522E-3    1.446430610395056E-3   -2.795601402869445E-3    1.521148889980774E-3    2.952332251303184E-1    4.180431556636582E-1
 8.152174723850000E9     1.701811736003503E-1    5.130333891026989E-1   -2.770206981201864E-3    1.441596261322711E-3   -2.794468445476018E-3    1.508865461464737E-3    2.953902526402460E-1    4.179047639764609E-1
 8.152178004375000E9     1.702713156469165E-1    5.129945259312232E-1   -2.775494452587923E-3    1.455059446736687E-3   -2.765648229789742E-3    1.495950254776342E-3    2.955460245807070E-1    4.178106721291278E-1
 8.152181284900000E9     1.706856789022173E-1    5.128713918678843E-1   -2.774611100706229E-3    1.462220615063475E-3   -2.798874705042516E-3    1.507811134158014E-3    2.957038800442772E-1    4.176524228590979E-1
 8.152184565425000E9     1.710262258241439E-1    5.127704872337066E-1   -2.809720867044159E-3    1.491141038679785E-3   -2.780324331034812E-3    1.525583881212749E-3    2.958391348676754E-1    4.176685577487940E-1
 8.152187845950000E9     1.711545781000318E-1    5.126378543709069E-1   -2.787508462290417E-3    1.465604280796084E-3   -2.805616130268973E-3    1.506926260686407E-3    2.960816399629566E-1    4.174222044951295E-1
 8.152191126475000E9     1.713551793326830E-1    5.127099693231837E-1   -2.802378659758419E-3    1.470969732906493E-3   -2.797762368950588E-3    1.509336132150447E-3    2.962877494902343E-1    4.173257881283579E-1
 8.152194407000000E9     1.715302599018254E-1    5.125917951184275E-1   -2.813070226353125E-3    1.470050224183516E-3   -2.821382491487354E-3    1.520241890078835E-3    2.964806985313379E-1    4.172583777626935E-1
 8.152197687525000E9     1.718029938939757E-1    5.124651261578365E-1   -2.800443846988909E-3    1.494642717147186E-3   -2.839984189033785E-3    1.522297540386984E-3    2.965822681419646E-1    4.171082397663578E-1
 8.152200968050000E9     1.721247687133764E-1    5.124749562348777E-1   -2.801408236514155E-3    1.486808890381925E-3   -2.804921922234037E-3    1.501303151305212E-3    2.967151485548420E-1    4.169514428984067E-1
 8.152204248575000E9     1.723688118853015E-1    5.123173265224094E-1   -2.817973413502033E-3    1.490835270657868E-3   -2.812065288280857E-3    1.533935645722695E-3    2.969293467097328E-1    4.167944245700310E-1
 8.152207529100000E9     1.725654848622439E-1    5.122942363824203E-1   -2.800721939892930E-3    1.498230663790444E-3   -2.791372363949823E-3    1.559813096739906E-3    2.970573292660442E-1    4.166159015997147E-1
 8.152210809625000E9     1.728337255764441E-1    5.121398396294458E-1   -2.826795762809125E-3    1.512266350732409E-3   -2.828195300875453E-3    1.542322348516552E-3    2.973107991493859E-1    4.165888471347890E-1
 8.152214090150000E9     1.731083798613111E-1    5.120870784554239E-1   -2.835374317066725E-3    1.506182806189232E-3   -2.804149821527716E-3    1.568853303010487E-3    2.974429730186273E-1    4.164440514753904E-1
 8.152217370675000E9     1.733479459151629E-1    5.119218882795835E-1   -2.822439444864239E-3    1.512439533327878E-3   -2.835196855367025E-3    1.535690102226085E-3    2.977571885900365E-1    4.163019218160927E-1
 8.152220651200000E9     1.734640693065383E-1    5.119384649619471E-1   -2.822269778055810E-3    1.505115174137309E-3   -2.846448529848515E-3    1.599746637215698E-3    2.976908788084501E-1    4.160671510158798E-1
 8.152223931725000E9     1.737598667790641E-1    5.117597155107850E-1   -2.841594763908401E-3    1.533866478202113E-3   -2.860317764062847E-3    1.564200490616511E-3    2.979902419897089E-1    4.160619817576442E-1
 8.152227212250000E9     1.740716492021469E-1    5.117310770309449E-1   -2.824256198286586E-3    1.519303356090803E-3   -2.849907871615739E-3    1.570014734523469E-3    2.980763994951643E-1    4.158965912071163E-1
