#  HZ   S   RI   R     50.00 
! Rohde & Schwarz Vector Network Analyzer 
! Rohde-Schwarz,ZNB20-2Port,1311601062101988,3.16
! Created: UTC 3/21/2024, 1:18:11 AM
! freq[Hz]                re:S11                  im:S11                  re:S21                  im:S21                  re:S12                  im:S12                  re:S22                  im:S22
 8.151937224000000E9     1.531238973904178E-1    5.182132137846953E-1   -2.631687717494610E-3    1.243359585775787E-3   -2.637378520524587E-3    1.270922357524686E-3    2.830963863715127E-1    4.267202258985247E-1
 8.151940490475000E9     1.532540478663557E-1    5.180949262910769E-1   -2.612066351540125E-3    1.250403570912231E-3   -2.665616778771465E-3    1.290137191125269E-3    2.831730800221788E-1    4.265763402476840E-1
 8.151943756950000E9     1.537048811183509E-1    5.180106466608925E-1   -2.621626178998827E-3    1.237487540451331E-3   -2.629505947381127E-3    1.283170115226158E-3    2.834044548307167E-1    4.265290066929674E-1
 8.151947023425000E9     1.537641487596700E-1    5.179437838239048E-1   -2.678298537181486E-3    1.225678377532647E-3   -2.635961889806144E-3    1.269223928892653E-3    2.835715896600209E-1    4.263657709394041E-1
 8.151950289900000E9     1.542593216559754E-1    5.178737538693519E-1   -2.627361096232429E-3    1.219276701358690E-3   -2.653588797623794E-3    1.254323404073926E-3    2.837412901933178E-1    4.263730656721261E-1
 8.151953556375000E9     1.543615622381518E-1    5.177929741410405E-1   -2.635582129781383E-3    1.243292974458812E-3   -2.627471660236757E-3    1.294178077396126E-3    2.838452379501094E-1    4.262189804218786E-1
 8.151956822850000E9     1.545682177566983E-1    5.177510395532653E-1   -2.630150022205988E-3    1.230943410618757E-3   -2.622433277567193E-3    1.258318040192253E-3    2.840542730943365E-1    4.259935146625308E-1
 8.151960089325000E9     1.547815795026297E-1    5.176775040288043E-1   -2.657164275599724E-3    1.236444202700236E-3   -2.678226361146484E-3    1.304716451097878E-3    2.842723814062513E-1    4.259377907646604E-1
 8.151963355800000E9     1.550633946334541E-1    5.176564206840339E-1   -2.660336578800986E-3    1.248236272309363E-3   -2.655571370310356E-3    1.286575467016838E-3    2.843335473153818E-1    4.258641623649088E-1
 8.151966622275000E9     1.552376384202017E-1    5.175039690211951E-1   -2.666748224265032E-3    1.245643684565003E-3   -2.625907398047041E-3    1.273428132134239E-3    2.846351583764792E-1    4.257831455432783E-1
 8.151969888750000E9     1.554783803386832E-1    5.175296055490298E-1   -2.633514010425730E-3    1.248117676408135E-3   -2.659051972514291E-3    1.286650934733646E-3    2.848941207405054E-1    4.256936506335803E-1
 8.151973155225000E9     1.557195597106535E-1    5.174514656904250E-1   -2.658001869301181E-3    1.249719626194368E-3   -2.641921723496096E-3    1.308689465168501E-3    2.848508184785168E-1    4.254678679598419E-1
 8.151976421700000E9     1.559177190631530E-1    5.174201912281180E-1   -2.651647301211342E-3    1.254977558004137E-3   -2.654061632752058E-3    1.303893031551443E-3    2.851264124416106E-1    4.252952134043367E-1
 8.151979688175000E9     1.561139929803533E-1    5.173016910063815E-1   -2.637928927893714E-3    1.265025520304223E-3   -2.607896630487812E-3    1.318820618464714E-3    2.853579195732102E-1    4.253673676198422E-1
 8.151982954650000E9     1.564810072484361E-1    5.171974840023301E-1   -2.652097502383908E-3    1.255383727306022E-3   -2.677134154099341E-3    1.332099752879013E-3    2.852884551138479E-1    4.251717925158945E-1
 8.151986221125000E9     1.565664670008022E-1    5.171711424935403E-1   -2.646161997243606E-3    1.261084682359426E-3   -2.625546157095922E-3    1.309079006473436E-3    2.856712081373738E-1    4.250842306975811E-1
 8.151989487600000E9     1.567861382633746E-1    5.171720136748453E-1   -2.669663343945674E-3    1.262783912939006E-3   -2.691171663599000E-3    1.336306891954541E-3    2.858519770652711E-1    4.249533575735396E-1
 8.151992754075000E9     1.570923808424130E-1    5.171141336724591E-1   -2.643705335612214E-3    1.269874648976032E-3   -2.666954656356233E-3    1.348844048760973E-3    2.859522306096294E-1    4.248433054477976E-1
 8.151996020550000E9     1.572856601026864E-1    5.170134675496290E-1   -2.666611459276903E-3    1.269380430022146E-3   -2.663688715940001E-3    1.308747234394027E-3    2.861154861099833E-1    4.245523584093958E-1
 8.151999287025000E9     1.575528495702090E-1    5.168587934754894E-1   -2.677441825629576E-3    1.271218637700070E-3   -2.692563114219773E-3    1.319771157959605E-3    2.864056807058450E-1    4.245453701413327E-1
 8.152002553500000E9     1.579100468362381E-1    5.168564929508539E-1   -2.686726084854673E-3    1.247798645384156E-3   -2.676607405185973E-3    1.356212837527898E-3    2.864043556156982E-1    4.243786774088745E-1
 8.152005819975000E9     1.580768144437219E-1    5.168022917324105E-1   -2.672635409910028E-3    1.275945955227305E-3   -2.638365627430741E-3    1.337789820591811E-3    2.867134474845035E-1    4.244380481756934E-1
 8.152009086450000E9     1.582624004477290E-1    5.167526199493736E-1   -2.674058480551077E-3    1.275053376276333E-3   -2.667487123077301E-3    1.325687248577700E-3    2.867326592060843E-1    4.241837290418877E-1
 8.152012352925000E9     1.584547090281671E-1    5.166968790538605E-1   -2.638937122626337E-3    1.281153320608265E-3   -2.683279530583455E-3    1.355306249103307E-3    2.868805384282824E-1    4.240955534247976E-1
 8.152015619400000E9     1.586980358647722E-1    5.166669314183343E-1   -2.669340490996386E-3    1.284397680145967E-3   -2.669756751701296E-3    1.323193694150754E-3    2.870949223717531E-1    4.240253564982092E-1
 8.152018885875000E9     1.590436444867460E-1    5.165407485051023E-1   -2.672038685136296E-3    1.283854509094912E-3   -2.662849612018142E-3    1.331449216385357E-3    2.874147521782762E-1    4.238865403627546E-1
 8.152022152350000E9     1.592283994726147E-1    5.163949089449807E-1   -2.666154691230719E-3    1.282054686381088E-3   -2.719857975370615E-3    1.354375049205748E-3    2.874500963514281E-1    4.236325309726180E-1
 8.152025418825000E9     1.594367106791981E-1    5.164061487981606E-1   -2.684948627929729E-3    1.286881923406509E-3   -2.699139631704939E-3    1.312460902355107E-3    2.876793573705447E-1    4.234832041270541E-1
 8.152028685300000E9     1.597242238370685E-1    5.162588885952775E-1   -2.690470051750237E-3    1.280832908294432E-3   -2.658860235598452E-3    1.317719300674024E-3    2.879384625154250E-1    4.234149434052014E-1
 8.152031951775000E9     1.598152693814775E-1    5.162865869061261E-1   -2.684185227332790E-3    1.313408606677957E-3   -2.689198356088293E-3    1.333467569579114E-3    2.881413914536681E-1    4.233323831011688E-1
 8.152035218250000E9     1.602404882004313E-1    5.161559589483888E-1   -2.684449944780808E-3    1.309743318738436E-3   -2.684320340376833E-3    1.349559420496183E-3    2.883403433521304E-1    4.231033316221825E-1
 8.152038484725000E9     1.603066912659675E-1    5.161555041649795E-1   -2.679140121562202E-3    1.311321681261743E-3   -2.690295527429908E-3    1.329849353676898E-3    2.883140167911499E-1    4.231068363264326E-1
 8.152041751200000E9     1.605071259503131E-1    5.161623710676646E-1   -2.695989898293878E-3    1.316086257278594E-3   -2.669819908200196E-3    1.345573749111235E-3    2.885259068535148E-1    4.228494850901885E-1
 8.152045017675000E9     1.608991298985294E-1    5.160238757169917E-1   -2.684662484239773E-3    1.311930522164624E-3   -2.691047224825783E-3    1.366387177951466E-3    2.884988917004928E-1    4.228767896860210E-1
 8.152048284150000E9     1.609745806803360E-1    5.158949037424283E-1   -2.680059900397907E-3    1.292128995980007E-3   -2.699326550119050E-3    1.360859602886421E-3    2.887315391612041E-1    4.225902954356106E-1
 8.152051550625000E9     1.612619638179297E-1    5.158318655370743E-1   -2.701994808627102E-3    1.286864206912700E-3   -2.713194214387029E-3    1.368436722862068E-3    2.889821907353894E-1    4.224207910561628E-1
 8.152054817100000E9     1.614420145567209E-1    5.156521064340811E-1   -2.676106397137295E-3    1.351747335594913E-3   -2.705586554557181E-3    1.401000536295802E-3    2.891615940692003E-1    4.223527948191904E-1
 8.152058083575000E9     1.617604488704596E-1    5.156825197960251E-1   -2.707828641441862E-3    1.308727697388233E-3   -2.698934767956474E-3    1.369335092281293E-3    2.894839318703463E-1    4.224513222400337E-1
 8.152061350050000E9     1.619270766737139E-1    5.156930761614369E-1   -2.716880766880249E-3    1.323051497698427E-3   -2.689238102366708E-3    1.400352673264500E-3    2.895490002172816E-1    4.221995487563303E-1
 8.152064616525000E9     1.622792608973938E-1    5.155718148205861E-1   -2.704124728305414E-3    1.335225739428851E-3   -2.714439941355167E-3    1.366980430655072E-3    2.896997899811124E-1    4.220010541228512E-1
 8.152067883000000E9     1.623894525201691E-1    5.155139916108540E-1   -2.696292131227586E-3    1.311543564463621E-3   -2.704730911115332E-3    1.416234247035399E-3    2.898809595911871E-1    4.219886519212150E-1
 8.152071149475000E9     1.625367340679686E-1    5.154237190573955E-1   -2.726166214578708E-3    1.319994171232120E-3   -2.694315610149738E-3    1.377214837119216E-3    2.900613853944228E-1    4.217620012475057E-1
 8.152074415950000E9     1.629668666735873E-1    5.153467007267096E-1   -2.696820359452218E-3    1.338819508569707E-3   -2.699675176626968E-3    1.408514472407852E-3    2.902105202086887E-1    4.216391538138832E-1
 8.152077682425000E9     1.632284291047156E-1    5.152579510962675E-1   -2.698568644597132E-3    1.345494960148364E-3   -2.714686585137436E-3    1.382976762901854E-3    2.904866310681367E-1    4.214774439117517E-1
 8.152080948900000E9     1.633567472032313E-1    5.151614860885354E-1   -2.702120132300939E-3    1.326620885178043E-3   -2.704754264258374E-3    1.395948006784107E-3    2.906541513823402E-1    4.214543079570195E-1
 8.152084215375000E9     1.636566446709690E-1    5.151758788477244E-1   -2.732392248667742E-3    1.336899345916597E-3   -2.742036796319625E-3    1.377991737306999E-3    2.906770034247622E-1    4.213405461849501E-1
 8.152087481850000E9     1.637356995694471E-1    5.150875517601284E-1   -2.702225971273130E-3    1.347895638543395E-3   -2.713336466227865E-3    1.420669803607141E-3    2.908849113862336E-1    4.212231119363251E-1
 8.152090748325000E9     1.640697918188508E-1    5.149312517036335E-1   -2.719595818003907E-3    1.339872693256762E-3   -2.715621844456194E-3    1.393332840407545E-3    2.909550853771719E-1    4.210990718814271E-1
 8.152094014800000E9     1.643847122203817E-1    5.148605763902456E-1   -2.717277925086939E-3    1.389193786891168E-3   -2.709183668015313E-3    1.439498606854897E-3    2.910861623529107E-1    4.210625415158604E-1
 8.152097281275000E9     1.645164177920058E-1    5.148406747114923E-1   -2.693454329692088E-3    1.334291661896081E-3   -2.724757591042360E-3    1.407979072015319E-3    2.914327267183771E-1    4.209552780547678E-1
 8.152100547750000E9     1.647732917444137E-1    5.148563645512789E-1   -2.723624591568284E-3    1.350684627921908E-3   -2.727002481642219E-3    1.408100441335515E-3    2.915779397985318E-1    4.207402372272601E-1
 8.152103814225000E9     1.649762855761130E-1    5.147692968659268E-1   -2.701976211106783E-3    1.370910660750155E-3   -2.721105250504756E-3    1.381848619132670E-3    2.917141409862189E-1    4.207630604367040E-1
 8.152107080700000E9     1.652676924634096E-1    5.146833462658401E-1   -2.719740227625208E-3    1.338383092073594E-3   -2.760578659904651E-3    1.422090241420625E-3    2.919737465824057E-1    4.205418005420704E-1
 8.152110347175000E9     1.655846176398125E-1    5.145393157211641E-1   -2.740675268984985E-3    1.378031397495348E-3   -2.736488160890049E-3    1.435219389433014E-3    2.920708034440925E-1    4.204749927651847E-1
 8.152113613650000E9     1.656898816589264E-1    5.144718295013555E-1   -2.734803371919412E-3    1.386906432374667E-3   -2.729084735112795E-3    1.458393084975325E-3    2.922380878072919E-1    4.203923134549337E-1
 8.152116880125000E9     1.659518036041205E-1    5.144088659160780E-1   -2.714343053019615E-3    1.400382209484990E-3   -2.713267863554585E-3    1.441978612191720E-3    2.924224249657689E-1    4.201641244188085E-1
 8.152120146600000E9     1.662103690581869E-1    5.142727076414796E-1   -2.726935394122684E-3    1.383728003480012E-3   -2.732828599289268E-3    1.449342351464369E-3    2.925460045930371E-1    4.200245611962709E-1
 8.152123413075000E9     1.663309032860106E-1    5.142952718108935E-1   -2.734280766263615E-3    1.374217315774295E-3   -2.766169993133249E-3    1.434202961937298E-3    2.927303282114959E-1    4.197926365947459E-1
 8.152126679550000E9     1.666676658232479E-1    5.141522403956594E-1   -2.724051956504663E-3    1.396689152537725E-3   -2.724824404684721E-3    1.433473847528472E-3    2.928530817692094E-1    4.197966362222542E-1
 8.152129946025000E9     1.669408331569290E-1    5.140270822488311E-1   -2.736164546377335E-3    1.374216083142184E-3   -2.759576285410657E-3    1.437570523253110E-3    2.932056234192212E-1    4.196812021032522E-1
 8.152133212500000E9     1.671197167738257E-1    5.139829186548863E-1   -2.747641742471812E-3    1.410567577509245E-3   -2.765707715357733E-3    1.445779836518702E-3    2.933090714447404E-1    4.195980095751423E-1
 8.152136478975000E9     1.674411371310916E-1    5.139295771631760E-1   -2.749047368824903E-3    1.413500406942585E-3   -2.760651241656432E-3    1.460115743091916E-3    2.933957308016931E-1    4.194184471272250E-1
 8.152139745450000E9     1.675321166452114E-1    5.139745849561762E-1   -2.739018741451143E-3    1.404636351991482E-3   -2.729412689087819E-3    1.458227741802700E-3    2.935385171661750E-1    4.192620795988805E-1
 8.152143011925000E9     1.678290416512941E-1    5.137572691429012E-1   -2.761445973689364E-3    1.422114122145993E-3   -2.757957694048544E-3    1.471391419017465E-3    2.937187321072588E-1    4.190723040328301E-1
 8.152146278400000E9     1.680649093926302E-1    5.137358018522280E-1   -2.737673830305794E-3    1.425437729477009E-3   -2.771786920274790E-3    1.451693090584550E-3    2.939726384261240E-1    4.190433289182732E-1
 8.152149544875000E9     1.682836663291959E-1    5.137158182577833E-1   -2.747980065496041E-3    1.414071238278445E-3   -2.735189159394169E-3    1.462483749413263E-3    2.940509340940851E-1    4.189337648341977E-1
 8.152152811350000E9     1.684794053039355E-1    5.135643948265547E-1   -2.746913529167713E-3    1.417145825990781E-3   -2.760330244507468E-3    1.459083341922136E-3    2.942433650093687E-1    4.188891858912980E-1
 8.152156077825000E9     1.687901856435546E-1    5.135489421438042E-1   -2.736984854043899E-3    1.423314246619982E-3   -2.776745097532863E-3    1.480622776616780E-3    2.943883192722414E-1    4.187120770602025E-1
 8.152159344300000E9     1.689854785323230E-1    5.134970372111556E-1   -2.769870432962481E-3    1.457022711046564E-3   -2.763968379789507E-3    1.469253758282523E-3    2.945980667103476E-1    4.185326253147033E-1
 8.152162610775000E9     1.691861957906074E-1    5.133690565772940E-1   -2.775141934941566E-3    1.437555287074003E-3   -2.810762401281285E-3    1.470459028442512E-3    2.948541530732150E-1    4.184807591638748E-1
 8.152165877250000E9     1.694946072451955E-1    5.132491587805617E-1   -2.797618544877454E-3    1.425530188954789E-3   -2.788031513484209E-3    1.473396877361468E-3    2.950420838078637E-1    4.182909426508640E-1
 8.152169143725000E9     1.696598737184924E-1    5.132456267733889E-1   -2.793685982501239E-3    1.452339839375362E-3   -2.800814804140959E-3    1.503955237413918E-3    2.951031582103534E-1    4.183353796772772E-1
 8.152172410200000E9     1.699646215507471E-1    5.130483043069577E-1   -2.781277576673347E-3    1.451032502007802E-3   -2.794752702739029E-3    1.494889064493189E-3    2.953314390935973E-1    4.180500247732495E-1
 8.152175676675000E9     1.701517760238321E-1    5.131462690657907E-1   -2.780137959112937E-3    1.448235862835729E-3   -2.785353033787341E-3    1.500775088949264E-3    2.954457493161802E-1    4.178521679360186E-1
 8.152178943150000E9     1.704145411256013E-1    5.130577610896598E-1   -2.789278282980251E-3    1.465174961955198E-3   -2.815541733298298E-3    1.480222993020886E-3    2.956153458216991E-1    4.177996918995450E-1
 8.152182209625000E9     1.706356597916568E-1    5.127750983247419E-1   -2.807781275445839E-3    1.441412190127749E-3   -2.779665661119264E-3    1.491865745421675E-3    2.957277263006559E-1    4.176262629571530E-1
 8.152185476100000E9     1.708434386288931E-1    5.128510861247099E-1   -2.787414351669021E-3    1.457268777842883E-3   -2.815395942278687E-3    1.516156511795515E-3    2.959122105869403E-1    4.176236630956314E-1
 8.152188742575000E9     1.711529964245707E-1    5.127249940427642E-1   -2.808881245462505E-3    1.479252145207835E-3   -2.787553472311445E-3    1.519389750590753E-3    2.961458715281481E-1    4.174233880242680E-1
 8.152192009050000E9     1.713337303171036E-1    5.126498637107049E-1   -2.807130023499886E-3    1.462329012670338E-3   -2.853592757060334E-3    1.500061507647702E-3    2.963867163728498E-1    4.173085784666048E-1
 8.152195275525000E9     1.716140114487757E-1    5.125777587232970E-1   -2.834817151624668E-3    1.462726170530089E-3   -2.803206770728206E-3    1.553086122609845E-3    2.966001934154497E-1    4.170873009098027E-1
 8.152198542000000E9     1.718130956866400E-1    5.124748749085828E-1   -2.784348012208820E-3    1.464837851542574E-3   -2.798344294027112E-3    1.541177528214300E-3    2.966409662155453E-1    4.170794694871175E-1
 8.152201808475000E9     1.721285993864136E-1    5.124614971707249E-1   -2.807370379168347E-3    1.485233072220495E-3   -2.803002058090245E-3    1.509111868912434E-3    2.967419423736378E-1    4.169859106427836E-1
 8.152205074950000E9     1.723185626172338E-1    5.123797557378800E-1   -2.786602035606768E-3    1.466669382528034E-3   -2.832707037477582E-3    1.536136394120368E-3    2.970075931077313E-1    4.168071712956081E-1
 8.152208341425000E9     1.724701413218689E-1    5.122571574520511E-1   -2.816108750954502E-3    1.472117529958782E-3   -2.835864611104699E-3    1.532728220373242E-3    2.970780992457796E-1    4.167810647696222E-1
 8.152211607900000E9     1.727571113669710E-1    5.121906105708830E-1   -2.821070205509135E-3    1.505897191339922E-3   -2.798532510517656E-3    1.528644472328712E-3    2.973047576047016E-1    4.165090427377180E-1
 8.152214874375000E9     1.729696893839576E-1    5.121499268728024E-1   -2.820425095652110E-3    1.507480230942211E-3   -2.841080035097474E-3    1.554264434635958E-3    2.974839779775821E-1    4.163822649902280E-1
 8.152218140850000E9     1.733232741862947E-1    5.120294471978737E-1   -2.827657719855270E-3    1.490919267438059E-3   -2.864964491389950E-3    1.566755731751649E-3    2.976173218766198E-1    4.162772191442345E-1
 8.152221407325000E9     1.734743035319449E-1    5.119429714980535E-1   -2.810816397624282E-3    1.533255612317369E-3   -2.824837882447664E-3    1.542352578315512E-3    2.977572858128532E-1    4.161194840201788E-1
 8.152224673800000E9     1.738222596492321E-1    5.118280980328758E-1   -2.843341230566845E-3    1.525541503003150E-3   -2.833312896774251E-3    1.610689944411294E-3    2.979601551952665E-1    4.160939873317263E-1
 8.152227940275000E9     1.740259587893120E-1    5.117606744073681E-1   -2.848776731349250E-3    1.523574192849902E-3   -2.853052513690994E-3    1.590553931471833E-3    2.981934709555558E-1    4.159251063018641E-1
 8.152231206750000E9     1.741946805043687E-1    5.117589166085250E-1   -2.845539577262440E-3    1.514195658035906E-3   -2.829311274603384E-3    1.578079875313933E-3    2.984518224258789E-1    4.158366516273445E-1
