#  HZ   S   RI   R     50.00 
! Rohde & Schwarz Vector Network Analyzer 
! Rohde-Schwarz,ZNB20-2Port,1311601062101988,3.16
! Created: UTC 3/21/2024, 1:18:43 AM
! freq[Hz]                re:S11                  im:S11                  re:S21                  im:S21                  re:S12                  im:S12                  re:S22                  im:S22
 8.152075418000000E9     1.623961063725379E-1    5.155389055388073E-1   -2.703229333258721E-3    1.293081704210861E-3   -2.680697391878058E-3    1.381618399295291E-3    2.903313444622715E-1    4.216509154830415E-1
 8.152078193800000E9     1.625602895533020E-1    5.153083018423160E-1   -2.682570217508624E-3    1.307287753506466E-3   -2.686966688791043E-3    1.359110961807640E-3    2.905253805387335E-1    4.214841760980008E-1
 8.152080969600000E9     1.627588452459658E-1    5.153168205048075E-1   -2.658871111283980E-3    1.303834171596794E-3   -2.676651763663244E-3    1.368752586470026E-3    2.906412337956391E-1    4.214347937033022E-1
 8.152083745400000E9     1.630592287240926E-1    5.153302081749878E-1   -2.668243994187306E-3    1.313650801232638E-3   -2.678021756370174E-3    1.372655291960004E-3    2.908451859737647E-1    4.213352904318891E-1
 8.152086521200000E9     1.632848080233812E-1    5.152483921510896E-1   -2.692942824449954E-3    1.328619434634409E-3   -2.697705555899501E-3    1.330688924944376E-3    2.910717627602347E-1    4.213271731480516E-1
 8.152089297000000E9     1.633037527343102E-1    5.151698577030599E-1   -2.691948118502615E-3    1.320397596255511E-3   -2.718463145609941E-3    1.384582912719033E-3    2.910910647564224E-1    4.211366638324288E-1
 8.152092072800000E9     1.635919929597319E-1    5.151242368202020E-1   -2.694212608571560E-3    1.319379425456121E-3   -2.686843193952925E-3    1.372802049350565E-3    2.912467366864029E-1    4.210226704045916E-1
 8.152094848600000E9     1.638479288332015E-1    5.151102443533681E-1   -2.706744936362297E-3    1.337011593981213E-3   -2.704255180121749E-3    1.350567732769736E-3    2.914757663544872E-1    4.210463483066871E-1
 8.152097624400000E9     1.640422952798614E-1    5.149537179022441E-1   -2.670610454721793E-3    1.325040412111972E-3   -2.719012871704811E-3    1.367035431448374E-3    2.915340800543585E-1    4.209569057886101E-1
 8.152100400200000E9     1.641688962832467E-1    5.149281682609792E-1   -2.681614962994701E-3    1.332523185136149E-3   -2.718777068986642E-3    1.417110057282510E-3    2.916662676664353E-1    4.207538029375711E-1
 8.152103176000000E9     1.643959190619971E-1    5.148706215645861E-1   -2.688588603445525E-3    1.335786719793558E-3   -2.692601795747596E-3    1.383812592373652E-3    2.918518550556269E-1    4.205700986067586E-1
 8.152105951800000E9     1.645524130398445E-1    5.148393308128615E-1   -2.683290956884196E-3    1.335800814603756E-3   -2.702631761797105E-3    1.378989772485727E-3    2.917989234023786E-1    4.205432029054992E-1
 8.152108727600000E9     1.648422653877587E-1    5.148117937283703E-1   -2.713556886187890E-3    1.360373572066961E-3   -2.702895950313479E-3    1.369656660885743E-3    2.921056693824500E-1    4.205139358888664E-1
 8.152111503400000E9     1.649745376280236E-1    5.146730972427885E-1   -2.705776765362180E-3    1.303215487174106E-3   -2.714528099078040E-3    1.380140962050688E-3    2.924178800762068E-1    4.203687866641462E-1
 8.152114279200000E9     1.652737449658043E-1    5.146809479081990E-1   -2.703472310000083E-3    1.319593840113389E-3   -2.713450905673114E-3    1.360339841263869E-3    2.923164882494107E-1    4.200847957904568E-1
 8.152117055000000E9     1.654576295130212E-1    5.144703853483541E-1   -2.722639377100521E-3    1.332622850116981E-3   -2.710490077981479E-3    1.379383061382336E-3    2.924596069304748E-1    4.200322345373723E-1
 8.152119830800000E9     1.656527540160372E-1    5.144861442202765E-1   -2.694425282463585E-3    1.353058779504420E-3   -2.723764784955212E-3    1.407657854188130E-3    2.927375098326956E-1    4.200312636877377E-1
 8.152122606600000E9     1.658014195580165E-1    5.144667766419277E-1   -2.713320545961098E-3    1.333872216828326E-3   -2.710917461000128E-3    1.413254405197810E-3    2.929279169937441E-1    4.199170473499336E-1
 8.152125382400000E9     1.660208035664710E-1    5.143813573751829E-1   -2.735560452241343E-3    1.358031210962461E-3   -2.697634858744382E-3    1.411029338002658E-3    2.930568464838025E-1    4.197051477057433E-1
 8.152128158200000E9     1.661377787719952E-1    5.142655957376103E-1   -2.698143379660985E-3    1.364324934080213E-3   -2.736392256753603E-3    1.418431542949597E-3    2.931091866095805E-1    4.196599344368040E-1
 8.152130934000000E9     1.663921623998236E-1    5.142286385097149E-1   -2.712263269753110E-3    1.400403455616678E-3   -2.701685840242773E-3    1.425598886361899E-3    2.933133701524188E-1    4.194986154276522E-1
 8.152133709800000E9     1.665295888752444E-1    5.142396784913494E-1   -2.703576939967277E-3    1.378981325264856E-3   -2.714659271680452E-3    1.421403578023570E-3    2.933828861880265E-1    4.194118707303069E-1
 8.152136485600000E9     1.667487856036575E-1    5.141043174028669E-1   -2.716572392583003E-3    1.379265890197352E-3   -2.749035070530232E-3    1.438563076073669E-3    2.935854290232875E-1    4.192706863005088E-1
 8.152139261400000E9     1.670195207114986E-1    5.140433266045463E-1   -2.710874007286839E-3    1.386334710917210E-3   -2.707622855310321E-3    1.439611776011488E-3    2.936747374463628E-1    4.192250344296322E-1
 8.152142037200000E9     1.672899330524358E-1    5.140309898006818E-1   -2.732995788976916E-3    1.362708433147857E-3   -2.725311618343377E-3    1.434747191095211E-3    2.938780084680602E-1    4.190857399923382E-1
 8.152144813000000E9     1.674122585508570E-1    5.139475529758619E-1   -2.746564849765363E-3    1.372403380791283E-3   -2.721555879170080E-3    1.428025031605477E-3    2.940144176335478E-1    4.191461884536439E-1
 8.152147588800000E9     1.675864556043767E-1    5.139384250123311E-1   -2.744197694257213E-3    1.378746803932958E-3   -2.706323052580336E-3    1.414508854550722E-3    2.942367649350984E-1    4.189510896689017E-1
 8.152150364600000E9     1.677435104474896E-1    5.137666992807332E-1   -2.744519667523319E-3    1.387173612637273E-3   -2.734900804527753E-3    1.435472833022661E-3    2.942716997651015E-1    4.188060792650453E-1
 8.152153140400000E9     1.679777405505287E-1    5.137442411077817E-1   -2.744583837986190E-3    1.379887140019246E-3   -2.747216417991410E-3    1.420381955170157E-3    2.943543364258994E-1    4.186555039871722E-1
 8.152155916200000E9     1.681863763926076E-1    5.137283646045462E-1   -2.738837370704263E-3    1.388218728923658E-3   -2.724817585181833E-3    1.460327538433230E-3    2.945187152183016E-1    4.186942334598758E-1
 8.152158692000000E9     1.684104304533370E-1    5.135772157893197E-1   -2.746778375535618E-3    1.397890363720110E-3   -2.731166959732859E-3    1.463056184332812E-3    2.947280412239533E-1    4.185524966428805E-1
 8.152161467800000E9     1.686762615807393E-1    5.134889817581214E-1   -2.742786403413734E-3    1.422357745439081E-3   -2.742017416143563E-3    1.479826786551081E-3    2.948907545148589E-1    4.184139988894290E-1
 8.152164243600000E9     1.687646213233390E-1    5.135969908315459E-1   -2.737171789786561E-3    1.424922445369380E-3   -2.736236508387735E-3    1.447350919681931E-3    2.949171171562375E-1    4.182871115158448E-1
 8.152167019400000E9     1.688931190426563E-1    5.133362283429435E-1   -2.762471996116150E-3    1.424477594119789E-3   -2.762111629818888E-3    1.482579791188013E-3    2.951882037352423E-1    4.180322639537846E-1
 8.152169795200000E9     1.691229325127840E-1    5.133030540288765E-1   -2.737161490405539E-3    1.411127778241991E-3   -2.752928601981372E-3    1.453847916989820E-3    2.953474600750319E-1    4.180210354606422E-1
 8.152172571000000E9     1.693982145900533E-1    5.131846576443713E-1   -2.723853785383233E-3    1.420135527975371E-3   -2.757711824720913E-3    1.486693515574052E-3    2.954695878536376E-1    4.178107234022056E-1
 8.152175346800000E9     1.696222986302741E-1    5.131601797568217E-1   -2.746792506054380E-3    1.441017883875903E-3   -2.734744250359362E-3    1.437174713061662E-3    2.956352563886603E-1    4.179161263714762E-1
 8.152178122600000E9     1.698166336815294E-1    5.132142893061765E-1   -2.742487127080007E-3    1.417539124521069E-3   -2.775854967987756E-3    1.453948105680857E-3    2.955558317539990E-1    4.177532887479771E-1
 8.152180898400000E9     1.700366191874810E-1    5.130619455038777E-1   -2.743858055957863E-3    1.395940179677894E-3   -2.776293750429652E-3    1.466544204516847E-3    2.958659032501773E-1    4.177149196719623E-1
 8.152183674200000E9     1.701800609001426E-1    5.129961236564461E-1   -2.790409233455454E-3    1.415637798111257E-3   -2.795004958152588E-3    1.464099454699684E-3    2.959810032391907E-1    4.176377330223606E-1
 8.152186450000000E9     1.704946112060482E-1    5.129309264765417E-1   -2.777166106536792E-3    1.400840065074181E-3   -2.765880522925853E-3    1.486972025249186E-3    2.961105915571945E-1    4.173984099403987E-1
 8.152189225800000E9     1.706795837690784E-1    5.129001454412881E-1   -2.781704511816354E-3    1.429189098514929E-3   -2.768303331473589E-3    1.512636778085437E-3    2.962863119779177E-1    4.173127543592640E-1
 8.152192001600000E9     1.709738534534886E-1    5.129497742954418E-1   -2.757704932193058E-3    1.427493851630338E-3   -2.757302184587526E-3    1.501628482092056E-3    2.964218334338229E-1    4.173982434624837E-1
 8.152194777400000E9     1.708924055682720E-1    5.126856751168958E-1   -2.748885712010829E-3    1.427759595938667E-3   -2.780399502749728E-3    1.514603265485118E-3    2.965748452824917E-1    4.170485193449127E-1
 8.152197553200000E9     1.712757294464873E-1    5.126508137066262E-1   -2.807196226953516E-3    1.444975371427284E-3   -2.772963445234920E-3    1.453724693730883E-3    2.967845978446669E-1    4.170968995878307E-1
 8.152200329000000E9     1.714097784304629E-1    5.125972549109690E-1   -2.756767078886174E-3    1.429369403911721E-3   -2.778297177752958E-3    1.481722968376501E-3    2.968756434687139E-1    4.168844498184717E-1
 8.152203104800000E9     1.716127092949515E-1    5.126632025788996E-1   -2.755167147184069E-3    1.459335001678795E-3   -2.781509288157954E-3    1.513847048316740E-3    2.969167820598561E-1    4.166450877365267E-1
 8.152205880600000E9     1.716963623678404E-1    5.125395697050257E-1   -2.767314164248814E-3    1.440363347224087E-3   -2.807386831729778E-3    1.493934196055726E-3    2.970995619101123E-1    4.167066594873998E-1
 8.152208656400000E9     1.720826562572683E-1    5.124204173517506E-1   -2.768256756338321E-3    1.449902723823828E-3   -2.760827241394577E-3    1.498104237107947E-3    2.972938724690917E-1    4.165771721868112E-1
 8.152211432200000E9     1.722205160460674E-1    5.125085448493527E-1   -2.795046905867748E-3    1.445138419833844E-3   -2.796613000178341E-3    1.509156968044650E-3    2.974452850759567E-1    4.164294591551523E-1
 8.152214208000000E9     1.723850541368523E-1    5.122725864833424E-1   -2.802164590340621E-3    1.483407474649032E-3   -2.802953336869998E-3    1.487908698155017E-3    2.975172194802106E-1    4.162924004637172E-1
 8.152216983800000E9     1.726624597423023E-1    5.122490346878030E-1   -2.791526419192688E-3    1.465785429407092E-3   -2.787294021688311E-3    1.535627759904815E-3    2.977965847245809E-1    4.162846515061993E-1
 8.152219759600000E9     1.728571385579727E-1    5.122962497797566E-1   -2.787477533613052E-3    1.468426289143307E-3   -2.798066921881262E-3    1.522124708454865E-3    2.978681716021676E-1    4.160969878304109E-1
 8.152222535400000E9     1.729331093946297E-1    5.121021391030768E-1   -2.812797189232824E-3    1.473304849903112E-3   -2.806062053162275E-3    1.496296812168947E-3    2.979527158579918E-1    4.160741997049556E-1
 8.152225311200000E9     1.732501033677790E-1    5.120641807655636E-1   -2.814712765166733E-3    1.488517217360668E-3   -2.789307440836525E-3    1.533189178808446E-3    2.981165186545378E-1    4.161614999697146E-1
 8.152228087000000E9     1.734127621313561E-1    5.120359449347737E-1   -2.821164578121265E-3    1.461248320739665E-3   -2.831308502504459E-3    1.561104369830364E-3    2.984203728933854E-1    4.159104666601914E-1
 8.152230862800000E9     1.735379759503185E-1    5.120028921488000E-1   -2.808544572138175E-3    1.477627164309630E-3   -2.792616296027840E-3    1.532616062392617E-3    2.982882934517869E-1    4.158247894165418E-1
 8.152233638600000E9     1.738859478032091E-1    5.118918053543432E-1   -2.809102545704652E-3    1.503755199004533E-3   -2.815051791513848E-3    1.552219582119554E-3    2.986508686882545E-1    4.155374488955963E-1
 8.152236414400000E9     1.740844766972703E-1    5.117795611189180E-1   -2.788454611470602E-3    1.502283034305082E-3   -2.812644818621269E-3    1.517384749606868E-3    2.985492227699788E-1    4.156210279292971E-1
 8.152239190200000E9     1.742754051258477E-1    5.116289298907887E-1   -2.787422077870121E-3    1.490668297694440E-3   -2.829948980521111E-3    1.592097600905304E-3    2.986811632917543E-1    4.154378465076993E-1
 8.152241966000000E9     1.744159246254658E-1    5.116526497141217E-1   -2.817277385367575E-3    1.507936021975097E-3   -2.804613565522105E-3    1.553184463933594E-3    2.989031726979567E-1    4.153925564878581E-1
 8.152244741800000E9     1.747109305181485E-1    5.114973597262855E-1   -2.814619879820479E-3    1.494990842372421E-3   -2.826833112866169E-3    1.558405020699525E-3    2.990577932760070E-1    4.153360247707491E-1
 8.152247517600000E9     1.748116736607611E-1    5.113628717827163E-1   -2.819557999779013E-3    1.526312993948288E-3   -2.822281848147319E-3    1.594601436736258E-3    2.992790904809600E-1    4.151709646482526E-1
 8.152250293400000E9     1.750626084251975E-1    5.112934916415205E-1   -2.829154144261954E-3    1.499299103605368E-3   -2.816462374836096E-3    1.572446294413608E-3    2.994422339113944E-1    4.150156549578253E-1
 8.152253069200000E9     1.752694517755116E-1    5.113526719245610E-1   -2.828779998284187E-3    1.515046932104004E-3   -2.819679276215796E-3    1.544043685569932E-3    2.995030646936229E-1    4.148831214847607E-1
 8.152255845000000E9     1.754580326544030E-1    5.112729796780993E-1   -2.806780799637044E-3    1.522696748184910E-3   -2.838099000287801E-3    1.586073578841374E-3    2.996541429783512E-1    4.147756815892537E-1
 8.152258620800000E9     1.756011378947783E-1    5.111665529451627E-1   -2.836228283907530E-3    1.515807836997528E-3   -2.819776537396094E-3    1.564331643570046E-3    2.999146103706274E-1    4.148159042595166E-1
 8.152261396600000E9     1.759834676882096E-1    5.111857511388856E-1   -2.842111756684554E-3    1.532811609263513E-3   -2.849527884712669E-3    1.578905958775926E-3    3.000678684053721E-1    4.146146693390082E-1
 8.152264172400000E9     1.761640032151975E-1    5.110042387072581E-1   -2.857144627370851E-3    1.527326688969208E-3   -2.819606704783870E-3    1.573036108437455E-3    3.001593726641569E-1    4.145039068519538E-1
 8.152266948200000E9     1.762626972957372E-1    5.110051640755062E-1   -2.854010094854790E-3    1.534628881456404E-3   -2.863132309541249E-3    1.628007419020836E-3    3.002377803445975E-1    4.142911920335353E-1
 8.152269724000000E9     1.765667536975290E-1    5.109146232936155E-1   -2.868684140085276E-3    1.547335374286524E-3   -2.859619643962460E-3    1.586675685012205E-3    3.003145323188142E-1    4.142745535759677E-1
 8.152272499800000E9     1.767450806279622E-1    5.108512762538531E-1   -2.865909379934854E-3    1.539830472704497E-3   -2.865102420923543E-3    1.586566082411462E-3    3.006077953887190E-1    4.142210336186893E-1
 8.152275275600000E9     1.769058275117379E-1    5.108038773096972E-1   -2.860904714925488E-3    1.549184284197482E-3   -2.838700694006777E-3    1.612443102288877E-3    3.007112316290037E-1    4.139507395949523E-1
 8.152278051400000E9     1.771595249329093E-1    5.107077277327845E-1   -2.841448274003231E-3    1.570152490396242E-3   -2.865964207396611E-3    1.611472481238718E-3    3.007343913098079E-1    4.138712918152007E-1
 8.152280827200000E9     1.773472208586690E-1    5.105520414262469E-1   -2.836204395482258E-3    1.571718134735748E-3   -2.870955981917282E-3    1.600389667535520E-3    3.009257668820898E-1    4.138126818404287E-1
 8.152283603000000E9     1.776586646253848E-1    5.106006044701428E-1   -2.860329643434055E-3    1.584391537089144E-3   -2.877446401320936E-3    1.621606435490000E-3    3.011749529565020E-1    4.136695104223917E-1
 8.152286378800000E9     1.776983712909800E-1    5.104648014578185E-1   -2.855841434773375E-3    1.582253712421311E-3   -2.855784972380302E-3    1.658743562841672E-3    3.012854804042800E-1    4.136496532993943E-1
 8.152289154600000E9     1.780000722995703E-1    5.104101522954639E-1   -2.881647342274005E-3    1.587086237424797E-3   -2.899603423397272E-3    1.643438498678580E-3    3.014856983456436E-1    4.135130533342339E-1
 8.152291930400000E9     1.782357065222081E-1    5.103213931280381E-1   -2.914885183664174E-3    1.565355074084450E-3   -2.888237561597211E-3    1.628685069758561E-3    3.013526145572988E-1    4.133789118313055E-1
 8.152294706200000E9     1.784118677061755E-1    5.102546942992159E-1   -2.870022366593583E-3    1.556174848304534E-3   -2.897680014086878E-3    1.665148039922224E-3    3.017052407039231E-1    4.133537206948710E-1
 8.152297482000000E9     1.785890577939949E-1    5.102137919922943E-1   -2.903321917039555E-3    1.609249022710077E-3   -2.882036246832396E-3    1.655110681542426E-3    3.018096616946012E-1    4.131420871810483E-1
 8.152300257800000E9     1.789431126916491E-1    5.102065124565761E-1   -2.893496360293910E-3    1.583681658741470E-3   -2.917471074544975E-3    1.677036475728467E-3    3.019182738557152E-1    4.131649220860095E-1
 8.152303033600000E9     1.790508385098535E-1    5.101228854208366E-1   -2.879689645964453E-3    1.609786676111143E-3   -2.880098589853772E-3    1.666928893077923E-3    3.021216192123257E-1    4.131500338969354E-1
 8.152305809400000E9     1.792138075818792E-1    5.099702732542782E-1   -2.904780489313280E-3    1.585212154999445E-3   -2.923100160541383E-3    1.663288459440303E-3    3.021652444616624E-1    4.128189059644597E-1
 8.152308585200000E9     1.795377702854591E-1    5.097779218860964E-1   -2.919249242165344E-3    1.607355050416856E-3   -2.903779755514184E-3    1.663334577687822E-3    3.023859843360720E-1    4.128469490516328E-1
 8.152311361000000E9     1.796942591736078E-1    5.097994468031908E-1   -2.901813841988129E-3    1.606184290606982E-3   -2.922551580976907E-3    1.663832125472618E-3    3.025444301950780E-1    4.126865816544651E-1
 8.152314136800000E9     1.798588025007255E-1    5.097461271438619E-1   -2.935480977801848E-3    1.630122089182831E-3   -2.967064745496953E-3    1.669716534989857E-3    3.026224383922277E-1    4.125946377905717E-1
 8.152316912600000E9     1.802455289065887E-1    5.096862252864377E-1   -2.908478496355687E-3    1.644593846278163E-3   -2.907742584953985E-3    1.721631119457255E-3    3.029180232965296E-1    4.124700097668101E-1
 8.152319688400000E9     1.803097411635068E-1    5.095945622033985E-1   -2.922200141160462E-3    1.651175680084059E-3   -2.949381867221481E-3    1.684756293493644E-3    3.030337472179703E-1    4.123198646901683E-1
 8.152322464200000E9     1.804758309275127E-1    5.095121299558546E-1   -2.924106295402484E-3    1.665991644317599E-3   -2.933695476195341E-3    1.712934986059862E-3    3.031394365404926E-1    4.122036851890799E-1
 8.152325240000000E9     1.808382881959293E-1    5.093816563721588E-1   -2.951831835225701E-3    1.679110831121089E-3   -2.914901687381082E-3    1.737498521238877E-3    3.033197499452264E-1    4.121941996280220E-1
