#  HZ   S   RI   R     50.00 
! Rohde & Schwarz Vector Network Analyzer 
! Rohde-Schwarz,ZNB20-2Port,1311601062101988,3.16
! Created: UTC 3/21/2024, 1:18:48 AM
! freq[Hz]                re:S11                  im:S11                  re:S21                  im:S21                  re:S12                  im:S12                  re:S22                  im:S22
 8.152097387000000E9     1.638066844278751E-1    5.149998155371349E-1   -2.684809050881796E-3    1.329367597435236E-3   -2.705746748176151E-3    1.350554713325925E-3    2.914934062782490E-1    4.208464665154554E-1
 8.152100084425000E9     1.641241149828737E-1    5.149610961972259E-1   -2.689060977527151E-3    1.336598803993050E-3   -2.668884181503240E-3    1.388494461753827E-3    2.917009260241473E-1    4.205967604912155E-1
 8.152102781850000E9     1.644056684047076E-1    5.148036391281327E-1   -2.702479931627247E-3    1.339133510704954E-3   -2.673000457099511E-3    1.381760662349451E-3    2.918813376863668E-1    4.205792198704033E-1
 8.152105479275000E9     1.645010552425205E-1    5.148982512469126E-1   -2.711839112518440E-3    1.323596088093907E-3   -2.699260537877414E-3    1.399063022277757E-3    2.919794785093923E-1    4.205705432890955E-1
 8.152108176700000E9     1.646969971018288E-1    5.148840463720561E-1   -2.699027072888386E-3    1.322055406232095E-3   -2.705266358755160E-3    1.411243230027612E-3    2.921462942797692E-1    4.204820359882508E-1
 8.152110874125000E9     1.649068301427851E-1    5.147328157033715E-1   -2.685735728649143E-3    1.326203346882517E-3   -2.669019492701080E-3    1.388697304816972E-3    2.923745380274632E-1    4.202741203984970E-1
 8.152113571550000E9     1.649673642373361E-1    5.146877691767767E-1   -2.704501524234018E-3    1.309012318639969E-3   -2.712063705667823E-3    1.362644008979196E-3    2.923881278957018E-1    4.200821054781646E-1
 8.152116268975000E9     1.653061988411112E-1    5.145377731973494E-1   -2.724029723474756E-3    1.372593972091794E-3   -2.709361883272865E-3    1.377771157945138E-3    2.925079786419513E-1    4.201238791418113E-1
 8.152118966400000E9     1.653944498220903E-1    5.146133272082697E-1   -2.688871786730534E-3    1.330197341576783E-3   -2.691351970965567E-3    1.410064863129738E-3    2.926212326886105E-1    4.202487011748302E-1
 8.152121663825000E9     1.656822030697183E-1    5.146260765013767E-1   -2.676180528182033E-3    1.359020888387728E-3   -2.700390828213712E-3    1.409509877024404E-3    2.926065425389568E-1    4.200165767995765E-1
 8.152124361250000E9     1.658777428301859E-1    5.145226888751879E-1   -2.702973100553421E-3    1.338803692080739E-3   -2.711507184713767E-3    1.400453994995430E-3    2.929180062249701E-1    4.197216583201002E-1
 8.152127058675000E9     1.661184274490130E-1    5.144903859582525E-1   -2.706952100724130E-3    1.364819889171368E-3   -2.712634994659028E-3    1.388552554384337E-3    2.930335358454813E-1    4.196357580036929E-1
 8.152129756100000E9     1.662688935378397E-1    5.143870278882469E-1   -2.711701981486189E-3    1.371791820665615E-3   -2.730077952819717E-3    1.430815415544548E-3    2.932177639786467E-1    4.195089457771892E-1
 8.152132453525000E9     1.663838648781508E-1    5.142797110901715E-1   -2.706156903186265E-3    1.356475639510393E-3   -2.727584420334792E-3    1.412797563819272E-3    2.933931739100201E-1    4.195736435552161E-1
 8.152135150950000E9     1.666952637393768E-1    5.142445911943768E-1   -2.725459890155928E-3    1.366697986752693E-3   -2.710428926173181E-3    1.411120337600120E-3    2.935149499256128E-1    4.195119578910732E-1
 8.152137848375000E9     1.668792578200931E-1    5.143157820510893E-1   -2.701759611545801E-3    1.379228248657870E-3   -2.766115026063263E-3    1.416442294493243E-3    2.937317306274687E-1    4.191961428322478E-1
 8.152140545800000E9     1.669479824707258E-1    5.142997366232220E-1   -2.730052230107824E-3    1.366983354052023E-3   -2.747982148832229E-3    1.414896233776706E-3    2.937493655343354E-1    4.192926652423653E-1
 8.152143243225000E9     1.672136220535604E-1    5.140075033646893E-1   -2.721706181290171E-3    1.389687948392312E-3   -2.706241757432901E-3    1.408650544248405E-3    2.939408732109601E-1    4.192382647875402E-1
 8.152145940650000E9     1.673309845184521E-1    5.139194274899740E-1   -2.709599657995035E-3    1.390214700756761E-3   -2.737957063742452E-3    1.458853280762037E-3    2.940593638721156E-1    4.190797147763500E-1
 8.152148638075000E9     1.676380028722365E-1    5.139516283802376E-1   -2.736975657398151E-3    1.369427352930248E-3   -2.729718418070187E-3    1.421231203430967E-3    2.941524255429602E-1    4.188483779247783E-1
 8.152151335500000E9     1.677984673995374E-1    5.138390734306486E-1   -2.716927009042828E-3    1.391124701955379E-3   -2.754220682505264E-3    1.456072043072947E-3    2.942969132634748E-1    4.187770906317159E-1
 8.152154032925000E9     1.680894964465900E-1    5.136945620229320E-1   -2.740802890989783E-3    1.371938764856780E-3   -2.744247954431764E-3    1.433636756806171E-3    2.945477626975169E-1    4.186882557841448E-1
 8.152156730350000E9     1.681715607923963E-1    5.137993862477279E-1   -2.704375199168783E-3    1.376275905490667E-3   -2.711234243616308E-3    1.440451460719683E-3    2.946210590845731E-1    4.186135221199333E-1
 8.152159427775000E9     1.684852625737398E-1    5.136130907816872E-1   -2.734715789437641E-3    1.399321614430739E-3   -2.750590722964808E-3    1.439975233129988E-3    2.947435303320577E-1    4.185243276817995E-1
 8.152162125200000E9     1.685864869714153E-1    5.136666173749859E-1   -2.748005944682534E-3    1.380012384603375E-3   -2.711307892518625E-3    1.439345315338508E-3    2.947957539310908E-1    4.182884635505547E-1
 8.152164822625000E9     1.688727399200761E-1    5.134334773683236E-1   -2.727943100617440E-3    1.385413401280324E-3   -2.745706205184096E-3    1.433907538225330E-3    2.949730193141629E-1    4.183626987049301E-1
 8.152167520050000E9     1.689201082981188E-1    5.134263675761969E-1   -2.742287533136854E-3    1.401749767997288E-3   -2.727136121810478E-3    1.448302630351440E-3    2.952442345606267E-1    4.181782509080132E-1
 8.152170217475000E9     1.692937488776571E-1    5.134366129700404E-1   -2.746848633342932E-3    1.417911503925835E-3   -2.766679402539637E-3    1.469356438089810E-3    2.953099567968955E-1    4.181007106836822E-1
 8.152172914900000E9     1.693638131318033E-1    5.133472767697808E-1   -2.733624039380686E-3    1.407975717340441E-3   -2.728300538732524E-3    1.469878233325656E-3    2.955298674751564E-1    4.179584033599588E-1
 8.152175612325000E9     1.697012719352672E-1    5.133108289456970E-1   -2.741305241052037E-3    1.423931359804490E-3   -2.758030354452989E-3    1.442580868699820E-3    2.955734047010959E-1    4.177944952041971E-1
 8.152178309750000E9     1.697888892221407E-1    5.133038285932769E-1   -2.754879762115667E-3    1.385770330690073E-3   -2.757913932347094E-3    1.482515512839724E-3    2.956701835160693E-1    4.177744153348051E-1
 8.152181007175000E9     1.697589705922312E-1    5.131735114460780E-1   -2.749804626468112E-3    1.407222647096627E-3   -2.763992259127993E-3    1.464087499362688E-3    2.959146483229572E-1    4.176596354338424E-1
 8.152183704600000E9     1.701058225609161E-1    5.132388296406537E-1   -2.722865344339181E-3    1.405538999220093E-3   -2.737530276098131E-3    1.456283308000815E-3    2.960398665441334E-1    4.176833827859180E-1
 8.152186402025000E9     1.704000729433693E-1    5.130286971803122E-1   -2.757205954458816E-3    1.441601850884002E-3   -2.764643600150535E-3    1.477862826170209E-3    2.960333518722241E-1    4.174556370416873E-1
 8.152189099450000E9     1.706526866877235E-1    5.129189265561319E-1   -2.747272382512758E-3    1.413316509876585E-3   -2.781541288876310E-3    1.462873913552342E-3    2.962715480823337E-1    4.172790562078872E-1
 8.152191796875000E9     1.708170016013001E-1    5.129580263813187E-1   -2.737878931450730E-3    1.449042008215401E-3   -2.752798356216139E-3    1.487900430173280E-3    2.964197086041032E-1    4.171908531611194E-1
 8.152194494300000E9     1.709496309293053E-1    5.127952741340596E-1   -2.756375504222902E-3    1.435365044546341E-3   -2.772553521178150E-3    1.511293647843436E-3    2.965509686840779E-1    4.172168538223051E-1
 8.152197191725000E9     1.711330884162016E-1    5.127847810182014E-1   -2.752851303634488E-3    1.459567953427810E-3   -2.747634139422952E-3    1.481042113528323E-3    2.965868185752054E-1    4.169602727969578E-1
 8.152199889150000E9     1.713199708677499E-1    5.127939765315955E-1   -2.752896832332522E-3    1.420566487903443E-3   -2.794725765943983E-3    1.479691044329020E-3    2.969086777355675E-1    4.168821591802954E-1
 8.152202586575000E9     1.715240829485122E-1    5.126798576874879E-1   -2.768795164141557E-3    1.432127630771049E-3   -2.752904388573925E-3    1.468815795080617E-3    2.970424980386528E-1    4.168928830743261E-1
 8.152205284000000E9     1.717045183196528E-1    5.126963768602296E-1   -2.780940586726512E-3    1.464462595727956E-3   -2.785778696698828E-3    1.445869264080703E-3    2.971055767386530E-1    4.168502517758919E-1
 8.152207981425000E9     1.719711134524500E-1    5.125669364576774E-1   -2.790859840640759E-3    1.452225847674947E-3   -2.773966902368970E-3    1.516880958214815E-3    2.971677373432311E-1    4.167338058031162E-1
 8.152210678850000E9     1.721577475962820E-1    5.124168334882665E-1   -2.776900029854523E-3    1.476134765546931E-3   -2.772209734737661E-3    1.505657549376010E-3    2.973613663579173E-1    4.164840273020894E-1
 8.152213376275000E9     1.723683669410849E-1    5.123944705826108E-1   -2.789234831834905E-3    1.468676087964243E-3   -2.782729341976295E-3    1.508909835043042E-3    2.974803648045900E-1    4.165550234198186E-1
 8.152216073700000E9     1.725001973074157E-1    5.122720753054564E-1   -2.757265094650578E-3    1.451586467863247E-3   -2.774020973241643E-3    1.479950492161084E-3    2.975748049245502E-1    4.163909271829302E-1
 8.152218771125000E9     1.727925350215653E-1    5.123428672943234E-1   -2.788278175731294E-3    1.452307207107493E-3   -2.818418956456443E-3    1.528495499601855E-3    2.978260784368975E-1    4.161362984706176E-1
 8.152221468550000E9     1.728776250902656E-1    5.121502516631287E-1   -2.779479227759337E-3    1.444623705781155E-3   -2.797774111155115E-3    1.498525235199335E-3    2.979829268905199E-1    4.160973434832655E-1
 8.152224165975000E9     1.730831419515517E-1    5.121832112389798E-1   -2.786881953491980E-3    1.488407063660750E-3   -2.782622808946846E-3    1.514941358758271E-3    2.979254159623582E-1    4.159968779941544E-1
 8.152226863400000E9     1.732645003223450E-1    5.119891144223692E-1   -2.807341612520364E-3    1.462243292538217E-3   -2.787274909440691E-3    1.541426729273102E-3    2.982669649803020E-1    4.158535314692132E-1
 8.152229560825000E9     1.735038359035749E-1    5.121182760445083E-1   -2.802190220905057E-3    1.456884571783622E-3   -2.786147548452440E-3    1.517268081995393E-3    2.983667004368357E-1    4.158254499180352E-1
 8.152232258250000E9     1.737559412543608E-1    5.119951291065730E-1   -2.815465870429778E-3    1.474937102043017E-3   -2.787711930463672E-3    1.503342978380155E-3    2.984882523492079E-1    4.156872198304646E-1
 8.152234955675000E9     1.738826772127182E-1    5.118945704500059E-1   -2.796972578228660E-3    1.512409650456951E-3   -2.814428588891236E-3    1.541046135494634E-3    2.987383156187622E-1    4.156125965169934E-1
 8.152237653100000E9     1.741209080114863E-1    5.118231575067200E-1   -2.800947877916338E-3    1.489960110270187E-3   -2.800377249829249E-3    1.532628042488503E-3    2.987600552202963E-1    4.154503561056526E-1
 8.152240350525000E9     1.742417530473226E-1    5.118156565568570E-1   -2.812753588491479E-3    1.489128647450247E-3   -2.819622795135619E-3    1.538374318691323E-3    2.990273531094850E-1    4.154944474592729E-1
 8.152243047950000E9     1.744592477434133E-1    5.116670597894674E-1   -2.821624141910463E-3    1.491559742435720E-3   -2.810058422270213E-3    1.559617455112803E-3    2.989917331404262E-1    4.153480639588880E-1
 8.152245745375000E9     1.746975178158508E-1    5.116217350799876E-1   -2.805331979457023E-3    1.496867284772618E-3   -2.823789369612905E-3    1.587426271237164E-3    2.992388398597832E-1    4.151697540109570E-1
 8.152248442800000E9     1.748988126434542E-1    5.114661816926739E-1   -2.829301558579759E-3    1.510746891254028E-3   -2.833022288450991E-3    1.560531327510087E-3    2.993935795270830E-1    4.150235653057295E-1
 8.152251140225000E9     1.750067106469342E-1    5.114228643285106E-1   -2.825319327975169E-3    1.497553113884377E-3   -2.845862463986992E-3    1.575532719649881E-3    2.995357295008553E-1    4.150500293609395E-1
 8.152253837650000E9     1.753172174683560E-1    5.113426438201200E-1   -2.838254645388594E-3    1.498950504574018E-3   -2.805143704070942E-3    1.592372683798560E-3    2.995305704436110E-1    4.149685371403621E-1
 8.152256535075000E9     1.755119450361572E-1    5.114332908971027E-1   -2.847833562388831E-3    1.501106502005065E-3   -2.798029014685504E-3    1.589084084445030E-3    2.998099388142935E-1    4.148873495043737E-1
 8.152259232500000E9     1.755904235032421E-1    5.113010788243356E-1   -2.833496142231461E-3    1.535542395603344E-3   -2.836151258802305E-3    1.575049130803280E-3    2.999608562767883E-1    4.145718456552715E-1
 8.152261929925000E9     1.758918777015252E-1    5.111966973899120E-1   -2.831319838306973E-3    1.536863808735309E-3   -2.845548859588949E-3    1.595554529487732E-3    3.000577456066977E-1    4.146697664472070E-1
 8.152264627350000E9     1.760430174655025E-1    5.110987841466270E-1   -2.837486334723783E-3    1.535364728995981E-3   -2.838950595713630E-3    1.581722886608947E-3    3.002298527137982E-1    4.144363406972303E-1
 8.152267324775000E9     1.762818825997919E-1    5.111077452102925E-1   -2.838592100283343E-3    1.536499445082227E-3   -2.858267350601508E-3    1.588407067940030E-3    3.001942122756069E-1    4.142632536197421E-1
 8.152270022200000E9     1.764907347837062E-1    5.110753728424464E-1   -2.860515568336819E-3    1.556011890537858E-3   -2.856503011696434E-3    1.590959779291264E-3    3.004311653041800E-1    4.143737834750887E-1
 8.152272719625000E9     1.766210858054488E-1    5.109350240460502E-1   -2.872884325628662E-3    1.539580985541681E-3   -2.853424529699858E-3    1.562209790909127E-3    3.006212100828463E-1    4.141633565997051E-1
 8.152275417050000E9     1.768541428523761E-1    5.108017584491145E-1   -2.840295610673994E-3    1.567648751791189E-3   -2.891982352027517E-3    1.594272126056713E-3    3.006541385298249E-1    4.139165442953087E-1
 8.152278114475000E9     1.771139003870718E-1    5.108483180095407E-1   -2.860165709320729E-3    1.533446066734147E-3   -2.856009062936959E-3    1.600440875122618E-3    3.009107710764372E-1    4.139914047400781E-1
 8.152280811900000E9     1.772637040481100E-1    5.107246644580685E-1   -2.869125331005414E-3    1.538149205025547E-3   -2.885601520116274E-3    1.606034792146519E-3    3.009686954017066E-1    4.138125699916334E-1
 8.152283509325000E9     1.774487860200935E-1    5.107463421020049E-1   -2.860771487920918E-3    1.561647838643119E-3   -2.864060631516922E-3    1.606822998314690E-3    3.010981432333628E-1    4.137056192379239E-1
 8.152286206750000E9     1.777803196291710E-1    5.105015260796215E-1   -2.871231701131668E-3    1.564260744834903E-3   -2.877445450791851E-3    1.624094723744377E-3    3.012418216664380E-1    4.135700728335434E-1
 8.152288904175000E9     1.779862235984779E-1    5.104324040518834E-1   -2.889518861785824E-3    1.578361785537969E-3   -2.871704761655262E-3    1.603343113791191E-3    3.013308568383876E-1    4.134825056738904E-1
 8.152291601600000E9     1.781923083501340E-1    5.104951664245405E-1   -2.860065952521620E-3    1.577994428086552E-3   -2.898241330910531E-3    1.630983675027760E-3    3.016978390684694E-1    4.133990601910574E-1
 8.152294299025000E9     1.784248726269809E-1    5.103847121810536E-1   -2.886908237834850E-3    1.590792324830352E-3   -2.881073605706404E-3    1.644746658769629E-3    3.017292730590597E-1    4.133358775592044E-1
 8.152296996450000E9     1.784925524067060E-1    5.102475928636784E-1   -2.888742818711585E-3    1.587068679192545E-3   -2.869745160252908E-3    1.619879857447002E-3    3.018178498721763E-1    4.133205884239614E-1
 8.152299693875000E9     1.786367798942851E-1    5.102237363462659E-1   -2.908377614442241E-3    1.577516459739070E-3   -2.908441698112852E-3    1.633119735471083E-3    3.019727232942205E-1    4.131856135721453E-1
 8.152302391300000E9     1.789951071250301E-1    5.100280477808591E-1   -2.904630450816546E-3    1.594911324162871E-3   -2.891998148040250E-3    1.668430347850174E-3    3.020793012540081E-1    4.129791690802006E-1
 8.152305088725000E9     1.791305943771565E-1    5.100296756757622E-1   -2.906750481854345E-3    1.622260925718030E-3   -2.885194016880156E-3    1.646137369848347E-3    3.022038476160093E-1    4.127102016630663E-1
 8.152307786150000E9     1.793388873306869E-1    5.100225840712145E-1   -2.897312270774477E-3    1.618715657843605E-3   -2.904924812935126E-3    1.682947899616182E-3    3.025549438314728E-1    4.128289080781246E-1
 8.152310483575000E9     1.796340704297757E-1    5.099353757181857E-1   -2.902184004756558E-3    1.610383147826071E-3   -2.898411711445948E-3    1.656422592120353E-3    3.024996592216360E-1    4.127439878638163E-1
 8.152313181000000E9     1.796762410276400E-1    5.097421206376063E-1   -2.909255921283389E-3    1.625503437979504E-3   -2.866499879851270E-3    1.673980072822217E-3    3.026804363946562E-1    4.124423700620342E-1
 8.152315878425000E9     1.800136141333477E-1    5.097603147129999E-1   -2.899904505319498E-3    1.618648960824898E-3   -2.916492815969093E-3    1.696321013633103E-3    3.028344892179965E-1    4.123524546013186E-1
 8.152318575850000E9     1.802570486833803E-1    5.097870930352677E-1   -2.923478752127877E-3    1.638576404449664E-3   -2.921979937261923E-3    1.665322148790262E-3    3.028918366034243E-1    4.124278949176730E-1
 8.152321273275000E9     1.802926881463417E-1    5.096085787396831E-1   -2.926487645078076E-3    1.616010409843020E-3   -2.895716161645936E-3    1.695744059258445E-3    3.030242816026313E-1    4.122729405528876E-1
 8.152323970700000E9     1.805065921368036E-1    5.095499916285694E-1   -2.940567183075457E-3    1.626373222404133E-3   -2.914588167020454E-3    1.685178486813917E-3    3.031898937428912E-1    4.122099336032671E-1
 8.152326668125000E9     1.807572775229319E-1    5.094317977535809E-1   -2.973750210638686E-3    1.644449214258061E-3   -2.951276878887550E-3    1.682285412073194E-3    3.033469725292947E-1    4.120699784516021E-1
 8.152329365550000E9     1.808953282577941E-1    5.094540318922283E-1   -2.903681992479978E-3    1.652268961313131E-3   -2.955027614664485E-3    1.708175900126840E-3    3.035048653174438E-1    4.118931913195875E-1
 8.152332062975000E9     1.812674527009753E-1    5.092670820036475E-1   -2.919083692683260E-3    1.656388490710237E-3   -2.958296171781105E-3    1.687505310647133E-3    3.036443275717166E-1    4.118907135839548E-1
 8.152334760400000E9     1.814507274668555E-1    5.092840327471574E-1   -2.939517274025485E-3    1.669882241061874E-3   -2.933276060599051E-3    1.734755519456933E-3    3.036458047994013E-1    4.117040805213491E-1
 8.152337457825000E9     1.816831293951336E-1    5.091569326843052E-1   -2.958991303424197E-3    1.668993953501626E-3   -2.960715701498819E-3    1.710168273498014E-3    3.039408517019633E-1    4.116547998984527E-1
 8.152340155250000E9     1.818170184748096E-1    5.089514702157419E-1   -2.932529963687390E-3    1.646363139476003E-3   -2.947486240047530E-3    1.709908640810174E-3    3.041535692284591E-1    4.114060417398641E-1
