#  HZ   S   RI   R     50.00 
! Rohde & Schwarz Vector Network Analyzer 
! Rohde-Schwarz,ZNB20-2Port,1311601062101988,3.16
! Created: UTC 3/21/2024, 1:19:20 AM
! freq[Hz]                re:S11                  im:S11                  re:S21                  im:S21                  re:S12                  im:S12                  re:S22                  im:S22
 8.152215046000000E9     1.717501697899446E-1    5.125377447788796E-1   -2.748767510966150E-3    1.390512332440359E-3   -2.744699738661592E-3    1.453332112836008E-3    2.974875799537608E-1    4.165837157209090E-1
 8.152217337625000E9     1.719876723602457E-1    5.124769982758537E-1   -2.737945346380330E-3    1.421235881550017E-3   -2.748396753149037E-3    1.457944855218531E-3    2.976782292250988E-1    4.165116765745956E-1
 8.152219629250000E9     1.721674642809544E-1    5.123817448642353E-1   -2.761972508582813E-3    1.422531501792442E-3   -2.774997012233220E-3    1.463846650625151E-3    2.976829897175310E-1    4.162825393536795E-1
 8.152221920875000E9     1.723249696501201E-1    5.123262943277633E-1   -2.746899708266501E-3    1.409905606599859E-3   -2.782325214084560E-3    1.467172916733523E-3    2.978957283860281E-1    4.161732092836538E-1
 8.152224212500000E9     1.723927525692888E-1    5.123017492300210E-1   -2.744036443097398E-3    1.408245293367416E-3   -2.765694691363769E-3    1.480504432717523E-3    2.980274185005468E-1    4.161027608112345E-1
 8.152226504125000E9     1.727141748028030E-1    5.121304194195809E-1   -2.766993168806854E-3    1.415087041427777E-3   -2.778743639320169E-3    1.501297014853236E-3    2.981263125436237E-1    4.159882944228156E-1
 8.152228795750000E9     1.728247513753445E-1    5.121386410030044E-1   -2.772427751665541E-3    1.452220445017907E-3   -2.741543737258070E-3    1.464216773334509E-3    2.982092247403670E-1    4.158980480339698E-1
 8.152231087375000E9     1.729955609047455E-1    5.122482509853319E-1   -2.780337354099988E-3    1.429146944677328E-3   -2.783022787749287E-3    1.516459766411591E-3    2.984941461552725E-1    4.158982027795453E-1
 8.152233379000000E9     1.731716305101325E-1    5.121084183112919E-1   -2.767421289111968E-3    1.435781221188298E-3   -2.762125750860422E-3    1.473512352302646E-3    2.984473342852967E-1    4.157031194912616E-1
 8.152235670625000E9     1.733511656618316E-1    5.121193958009036E-1   -2.776368698233032E-3    1.441416412108898E-3   -2.766338759904808E-3    1.481672924264586E-3    2.986926923889940E-1    4.156209217845441E-1
 8.152237962250000E9     1.734795207553529E-1    5.119574141569743E-1   -2.781825681291546E-3    1.461162021676934E-3   -2.765459713128553E-3    1.485401210871227E-3    2.986872704352161E-1    4.155857627185161E-1
 8.152240253875000E9     1.736739404709597E-1    5.119726948088791E-1   -2.793548913178144E-3    1.447792032549782E-3   -2.771638823319322E-3    1.495250591203944E-3    2.990090968561644E-1    4.154611668260474E-1
 8.152242545500000E9     1.738202893942256E-1    5.118004707644139E-1   -2.759432687059428E-3    1.457408367047249E-3   -2.780877203248670E-3    1.482812956707438E-3    2.988748196113970E-1    4.153632103214326E-1
 8.152244837125000E9     1.740412866321486E-1    5.119166931710163E-1   -2.779724057224279E-3    1.452354548985848E-3   -2.775071678162672E-3    1.501393975842556E-3    2.990958047303375E-1    4.152337797038055E-1
 8.152247128750000E9     1.741631427971454E-1    5.116382655658747E-1   -2.775061621662498E-3    1.447039759590084E-3   -2.785658551356378E-3    1.508208456532503E-3    2.991930120997071E-1    4.151793845411308E-1
 8.152249420375000E9     1.743973994001315E-1    5.116522224546505E-1   -2.758552007874505E-3    1.462444918676335E-3   -2.754805712300930E-3    1.513172378601791E-3    2.992974406360216E-1    4.151824737649722E-1
 8.152251712000000E9     1.745252025215324E-1    5.116222207678158E-1   -2.780361287799598E-3    1.481659767655463E-3   -2.811977721133986E-3    1.500814743555673E-3    2.994252931471281E-1    4.150134784266437E-1
 8.152254003625000E9     1.747163273179132E-1    5.115310174936345E-1   -2.787318850865415E-3    1.472596927861016E-3   -2.766218620557661E-3    1.540364544594187E-3    2.994952252030463E-1    4.149437901547324E-1
 8.152256295250000E9     1.749000812240387E-1    5.114538409154931E-1   -2.799623922936801E-3    1.463517131922220E-3   -2.779607228056550E-3    1.531243582958290E-3    2.997855935661013E-1    4.149234170201699E-1
 8.152258586875000E9     1.749809261795706E-1    5.113466899656774E-1   -2.796444718574168E-3    1.484167177424211E-3   -2.791892534929597E-3    1.547732775067501E-3    2.998654240927103E-1    4.148105972260248E-1
 8.152260878500000E9     1.751411150063960E-1    5.113848057491871E-1   -2.789456383760966E-3    1.460146633059240E-3   -2.790637650492841E-3    1.523400076635255E-3    3.000101802425346E-1    4.148038111377875E-1
 8.152263170125000E9     1.752916594685393E-1    5.114200171792501E-1   -2.774789868522402E-3    1.479936123778664E-3   -2.787715372981465E-3    1.503987218528235E-3    3.000530926873926E-1    4.145973755335919E-1
 8.152265461750000E9     1.754440845823526E-1    5.113127888014657E-1   -2.778637404017745E-3    1.476435809855085E-3   -2.785806396686869E-3    1.538959155112793E-3    3.001956742781122E-1    4.144194201480811E-1
 8.152267753375000E9     1.757055493271215E-1    5.112508081212467E-1   -2.792049355012209E-3    1.492001328053034E-3   -2.778965449262718E-3    1.549725232488088E-3    3.001770062240332E-1    4.145178424121708E-1
 8.152270045000000E9     1.758645188544953E-1    5.112688436091767E-1   -2.799190395344838E-3    1.472662969284608E-3   -2.833975156100958E-3    1.523081792906526E-3    3.005622829109006E-1    4.144055415238195E-1
 8.152272336625000E9     1.760347251471306E-1    5.111258637828022E-1   -2.835534701424543E-3    1.489649826170439E-3   -2.821105564522082E-3    1.554869650823111E-3    3.005091481433775E-1    4.142896349118134E-1
 8.152274628250000E9     1.762136887940937E-1    5.111789358863170E-1   -2.812340633737127E-3    1.498591908498193E-3   -2.826061581022673E-3    1.544776074188075E-3    3.005520593213901E-1    4.141734063774266E-1
 8.152276919875000E9     1.763793894438326E-1    5.109168836497519E-1   -2.824622696615682E-3    1.511539986989025E-3   -2.841652359037790E-3    1.567316419297430E-3    3.006819012588577E-1    4.140750854816927E-1
 8.152279211500000E9     1.765782388905870E-1    5.109469364374233E-1   -2.821622246900470E-3    1.525526847509851E-3   -2.791638678877545E-3    1.556101578254388E-3    3.008190848211883E-1    4.139912239622612E-1
 8.152281503125000E9     1.766571160108316E-1    5.107779761902791E-1   -2.832447781186615E-3    1.530260221058446E-3   -2.825386178894275E-3    1.586341113466779E-3    3.009540705761554E-1    4.139032826364736E-1
 8.152283794750000E9     1.769205213445623E-1    5.109584418822755E-1   -2.839063297891830E-3    1.530790416916622E-3   -2.832780213171718E-3    1.591103182822362E-3    3.010713106911997E-1    4.137918480199996E-1
 8.152286086375000E9     1.771006029125500E-1    5.107944328036360E-1   -2.828917263974888E-3    1.509465647419012E-3   -2.797541787415264E-3    1.556868224223670E-3    3.012473596886961E-1    4.137820516043265E-1
 8.152288378000000E9     1.772727149937649E-1    5.106304399009033E-1   -2.836079242795615E-3    1.491209780675140E-3   -2.863043035248649E-3    1.538868933128185E-3    3.012514536574298E-1    4.136332304435603E-1
 8.152290669625000E9     1.775500273741653E-1    5.106817336204481E-1   -2.831965115869417E-3    1.522794356979816E-3   -2.824702234387405E-3    1.595487721036652E-3    3.015841945153653E-1    4.134932964508890E-1
 8.152292961250000E9     1.775169622268457E-1    5.105755481473890E-1   -2.819234393544240E-3    1.534158455342828E-3   -2.861692989608683E-3    1.577029174969525E-3    3.015257781574165E-1    4.134199716820393E-1
 8.152295252875000E9     1.777730107102041E-1    5.105058760154175E-1   -2.810028336500583E-3    1.518784499820185E-3   -2.846458195848640E-3    1.587465725560192E-3    3.016892503232887E-1    4.134530245379584E-1
 8.152297544500000E9     1.779372555242429E-1    5.104664651068407E-1   -2.826374467158231E-3    1.509333273060960E-3   -2.828525805338411E-3    1.562117284297589E-3    3.017889098175944E-1    4.132288745977897E-1
 8.152299836125000E9     1.780293109788573E-1    5.104514667930483E-1   -2.844747350404107E-3    1.542146928512620E-3   -2.838885931134766E-3    1.596917286970149E-3    3.019234283357476E-1    4.131451075794371E-1
 8.152302127750000E9     1.783185315576459E-1    5.104514515837041E-1   -2.868132787538269E-3    1.539044855887628E-3   -2.851840815108721E-3    1.592995649405743E-3    3.019237362747832E-1    4.132059366616608E-1
 8.152304419375000E9     1.785248766308488E-1    5.103546184796148E-1   -2.841114857571001E-3    1.533100362048122E-3   -2.861100818848224E-3    1.607338552676510E-3    3.020311676527262E-1    4.130922678241519E-1
 8.152306711000000E9     1.784962570786495E-1    5.103183175238126E-1   -2.844395472773193E-3    1.537360069158280E-3   -2.848467508640599E-3    1.625728811439398E-3    3.022049935720368E-1    4.129840482589657E-1
 8.152309002625000E9     1.787676025447612E-1    5.101376375333335E-1   -2.865928077877090E-3    1.563966936476884E-3   -2.840014697449606E-3    1.599117672382599E-3    3.022787203513570E-1    4.128394678136585E-1
 8.152311294250000E9     1.789926901182555E-1    5.100971827541891E-1   -2.876040132222436E-3    1.544914513526459E-3   -2.818411918790556E-3    1.607140550358244E-3    3.023983286634226E-1    4.127298720375074E-1
 8.152313585875000E9     1.791608962170801E-1    5.099695081578743E-1   -2.873540114402673E-3    1.568859921834736E-3   -2.851017676784633E-3    1.624750619319612E-3    3.025960657217402E-1    4.126135686089505E-1
 8.152315877500000E9     1.792625204377551E-1    5.101008302817993E-1   -2.866609762103283E-3    1.562292947562313E-3   -2.888373954378398E-3    1.621737860145523E-3    3.026048093783251E-1    4.124984375380456E-1
 8.152318169125000E9     1.794794275480894E-1    5.100258340062582E-1   -2.858332370953546E-3    1.575830726435632E-3   -2.878428453925754E-3    1.614937501208904E-3    3.028255365491049E-1    4.125479535715623E-1
 8.152320460750000E9     1.796986891762863E-1    5.097431602954768E-1   -2.871710612328499E-3    1.554742547560163E-3   -2.912529105567982E-3    1.590233119356781E-3    3.029240674266530E-1    4.123308582771232E-1
 8.152322752375000E9     1.798946697566140E-1    5.097763922841365E-1   -2.896060001543761E-3    1.575342222359346E-3   -2.865367322364142E-3    1.629510888245139E-3    3.030614659081382E-1    4.121088619823793E-1
 8.152325044000000E9     1.799818094849352E-1    5.097529355410364E-1   -2.869758374125003E-3    1.583131229768720E-3   -2.887007391994992E-3    1.627100691952910E-3    3.032182432849608E-1    4.121594463519049E-1
 8.152327335625000E9     1.800454260381874E-1    5.097362720288696E-1   -2.851047911314665E-3    1.579490998096421E-3   -2.915743088659592E-3    1.645521755758805E-3    3.033613181358618E-1    4.121122980796116E-1
 8.152329627250000E9     1.803899391754542E-1    5.096464785560663E-1   -2.859238869484417E-3    1.583637797284759E-3   -2.862889902634359E-3    1.656209429405899E-3    3.035312112481708E-1    4.120000108195021E-1
 8.152331918875000E9     1.804990105258756E-1    5.095822044789945E-1   -2.893737691615178E-3    1.602498370461824E-3   -2.915543227676430E-3    1.615268027784635E-3    3.035678362110669E-1    4.119718878816420E-1
 8.152334210500000E9     1.806775823429480E-1    5.094275325659910E-1   -2.921292519989992E-3    1.572451533143202E-3   -2.892817066441480E-3    1.626406273769418E-3    3.036865440777748E-1    4.118656872476670E-1
 8.152336502125000E9     1.809250755980633E-1    5.094818854786507E-1   -2.886095355165296E-3    1.592761842421524E-3   -2.908397301515638E-3    1.664040722068117E-3    3.037292413546752E-1    4.118230286179320E-1
 8.152338793750000E9     1.810464584877927E-1    5.093939489364619E-1   -2.899164943348451E-3    1.585717829441951E-3   -2.874633849087756E-3    1.663546960445891E-3    3.039019409432528E-1    4.115543352113702E-1
 8.152341085375000E9     1.811705938996622E-1    5.094864247348438E-1   -2.900815929522299E-3    1.612144793539245E-3   -2.915259282303708E-3    1.671627885714224E-3    3.038573571444734E-1    4.114681745416813E-1
 8.152343377000000E9     1.813646154749211E-1    5.093406429001865E-1   -2.905654234355980E-3    1.590563088985026E-3   -2.942361329210099E-3    1.659612739343877E-3    3.040490314489879E-1    4.114443382670153E-1
 8.152345668625000E9     1.815489251447172E-1    5.091464244304222E-1   -2.924369418036761E-3    1.627784966081295E-3   -2.915860182658873E-3    1.682976962161348E-3    3.042496081703205E-1    4.113422831720198E-1
 8.152347960250000E9     1.817522410223910E-1    5.090880490648911E-1   -2.896632617083527E-3    1.623223482205337E-3   -2.926873199006070E-3    1.664456145117880E-3    3.043189791511992E-1    4.111963207166798E-1
 8.152350251875000E9     1.819799237237794E-1    5.091420057380308E-1   -2.917881084977701E-3    1.628909596453034E-3   -2.928884042427193E-3    1.701759538437562E-3    3.044881265069274E-1    4.111071120773106E-1
 8.152352543500000E9     1.819977486627291E-1    5.091632785049316E-1   -2.934583575166872E-3    1.611858679313042E-3   -2.935836448718821E-3    1.678998727417144E-3    3.044583246323230E-1    4.109875412130610E-1
 8.152354835125000E9     1.822343966302956E-1    5.088730239873263E-1   -2.947491302469108E-3    1.659125533003662E-3   -2.918051147534293E-3    1.679714816761253E-3    3.046558778929866E-1    4.108616344749053E-1
 8.152357126750000E9     1.824270912220272E-1    5.089104179724858E-1   -2.927009209100690E-3    1.630083820976428E-3   -2.968606119959619E-3    1.721798019422675E-3    3.047064514131936E-1    4.109586152862039E-1
 8.152359418375000E9     1.826578302524434E-1    5.088114247572535E-1   -2.940529190523364E-3    1.671721282467114E-3   -2.930851932514933E-3    1.664435985052375E-3    3.047801796800858E-1    4.108331681585436E-1
 8.152361710000000E9     1.827418632401687E-1    5.087729132277663E-1   -2.968155007758779E-3    1.660444497881013E-3   -2.935198069716652E-3    1.698501899067641E-3    3.050575434099824E-1    4.108469050106556E-1
 8.152364001625000E9     1.829355123537295E-1    5.085650467925102E-1   -2.949795353533210E-3    1.646969658911455E-3   -2.926851824865111E-3    1.693779587669769E-3    3.051521301035706E-1    4.105983929905301E-1
 8.152366293250000E9     1.831574664255511E-1    5.086754018718048E-1   -2.955778734120746E-3    1.638148792307246E-3   -2.927948226062712E-3    1.726519668486390E-3    3.051764319948143E-1    4.105547465559149E-1
 8.152368584875000E9     1.832808739916776E-1    5.085651727319205E-1   -2.948177431041234E-3    1.656359884523093E-3   -2.933181393255634E-3    1.713253543920645E-3    3.054654555800567E-1    4.105182811572220E-1
 8.152370876500000E9     1.835555302308086E-1    5.084527830296208E-1   -2.953500855197026E-3    1.693145819134244E-3   -2.968278694191636E-3    1.740222776709284E-3    3.054545432145155E-1    4.104054000646290E-1
 8.152373168125000E9     1.836444172875889E-1    5.083083617449118E-1   -2.974919636594071E-3    1.695199062367419E-3   -2.969206500628803E-3    1.740579313176169E-3    3.056326771213072E-1    4.103626582195904E-1
 8.152375459750000E9     1.838285950128419E-1    5.082644022435163E-1   -2.963785989083173E-3    1.693683182398854E-3   -2.953744782787380E-3    1.742953161828356E-3    3.057042434136638E-1    4.100940029215325E-1
 8.152377751375000E9     1.840586049345863E-1    5.082728794462560E-1   -2.983136639469827E-3    1.720737740113986E-3   -2.968966959619894E-3    1.759420888588573E-3    3.057685712615690E-1    4.100840735131798E-1
 8.152380043000000E9     1.841610094121050E-1    5.082040525695751E-1   -2.976956745999768E-3    1.697952692691502E-3   -2.954552163492324E-3    1.739382685517916E-3    3.059663681800479E-1    4.100657173835119E-1
 8.152382334625000E9     1.844293636920572E-1    5.081687879129052E-1   -2.974438138770500E-3    1.692185881020887E-3   -2.984924319701209E-3    1.745389086999136E-3    3.061265594292765E-1    4.098148294059915E-1
 8.152384626250000E9     1.845585136966305E-1    5.080098178549689E-1   -2.993419908240225E-3    1.707599541851741E-3   -2.997123594360879E-3    1.767411687931057E-3    3.061053719613918E-1    4.097668764405263E-1
 8.152386917875000E9     1.846949937668187E-1    5.080023897482329E-1   -2.998377320636640E-3    1.686950765246098E-3   -3.030059646270237E-3    1.771321820065147E-3    3.064710178535385E-1    4.097684545422055E-1
 8.152389209500000E9     1.847909231064000E-1    5.079324972013338E-1   -2.997883030318004E-3    1.735635388461905E-3   -3.008599322760940E-3    1.772996893719107E-3    3.063928348082486E-1    4.096931195433435E-1
 8.152391501125000E9     1.850735030210307E-1    5.078189823996114E-1   -3.018743112109287E-3    1.728482456089591E-3   -3.014865127968245E-3    1.763943607413632E-3    3.065198634090017E-1    4.096808847654779E-1
 8.152393792750000E9     1.853937307158192E-1    5.077154135953025E-1   -3.013656701047647E-3    1.718999327929890E-3   -2.997033339209546E-3    1.797159697649860E-3    3.066683790161055E-1    4.093879008494843E-1
 8.152396084375000E9     1.855080349513216E-1    5.076615983961220E-1   -3.001021035338817E-3    1.744430232343904E-3   -2.989283748743477E-3    1.787682554698287E-3    3.068605555591996E-1    4.093606569481000E-1
 8.152398376000000E9     1.858539561923288E-1    5.076164654460807E-1   -3.012714170400897E-3    1.760990402261230E-3   -3.011551024131670E-3    1.799088184765057E-3    3.069022865237914E-1    4.093371271465743E-1
 8.152400667625000E9     1.859018514484710E-1    5.076030298422398E-1   -3.049067930485263E-3    1.738743527701084E-3   -3.005699902881532E-3    1.792603778883745E-3    3.069801667326399E-1    4.091569043707728E-1
 8.152402959250000E9     1.862282751600554E-1    5.074874616409151E-1   -3.025992794583227E-3    1.766978506812571E-3   -3.007478819803490E-3    1.826656317134741E-3    3.071284272876352E-1    4.090718480562791E-1
 8.152405250875000E9     1.862490234460677E-1    5.073290666019933E-1   -3.047733103098911E-3    1.765674250505836E-3   -3.042610845466834E-3    1.792562108371876E-3    3.073342010536161E-1    4.089664778364708E-1
 8.152407542500000E9     1.864674564725857E-1    5.072688163120866E-1   -3.025162241227715E-3    1.787811063857379E-3   -3.043649055377898E-3    1.835484361306629E-3    3.074817034935485E-1    4.088551227584086E-1
 8.152409834125000E9     1.866499567217056E-1    5.071498077950919E-1   -3.073634100598856E-3    1.768777644977774E-3   -3.019684001411258E-3    1.804126464277214E-3    3.075074763806569E-1    4.089049324271787E-1
 8.152412125750000E9     1.869243482782867E-1    5.071459649474059E-1   -3.046193463003880E-3    1.797753046477814E-3   -3.064875015067736E-3    1.823812831531311E-3    3.075163833060255E-1    4.087271268517829E-1
 8.152414417375000E9     1.869522268622499E-1    5.071150123492641E-1   -3.049665322289986E-3    1.810221534052616E-3   -3.040125718406473E-3    1.860151866524820E-3    3.076763983237674E-1    4.085877558385958E-1
 8.152416709000000E9     1.872299346249102E-1    5.070638034872614E-1   -3.075686637237853E-3    1.809061194868284E-3   -3.074644216171654E-3    1.860491486891006E-3    3.078697890153281E-1    4.086271825774949E-1
 8.152419000625000E9     1.875093005260766E-1    5.069657542665196E-1   -3.075787074912174E-3    1.797769445930492E-3   -3.055645668221833E-3    1.845975860049763E-3    3.080377126748671E-1    4.084170802762510E-1
 8.152421292250000E9     1.875792199190969E-1    5.067939443149504E-1   -3.077942867861139E-3    1.809870475701397E-3   -3.070343567309635E-3    1.879557673827923E-3    3.080203814847604E-1    4.082424993008414E-1
