#  HZ   S   RI   R     50.00 
! Rohde & Schwarz Vector Network Analyzer 
! Rohde-Schwarz,ZNB20-2Port,1311601062101988,3.16
! Created: UTC 3/21/2024, 1:19:43 AM
! freq[Hz]                re:S11                  im:S11                  re:S21                  im:S21                  re:S12                  im:S12                  re:S22                  im:S22
 8.152307855000000E9     1.781207666648671E-1    5.103887081474736E-1   -2.820328641214654E-3    1.536478326963682E-3   -2.823480537336630E-3    1.556080362819783E-3    3.023806345722747E-1    4.129392108575594E-1
 8.152309811600000E9     1.782687846057847E-1    5.104060863359821E-1   -2.828677519099157E-3    1.510604377119766E-3   -2.818766726977745E-3    1.552732125935612E-3    3.023513536527369E-1    4.127372695131927E-1
 8.152311768200000E9     1.784480391450550E-1    5.103170208137252E-1   -2.844365920070418E-3    1.502103276254183E-3   -2.803131433897236E-3    1.587522249798724E-3    3.024125455552824E-1    4.127797035870253E-1
 8.152313724800000E9     1.786027604252296E-1    5.102676093989953E-1   -2.814194791072077E-3    1.520911357490449E-3   -2.817977358688319E-3    1.561584863376862E-3    3.026701532488968E-1    4.124171325684596E-1
 8.152315681400000E9     1.787294316581876E-1    5.101635655035108E-1   -2.861086136225485E-3    1.516732628185396E-3   -2.824628956487781E-3    1.594547607470976E-3    3.026726341234605E-1    4.125633262943310E-1
 8.152317638000000E9     1.789599937946072E-1    5.101425970686682E-1   -2.842249632366992E-3    1.515385695886568E-3   -2.857035567899835E-3    1.597782413854814E-3    3.026946145710886E-1    4.124654143398264E-1
 8.152319594600000E9     1.791514137224038E-1    5.100355466209870E-1   -2.823045761896891E-3    1.503495287181447E-3   -2.849086437112004E-3    1.604467268953215E-3    3.029537615677930E-1    4.124090328707771E-1
 8.152321551200000E9     1.791771378162270E-1    5.099997430401760E-1   -2.837073189116275E-3    1.531957776732297E-3   -2.848968356272727E-3    1.554344705129366E-3    3.030180133745464E-1    4.124604245552140E-1
 8.152323507800000E9     1.792748938880173E-1    5.100115336663206E-1   -2.856769577176948E-3    1.537718977853090E-3   -2.843909602526516E-3    1.591402895946926E-3    3.031689334487707E-1    4.123262825152946E-1
 8.152325464400000E9     1.794407707297389E-1    5.098688443818147E-1   -2.860359998096894E-3    1.525835454946270E-3   -2.845703791560180E-3    1.599637156604339E-3    3.032842669794896E-1    4.121327374717630E-1
 8.152327421000000E9     1.796819255497031E-1    5.098567128833399E-1   -2.868315414365448E-3    1.530395636660982E-3   -2.856446222464678E-3    1.601274134489081E-3    3.033388496290929E-1    4.121209684092551E-1
 8.152329377600000E9     1.797461114115669E-1    5.098007955363355E-1   -2.866333447054178E-3    1.536813088731571E-3   -2.859089105512953E-3    1.594843271090837E-3    3.032979941254570E-1    4.120919397979099E-1
 8.152331334200000E9     1.798442508277043E-1    5.097725158495606E-1   -2.824594824421546E-3    1.571375711400189E-3   -2.842501618361176E-3    1.628249865099943E-3    3.033911092194118E-1    4.119760019717205E-1
 8.152333290800000E9     1.803210946562265E-1    5.098113857699017E-1   -2.836463104168370E-3    1.563954195001820E-3   -2.865690363997293E-3    1.615543236819522E-3    3.035159537646373E-1    4.118384100088192E-1
 8.152335247400000E9     1.802549779055240E-1    5.096278196403922E-1   -2.843861830624956E-3    1.571718204950771E-3   -2.853141904457360E-3    1.600949172402172E-3    3.036939704386259E-1    4.118625778787102E-1
 8.152337204000000E9     1.804252684756185E-1    5.096741289485137E-1   -2.883553668621548E-3    1.536785919377081E-3   -2.884900891443949E-3    1.611989723960518E-3    3.034897470337304E-1    4.116739183734918E-1
 8.152339160600000E9     1.804786359028596E-1    5.095389409409187E-1   -2.861505377096371E-3    1.547301195295175E-3   -2.849946490022835E-3    1.633289855876671E-3    3.039456993432945E-1    4.116638751869258E-1
 8.152341117200000E9     1.807237775746628E-1    5.095401840978244E-1   -2.880500778446390E-3    1.582616258797446E-3   -2.851197735624533E-3    1.627181517507206E-3    3.038392674082645E-1    4.114940451662485E-1
 8.152343073800000E9     1.809783654092414E-1    5.094477481419913E-1   -2.867600094919234E-3    1.573649175933944E-3   -2.855976127882988E-3    1.647061274581498E-3    3.041027013030150E-1    4.114565162708991E-1
 8.152345030400000E9     1.809097936062825E-1    5.095053121295806E-1   -2.867849166430530E-3    1.571002719212696E-3   -2.896953053832696E-3    1.626720159566674E-3    3.041174379853042E-1    4.114455265769613E-1
 8.152346987000000E9     1.812128737978025E-1    5.093387790310477E-1   -2.877050991361866E-3    1.575338514173259E-3   -2.901833567925397E-3    1.619626048234222E-3    3.042766643697165E-1    4.113932935999843E-1
 8.152348943600000E9     1.814119903709611E-1    5.093762581957412E-1   -2.865177145688107E-3    1.592460468592951E-3   -2.881490490156443E-3    1.608550559116246E-3    3.043292846176591E-1    4.113789574383875E-1
 8.152350900200000E9     1.814740870785068E-1    5.091682408153175E-1   -2.883184954328951E-3    1.590530678073129E-3   -2.893307710399362E-3    1.612953821462453E-3    3.044047129050682E-1    4.111591464846056E-1
 8.152352856800000E9     1.815271043252926E-1    5.092365335478993E-1   -2.858972660122346E-3    1.583382137173621E-3   -2.892838054129666E-3    1.632941335057649E-3    3.045048295685468E-1    4.110851382799333E-1
 8.152354813400000E9     1.818582905456145E-1    5.090680177745858E-1   -2.882043691685376E-3    1.604250562153145E-3   -2.903294257798116E-3    1.671724794088568E-3    3.047860063540603E-1    4.109705855006369E-1
 8.152356770000000E9     1.819031008817056E-1    5.091024389408271E-1   -2.912665668882232E-3    1.609674334233120E-3   -2.913486144157757E-3    1.614928477583836E-3    3.047919936216031E-1    4.109790574852912E-1
 8.152358726600000E9     1.820940691338124E-1    5.090521716489309E-1   -2.907799793800431E-3    1.590441054510267E-3   -2.893079725285763E-3    1.679372126811742E-3    3.049296354281476E-1    4.109903483297607E-1
 8.152360683200000E9     1.821944937623438E-1    5.090197755008448E-1   -2.887101294241604E-3    1.598427462641555E-3   -2.889452870380488E-3    1.670369342964273E-3    3.049425000200495E-1    4.108808357072420E-1
 8.152362639800000E9     1.823485149143109E-1    5.090615697033015E-1   -2.890942465409398E-3    1.608579270573271E-3   -2.915728645882226E-3    1.653842634703616E-3    3.049906849440090E-1    4.108727586234750E-1
 8.152364596400000E9     1.824625589592364E-1    5.089402045761756E-1   -2.909929769805323E-3    1.612398529262720E-3   -2.949044157950529E-3    1.650297980657587E-3    3.051505638213057E-1    4.106940615670794E-1
 8.152366553000000E9     1.827121925437294E-1    5.087682381766446E-1   -2.911082436573458E-3    1.630557445891088E-3   -2.910457588930997E-3    1.685070472418614E-3    3.052567350473225E-1    4.105051205170577E-1
 8.152368509600000E9     1.827825122270577E-1    5.088648739025811E-1   -2.908929334839655E-3    1.618517656602797E-3   -2.934079791193681E-3    1.680846556343459E-3    3.053371084458596E-1    4.104432838791819E-1
 8.152370466200000E9     1.829551012325804E-1    5.086098766974483E-1   -2.913340937750190E-3    1.619491712496677E-3   -2.914675860244275E-3    1.666929697146992E-3    3.054149436981982E-1    4.103806899353012E-1
 8.152372422800000E9     1.831562092850006E-1    5.086013880643830E-1   -2.934017303601161E-3    1.631117059211519E-3   -2.899908683868264E-3    1.669371010533048E-3    3.055075490926962E-1    4.103297231654523E-1
 8.152374379400000E9     1.832822745988273E-1    5.085554163282203E-1   -2.928267959566498E-3    1.643496968292781E-3   -2.902598469949667E-3    1.694779331590278E-3    3.056939498383370E-1    4.104158454218635E-1
 8.152376336000000E9     1.834468298184225E-1    5.086075690108909E-1   -2.930032709195242E-3    1.627579685548379E-3   -2.942415576078522E-3    1.683211273325680E-3    3.058509949783958E-1    4.100384434799956E-1
 8.152378292600000E9     1.836487061996178E-1    5.085341240575784E-1   -2.903110518527718E-3    1.614459435515117E-3   -2.931322604337930E-3    1.706856697679166E-3    3.057618659140042E-1    4.101018102143505E-1
 8.152380249200000E9     1.836949291367405E-1    5.084126999613264E-1   -2.929123270548943E-3    1.652258407235500E-3   -2.956854300319686E-3    1.692987288511456E-3    3.058423333837580E-1    4.098660432810644E-1
 8.152382205800000E9     1.838948000859891E-1    5.084230146634480E-1   -2.927550599271743E-3    1.633503474328943E-3   -2.931287770126565E-3    1.723740866759977E-3    3.059792512580746E-1    4.098996734012031E-1
 8.152384162400000E9     1.841366641939154E-1    5.081844316450193E-1   -2.944850457518868E-3    1.652272084184433E-3   -2.957246474970819E-3    1.731219479257518E-3    3.060506950479546E-1    4.099780256236634E-1
 8.152386119000000E9     1.841378779888216E-1    5.082367807585079E-1   -2.917065603166250E-3    1.655394927348112E-3   -2.958366729739515E-3    1.728679626802821E-3    3.061415058699852E-1    4.097760886726170E-1
 8.152388075600000E9     1.842517724693434E-1    5.082474813955492E-1   -2.956543283891453E-3    1.668969637608175E-3   -2.932782704945958E-3    1.736136462393486E-3    3.063232317238991E-1    4.096202900334885E-1
 8.152390032200000E9     1.844994180729779E-1    5.081818254326135E-1   -2.951970512651187E-3    1.685932939915093E-3   -2.956565298467129E-3    1.713739058362115E-3    3.064421076978177E-1    4.097243385540196E-1
 8.152391988800000E9     1.846413166489910E-1    5.081013677906763E-1   -2.977965308774832E-3    1.664728151843012E-3   -2.964289343900140E-3    1.743167721117527E-3    3.065596585931863E-1    4.094881907949238E-1
 8.152393945400000E9     1.848490773798355E-1    5.080145789211352E-1   -2.992370101972185E-3    1.656327681792950E-3   -2.948957891719411E-3    1.694709175771902E-3    3.065735016081730E-1    4.093733457081819E-1
 8.152395902000000E9     1.849971012740522E-1    5.079294282842469E-1   -2.988170886290051E-3    1.676897637946541E-3   -2.976046596072841E-3    1.742791361056503E-3    3.067735505096634E-1    4.094998177655162E-1
 8.152397858600000E9     1.850749281416549E-1    5.079760496335104E-1   -2.972267381137088E-3    1.677189414390591E-3   -2.967746209311816E-3    1.720703598662478E-3    3.068603626290480E-1    4.094347942482963E-1
 8.152399815200000E9     1.852382262301390E-1    5.078615022101969E-1   -2.949728197361219E-3    1.685050334716310E-3   -2.978917976245471E-3    1.751080630389943E-3    3.069667223142494E-1    4.092198038566346E-1
 8.152401771800000E9     1.854117142697587E-1    5.076488633042644E-1   -2.973818311959195E-3    1.699609772874750E-3   -2.943285358640178E-3    1.761583515843405E-3    3.068731033558679E-1    4.092924715898684E-1
 8.152403728400000E9     1.855323021589854E-1    5.077462813366550E-1   -2.994697389195828E-3    1.716589816845563E-3   -3.017987106757139E-3    1.750511562330508E-3    3.071519128682009E-1    4.091606198862668E-1
 8.152405685000000E9     1.856857641797696E-1    5.075922391225099E-1   -2.982601664163464E-3    1.691249701386934E-3   -2.993388099815671E-3    1.749975244109449E-3    3.071958362559254E-1    4.090490528568921E-1
 8.152407641600000E9     1.858876668673747E-1    5.076770083918833E-1   -2.987843569182802E-3    1.715994490564018E-3   -2.993713718086576E-3    1.768245991272181E-3    3.073575649004333E-1    4.089617876195249E-1
 8.152409598200000E9     1.860981976903748E-1    5.074681142936247E-1   -2.981946131104544E-3    1.709799093903428E-3   -2.992627362004355E-3    1.794016395733647E-3    3.075704772830287E-1    4.090149980134253E-1
 8.152411554800000E9     1.862058281682361E-1    5.075569039780935E-1   -3.002499795659443E-3    1.727249610193053E-3   -2.962130046645445E-3    1.792473945538464E-3    3.073687071273857E-1    4.088190326718328E-1
 8.152413511400000E9     1.863128555755396E-1    5.074384164737067E-1   -2.998642498405420E-3    1.714453567687343E-3   -2.986814019895198E-3    1.804390646816652E-3    3.075719802447261E-1    4.087273996280543E-1
 8.152415468000000E9     1.864806755758955E-1    5.072825165532808E-1   -3.022303868525636E-3    1.729694973792870E-3   -2.987490897196078E-3    1.795294026349408E-3    3.078851947044340E-1    4.086394708446884E-1
 8.152417424600000E9     1.866766661797427E-1    5.071583242741123E-1   -3.018773420255417E-3    1.717940648060814E-3   -2.980296991786445E-3    1.799339469178192E-3    3.076977572651956E-1    4.085422265736269E-1
 8.152419381200000E9     1.869163264013755E-1    5.072347840582280E-1   -3.015883557557552E-3    1.754526264901349E-3   -3.019814112331820E-3    1.761291931490814E-3    3.079671978294261E-1    4.086191422984199E-1
 8.152421337800000E9     1.870595812941592E-1    5.071685983325370E-1   -3.025326040025467E-3    1.758519057545862E-3   -3.015380517254751E-3    1.801535125268832E-3    3.078853117857702E-1    4.083693561754377E-1
 8.152423294400000E9     1.871704521779765E-1    5.071554103119592E-1   -3.012566750915463E-3    1.758828677860557E-3   -3.029772375638355E-3    1.780171230467980E-3    3.081937328705339E-1    4.083521058574461E-1
 8.152425251000000E9     1.873719857230698E-1    5.070912855064379E-1   -3.017970163697981E-3    1.743752024738395E-3   -3.018926872491549E-3    1.795264298458561E-3    3.081344153926147E-1    4.082571915470258E-1
 8.152427207600000E9     1.874976139026520E-1    5.069670932659708E-1   -3.047192632120183E-3    1.772452631026763E-3   -3.041163669820894E-3    1.810618304460287E-3    3.083782887492739E-1    4.081638971776453E-1
 8.152429164200000E9     1.877068438870792E-1    5.069645855015983E-1   -3.048375418581969E-3    1.776415264989803E-3   -3.028061989093085E-3    1.788552768263852E-3    3.083145587236529E-1    4.080359357014958E-1
 8.152431120800000E9     1.877466774537107E-1    5.068913603354811E-1   -3.046401046807447E-3    1.775724624980608E-3   -3.026888898240667E-3    1.837124742363986E-3    3.084620555698762E-1    4.080277967918194E-1
 8.152433077400000E9     1.880567367344391E-1    5.067915734413404E-1   -3.040103545734113E-3    1.789962127698304E-3   -3.057705613374602E-3    1.837706698344307E-3    3.086650542026196E-1    4.079578937178140E-1
 8.152435034000000E9     1.881007044061251E-1    5.068152851152232E-1   -3.073479011783905E-3    1.786332225446622E-3   -3.071330320484194E-3    1.820938959753481E-3    3.086279453279038E-1    4.078962301431286E-1
 8.152436990600000E9     1.883114421460195E-1    5.066432637533015E-1   -3.062643433475136E-3    1.773712243139583E-3   -3.080394728227903E-3    1.860259074291251E-3    3.087974525743200E-1    4.077806506174394E-1
 8.152438947200000E9     1.884509961929270E-1    5.066151731545083E-1   -3.084576875718139E-3    1.793381035909615E-3   -3.066238171478920E-3    1.835766739158756E-3    3.089329879487000E-1    4.076095654630130E-1
 8.152440903800000E9     1.886291093226287E-1    5.064839792000680E-1   -3.065178764746149E-3    1.812648015189386E-3   -3.061807957155938E-3    1.847810791351381E-3    3.088950376607632E-1    4.076822325469829E-1
 8.152442860400000E9     1.887516661475085E-1    5.064603862414025E-1   -3.055284779448299E-3    1.798616718505936E-3   -3.059437880028725E-3    1.887951646649988E-3    3.089578106714626E-1    4.076825370341814E-1
 8.152444817000000E9     1.889366508446049E-1    5.064794489306867E-1   -3.085850381695930E-3    1.823150652250001E-3   -3.057424753659678E-3    1.876752432563220E-3    3.092324985848831E-1    4.075697072181106E-1
 8.152446773600000E9     1.890771956408100E-1    5.063774116030275E-1   -3.081837374363607E-3    1.827851162166330E-3   -3.079960163026026E-3    1.880664580458289E-3    3.093030193772129E-1    4.075045021493591E-1
 8.152448730200000E9     1.893504394297245E-1    5.063125972271730E-1   -3.085475809462986E-3    1.814265697464669E-3   -3.081633376278625E-3    1.895339414922349E-3    3.093929765814831E-1    4.072874225645753E-1
 8.152450686800000E9     1.894321426804969E-1    5.062332694874940E-1   -3.097375589674096E-3    1.834369225833072E-3   -3.102227763743368E-3    1.900117338607832E-3    3.095476269098949E-1    4.071053318589747E-1
 8.152452643400000E9     1.895387260288049E-1    5.062182687253363E-1   -3.116388278178585E-3    1.855695515384964E-3   -3.094475548539577E-3    1.872038264661679E-3    3.095531453422464E-1    4.071800997236600E-1
 8.152454600000000E9     1.897340010816641E-1    5.060696662224833E-1   -3.106191002252018E-3    1.861501247004710E-3   -3.097249414153140E-3    1.887776521991939E-3    3.096636833937070E-1    4.069583681403290E-1
 8.152456556600000E9     1.899804217483593E-1    5.059771734998213E-1   -3.132406304602243E-3    1.833067828685353E-3   -3.104932705398931E-3    1.915949550765594E-3    3.097556373352375E-1    4.069561015292159E-1
 8.152458513200000E9     1.900365568765848E-1    5.059493748858001E-1   -3.132526274095873E-3    1.890138660773846E-3   -3.164150760809034E-3    1.893015761535455E-3    3.099578491521129E-1    4.069687610177316E-1
 8.152460469800000E9     1.901986112672952E-1    5.059395735459162E-1   -3.129214715256191E-3    1.850635289830253E-3   -3.107196555945820E-3    1.889590610009883E-3    3.100089567415044E-1    4.067157227383758E-1
 8.152462426400000E9     1.904135152441843E-1    5.057898375282416E-1   -3.123866775391562E-3    1.855001988293824E-3   -3.103907273327137E-3    1.917415332038361E-3    3.099823126483675E-1    4.068097924451387E-1
 8.152464383000000E9     1.905331459179969E-1    5.057125994674811E-1   -3.137922104933296E-3    1.872940573740803E-3   -3.141697761018509E-3    1.934240552284447E-3    3.101557268145642E-1    4.067042240160273E-1
 8.152466339600000E9     1.908272061228881E-1    5.057032285253448E-1   -3.155347442401233E-3    1.902355927196303E-3   -3.156402181070502E-3    1.931806135993533E-3    3.103881492904847E-1    4.065480879719726E-1
 8.152468296200000E9     1.908770823597153E-1    5.055880436523429E-1   -3.158617453581157E-3    1.901501370834171E-3   -3.147542838625185E-3    1.933199811713222E-3    3.104318622677023E-1    4.065072964130071E-1
 8.152470252800000E9     1.910875903349305E-1    5.055281920217398E-1   -3.129158817300856E-3    1.887380580197510E-3   -3.154651063706138E-3    1.952108314128314E-3    3.105574195441210E-1    4.065465429030064E-1
 8.152472209400000E9     1.912495605364136E-1    5.054276535158143E-1   -3.183135911349484E-3    1.911948032749693E-3   -3.153107453166983E-3    1.980771243152620E-3    3.105718458002572E-1    4.062746664584609E-1
 8.152474166000000E9     1.915018333166813E-1    5.053218439777032E-1   -3.163817316053393E-3    1.928976281892117E-3   -3.172342878858593E-3    1.970900600122151E-3    3.107167780976489E-1    4.062525541427028E-1
 8.152476122600000E9     1.916831576866327E-1    5.053324646620195E-1   -3.186408663862881E-3    1.908020745524168E-3   -3.154213524359933E-3    1.954118499364738E-3    3.106846532734829E-1    4.061761922506610E-1
 8.152478079200000E9     1.917705420751964E-1    5.052117501373736E-1   -3.168036707003726E-3    1.950193847555021E-3   -3.172048486322437E-3    1.982312707965103E-3    3.109761487782227E-1    4.060423783463085E-1
 8.152480035800000E9     1.918499678296861E-1    5.051112078002985E-1   -3.203639290620246E-3    1.948350221189871E-3   -3.189655492045384E-3    2.002841612148695E-3    3.109278287126644E-1    4.060610907300512E-1
 8.152481992400000E9     1.920248745042830E-1    5.051158776422069E-1   -3.201692848584648E-3    1.933271736572532E-3   -3.192429990493259E-3    2.056046121306639E-3    3.110070641667078E-1    4.059599570619908E-1
 8.152483949000000E9     1.922444137108519E-1    5.049721994074221E-1   -3.209694370080612E-3    1.969126563856053E-3   -3.226028333874030E-3    2.009404575740310E-3    3.110840573509279E-1    4.059309769787218E-1
