#  HZ   S   RI   R     50.00 
! Rohde & Schwarz Vector Network Analyzer 
! Rohde-Schwarz,ZNB20-2Port,1311601062101988,3.16
! Created: UTC 3/21/2024, 1:20:07 AM
! freq[Hz]                re:S11                  im:S11                  re:S21                  im:S21                  re:S12                  im:S12                  re:S22                  im:S22
 8.152354386000000E9     1.811358235641379E-1    5.094115776249647E-1   -2.849324809513573E-3    1.569998043601461E-3   -2.860465884231871E-3    1.611018476263895E-3    3.045486419654722E-1    4.109875209346232E-1
 8.152356233500000E9     1.813735575366271E-1    5.092966480822900E-1   -2.847894937706706E-3    1.554396648152133E-3   -2.856386782299529E-3    1.632652942412916E-3    3.045711454462599E-1    4.109550901617107E-1
 8.152358081000000E9     1.813916044326612E-1    5.092374304042727E-1   -2.885531227588624E-3    1.547421939642508E-3   -2.875565066811547E-3    1.582681273236251E-3    3.047881485298750E-1    4.109016024903095E-1
 8.152359928500000E9     1.816348507833465E-1    5.091638024631275E-1   -2.888721008242756E-3    1.568243635357163E-3   -2.857441419717833E-3    1.608557518222495E-3    3.046318482364105E-1    4.107766353239179E-1
 8.152361776000000E9     1.816899338816250E-1    5.091568533695352E-1   -2.865754857370881E-3    1.561780544580930E-3   -2.867579603770106E-3    1.651777611311125E-3    3.048033662359246E-1    4.107872370913650E-1
 8.152363623500000E9     1.819435884712960E-1    5.090206651970207E-1   -2.888790971859180E-3    1.574614714003882E-3   -2.865285959892760E-3    1.598035875411355E-3    3.049348733596502E-1    4.106879198209029E-1
 8.152365471000000E9     1.820576123850902E-1    5.089883809845320E-1   -2.873210541231208E-3    1.565900085624655E-3   -2.847954663809185E-3    1.631151483513471E-3    3.051145918808421E-1    4.107512375838730E-1
 8.152367318500000E9     1.822150174162917E-1    5.089363406293658E-1   -2.884172519681708E-3    1.570875736847541E-3   -2.904976129989432E-3    1.616111062297762E-3    3.052479679581849E-1    4.105753190368971E-1
 8.152369166000000E9     1.823288267756352E-1    5.089105285919148E-1   -2.889743246242474E-3    1.583361180741473E-3   -2.906888589921109E-3    1.617589943502074E-3    3.053225305255109E-1    4.104669261090138E-1
 8.152371013500000E9     1.824003272997086E-1    5.089639026644034E-1   -2.877403316464671E-3    1.587386245878350E-3   -2.906875775968389E-3    1.636318018085581E-3    3.053926272569583E-1    4.103685104824705E-1
 8.152372861000000E9     1.825937720779288E-1    5.088636594773558E-1   -2.877583772714059E-3    1.580326012559068E-3   -2.884091792764234E-3    1.653482754100197E-3    3.056280100445573E-1    4.102725279079689E-1
 8.152374708500000E9     1.827652045919820E-1    5.087429565431916E-1   -2.895473527706206E-3    1.583067780462385E-3   -2.889334145214046E-3    1.601582493833217E-3    3.054977259855350E-1    4.101409706427079E-1
 8.152376556000000E9     1.829304523320988E-1    5.087821135487515E-1   -2.875497225408902E-3    1.605646156596321E-3   -2.868614335162206E-3    1.663352197279475E-3    3.055230591349101E-1    4.102174566390393E-1
 8.152378403500000E9     1.830827652516775E-1    5.086380438285418E-1   -2.890896946564004E-3    1.589137500942887E-3   -2.899006842980305E-3    1.647405753719692E-3    3.056975187367209E-1    4.101325499251318E-1
 8.152380251000000E9     1.832292623437720E-1    5.085519085261861E-1   -2.920407000794095E-3    1.596640479965853E-3   -2.919533019396239E-3    1.651386754829827E-3    3.057832306924750E-1    4.101192938340102E-1
 8.152382098500000E9     1.833418222709883E-1    5.085697278150330E-1   -2.905542270479860E-3    1.589744815859552E-3   -2.890661583440828E-3    1.670263659158610E-3    3.058926993476342E-1    4.097603674849926E-1
 8.152383946000000E9     1.834907407153961E-1    5.084843642481047E-1   -2.896853174863830E-3    1.578086086919065E-3   -2.905031409318293E-3    1.660431141428884E-3    3.060776774360455E-1    4.097715654772976E-1
 8.152385793500000E9     1.836479192347901E-1    5.083462007152343E-1   -2.929098878154080E-3    1.629746009762004E-3   -2.871739991226621E-3    1.673551307327942E-3    3.061682942694650E-1    4.098933600659064E-1
 8.152387641000000E9     1.838009084172135E-1    5.083939578771393E-1   -2.915633816492422E-3    1.621617648538091E-3   -2.930240324885259E-3    1.674778550253768E-3    3.062006062028713E-1    4.097617966432118E-1
 8.152389488500000E9     1.839572897488967E-1    5.083186272719460E-1   -2.919521461040769E-3    1.604535254142737E-3   -2.939259601845330E-3    1.682863395540300E-3    3.063701783051526E-1    4.096044788504138E-1
 8.152391336000000E9     1.840628846591142E-1    5.084126329207076E-1   -2.904780291930415E-3    1.599808765354122E-3   -2.899274405261555E-3    1.674161216534966E-3    3.063458511433966E-1    4.095830492759087E-1
 8.152393183500000E9     1.841349558729265E-1    5.082756792471425E-1   -2.926987467334300E-3    1.622719862924697E-3   -2.933166104679847E-3    1.680688816726865E-3    3.065191362543158E-1    4.095449089247750E-1
 8.152395031000000E9     1.842983129744967E-1    5.081443800062071E-1   -2.921888707170703E-3    1.631313103158454E-3   -2.951324471223971E-3    1.641842851944891E-3    3.065908811170129E-1    4.094453536154098E-1
 8.152396878500000E9     1.844982191414332E-1    5.080412109821009E-1   -2.933538814744424E-3    1.611072814587222E-3   -2.921966422460547E-3    1.692721003676888E-3    3.066871456211920E-1    4.093887502686646E-1
 8.152398726000000E9     1.847331133061998E-1    5.081505137298800E-1   -2.932745528153297E-3    1.628107473362475E-3   -2.938693080990503E-3    1.688095438685874E-3    3.068227867515135E-1    4.092709152126464E-1
 8.152400573500000E9     1.847602182589698E-1    5.080749911899469E-1   -2.906685775239356E-3    1.634997183189763E-3   -2.935040611238054E-3    1.730944761239870E-3    3.068561758684633E-1    4.092715480582056E-1
 8.152402421000000E9     1.848751710438893E-1    5.079696145475996E-1   -2.936371295256733E-3    1.629218127172716E-3   -2.909070438849983E-3    1.675247158096392E-3    3.070561993060351E-1    4.091109792415365E-1
 8.152404268500000E9     1.851025846166810E-1    5.080164223952254E-1   -2.947108748538404E-3    1.651180896521179E-3   -2.970148178407147E-3    1.697345221592858E-3    3.070846694149409E-1    4.089911079427240E-1
 8.152406116000000E9     1.850414159729054E-1    5.078995968221084E-1   -2.931455659955157E-3    1.659438601339958E-3   -2.922532735180550E-3    1.732586350314565E-3    3.070648539915848E-1    4.090660956836024E-1
 8.152407963500000E9     1.853803778426201E-1    5.077883998689550E-1   -2.921777806803937E-3    1.644355876426304E-3   -2.981990096350404E-3    1.751451945670305E-3    3.072470056988457E-1    4.089095757672326E-1
 8.152409811000000E9     1.855568765542077E-1    5.077486064704250E-1   -2.949520580157203E-3    1.635683029579293E-3   -2.935143941938433E-3    1.721713921453896E-3    3.073161117204381E-1    4.087434502606830E-1
 8.152411658500000E9     1.856123595544187E-1    5.076942285182620E-1   -2.960951358245204E-3    1.678512958250952E-3   -2.945411178481025E-3    1.737204413544307E-3    3.074333460820686E-1    4.089113898223747E-1
 8.152413506000000E9     1.857791845727805E-1    5.076995104050677E-1   -2.940281867294143E-3    1.641267596694645E-3   -2.973341680616085E-3    1.713132815830005E-3    3.074666182249706E-1    4.087357164089228E-1
 8.152415353500000E9     1.860015081686494E-1    5.076189625212978E-1   -2.960848178709958E-3    1.696871232508296E-3   -2.967691511907377E-3    1.692380647049478E-3    3.076349627318311E-1    4.086337390735767E-1
 8.152417201000000E9     1.859443677981703E-1    5.075695134483955E-1   -2.970159686494102E-3    1.672066008854672E-3   -2.954174628891363E-3    1.735763334066521E-3    3.078086583228624E-1    4.086021003954434E-1
 8.152419048500000E9     1.862476472982557E-1    5.074187502072558E-1   -2.989315174123314E-3    1.691791604902235E-3   -2.934182816142531E-3    1.723005499864639E-3    3.078809293900483E-1    4.085028929442628E-1
 8.152420896000000E9     1.863932313060443E-1    5.074346916538230E-1   -2.974912636240303E-3    1.681665289886311E-3   -2.975915670302358E-3    1.740896214572958E-3    3.079383238950968E-1    4.084094923889812E-1
 8.152422743500000E9     1.865169644172083E-1    5.074740883986228E-1   -2.988748260778421E-3    1.681886988106398E-3   -2.985274793896514E-3    1.751290460235103E-3    3.079046355056633E-1    4.083285567522206E-1
 8.152424591000000E9     1.866086694769432E-1    5.072944712058651E-1   -2.988884637662923E-3    1.666019939116805E-3   -2.985810096339878E-3    1.742051302587359E-3    3.080836131242360E-1    4.081580883401086E-1
 8.152426438500000E9     1.868619216202928E-1    5.072745222407231E-1   -2.979550859384298E-3    1.687400646534342E-3   -2.989360308536714E-3    1.730766056770031E-3    3.082251499034686E-1    4.082575739686553E-1
 8.152428286000000E9     1.869247542002188E-1    5.071822825091840E-1   -3.006587429693043E-3    1.698107078093243E-3   -2.992068482241885E-3    1.748199230835287E-3    3.084131701870247E-1    4.081642483730371E-1
 8.152430133500000E9     1.870248886688943E-1    5.071415798928208E-1   -2.985533669628172E-3    1.722821640310123E-3   -3.016869616691972E-3    1.735886824932680E-3    3.085268340016097E-1    4.080904545373987E-1
 8.152431981000000E9     1.871998490320363E-1    5.070725846175187E-1   -2.998729764368011E-3    1.718675801752484E-3   -2.978469405552757E-3    1.784473279987390E-3    3.085640362848723E-1    4.080051432215300E-1
 8.152433828500000E9     1.875357679277779E-1    5.071101333410875E-1   -3.017067966422443E-3    1.736674777782327E-3   -2.992983620846310E-3    1.801852141962872E-3    3.087060225336750E-1    4.079451363067382E-1
 8.152435676000000E9     1.875125768481773E-1    5.070297404376740E-1   -3.029151389991290E-3    1.710008678484265E-3   -3.005339107100854E-3    1.766191826762567E-3    3.087205882632280E-1    4.077565423372457E-1
 8.152437523500000E9     1.876974602422820E-1    5.069331279620737E-1   -2.999792547595301E-3    1.716506641725177E-3   -3.029781039125186E-3    1.766822229569444E-3    3.086431215383875E-1    4.077840760863866E-1
 8.152439371000000E9     1.877779753575452E-1    5.069519688819323E-1   -3.041731186974074E-3    1.720436180181958E-3   -3.017921306513181E-3    1.771632673727400E-3    3.088383334689995E-1    4.076469892875458E-1
 8.152441218500000E9     1.878973595387201E-1    5.068008124221205E-1   -3.015451876201509E-3    1.737890118669443E-3   -3.023666950263495E-3    1.776971398115382E-3    3.088712215097226E-1    4.075586740583494E-1
 8.152443066000000E9     1.881571058649048E-1    5.068002018053055E-1   -3.039801410659144E-3    1.738900647206635E-3   -3.003425017611211E-3    1.771646765587156E-3    3.089693041208891E-1    4.075957946637951E-1
 8.152444913500000E9     1.882396881895699E-1    5.067739040284543E-1   -3.039447718309365E-3    1.750108620327352E-3   -2.986166374245005E-3    1.802441489945961E-3    3.093513681353202E-1    4.076562547760267E-1
 8.152446761000000E9     1.884608583437783E-1    5.066139558740476E-1   -3.039042261384262E-3    1.742721505764981E-3   -3.053903789209467E-3    1.794595696991742E-3    3.092876138784594E-1    4.073449435836989E-1
 8.152448608500000E9     1.886488149453311E-1    5.066226984023802E-1   -3.033750585954021E-3    1.784102734484730E-3   -3.047707347272423E-3    1.815394522604796E-3    3.093304659402849E-1    4.073905296334626E-1
 8.152450456000000E9     1.886951357002076E-1    5.065239982545541E-1   -3.030087051124940E-3    1.802208907788129E-3   -3.037926893355526E-3    1.815250468937761E-3    3.093891134359110E-1    4.073193558217584E-1
 8.152452303500000E9     1.888538374994498E-1    5.063876683659572E-1   -3.059782681358056E-3    1.776767857045663E-3   -2.993716851314329E-3    1.830563719683339E-3    3.095300122672632E-1    4.071607789117722E-1
 8.152454151000000E9     1.891154590591659E-1    5.064481351560073E-1   -3.048572944459932E-3    1.782482651677014E-3   -3.074077610149243E-3    1.816929122330570E-3    3.097233647679301E-1    4.069998179789673E-1
 8.152455998500000E9     1.891399574000038E-1    5.063404338937988E-1   -3.054207111505390E-3    1.783864661148594E-3   -3.080792733319182E-3    1.818312438962629E-3    3.097164954740709E-1    4.070567033736842E-1
 8.152457846000000E9     1.893902137967085E-1    5.062297816158263E-1   -3.039127784266368E-3    1.788659966328676E-3   -3.026395785353489E-3    1.844422302009644E-3    3.097739133294286E-1    4.068861908851642E-1
 8.152459693500000E9     1.895659924504489E-1    5.062318689574701E-1   -3.085513012826676E-3    1.782123432556055E-3   -3.050253030946035E-3    1.851862202416277E-3    3.098486857465760E-1    4.069983656976195E-1
 8.152461541000000E9     1.895962194618031E-1    5.060385496174389E-1   -3.057540622432713E-3    1.799850932471091E-3   -3.051009358292143E-3    1.839583480031270E-3    3.099623636002964E-1    4.069360628502756E-1
 8.152463388500000E9     1.897543844846060E-1    5.060704166287758E-1   -3.062916681736433E-3    1.825234176172564E-3   -3.085838155785684E-3    1.849700008159413E-3    3.100283971753007E-1    4.066631918122633E-1
 8.152465236000000E9     1.900199629283269E-1    5.061575499072358E-1   -3.080056218293462E-3    1.798666878599916E-3   -3.046523602591983E-3    1.890561615750504E-3    3.101040220369647E-1    4.066383070763497E-1
 8.152467083500000E9     1.901563411961368E-1    5.060466321690584E-1   -3.106526577741807E-3    1.829365387635279E-3   -3.061854096783149E-3    1.868728085245923E-3    3.102442128050538E-1    4.066780076127122E-1
 8.152468931000000E9     1.902059307560078E-1    5.059922654822706E-1   -3.086554405336365E-3    1.814806006928181E-3   -3.105302858729661E-3    1.899050379260399E-3    3.102968952249155E-1    4.064604531995991E-1
 8.152470778500000E9     1.904744920932196E-1    5.058851740245167E-1   -3.105106665944219E-3    1.824448590311240E-3   -3.097846372308631E-3    1.844111380215464E-3    3.104421925757443E-1    4.064634417325618E-1
 8.152472626000000E9     1.905874500399542E-1    5.058525369776263E-1   -3.116045827996687E-3    1.846004116601557E-3   -3.105329296942329E-3    1.898238000205282E-3    3.104609075830733E-1    4.063097376082196E-1
 8.152474473500000E9     1.907101160542410E-1    5.057338547156792E-1   -3.114424630143572E-3    1.823161417206225E-3   -3.098998270296288E-3    1.914669864237644E-3    3.105955766071458E-1    4.062338358525128E-1
 8.152476321000000E9     1.909163165099877E-1    5.056574785471204E-1   -3.112743624663089E-3    1.823330400498965E-3   -3.126729609356666E-3    1.899664942685516E-3    3.106886170703039E-1    4.062183774241305E-1
 8.152478168500000E9     1.910420574309892E-1    5.056128236901872E-1   -3.112565650980914E-3    1.848809779682978E-3   -3.122166336134368E-3    1.912654784849654E-3    3.107328399060015E-1    4.062017783508856E-1
 8.152480016000000E9     1.911370782741685E-1    5.054770049563135E-1   -3.109827509256992E-3    1.859389641553191E-3   -3.124791565989517E-3    1.901431117501273E-3    3.108373183478633E-1    4.060363417758994E-1
 8.152481863500000E9     1.913602256753737E-1    5.055399799076254E-1   -3.117477674519476E-3    1.886547630901823E-3   -3.161664974096540E-3    1.915215835293169E-3    3.109332705862960E-1    4.059878439093089E-1
 8.152483711000000E9     1.914453246362384E-1    5.053954779503547E-1   -3.153717277805494E-3    1.873389826327445E-3   -3.134631053516587E-3    1.932619016617854E-3    3.111395402263634E-1    4.058470897194741E-1
 8.152485558500000E9     1.916810316260236E-1    5.053505570037140E-1   -3.123535342507330E-3    1.885485131388934E-3   -3.149188991350122E-3    1.910414997117504E-3    3.112098067063983E-1    4.058684220753007E-1
 8.152487406000000E9     1.918148802072684E-1    5.052159931687635E-1   -3.135875875367707E-3    1.905553850009719E-3   -3.157999410113728E-3    1.962155455912646E-3    3.113721926982249E-1    4.056358656959047E-1
 8.152489253500000E9     1.919252419442232E-1    5.051043824675866E-1   -3.131152139808334E-3    1.889929674954305E-3   -3.141223099530038E-3    1.952460236669611E-3    3.113363065719419E-1    4.055907655135932E-1
 8.152491101000000E9     1.920861168239774E-1    5.051617522257388E-1   -3.165391217076135E-3    1.908626688863118E-3   -3.150414509900799E-3    1.956439223838871E-3    3.113767508550563E-1    4.055508917328250E-1
 8.152492948500000E9     1.922799760961721E-1    5.050288925189956E-1   -3.169829036559210E-3    1.917791655630554E-3   -3.175562437822906E-3    1.953167337212961E-3    3.115082211602744E-1    4.056411955890490E-1
 8.152494796000000E9     1.924131692794402E-1    5.049528158329329E-1   -3.158578538311365E-3    1.889791982801973E-3   -3.179802502887485E-3    1.998327604721733E-3    3.116166159569419E-1    4.054717181632425E-1
 8.152496643500000E9     1.927303894468687E-1    5.049189346811501E-1   -3.169136973975831E-3    1.926940386013993E-3   -3.164149851770216E-3    1.982679607013159E-3    3.117779990033577E-1    4.052669497253135E-1
 8.152498491000000E9     1.927568811171242E-1    5.049043587643516E-1   -3.167552085785600E-3    1.925615477505732E-3   -3.179329100990040E-3    1.998635030976331E-3    3.117186177142929E-1    4.052991235086298E-1
 8.152500338500000E9     1.930960404192021E-1    5.047366028459150E-1   -3.175969649218110E-3    1.912206127947734E-3   -3.209407433770434E-3    2.004574986394229E-3    3.118562330007299E-1    4.050742465878319E-1
 8.152502186000000E9     1.931473088521459E-1    5.047103444048994E-1   -3.193979974466329E-3    1.926703461162519E-3   -3.199258876095813E-3    2.028016984612178E-3    3.119550774918852E-1    4.052859967576918E-1
 8.152504033500000E9     1.931771547161736E-1    5.046020258235956E-1   -3.227249400328761E-3    1.932065671415560E-3   -3.193058354136498E-3    2.005868100719279E-3    3.121080645740353E-1    4.051894734020243E-1
 8.152505881000000E9     1.933361508797139E-1    5.046234059041399E-1   -3.222674342880594E-3    1.959820822893618E-3   -3.221939725468425E-3    2.037740587374160E-3    3.121064951545553E-1    4.048429396575171E-1
 8.152507728500000E9     1.936805301888512E-1    5.045675432343751E-1   -3.186508411873902E-3    1.956663227238049E-3   -3.210416132676210E-3    2.028436549158043E-3    3.122753985408112E-1    4.048976125221774E-1
 8.152509576000000E9     1.938672221757102E-1    5.043910736597278E-1   -3.218714714065327E-3    1.971936884335190E-3   -3.236846359964671E-3    2.030866890713758E-3    3.124575774884042E-1    4.049318485833071E-1
 8.152511423500000E9     1.939469663433694E-1    5.044712578252758E-1   -3.215183859775993E-3    1.960545586231316E-3   -3.205814396280488E-3    2.045372080202124E-3    3.124548345539746E-1    4.047951112967588E-1
 8.152513271000000E9     1.942134439605083E-1    5.042652644265272E-1   -3.242537626651175E-3    1.971527568582396E-3   -3.207802733042376E-3    2.062545712643992E-3    3.125466650310174E-1    4.046802656907162E-1
 8.152515118500000E9     1.941903811369506E-1    5.043325987345983E-1   -3.255458646597478E-3    2.005658611190408E-3   -3.246289611852442E-3    2.047147261730672E-3    3.125167346789511E-1    4.046156974013640E-1
 8.152516966000000E9     1.944241823531121E-1    5.041550512373570E-1   -3.234229530144587E-3    2.024336183685083E-3   -3.238267072336644E-3    2.087328797973023E-3    3.127698950667449E-1    4.044935813380366E-1
 8.152518813500000E9     1.946263904259839E-1    5.040384354079855E-1   -3.241108617368372E-3    2.041872645464795E-3   -3.262297651124733E-3    2.096245624073482E-3    3.128073928701704E-1    4.044838577183940E-1
 8.152520661000000E9     1.947312469147712E-1    5.040136587549678E-1   -3.259830670708489E-3    2.029515400602441E-3   -3.270700620916854E-3    2.102358486270625E-3    3.128178538333799E-1    4.044408498711750E-1
