#  HZ   S   RI   R     50.00 
! Rohde & Schwarz Vector Network Analyzer 
! Rohde-Schwarz,ZNB20-2Port,1311601062101988,3.16
! Created: UTC 3/21/2024, 1:20:24 AM
! freq[Hz]                re:S11                  im:S11                  re:S21                  im:S21                  re:S12                  im:S12                  re:S22                  im:S22
 8.152405766000000E9     1.846301737498872E-1    5.081766477128890E-1   -2.912827152180682E-3    1.623023172224355E-3   -2.903624244570760E-3    1.687661549884757E-3    3.071495234513212E-1    4.090657364585119E-1
 8.152407458125000E9     1.846978691092517E-1    5.081025517025530E-1   -2.890866378174731E-3    1.624634071651762E-3   -2.923458053641271E-3    1.669317340492288E-3    3.071461500341420E-1    4.089062411769258E-1
 8.152409150250000E9     1.849046952960213E-1    5.079995588926877E-1   -2.909569297259558E-3    1.646847052919365E-3   -2.899779860353987E-3    1.683149003897620E-3    3.072459626364024E-1    4.090009315662355E-1
 8.152410842375000E9     1.851585583654048E-1    5.080350606252916E-1   -2.939548445492747E-3    1.627974758019447E-3   -2.935490259534894E-3    1.689092253808423E-3    3.072254598319908E-1    4.088381128750772E-1
 8.152412534500000E9     1.852931896728308E-1    5.080849176838151E-1   -2.925427994193427E-3    1.611373280684496E-3   -2.924919590573906E-3    1.660495169303023E-3    3.076267074002338E-1    4.087104793986471E-1
 8.152414226625000E9     1.854264855737580E-1    5.079444757773544E-1   -2.918539587691080E-3    1.615253469558419E-3   -2.936253404539298E-3    1.689743006633833E-3    3.075882602171938E-1    4.087157836860717E-1
 8.152415918750000E9     1.854869993200616E-1    5.078476747955878E-1   -2.897757093294220E-3    1.623017385448812E-3   -2.933196205780503E-3    1.697574305749959E-3    3.075986193548437E-1    4.086233917642287E-1
 8.152417610875000E9     1.856482886500349E-1    5.078180844044738E-1   -2.932798084217833E-3    1.641796539511354E-3   -2.937584557983579E-3    1.689570841296611E-3    3.076476372489043E-1    4.085342773661143E-1
 8.152419303000000E9     1.857741863879071E-1    5.077200292409858E-1   -2.935963788737518E-3    1.643851684544188E-3   -2.926929489906786E-3    1.694142356129500E-3    3.078516339097635E-1    4.084607574561021E-1
 8.152420995125000E9     1.859201767932172E-1    5.077543715322108E-1   -2.934175898500771E-3    1.641238151758262E-3   -2.935566782475896E-3    1.690206193340335E-3    3.078809054048923E-1    4.083584912250442E-1
 8.152422687250000E9     1.860106606260653E-1    5.077325719373078E-1   -2.959582501771274E-3    1.661757978391423E-3   -2.954954214888061E-3    1.686793666321303E-3    3.080502361405080E-1    4.083846117505672E-1
 8.152424379375000E9     1.862060569648924E-1    5.075551760098466E-1   -2.936659319935527E-3    1.648576352258486E-3   -2.950315466664283E-3    1.738763093990258E-3    3.079370461164792E-1    4.082051748257753E-1
 8.152426071500000E9     1.863313087876316E-1    5.076611029444381E-1   -2.961130462459270E-3    1.642407913076557E-3   -2.973367874753231E-3    1.667951668123428E-3    3.082248262952831E-1    4.083418550995309E-1
 8.152427763625000E9     1.865117810816783E-1    5.074776080301818E-1   -2.946287632542081E-3    1.683864222213110E-3   -2.938842412166759E-3    1.701644598251846E-3    3.082002374988074E-1    4.082768948537809E-1
 8.152429455750000E9     1.866556537223564E-1    5.074632739215726E-1   -2.952743723584185E-3    1.671876099067547E-3   -2.937738496095655E-3    1.755573802503643E-3    3.083771347001337E-1    4.082445069734837E-1
 8.152431147875000E9     1.866355521177460E-1    5.073833101055788E-1   -2.961705874159506E-3    1.648957275896459E-3   -2.956447512312325E-3    1.732305574709140E-3    3.084250625079391E-1    4.080915901814789E-1
 8.152432840000000E9     1.869418151763871E-1    5.072589698020428E-1   -2.959543416073753E-3    1.682231176578462E-3   -2.959093888521314E-3    1.731484100458835E-3    3.086472807312848E-1    4.080062070917860E-1
 8.152434532125000E9     1.869384578161314E-1    5.073757564451893E-1   -2.967359674499064E-3    1.696382625538379E-3   -2.978208626223042E-3    1.714848540764155E-3    3.084753541162757E-1    4.078786474141503E-1
 8.152436224250000E9     1.871619936881705E-1    5.072838197290339E-1   -2.969473740153006E-3    1.670714193861007E-3   -2.978759328130074E-3    1.776056438889440E-3    3.085908248331813E-1    4.077703116329958E-1
 8.152437916375000E9     1.872889198182047E-1    5.071585113800260E-1   -2.980598720593841E-3    1.690718922442803E-3   -2.965498489992385E-3    1.741636012939066E-3    3.087348730982445E-1    4.077547411353588E-1
 8.152439608500000E9     1.873635434711882E-1    5.072685231388471E-1   -2.975397388735491E-3    1.698408002683126E-3   -2.977566966988548E-3    1.745138490279680E-3    3.088018877001770E-1    4.076932392866232E-1
 8.152441300625000E9     1.876019088889354E-1    5.070357071290783E-1   -2.984611726816579E-3    1.691466650727023E-3   -2.981975476963084E-3    1.737472309399804E-3    3.089362434816032E-1    4.078217340823886E-1
 8.152442992750000E9     1.876087410836117E-1    5.069066716694286E-1   -2.984401374952392E-3    1.692814471965970E-3   -2.975423967835833E-3    1.763451851001215E-3    3.089593365795575E-1    4.076177509660917E-1
 8.152444684875000E9     1.878420598661703E-1    5.070367084461230E-1   -3.006806789569386E-3    1.722989060657653E-3   -3.029761026469565E-3    1.777448154414450E-3    3.091577404847730E-1    4.074453067887925E-1
 8.152446377000000E9     1.879431064174382E-1    5.070475529816217E-1   -2.998359321334505E-3    1.688486844693604E-3   -3.006264460098478E-3    1.766673569381920E-3    3.090553407742754E-1    4.072728496285350E-1
 8.152448069125000E9     1.880494292595468E-1    5.068883515923381E-1   -3.023632780589898E-3    1.711235910212721E-3   -3.016307416195530E-3    1.744624911110674E-3    3.093938161369983E-1    4.073816036702344E-1
 8.152449761250000E9     1.883020075887065E-1    5.068316370558578E-1   -2.993730759643762E-3    1.718260223278656E-3   -2.979878509706938E-3    1.746061956259674E-3    3.093882131738822E-1    4.072447886098694E-1
 8.152451453375000E9     1.884021479820360E-1    5.066843163838504E-1   -3.003678046375198E-3    1.714625193599467E-3   -3.021782149868218E-3    1.759984278332784E-3    3.094798330517536E-1    4.072361077461302E-1
 8.152453145500000E9     1.884593990964307E-1    5.067032800189274E-1   -3.000493273271136E-3    1.722713629206407E-3   -3.040502447583852E-3    1.769569711634998E-3    3.095165957106937E-1    4.071418077350864E-1
 8.152454837625000E9     1.886328719442001E-1    5.067653675367095E-1   -3.022346684344184E-3    1.718025208067666E-3   -3.028655234509922E-3    1.752059309294775E-3    3.094998436681953E-1    4.070801375427289E-1
 8.152456529750000E9     1.886991639052018E-1    5.066352357393435E-1   -3.021037610713628E-3    1.726824301315803E-3   -3.008671342884004E-3    1.779947029607510E-3    3.097488529343099E-1    4.071044412273370E-1
 8.152458221875000E9     1.889247379392670E-1    5.066698778253047E-1   -3.029381461149169E-3    1.735568192934463E-3   -3.012876016441333E-3    1.749009165436727E-3    3.097049479016454E-1    4.070788875196122E-1
 8.152459914000000E9     1.890276765889153E-1    5.065161522946610E-1   -3.026821575709153E-3    1.735996325988830E-3   -3.035000378652549E-3    1.795843252453304E-3    3.098792040891305E-1    4.068713456468540E-1
 8.152461606125000E9     1.891758610989398E-1    5.065363852236900E-1   -3.026894964771687E-3    1.718202070039745E-3   -3.032309588570982E-3    1.797426828672265E-3    3.099590171163997E-1    4.069165367890281E-1
 8.152463298250000E9     1.891639909040697E-1    5.063615761094977E-1   -3.011674865433893E-3    1.768721418742493E-3   -3.028384740868810E-3    1.817311551962134E-3    3.100158915605709E-1    4.067737674177465E-1
 8.152464990375000E9     1.893784536741236E-1    5.064262061717161E-1   -3.031858993863605E-3    1.762886285835658E-3   -3.046079897444996E-3    1.759348330282038E-3    3.100509619485304E-1    4.067596271122660E-1
 8.152466682500000E9     1.895482400917762E-1    5.062793375261311E-1   -3.054099438314388E-3    1.744532431094098E-3   -3.050046192680996E-3    1.808407568869997E-3    3.100843243111462E-1    4.067110150331396E-1
 8.152468374625000E9     1.897364825224375E-1    5.063315167333887E-1   -3.050483067034929E-3    1.747819620646146E-3   -3.036228027575963E-3    1.848185674364038E-3    3.101095354500519E-1    4.064901481088393E-1
 8.152470066750000E9     1.898281765628502E-1    5.062073279117220E-1   -3.041806132879732E-3    1.775060451714532E-3   -3.061957407522013E-3    1.814599455478306E-3    3.103205110948967E-1    4.064537429383998E-1
 8.152471758875000E9     1.899627396091947E-1    5.061901574679015E-1   -3.046222132988273E-3    1.758595146139140E-3   -3.039718579305755E-3    1.816907298196891E-3    3.104278955321832E-1    4.064161102170726E-1
 8.152473451000000E9     1.900871187059638E-1    5.061047618649540E-1   -3.048832920543565E-3    1.763391367083343E-3   -3.078243431349082E-3    1.839987299866663E-3    3.105798328486966E-1    4.064447827059570E-1
 8.152475143125000E9     1.902218722629454E-1    5.059802007038411E-1   -3.066299626386179E-3    1.786283155769639E-3   -3.063769095555215E-3    1.819934878211957E-3    3.104719859471250E-1    4.061738301653082E-1
 8.152476835250000E9     1.904327278271722E-1    5.059954330778065E-1   -3.053457150098176E-3    1.806412467762396E-3   -3.071616127123191E-3    1.846111167583758E-3    3.107632939353689E-1    4.060576294509765E-1
 8.152478527375000E9     1.904766725894752E-1    5.058762551137675E-1   -3.065615881664633E-3    1.786224288227611E-3   -3.085255390180296E-3    1.846516463712439E-3    3.107329714196678E-1    4.062350767735937E-1
 8.152480219500000E9     1.906840579392034E-1    5.058914152035827E-1   -3.082328519397919E-3    1.807149312340816E-3   -3.078059650852238E-3    1.843532938331788E-3    3.108119197531838E-1    4.060361891140283E-1
 8.152481911625000E9     1.908311644643721E-1    5.058517426062429E-1   -3.076032446520542E-3    1.811760567414895E-3   -3.090337117948636E-3    1.878550544115807E-3    3.109939135038371E-1    4.059578627551371E-1
 8.152483603750000E9     1.910654897234480E-1    5.058441279000123E-1   -3.090844436113121E-3    1.788435271674594E-3   -3.113745191960116E-3    1.872890793945670E-3    3.109478240804722E-1    4.061797023604878E-1
 8.152485295875000E9     1.911675691921554E-1    5.056236306163346E-1   -3.109710415734709E-3    1.810457345902987E-3   -3.086985598259228E-3    1.864177384289819E-3    3.111261818983143E-1    4.059125936036158E-1
 8.152486988000000E9     1.912990802972440E-1    5.056785611294252E-1   -3.108651664110553E-3    1.824819222640149E-3   -3.078476937657461E-3    1.857493474821490E-3    3.112345599595660E-1    4.058651420612537E-1
 8.152488680125000E9     1.914156220211919E-1    5.054921892931006E-1   -3.116746182395001E-3    1.834081854528250E-3   -3.096606242447437E-3    1.870505444435316E-3    3.113177458866871E-1    4.057867186385891E-1
 8.152490372250000E9     1.915427191609994E-1    5.055822324507125E-1   -3.113666382167161E-3    1.832879371290478E-3   -3.100414806012004E-3    1.888733024554464E-3    3.113070762660283E-1    4.056835105347892E-1
 8.152492064375000E9     1.916470105740117E-1    5.053835661034800E-1   -3.090339107555545E-3    1.841940057804071E-3   -3.114803785118694E-3    1.899743545522031E-3    3.114646790380576E-1    4.055861476313010E-1
 8.152493756500000E9     1.918063062785881E-1    5.054248198923008E-1   -3.129031281118384E-3    1.839112163937104E-3   -3.104419639579292E-3    1.879088010672418E-3    3.114862955197175E-1    4.055319413747727E-1
 8.152495448625000E9     1.918950174371836E-1    5.053125161084385E-1   -3.096511263956089E-3    1.866317418785968E-3   -3.107117328246876E-3    1.924716777194089E-3    3.116347288305681E-1    4.055055565470989E-1
 8.152497140750000E9     1.920070722647939E-1    5.052330740018821E-1   -3.131717451221637E-3    1.853297664817344E-3   -3.140354010858293E-3    1.887195106456651E-3    3.116154356367963E-1    4.053528567695189E-1
 8.152498832875000E9     1.923496165187483E-1    5.051687088838962E-1   -3.129402684315190E-3    1.872023669890128E-3   -3.099760889437549E-3    1.925670716941538E-3    3.118488360408283E-1    4.052876636797757E-1
 8.152500525000000E9     1.923388285061256E-1    5.051813016771836E-1   -3.133750606523532E-3    1.858782260606486E-3   -3.130376214370973E-3    1.936124509597159E-3    3.119219682795904E-1    4.051369822151769E-1
 8.152502217125000E9     1.924287639543853E-1    5.051472038413413E-1   -3.151304408926112E-3    1.858487699468696E-3   -3.188502292731672E-3    1.935045192362072E-3    3.119688038748922E-1    4.051756816838507E-1
 8.152503909250000E9     1.926571366933723E-1    5.049553506849850E-1   -3.159388032948260E-3    1.916468169991479E-3   -3.163395128664217E-3    1.953967486725054E-3    3.120884722806027E-1    4.053053523571929E-1
 8.152505601375000E9     1.928816386600329E-1    5.049113130966831E-1   -3.132021750874056E-3    1.908058697744942E-3   -3.156752335933797E-3    1.947200175212667E-3    3.120957859810215E-1    4.050242067227776E-1
 8.152507293500000E9     1.929961415476573E-1    5.049209275295208E-1   -3.169890345632089E-3    1.894041528855789E-3   -3.164409998384576E-3    1.917749417673432E-3    3.122337206074049E-1    4.051436459707682E-1
 8.152508985625000E9     1.931127020540711E-1    5.049390564269911E-1   -3.159090454316971E-3    1.908291184021159E-3   -3.166493584701265E-3    1.940649474213530E-3    3.122516127028330E-1    4.049995507162346E-1
 8.152510677750000E9     1.932426363153496E-1    5.048072480272879E-1   -3.163447202855071E-3    1.924053384229712E-3   -3.122672138771208E-3    1.989032104516214E-3    3.124376236928454E-1    4.048829657954229E-1
 8.152512369875000E9     1.934249895849810E-1    5.046896876238587E-1   -3.192398314908545E-3    1.942009119699720E-3   -3.169862564166162E-3    1.969084127881785E-3    3.124873167436518E-1    4.048694375917284E-1
 8.152514062000000E9     1.936507209792275E-1    5.047208654549000E-1   -3.176948301433674E-3    1.919937901648230E-3   -3.209726302114847E-3    1.994020896618960E-3    3.126440111005082E-1    4.046908825425000E-1
 8.152515754125000E9     1.937679631804085E-1    5.046789350091967E-1   -3.173752611015645E-3    1.918010010153304E-3   -3.186208779168451E-3    1.974415582706755E-3    3.125050399772660E-1    4.047380334667375E-1
 8.152517446250000E9     1.939323936199160E-1    5.044676205419847E-1   -3.206609311279576E-3    1.944874155616022E-3   -3.188076810879860E-3    1.968891284320219E-3    3.126909243148230E-1    4.044687601791933E-1
 8.152519138375000E9     1.939894262934053E-1    5.045006937127932E-1   -3.200593048879282E-3    1.914589824561489E-3   -3.218873084629417E-3    1.988895579537987E-3    3.128053490675747E-1    4.043773482534171E-1
 8.152520830500000E9     1.941775416849740E-1    5.044424191203833E-1   -3.231432473618375E-3    1.950942171435338E-3   -3.218300480028788E-3    1.984171698161427E-3    3.130277710582493E-1    4.044642493898079E-1
 8.152522522625000E9     1.943923207580575E-1    5.043020150943566E-1   -3.213679904037757E-3    1.935901821960952E-3   -3.206285331750027E-3    2.022428270165235E-3    3.130255895658144E-1    4.043647822689554E-1
 8.152524214750000E9     1.944858014552147E-1    5.043510251245106E-1   -3.214468638677420E-3    1.963658788739222E-3   -3.223007685162941E-3    2.022625930426862E-3    3.131029061327560E-1    4.043798222152123E-1
 8.152525906875000E9     1.945961174802818E-1    5.041327011414085E-1   -3.236949596027693E-3    1.960085000595711E-3   -3.230194682831424E-3    2.030330300912559E-3    3.130831356661661E-1    4.041560794051974E-1
 8.152527599000000E9     1.947896392217406E-1    5.041591076060783E-1   -3.230665072881317E-3    1.997658312541228E-3   -3.214666410947347E-3    2.012643618804152E-3    3.131184865827688E-1    4.042031614390028E-1
 8.152529291125000E9     1.949017219643329E-1    5.040031311535909E-1   -3.266304689020212E-3    1.974630664886690E-3   -3.219893421062623E-3    2.054972767959305E-3    3.133360131570191E-1    4.040622340815749E-1
 8.152530983250000E9     1.951087085697500E-1    5.039531259657525E-1   -3.242544530968960E-3    1.989088716266487E-3   -3.233128217969052E-3    2.038745968538106E-3    3.133676183947068E-1    4.039630121766660E-1
 8.152532675375000E9     1.951702556320775E-1    5.039799944269669E-1   -3.225158922609825E-3    1.995497483137383E-3   -3.220477706904938E-3    2.029494732061206E-3    3.134566855616562E-1    4.040650488980331E-1
 8.152534367500000E9     1.953438697374877E-1    5.039114975690187E-1   -3.266279025483518E-3    1.996856020889532E-3   -3.268515326253377E-3    2.083237023069738E-3    3.135610270797726E-1    4.039104340357393E-1
 8.152536059625000E9     1.955143687391959E-1    5.037684280163863E-1   -3.274257509177041E-3    2.011806635011236E-3   -3.241507238860883E-3    2.069420851996651E-3    3.136066863755677E-1    4.038059084394054E-1
 8.152537751750000E9     1.957396380749694E-1    5.037376187010040E-1   -3.275274795045658E-3    2.013884605674042E-3   -3.275113179201443E-3    2.105628482200728E-3    3.135999420962995E-1    4.037929575283570E-1
 8.152539443875000E9     1.958094116676622E-1    5.035986211576376E-1   -3.259742325638170E-3    2.003510226169375E-3   -3.287081577909857E-3    2.119476067237126E-3    3.138585361850288E-1    4.037302649972662E-1
 8.152541136000000E9     1.959577702736197E-1    5.035629926978914E-1   -3.290777159045263E-3    2.028000978788012E-3   -3.272693055734935E-3    2.104266772169663E-3    3.139327936819013E-1    4.035782265209258E-1
 8.152542828125000E9     1.961019185512465E-1    5.035507098848956E-1   -3.284228596159614E-3    2.020402404058837E-3   -3.303839352945094E-3    2.123797894904569E-3    3.139432905393847E-1    4.035755444146193E-1
 8.152544520250000E9     1.963929947636487E-1    5.035499968899870E-1   -3.299431116049556E-3    2.029808093082991E-3   -3.303798271285112E-3    2.112488243734088E-3    3.140958665156166E-1    4.034619271870644E-1
 8.152546212375000E9     1.964216952894318E-1    5.034356700364981E-1   -3.334081182345647E-3    2.066603252910076E-3   -3.290987616831662E-3    2.106129022579385E-3    3.141006987020890E-1    4.034224512318835E-1
 8.152547904500000E9     1.965384685975462E-1    5.033616702010897E-1   -3.326541158771167E-3    2.072679248216159E-3   -3.295077698314109E-3    2.150038595038859E-3    3.143925036533428E-1    4.032796451332516E-1
 8.152549596625000E9     1.967803078909971E-1    5.032286743601656E-1   -3.342490332143461E-3    2.084658756728858E-3   -3.310573786655645E-3    2.149403906683634E-3    3.142643179879089E-1    4.032770306378430E-1
 8.152551288750000E9     1.967812108003916E-1    5.031224928807922E-1   -3.320280608133009E-3    2.071780045780828E-3   -3.328481256772989E-3    2.195162914317803E-3    3.144393114363958E-1    4.031788385588486E-1
 8.152552980875000E9     1.970252121571810E-1    5.032073120016924E-1   -3.367335291550967E-3    2.111922465157341E-3   -3.321462051008223E-3    2.166456565177333E-3    3.145366094201208E-1    4.031939238983356E-1
 8.152554673000000E9     1.972718125507231E-1    5.029761161531684E-1   -3.368943273843781E-3    2.140701900830061E-3   -3.385617168746725E-3    2.148181259999448E-3    3.144971526193707E-1    4.030210177936825E-1
 8.152556365125000E9     1.974364306644847E-1    5.030226003734716E-1   -3.357077393075638E-3    2.123736420676908E-3   -3.337493167473738E-3    2.176415744961233E-3    3.147932317305367E-1    4.030258796763673E-1
 8.152558057250000E9     1.975109907762203E-1    5.029525796142301E-1   -3.376818380333449E-3    2.119301550996412E-3   -3.344324467924836E-3    2.165998140596149E-3    3.147374125316059E-1    4.030158212251808E-1
