#  HZ   S   RI   R     50.00 
! Rohde & Schwarz Vector Network Analyzer 
! Rohde-Schwarz,ZNB20-2Port,1311601062101988,3.16
! Created: UTC 3/21/2024, 1:20:40 AM
! freq[Hz]                re:S11                  im:S11                  re:S21                  im:S21                  re:S12                  im:S12                  re:S22                  im:S22
 8.152455912000000E9     1.882271663342428E-1    5.067559359214703E-1   -2.993775757870955E-3    1.694593901008324E-3   -2.983463141373327E-3    1.751970599664302E-3    3.093314137895864E-1    4.070942599851591E-1
 8.152457449425000E9     1.882990751650793E-1    5.067622401862872E-1   -2.981413367854054E-3    1.695590663879430E-3   -3.000380617951339E-3    1.736432004019423E-3    3.093752425385888E-1    4.070272501881913E-1
 8.152458986850000E9     1.886268870785532E-1    5.066912011933126E-1   -2.978460873707353E-3    1.696288606983776E-3   -2.971915671386791E-3    1.752141239407581E-3    3.094008841130689E-1    4.070520678176318E-1
 8.152460524275000E9     1.885582619822515E-1    5.066601529745470E-1   -2.983948471826626E-3    1.694437225158006E-3   -2.989886289713555E-3    1.771022695142166E-3    3.094704468462922E-1    4.068884244314178E-1
 8.152462061700000E9     1.887515306826792E-1    5.066430254899900E-1   -2.989009997997107E-3    1.701651887153409E-3   -3.015270178575802E-3    1.776283936418997E-3    3.095861094047193E-1    4.068734500724869E-1
 8.152463599125000E9     1.889079652696975E-1    5.066726687694718E-1   -2.974149503067495E-3    1.707103611782284E-3   -2.994401576989797E-3    1.778903668581922E-3    3.097107300465799E-1    4.069955724583788E-1
 8.152465136550000E9     1.890987937193551E-1    5.065690233762085E-1   -3.000827309472254E-3    1.706237440424512E-3   -3.018839264614844E-3    1.792157214610138E-3    3.098454346864947E-1    4.068305367106827E-1
 8.152466673975000E9     1.891394939143751E-1    5.065570992858126E-1   -3.018820657692508E-3    1.719181251150726E-3   -2.985637186129902E-3    1.773265122547802E-3    3.097824253804538E-1    4.067478291374482E-1
 8.152468211400000E9     1.892272919175507E-1    5.064055487414379E-1   -3.006889418643297E-3    1.719786447630909E-3   -3.009068007912427E-3    1.767217256616669E-3    3.098676125340248E-1    4.065658611522750E-1
 8.152469748825000E9     1.893733982823908E-1    5.065483830709137E-1   -3.019440047214420E-3    1.691334309039846E-3   -3.013069508113236E-3    1.773708087700410E-3    3.099191458721779E-1    4.065905869110986E-1
 8.152471286250000E9     1.895248957656730E-1    5.063082744625602E-1   -3.018839300276258E-3    1.739084730808793E-3   -3.014032706669023E-3    1.774513995326049E-3    3.100763541577484E-1    4.064021597937349E-1
 8.152472823675000E9     1.896111667072521E-1    5.063328974956744E-1   -3.012900337838240E-3    1.722719492647211E-3   -3.007707299127407E-3    1.787761775328797E-3    3.101443580572428E-1    4.063200047085305E-1
 8.152474361100000E9     1.897292949289528E-1    5.062725707992973E-1   -3.004129944987935E-3    1.760390492327813E-3   -2.992934244860341E-3    1.809402373920580E-3    3.101783814853333E-1    4.063743585742969E-1
 8.152475898525000E9     1.899656054604961E-1    5.061439622725314E-1   -3.053288947115937E-3    1.724783020305666E-3   -3.019700248704735E-3    1.799670891527037E-3    3.103080360829964E-1    4.062071851576537E-1
 8.152477435950000E9     1.899928850651828E-1    5.062346150153336E-1   -3.052089096714540E-3    1.750790129229650E-3   -3.029268362893062E-3    1.813604611389838E-3    3.103971939763203E-1    4.062987128300786E-1
 8.152478973375000E9     1.901669365993810E-1    5.061050152440894E-1   -3.034989204451300E-3    1.740807722069588E-3   -3.051611511580008E-3    1.829998496911238E-3    3.104955280072837E-1    4.060552191623066E-1
 8.152480510800000E9     1.902741451221291E-1    5.060575341648531E-1   -3.033738766007972E-3    1.759975660343931E-3   -3.047855802945608E-3    1.823940660700925E-3    3.105311095524623E-1    4.061812351222870E-1
 8.152482048225000E9     1.904094049113517E-1    5.059790189764632E-1   -3.044660605672685E-3    1.748602906219815E-3   -3.017481779645900E-3    1.814344606141823E-3    3.106392619111289E-1    4.060091523221182E-1
 8.152483585650000E9     1.904787083059241E-1    5.059508433275196E-1   -3.067288625664228E-3    1.752249018861919E-3   -3.050045884594124E-3    1.823551395600616E-3    3.107801897776330E-1    4.060083611427071E-1
 8.152485123075000E9     1.906439942932756E-1    5.059584417522529E-1   -3.049172327008262E-3    1.760861825059307E-3   -3.018942154714915E-3    1.815222403240598E-3    3.108088128048953E-1    4.059233425532942E-1
 8.152486660500000E9     1.907551949566311E-1    5.058254431411242E-1   -3.054792117285118E-3    1.733848486808889E-3   -3.036440104374088E-3    1.827660889433811E-3    3.108059809413830E-1    4.058665485653892E-1
 8.152488197925000E9     1.909320479451341E-1    5.058209893456775E-1   -3.038453594169690E-3    1.779757901627838E-3   -3.060187497513165E-3    1.803632588858356E-3    3.109995011959727E-1    4.058418715120083E-1
 8.152489735350000E9     1.910633678025998E-1    5.058752107091655E-1   -3.053841386367203E-3    1.786294249538187E-3   -3.078700230119168E-3    1.823995879439052E-3    3.111336089041243E-1    4.058801843514906E-1
 8.152491272775000E9     1.911905832541753E-1    5.057897741502800E-1   -3.061571758305678E-3    1.776529464812163E-3   -3.066163283585541E-3    1.809973391405913E-3    3.110660593087637E-1    4.058590632537995E-1
 8.152492810200000E9     1.913500303337868E-1    5.056549981889544E-1   -3.043349918335861E-3    1.775225175425231E-3   -3.039043767435331E-3    1.853195151588747E-3    3.112403942096500E-1    4.056916791666806E-1
 8.152494347625000E9     1.914123185698162E-1    5.056184161876160E-1   -3.048082993538705E-3    1.785586666545358E-3   -3.079127941295784E-3    1.840832299001164E-3    3.113058804678115E-1    4.054260765711088E-1
 8.152495885050000E9     1.915798408556758E-1    5.054896237836870E-1   -3.085159771172665E-3    1.798848650056003E-3   -3.084855850494562E-3    1.856263073798219E-3    3.112959024974605E-1    4.055345627705724E-1
 8.152497422475000E9     1.916318949635588E-1    5.055399513660044E-1   -3.108532412253919E-3    1.810457807602658E-3   -3.075948233020712E-3    1.860160954974830E-3    3.115320844183944E-1    4.054832725141188E-1
 8.152498959900000E9     1.917899648732428E-1    5.055479821411782E-1   -3.103347580039329E-3    1.812030547109142E-3   -3.074455248548014E-3    1.883384598505497E-3    3.115976237420433E-1    4.054564582309231E-1
 8.152500497325000E9     1.919763336052073E-1    5.053252964524686E-1   -3.086105040886120E-3    1.798953748858335E-3   -3.105535762746824E-3    1.865051403383061E-3    3.115102943619623E-1    4.054119749120088E-1
 8.152502034750000E9     1.920586236802568E-1    5.053490121609266E-1   -3.096728224898239E-3    1.842871095558070E-3   -3.101248029539557E-3    1.878528326148267E-3    3.115726115501477E-1    4.052836006332539E-1
 8.152503572175000E9     1.922036919376524E-1    5.053487748920258E-1   -3.103116997384464E-3    1.821501160405664E-3   -3.103708152658992E-3    1.855007814063977E-3    3.117619991836787E-1    4.051998034364206E-1
 8.152505109600000E9     1.923926076742650E-1    5.052996544939109E-1   -3.120128204162057E-3    1.832087672668548E-3   -3.090000854896095E-3    1.874926900397167E-3    3.118288614789610E-1    4.050748810491565E-1
 8.152506647025000E9     1.924557476172099E-1    5.052854848707330E-1   -3.111899406822943E-3    1.854534826950087E-3   -3.122102296303523E-3    1.878267703321513E-3    3.118492410475204E-1    4.051198913454596E-1
 8.152508184450000E9     1.926288223393157E-1    5.052490151876027E-1   -3.090342573033270E-3    1.828793626367653E-3   -3.095715945727150E-3    1.879492261529326E-3    3.118741924739844E-1    4.049168402107153E-1
 8.152509721875000E9     1.926914631206025E-1    5.051679945755471E-1   -3.132807604854124E-3    1.863690140292460E-3   -3.133246366059149E-3    1.908732508057185E-3    3.119358973104426E-1    4.049779419603503E-1
 8.152511259300000E9     1.927634849123092E-1    5.050088448510670E-1   -3.144210541780518E-3    1.832738311434453E-3   -3.134443561628431E-3    1.882227351042139E-3    3.121099999094826E-1    4.049592641974832E-1
 8.152512796725000E9     1.930480189365994E-1    5.050108530465042E-1   -3.133219020196791E-3    1.845078931307746E-3   -3.151033517004520E-3    1.926053654859740E-3    3.121467784294683E-1    4.048552285329687E-1
 8.152514334150000E9     1.932521643392092E-1    5.049496846245234E-1   -3.121856399159520E-3    1.839163905383091E-3   -3.148828096109152E-3    1.919999114796238E-3    3.123397625976814E-1    4.048524845371743E-1
 8.152515871575000E9     1.931988878540693E-1    5.048608765953855E-1   -3.140873104060591E-3    1.847395096927130E-3   -3.109981968505740E-3    1.929507836448088E-3    3.123083645214069E-1    4.046884836506358E-1
 8.152517409000000E9     1.933577060297190E-1    5.047942072302118E-1   -3.132812243917640E-3    1.863729830895293E-3   -3.143185758891737E-3    1.946386282877409E-3    3.124899344245468E-1    4.046408215514908E-1
 8.152518946425000E9     1.934329910832508E-1    5.048353740355509E-1   -3.180266070800955E-3    1.873476795821607E-3   -3.150370342620601E-3    1.938181504862212E-3    3.124359685013114E-1    4.046961887851182E-1
 8.152520483850000E9     1.936244158828387E-1    5.048469215468059E-1   -3.150560308145547E-3    1.888612340972306E-3   -3.137199937798107E-3    1.927190916615318E-3    3.125676555186347E-1    4.047304720444251E-1
 8.152522021275000E9     1.938587538460093E-1    5.047523639027547E-1   -3.187569491560502E-3    1.882824252251220E-3   -3.147314978467355E-3    1.975970421783014E-3    3.125920765630434E-1    4.044721685159128E-1
 8.152523558700000E9     1.938859313430023E-1    5.046822010475961E-1   -3.161035640459376E-3    1.866611651933516E-3   -3.174321298155875E-3    1.942007332513717E-3    3.127600461077772E-1    4.044788722042907E-1
 8.152525096125000E9     1.940414904101213E-1    5.046425725940342E-1   -3.193991127174504E-3    1.898057319815330E-3   -3.187907349868699E-3    1.950740914579779E-3    3.126596234278107E-1    4.043746523103969E-1
 8.152526633550000E9     1.941851962857809E-1    5.045225026135676E-1   -3.198380779598766E-3    1.916336845607697E-3   -3.153583520722355E-3    1.979505781454195E-3    3.129243935164306E-1    4.042336180429170E-1
 8.152528170975000E9     1.943524522327336E-1    5.044642692621950E-1   -3.161038255931712E-3    1.892609922760360E-3   -3.207714584279368E-3    1.985768977265788E-3    3.128840473847418E-1    4.042326981716002E-1
 8.152529708400000E9     1.944515080363504E-1    5.042880344520553E-1   -3.198439098589638E-3    1.909798944404067E-3   -3.184862944673986E-3    1.987331016262736E-3    3.131060249578819E-1    4.041389246185484E-1
 8.152531245825000E9     1.945145373426007E-1    5.043696573302009E-1   -3.222943193123166E-3    1.922829106432154E-3   -3.205914133499385E-3    1.983149604428813E-3    3.130804775663998E-1    4.040491915529923E-1
 8.152532783250000E9     1.947062190362282E-1    5.043454076874445E-1   -3.191787189117492E-3    1.927401913247875E-3   -3.209885390215322E-3    1.985208409659865E-3    3.130276061430855E-1    4.040930827058922E-1
 8.152534320675000E9     1.947962884506289E-1    5.042097820065102E-1   -3.175794500252028E-3    1.914507258007775E-3   -3.183526811426171E-3    2.024745327311959E-3    3.133525358830581E-1    4.040504859177009E-1
 8.152535858100000E9     1.950242837122490E-1    5.040636599638437E-1   -3.219036931207129E-3    1.952093448407065E-3   -3.191986301783126E-3    2.018301859734326E-3    3.133516204118792E-1    4.039174881740275E-1
 8.152537395525000E9     1.951223404376150E-1    5.041147588489895E-1   -3.205307207042320E-3    1.951058662672247E-3   -3.197371423696807E-3    2.026016823948044E-3    3.133741273382513E-1    4.038460515720559E-1
 8.152538932950000E9     1.951498774154881E-1    5.040290942684833E-1   -3.220424155269051E-3    1.948902319873329E-3   -3.220442173742269E-3    2.004500321099745E-3    3.135062096117951E-1    4.039070822152671E-1
 8.152540470375000E9     1.953274712689740E-1    5.040194031635443E-1   -3.222384004462168E-3    1.950304699160360E-3   -3.246474190483977E-3    2.018509240831147E-3    3.135739147204582E-1    4.037273745830831E-1
 8.152542007800000E9     1.954581256335802E-1    5.040666248437226E-1   -3.238551508862015E-3    1.970790064654654E-3   -3.252795863442962E-3    2.013210064316922E-3    3.135222071486717E-1    4.036341960337680E-1
 8.152543545225000E9     1.955825686184981E-1    5.039239709184549E-1   -3.219593717883048E-3    1.948102280005829E-3   -3.243064032117314E-3    2.035954462256135E-3    3.137230318345103E-1    4.035803147384103E-1
 8.152545082650000E9     1.959559692474453E-1    5.037260606193551E-1   -3.234668023271541E-3    1.959578490669688E-3   -3.240625670405453E-3    2.051561265858683E-3    3.137673683998320E-1    4.036160042679702E-1
 8.152546620075000E9     1.959868865505185E-1    5.037980038706595E-1   -3.258299783633187E-3    1.992005502669945E-3   -3.254995470217681E-3    2.051752033349783E-3    3.139860321179865E-1    4.035598801316868E-1
 8.152548157500000E9     1.960882127501949E-1    5.038242933009343E-1   -3.288149951093570E-3    1.983867205908335E-3   -3.267046748371089E-3    2.036361346289213E-3    3.139517287252914E-1    4.035594024055367E-1
 8.152549694925000E9     1.961622914388711E-1    5.036071634268366E-1   -3.279400572778685E-3    1.992926795448625E-3   -3.238863789133641E-3    2.059111560270694E-3    3.139692328223174E-1    4.033611060883345E-1
 8.152551232350000E9     1.963521110355877E-1    5.036318901601686E-1   -3.288523446242405E-3    1.978136549044756E-3   -3.291643118648491E-3    2.108677818699249E-3    3.142538186728379E-1    4.033333391551459E-1
 8.152552769775000E9     1.965387538235943E-1    5.035589690182009E-1   -3.269466731368367E-3    1.999994910144236E-3   -3.265662777817617E-3    2.064869453722329E-3    3.141509602964543E-1    4.033016194927757E-1
 8.152554307200000E9     1.965531357915378E-1    5.035447439874391E-1   -3.272586961499845E-3    2.041537332493473E-3   -3.281642316945826E-3    2.084322241655111E-3    3.143878413814289E-1    4.031071354860908E-1
 8.152555844625000E9     1.967176297317408E-1    5.035303477476580E-1   -3.298154643564338E-3    2.027822859191426E-3   -3.296947874686124E-3    2.126873859032529E-3    3.143145838879794E-1    4.031682510443885E-1
 8.152557382050000E9     1.969529148202258E-1    5.034048798155839E-1   -3.318013075000156E-3    2.032592479949189E-3   -3.301549554114751E-3    2.071989334149131E-3    3.143233088982889E-1    4.032105887395680E-1
 8.152558919475000E9     1.971331924515865E-1    5.033619004731799E-1   -3.301441584540788E-3    2.048553036144481E-3   -3.297306441047501E-3    2.077294964312331E-3    3.144316240388740E-1    4.029166683389854E-1
 8.152560456900000E9     1.971862329900114E-1    5.032067238256965E-1   -3.307190523791325E-3    2.045957335267711E-3   -3.315913217663282E-3    2.113333359079150E-3    3.144439970515505E-1    4.029811924095371E-1
 8.152561994325000E9     1.974000625935107E-1    5.031350395372449E-1   -3.323066448897665E-3    2.030353234731957E-3   -3.292876286840548E-3    2.123354306470766E-3    3.147165193564148E-1    4.028860060502927E-1
 8.152563531750000E9     1.975482273419735E-1    5.030650481716104E-1   -3.346060325557659E-3    2.059105412516652E-3   -3.327183535909197E-3    2.154610967887450E-3    3.147380772295305E-1    4.028173859097773E-1
 8.152565069175000E9     1.977840632744158E-1    5.030166557185587E-1   -3.334009538905843E-3    2.095406906828641E-3   -3.332985949236886E-3    2.154158653789124E-3    3.145784309011193E-1    4.028562836591839E-1
 8.152566606600000E9     1.977624296579210E-1    5.028938507873314E-1   -3.350613144750157E-3    2.087365511073528E-3   -3.330159611543167E-3    2.156743198303443E-3    3.148141557748807E-1    4.026277696303516E-1
 8.152568144025000E9     1.977430573218766E-1    5.028021843962011E-1   -3.329623438307417E-3    2.100036545264138E-3   -3.370860937157972E-3    2.123809881921482E-3    3.149854545207654E-1    4.025524430191965E-1
 8.152569681450000E9     1.979399956929494E-1    5.028242058590903E-1   -3.363472911717212E-3    2.101011210423811E-3   -3.353599801605368E-3    2.168350609055512E-3    3.150136202918270E-1    4.025659945156183E-1
 8.152571218875000E9     1.982805199991852E-1    5.027854234491229E-1   -3.365558975872774E-3    2.096976561413473E-3   -3.382755500971600E-3    2.190596227949147E-3    3.151727265855679E-1    4.023476324236143E-1
 8.152572756300000E9     1.983704479899201E-1    5.026827213719860E-1   -3.375246959750597E-3    2.136932881663122E-3   -3.351014044340137E-3    2.183454213000217E-3    3.151323555053038E-1    4.023213788043176E-1
 8.152574293725000E9     1.983811822795767E-1    5.025935341238325E-1   -3.377244420709454E-3    2.130073186324315E-3   -3.335051281819208E-3    2.186241254942099E-3    3.151733938383381E-1    4.023499250550946E-1
 8.152575831150000E9     1.985867477910827E-1    5.025148930171784E-1   -3.409378716278887E-3    2.136271705683593E-3   -3.382536495174081E-3    2.194034005332057E-3    3.153914669997540E-1    4.022968863661951E-1
 8.152577368575000E9     1.987590169761587E-1    5.024903946357360E-1   -3.382359438640496E-3    2.158959574741667E-3   -3.380743133910638E-3    2.201021029204677E-3    3.153789979137782E-1    4.021142403924703E-1
 8.152578906000000E9     1.989240381372661E-1    5.024273536529772E-1   -3.381537558542186E-3    2.176847543376460E-3   -3.389996357790056E-3    2.229799637008062E-3    3.155207048986612E-1    4.021638664664094E-1
 8.152580443425000E9     1.991257958067858E-1    5.023409843710540E-1   -3.405274574473102E-3    2.156046333131904E-3   -3.411624270830595E-3    2.229980208680077E-3    3.155039722803500E-1    4.020797498025697E-1
 8.152581980850000E9     1.992029990607282E-1    5.022288741937304E-1   -3.416794657112268E-3    2.187409069300228E-3   -3.424247533822145E-3    2.229218104148940E-3    3.156172469210902E-1    4.020485583747139E-1
 8.152583518275000E9     1.994476650929911E-1    5.021366987712661E-1   -3.418365657283434E-3    2.180649742731462E-3   -3.413680681415949E-3    2.246980348623639E-3    3.156518546269325E-1    4.019936777480905E-1
 8.152585055700000E9     1.995930515309342E-1    5.020879095878773E-1   -3.441531005150731E-3    2.197661242521640E-3   -3.473777933839549E-3    2.242494251030312E-3    3.157472580690024E-1    4.019876681226353E-1
 8.152586593125000E9     1.996998667745726E-1    5.020890476405281E-1   -3.444902041255603E-3    2.195993261696233E-3   -3.481930216436624E-3    2.260545671398825E-3    3.158225779559485E-1    4.019393391878228E-1
 8.152588130550000E9     1.997815844084071E-1    5.019433332181519E-1   -3.435721728911680E-3    2.225367199613713E-3   -3.420060661319793E-3    2.264604193864576E-3    3.159370989441523E-1    4.017522419883218E-1
 8.152589667975000E9     1.999829031732465E-1    5.018322879986514E-1   -3.470450031181487E-3    2.243183691961039E-3   -3.459654485287825E-3    2.257680788865546E-3    3.160202596900961E-1    4.017441944445143E-1
 8.152591205400000E9     2.002173449680224E-1    5.018363971123692E-1   -3.466592019031322E-3    2.239889951356680E-3   -3.479896729334594E-3    2.320580691366025E-3    3.161565435683882E-1    4.016777924519112E-1
 8.152592742825000E9     2.003514631575153E-1    5.017475788783711E-1   -3.475342265685901E-3    2.247639255218784E-3   -3.471301095883035E-3    2.307386697284583E-3    3.162201822928825E-1    4.015210000582018E-1
 8.152594280250000E9     2.005412965855529E-1    5.016213798862937E-1   -3.491148929608402E-3    2.254637382628287E-3   -3.503672272153187E-3    2.326734753253520E-3    3.162934487500395E-1    4.014305639114852E-1
