#  HZ   S   RI   R     50.00 
! Rohde & Schwarz Vector Network Analyzer 
! Rohde-Schwarz,ZNB20-2Port,1311601062101988,3.16
! Created: UTC 3/21/2024, 1:20:49 AM
! freq[Hz]                re:S11                  im:S11                  re:S21                  im:S21                  re:S12                  im:S12                  re:S22                  im:S22
 8.152471866000000E9     1.893464192024377E-1    5.064100177642052E-1   -2.990294244299138E-3    1.709889698094863E-3   -3.037657099157696E-3    1.777288101377651E-3    3.099041751682442E-1    4.065341624107912E-1
 8.152473368350000E9     1.894675749119997E-1    5.063461783786308E-1   -3.002580940116732E-3    1.743378509290524E-3   -2.997948259700867E-3    1.772795915589350E-3    3.101866610294164E-1    4.063360528570340E-1
 8.152474870700000E9     1.895916301969223E-1    5.063546114991734E-1   -3.015921807131223E-3    1.722142122244228E-3   -3.003698350012967E-3    1.773854119636248E-3    3.102233274145180E-1    4.063754621032811E-1
 8.152476373050000E9     1.897451648419616E-1    5.062794600353415E-1   -3.008927135706121E-3    1.719516011779803E-3   -3.012062145716361E-3    1.781770567698001E-3    3.102818973287041E-1    4.063780775209178E-1
 8.152477875400000E9     1.899123925361938E-1    5.062444144398923E-1   -3.014614678524667E-3    1.707326424497846E-3   -3.028363571335580E-3    1.774735651358785E-3    3.104934131980249E-1    4.062715814014937E-1
 8.152479377750000E9     1.899074964146989E-1    5.062429826525305E-1   -3.016096585205675E-3    1.728021399834254E-3   -3.031334375655054E-3    1.790853098963635E-3    3.102631342373283E-1    4.060504253749131E-1
 8.152480880100000E9     1.900965062907398E-1    5.062147287662208E-1   -3.013220758677393E-3    1.754625692107253E-3   -3.052227362243300E-3    1.797517648254429E-3    3.103989949327384E-1    4.061699840282231E-1
 8.152482382450000E9     1.902402765173313E-1    5.061043965634554E-1   -3.023970025531259E-3    1.738965051571687E-3   -3.027223539760004E-3    1.805543875181388E-3    3.105205667693249E-1    4.060820468001687E-1
 8.152483884800000E9     1.904397077751127E-1    5.060025311469882E-1   -3.028767998065963E-3    1.735737286557639E-3   -3.057272366540957E-3    1.779860948593801E-3    3.107230017614816E-1    4.059494288912273E-1
 8.152485387150000E9     1.905293013010463E-1    5.060549616439920E-1   -3.034740492091239E-3    1.767058486983960E-3   -3.051207214922326E-3    1.806708608396462E-3    3.106211575663498E-1    4.060265138090299E-1
 8.152486889500000E9     1.905904135013319E-1    5.059705440267821E-1   -3.045130769501306E-3    1.755171038570504E-3   -3.051448842573462E-3    1.828502323768066E-3    3.106684962336110E-1    4.059628564470381E-1
 8.152488391850000E9     1.908471288106194E-1    5.059178816705285E-1   -3.026465217277420E-3    1.752079346684982E-3   -3.064624612746556E-3    1.799123039101437E-3    3.107858944090778E-1    4.058505408425271E-1
 8.152489894200000E9     1.908992505977839E-1    5.058198311745807E-1   -3.055988566712404E-3    1.771763374915142E-3   -3.040402200799130E-3    1.801600470403449E-3    3.110232770761056E-1    4.056510634967395E-1
 8.152491396550000E9     1.910641964333294E-1    5.058261457958459E-1   -3.049427246217235E-3    1.770180597632515E-3   -3.017482468556552E-3    1.831347064479943E-3    3.109528516275827E-1    4.057754953039669E-1
 8.152492898900000E9     1.911375569642838E-1    5.056925436422675E-1   -3.035646903455788E-3    1.784719882025800E-3   -3.060012898459086E-3    1.835678992465458E-3    3.110855260475088E-1    4.056690832281690E-1
 8.152494401250000E9     1.913285851507536E-1    5.057155436852819E-1   -3.067709720675094E-3    1.795350048642079E-3   -3.049783159454748E-3    1.848034306708077E-3    3.111618105405621E-1    4.056601972509495E-1
 8.152495903600000E9     1.913081143512028E-1    5.057463439819653E-1   -3.063766149285171E-3    1.786567678639005E-3   -3.027335472172512E-3    1.823978657919482E-3    3.112659759511187E-1    4.055302122075276E-1
 8.152497405950000E9     1.915660719520674E-1    5.055772190796484E-1   -3.045791815833689E-3    1.780875209524156E-3   -3.050839922222172E-3    1.851706134379817E-3    3.113074471178543E-1    4.054157429215032E-1
 8.152498908300000E9     1.915383304411511E-1    5.056275417387820E-1   -3.061751825758031E-3    1.763219001045391E-3   -3.065469789348690E-3    1.853521529580163E-3    3.115205469652519E-1    4.053819430028055E-1
 8.152500410650000E9     1.918586273092275E-1    5.055219908070546E-1   -3.039911070773249E-3    1.801328534287589E-3   -3.073072105557942E-3    1.822242374521495E-3    3.114542803240608E-1    4.053983247647728E-1
 8.152501913000000E9     1.919156337389186E-1    5.055831962084482E-1   -3.061374880524006E-3    1.820827230994128E-3   -3.074093029477910E-3    1.870804615860179E-3    3.114659314953949E-1    4.051249107582068E-1
 8.152503415350000E9     1.920216111446252E-1    5.054102147160748E-1   -3.100810229180908E-3    1.809676084438745E-3   -3.080057655705910E-3    1.853764255751052E-3    3.117112434632111E-1    4.051525944355343E-1
 8.152504917700000E9     1.921229744473518E-1    5.053599837036595E-1   -3.103879291848388E-3    1.815986500867187E-3   -3.094317476161386E-3    1.872335400735888E-3    3.117768117939782E-1    4.050832641960441E-1
 8.152506420050000E9     1.921545358058443E-1    5.053179894222074E-1   -3.104178060180908E-3    1.817222443296106E-3   -3.102978541211254E-3    1.830930403619347E-3    3.118050135818077E-1    4.050830029241040E-1
 8.152507922400000E9     1.924254817657771E-1    5.052666668270592E-1   -3.111455384689139E-3    1.807704806548202E-3   -3.100422916135314E-3    1.902065367430240E-3    3.117084158612309E-1    4.051529647039148E-1
 8.152509424750000E9     1.924568574013872E-1    5.052401355984721E-1   -3.111999064774714E-3    1.816057973619893E-3   -3.080192420823968E-3    1.884474833345643E-3    3.118732794676308E-1    4.049098473662962E-1
 8.152510927100000E9     1.926114959258126E-1    5.050539861960872E-1   -3.105299270743478E-3    1.808406838297876E-3   -3.083631257491139E-3    1.894006852301471E-3    3.119652170353059E-1    4.049611355231917E-1
 8.152512429450000E9     1.927940944813993E-1    5.051615398426600E-1   -3.130489662162297E-3    1.838253455066903E-3   -3.109831406844659E-3    1.876556422392960E-3    3.120321629119216E-1    4.048768130810054E-1
 8.152513931800000E9     1.928303610167318E-1    5.050999035010083E-1   -3.105875803449076E-3    1.833167509641285E-3   -3.108740268617767E-3    1.892346590560406E-3    3.120176454380425E-1    4.048229525892600E-1
 8.152515434150000E9     1.930941498375737E-1    5.049569733733851E-1   -3.119732946379376E-3    1.839323539629969E-3   -3.115257430810571E-3    1.916715733679944E-3    3.121708386960358E-1    4.046466749688241E-1
 8.152516936500000E9     1.932018621929384E-1    5.049596982887099E-1   -3.112827491791493E-3    1.852162079853288E-3   -3.123326132521409E-3    1.892950136887527E-3    3.122709252539078E-1    4.046604182066942E-1
 8.152518438850000E9     1.932760850647570E-1    5.049282614587682E-1   -3.169586669266958E-3    1.862466334575440E-3   -3.112370772595801E-3    1.930404750113273E-3    3.123744766236474E-1    4.046156465379222E-1
 8.152519941200000E9     1.934487579391928E-1    5.048073953186474E-1   -3.141211960117576E-3    1.864378301881366E-3   -3.140336200338397E-3    1.912004416976249E-3    3.125408940739346E-1    4.045802216869639E-1
 8.152521443550000E9     1.935763361351709E-1    5.048064569789785E-1   -3.129284548358476E-3    1.868127954590420E-3   -3.138489514848563E-3    1.928662538465378E-3    3.125760566916466E-1    4.045252345956686E-1
 8.152522945900000E9     1.936562580148090E-1    5.047128650289129E-1   -3.155255258381913E-3    1.844603956001974E-3   -3.151894969686883E-3    1.911287382066594E-3    3.125084581379904E-1    4.045123804891114E-1
 8.152524448250000E9     1.937919319273825E-1    5.046536925231194E-1   -3.140184185197836E-3    1.880832788010211E-3   -3.160340795394811E-3    1.943595486708006E-3    3.126994523605956E-1    4.043745196930607E-1
 8.152525950600000E9     1.939342001232446E-1    5.045589835018391E-1   -3.170701815556791E-3    1.901851527801064E-3   -3.137263681307800E-3    1.971028200223779E-3    3.127752545719568E-1    4.043407856620558E-1
 8.152527452950000E9     1.939982336321129E-1    5.046037603834500E-1   -3.142681349950594E-3    1.885421893045723E-3   -3.163201458799314E-3    1.923922805018306E-3    3.127805980859001E-1    4.042284292655153E-1
 8.152528955300000E9     1.942706069370884E-1    5.045728277240075E-1   -3.146567787460269E-3    1.885429054628953E-3   -3.151070732721898E-3    1.950628907698344E-3    3.128687667627791E-1    4.042948804713136E-1
 8.152530457650000E9     1.943911447926300E-1    5.043878033471159E-1   -3.169747440761630E-3    1.917967976255674E-3   -3.151882031817094E-3    1.947451472838892E-3    3.130267965751901E-1    4.040264476565866E-1
 8.152531960000000E9     1.943996713058070E-1    5.044550065990769E-1   -3.157498142355251E-3    1.895399518898020E-3   -3.196519226814490E-3    1.949837720654338E-3    3.130816897342938E-1    4.042353742289249E-1
 8.152533462350000E9     1.945571416465696E-1    5.043122404607687E-1   -3.172044796343177E-3    1.896566115926531E-3   -3.174057674143057E-3    1.977912098328393E-3    3.130348466074549E-1    4.038260738942747E-1
 8.152534964700000E9     1.947056801350783E-1    5.042808828991668E-1   -3.192370670470136E-3    1.909345846651216E-3   -3.166539299662999E-3    1.990138099072262E-3    3.132112684699388E-1    4.039422367781951E-1
 8.152536467050000E9     1.948201647703436E-1    5.042978091793329E-1   -3.160868892271317E-3    1.918294650894501E-3   -3.217365465497478E-3    1.945805240187044E-3    3.132845482076698E-1    4.038591884588679E-1
 8.152537969400000E9     1.949181905752953E-1    5.042326315716853E-1   -3.223690131277962E-3    1.929262199348379E-3   -3.174845108257612E-3    1.980398557301053E-3    3.133612849134575E-1    4.038463164272373E-1
 8.152539471750000E9     1.951419854794638E-1    5.041261819397166E-1   -3.201147363897514E-3    1.921105647074268E-3   -3.185618225707470E-3    1.999430994226429E-3    3.134568955569364E-1    4.037960482605576E-1
 8.152540974100000E9     1.951635709773208E-1    5.041786989802790E-1   -3.201597787236766E-3    1.922001662334749E-3   -3.212347699450755E-3    1.980863260958453E-3    3.135320448850464E-1    4.037240024047729E-1
 8.152542476450000E9     1.955068374547015E-1    5.040804125440091E-1   -3.226464539938432E-3    1.915622501666307E-3   -3.194146065448534E-3    2.020975470110765E-3    3.135948187114770E-1    4.036528364241435E-1
 8.152543978800000E9     1.954074181559947E-1    5.040228160368074E-1   -3.207520446197517E-3    1.941359940573755E-3   -3.202205265959440E-3    1.985370187230822E-3    3.136123410716621E-1    4.036524120094633E-1
 8.152545481150000E9     1.956791357886007E-1    5.038918992866470E-1   -3.231105151986182E-3    1.971470335066917E-3   -3.212806470293779E-3    2.014610458253373E-3    3.136998931141666E-1    4.035640510241090E-1
 8.152546983500000E9     1.957574051636638E-1    5.038755601440189E-1   -3.246891048400194E-3    1.965654308675169E-3   -3.250604923330149E-3    1.998953438713134E-3    3.138817478499213E-1    4.034506678311584E-1
 8.152548485850000E9     1.959203489654257E-1    5.038403150450055E-1   -3.249810818313104E-3    1.979325763331478E-3   -3.243419157704992E-3    2.024282381122128E-3    3.139606846139721E-1    4.034210337680273E-1
 8.152549988200000E9     1.961152095112637E-1    5.036790557413241E-1   -3.225479605316721E-3    1.949994977472287E-3   -3.259020790999239E-3    2.042443317104190E-3    3.140062211791824E-1    4.033317663863278E-1
 8.152551490550000E9     1.962532715611300E-1    5.037917127518300E-1   -3.248812606195401E-3    1.980440348515567E-3   -3.239826255129587E-3    2.047449435686269E-3    3.140296789025928E-1    4.032375903640421E-1
 8.152552992900000E9     1.962838701450775E-1    5.035614758644779E-1   -3.246181114071614E-3    1.977582583437279E-3   -3.248679466497075E-3    2.017349157909476E-3    3.140231014076011E-1    4.032380557440572E-1
 8.152554495250000E9     1.964919153320793E-1    5.035499191355189E-1   -3.255877817633229E-3    1.978717887622136E-3   -3.235569589599576E-3    2.053058018783610E-3    3.141737793634437E-1    4.030917664528593E-1
 8.152555997600000E9     1.965199212070423E-1    5.034790462273023E-1   -3.275285164250716E-3    1.999607949183350E-3   -3.275317817485418E-3    2.083988853958790E-3    3.143741752198834E-1    4.031316708833435E-1
 8.152557499950000E9     1.967846651075101E-1    5.035230989455947E-1   -3.264174037049128E-3    1.991617867254724E-3   -3.274030279635604E-3    2.064144885064277E-3    3.144010210172880E-1    4.029340269597199E-1
 8.152559002300000E9     1.968215572375427E-1    5.034062344438731E-1   -3.260482938690177E-3    2.001203798751276E-3   -3.264383633449353E-3    2.030508747577597E-3    3.144888437228704E-1    4.030214284772500E-1
 8.152560504650000E9     1.969776573462018E-1    5.033877663040972E-1   -3.282796597305073E-3    2.034851675742738E-3   -3.277451415997073E-3    2.090316394109491E-3    3.144077739908713E-1    4.029296760964925E-1
 8.152562007000000E9     1.971294275140091E-1    5.033187427023623E-1   -3.282726662463301E-3    2.011786040250506E-3   -3.317617895333364E-3    2.081676139445326E-3    3.147175995392393E-1    4.028044116147858E-1
 8.152563509350000E9     1.973000974125541E-1    5.032591328640909E-1   -3.279760362665586E-3    2.020963386537858E-3   -3.303383857882104E-3    2.098349527305960E-3    3.145581943438517E-1    4.026871401827437E-1
 8.152565011700000E9     1.973207295398206E-1    5.031849243480581E-1   -3.310848537542056E-3    2.031151690719219E-3   -3.294592561696300E-3    2.099491569272093E-3    3.147712828122981E-1    4.024974819700753E-1
 8.152566514050000E9     1.975796233991711E-1    5.030023497629342E-1   -3.289621147486217E-3    2.026614480285942E-3   -3.304590003785883E-3    2.094610574965785E-3    3.149105312071027E-1    4.025422487290833E-1
 8.152568016400000E9     1.976270767382070E-1    5.030318999043129E-1   -3.305215833463741E-3    2.063207186422954E-3   -3.336511497893485E-3    2.133247713463877E-3    3.148531878108477E-1    4.026146891785525E-1
 8.152569518750000E9     1.978008557837045E-1    5.029560028630519E-1   -3.336302588647556E-3    2.055208444847626E-3   -3.315371696196223E-3    2.104563539491910E-3    3.148991256703128E-1    4.024185253745017E-1
 8.152571021100000E9     1.979372605131391E-1    5.028831735932823E-1   -3.345311809215237E-3    2.077004953961581E-3   -3.310317909257590E-3    2.129057407319147E-3    3.150477914211406E-1    4.024279217511706E-1
 8.152572523450000E9     1.981939363967314E-1    5.027562433610112E-1   -3.349110150356664E-3    2.085617844378467E-3   -3.352861746098823E-3    2.144410741420204E-3    3.148865605201238E-1    4.023938513905211E-1
 8.152574025800000E9     1.982780654525912E-1    5.027409521453542E-1   -3.337537709714403E-3    2.097606747751976E-3   -3.351179229144010E-3    2.138515211438551E-3    3.152230748633900E-1    4.023725558010464E-1
 8.152575528150000E9     1.983443591788372E-1    5.027738230200026E-1   -3.364872948908425E-3    2.104405926039832E-3   -3.324684385080837E-3    2.161309190194419E-3    3.152925552143528E-1    4.023080217526230E-1
 8.152577030500000E9     1.985402847471115E-1    5.026986065348583E-1   -3.375045277408573E-3    2.117420039507457E-3   -3.359420900604064E-3    2.187994962906165E-3    3.151896798502737E-1    4.021420351328017E-1
 8.152578532850000E9     1.987035747686460E-1    5.025716924634075E-1   -3.353596482178508E-3    2.096165320532836E-3   -3.388504611681815E-3    2.172593191265794E-3    3.154193156919001E-1    4.021461064176005E-1
 8.152580035200000E9     1.988724128093440E-1    5.024765002192653E-1   -3.384730308897282E-3    2.126589821686622E-3   -3.370924850791622E-3    2.188932119349915E-3    3.154865673732687E-1    4.020361957165169E-1
 8.152581537550000E9     1.990042179394578E-1    5.024414619338652E-1   -3.378544747553872E-3    2.129530462904539E-3   -3.375677153422995E-3    2.220202970258823E-3    3.154235321526330E-1    4.020426016832970E-1
 8.152583039900000E9     1.990875529049981E-1    5.023901645830767E-1   -3.392303768228995E-3    2.141984495837054E-3   -3.383515913634600E-3    2.176062819710575E-3    3.156789581534817E-1    4.018838540345018E-1
 8.152584542250000E9     1.992424740212001E-1    5.024358208970485E-1   -3.396192630655091E-3    2.150050325941516E-3   -3.418024284492110E-3    2.210809261805621E-3    3.156355912012111E-1    4.019213866901809E-1
 8.152586044600000E9     1.994736965123267E-1    5.022085431180506E-1   -3.446698266132046E-3    2.167187729851144E-3   -3.388723066066510E-3    2.225611747437759E-3    3.157555187466521E-1    4.018707958518908E-1
 8.152587546950000E9     1.995934952490930E-1    5.021380705923135E-1   -3.402878437174611E-3    2.134341880842519E-3   -3.428166105989926E-3    2.250242209639024E-3    3.158306991289689E-1    4.016277752534389E-1
 8.152589049300000E9     1.996158388260079E-1    5.020610727116589E-1   -3.393017829928120E-3    2.167250615812596E-3   -3.427815600751389E-3    2.241835960298028E-3    3.157034521217067E-1    4.018422068078213E-1
 8.152590551650000E9     1.998344343351463E-1    5.020420937878102E-1   -3.435004081108521E-3    2.208949631958330E-3   -3.396498761544427E-3    2.235569336807762E-3    3.160082498595491E-1    4.016567368197979E-1
 8.152592054000000E9     2.000436655981225E-1    5.019936658262769E-1   -3.449060805725794E-3    2.172522153665481E-3   -3.414491614546019E-3    2.262337027268264E-3    3.160582031320367E-1    4.015351048329076E-1
 8.152593556350000E9     2.002259984196121E-1    5.018169278450366E-1   -3.440891610596313E-3    2.223500217299060E-3   -3.438640382577261E-3    2.274486116446403E-3    3.161833529731758E-1    4.015415770282486E-1
 8.152595058700000E9     2.002306415950362E-1    5.019330293278322E-1   -3.491753096752772E-3    2.235081274275098E-3   -3.440747359588854E-3    2.259387399396788E-3    3.162122291637708E-1    4.014857069397568E-1
 8.152596561050000E9     2.004900568251057E-1    5.018619808379113E-1   -3.477852345911914E-3    2.232038214362625E-3   -3.473671703133954E-3    2.304708359978811E-3    3.162445505054902E-1    4.014709797761521E-1
 8.152598063400000E9     2.004680786480032E-1    5.017227598321358E-1   -3.514683954455259E-3    2.218476751554715E-3   -3.475781115969756E-3    2.318075786185989E-3    3.163683581541724E-1    4.012872632963750E-1
 8.152599565750000E9     2.007052503584539E-1    5.016144039234207E-1   -3.489213248083658E-3    2.261812765820291E-3   -3.521820060677334E-3    2.303689333016582E-3    3.164959734180570E-1    4.014387106911880E-1
 8.152601068100000E9     2.009238615527855E-1    5.013879909919287E-1   -3.496165004327299E-3    2.271535589338101E-3   -3.478289050576671E-3    2.315084696236801E-3    3.165001822753787E-1    4.011136199833261E-1
 8.152602570450000E9     2.011309322025696E-1    5.014981038911454E-1   -3.528062574204878E-3    2.265369957238955E-3   -3.523178515953763E-3    2.345893855353636E-3    3.165816130257930E-1    4.011489957771053E-1
 8.152604072800000E9     2.011229230555494E-1    5.014829303701317E-1   -3.514873892093674E-3    2.270296006147337E-3   -3.529252841424515E-3    2.359449498161408E-3    3.165983356695889E-1    4.009917688280651E-1
 8.152605575150000E9     2.014203923115467E-1    5.013733983596272E-1   -3.527040506764768E-3    2.280629770260133E-3   -3.569780343545968E-3    2.365599712337919E-3    3.167086766987237E-1    4.009314210848622E-1
 8.152607077500000E9     2.015080992914369E-1    5.011730488001573E-1   -3.532193101707290E-3    2.289050130043041E-3   -3.531014339009683E-3    2.390236631302077E-3    3.168687507924393E-1    4.010185783511693E-1
