#  HZ   S   RI   R     50.00 
! Rohde & Schwarz Vector Network Analyzer 
! Rohde-Schwarz,ZNB20-2Port,1311601062101988,3.16
! Created: UTC 3/21/2024, 1:20:52 AM
! freq[Hz]                re:S11                  im:S11                  re:S21                  im:S21                  re:S12                  im:S12                  re:S22                  im:S22
 8.152473646000000E9     1.893829519792665E-1    5.064081148503848E-1   -3.013387930122645E-3    1.722906313742420E-3   -3.008198298275095E-3    1.784659862741111E-3    3.099761010929820E-1    4.065147711199586E-1
 8.152475146850000E9     1.895784461234555E-1    5.063805514420373E-1   -3.002490021584486E-3    1.732078411437491E-3   -2.989507855908915E-3    1.800794416759169E-3    3.101020729990213E-1    4.063516498505231E-1
 8.152476647700000E9     1.896575281777357E-1    5.063052260684097E-1   -3.020215020097792E-3    1.723918565390087E-3   -2.998461338810939E-3    1.783868707071279E-3    3.102092724863875E-1    4.063723849601432E-1
 8.152478148550000E9     1.899129855300985E-1    5.062316475412281E-1   -3.035232579990864E-3    1.743386774022683E-3   -2.997789947350578E-3    1.782050659159984E-3    3.102352603989295E-1    4.063855870395344E-1
 8.152479649400000E9     1.900530322825291E-1    5.061918469735808E-1   -3.029682884550830E-3    1.739006938568923E-3   -3.033212668957498E-3    1.772254074287738E-3    3.103975867407773E-1    4.061997065084891E-1
 8.152481150250000E9     1.901416795577534E-1    5.060967398236953E-1   -3.019498673294826E-3    1.710382685996827E-3   -3.043286823787039E-3    1.782947337726631E-3    3.103065749822846E-1    4.062509046360416E-1
 8.152482651100000E9     1.901661244233355E-1    5.061324049128992E-1   -3.028049251714488E-3    1.758901225101063E-3   -3.037294188387637E-3    1.790896933769539E-3    3.104435502513850E-1    4.062112665231200E-1
 8.152484151950000E9     1.902454477185362E-1    5.059579786969953E-1   -3.048755509552059E-3    1.699814986839310E-3   -3.054917965877960E-3    1.795410962641016E-3    3.106157198360464E-1    4.059749054875391E-1
 8.152485652800000E9     1.905234481646195E-1    5.060242212431916E-1   -3.039027535082285E-3    1.772311464348494E-3   -3.050341283538563E-3    1.815672180744853E-3    3.105483008389396E-1    4.059389515276766E-1
 8.152487153650000E9     1.905268662168295E-1    5.059596401348758E-1   -3.041706509128633E-3    1.746785804164936E-3   -3.039592694038650E-3    1.840134873011691E-3    3.106261990284106E-1    4.060021694465725E-1
 8.152488654500000E9     1.906934386501729E-1    5.059045316322173E-1   -3.028574360126956E-3    1.770184377641770E-3   -3.056073089291060E-3    1.822085971878890E-3    3.107833673713521E-1    4.059025598946903E-1
 8.152490155350000E9     1.908235703946697E-1    5.059013057551145E-1   -3.045209324103021E-3    1.756941657799630E-3   -3.049119000361874E-3    1.828598282872816E-3    3.108048946662716E-1    4.058688434817591E-1
 8.152491656200000E9     1.910427837834854E-1    5.058882001458336E-1   -3.039160595027100E-3    1.766493757611051E-3   -3.043577185726703E-3    1.814707530982502E-3    3.108027396221221E-1    4.056422263431158E-1
 8.152493157050000E9     1.909022611399007E-1    5.057374199091111E-1   -3.022622790720400E-3    1.766398078538377E-3   -3.056280886115424E-3    1.826495623808957E-3    3.110585543394420E-1    4.057249497070641E-1
 8.152494657900000E9     1.911579058685701E-1    5.057173117451611E-1   -3.048709927375339E-3    1.769156781676750E-3   -3.050635883685878E-3    1.825627463499153E-3    3.111525949951085E-1    4.056848377908586E-1
 8.152496158750000E9     1.914247628804917E-1    5.057121131293535E-1   -3.090914681752775E-3    1.778989045901550E-3   -3.066650557803015E-3    1.837451855033586E-3    3.111545170863722E-1    4.056074643599293E-1
 8.152497659600000E9     1.913898975814165E-1    5.056584299230189E-1   -3.072757504251151E-3    1.785815883319825E-3   -3.050921482693458E-3    1.821751034753104E-3    3.110644969828056E-1    4.055998941671525E-1
 8.152499160450000E9     1.915080335563614E-1    5.055193480921342E-1   -3.078476597031676E-3    1.768820061453257E-3   -3.052546702041999E-3    1.848802637185090E-3    3.112451046382639E-1    4.053796425499991E-1
 8.152500661300000E9     1.916660064116653E-1    5.055192137401487E-1   -3.076218420446970E-3    1.764538987010547E-3   -3.043042394922651E-3    1.835633878496455E-3    3.113263730440679E-1    4.054055100938524E-1
 8.152502162150000E9     1.918680427678135E-1    5.054938718156272E-1   -3.062375568101289E-3    1.799557891712912E-3   -3.043432284728561E-3    1.877803881461583E-3    3.114528128693720E-1    4.054032059024210E-1
 8.152503663000000E9     1.919490092111181E-1    5.054890476138263E-1   -3.078363191998558E-3    1.802996664798688E-3   -3.054741227966125E-3    1.862504410890359E-3    3.115178296756879E-1    4.052263068047868E-1
 8.152505163850000E9     1.920728498659253E-1    5.053011204240947E-1   -3.079150013626539E-3    1.811660746446546E-3   -3.094409820142791E-3    1.879630596489622E-3    3.116702717128363E-1    4.050936684244801E-1
 8.152506664700000E9     1.921414679869385E-1    5.052728455027249E-1   -3.073534005669443E-3    1.808199030739793E-3   -3.104783331403231E-3    1.841232429412825E-3    3.115969642044202E-1    4.051615214341076E-1
 8.152508165550000E9     1.923208135205799E-1    5.052148826815311E-1   -3.110628427783966E-3    1.819149776955316E-3   -3.107306621848791E-3    1.873449043802347E-3    3.116786082303151E-1    4.051938139186304E-1
 8.152509666400000E9     1.925187098278425E-1    5.052511166747863E-1   -3.092563786866240E-3    1.826417266550412E-3   -3.095939773718712E-3    1.851879130513129E-3    3.118101545458198E-1    4.050620422899353E-1
 8.152511167250000E9     1.926118463729785E-1    5.052190952935854E-1   -3.108779950215330E-3    1.847437315044205E-3   -3.095964072650339E-3    1.844624805432425E-3    3.119847120688886E-1    4.048240419867977E-1
 8.152512668100000E9     1.927069163094696E-1    5.051479913528472E-1   -3.116092448367040E-3    1.801855639829429E-3   -3.087823097963291E-3    1.882868713642831E-3    3.119410947050283E-1    4.049296232069207E-1
 8.152514168950000E9     1.927644197156758E-1    5.049596552133736E-1   -3.100721738236531E-3    1.830842124573203E-3   -3.111771770841374E-3    1.871311247996517E-3    3.120199925448834E-1    4.048613766639718E-1
 8.152515669800000E9     1.929687746799507E-1    5.050013251004117E-1   -3.117062942704396E-3    1.821579017610060E-3   -3.149998864264472E-3    1.897067462611703E-3    3.122037091741281E-1    4.048077658261538E-1
 8.152517170650000E9     1.930692819185677E-1    5.049982046464760E-1   -3.117490940815317E-3    1.832935876015246E-3   -3.121898512967732E-3    1.913811309044227E-3    3.121269593417991E-1    4.048492600493437E-1
 8.152518671500000E9     1.931627301630499E-1    5.050337636768353E-1   -3.127357108465823E-3    1.831376546429697E-3   -3.108032469825034E-3    1.913812063465296E-3    3.122749179193207E-1    4.045534569772386E-1
 8.152520172350000E9     1.933515652401883E-1    5.049299632492794E-1   -3.113843884412767E-3    1.837701356892055E-3   -3.122587822745352E-3    1.900416706140829E-3    3.123213770180567E-1    4.046855713601533E-1
 8.152521673200000E9     1.934828397626365E-1    5.047073763571547E-1   -3.126148008145665E-3    1.861799203906457E-3   -3.157837922830200E-3    1.924855961783245E-3    3.124000039607722E-1    4.045187488799859E-1
 8.152523174050000E9     1.935508586872454E-1    5.048018203997563E-1   -3.112781663026661E-3    1.880343748338842E-3   -3.156474324321308E-3    1.926057500366507E-3    3.125019506406813E-1    4.044735135183988E-1
 8.152524674900000E9     1.936025404634041E-1    5.046879699237726E-1   -3.151732690436868E-3    1.866936372079007E-3   -3.143232737598547E-3    1.921030981068967E-3    3.125983096425303E-1    4.044170036592584E-1
 8.152526175750000E9     1.937790487003958E-1    5.046418630209624E-1   -3.161005723343814E-3    1.873900541109401E-3   -3.147213986425823E-3    1.931155861179025E-3    3.126044714826651E-1    4.043531122450291E-1
 8.152527676600000E9     1.941067049163112E-1    5.045198410844038E-1   -3.153850963975627E-3    1.877334090737138E-3   -3.146197137716281E-3    1.920627719928725E-3    3.126752454195775E-1    4.044241845438440E-1
 8.152529177450000E9     1.941417790151991E-1    5.045841369402077E-1   -3.145839083764576E-3    1.880073110129459E-3   -3.121233313314757E-3    1.944016654511937E-3    3.128895109742392E-1    4.043351513938317E-1
 8.152530678300000E9     1.941805122109989E-1    5.044478303178257E-1   -3.186122430625414E-3    1.906914615506799E-3   -3.156328412828254E-3    1.943336566578435E-3    3.128420312807168E-1    4.041947931614278E-1
 8.152532179150000E9     1.943469887941209E-1    5.044479818038913E-1   -3.169147657170509E-3    1.889427802540444E-3   -3.186848831425454E-3    1.930220584314633E-3    3.128994141291917E-1    4.042018502090983E-1
 8.152533680000000E9     1.945270060400369E-1    5.044155464462813E-1   -3.178135291853108E-3    1.900506863674235E-3   -3.178452877744611E-3    1.965757730295314E-3    3.129721114212308E-1    4.040613204317934E-1
 8.152535180850000E9     1.946849343503895E-1    5.043910091666325E-1   -3.186751145977370E-3    1.928949537915369E-3   -3.163016926956512E-3    1.982237463837845E-3    3.130786141877220E-1    4.040867060655373E-1
 8.152536681700000E9     1.947099573214019E-1    5.042866149210968E-1   -3.185836411710188E-3    1.904618017668438E-3   -3.191672218939931E-3    1.969458099767183E-3    3.131628986225548E-1    4.039166181538557E-1
 8.152538182550000E9     1.948057740842687E-1    5.043448235297358E-1   -3.212367641012530E-3    1.899984692671880E-3   -3.156546156350374E-3    1.984447423474378E-3    3.132089112463396E-1    4.038247472680531E-1
 8.152539683400000E9     1.949967144071040E-1    5.042976411832253E-1   -3.199524898326390E-3    1.940790435065239E-3   -3.175805404588498E-3    1.993898045540802E-3    3.133359664500099E-1    4.036964535943757E-1
 8.152541184250000E9     1.951362961057894E-1    5.041372547905427E-1   -3.187308193747555E-3    1.930650613664636E-3   -3.188398200734154E-3    1.978380797815813E-3    3.133928267079757E-1    4.037657510730029E-1
 8.152542685100000E9     1.952381699414807E-1    5.041727780237044E-1   -3.208817393584872E-3    1.912239991657463E-3   -3.196554669241678E-3    2.011344289465340E-3    3.135974060796990E-1    4.036189431592261E-1
 8.152544185950000E9     1.954576134659019E-1    5.040256113871653E-1   -3.202301109805220E-3    1.928516899506197E-3   -3.208366452599554E-3    2.013350644294427E-3    3.135678502209520E-1    4.037693399222670E-1
 8.152545686800000E9     1.955188928706368E-1    5.040126646756624E-1   -3.210922437837717E-3    1.958488762785387E-3   -3.206938124041265E-3    1.991326821409106E-3    3.135968678093639E-1    4.036531477201533E-1
 8.152547187650000E9     1.956895381680920E-1    5.038693130660931E-1   -3.217791387405316E-3    1.943042949584404E-3   -3.214295902475366E-3    2.035078333987235E-3    3.137425655107144E-1    4.034422536146381E-1
 8.152548688500000E9     1.958914231278516E-1    5.038142702148319E-1   -3.219756675240984E-3    1.953484176670925E-3   -3.218762896183917E-3    2.004021749107846E-3    3.136948002528245E-1    4.035226124415487E-1
 8.152550189350000E9     1.959444467312874E-1    5.038542776791071E-1   -3.229664071619126E-3    1.980880400839668E-3   -3.238381670963821E-3    2.030344392039441E-3    3.138869977290777E-1    4.032624698175650E-1
 8.152551690200000E9     1.960689902144246E-1    5.037681858916169E-1   -3.240311510586264E-3    1.964747107432395E-3   -3.254326744442673E-3    2.037418537780603E-3    3.138694078548266E-1    4.033406585445412E-1
 8.152553191050000E9     1.962816083728525E-1    5.035500126272214E-1   -3.255035024986817E-3    1.983512704320064E-3   -3.263809175445432E-3    2.013516369864367E-3    3.140732151018674E-1    4.031839350835441E-1
 8.152554691900000E9     1.964065565380012E-1    5.035912076853521E-1   -3.248760596443764E-3    1.976907112702112E-3   -3.230128346779701E-3    2.035752316159590E-3    3.140489383348905E-1    4.031588418293004E-1
 8.152556192750000E9     1.965686144244518E-1    5.035540357394137E-1   -3.231525938512132E-3    1.990874867495188E-3   -3.284900064820359E-3    2.038357666810855E-3    3.141313210458584E-1    4.031186799571327E-1
 8.152557693600000E9     1.966143000042424E-1    5.035622786737303E-1   -3.284170161977504E-3    1.988894110194010E-3   -3.264246807901676E-3    2.044169164947217E-3    3.143110124924473E-1    4.030769155450209E-1
 8.152559194450000E9     1.966937704403803E-1    5.035184751693783E-1   -3.266347277535590E-3    2.017031241685309E-3   -3.254416731184671E-3    2.050455117578110E-3    3.143782592112710E-1    4.029435607516687E-1
 8.152560695300000E9     1.969735607019233E-1    5.033710747594501E-1   -3.278327582640643E-3    2.019700254798816E-3   -3.290309895360661E-3    2.068000376870275E-3    3.142908014653820E-1    4.029611451250804E-1
 8.152562196150000E9     1.971110528104573E-1    5.033025620126188E-1   -3.275650096448152E-3    2.024813314188135E-3   -3.278071990574115E-3    2.095097834426500E-3    3.143881105385565E-1    4.028225095906559E-1
 8.152563697000000E9     1.972043209883349E-1    5.033306321375880E-1   -3.301709912511164E-3    1.994399206592692E-3   -3.305191874815898E-3    2.086586973194615E-3    3.144122864524697E-1    4.029274822656014E-1
 8.152565197850000E9     1.973907927258697E-1    5.032551099077960E-1   -3.304118929166920E-3    2.038721201492078E-3   -3.283840228072834E-3    2.089183841157880E-3    3.145760144082298E-1    4.027941694074664E-1
 8.152566698700000E9     1.974555610057589E-1    5.031689349204700E-1   -3.297536285830609E-3    2.029327276832122E-3   -3.287809668006916E-3    2.129996031125738E-3    3.145709113311740E-1    4.027140556777508E-1
 8.152568199550000E9     1.976204332419894E-1    5.030902505017476E-1   -3.304888227002353E-3    2.062863076665479E-3   -3.324049775547635E-3    2.084378371752181E-3    3.146323841043724E-1    4.025885840493071E-1
 8.152569700400000E9     1.977302288103879E-1    5.031458018122054E-1   -3.301600418252947E-3    2.037132534414279E-3   -3.356395850535580E-3    2.135171170992072E-3    3.147116182607413E-1    4.026109132261648E-1
 8.152571201250000E9     1.979083045411927E-1    5.030347825128907E-1   -3.331220537678769E-3    2.068843660090305E-3   -3.318893659088407E-3    2.138232329953547E-3    3.148495149032768E-1    4.025475889097005E-1
 8.152572702100000E9     1.979744894441296E-1    5.029471519582784E-1   -3.331760426763173E-3    2.077282692617406E-3   -3.342037638942833E-3    2.171005125456088E-3    3.149393333151460E-1    4.024713559466789E-1
 8.152574202950000E9     1.981462502220031E-1    5.028590353336977E-1   -3.319206313236637E-3    2.097775483830467E-3   -3.326147469862472E-3    2.136434554404022E-3    3.150342724425212E-1    4.024609033108080E-1
 8.152575703800000E9     1.983825776537865E-1    5.027973200241620E-1   -3.323375923417627E-3    2.094013525369717E-3   -3.352327293549856E-3    2.150647794121499E-3    3.152494581200750E-1    4.023659868603643E-1
 8.152577204650000E9     1.984525831510913E-1    5.026341982953114E-1   -3.367977257387559E-3    2.095275454721399E-3   -3.380710181664832E-3    2.138781285814488E-3    3.153019446098311E-1    4.021234021459613E-1
 8.152578705500000E9     1.986357356868574E-1    5.026647102956967E-1   -3.395966220477910E-3    2.125228368489626E-3   -3.363151979305850E-3    2.169123190826453E-3    3.152037387953827E-1    4.023569665135710E-1
 8.152580206350000E9     1.987440629384887E-1    5.026123114186399E-1   -3.361322014516696E-3    2.109481603969086E-3   -3.367467011849801E-3    2.175994037113374E-3    3.154323930524865E-1    4.021922828095574E-1
 8.152581707200000E9     1.987637906748764E-1    5.024718502169087E-1   -3.382864167837125E-3    2.142225149649896E-3   -3.355382225998478E-3    2.196974296942573E-3    3.155133978973931E-1    4.020989778393131E-1
 8.152583208050000E9     1.990337839085563E-1    5.023847121398861E-1   -3.385133742204248E-3    2.140033752743403E-3   -3.391619512709449E-3    2.183574728672785E-3    3.154680711714181E-1    4.019577810616556E-1
 8.152584708900000E9     1.991708372899064E-1    5.023961320453566E-1   -3.399502281146743E-3    2.135079226208364E-3   -3.376904096670325E-3    2.217411688839052E-3    3.155059134689067E-1    4.019444185511208E-1
 8.152586209750000E9     1.993096236252587E-1    5.023409559710127E-1   -3.397734028521834E-3    2.141263007592110E-3   -3.388319414310175E-3    2.203648704848616E-3    3.157339036320692E-1    4.018699868458059E-1
 8.152587710600000E9     1.993944742748672E-1    5.022514685745226E-1   -3.422444078825040E-3    2.162665351483392E-3   -3.401731683374540E-3    2.235715083335662E-3    3.156928025719800E-1    4.019166389322118E-1
 8.152589211450000E9     1.995632379074422E-1    5.020549596805611E-1   -3.401392083945591E-3    2.164010827794464E-3   -3.425642241849334E-3    2.203417453572373E-3    3.158277830483427E-1    4.018151112869844E-1
 8.152590712300000E9     1.997162561995572E-1    5.020223584314913E-1   -3.413949560547746E-3    2.178229119835186E-3   -3.416862536230246E-3    2.236055224937746E-3    3.158826916857707E-1    4.016835457042400E-1
 8.152592213150000E9     1.999250996579849E-1    5.020310487245233E-1   -3.445560295565351E-3    2.200372075174691E-3   -3.419919084880454E-3    2.262636588288898E-3    3.159049816319510E-1    4.016585670828128E-1
 8.152593714000000E9     2.001410764857721E-1    5.018603467816051E-1   -3.452846948008477E-3    2.195678364484960E-3   -3.431365365900632E-3    2.286451076698025E-3    3.161154037478673E-1    4.016069571475243E-1
 8.152595214850000E9     2.001677183716788E-1    5.019078982038355E-1   -3.427626957683270E-3    2.189286526724300E-3   -3.448778900110557E-3    2.261047399691314E-3    3.160339122976770E-1    4.014505932587317E-1
 8.152596715700000E9     2.003014542885141E-1    5.017526933479490E-1   -3.448898618286663E-3    2.204587956680189E-3   -3.442429939995633E-3    2.286491270286392E-3    3.160905285063816E-1    4.015335696471573E-1
 8.152598216550000E9     2.005054334216712E-1    5.017794083515629E-1   -3.483406254956743E-3    2.211482581943436E-3   -3.484347487362749E-3    2.273218787500161E-3    3.162475006697267E-1    4.012425952381690E-1
 8.152599717400000E9     2.006591475415467E-1    5.015690064438038E-1   -3.465115951599418E-3    2.237926275914100E-3   -3.458114630947097E-3    2.314650296772364E-3    3.164459820118877E-1    4.014145033607808E-1
 8.152601218250000E9     2.008415555857689E-1    5.016275652312023E-1   -3.502444584930495E-3    2.258099316717356E-3   -3.491556385184464E-3    2.316358999840245E-3    3.163757702721434E-1    4.013051858232795E-1
 8.152602719100000E9     2.009747010384067E-1    5.014798844818544E-1   -3.483377500205899E-3    2.282467281470619E-3   -3.465198570371918E-3    2.310076901435076E-3    3.164562053438286E-1    4.010962672285034E-1
 8.152604219950000E9     2.010969692624896E-1    5.014098457261582E-1   -3.502993642217212E-3    2.254258007003882E-3   -3.526729547219090E-3    2.352023656169952E-3    3.164895318773093E-1    4.011526359076875E-1
 8.152605720800000E9     2.011905416202903E-1    5.013078989416370E-1   -3.510440560273865E-3    2.294219467885595E-3   -3.494844513538665E-3    2.330880931888217E-3    3.167627392712170E-1    4.011856351250642E-1
 8.152607221650000E9     2.013242074303194E-1    5.012951660376908E-1   -3.514246336866506E-3    2.272400862860867E-3   -3.520951364432303E-3    2.340878147155986E-3    3.166615892947779E-1    4.011439063768980E-1
 8.152608722500000E9     2.015914698885088E-1    5.012000889790360E-1   -3.545138598571586E-3    2.322308750991950E-3   -3.551531559254033E-3    2.372422227683210E-3    3.166210494512818E-1    4.009045098600237E-1
