#  HZ   S   RI   R     50.00 
! Rohde & Schwarz Vector Network Analyzer 
! Rohde-Schwarz,ZNB20-2Port,1311601062101988,3.16
! Created: UTC 3/21/2024, 1:21:01 AM
! freq[Hz]                re:S11                  im:S11                  re:S21                  im:S21                  re:S12                  im:S12                  re:S22                  im:S22
 8.152480967000000E9     1.898933762601089E-1    5.061048140178704E-1   -2.993609888832733E-3    1.713784010843692E-3   -2.981493465195483E-3    1.760818014875916E-3    3.102450647429790E-1    4.063209342388017E-1
 8.152482451050000E9     1.900711810619057E-1    5.061291685956046E-1   -3.002226014037175E-3    1.730211786622168E-3   -3.021003656780451E-3    1.813612028741404E-3    3.102829969503046E-1    4.062364651692679E-1
 8.152483935100000E9     1.901889171358266E-1    5.059755743038448E-1   -3.039699615537189E-3    1.743230877194895E-3   -3.020141014426497E-3    1.777914259512709E-3    3.104366420987281E-1    4.062091568777989E-1
 8.152485419150000E9     1.903551175266747E-1    5.059794974807165E-1   -3.027691130507334E-3    1.722987017514486E-3   -3.016822553949603E-3    1.789035673100317E-3    3.104794004113802E-1    4.059871366397411E-1
 8.152486903200000E9     1.905716572005970E-1    5.059668818833335E-1   -2.987197480665157E-3    1.735821980222564E-3   -2.999628283310795E-3    1.818032470325271E-3    3.106298549767094E-1    4.060433058885689E-1
 8.152488387250000E9     1.906674287014981E-1    5.059314933283866E-1   -3.032212711647721E-3    1.750355609303296E-3   -3.006025367671417E-3    1.805341521414882E-3    3.106017939908316E-1    4.060108831308917E-1
 8.152489871300000E9     1.906896981812852E-1    5.058700071761679E-1   -3.019829723739219E-3    1.759252057715844E-3   -3.015002818079603E-3    1.803865734021206E-3    3.106951419910912E-1    4.057630974063000E-1
 8.152491355350000E9     1.908820925709531E-1    5.058827061804761E-1   -3.026703594043488E-3    1.743242494516316E-3   -3.050478112662977E-3    1.815890941089862E-3    3.107537820274037E-1    4.058194830529002E-1
 8.152492839400000E9     1.909306874096665E-1    5.057818186451304E-1   -3.019454092838074E-3    1.741085146543881E-3   -3.064720955770121E-3    1.820883106108050E-3    3.108224647944173E-1    4.057737668982311E-1
 8.152494323450000E9     1.911453105219614E-1    5.057817112916958E-1   -3.044310752740703E-3    1.752210856419488E-3   -3.063064603064905E-3    1.820625321275833E-3    3.108188097275858E-1    4.057196838442648E-1
 8.152495807500000E9     1.912628445131412E-1    5.056154940248613E-1   -3.056459750451825E-3    1.734512301743409E-3   -3.037092789736152E-3    1.807042417487499E-3    3.109786806525573E-1    4.057022316717609E-1
 8.152497291550000E9     1.913002077578378E-1    5.056829855515165E-1   -3.032700232574336E-3    1.765393430669515E-3   -3.053327765740838E-3    1.804029372722977E-3    3.110970163148231E-1    4.056371729245641E-1
 8.152498775600000E9     1.914092720800579E-1    5.055528222888481E-1   -3.028079121612030E-3    1.766413190484073E-3   -3.041664655765689E-3    1.832455559677360E-3    3.110158061685508E-1    4.055029338519322E-1
 8.152500259650000E9     1.917001190081772E-1    5.054385888919123E-1   -3.075758570154471E-3    1.790584153744625E-3   -3.044860452347416E-3    1.841898471978888E-3    3.113149162628453E-1    4.056193736783619E-1
 8.152501743700000E9     1.917126545673875E-1    5.054743387237801E-1   -3.038610984265900E-3    1.800779621204849E-3   -3.029960585774156E-3    1.875907492505458E-3    3.111886703932785E-1    4.054730100155131E-1
 8.152503227750000E9     1.918033019043613E-1    5.056289552922462E-1   -3.053943039844077E-3    1.788396806806491E-3   -3.059855898399951E-3    1.858070542260718E-3    3.112758600622865E-1    4.055350466545286E-1
 8.152504711800000E9     1.919448990892010E-1    5.053903289933045E-1   -3.060876264138606E-3    1.777352805707488E-3   -3.047938999605639E-3    1.843497760568319E-3    3.115925005590069E-1    4.052103983629440E-1
 8.152506195850000E9     1.920809850453585E-1    5.053984664919720E-1   -3.083664956852382E-3    1.806599650423618E-3   -3.104139505693126E-3    1.851720622443839E-3    3.114846760327555E-1    4.052007685016149E-1
 8.152507679900000E9     1.923215579151349E-1    5.051992817342360E-1   -3.092655351182515E-3    1.782796559372780E-3   -3.042944925792181E-3    1.867721477708561E-3    3.116156813710929E-1    4.053196710411304E-1
 8.152509163950000E9     1.923078352791501E-1    5.052021356293400E-1   -3.047583891634648E-3    1.816260209166053E-3   -3.075624898154477E-3    1.874049999039846E-3    3.116043493625755E-1    4.051937067966270E-1
 8.152510648000000E9     1.924565843723817E-1    5.051456738239174E-1   -3.088186454673236E-3    1.801173063032135E-3   -3.090189357055228E-3    1.902621362934646E-3    3.117452424266459E-1    4.051412605255558E-1
 8.152512132050000E9     1.924587647116145E-1    5.051692463520137E-1   -3.092896853272283E-3    1.817882829440549E-3   -3.135400178056664E-3    1.841478355102756E-3    3.117814132412981E-1    4.051004732018211E-1
 8.152513616100000E9     1.926842622041013E-1    5.051317583509577E-1   -3.079374563224288E-3    1.819805608500310E-3   -3.074342602757287E-3    1.872183584351819E-3    3.119640974772688E-1    4.050570061887381E-1
 8.152515100150000E9     1.929753824325919E-1    5.050237384129175E-1   -3.087184413694008E-3    1.821222136594587E-3   -3.107132939303163E-3    1.859211420392041E-3    3.120275484617974E-1    4.049294687099729E-1
 8.152516584200000E9     1.928895229808958E-1    5.049097864714788E-1   -3.113213050304132E-3    1.821856128174400E-3   -3.102985995588004E-3    1.898710036670250E-3    3.121214196897190E-1    4.049080599258227E-1
 8.152518068250000E9     1.930348017999256E-1    5.050175286703086E-1   -3.095993492800843E-3    1.839622270981560E-3   -3.110243948312350E-3    1.900046738250064E-3    3.120224004956126E-1    4.049465279911438E-1
 8.152519552300000E9     1.931697885052135E-1    5.049304177570466E-1   -3.133848897377499E-3    1.841982709131760E-3   -3.123688670529720E-3    1.882517697273822E-3    3.121735308527053E-1    4.047956472897566E-1
 8.152521036350000E9     1.933185556664909E-1    5.049716167758118E-1   -3.106774633432923E-3    1.836860454238562E-3   -3.139518164028739E-3    1.892276278204211E-3    3.123719115169493E-1    4.046328121129273E-1
 8.152522520400000E9     1.934976049725662E-1    5.047210052555570E-1   -3.134646831470268E-3    1.827558215950317E-3   -3.126004228183190E-3    1.879536671313379E-3    3.124278403157225E-1    4.047521998132995E-1
 8.152524004450000E9     1.936245459602854E-1    5.048814407972081E-1   -3.154746612575748E-3    1.858424639173832E-3   -3.127814137358599E-3    1.871929268321449E-3    3.123489635268217E-1    4.046108701043503E-1
 8.152525488500000E9     1.937108361731920E-1    5.047164324167075E-1   -3.131945133506705E-3    1.854381768986958E-3   -3.125966090748578E-3    1.905608925761418E-3    3.125503889606503E-1    4.046260211647764E-1
 8.152526972550000E9     1.938436743910933E-1    5.047480021517011E-1   -3.147722077085520E-3    1.856248956623238E-3   -3.135220865749049E-3    1.887827884709090E-3    3.125206251132950E-1    4.044213224949871E-1
 8.152528456600000E9     1.939569672648105E-1    5.045626774215254E-1   -3.132664578206134E-3    1.878321834151714E-3   -3.128454902354182E-3    1.924578091303376E-3    3.127597727032754E-1    4.044147273480121E-1
 8.152529940650000E9     1.940810203729479E-1    5.044835438281940E-1   -3.125226708904542E-3    1.894886572815613E-3   -3.130236740502558E-3    1.951382561488537E-3    3.127583901648828E-1    4.042597042945435E-1
 8.152531424700000E9     1.942367299003073E-1    5.045057496901248E-1   -3.134595652480707E-3    1.863378221531014E-3   -3.141995376093838E-3    1.923851909551736E-3    3.127093324714211E-1    4.043337878383334E-1
 8.152532908750000E9     1.943878345828682E-1    5.044776005296047E-1   -3.146307582467806E-3    1.863390955777928E-3   -3.129578882632170E-3    1.947839510063395E-3    3.129067264063012E-1    4.042719464202011E-1
 8.152534392800000E9     1.944778653547447E-1    5.043106725199384E-1   -3.169000342244847E-3    1.893138676836838E-3   -3.168685344927916E-3    1.931260510688025E-3    3.129082553598984E-1    4.041707999986064E-1
 8.152535876850000E9     1.946259883460400E-1    5.043043383539243E-1   -3.162325709688679E-3    1.891793230810869E-3   -3.151490133438984E-3    1.957733358206994E-3    3.129277453126788E-1    4.040843558476426E-1
 8.152537360900000E9     1.946944996170500E-1    5.041584429943373E-1   -3.177656128359169E-3    1.899005890638404E-3   -3.174019631109736E-3    1.988512438635074E-3    3.131226420563929E-1    4.041112915226419E-1
 8.152538844950000E9     1.948679292212125E-1    5.042140431841656E-1   -3.196145779613261E-3    1.901220508979818E-3   -3.174778810438332E-3    1.993092003416878E-3    3.131941256850379E-1    4.039610106808545E-1
 8.152540329000000E9     1.949508004132942E-1    5.041967917386110E-1   -3.194966898281522E-3    1.902782581662120E-3   -3.176718449049935E-3    1.974328569736723E-3    3.132744200474187E-1    4.038782457652719E-1
 8.152541813050000E9     1.953054829426661E-1    5.041187410382875E-1   -3.162620364902122E-3    1.922732216931191E-3   -3.189494055352488E-3    1.979786822890638E-3    3.133406308108115E-1    4.038363550534955E-1
 8.152543297100000E9     1.953139307830529E-1    5.039235710563332E-1   -3.196973120312853E-3    1.916849243685551E-3   -3.182537537611210E-3    1.977852865957209E-3    3.134072294875637E-1    4.036855311354497E-1
 8.152544781150000E9     1.953194659762673E-1    5.040031916521985E-1   -3.198066202209555E-3    1.930113524688681E-3   -3.188001742220713E-3    1.995872248392249E-3    3.133885401207334E-1    4.037801339012697E-1
 8.152546265200000E9     1.955882789752176E-1    5.040540487773768E-1   -3.216322259705092E-3    1.957555148978874E-3   -3.220266468856435E-3    1.981572914382247E-3    3.136760155198470E-1    4.036610626969309E-1
 8.152547749250000E9     1.955880478514758E-1    5.039299084582131E-1   -3.228277936457787E-3    1.933327763445052E-3   -3.209171846599474E-3    1.987336511531078E-3    3.135752164236966E-1    4.035902131772244E-1
 8.152549233300000E9     1.958529852117579E-1    5.037268883483870E-1   -3.238038538797431E-3    1.941413068964611E-3   -3.170237399889319E-3    2.008498521375029E-3    3.136842028154009E-1    4.035695333975741E-1
 8.152550717350000E9     1.958664760673935E-1    5.038220903471691E-1   -3.210220677539622E-3    1.979602786484722E-3   -3.218209554176690E-3    2.031567581065828E-3    3.137135962762902E-1    4.034787762000600E-1
 8.152552201400000E9     1.959325301030254E-1    5.037157378261160E-1   -3.188829568430183E-3    1.956177227212779E-3   -3.221019036372102E-3    2.011226151610038E-3    3.139985508989855E-1    4.035306263715141E-1
 8.152553685450000E9     1.961265651992902E-1    5.036855298442562E-1   -3.234390990248218E-3    1.954266191385349E-3   -3.253953714744186E-3    2.014687778068091E-3    3.140048933175183E-1    4.033115101948213E-1
 8.152555169500000E9     1.963339791743213E-1    5.036037428784935E-1   -3.236583948191653E-3    1.962961767568881E-3   -3.210983226332725E-3    2.045102513383248E-3    3.138852357681117E-1    4.032916288746328E-1
 8.152556653550000E9     1.964102544129122E-1    5.035912512314581E-1   -3.230311273285131E-3    1.969182327727569E-3   -3.229964619116468E-3    2.042798015580288E-3    3.139825743367460E-1    4.031855898962611E-1
 8.152558137600000E9     1.964918074805417E-1    5.034611310965408E-1   -3.242752590050115E-3    1.963573705172544E-3   -3.257672165479446E-3    2.063832286748722E-3    3.141390407094306E-1    4.033202125574510E-1
 8.152559621650000E9     1.966638409758298E-1    5.035176734594156E-1   -3.258796590367484E-3    1.992038202294101E-3   -3.255399726456023E-3    2.060493861986042E-3    3.141336744057620E-1    4.030390385173105E-1
 8.152561105700000E9     1.968228083489670E-1    5.033210046892380E-1   -3.274425336884001E-3    2.005471365888992E-3   -3.250195826880655E-3    2.054245037608824E-3    3.141914969183250E-1    4.029814718258935E-1
 8.152562589750000E9     1.968865857091743E-1    5.033857975345107E-1   -3.296214499568740E-3    2.000659274846476E-3   -3.266557630575860E-3    2.106460145271148E-3    3.145031998530393E-1    4.029674525141110E-1
 8.152564073800000E9     1.972042394588187E-1    5.032880795079705E-1   -3.275869715352293E-3    2.042760592670696E-3   -3.263713141387388E-3    2.085471654150268E-3    3.144185422598909E-1    4.029910043141027E-1
 8.152565557850000E9     1.972068361533486E-1    5.033044814630548E-1   -3.270420508756806E-3    2.049066583030041E-3   -3.304940573705149E-3    2.095309429318730E-3    3.145867433193228E-1    4.028852010598883E-1
 8.152567041900000E9     1.973422857084416E-1    5.030316764760836E-1   -3.281327884104688E-3    2.048972024681761E-3   -3.279395574723348E-3    2.061525955418491E-3    3.145808419847813E-1    4.028113571807395E-1
 8.152568525950000E9     1.976600400121715E-1    5.030288020145446E-1   -3.281257128907263E-3    2.043371054811440E-3   -3.286978813266601E-3    2.089931558066001E-3    3.146054528494953E-1    4.027612869368751E-1
 8.152570010000000E9     1.977995580283365E-1    5.029910411406918E-1   -3.274318645128619E-3    2.050294776807723E-3   -3.315220460423319E-3    2.109045982264711E-3    3.147092015811148E-1    4.025308213689555E-1
 8.152571494050000E9     1.978006400410310E-1    5.030036959095449E-1   -3.331530321848092E-3    2.063988189931165E-3   -3.282064838984763E-3    2.140587866082694E-3    3.146682166071078E-1    4.026736439078644E-1
 8.152572978100000E9     1.980374270822502E-1    5.028317880921435E-1   -3.331337182537637E-3    2.044893273585980E-3   -3.335812024941766E-3    2.104308162718729E-3    3.148415099737253E-1    4.025404021940603E-1
 8.152574462150000E9     1.981047161149518E-1    5.029144548484388E-1   -3.318700911942540E-3    2.058298717999800E-3   -3.326006668731017E-3    2.136544266156299E-3    3.148532886950805E-1    4.025356700935009E-1
 8.152575946200000E9     1.981677076233600E-1    5.027412067657150E-1   -3.330718565784131E-3    2.055004288867858E-3   -3.338088678994724E-3    2.134545567547342E-3    3.149854971619383E-1    4.023169093041420E-1
 8.152577430250000E9     1.983985794229874E-1    5.025908164693927E-1   -3.323028553365981E-3    2.095773691249437E-3   -3.352243690275892E-3    2.139889874199039E-3    3.149164588124734E-1    4.023466225863833E-1
 8.152578914300000E9     1.986145499009999E-1    5.025157441260868E-1   -3.341336326508806E-3    2.092451167633699E-3   -3.321701588297299E-3    2.155197762551202E-3    3.152878414949852E-1    4.022773054029706E-1
 8.152580398350000E9     1.986606014454188E-1    5.026376877254038E-1   -3.362084256058788E-3    2.077217518549901E-3   -3.343563711056262E-3    2.125153173624759E-3    3.152448742380249E-1    4.022883871033721E-1
 8.152581882400000E9     1.987817792315377E-1    5.024901491487509E-1   -3.341203423360951E-3    2.101575643707150E-3   -3.372520908210718E-3    2.175804071079765E-3    3.154230790897686E-1    4.021397210544471E-1
 8.152583366450000E9     1.989131479891479E-1    5.024449680336743E-1   -3.366757001593336E-3    2.106119565696690E-3   -3.385747912247357E-3    2.179386862966918E-3    3.155671232859348E-1    4.021353586862646E-1
 8.152584850500000E9     1.991279098694808E-1    5.024713736856220E-1   -3.387607247983386E-3    2.116677358465083E-3   -3.388054758024480E-3    2.152284029799154E-3    3.154965768177369E-1    4.020376948343061E-1
 8.152586334550000E9     1.991571418258142E-1    5.023537089070330E-1   -3.373787841012382E-3    2.119596704114496E-3   -3.367157331546094E-3    2.195980846392511E-3    3.154774747685302E-1    4.020486252380365E-1
 8.152587818600000E9     1.994358178594655E-1    5.023314792060352E-1   -3.385601695588896E-3    2.139722880896330E-3   -3.363892814153502E-3    2.231516440880487E-3    3.155810017697858E-1    4.019682530933205E-1
 8.152589302650000E9     1.993878152671358E-1    5.021541551114574E-1   -3.395447787497479E-3    2.139634463957778E-3   -3.348192717471914E-3    2.224694540903750E-3    3.158606031809104E-1    4.018834974543323E-1
 8.152590786700000E9     1.996887861302149E-1    5.021351190933158E-1   -3.398563345594829E-3    2.164010247781994E-3   -3.399446065370421E-3    2.208534661286430E-3    3.157370978437412E-1    4.019276976041630E-1
 8.152592270750000E9     1.997123997717261E-1    5.020386779435605E-1   -3.407675941876214E-3    2.170877902725959E-3   -3.433337422536550E-3    2.225000507071863E-3    3.158266702952992E-1    4.016931558422173E-1
 8.152593754800000E9     1.999926368615668E-1    5.019710759460773E-1   -3.450018152815784E-3    2.173476572916689E-3   -3.430947074626010E-3    2.261137049289119E-3    3.159323529815448E-1    4.016913077322293E-1
 8.152595238850000E9     2.000628650939232E-1    5.018898274433918E-1   -3.407042398653450E-3    2.215706545489120E-3   -3.444710844185842E-3    2.264431915163130E-3    3.160094886143131E-1    4.015424690146131E-1
 8.152596722900000E9     2.002942762649619E-1    5.018105671294458E-1   -3.475985182062863E-3    2.213368632895832E-3   -3.418376468155594E-3    2.270822578973207E-3    3.161511802191171E-1    4.017158848623646E-1
 8.152598206950000E9     2.004459977061051E-1    5.017681176448650E-1   -3.442017705850978E-3    2.215403337637339E-3   -3.437844650286933E-3    2.258530076682656E-3    3.160716181455776E-1    4.015822789135870E-1
 8.152599691000000E9     2.004952345404434E-1    5.016157341664027E-1   -3.436235182215493E-3    2.227279846241137E-3   -3.459311830294283E-3    2.297987206695791E-3    3.162483974260753E-1    4.014772573152486E-1
 8.152601175050000E9     2.007638703201867E-1    5.015050553766756E-1   -3.486000086370902E-3    2.235795002424589E-3   -3.467771836028383E-3    2.272295897797564E-3    3.162367382247201E-1    4.013517900103054E-1
 8.152602659100000E9     2.007606096948631E-1    5.015225101868570E-1   -3.489652695161290E-3    2.226524768169494E-3   -3.463655008644275E-3    2.324930979653720E-3    3.163546037285719E-1    4.013340315259059E-1
 8.152604143150000E9     2.009777726113665E-1    5.014314696286680E-1   -3.494791922549616E-3    2.249478032449396E-3   -3.485482877256181E-3    2.325662408088007E-3    3.164812041171570E-1    4.012268864257779E-1
 8.152605627200000E9     2.010982871229925E-1    5.013401681391538E-1   -3.470326455587785E-3    2.237595029581797E-3   -3.512985376276763E-3    2.310420821858424E-3    3.164637650730158E-1    4.011215995158095E-1
 8.152607111250000E9     2.012724375638419E-1    5.013073764301841E-1   -3.500543110707731E-3    2.252238279774303E-3   -3.460777243466445E-3    2.314014657193833E-3    3.164586062302749E-1    4.010984264707074E-1
 8.152608595300000E9     2.014754853743470E-1    5.011434803938791E-1   -3.501026998498420E-3    2.308582540866281E-3   -3.509616733531929E-3    2.349038417279724E-3    3.165550372146655E-1    4.011823809656945E-1
 8.152610079350000E9     2.015084117860854E-1    5.011518907900396E-1   -3.525526197142971E-3    2.292346120606514E-3   -3.516742040043176E-3    2.349745663172763E-3    3.167813373769538E-1    4.010334060782385E-1
 8.152611563400000E9     2.018078217521357E-1    5.009115182676153E-1   -3.529903995881714E-3    2.307557085818234E-3   -3.529430426250744E-3    2.384590594827361E-3    3.168217592669090E-1    4.009059788279067E-1
 8.152613047450000E9     2.018930890438377E-1    5.009426680820028E-1   -3.522615735164792E-3    2.292630173772351E-3   -3.541615862994038E-3    2.374072441743817E-3    3.168136440200779E-1    4.008761606347870E-1
 8.152614531500000E9     2.020355821925585E-1    5.009067851977667E-1   -3.572695901456788E-3    2.343883472690128E-3   -3.566267694267645E-3    2.399871132783495E-3    3.169049232677477E-1    4.009128701182185E-1
