#  HZ   S   RI   R     50.00 
! Rohde & Schwarz Vector Network Analyzer 
! Rohde-Schwarz,ZNB20-2Port,1311601062101988,3.16
! Created: UTC 3/21/2024, 12:53:17 AM
! freq[Hz]                re:S11                  im:S11                  re:S21                  im:S21                  re:S12                  im:S12                  re:S22                  im:S22
 8.151118964000000E9     1.129537234439305E-1    5.312887828997210E-1   -2.773335628531298E-3    1.045120489705374E-3   -2.778393184262696E-3    1.095702474287229E-3    2.592445589346218E-1    4.440681460566006E-1
 8.151122090250000E9     1.131179064480277E-1    5.311192461809294E-1   -2.760984644028627E-3    1.083086525121845E-3   -2.743355525993763E-3    1.109819658821420E-3    2.592734518362926E-1    4.439630974135527E-1
 8.151125216500000E9     1.132938829047742E-1    5.311859007679846E-1   -2.754900800536494E-3    1.056941598070762E-3   -2.743305081802384E-3    1.113700953074464E-3    2.595269479338220E-1    4.438843101451949E-1
 8.151128342750000E9     1.135458147212289E-1    5.311757631101016E-1   -2.758636351238036E-3    1.042355112524470E-3   -2.776412125518856E-3    1.090685291515356E-3    2.597075987441486E-1    4.437896280349292E-1
 8.151131469000000E9     1.139450889972082E-1    5.311295758100746E-1   -2.761921671698722E-3    1.069612821549176E-3   -2.767871454765632E-3    1.103895278556278E-3    2.599337938747807E-1    4.435173191941687E-1
 8.151134595250000E9     1.141220509564819E-1    5.310328875909737E-1   -2.757540856619913E-3    1.088438372488376E-3   -2.757645529757414E-3    1.114722942655836E-3    2.600564064959657E-1    4.434412345347715E-1
 8.151137721500000E9     1.142816818447112E-1    5.310540559587579E-1   -2.767384275635019E-3    1.060828879188236E-3   -2.759176374076973E-3    1.130433987210125E-3    2.603879538386035E-1    4.435441987279359E-1
 8.151140847750000E9     1.145869942787103E-1    5.309552800454860E-1   -2.749713335096725E-3    1.063337380032728E-3   -2.783155910219095E-3    1.133468695395701E-3    2.605025154577321E-1    4.431809696364974E-1
 8.151143974000000E9     1.147318301423141E-1    5.308733252993886E-1   -2.751039611008461E-3    1.080368084754138E-3   -2.750246595589227E-3    1.105100243563398E-3    2.608299769049934E-1    4.432394773896667E-1
 8.151147100250000E9     1.149188635974107E-1    5.310246971149689E-1   -2.748294996228313E-3    1.075591099206996E-3   -2.781681865943685E-3    1.099630961022525E-3    2.607487531830404E-1    4.430396428465861E-1
 8.151150226500000E9     1.150889572800116E-1    5.307882627642956E-1   -2.757996891971588E-3    1.079317122875103E-3   -2.793395311714227E-3    1.145290255614709E-3    2.609896023844015E-1    4.430274686130228E-1
 8.151153352750000E9     1.153745255558754E-1    5.308665521368165E-1   -2.770190783184728E-3    1.063487236732346E-3   -2.788056729423154E-3    1.108155580996374E-3    2.610654373494664E-1    4.430637947886437E-1
 8.151156479000000E9     1.156480506002029E-1    5.306666576155766E-1   -2.797182185102887E-3    1.082475064564004E-3   -2.794873870008685E-3    1.162798785912437E-3    2.612718824909976E-1    4.427999274749503E-1
 8.151159605250000E9     1.158564416636214E-1    5.307019695593952E-1   -2.764671910529081E-3    1.079451792471065E-3   -2.790811873998643E-3    1.157681580500735E-3    2.614513673934860E-1    4.426185713649929E-1
 8.151162731500000E9     1.161422297720319E-1    5.307032438912539E-1   -2.775895100121044E-3    1.090311975999569E-3   -2.793886071823295E-3    1.152980877592665E-3    2.614509387038927E-1    4.425596657879621E-1
 8.151165857750000E9     1.163567516032693E-1    5.305802271080245E-1   -2.779400988069327E-3    1.080155933842398E-3   -2.771803245522678E-3    1.102326718239607E-3    2.618417851241392E-1    4.424509269362761E-1
 8.151168984000000E9     1.166854714230993E-1    5.306451073648014E-1   -2.767165526259195E-3    1.094143690121708E-3   -2.803272319978547E-3    1.127272438659176E-3    2.619841457935585E-1    4.423581785752186E-1
 8.151172110250000E9     1.166849928348003E-1    5.304796634552483E-1   -2.776428477150252E-3    1.096998144920278E-3   -2.783053739458139E-3    1.133323812965519E-3    2.622625493969624E-1    4.423667289632105E-1
 8.151175236500000E9     1.169372540802946E-1    5.303325559087169E-1   -2.779633291376790E-3    1.080736467998613E-3   -2.785195895552393E-3    1.147081002015868E-3    2.623577040488310E-1    4.421325421262665E-1
 8.151178362750000E9     1.171647608755332E-1    5.304995048666263E-1   -2.803045963018272E-3    1.080268711996322E-3   -2.775206387729413E-3    1.146017199904098E-3    2.624231484740396E-1    4.418851365251525E-1
 8.151181489000000E9     1.174885440326986E-1    5.303759545085668E-1   -2.778614606663721E-3    1.077369059449478E-3   -2.796984881567253E-3    1.162673040330064E-3    2.626528266253242E-1    4.418393711579563E-1
 8.151184615250000E9     1.177214121534056E-1    5.303490786017385E-1   -2.806151828483565E-3    1.105299472454935E-3   -2.779777726550860E-3    1.133210217528176E-3    2.629323749521740E-1    4.417943646963335E-1
 8.151187741500000E9     1.179016816393620E-1    5.301701686471638E-1   -2.783623638856795E-3    1.096333791577847E-3   -2.785256870943097E-3    1.132503127201060E-3    2.630084357936460E-1    4.417905259578667E-1
 8.151190867750000E9     1.182233214525219E-1    5.303275104234073E-1   -2.806284377430332E-3    1.114024259134834E-3   -2.778997526238668E-3    1.133254835552757E-3    2.632499079003126E-1    4.416632875483073E-1
 8.151193994000000E9     1.183453522796728E-1    5.301207484317977E-1   -2.799127067779885E-3    1.093819748894516E-3   -2.819287343392176E-3    1.140967188250038E-3    2.632850158005459E-1    4.414901928951780E-1
 8.151197120250000E9     1.186479943686875E-1    5.301403978708672E-1   -2.800306787047621E-3    1.138473536879402E-3   -2.812019830555468E-3    1.193014934659435E-3    2.636202324324338E-1    4.413903773063547E-1
 8.151200246500000E9     1.189184895342663E-1    5.301140112654570E-1   -2.799648703060602E-3    1.112328397139066E-3   -2.796449664899040E-3    1.168149504278691E-3    2.637163763457542E-1    4.412379332420564E-1
 8.151203372750000E9     1.192283002612646E-1    5.300704656036590E-1   -2.814922557445092E-3    1.110888834768373E-3   -2.808955418375268E-3    1.183787736670732E-3    2.638733996006547E-1    4.410632982448126E-1
 8.151206499000000E9     1.193567841103180E-1    5.300521762779536E-1   -2.802108263674572E-3    1.121002739154639E-3   -2.793816553665960E-3    1.177660590745215E-3    2.640785622312134E-1    4.411038121351596E-1
 8.151209625250000E9     1.194843369675911E-1    5.299292290145771E-1   -2.781091856596205E-3    1.139901454372415E-3   -2.823020307017840E-3    1.192606719051692E-3    2.642729536983520E-1    4.410232098505626E-1
 8.151212751500000E9     1.199297191018904E-1    5.298525344247391E-1   -2.785759475707953E-3    1.124148192951773E-3   -2.803221705412550E-3    1.153888273234798E-3    2.644272870681473E-1    4.409134055436369E-1
 8.151215877750000E9     1.199339906691228E-1    5.299626553551198E-1   -2.788757024631059E-3    1.137080018556550E-3   -2.821099706966402E-3    1.195003241716614E-3    2.645571684049987E-1    4.407946909804936E-1
 8.151219004000000E9     1.201363782623121E-1    5.297592666872641E-1   -2.812803768014579E-3    1.135248999652778E-3   -2.814195561824867E-3    1.194479581655868E-3    2.647336203830555E-1    4.406877988567161E-1
 8.151222130250000E9     1.204290501653516E-1    5.296844698064186E-1   -2.806149237462405E-3    1.114776296566656E-3   -2.842173915094478E-3    1.164214316463180E-3    2.650313913499140E-1    4.407398619441854E-1
 8.151225256500000E9     1.207642762436478E-1    5.296632243028987E-1   -2.804468885384413E-3    1.137446465729801E-3   -2.811188506399045E-3    1.166125592898193E-3    2.651860689144632E-1    4.403823013439929E-1
 8.151228382750000E9     1.210211152455772E-1    5.297560241136032E-1   -2.816387674083211E-3    1.165203966939371E-3   -2.838230417129420E-3    1.174432741791398E-3    2.653430914199227E-1    4.402846198990516E-1
 8.151231509000000E9     1.210711469526407E-1    5.295994136380597E-1   -2.823278953859207E-3    1.146897482168533E-3   -2.795396178312012E-3    1.187566332115238E-3    2.654103392859872E-1    4.402515451559783E-1
 8.151234635250000E9     1.214840676099064E-1    5.295209651146179E-1   -2.843857787692050E-3    1.145659723446167E-3   -2.793937999628341E-3    1.221740008552010E-3    2.656085380229691E-1    4.402043859594501E-1
 8.151237761500000E9     1.216224434666018E-1    5.294553242112590E-1   -2.807710993085338E-3    1.159384576628785E-3   -2.844821026084645E-3    1.186077154776303E-3    2.658678323275123E-1    4.399870076610173E-1
 8.151240887750000E9     1.218177231953447E-1    5.293192629005310E-1   -2.836182260958775E-3    1.148011686388984E-3   -2.847528177826028E-3    1.205689552200019E-3    2.658989370091117E-1    4.399769347460349E-1
 8.151244014000000E9     1.220783436039215E-1    5.293805858649092E-1   -2.799002648278412E-3    1.150587796201967E-3   -2.832123357824834E-3    1.170455909374270E-3    2.660594228027265E-1    4.398329571520515E-1
 8.151247140250000E9     1.222468436489299E-1    5.293706896063652E-1   -2.809031989892286E-3    1.152284352978923E-3   -2.850654015945342E-3    1.223297981395759E-3    2.663321132682143E-1    4.395432186420342E-1
 8.151250266500000E9     1.225862672322837E-1    5.293610532985137E-1   -2.844199291342622E-3    1.150794745282325E-3   -2.855756006627921E-3    1.211779414368780E-3    2.663832550234383E-1    4.395246399453363E-1
 8.151253392750000E9     1.227934396272919E-1    5.292418183513943E-1   -2.830412256257673E-3    1.164953655468247E-3   -2.851094998037442E-3    1.203182541960634E-3    2.665995177236269E-1    4.395682897268277E-1
 8.151256519000000E9     1.231102719341687E-1    5.291793606800737E-1   -2.828365176984839E-3    1.162069062987172E-3   -2.828316632283938E-3    1.240259046268996E-3    2.668264426198602E-1    4.392613370787100E-1
 8.151259645250000E9     1.231999918570069E-1    5.292247719602362E-1   -2.812106097541031E-3    1.177077646306608E-3   -2.837791223260105E-3    1.221322745704264E-3    2.669537327352490E-1    4.391370409909043E-1
 8.151262771500000E9     1.234845195462827E-1    5.291375726741280E-1   -2.858073578385318E-3    1.164090749874079E-3   -2.843849042205743E-3    1.230298075613866E-3    2.671502606408458E-1    4.390631226406355E-1
 8.151265897750000E9     1.236291432956872E-1    5.290831559514829E-1   -2.849339515705898E-3    1.175985429897047E-3   -2.851124147593740E-3    1.235533281353218E-3    2.673802525071912E-1    4.389794470295623E-1
 8.151269024000000E9     1.238483023803768E-1    5.289725651581467E-1   -2.822509283262812E-3    1.179528067774070E-3   -2.857496092913953E-3    1.212709644962822E-3    2.675532908670551E-1    4.388864188680538E-1
 8.151272150250000E9     1.241705079364432E-1    5.290368008158477E-1   -2.844682336296526E-3    1.187404093568545E-3   -2.816930317961172E-3    1.210715578208735E-3    2.676357727691239E-1    4.387266907469356E-1
 8.151275276500000E9     1.243555683250467E-1    5.289053307015950E-1   -2.863476612193482E-3    1.204563278024836E-3   -2.848992060292980E-3    1.238641977832544E-3    2.677880470318021E-1    4.386437414970925E-1
 8.151278402750000E9     1.246057806206750E-1    5.289072601840006E-1   -2.842363492439082E-3    1.184647132282964E-3   -2.856463268833176E-3    1.252713283337731E-3    2.680060460613188E-1    4.386575686722438E-1
 8.151281529000000E9     1.248106989573811E-1    5.288322618664439E-1   -2.866758529359804E-3    1.175435986969204E-3   -2.860558279535573E-3    1.250358319885202E-3    2.682455925430867E-1    4.383820572528889E-1
 8.151284655250000E9     1.250482941266131E-1    5.287166963992922E-1   -2.880908636448684E-3    1.192218719512635E-3   -2.860130490504875E-3    1.277263107898059E-3    2.683815008176612E-1    4.384108885632795E-1
 8.151287781500000E9     1.252715138360499E-1    5.286937881059171E-1   -2.867704375724977E-3    1.221021175628471E-3   -2.871088220782351E-3    1.259126802998293E-3    2.685814408772317E-1    4.381918058847380E-1
 8.151290907750000E9     1.255225480456288E-1    5.285735944278082E-1   -2.870666829862958E-3    1.193371319182929E-3   -2.877986922899226E-3    1.251365333825097E-3    2.686948988220425E-1    4.381317771281905E-1
 8.151294034000000E9     1.256830854432695E-1    5.285881879916414E-1   -2.876126914886163E-3    1.191565150343455E-3   -2.890818790358118E-3    1.261183532498223E-3    2.688550737602859E-1    4.380460091752319E-1
 8.151297160250000E9     1.259344439243154E-1    5.285283553049750E-1   -2.867799530735673E-3    1.200803512838593E-3   -2.862515258093929E-3    1.270814859308885E-3    2.689885783831379E-1    4.379586117793252E-1
 8.151300286500000E9     1.262156355651656E-1    5.283684401433595E-1   -2.855904495221729E-3    1.239756868146479E-3   -2.855279782479258E-3    1.268774541186474E-3    2.691654038103105E-1    4.377519997552543E-1
 8.151303412750000E9     1.263603835230107E-1    5.285527986655346E-1   -2.890993298518902E-3    1.216904773131358E-3   -2.845106939968456E-3    1.293215901642079E-3    2.693602724884274E-1    4.377551889952906E-1
 8.151306539000000E9     1.266975660614953E-1    5.283691013761753E-1   -2.860042389815328E-3    1.195152558925006E-3   -2.888730820424737E-3    1.272935000329996E-3    2.696347784445140E-1    4.375328302104183E-1
 8.151309665250000E9     1.268782494999773E-1    5.282738407927339E-1   -2.889903633501425E-3    1.198362059964943E-3   -2.898247972192898E-3    1.279673931813871E-3    2.696046830937955E-1    4.374070604449146E-1
 8.151312791500000E9     1.271367165154556E-1    5.282877230600366E-1   -2.904474857504689E-3    1.217620831570395E-3   -2.914875659453251E-3    1.285783040272405E-3    2.697151138417757E-1    4.373633244603191E-1
 8.151315917750000E9     1.274048282846117E-1    5.282179025995655E-1   -2.908147136907816E-3    1.242533263677651E-3   -2.891410853504973E-3    1.291381185054340E-3    2.699288486934223E-1    4.372214863056826E-1
 8.151319044000000E9     1.276411339078206E-1    5.280495347031540E-1   -2.897498800296586E-3    1.204648717832145E-3   -2.879116695334962E-3    1.275135153007450E-3    2.703250910204380E-1    4.372365960649734E-1
 8.151322170250000E9     1.278572510024585E-1    5.279271054566873E-1   -2.896540792736186E-3    1.252443834344224E-3   -2.892976615034246E-3    1.281528277040944E-3    2.705219030859428E-1    4.370106268223757E-1
 8.151325296500000E9     1.280825317574402E-1    5.281642727400042E-1   -2.923289580091064E-3    1.241912324152052E-3   -2.912504227772441E-3    1.296682644229046E-3    2.705228253551104E-1    4.369318366767274E-1
 8.151328422750000E9     1.283485947526295E-1    5.279737321986119E-1   -2.890282273441373E-3    1.229346460074062E-3   -2.912298593580048E-3    1.322120508930651E-3    2.706004745051048E-1    4.368000225885760E-1
 8.151331549000000E9     1.285702684170822E-1    5.279468943532917E-1   -2.893282694409067E-3    1.271638734411662E-3   -2.902081570664703E-3    1.325049900328720E-3    2.708667325567084E-1    4.366615150697064E-1
 8.151334675250000E9     1.288298995247872E-1    5.278257039163159E-1   -2.896673966650233E-3    1.261467821480396E-3   -2.915965795898246E-3    1.340016161320948E-3    2.709977851330318E-1    4.366542410577826E-1
 8.151337801500000E9     1.290496291090084E-1    5.278153039653207E-1   -2.895628314030169E-3    1.251690033994292E-3   -2.935428709702505E-3    1.305022547148158E-3    2.712357869024866E-1    4.365765720187390E-1
 8.151340927750000E9     1.292785381380792E-1    5.276916524082024E-1   -2.900211911713888E-3    1.257352267190613E-3   -2.955937146286970E-3    1.326159826966038E-3    2.713410213090822E-1    4.363913446110329E-1
 8.151344054000000E9     1.294831105469914E-1    5.277577317661801E-1   -2.906600759555678E-3    1.250658137161253E-3   -2.918092967275475E-3    1.311655113156454E-3    2.715401280445839E-1    4.363417480418758E-1
 8.151347180250000E9     1.297820201706565E-1    5.276165838843052E-1   -2.906741455525395E-3    1.269525828946164E-3   -2.932135700180307E-3    1.313432520680257E-3    2.717358488191229E-1    4.362350706163118E-1
 8.151350306500000E9     1.300047158526274E-1    5.275554507310803E-1   -2.923870079613683E-3    1.263450663494026E-3   -2.941044804788295E-3    1.325342527803517E-3    2.718368834521389E-1    4.360605979680394E-1
 8.151353432750000E9     1.301971225066108E-1    5.275340673411280E-1   -2.925810147493301E-3    1.273774535156327E-3   -2.944193340826412E-3    1.338454328874778E-3    2.721392341938875E-1    4.359923442171836E-1
 8.151356559000000E9     1.303519445502179E-1    5.274320255105149E-1   -2.926631635117854E-3    1.270473408259198E-3   -2.929966544693490E-3    1.339825288123325E-3    2.721749879572818E-1    4.358534893016256E-1
 8.151359685250000E9     1.305979336419489E-1    5.274199929116233E-1   -2.973712289289387E-3    1.300940537863549E-3   -2.939816512963226E-3    1.355001031984530E-3    2.724013253741826E-1    4.357647788771211E-1
 8.151362811500000E9     1.308999338360996E-1    5.273238901903077E-1   -2.938878103193583E-3    1.290629525318181E-3   -2.984349175968263E-3    1.345204933049806E-3    2.726346714237295E-1    4.356163412511983E-1
 8.151365937750000E9     1.311586432329547E-1    5.273388365424111E-1   -2.928218569810793E-3    1.304770372519363E-3   -2.943445580199397E-3    1.344122776475121E-3    2.726822333147837E-1    4.353949848009605E-1
 8.151369064000000E9     1.313533757772858E-1    5.271848914338614E-1   -2.944944589706544E-3    1.301148347692264E-3   -2.971299917515995E-3    1.356955787142273E-3    2.728861840459999E-1    4.354531886458484E-1
 8.151372190250000E9     1.316001499178692E-1    5.271352481736398E-1   -2.951532370409447E-3    1.308360188257832E-3   -2.932185171451180E-3    1.363121598083406E-3    2.731071500976303E-1    4.352081300158276E-1
 8.151375316500000E9     1.318768296511891E-1    5.269767264997898E-1   -2.933526771376695E-3    1.323624700965651E-3   -2.961492944409595E-3    1.380780771051674E-3    2.731860253340683E-1    4.351970590788432E-1
 8.151378442750000E9     1.321480870394443E-1    5.270162144289997E-1   -2.966405226422593E-3    1.310313382881420E-3   -2.951191620117060E-3    1.375371275203112E-3    2.734157854182088E-1    4.349595391566529E-1
 8.151381569000000E9     1.323778078286191E-1    5.270352138071738E-1   -2.966546437125824E-3    1.333855289594489E-3   -2.997875472001024E-3    1.356920936030256E-3    2.736025842756857E-1    4.350325708056088E-1
 8.151384695250000E9     1.325730565977114E-1    5.269899020186958E-1   -2.963338572769723E-3    1.331585605538198E-3   -2.989011701913764E-3    1.390856852874758E-3    2.736407821985223E-1    4.348747328566547E-1
 8.151387821500000E9     1.326534238501295E-1    5.268641556215700E-1   -2.941950612732205E-3    1.321780495941328E-3   -2.980022442889886E-3    1.382926954114169E-3    2.739131065565240E-1    4.346681205837082E-1
 8.151390947750000E9     1.331951966810819E-1    5.267718901543630E-1   -2.973565587148994E-3    1.321717359625902E-3   -2.987329161673322E-3    1.394890925593379E-3    2.742382755203318E-1    4.346730616345119E-1
 8.151394074000000E9     1.332637122777270E-1    5.267415063472195E-1   -2.980701592132878E-3    1.341901977641490E-3   -3.021901732740008E-3    1.394855361392478E-3    2.742408870458019E-1    4.343817368002156E-1
 8.151397200250000E9     1.335638299671582E-1    5.266247003235758E-1   -2.978992591987043E-3    1.361557226019934E-3   -2.985127519659005E-3    1.424477456641467E-3    2.744296086003259E-1    4.342477155345687E-1
 8.151400326500000E9     1.336613599370581E-1    5.265825309499206E-1   -2.978958041688630E-3    1.336943315840105E-3   -3.001817388064946E-3    1.389757975036213E-3    2.745649781082899E-1    4.342998636197218E-1
