#  HZ   S   RI   R     50.00 
! Rohde & Schwarz Vector Network Analyzer 
! Rohde-Schwarz,ZNB20-2Port,1311601062101988,3.16
! Created: UTC 3/21/2024, 1:21:23 AM
! freq[Hz]                re:S11                  im:S11                  re:S21                  im:S21                  re:S12                  im:S12                  re:S22                  im:S22
 8.152385165000000E9     1.826318238044358E-1    5.087647454923372E-1   -2.838600384346883E-3    1.565780432481948E-3   -2.875799436869641E-3    1.595490429409764E-3    3.053052535901424E-1    4.101073191996532E-1
 8.152387021550000E9     1.828496937569194E-1    5.085688201367103E-1   -2.839440855265795E-3    1.549699495662749E-3   -2.838160397701967E-3    1.632358938053154E-3    3.054644456509893E-1    4.101792097691933E-1
 8.152388878100000E9     1.830250752083656E-1    5.086195293951493E-1   -2.833918076123776E-3    1.578473045305032E-3   -2.867541024298344E-3    1.618448934744685E-3    3.054826861778653E-1    4.100344690250760E-1
 8.152390734650000E9     1.830991810488536E-1    5.084750068525744E-1   -2.867623590109863E-3    1.559264433927152E-3   -2.823085654979319E-3    1.616259960389584E-3    3.056607724387558E-1    4.099814223257581E-1
 8.152392591200000E9     1.832740624978845E-1    5.084805785712655E-1   -2.853904546435456E-3    1.577813098627547E-3   -2.852457023054235E-3    1.658313354762540E-3    3.056965649945752E-1    4.098021880909123E-1
 8.152394447750000E9     1.833079596203722E-1    5.084370127016787E-1   -2.827412220746987E-3    1.592507882211484E-3   -2.885772680784607E-3    1.640923665969087E-3    3.057749066583787E-1    4.097151244334673E-1
 8.152396304300000E9     1.835196678526067E-1    5.083910391739827E-1   -2.884097263765549E-3    1.579451419139990E-3   -2.900457452903992E-3    1.649862216474531E-3    3.056753436970766E-1    4.097388247917054E-1
 8.152398160850000E9     1.836591908103359E-1    5.084293411513370E-1   -2.868147067887433E-3    1.592998732155012E-3   -2.858607417333841E-3    1.660034869670912E-3    3.059064670418297E-1    4.097605327575055E-1
 8.152400017400000E9     1.838765936671268E-1    5.083563752240792E-1   -2.868415407267220E-3    1.586620898768667E-3   -2.852843907148535E-3    1.638825130166788E-3    3.061157790628332E-1    4.096317300403797E-1
 8.152401873950000E9     1.839545673621010E-1    5.082728506060826E-1   -2.890214505561605E-3    1.590256404764470E-3   -2.872254662833231E-3    1.654349419200022E-3    3.060651413145663E-1    4.096561493841314E-1
 8.152403730500000E9     1.840639394934019E-1    5.082535335871677E-1   -2.843947948968640E-3    1.627041507814073E-3   -2.875804289825223E-3    1.682111739628861E-3    3.062383454796134E-1    4.095139678631329E-1
 8.152405587050000E9     1.843189131049545E-1    5.081307364112068E-1   -2.861599817470114E-3    1.612100826307947E-3   -2.881556564225039E-3    1.659182394707745E-3    3.064162660418401E-1    4.093694791654651E-1
 8.152407443600000E9     1.844742973367106E-1    5.081461707585798E-1   -2.872895438651060E-3    1.608002840466077E-3   -2.872052041724755E-3    1.682153748884879E-3    3.064019875181805E-1    4.093073189013501E-1
 8.152409300150000E9     1.845036836644719E-1    5.080382479331783E-1   -2.878350531957261E-3    1.604123332724550E-3   -2.907123823360090E-3    1.665863093533145E-3    3.065416802636687E-1    4.093024321668444E-1
 8.152411156700000E9     1.847099646323889E-1    5.079990248139791E-1   -2.867454948909898E-3    1.594561865972935E-3   -2.880600819200117E-3    1.627096845981131E-3    3.064762374688319E-1    4.092945268341600E-1
 8.152413013250000E9     1.846960806533567E-1    5.080612264335053E-1   -2.885382369178760E-3    1.609045888575100E-3   -2.862064736655649E-3    1.674274035735337E-3    3.067072322921267E-1    4.091730120061189E-1
 8.152414869800000E9     1.849647345144319E-1    5.079170782367114E-1   -2.892780067033902E-3    1.613918203252206E-3   -2.878844070581913E-3    1.676468103294916E-3    3.067912236662615E-1    4.090252049985701E-1
 8.152416726350000E9     1.851179248518448E-1    5.079970275660112E-1   -2.874064271439655E-3    1.621697433301456E-3   -2.886587141652308E-3    1.680176528932776E-3    3.068025464083814E-1    4.089291005642315E-1
 8.152418582900000E9     1.852654136159609E-1    5.078408180404809E-1   -2.896202755805801E-3    1.611431798363175E-3   -2.908478604532561E-3    1.699804236782693E-3    3.069424437356038E-1    4.090405472712658E-1
 8.152420439450000E9     1.853647517800247E-1    5.077777826576684E-1   -2.916928802119162E-3    1.632972059976140E-3   -2.894220262929015E-3    1.673919184398935E-3    3.069831847212227E-1    4.088823450813272E-1
 8.152422296000000E9     1.855448186043211E-1    5.075944660902422E-1   -2.915713053742003E-3    1.631146309241365E-3   -2.915203830692043E-3    1.680230514738334E-3    3.071216076329494E-1    4.087427472667769E-1
 8.152424152550000E9     1.857144618203132E-1    5.076773168877813E-1   -2.885516679026204E-3    1.647671359214980E-3   -2.897465199121141E-3    1.673418892795758E-3    3.072752079952749E-1    4.087681395017905E-1
 8.152426009100000E9     1.857774301257208E-1    5.075971570236917E-1   -2.896145283389126E-3    1.657493085831435E-3   -2.904635665074280E-3    1.690102123181257E-3    3.073037549482841E-1    4.085690237125026E-1
 8.152427865650000E9     1.859227717446124E-1    5.075410614891475E-1   -2.925858722902950E-3    1.611914353949302E-3   -2.934110485286200E-3    1.670146454591955E-3    3.074381684476769E-1    4.086372263396428E-1
 8.152429722200000E9     1.861267666508727E-1    5.074875121097360E-1   -2.903094804832748E-3    1.629302548006720E-3   -2.902523983351497E-3    1.714354168687254E-3    3.075816172529665E-1    4.083421161448942E-1
 8.152431578750000E9     1.863098375421846E-1    5.074461975622470E-1   -2.918954716448570E-3    1.644836957497460E-3   -2.903565869700436E-3    1.698331876276968E-3    3.077033244097683E-1    4.085129408095782E-1
 8.152433435300000E9     1.863195987718685E-1    5.073620440989797E-1   -2.909245213954760E-3    1.643979092533028E-3   -2.919340935721456E-3    1.673560780458521E-3    3.075808027091199E-1    4.083126098510562E-1
 8.152435291850000E9     1.865080714756649E-1    5.072121021950323E-1   -2.933557578255483E-3    1.657093726629242E-3   -2.930218508439622E-3    1.714378516106889E-3    3.077790617059852E-1    4.082607413467380E-1
 8.152437148400000E9     1.866551117280522E-1    5.074309870542045E-1   -2.931186120983953E-3    1.655441075592132E-3   -2.932324056299885E-3    1.721614730876362E-3    3.079913757303052E-1    4.082337938539012E-1
 8.152439004950000E9     1.870091296633479E-1    5.071965341414979E-1   -2.897603851636114E-3    1.670652125376298E-3   -2.939976016795852E-3    1.728623098056731E-3    3.078968189243284E-1    4.081408814572854E-1
 8.152440861500000E9     1.870303821858890E-1    5.071740959505460E-1   -2.943933903343931E-3    1.636318295587555E-3   -2.944655072069300E-3    1.746860520110898E-3    3.080927609616195E-1    4.080431636488653E-1
 8.152442718050000E9     1.872533046347066E-1    5.070966693855454E-1   -2.924554208025143E-3    1.680782139917249E-3   -2.944729972778867E-3    1.734498988291193E-3    3.082421667823083E-1    4.079754325921630E-1
 8.152444574600000E9     1.872684101680494E-1    5.070816436586698E-1   -2.952196340129091E-3    1.685924206914907E-3   -2.947909951905369E-3    1.731462315747517E-3    3.083179898854555E-1    4.080016761608114E-1
 8.152446431150000E9     1.874417889860311E-1    5.070055590550182E-1   -2.959852967631393E-3    1.706279869490011E-3   -2.950093884672021E-3    1.740580044562145E-3    3.083474507645990E-1    4.078023736946917E-1
 8.152448287700000E9     1.874856087602133E-1    5.068923588234513E-1   -2.948604411446809E-3    1.689990625553251E-3   -2.934125165894729E-3    1.737536357080758E-3    3.085373822470479E-1    4.077814261530910E-1
 8.152450144250000E9     1.876200529886209E-1    5.068707337308184E-1   -2.977294261653739E-3    1.711232157570242E-3   -2.990763214017814E-3    1.773110448580003E-3    3.084159757296446E-1    4.075807466635979E-1
 8.152452000800000E9     1.878506027074281E-1    5.068525217894697E-1   -2.942339933275328E-3    1.692441038319481E-3   -2.956276088914685E-3    1.775622152521121E-3    3.087108843379764E-1    4.075488361161319E-1
 8.152453857350000E9     1.879877960209395E-1    5.066524097242383E-1   -2.955990522746214E-3    1.704399630576075E-3   -2.954361175523734E-3    1.756255010679750E-3    3.087864405270903E-1    4.075737291895892E-1
 8.152455713900000E9     1.881020427545032E-1    5.068078792625164E-1   -2.998984888176816E-3    1.680463446286647E-3   -2.951138721543600E-3    1.753589353112847E-3    3.088594271536659E-1    4.074252577884107E-1
 8.152457570450000E9     1.882032709625029E-1    5.064832047398089E-1   -2.972133558299539E-3    1.703809092906691E-3   -2.970760127218309E-3    1.757129312484106E-3    3.090360355286751E-1    4.073373261317480E-1
 8.152459427000000E9     1.885996263368286E-1    5.065569423107145E-1   -2.986819180864663E-3    1.705464410849498E-3   -2.965798404387642E-3    1.750833010856772E-3    3.090551370473648E-1    4.071654455140157E-1
 8.152461283550000E9     1.885593417459114E-1    5.065400721916815E-1   -2.970218948421776E-3    1.737325731362005E-3   -2.968712623698017E-3    1.759527374251810E-3    3.090710362072337E-1    4.071779118851778E-1
 8.152463140100000E9     1.887747015374222E-1    5.064195023414300E-1   -2.967823284230518E-3    1.724505544814000E-3   -2.974505805470807E-3    1.775893187442782E-3    3.092098755220321E-1    4.070038472325608E-1
 8.152464996650000E9     1.888906633215111E-1    5.064744176578732E-1   -2.978690231821303E-3    1.713726917715521E-3   -2.963724944251325E-3    1.785434867626802E-3    3.094059239808117E-1    4.071320486840975E-1
 8.152466853200000E9     1.890699000633872E-1    5.063039003850475E-1   -2.998590891265566E-3    1.747370091518032E-3   -3.005042920950025E-3    1.808436961461674E-3    3.093988276700552E-1    4.070589115802822E-1
 8.152468709750000E9     1.892162294202188E-1    5.063769454189925E-1   -3.015335704852862E-3    1.751896592409961E-3   -3.031598358651507E-3    1.776957711751448E-3    3.094863151943438E-1    4.068640269291489E-1
 8.152470566300000E9     1.893908130583488E-1    5.061900307890539E-1   -2.997417359927936E-3    1.736146608431897E-3   -3.001230139704433E-3    1.791135887399813E-3    3.096922492639415E-1    4.067235693251314E-1
 8.152472422850000E9     1.895268363421445E-1    5.063344617390590E-1   -3.017583575966059E-3    1.732301176051911E-3   -3.026562394613273E-3    1.789314502538132E-3    3.097014937053862E-1    4.067401885705714E-1
 8.152474279400000E9     1.896828696096611E-1    5.061968760472134E-1   -3.018623679118052E-3    1.761638311341141E-3   -3.009354858404041E-3    1.836344266382040E-3    3.098677861276946E-1    4.066772355198145E-1
 8.152476135950000E9     1.897347801708354E-1    5.062067207546979E-1   -3.010064675374951E-3    1.736210287325435E-3   -3.008948612084057E-3    1.849593765601096E-3    3.098105713870260E-1    4.065371695678269E-1
 8.152477992500000E9     1.899958839945791E-1    5.060117652348340E-1   -3.015888770505292E-3    1.766793043633953E-3   -3.025520971411890E-3    1.813126163382207E-3    3.098256876769925E-1    4.066098304925875E-1
 8.152479849050000E9     1.901491546537778E-1    5.059622621649948E-1   -2.996465652501209E-3    1.757922864645182E-3   -3.017570164620097E-3    1.819120172904600E-3    3.101153560173923E-1    4.064621709430623E-1
 8.152481705600000E9     1.903245420554089E-1    5.057779829239984E-1   -3.027642661231403E-3    1.765847493777272E-3   -3.047640230758601E-3    1.846435415400867E-3    3.101211277436315E-1    4.063636720279616E-1
 8.152483562150000E9     1.903657112910206E-1    5.058338037630653E-1   -3.026590147337266E-3    1.808559869125800E-3   -3.020517005732800E-3    1.858280882161385E-3    3.102357759775014E-1    4.062797067606260E-1
 8.152485418700000E9     1.904858196316310E-1    5.058601676843680E-1   -3.033050673305602E-3    1.790744121017915E-3   -3.033334051396552E-3    1.851537084963850E-3    3.103937190006965E-1    4.061544713022295E-1
 8.152487275250000E9     1.906975854787874E-1    5.057737027722495E-1   -3.056206925119636E-3    1.796591452380887E-3   -3.023204602300312E-3    1.823063631946389E-3    3.105882123833882E-1    4.062642573689306E-1
 8.152489131800000E9     1.908894820198418E-1    5.056771143443317E-1   -3.044186847895954E-3    1.797989101797720E-3   -3.021749593768320E-3    1.851318936496877E-3    3.105918244833462E-1    4.060003176875308E-1
 8.152490988350000E9     1.910079008926253E-1    5.055022960069226E-1   -3.045074203261215E-3    1.812769686122916E-3   -3.027852521515557E-3    1.874397786561562E-3    3.105586339791943E-1    4.058576077456539E-1
 8.152492844900000E9     1.912652302439446E-1    5.054955434692519E-1   -3.055058962062017E-3    1.788545049033791E-3   -3.002295123256200E-3    1.863803351091681E-3    3.106815046381996E-1    4.060003056236150E-1
 8.152494701450000E9     1.913871756008310E-1    5.055252546183222E-1   -3.067836521045387E-3    1.826989988297122E-3   -3.063270246374479E-3    1.887099280596338E-3    3.107736533483577E-1    4.058305624417806E-1
 8.152496558000000E9     1.914275708252559E-1    5.053318108286535E-1   -3.090193053282395E-3    1.831797205955957E-3   -3.083686558543410E-3    1.874373914108043E-3    3.109325590812822E-1    4.056994392535310E-1
 8.152498414550000E9     1.916149182129081E-1    5.053665490975658E-1   -3.070062600030544E-3    1.811150113097112E-3   -3.102511653908328E-3    1.880581931322208E-3    3.109739132089864E-1    4.057035171653858E-1
 8.152500271100000E9     1.918602043531231E-1    5.052933506871743E-1   -3.084757420787901E-3    1.803826445588187E-3   -3.071115277997834E-3    1.905743239987447E-3    3.111458970868645E-1    4.055664969939451E-1
 8.152502127650000E9     1.919196396579398E-1    5.051539225315089E-1   -3.075702889081213E-3    1.833889421596638E-3   -3.060124839026896E-3    1.908386834391634E-3    3.111843231892520E-1    4.055318860131581E-1
 8.152503984200000E9     1.920602904364670E-1    5.051938343900583E-1   -3.099721522003724E-3    1.850488929544360E-3   -3.104841242723973E-3    1.925711915696689E-3    3.112443785928614E-1    4.054725352532187E-1
 8.152505840750000E9     1.921532940114997E-1    5.050926419824766E-1   -3.086606878148411E-3    1.845055784755350E-3   -3.114549430637467E-3    1.911467291125266E-3    3.114087093994177E-1    4.054840189231251E-1
 8.152507697300000E9     1.923312203261623E-1    5.050035569814971E-1   -3.101682697589191E-3    1.857952782866301E-3   -3.083633711793453E-3    1.904770612883422E-3    3.113923948876029E-1    4.054027413914743E-1
 8.152509553850000E9     1.925902644524945E-1    5.049404895055408E-1   -3.106288628819597E-3    1.851125240234108E-3   -3.103324950236051E-3    1.920363820813280E-3    3.115412063036581E-1    4.052781793931536E-1
 8.152511410400000E9     1.926983137146794E-1    5.047853283745775E-1   -3.102266953578419E-3    1.891760063767433E-3   -3.123593602856585E-3    1.925030167833903E-3    3.117019885706706E-1    4.051541532000383E-1
 8.152513266950000E9     1.929340171124982E-1    5.048283275831691E-1   -3.117742247018934E-3    1.861136059155886E-3   -3.120276616692394E-3    1.959550105409225E-3    3.118109369700238E-1    4.050405718147765E-1
 8.152515123500000E9     1.930456558114685E-1    5.047650856013824E-1   -3.114336537551140E-3    1.903162096519016E-3   -3.109000611966728E-3    1.930652167708416E-3    3.119435422906545E-1    4.051308443171278E-1
 8.152516980050000E9     1.932209995537269E-1    5.047061729240879E-1   -3.141387942490056E-3    1.892898610340457E-3   -3.173503489515814E-3    1.945074898928119E-3    3.119700539758875E-1    4.050042582498850E-1
 8.152518836600000E9     1.933903410966226E-1    5.044830083793973E-1   -3.140742803554791E-3    1.904100844626904E-3   -3.121839625267389E-3    1.956128071127348E-3    3.120538214460770E-1    4.048707732965307E-1
 8.152520693150000E9     1.935741549158411E-1    5.044840677144956E-1   -3.138162068933352E-3    1.897611123341198E-3   -3.162247897076581E-3    1.959487271683533E-3    3.121134941231081E-1    4.047006658210240E-1
 8.152522549700000E9     1.935585653069857E-1    5.044938120968937E-1   -3.141874377083305E-3    1.926046456702549E-3   -3.135269568946200E-3    1.959795214531515E-3    3.121662497319458E-1    4.047066798591033E-1
 8.152524406250000E9     1.939037887391325E-1    5.044216581909958E-1   -3.137743585988951E-3    1.930476441174078E-3   -3.149951480475924E-3    1.966779137812322E-3    3.122194260673617E-1    4.047265926179514E-1
 8.152526262800000E9     1.940374891166633E-1    5.043097214950786E-1   -3.171255004558145E-3    1.933785168899214E-3   -3.122619981562609E-3    1.975366894848157E-3    3.124399917934342E-1    4.046020994068762E-1
 8.152528119350000E9     1.940836807944926E-1    5.042422184681736E-1   -3.171746414971991E-3    1.945422479320544E-3   -3.154015962320655E-3    1.991293556559632E-3    3.125464904726010E-1    4.045375157001384E-1
 8.152529975900000E9     1.943113974836837E-1    5.042233794048807E-1   -3.162137546795283E-3    1.949923577872197E-3   -3.170173797076240E-3    2.017312252056328E-3    3.126137503510539E-1    4.043336287446815E-1
 8.152531832450000E9     1.945235084267431E-1    5.040890916492076E-1   -3.179061500380143E-3    1.954506377359341E-3   -3.163365647691868E-3    2.000769965671696E-3    3.126645063810069E-1    4.044587388510843E-1
 8.152533689000000E9     1.946306453504618E-1    5.040906105784804E-1   -3.207784164644256E-3    1.959942325252293E-3   -3.151167633421660E-3    2.007854910577964E-3    3.126973614738131E-1    4.044498819720566E-1
 8.152535545550000E9     1.947986974008875E-1    5.039253220925499E-1   -3.196201909626422E-3    1.964316796342761E-3   -3.198858744115085E-3    2.039223937453595E-3    3.129946184571987E-1    4.043172909730618E-1
 8.152537402100000E9     1.948735740779186E-1    5.040307766587939E-1   -3.210380041827505E-3    1.953688970637809E-3   -3.196132056620892E-3    2.034030608577383E-3    3.129643185193804E-1    4.040275438506603E-1
 8.152539258650000E9     1.951113494511724E-1    5.039301569131326E-1   -3.215297655709805E-3    1.991414747397643E-3   -3.231535601227432E-3    2.081105478476148E-3    3.129638565328434E-1    4.040019506952995E-1
 8.152541115200000E9     1.953286396501775E-1    5.037258263277580E-1   -3.184369101017445E-3    2.000779617009875E-3   -3.229195956513719E-3    2.038879350802328E-3    3.130441400006736E-1    4.038935132320861E-1
 8.152542971750000E9     1.954908041858372E-1    5.037914636839969E-1   -3.219034827466565E-3    1.989718453044041E-3   -3.214962749917075E-3    2.049212248494787E-3    3.132677609447844E-1    4.040199330932037E-1
 8.152544828300000E9     1.956293628348001E-1    5.034692482646357E-1   -3.252985248866319E-3    2.011502139637933E-3   -3.226463210918728E-3    2.070934156815883E-3    3.133230390404191E-1    4.038134090367478E-1
 8.152546684850000E9     1.958968533575947E-1    5.034671244802587E-1   -3.246004057462516E-3    2.012622322760390E-3   -3.219953695294559E-3    2.100708591115469E-3    3.133861647238894E-1    4.035692326392851E-1
 8.152548541400000E9     1.958952466118652E-1    5.035491165452746E-1   -3.257517360678402E-3    2.002528777135553E-3   -3.248481000229316E-3    2.084015087460029E-3    3.136326580212118E-1    4.037651972291725E-1
 8.152550397950000E9     1.961611108078024E-1    5.033765900689081E-1   -3.262078808160315E-3    2.035783346928338E-3   -3.273961719034672E-3    2.086492525553530E-3    3.134930536611009E-1    4.035954673513728E-1
 8.152552254500000E9     1.962824172059671E-1    5.031542780331767E-1   -3.241118015555422E-3    2.056886614858942E-3   -3.258342882695488E-3    2.114347148763636E-3    3.138010884382421E-1    4.035747702624409E-1
