#  HZ   S   RI   R     50.00 
! Rohde & Schwarz Vector Network Analyzer 
! Rohde-Schwarz,ZNB20-2Port,1311601062101988,3.16
! Created: UTC 3/21/2024, 1:21:26 AM
! freq[Hz]                re:S11                  im:S11                  re:S21                  im:S21                  re:S12                  im:S12                  re:S22                  im:S22
 8.152371304000000E9     1.814998740421054E-1    5.090500914098357E-1   -2.810484191539435E-3    1.520147122794678E-3   -2.820768769964285E-3    1.602520341223361E-3    3.045312903647809E-1    4.108216289975854E-1
 8.152373222300000E9     1.817972745060307E-1    5.089844636830296E-1   -2.809632455920076E-3    1.539790291684085E-3   -2.798178278483234E-3    1.603448071494375E-3    3.044297444192848E-1    4.106876586227165E-1
 8.152375140600000E9     1.818078480632837E-1    5.089231389311941E-1   -2.837314569888054E-3    1.552649352930430E-3   -2.808803197342143E-3    1.613656927480512E-3    3.047285781432139E-1    4.106124776315845E-1
 8.152377058900000E9     1.820915701218152E-1    5.088713844696932E-1   -2.827077177910385E-3    1.547803523153695E-3   -2.833304398558258E-3    1.635416157124033E-3    3.049533747534888E-1    4.105201463832481E-1
 8.152378977200000E9     1.822001366447507E-1    5.088709021835608E-1   -2.844418774483880E-3    1.573517017358041E-3   -2.839163114627037E-3    1.603439780469233E-3    3.049850918525170E-1    4.105111021421682E-1
 8.152380895500000E9     1.823022065086527E-1    5.088472008137828E-1   -2.853247463214417E-3    1.578579567167466E-3   -2.861264058832037E-3    1.611865100992891E-3    3.049954165314611E-1    4.102682536483507E-1
 8.152382813800000E9     1.825952076945775E-1    5.087393164604971E-1   -2.832947035946029E-3    1.572656504873953E-3   -2.856399503652257E-3    1.630494160838985E-3    3.051899887338309E-1    4.106039434016996E-1
 8.152384732100000E9     1.825700427053421E-1    5.086294148165775E-1   -2.827433473651975E-3    1.563984819156559E-3   -2.828171330938640E-3    1.644842449268895E-3    3.052155875471819E-1    4.101808918980445E-1
 8.152386650400000E9     1.828014937790828E-1    5.086192580402777E-1   -2.839802045778438E-3    1.575392046184251E-3   -2.857809276279313E-3    1.652893971155212E-3    3.053014257804568E-1    4.101313776469360E-1
 8.152388568700000E9     1.829209851523190E-1    5.085844945838353E-1   -2.852484836833208E-3    1.584457805898199E-3   -2.865955561615829E-3    1.625387633489939E-3    3.054757121099145E-1    4.101249682283269E-1
 8.152390487000000E9     1.831465392143419E-1    5.086185518713340E-1   -2.842083665585360E-3    1.567987379610774E-3   -2.878322036297371E-3    1.624060610628984E-3    3.053830064990070E-1    4.101395848446834E-1
 8.152392405300000E9     1.832248162521056E-1    5.085878136721104E-1   -2.856888609917883E-3    1.554457070915410E-3   -2.868452702652341E-3    1.618438076732078E-3    3.056393839066414E-1    4.099793722789543E-1
 8.152394323600000E9     1.833851000367229E-1    5.084567520228943E-1   -2.860665969033919E-3    1.571101436106260E-3   -2.856756909062664E-3    1.635732281222347E-3    3.056791558275258E-1    4.097821406556454E-1
 8.152396241900000E9     1.834674373099514E-1    5.084296862669057E-1   -2.878993034328145E-3    1.604340627633013E-3   -2.885211407536450E-3    1.637541691737746E-3    3.057728563036760E-1    4.097511339997201E-1
 8.152398160200000E9     1.836476201567938E-1    5.083224413026068E-1   -2.869183204960382E-3    1.579879292273323E-3   -2.878121793355300E-3    1.630491477637846E-3    3.060639766672401E-1    4.097642730814489E-1
 8.152400078500000E9     1.837323149449977E-1    5.081906970361544E-1   -2.867497604960156E-3    1.569490540368132E-3   -2.897104233272059E-3    1.614938743726951E-3    3.060175709971072E-1    4.097092339336791E-1
 8.152401996800000E9     1.839116471288672E-1    5.081690471406403E-1   -2.880460407429664E-3    1.589809052707608E-3   -2.880723867665969E-3    1.651667800278711E-3    3.061114019372198E-1    4.095115111968789E-1
 8.152403915100000E9     1.841623660202629E-1    5.082002802210089E-1   -2.892130665436554E-3    1.572211995490263E-3   -2.881550594891382E-3    1.647627887376333E-3    3.061560070211817E-1    4.095146271577375E-1
 8.152405833400000E9     1.842747350857543E-1    5.081025807624882E-1   -2.878003765033859E-3    1.593542565271163E-3   -2.887572198004407E-3    1.645937018018194E-3    3.063556821051325E-1    4.094322534042092E-1
 8.152407751700000E9     1.843980990715628E-1    5.080463597484322E-1   -2.871267172563368E-3    1.603730675050461E-3   -2.896302480877809E-3    1.653134768008327E-3    3.064972243548447E-1    4.092784963094045E-1
 8.152409670000000E9     1.845792112252979E-1    5.079192668207371E-1   -2.884661393659479E-3    1.585333818190637E-3   -2.901561529512536E-3    1.643036921148907E-3    3.064800565875294E-1    4.092966443938023E-1
 8.152411588300000E9     1.846613107129123E-1    5.079976739980725E-1   -2.878720740364921E-3    1.578998868543338E-3   -2.878296905534028E-3    1.641295262862325E-3    3.066229763031948E-1    4.090532801147062E-1
 8.152413506600000E9     1.849007375548687E-1    5.078490790003800E-1   -2.905042514749927E-3    1.645281276041648E-3   -2.862812682547014E-3    1.666064812515218E-3    3.067074926621537E-1    4.090364749202051E-1
 8.152415424900000E9     1.849589671287966E-1    5.079205093554607E-1   -2.884580695705007E-3    1.629881303488319E-3   -2.922033708831512E-3    1.689541837433858E-3    3.067068871988292E-1    4.089563457244840E-1
 8.152417343200000E9     1.850770638722880E-1    5.077584708040060E-1   -2.927885143026396E-3    1.614493290081919E-3   -2.890696477905964E-3    1.675654364806364E-3    3.067605558358362E-1    4.089487141595347E-1
 8.152419261500000E9     1.852639695851335E-1    5.078179910847970E-1   -2.897328367786073E-3    1.615430667775575E-3   -2.867049752724690E-3    1.678726738615446E-3    3.070173647148779E-1    4.088742073119145E-1
 8.152421179800000E9     1.855749605273988E-1    5.076707488790497E-1   -2.883660225379492E-3    1.641959971845094E-3   -2.905872028869469E-3    1.686754645715904E-3    3.071366958742892E-1    4.087107711359551E-1
 8.152423098100000E9     1.855867131946198E-1    5.076712743692418E-1   -2.896028966127512E-3    1.645007359411008E-3   -2.922015657776159E-3    1.697320406739983E-3    3.072378351430988E-1    4.086457337763688E-1
 8.152425016400000E9     1.857570980003444E-1    5.075886140753406E-1   -2.949782703814513E-3    1.628271969689038E-3   -2.906114304281835E-3    1.696448083784848E-3    3.071043723866373E-1    4.086948992967310E-1
 8.152426934700000E9     1.858805667870569E-1    5.075280130978321E-1   -2.897626996892526E-3    1.644136059114060E-3   -2.918405384044967E-3    1.701521403908036E-3    3.075298422943682E-1    4.085724577252830E-1
 8.152428853000000E9     1.860317227926715E-1    5.074093569943869E-1   -2.931987267825843E-3    1.652789345469087E-3   -2.926330267502161E-3    1.693191213944366E-3    3.074437074818820E-1    4.085672287815501E-1
 8.152430771300000E9     1.862289984832992E-1    5.074045233256128E-1   -2.924185073118857E-3    1.657678110582273E-3   -2.935691143803614E-3    1.678045392847680E-3    3.075220058458493E-1    4.083612543362088E-1
 8.152432689600000E9     1.864454670225872E-1    5.073597892201067E-1   -2.929832654918591E-3    1.670503878310749E-3   -2.909913995225505E-3    1.709007980727355E-3    3.076240148608889E-1    4.084163733134133E-1
 8.152434607900000E9     1.865143140924253E-1    5.071835203889048E-1   -2.920845082273051E-3    1.661286673516335E-3   -2.915161174238652E-3    1.752438264505694E-3    3.077427419465562E-1    4.082869018336858E-1
 8.152436526200000E9     1.866309094972686E-1    5.073237735806112E-1   -2.960321825527223E-3    1.672054729139975E-3   -2.935850104970193E-3    1.697030267093880E-3    3.079107082046247E-1    4.081466084206751E-1
 8.152438444500000E9     1.868528691073870E-1    5.072066808831259E-1   -2.926067536252706E-3    1.668315615512105E-3   -2.939554231702521E-3    1.747334880991296E-3    3.080083415509835E-1    4.081581522244122E-1
 8.152440362800000E9     1.869806491416781E-1    5.071369662603384E-1   -2.907802410897705E-3    1.663314987995290E-3   -2.937948293138326E-3    1.747853923341954E-3    3.080972083029884E-1    4.081484807074366E-1
 8.152442281100000E9     1.871326440871796E-1    5.071134009344284E-1   -2.931721383969549E-3    1.693538006191946E-3   -2.950304955828812E-3    1.733794838834512E-3    3.081409742913086E-1    4.079167566402178E-1
 8.152444199400000E9     1.872114917460376E-1    5.070013070632966E-1   -2.921646610366035E-3    1.696841430843686E-3   -2.936643649440258E-3    1.756989755854476E-3    3.082427513585389E-1    4.078369772140892E-1
 8.152446117700000E9     1.874132065804755E-1    5.070339450564821E-1   -2.930820350575994E-3    1.696911433809563E-3   -2.944839867369644E-3    1.722336400439070E-3    3.083519845754248E-1    4.077922211157549E-1
 8.152448036000000E9     1.876329768513542E-1    5.069314889045836E-1   -2.943932080989255E-3    1.712845171863651E-3   -2.957142109592220E-3    1.754389302736572E-3    3.085305130316289E-1    4.076242025714083E-1
 8.152449954300000E9     1.877106576133240E-1    5.068212534788711E-1   -2.955961230350778E-3    1.696664704903166E-3   -2.931403131863050E-3    1.761333075355428E-3    3.085805585986053E-1    4.076078896819478E-1
 8.152451872600000E9     1.877703860478942E-1    5.068178385588742E-1   -2.950683031876944E-3    1.709059337423084E-3   -2.973682607643832E-3    1.728338302905787E-3    3.085750231956186E-1    4.076602944237920E-1
 8.152453790900000E9     1.881945686847269E-1    5.066845991972885E-1   -2.955454807430139E-3    1.708921659684068E-3   -2.978413454907031E-3    1.744626623252138E-3    3.088038085924245E-1    4.075127424097338E-1
 8.152455709200000E9     1.881208854522471E-1    5.066963424541694E-1   -2.969278889225627E-3    1.704381616994398E-3   -2.955045978987385E-3    1.756743552573538E-3    3.088133055001680E-1    4.074201040257350E-1
 8.152457627500000E9     1.882725960100023E-1    5.065723725009975E-1   -2.959113553920517E-3    1.700763146939099E-3   -3.004646608247224E-3    1.761389209158548E-3    3.088795255667664E-1    4.072646625805491E-1
 8.152459545800000E9     1.884667255676770E-1    5.065299977872783E-1   -2.980780485626782E-3    1.735548301701816E-3   -2.978601308556554E-3    1.791971824321515E-3    3.089572126753066E-1    4.073239026661144E-1
 8.152461464100000E9     1.887239434899280E-1    5.064579689789006E-1   -2.961385378576615E-3    1.714625821365370E-3   -3.001098108646325E-3    1.775985313154804E-3    3.091467414324514E-1    4.072068218651846E-1
 8.152463382400000E9     1.887839407345408E-1    5.063862425085395E-1   -2.995561294347957E-3    1.715116441033723E-3   -2.969473360492846E-3    1.755923996304950E-3    3.092376447993284E-1    4.071617623700370E-1
 8.152465300700000E9     1.889635036681925E-1    5.064493659621186E-1   -2.996967296932914E-3    1.736312176448046E-3   -3.006429075475187E-3    1.787337672322298E-3    3.093942922880484E-1    4.071851891033419E-1
 8.152467219000000E9     1.890818740250645E-1    5.062343960082769E-1   -2.983784441850620E-3    1.717996464709996E-3   -3.002381863013586E-3    1.797600857312034E-3    3.094185870255042E-1    4.070150407462724E-1
 8.152469137300000E9     1.892921291581351E-1    5.062594383824516E-1   -3.027128523741691E-3    1.761853171429249E-3   -2.972829434944303E-3    1.779774291580395E-3    3.094848700992716E-1    4.068776431000166E-1
 8.152471055600000E9     1.893966504687546E-1    5.061275864691310E-1   -3.035377563371955E-3    1.722262608340951E-3   -3.018502226981729E-3    1.838003972038526E-3    3.095465834792525E-1    4.067701787956133E-1
 8.152472973900000E9     1.895347416896055E-1    5.060968819384545E-1   -3.001824211643276E-3    1.766524873145692E-3   -3.026205622210597E-3    1.829943852557528E-3    3.095570566714692E-1    4.067410211051398E-1
 8.152474892200000E9     1.897016225087050E-1    5.060517555587183E-1   -3.001095503459783E-3    1.774774069541611E-3   -3.034709521739403E-3    1.830223159656448E-3    3.098180444791603E-1    4.067481983859534E-1
 8.152476810500000E9     1.898473841087250E-1    5.060300763942061E-1   -3.004281736681994E-3    1.777615277079283E-3   -3.036123219035207E-3    1.830057870423861E-3    3.098308821010839E-1    4.066419165075830E-1
 8.152478728800000E9     1.899811395138898E-1    5.060568197627494E-1   -3.018012146598089E-3    1.777122030357415E-3   -3.021744305348490E-3    1.822916231542241E-3    3.100601903098887E-1    4.064508024805506E-1
 8.152480647100000E9     1.901993581539337E-1    5.057672785055322E-1   -3.046442476994696E-3    1.798036324546389E-3   -3.029320260519870E-3    1.835189113502391E-3    3.101318935633036E-1    4.064202897995116E-1
 8.152482565400000E9     1.903440713038517E-1    5.058007211227908E-1   -3.069337041944291E-3    1.784239052559984E-3   -3.010654820077009E-3    1.837697567721292E-3    3.103021490889542E-1    4.064387360606761E-1
 8.152484483700000E9     1.904833947286536E-1    5.058742147566873E-1   -3.041965628581097E-3    1.792270814108014E-3   -3.061693357554078E-3    1.830121835618926E-3    3.103960572019600E-1    4.063522328307690E-1
 8.152486402000000E9     1.907204288142913E-1    5.056710234956702E-1   -3.036421016756696E-3    1.821956247570887E-3   -3.026017548836333E-3    1.859584250384302E-3    3.102869185946280E-1    4.061838597156273E-1
 8.152488320300000E9     1.908193778096140E-1    5.055948964596508E-1   -3.064435906341099E-3    1.795101573853408E-3   -3.070788058270610E-3    1.857950335333144E-3    3.106671773455326E-1    4.061108191170117E-1
 8.152490238600000E9     1.909702648509557E-1    5.056011827642204E-1   -3.048167221486547E-3    1.815530249616404E-3   -3.062935887451517E-3    1.879273686620803E-3    3.106371507787762E-1    4.061741097969433E-1
 8.152492156900000E9     1.911678290518144E-1    5.055179362882909E-1   -3.049824661365219E-3    1.796703219137309E-3   -3.074949576202776E-3    1.854863711027497E-3    3.107284684907705E-1    4.060662221053746E-1
 8.152494075200000E9     1.912212331027136E-1    5.054783172744705E-1   -3.055633358239206E-3    1.803624949188596E-3   -3.063914892289701E-3    1.880805199693162E-3    3.108099421196558E-1    4.058947424802192E-1
 8.152495993500000E9     1.914339585054594E-1    5.053621591267261E-1   -3.071205082570575E-3    1.833017227799321E-3   -3.056022924009795E-3    1.892896240139674E-3    3.109904135972561E-1    4.058017225108762E-1
 8.152497911800000E9     1.917672875835362E-1    5.053437624714727E-1   -3.076806368353746E-3    1.813082370531846E-3   -3.102367174002040E-3    1.858832223368772E-3    3.109981361638309E-1    4.056663971559719E-1
 8.152499830100000E9     1.917786914993990E-1    5.053040500440821E-1   -3.067012106858209E-3    1.844315237072812E-3   -3.076935883553718E-3    1.899892822342796E-3    3.110793722676056E-1    4.056203742179419E-1
 8.152501748400000E9     1.919661267151951E-1    5.051378706562079E-1   -3.063009375091486E-3    1.858575665018865E-3   -3.073273170185095E-3    1.913247408114460E-3    3.111214825057269E-1    4.055975069766544E-1
 8.152503666700000E9     1.920579804245479E-1    5.052317563185391E-1   -3.096954154350890E-3    1.861075495084821E-3   -3.095893652371798E-3    1.902860689932146E-3    3.112209897346047E-1    4.055930384973400E-1
 8.152505585000000E9     1.922441127673918E-1    5.049963026880071E-1   -3.067823702624680E-3    1.862213978010649E-3   -3.096362698912946E-3    1.919840205919141E-3    3.114295841077536E-1    4.054134128754312E-1
 8.152507503300000E9     1.924494840994149E-1    5.049139002269589E-1   -3.105972475791545E-3    1.870308855578358E-3   -3.070476068794718E-3    1.931429831913323E-3    3.113912691079905E-1    4.053583614092489E-1
 8.152509421600000E9     1.925455953053564E-1    5.050171939187500E-1   -3.146272201602864E-3    1.869805037700526E-3   -3.112309200644994E-3    1.935592906611913E-3    3.115862345566251E-1    4.053029613384318E-1
 8.152511339900000E9     1.926724076023747E-1    5.048490177504916E-1   -3.105333420465364E-3    1.893209933683945E-3   -3.121786924378938E-3    1.949087671834790E-3    3.116289541845337E-1    4.051564712513630E-1
 8.152513258200000E9     1.929141293386564E-1    5.047461738985707E-1   -3.134673874307928E-3    1.873447483813381E-3   -3.145246254237629E-3    1.951009920986466E-3    3.117237475025404E-1    4.052314232306359E-1
 8.152515176500000E9     1.930871340327958E-1    5.046488900411179E-1   -3.131689604602619E-3    1.893521781302116E-3   -3.127053517493150E-3    1.944000310006099E-3    3.116296275564612E-1    4.050006632652919E-1
 8.152517094800000E9     1.932487189057910E-1    5.046132089466523E-1   -3.162512025811609E-3    1.901218481283957E-3   -3.109330991553655E-3    1.966622325301569E-3    3.118544325956523E-1    4.049009510251962E-1
 8.152519013100000E9     1.934623157060491E-1    5.044717907662691E-1   -3.109430558640577E-3    1.931163966846776E-3   -3.162738146715232E-3    1.973421802409538E-3    3.119349796020378E-1    4.048117149583830E-1
 8.152520931400000E9     1.935744504679718E-1    5.045197895214434E-1   -3.160098724385747E-3    1.894219469170061E-3   -3.143142258745416E-3    2.013135498855046E-3    3.121334045824867E-1    4.047565523654822E-1
 8.152522849700000E9     1.938328053208558E-1    5.044206982311037E-1   -3.153347459426296E-3    1.914450711111845E-3   -3.176141342781698E-3    1.989951460754994E-3    3.122299141085005E-1    4.046912199565487E-1
 8.152524768000000E9     1.939190700589754E-1    5.043363867242341E-1   -3.169065534696645E-3    1.928732258317220E-3   -3.179805690023089E-3    1.987779791279836E-3    3.122899639117162E-1    4.046420457709502E-1
 8.152526686300000E9     1.938876372750570E-1    5.042315509994387E-1   -3.162661253693546E-3    1.921693635238063E-3   -3.177891581868830E-3    1.983560915940325E-3    3.123554049538329E-1    4.045731668386263E-1
 8.152528604600000E9     1.942450275974484E-1    5.041824258733354E-1   -3.162468744617353E-3    1.931173126913730E-3   -3.168722842094576E-3    1.991668860749216E-3    3.124750667956456E-1    4.044877849856324E-1
 8.152530522900000E9     1.943549717764771E-1    5.041571816404373E-1   -3.178410508151489E-3    1.942667767945008E-3   -3.229137796421789E-3    2.016605295135066E-3    3.125465705774729E-1    4.045271179470839E-1
 8.152532441200000E9     1.946185283981905E-1    5.040659896175572E-1   -3.211618101242806E-3    1.958023418552986E-3   -3.190967758628110E-3    2.017742950244511E-3    3.126998250476208E-1    4.042915259092743E-1
 8.152534359500000E9     1.948361916496322E-1    5.039595106415992E-1   -3.216734989906506E-3    1.986483799235576E-3   -3.213024875545984E-3    2.020835426482744E-3    3.127325506960537E-1    4.043178729131254E-1
 8.152536277800000E9     1.949825062139343E-1    5.038729572112676E-1   -3.207871738114937E-3    1.955495967961380E-3   -3.207029957333186E-3    2.056305402565901E-3    3.129334730582462E-1    4.041075568328725E-1
 8.152538196100000E9     1.952416203709759E-1    5.038042770084664E-1   -3.191835403524304E-3    1.966250042723835E-3   -3.197144715548543E-3    2.006751326094470E-3    3.129803000119902E-1    4.041264628025090E-1
 8.152540114400000E9     1.952003166942884E-1    5.037943933761631E-1   -3.204991090548020E-3    1.985401493103061E-3   -3.196137973895085E-3    2.028188669597117E-3    3.132123203448414E-1    4.039534092568637E-1
 8.152542032700000E9     1.954733740804679E-1    5.036410426698109E-1   -3.219836555736242E-3    1.992965622109319E-3   -3.222849697873764E-3    2.081812981611000E-3    3.131166017356829E-1    4.039584967516550E-1
 8.152543951000000E9     1.955038976072334E-1    5.035858790652016E-1   -3.213721121355353E-3    2.007522597936109E-3   -3.246106016075685E-3    2.096898535331921E-3    3.132948684774069E-1    4.038344627705346E-1
