#  HZ   S   RI   R     50.00 
! Rohde & Schwarz Vector Network Analyzer 
! Rohde-Schwarz,ZNB20-2Port,1311601062101988,3.16
! Created: UTC 3/21/2024, 1:21:44 AM
! freq[Hz]                re:S11                  im:S11                  re:S21                  im:S21                  re:S12                  im:S12                  re:S22                  im:S22
 8.152283142000000E9     1.749882313999858E-1    5.112076798749589E-1   -2.746109609664168E-3    1.441251538696124E-3   -2.767803549166264E-3    1.500697068938242E-3    2.999076068829495E-1    4.143239930105163E-1
 8.152285420425000E9     1.752441866353807E-1    5.110181452423309E-1   -2.726664545596153E-3    1.436832440441155E-3   -2.730581214432463E-3    1.509517576994017E-3    3.000805277480620E-1    4.141530124831335E-1
 8.152287698850000E9     1.753378942374810E-1    5.111925387499814E-1   -2.729449287063229E-3    1.448653475878521E-3   -2.739111255664117E-3    1.485559765195057E-3    3.001730433178634E-1    4.140852199208968E-1
 8.152289977275000E9     1.757322314243113E-1    5.111063870682784E-1   -2.750936681869637E-3    1.426021772405721E-3   -2.756465457048304E-3    1.510557380029669E-3    3.002762360570841E-1    4.141260438886248E-1
 8.152292255700000E9     1.757608248948761E-1    5.109956579317967E-1   -2.746440423977397E-3    1.433790362346400E-3   -2.758067520128451E-3    1.472861176557982E-3    3.003375656771828E-1    4.138189581085542E-1
 8.152294534125000E9     1.759487662645200E-1    5.110687074425708E-1   -2.766020966914086E-3    1.476383394430231E-3   -2.775515452262346E-3    1.486990399933895E-3    3.004292651744508E-1    4.138150381291738E-1
 8.152296812550000E9     1.760668578788041E-1    5.108935241610709E-1   -2.750486644136312E-3    1.449014523330204E-3   -2.759003549915439E-3    1.494616754554420E-3    3.006177775945783E-1    4.138009161422257E-1
 8.152299090975000E9     1.762315054401392E-1    5.108844750878908E-1   -2.747842529917513E-3    1.454872695998126E-3   -2.768408161411683E-3    1.520435909680728E-3    3.007233941683409E-1    4.137226114815508E-1
 8.152301369400000E9     1.764616003334695E-1    5.108354113194921E-1   -2.742043030261544E-3    1.475988784927238E-3   -2.751566946107021E-3    1.515389506808820E-3    3.008563107983447E-1    4.135047927151482E-1
 8.152303647825000E9     1.766291115042137E-1    5.106755685952271E-1   -2.750835866442954E-3    1.479132076601926E-3   -2.746188379140032E-3    1.531622625446078E-3    3.009836403058592E-1    4.135509246876795E-1
 8.152305926250000E9     1.766741907315547E-1    5.106926729204321E-1   -2.760666607607332E-3    1.464208578881384E-3   -2.756058552231440E-3    1.537669819624273E-3    3.011287183807644E-1    4.134244422107390E-1
 8.152308204675000E9     1.768280956427872E-1    5.105120209706673E-1   -2.777872220131865E-3    1.466554083018568E-3   -2.788084888213214E-3    1.507806113648286E-3    3.012273825732729E-1    4.133696592033243E-1
 8.152310483100000E9     1.770622637745500E-1    5.106199371060753E-1   -2.768232329228456E-3    1.454862312495141E-3   -2.778629259530106E-3    1.503918674315215E-3    3.012219117307215E-1    4.133315883424588E-1
 8.152312761525000E9     1.773566447046167E-1    5.104875972053728E-1   -2.778617579713985E-3    1.492610217515667E-3   -2.738205215091277E-3    1.538597182686700E-3    3.015172579351773E-1    4.131447923282089E-1
 8.152315039950000E9     1.774101785713151E-1    5.105142631435139E-1   -2.762785956489197E-3    1.490034586905628E-3   -2.792531195005279E-3    1.560253672210068E-3    3.014711984900706E-1    4.130829236801705E-1
 8.152317318375000E9     1.775489997231264E-1    5.104309489200801E-1   -2.762367046878678E-3    1.483791307377479E-3   -2.782005232799422E-3    1.521427266130491E-3    3.016794995831045E-1    4.130128536757983E-1
 8.152319596800000E9     1.777330352855868E-1    5.103438710776405E-1   -2.779017489025834E-3    1.486124084506219E-3   -2.761339396891762E-3    1.504012921892106E-3    3.017448554667180E-1    4.130001377186997E-1
 8.152321875225000E9     1.780144858487982E-1    5.101667070885392E-1   -2.788475813104983E-3    1.464428723358400E-3   -2.797681471506386E-3    1.563062368632462E-3    3.018439381640413E-1    4.127735080819958E-1
 8.152324153650000E9     1.780387569053598E-1    5.102736531451517E-1   -2.782478477901024E-3    1.495015661150175E-3   -2.797130049070738E-3    1.558901363533808E-3    3.019486037936482E-1    4.125945608568709E-1
 8.152326432075000E9     1.781895202811088E-1    5.101052048570630E-1   -2.756877196672364E-3    1.503450075213497E-3   -2.807615364579546E-3    1.545417117407192E-3    3.020851159036040E-1    4.124668119136112E-1
 8.152328710500000E9     1.784593388882568E-1    5.101980784897282E-1   -2.801432874154895E-3    1.489771915864818E-3   -2.792761261624354E-3    1.561654396130825E-3    3.022708547705891E-1    4.124471922576555E-1
 8.152330988925000E9     1.785105517268110E-1    5.100289073781840E-1   -2.802870271459747E-3    1.489785857208192E-3   -2.828400076204391E-3    1.560898752565574E-3    3.023461110359321E-1    4.125710704267144E-1
 8.152333267350000E9     1.787779235534320E-1    5.099900901127764E-1   -2.782937165059435E-3    1.513725790594631E-3   -2.815065783660091E-3    1.541214481990984E-3    3.023740039707685E-1    4.123623988847585E-1
 8.152335545775000E9     1.789942623080372E-1    5.098775356721458E-1   -2.806365557199795E-3    1.513699901266571E-3   -2.802521025527716E-3    1.563076103821367E-3    3.026988273433942E-1    4.123001687225689E-1
 8.152337824200000E9     1.790725458882532E-1    5.097977267236401E-1   -2.786500170685388E-3    1.513163647345315E-3   -2.788923714477902E-3    1.577091722260684E-3    3.026805696291507E-1    4.121051145088683E-1
 8.152340102625000E9     1.792861724241371E-1    5.097784937726370E-1   -2.792222510430606E-3    1.515489238357443E-3   -2.812680554440486E-3    1.562384191653379E-3    3.028944553735221E-1    4.120479368825381E-1
 8.152342381050000E9     1.794788295028240E-1    5.096444550057699E-1   -2.810741288359709E-3    1.514189766691132E-3   -2.806756464591395E-3    1.571264014425288E-3    3.029910549170060E-1    4.120554478144280E-1
 8.152344659475000E9     1.796526897554443E-1    5.096495832976874E-1   -2.821842998376898E-3    1.522460441314159E-3   -2.834661422274911E-3    1.556673195190475E-3    3.029684778090722E-1    4.119171976208214E-1
 8.152346937900000E9     1.797375141255347E-1    5.094616857984327E-1   -2.799530322927516E-3    1.511038896333541E-3   -2.790860509743513E-3    1.579232509393075E-3    3.031656885308351E-1    4.117255415943116E-1
 8.152349216325000E9     1.800506913403999E-1    5.094410412272653E-1   -2.809382567202716E-3    1.536036971582494E-3   -2.805648294232361E-3    1.588677023711798E-3    3.034211437312431E-1    4.117224471318929E-1
 8.152351494750000E9     1.801630221744562E-1    5.095301225062208E-1   -2.803771389597789E-3    1.539069892375090E-3   -2.820547790533825E-3    1.585541439390020E-3    3.032729342268100E-1    4.116519439037498E-1
 8.152353773175000E9     1.803709120187652E-1    5.094192681093019E-1   -2.823970151481495E-3    1.528843405394053E-3   -2.811757274798458E-3    1.613107000093830E-3    3.035099956863206E-1    4.115049798541665E-1
 8.152356051600000E9     1.804204068649251E-1    5.092811618388381E-1   -2.826516165980494E-3    1.537356693478572E-3   -2.837617893497710E-3    1.594062189541562E-3    3.036705102388416E-1    4.114364665893860E-1
 8.152358330025000E9     1.807225811245703E-1    5.093021953020027E-1   -2.820438211910431E-3    1.528664288918856E-3   -2.838201367058557E-3    1.594240741824246E-3    3.037493303515343E-1    4.112872291354598E-1
 8.152360608450000E9     1.808589412891247E-1    5.092135637234003E-1   -2.846808275800594E-3    1.564012876654024E-3   -2.828829862496514E-3    1.621721693852184E-3    3.039761071385467E-1    4.112440978313284E-1
 8.152362886875000E9     1.810870933252192E-1    5.091877067458387E-1   -2.823748166091403E-3    1.554179474064697E-3   -2.860256260884954E-3    1.628723751973615E-3    3.040148243280290E-1    4.113257733036922E-1
 8.152365165300000E9     1.812080578305698E-1    5.091423581376913E-1   -2.834520811404155E-3    1.556501804008025E-3   -2.814272864667710E-3    1.634348047053249E-3    3.040080418037986E-1    4.110637130020626E-1
 8.152367443725000E9     1.813337508491726E-1    5.090587694724115E-1   -2.830952684228021E-3    1.560125995971282E-3   -2.816545531339729E-3    1.617973786166912E-3    3.042101839437172E-1    4.110354673777846E-1
 8.152369722150000E9     1.816132892268994E-1    5.089236447448856E-1   -2.869599594987513E-3    1.586826280768049E-3   -2.872066742786348E-3    1.603252562701542E-3    3.042830022060010E-1    4.110052601742688E-1
 8.152372000575000E9     1.817369793568188E-1    5.089138775597564E-1   -2.832000798599524E-3    1.537453181873372E-3   -2.850168800972047E-3    1.638512858561628E-3    3.044507306849939E-1    4.108566779124272E-1
 8.152374279000000E9     1.817649582511248E-1    5.089716956375848E-1   -2.845442679820269E-3    1.573216709289126E-3   -2.813954030380231E-3    1.599845160804188E-3    3.045509935454615E-1    4.107650796470775E-1
 8.152376557425000E9     1.820192389440103E-1    5.087992864943935E-1   -2.855586978487514E-3    1.588917520784291E-3   -2.868526459418302E-3    1.615176780127379E-3    3.046418714164735E-1    4.106323963625185E-1
 8.152378835850000E9     1.821921417616104E-1    5.087610574922362E-1   -2.873257937011677E-3    1.596077801981470E-3   -2.848816051120691E-3    1.636868157751803E-3    3.047632551850052E-1    4.105105423421097E-1
 8.152381114275000E9     1.824588583364864E-1    5.087563684244885E-1   -2.841676684007598E-3    1.569768990254812E-3   -2.827094492377012E-3    1.662495451952890E-3    3.048534443942477E-1    4.104174706164426E-1
 8.152383392700000E9     1.826087682436898E-1    5.087087464782026E-1   -2.877604200249839E-3    1.591103836995621E-3   -2.847010195743787E-3    1.639126419377139E-3    3.049794775698410E-1    4.102544674908795E-1
 8.152385671125000E9     1.828211966185623E-1    5.084671142694767E-1   -2.859179799872741E-3    1.612313648994978E-3   -2.828337251499401E-3    1.668602288465965E-3    3.051520321799340E-1    4.102133193246293E-1
 8.152387949550000E9     1.829235168715878E-1    5.085242950019641E-1   -2.871564902918559E-3    1.586369856254929E-3   -2.835196143783377E-3    1.654611642447041E-3    3.052281500053901E-1    4.101925825874391E-1
 8.152390227975000E9     1.830457283957185E-1    5.083872623573288E-1   -2.894066430128876E-3    1.610441526995293E-3   -2.857328642123082E-3    1.631231626374271E-3    3.055037622988044E-1    4.101448356939985E-1
 8.152392506400000E9     1.832571181642142E-1    5.084499587126388E-1   -2.867691445536704E-3    1.611221005887143E-3   -2.877738636994432E-3    1.684250413967018E-3    3.055467792687172E-1    4.101400578650215E-1
 8.152394784825000E9     1.834121729233618E-1    5.082522416410044E-1   -2.880325900929697E-3    1.608776253113173E-3   -2.888785891510984E-3    1.640260364565237E-3    3.055827072049486E-1    4.098915816745325E-1
 8.152397063250000E9     1.835265386327730E-1    5.082977199178460E-1   -2.878551763787527E-3    1.640489130836331E-3   -2.873989097244169E-3    1.653294216078786E-3    3.057041092522388E-1    4.099256531764084E-1
 8.152399341675000E9     1.838006535365891E-1    5.080819991329203E-1   -2.884211308050502E-3    1.644272042384973E-3   -2.868388145030033E-3    1.671155027877262E-3    3.058018122962566E-1    4.098350448371535E-1
 8.152401620100000E9     1.839304845742834E-1    5.079787325240320E-1   -2.890838145303081E-3    1.609700973280596E-3   -2.914782501600589E-3    1.670451522058042E-3    3.060319981415784E-1    4.097294156780711E-1
 8.152403898525000E9     1.840592497605867E-1    5.080704741324030E-1   -2.905985475185282E-3    1.634383772654078E-3   -2.894579077668433E-3    1.683866310100113E-3    3.061868332779717E-1    4.096171345874281E-1
 8.152406176950000E9     1.842413666516250E-1    5.080949958279612E-1   -2.895473264556211E-3    1.614762353136847E-3   -2.917036784439176E-3    1.703402545336578E-3    3.061341242157936E-1    4.095493446673927E-1
 8.152408455375000E9     1.844674376511886E-1    5.079132135251945E-1   -2.891800312808339E-3    1.637911105804586E-3   -2.891328247722048E-3    1.689157039178758E-3    3.062407028357655E-1    4.092593455349199E-1
 8.152410733800000E9     1.845520302269188E-1    5.079230645655136E-1   -2.905958691459222E-3    1.647234687613371E-3   -2.892230192749599E-3    1.686390683428634E-3    3.064127381128489E-1    4.093663101862996E-1
 8.152413012225000E9     1.848666185730558E-1    5.077578487428650E-1   -2.902247052645638E-3    1.645611222099070E-3   -2.897517504855829E-3    1.681959409042170E-3    3.064059116622883E-1    4.091445375623921E-1
 8.152415290650000E9     1.849568406028141E-1    5.077491590761108E-1   -2.902511137432346E-3    1.643421304044505E-3   -2.887228319397308E-3    1.704438224399878E-3    3.065588566253860E-1    4.091320025784976E-1
 8.152417569075000E9     1.852101367828221E-1    5.076407640549873E-1   -2.925467544838137E-3    1.645465600788116E-3   -2.930378666639046E-3    1.706786593234332E-3    3.068025047879507E-1    4.089878008871797E-1
 8.152419847500000E9     1.854053951950563E-1    5.076039924389043E-1   -2.909830948514523E-3    1.664155286050083E-3   -2.915237760197554E-3    1.709652306433465E-3    3.067378440850832E-1    4.089055100492720E-1
 8.152422125925000E9     1.855909656770637E-1    5.075649242957506E-1   -2.934815416584221E-3    1.657587941589363E-3   -2.912268836378492E-3    1.727565311563478E-3    3.069508236315340E-1    4.089161288414643E-1
 8.152424404350000E9     1.857665390993262E-1    5.074655972888574E-1   -2.955060488343897E-3    1.679462354614146E-3   -2.925799798754115E-3    1.732137126658842E-3    3.071023897720311E-1    4.087684978077782E-1
 8.152426682775000E9     1.859511856566323E-1    5.074334465369180E-1   -2.952015131003894E-3    1.686221165148873E-3   -2.930395061010930E-3    1.756118588225050E-3    3.072684987049994E-1    4.086623600563201E-1
 8.152428961200000E9     1.859796363535128E-1    5.072698721886102E-1   -2.950866451055038E-3    1.666200046034352E-3   -2.936256406397063E-3    1.737203234751717E-3    3.073306404730560E-1    4.086688225592445E-1
 8.152431239625000E9     1.862767467614100E-1    5.072492067388082E-1   -2.953337061349719E-3    1.692955562309984E-3   -2.957006999286011E-3    1.717541915544572E-3    3.075405842641788E-1    4.084074606957335E-1
 8.152433518050000E9     1.864253051900796E-1    5.070789314605728E-1   -2.936494073409461E-3    1.683916926885026E-3   -2.969524236248806E-3    1.737733414607129E-3    3.075206765952658E-1    4.084619903667286E-1
 8.152435796475000E9     1.866701617056701E-1    5.071989083718471E-1   -2.954677184698126E-3    1.697588756949377E-3   -2.941311760525681E-3    1.760409379710736E-3    3.077197739177247E-1    4.082058486113515E-1
 8.152438074900000E9     1.867033860158868E-1    5.071026484740397E-1   -2.952257942332147E-3    1.674806318758689E-3   -2.968515837120816E-3    1.782974844413827E-3    3.077661554992223E-1    4.082771522306126E-1
 8.152440353325000E9     1.868992119735109E-1    5.069843999908432E-1   -2.954062063195035E-3    1.721449302188628E-3   -2.957195949448262E-3    1.788744479177202E-3    3.077879091336532E-1    4.082241596024133E-1
 8.152442631750000E9     1.870468487903482E-1    5.069072479606125E-1   -2.950850295649295E-3    1.725069008810699E-3   -2.980136477920462E-3    1.792800598230253E-3    3.080333270076019E-1    4.080392347670607E-1
 8.152444910175000E9     1.873168202014525E-1    5.068521467398988E-1   -2.975097437164714E-3    1.708142336082556E-3   -2.974447670045113E-3    1.740879358709599E-3    3.080091997060790E-1    4.079989979987140E-1
 8.152447188600000E9     1.873906412177006E-1    5.067871981205038E-1   -2.987136696302752E-3    1.725548969026470E-3   -2.971763335706166E-3    1.749635907771599E-3    3.082631231043351E-1    4.078750419447723E-1
 8.152449467025000E9     1.876106021446865E-1    5.066296050172069E-1   -2.998986897082359E-3    1.732686649057663E-3   -2.986510907834831E-3    1.779013247516430E-3    3.083066012464524E-1    4.078532835306282E-1
 8.152451745450000E9     1.877891959294853E-1    5.066678939614360E-1   -2.997701703699766E-3    1.741216168747780E-3   -3.014052859199319E-3    1.796856093392611E-3    3.084075480223338E-1    4.076430353407371E-1
 8.152454023875000E9     1.880968706839207E-1    5.064913866326732E-1   -2.996701595475444E-3    1.740274759184829E-3   -2.984284138117049E-3    1.803130793949083E-3    3.086230723449195E-1    4.075775442557312E-1
 8.152456302300000E9     1.882194585895713E-1    5.064144367746359E-1   -2.998595717309405E-3    1.770081051159667E-3   -2.979684257135464E-3    1.752320183731173E-3    3.086888453868239E-1    4.074615096219945E-1
 8.152458580725000E9     1.884757205964168E-1    5.064515113303166E-1   -3.001998682664171E-3    1.773457148775699E-3   -3.014571455849536E-3    1.826842244716207E-3    3.087281470057445E-1    4.074497853318875E-1
 8.152460859150000E9     1.885093138699932E-1    5.063144361804652E-1   -2.996077054550116E-3    1.746473771988267E-3   -2.995641102958566E-3    1.809425869992555E-3    3.089353103781370E-1    4.074107647522105E-1
 8.152463137575000E9     1.886647066646734E-1    5.064029126945661E-1   -3.019414573847489E-3    1.775476716630353E-3   -3.017379650444759E-3    1.844203990025040E-3    3.090904350312246E-1    4.072947809138912E-1
 8.152465416000000E9     1.888787637905441E-1    5.061492070058872E-1   -3.019742365959547E-3    1.768967812525381E-3   -3.041781805098071E-3    1.812653593060910E-3    3.091831298362953E-1    4.072052020536819E-1
 8.152467694425000E9     1.890769182025047E-1    5.061563376207440E-1   -3.029244033592518E-3    1.786365322665007E-3   -3.013801243259906E-3    1.818457245775694E-3    3.093321234254908E-1    4.070383228532721E-1
 8.152469972850000E9     1.893382749032619E-1    5.060986600635388E-1   -3.007598745737671E-3    1.774357409422313E-3   -3.030104633257258E-3    1.856439705430440E-3    3.094963989654365E-1    4.070860403454644E-1
 8.152472251275000E9     1.894853994275191E-1    5.059436535792405E-1   -3.017151935750733E-3    1.793410027522944E-3   -3.033122419562581E-3    1.867331444144551E-3    3.094140186132249E-1    4.070088769693533E-1
 8.152474529700000E9     1.897327715110821E-1    5.059158169473273E-1   -3.019815136582596E-3    1.791451173296411E-3   -3.031646374088593E-3    1.855588272450311E-3    3.096272957801062E-1    4.068455791222952E-1
 8.152476808125000E9     1.898241229388191E-1    5.058239497283969E-1   -3.070068169873676E-3    1.808668075218479E-3   -3.050039835078199E-3    1.868026053145463E-3    3.098155620180376E-1    4.065770348114272E-1
 8.152479086550000E9     1.900118857608251E-1    5.058031673276200E-1   -3.060895958003809E-3    1.816391459626110E-3   -3.086130488862404E-3    1.881992310693799E-3    3.098571843338188E-1    4.065557887917135E-1
 8.152481364975000E9     1.901744059209620E-1    5.056758320442574E-1   -3.056296246638959E-3    1.838934483031869E-3   -3.061322005300205E-3    1.897048189160999E-3    3.099331636463957E-1    4.064062214320292E-1
 8.152483643400000E9     1.904075795306219E-1    5.056840159355994E-1   -3.059480604759895E-3    1.808241617655490E-3   -3.056758897513859E-3    1.891738742293344E-3    3.099776516237856E-1    4.063845774888709E-1
 8.152485921825000E9     1.906372234700870E-1    5.054710845181744E-1   -3.081421980336864E-3    1.858062756624110E-3   -3.093861615456332E-3    1.897075091743043E-3    3.101670574055427E-1    4.064432751962698E-1
 8.152488200250000E9     1.907459369419728E-1    5.054734881168333E-1   -3.083892646253837E-3    1.845402470478842E-3   -3.096015522411957E-3    1.878669605419466E-3    3.104253733979042E-1    4.061619472769639E-1
