#  HZ   S   RI   R     50.00 
! Rohde & Schwarz Vector Network Analyzer 
! Rohde-Schwarz,ZNB20-2Port,1311601062101988,3.16
! Created: UTC 3/21/2024, 1:22:01 AM
! freq[Hz]                re:S11                  im:S11                  re:S21                  im:S21                  re:S12                  im:S12                  re:S22                  im:S22
 8.152301734000000E9     1.761508149573045E-1    5.109082773779565E-1   -2.767031277698712E-3    1.465663085337466E-3   -2.750394241185014E-3    1.495134583368662E-3    3.007830055905974E-1    4.136320221923812E-1
 8.152303988675000E9     1.762938873610783E-1    5.108220897226198E-1   -2.747648440118648E-3    1.432810742967149E-3   -2.739495772966824E-3    1.513353786241207E-3    3.008375037610246E-1    4.135255463869371E-1
 8.152306243350000E9     1.764987560700788E-1    5.108130040816569E-1   -2.752391839219302E-3    1.456961406453356E-3   -2.762814754396389E-3    1.473027309864340E-3    3.008839436467637E-1    4.132880075321452E-1
 8.152308498025000E9     1.766950439029027E-1    5.106814061903145E-1   -2.741926528137769E-3    1.419068423221404E-3   -2.731480417593619E-3    1.488109150615351E-3    3.011257971642419E-1    4.133968130375820E-1
 8.152310752700000E9     1.768792665653731E-1    5.106533114899164E-1   -2.754189573911413E-3    1.471390173778392E-3   -2.725854471337755E-3    1.527802844737681E-3    3.012321247662396E-1    4.132926436558595E-1
 8.152313007375000E9     1.769914892867828E-1    5.105769345730674E-1   -2.749667088501277E-3    1.472067981879159E-3   -2.766214367266846E-3    1.520543974343238E-3    3.012683957338766E-1    4.131388322841101E-1
 8.152315262050000E9     1.771831050580592E-1    5.105176729477378E-1   -2.777236612776055E-3    1.450518880892933E-3   -2.759298618778815E-3    1.525280509777733E-3    3.013958291354902E-1    4.131126970283356E-1
 8.152317516725000E9     1.773290799920575E-1    5.105199974375736E-1   -2.744025069458240E-3    1.473543906381920E-3   -2.746753211962061E-3    1.527302288877353E-3    3.015945295035514E-1    4.130939595577949E-1
 8.152319771400000E9     1.775263299491575E-1    5.103726554299953E-1   -2.743293097890998E-3    1.456653962622452E-3   -2.774481583017226E-3    1.507862636390278E-3    3.017039385226738E-1    4.128654073612307E-1
 8.152322026075000E9     1.777683107259111E-1    5.103110352002341E-1   -2.750551290649282E-3    1.474398770607721E-3   -2.761574289042372E-3    1.544489248638467E-3    3.017258369115582E-1    4.128560586574126E-1
 8.152324280750000E9     1.778694482326679E-1    5.102411453607180E-1   -2.775744633177692E-3    1.485082770300611E-3   -2.766704330766204E-3    1.533656182564907E-3    3.019028149895027E-1    4.127646182329661E-1
 8.152326535425000E9     1.780204895709218E-1    5.102197858501198E-1   -2.750451516427279E-3    1.476652552193765E-3   -2.760543538497625E-3    1.509597189955164E-3    3.019491384536791E-1    4.126537159981700E-1
 8.152328790100000E9     1.783854590831979E-1    5.102551226662490E-1   -2.791450639921783E-3    1.460524689345612E-3   -2.759627304746213E-3    1.535461316999840E-3    3.020543967822849E-1    4.127145707139984E-1
 8.152331044775000E9     1.783932473489052E-1    5.101114396122897E-1   -2.744325176743567E-3    1.504687869784299E-3   -2.748762489950029E-3    1.534225094536288E-3    3.022612775288123E-1    4.123639183552011E-1
 8.152333299450000E9     1.784646775485816E-1    5.100584723527956E-1   -2.765460068505103E-3    1.495461028588091E-3   -2.791686274068299E-3    1.529634158472359E-3    3.022666445366942E-1    4.123907359915796E-1
 8.152335554125000E9     1.785889019714388E-1    5.099564652442787E-1   -2.766312736658488E-3    1.495468429618222E-3   -2.755115964455385E-3    1.524923477039619E-3    3.025219424867546E-1    4.122459048080954E-1
 8.152337808800000E9     1.787904150469460E-1    5.099112128091697E-1   -2.778759003652597E-3    1.486943849150813E-3   -2.810693108958972E-3    1.553972643344832E-3    3.025658708526646E-1    4.122011117553177E-1
 8.152340063475000E9     1.791153360122246E-1    5.099091602236244E-1   -2.786354602064794E-3    1.504610132004781E-3   -2.782452844271862E-3    1.527153556118259E-3    3.027811602211694E-1    4.122237411351726E-1
 8.152342318150000E9     1.792193588152494E-1    5.098020240167139E-1   -2.785419270912273E-3    1.518219474923070E-3   -2.792871720141979E-3    1.549541107151218E-3    3.027875072383662E-1    4.120527477790545E-1
 8.152344572825000E9     1.792703695196797E-1    5.097662590948534E-1   -2.763781720559816E-3    1.493510648105868E-3   -2.780280158336800E-3    1.548228956842202E-3    3.029902830340983E-1    4.119927935475771E-1
 8.152346827500000E9     1.795850181857465E-1    5.097259062926558E-1   -2.752776272534958E-3    1.509073337218323E-3   -2.788655752532130E-3    1.562544802234728E-3    3.031380245083631E-1    4.118943717663393E-1
 8.152349082175000E9     1.796431586441067E-1    5.096989218507508E-1   -2.773046896268681E-3    1.464679308037632E-3   -2.796259317930796E-3    1.556424758724340E-3    3.031017073098344E-1    4.116475393544114E-1
 8.152351336850000E9     1.798617627344539E-1    5.095452444432593E-1   -2.801230874668699E-3    1.515457857201959E-3   -2.822748172248099E-3    1.542412462544154E-3    3.032690336209244E-1    4.117717259024654E-1
 8.152353591525000E9     1.799501250809954E-1    5.094939292145518E-1   -2.797857975082735E-3    1.512381929809389E-3   -2.798440339365270E-3    1.553853323186125E-3    3.032872446729323E-1    4.115154169569501E-1
 8.152355846200000E9     1.802384836603556E-1    5.095020655168863E-1   -2.788352787384796E-3    1.515179965045888E-3   -2.810695156513649E-3    1.554882770595623E-3    3.035723487815620E-1    4.115610302814732E-1
 8.152358100875000E9     1.803687294723913E-1    5.093729057271539E-1   -2.817104892247865E-3    1.501541865287559E-3   -2.786786215512562E-3    1.569351100793905E-3    3.036022340153404E-1    4.113190103516222E-1
 8.152360355550000E9     1.805801016008210E-1    5.093078672797328E-1   -2.819953653030559E-3    1.528680293159760E-3   -2.783513391107648E-3    1.586806113506687E-3    3.038116188115513E-1    4.113384188307381E-1
 8.152362610225000E9     1.807847945101535E-1    5.094173428572064E-1   -2.835472752157777E-3    1.513259951917366E-3   -2.824528470217393E-3    1.586750379480272E-3    3.040323695380795E-1    4.113129377486812E-1
 8.152364864900000E9     1.809161691493272E-1    5.092882684179139E-1   -2.813345578886598E-3    1.503765902492904E-3   -2.836812239418560E-3    1.605446728437066E-3    3.038174695493931E-1    4.112562423053208E-1
 8.152367119575000E9     1.809200047529999E-1    5.091352913392819E-1   -2.814377914516808E-3    1.526298774632735E-3   -2.817764783121348E-3    1.569408310718889E-3    3.041663187029244E-1    4.110047764697598E-1
 8.152369374250000E9     1.812844239153344E-1    5.091770300951428E-1   -2.805220860191258E-3    1.548434550761799E-3   -2.837774321861386E-3    1.601881015704383E-3    3.041386712136613E-1    4.109070751265934E-1
 8.152371628925000E9     1.813264583704119E-1    5.090718939457123E-1   -2.818207999945823E-3    1.542602187157321E-3   -2.846044657534617E-3    1.575136323244166E-3    3.042444826665070E-1    4.109153841235605E-1
 8.152373883600000E9     1.815309967413635E-1    5.090824190857740E-1   -2.817549280564144E-3    1.553766088721314E-3   -2.837154354778677E-3    1.597240295708455E-3    3.043024814576857E-1    4.107923084866977E-1
 8.152376138275000E9     1.817614647103031E-1    5.090023621688260E-1   -2.823949396648915E-3    1.544297590901296E-3   -2.822249615822354E-3    1.580619759548132E-3    3.044542052913401E-1    4.107810271049551E-1
 8.152378392950000E9     1.819402869043954E-1    5.089197239281743E-1   -2.828726880753533E-3    1.554510651032341E-3   -2.811912481362831E-3    1.625483230053560E-3    3.045243854795806E-1    4.106113268381317E-1
 8.152380647625000E9     1.821004205250792E-1    5.089068819290330E-1   -2.815112824589112E-3    1.542648092512632E-3   -2.800609041057584E-3    1.630238753345737E-3    3.047781122263889E-1    4.106166087652616E-1
 8.152382902300000E9     1.821808505818037E-1    5.087520624768853E-1   -2.839994530215937E-3    1.552981483317552E-3   -2.830183977666223E-3    1.638238924458226E-3    3.048134651342811E-1    4.104100406214294E-1
 8.152385156975000E9     1.822550865028689E-1    5.086682160685025E-1   -2.840386603306396E-3    1.566156716177607E-3   -2.854996149430084E-3    1.607001510361408E-3    3.049364791392229E-1    4.104893778262887E-1
 8.152387411650000E9     1.824803167633082E-1    5.085918573710353E-1   -2.835129541881760E-3    1.565357396026767E-3   -2.804402370772415E-3    1.644937287811966E-3    3.049969083147990E-1    4.101045646736164E-1
 8.152389666325000E9     1.827383042688868E-1    5.085692754466521E-1   -2.835982784016769E-3    1.558533328161487E-3   -2.857307556578256E-3    1.611738834410170E-3    3.052451518777740E-1    4.102825357079612E-1
 8.152391921000000E9     1.828801929264818E-1    5.086368545431736E-1   -2.839967207675949E-3    1.566413045453956E-3   -2.838803470377267E-3    1.607206394417208E-3    3.053046889242074E-1    4.100757756382802E-1
 8.152394175675000E9     1.831621047662860E-1    5.085611067550021E-1   -2.873993669375247E-3    1.585536421407279E-3   -2.849348452573288E-3    1.639005905533650E-3    3.053807904501201E-1    4.100020492087388E-1
 8.152396430350000E9     1.832489225279517E-1    5.084690714822075E-1   -2.870878285375777E-3    1.544794092656646E-3   -2.859045132949539E-3    1.626562178570697E-3    3.057075947708064E-1    4.099379774268077E-1
 8.152398685025000E9     1.832523078986913E-1    5.084363813140602E-1   -2.848877569155419E-3    1.572308513641553E-3   -2.842170010979517E-3    1.676445347984031E-3    3.057617263435528E-1    4.097949424786910E-1
 8.152400939700000E9     1.835292396192703E-1    5.081812771047128E-1   -2.856071788761129E-3    1.586595145920637E-3   -2.870791614250116E-3    1.635478339282148E-3    3.057599575440731E-1    4.096252539240188E-1
 8.152403194375000E9     1.836627247231430E-1    5.082605825620338E-1   -2.854894926549141E-3    1.573569690486643E-3   -2.830509914712354E-3    1.668090526662378E-3    3.059337077853100E-1    4.096973624753159E-1
 8.152405449050000E9     1.838161663973172E-1    5.081921713325103E-1   -2.860052137961234E-3    1.614823303700124E-3   -2.880029635338169E-3    1.663461068629858E-3    3.060920891545034E-1    4.096263469279772E-1
 8.152407703725000E9     1.840623493394754E-1    5.080277334369118E-1   -2.856786807757486E-3    1.612457461572660E-3   -2.849153774062614E-3    1.640490192606749E-3    3.061556009372350E-1    4.095553019954045E-1
 8.152409958400000E9     1.842693699785652E-1    5.080411511636119E-1   -2.873622099732509E-3    1.623765662648086E-3   -2.868295492801196E-3    1.653733650249138E-3    3.062884770745292E-1    4.093146426694956E-1
 8.152412213075000E9     1.844047803380033E-1    5.080145382959830E-1   -2.872149161639440E-3    1.577531459226380E-3   -2.866265964702676E-3    1.655581039126345E-3    3.063261633203826E-1    4.093502812628000E-1
 8.152414467750000E9     1.846086095595193E-1    5.078962235973881E-1   -2.859845461863725E-3    1.612862526070820E-3   -2.895711659672091E-3    1.686935804863694E-3    3.065912827345477E-1    4.092584742461628E-1
 8.152416722425000E9     1.846803782652273E-1    5.078268847450611E-1   -2.890033988757626E-3    1.593719492292076E-3   -2.882572630219093E-3    1.675385728545104E-3    3.065792702675666E-1    4.091137883532022E-1
 8.152418977100000E9     1.850415951577387E-1    5.079365776864690E-1   -2.871758295194075E-3    1.582776776047343E-3   -2.901989926319290E-3    1.673189873921189E-3    3.067503452665483E-1    4.089610792525076E-1
 8.152421231775000E9     1.852223195642073E-1    5.077588486167963E-1   -2.889215916794384E-3    1.625736468427610E-3   -2.881319275403601E-3    1.656561427329947E-3    3.068117427329985E-1    4.090526028267657E-1
 8.152423486450000E9     1.852782916414390E-1    5.076671733677210E-1   -2.891078768230177E-3    1.630510479992153E-3   -2.881098430503904E-3    1.702780061125290E-3    3.068687419038921E-1    4.087850519197996E-1
 8.152425741125000E9     1.854976943643805E-1    5.076489850609777E-1   -2.903299460408585E-3    1.642144463890510E-3   -2.897370107047132E-3    1.678637450766277E-3    3.070896142927403E-1    4.087965560038817E-1
 8.152427995800000E9     1.856255441613778E-1    5.076131461561478E-1   -2.901385551860199E-3    1.635965186439826E-3   -2.921963101078008E-3    1.695302314893211E-3    3.072392686274368E-1    4.086636473583760E-1
 8.152430250475000E9     1.858009412718617E-1    5.076606653861551E-1   -2.909673058924193E-3    1.639179715063032E-3   -2.927109114866731E-3    1.671715844284597E-3    3.072712837985359E-1    4.086916890639045E-1
 8.152432505150000E9     1.859356900783266E-1    5.075111601100851E-1   -2.870205670382989E-3    1.630056458967894E-3   -2.901233279552419E-3    1.692326988898966E-3    3.073275574086203E-1    4.084878675339479E-1
 8.152434759825000E9     1.861425162126804E-1    5.072890790903271E-1   -2.902044268741569E-3    1.656610766713750E-3   -2.912702204956076E-3    1.703217907245706E-3    3.075801165433265E-1    4.084581364989417E-1
 8.152437014500000E9     1.863088552480840E-1    5.073746648648308E-1   -2.917319106284974E-3    1.633749513214725E-3   -2.924324560434474E-3    1.705941858194384E-3    3.076197240083756E-1    4.081889864662681E-1
 8.152439269175000E9     1.866197578190853E-1    5.073113802041302E-1   -2.937466786501692E-3    1.656544689161452E-3   -2.923144003016325E-3    1.742901860749598E-3    3.078832035676130E-1    4.082705603565425E-1
 8.152441523850000E9     1.868075854227014E-1    5.072062201032929E-1   -2.929202774774919E-3    1.671978291418354E-3   -2.925826047171346E-3    1.734674576626750E-3    3.077630772210783E-1    4.082011598055397E-1
 8.152443778525000E9     1.868720474611628E-1    5.071396732848392E-1   -2.929941124111990E-3    1.664144580743424E-3   -2.947677093390942E-3    1.711816351859938E-3    3.078424156524895E-1    4.081032971657921E-1
 8.152446033200000E9     1.870237217956353E-1    5.069721715540131E-1   -2.931694876907821E-3    1.671191729136841E-3   -2.931950876027814E-3    1.733576843655680E-3    3.079474835858934E-1    4.079968350578126E-1
 8.152448287875000E9     1.873433821385548E-1    5.070346092514953E-1   -2.910561192716016E-3    1.680597241111149E-3   -2.931639098830943E-3    1.722688231302636E-3    3.081825541080334E-1    4.078527288769156E-1
 8.152450542550000E9     1.874432908254805E-1    5.067062899271880E-1   -2.945296854551098E-3    1.678412509506341E-3   -2.960570994302940E-3    1.769920759353658E-3    3.082226486478082E-1    4.078123374613882E-1
 8.152452797225000E9     1.876134881724859E-1    5.069123122266816E-1   -2.926567452668221E-3    1.680166361951053E-3   -2.945151802874594E-3    1.745129948109727E-3    3.083465628004357E-1    4.077266661785818E-1
 8.152455051900000E9     1.877458078482883E-1    5.068280270646571E-1   -2.952652134269367E-3    1.723827307429589E-3   -2.935639725921620E-3    1.748388120464932E-3    3.083910558498381E-1    4.075492988137548E-1
 8.152457306575000E9     1.880074203334673E-1    5.067556403723231E-1   -2.938690065893533E-3    1.718554168079234E-3   -2.960582821279553E-3    1.757652275768971E-3    3.085661530352156E-1    4.076640846060487E-1
 8.152459561250000E9     1.880422727261450E-1    5.066304338996177E-1   -2.950983680158690E-3    1.699454645482807E-3   -2.963133355358500E-3    1.775174123741192E-3    3.086598108714830E-1    4.074579743035377E-1
 8.152461815925000E9     1.882825614098980E-1    5.066838906154101E-1   -2.978243665698246E-3    1.728155959573165E-3   -2.959933920586940E-3    1.797892689651440E-3    3.089217387468914E-1    4.072667700985777E-1
 8.152464070600000E9     1.884534757499423E-1    5.064920545228169E-1   -2.954860791786362E-3    1.723946428354313E-3   -2.963831405079845E-3    1.792729859364258E-3    3.091079450333084E-1    4.072400877929794E-1
 8.152466325275000E9     1.885939532126688E-1    5.064316130334084E-1   -2.967580971899646E-3    1.732036337779378E-3   -2.992283826774316E-3    1.777243323246696E-3    3.090814391035136E-1    4.071642810049921E-1
 8.152468579950000E9     1.888312327079084E-1    5.063641571767900E-1   -2.957758547992485E-3    1.710082739281510E-3   -3.002436056683122E-3    1.783778538818426E-3    3.092897602345822E-1    4.071162439857832E-1
 8.152470834625000E9     1.890006931870906E-1    5.061835003538874E-1   -3.007119891352148E-3    1.741145139402220E-3   -2.978349941045451E-3    1.814498272953773E-3    3.093416475699741E-1    4.071243198050820E-1
 8.152473089300000E9     1.891621991248204E-1    5.061521515065601E-1   -2.984921335730682E-3    1.756872544068501E-3   -2.981700127078765E-3    1.800289691604499E-3    3.094636728006809E-1    4.067331252390959E-1
 8.152475343975000E9     1.893436574459347E-1    5.061521477881000E-1   -2.984047000875448E-3    1.754718006657071E-3   -2.989634840207118E-3    1.829756897291899E-3    3.095154746427086E-1    4.067524752292450E-1
 8.152477598650000E9     1.895394757174301E-1    5.061015222971791E-1   -2.978385408580409E-3    1.763455361731422E-3   -3.034782353234264E-3    1.813388597414532E-3    3.097348102616735E-1    4.066385622319222E-1
 8.152479853325000E9     1.896256083109667E-1    5.060095058648352E-1   -3.023077382383612E-3    1.744636728239375E-3   -2.999816233470543E-3    1.854978934177520E-3    3.099021359142432E-1    4.067269674014748E-1
 8.152482108000000E9     1.899163568544220E-1    5.058593951030703E-1   -3.015015297128519E-3    1.784264284629354E-3   -3.035691300533908E-3    1.832855494316544E-3    3.098993272131766E-1    4.065360422260451E-1
 8.152484362675000E9     1.900176425989416E-1    5.059299947675188E-1   -3.016029017693337E-3    1.798484390553922E-3   -3.013760043159043E-3    1.794175931838651E-3    3.100003384211973E-1    4.064379440511200E-1
 8.152486617350000E9     1.902219117569088E-1    5.057219533277164E-1   -3.016751032104027E-3    1.762223975522956E-3   -2.989997274126559E-3    1.837872300261723E-3    3.100463462174782E-1    4.063418894368581E-1
 8.152488872025000E9     1.905160587922540E-1    5.057678847499338E-1   -3.045863086434019E-3    1.800162120552539E-3   -3.032609969931847E-3    1.849746636539678E-3    3.101579133440560E-1    4.062477923963353E-1
 8.152491126700000E9     1.905458464714157E-1    5.056667834868696E-1   -3.033920158949023E-3    1.780118829961807E-3   -3.032266759099302E-3    1.846162948435167E-3    3.104650541630716E-1    4.061782656511345E-1
 8.152493381375000E9     1.907516212223988E-1    5.054947388318263E-1   -3.060743198507038E-3    1.810253811089956E-3   -3.053065468547023E-3    1.889622992859630E-3    3.105578160855832E-1    4.061865719661296E-1
 8.152495636050000E9     1.909202617835144E-1    5.055620817479288E-1   -3.051862439171391E-3    1.807796664825348E-3   -3.028386834405563E-3    1.860778943366031E-3    3.104599963963049E-1    4.058676089771168E-1
 8.152497890725000E9     1.911610180292596E-1    5.054195797373061E-1   -3.064983231328386E-3    1.810490328851890E-3   -3.053009203771053E-3    1.863901197138989E-3    3.107046687078761E-1    4.058854025982194E-1
 8.152500145400000E9     1.912962845961515E-1    5.052997415364705E-1   -3.051465579307168E-3    1.822594778511141E-3   -3.041940371954534E-3    1.908933357643485E-3    3.107160715355526E-1    4.056952967142703E-1
 8.152502400075000E9     1.915580803391048E-1    5.052422252893894E-1   -3.060402191295341E-3    1.839102829166559E-3   -3.023487818362141E-3    1.873120265188663E-3    3.108794419059791E-1    4.056718043220721E-1
 8.152504654750000E9     1.917233241632409E-1    5.052601270815332E-1   -3.078430096804783E-3    1.835050484656261E-3   -3.080136320168355E-3    1.909515501950143E-3    3.108756220703619E-1    4.055745599243180E-1
