#  HZ   S   RI   R     50.00 
! Rohde & Schwarz Vector Network Analyzer 
! Rohde-Schwarz,ZNB20-2Port,1311601062101988,3.16
! Created: UTC 3/21/2024, 1:22:06 AM
! freq[Hz]                re:S11                  im:S11                  re:S21                  im:S21                  re:S12                  im:S12                  re:S22                  im:S22
 8.152343135000000E9     1.790123212969413E-1    5.098147765913377E-1   -2.779210519698783E-3    1.494791833309592E-3   -2.760327955162975E-3    1.528632495762553E-3    3.027649175018136E-1    4.120952730655615E-1
 8.152345224200000E9     1.791292078794488E-1    5.097912477726281E-1   -2.771506385694439E-3    1.498040353641678E-3   -2.784720826040572E-3    1.534936106384867E-3    3.028349439679918E-1    4.119122421832979E-1
 8.152347313400000E9     1.793945911394847E-1    5.097729529018683E-1   -2.781381308607195E-3    1.503077579086600E-3   -2.754799614142119E-3    1.563965496211886E-3    3.030828456896847E-1    4.119414614799534E-1
 8.152349402600000E9     1.795526576839552E-1    5.098307130308970E-1   -2.776335734834364E-3    1.510068164678251E-3   -2.782766268043316E-3    1.553330554869558E-3    3.031446869793670E-1    4.117729629408275E-1
 8.152351491800000E9     1.796879844296113E-1    5.095792693883785E-1   -2.782101601889338E-3    1.486451221651569E-3   -2.762687702620775E-3    1.578359752033184E-3    3.032287724390520E-1    4.117304103606533E-1
 8.152353581000000E9     1.799035608284526E-1    5.096605549332754E-1   -2.779632028041914E-3    1.522331646347766E-3   -2.804849237616120E-3    1.583831781750210E-3    3.033950415869768E-1    4.116810334661264E-1
 8.152355670200000E9     1.800912306821220E-1    5.095069867680276E-1   -2.769934893116536E-3    1.507720203396198E-3   -2.785539928602133E-3    1.534820918071207E-3    3.034869671979021E-1    4.116328893393870E-1
 8.152357759400000E9     1.801215255535231E-1    5.095165162463807E-1   -2.777225381429734E-3    1.516061130266445E-3   -2.766853621338015E-3    1.534796371807314E-3    3.034723205285659E-1    4.113877814800992E-1
 8.152359848600000E9     1.803983582646646E-1    5.094064674500960E-1   -2.771301369044491E-3    1.517740474796597E-3   -2.780391268345963E-3    1.555409563235457E-3    3.036318038389901E-1    4.113409725829176E-1
 8.152361937800000E9     1.805201676453146E-1    5.092807723699568E-1   -2.810352810778993E-3    1.484455875140468E-3   -2.788336612769952E-3    1.553898437896071E-3    3.037193522026997E-1    4.112882830929727E-1
 8.152364027000000E9     1.807220003347618E-1    5.093268309291867E-1   -2.776500829286022E-3    1.524864811925573E-3   -2.847491550806066E-3    1.560342722929563E-3    3.038747356982201E-1    4.112612408692451E-1
 8.152366116200000E9     1.808934717256868E-1    5.092142721810524E-1   -2.793613421143750E-3    1.543537054587241E-3   -2.811838028690884E-3    1.582625951296542E-3    3.040050775103881E-1    4.111113524020741E-1
 8.152368205400000E9     1.809596374548933E-1    5.091692914537858E-1   -2.805346885549005E-3    1.522358048519334E-3   -2.801166429272793E-3    1.596474650971353E-3    3.040185725437707E-1    4.110612407161557E-1
 8.152370294600000E9     1.811172865473270E-1    5.091849994126101E-1   -2.794830897875015E-3    1.533500043663142E-3   -2.816483599639009E-3    1.579548310840898E-3    3.040362014137968E-1    4.110325001944934E-1
 8.152372383800000E9     1.813938546019772E-1    5.091467106066885E-1   -2.820671475162232E-3    1.553066444754747E-3   -2.820919951527525E-3    1.570204602338083E-3    3.042909462952984E-1    4.109403458283730E-1
 8.152374473000000E9     1.814470054886911E-1    5.091468803332424E-1   -2.798855068932616E-3    1.516463073789940E-3   -2.773324863043525E-3    1.573290656405416E-3    3.044413024014967E-1    4.108874096657714E-1
 8.152376562200000E9     1.815595158196160E-1    5.090289929532260E-1   -2.791279966637094E-3    1.530417663432328E-3   -2.802970558424040E-3    1.580479595646316E-3    3.045031141949073E-1    4.106697170700924E-1
 8.152378651400000E9     1.816482737758535E-1    5.089731315894960E-1   -2.835797230890911E-3    1.554297377932579E-3   -2.807226026053307E-3    1.572008507861843E-3    3.047531175923530E-1    4.104763891720110E-1
 8.152380740600000E9     1.819431597288310E-1    5.088570109660707E-1   -2.853584576202699E-3    1.540915139713805E-3   -2.825667055786438E-3    1.620280235513491E-3    3.047114140068958E-1    4.105129512245004E-1
 8.152382829800000E9     1.820508001800669E-1    5.088270148344126E-1   -2.835158522752098E-3    1.567278034842607E-3   -2.815926065723323E-3    1.610824645476899E-3    3.047346395857691E-1    4.104995392867034E-1
 8.152384919000000E9     1.822189795671318E-1    5.088689819559877E-1   -2.830060664340100E-3    1.529581331489740E-3   -2.779986094899582E-3    1.624057555958542E-3    3.050049175541152E-1    4.104278659720301E-1
 8.152387008200000E9     1.824636876359014E-1    5.087170242250607E-1   -2.832483638350669E-3    1.541059200166388E-3   -2.837092124158722E-3    1.611406904285250E-3    3.050816056689482E-1    4.102638264587706E-1
 8.152389097400000E9     1.825827792443446E-1    5.087107470759512E-1   -2.833485886101385E-3    1.572773588436749E-3   -2.794049508116622E-3    1.599892987027975E-3    3.051947722676411E-1    4.102822879522506E-1
 8.152391186600000E9     1.827449203449768E-1    5.085701609284797E-1   -2.838656071889021E-3    1.533232696515397E-3   -2.817767895341733E-3    1.635710263298936E-3    3.053290668341643E-1    4.101435953474522E-1
 8.152393275800000E9     1.829406745106540E-1    5.085526774313509E-1   -2.837220969110984E-3    1.573628936083618E-3   -2.839498373840064E-3    1.593967924714015E-3    3.053229524368168E-1    4.100919519577899E-1
 8.152395365000000E9     1.828616832015800E-1    5.085872182765044E-1   -2.824962582590000E-3    1.547806420705954E-3   -2.857162826388264E-3    1.606076793952087E-3    3.055502028549466E-1    4.100319021349891E-1
 8.152397454200000E9     1.832047470802535E-1    5.084814851344431E-1   -2.866472149925186E-3    1.571223193931677E-3   -2.844306871122715E-3    1.626534741475703E-3    3.055660681959690E-1    4.098945448591950E-1
 8.152399543400000E9     1.833160143135603E-1    5.084064857054611E-1   -2.854340163140775E-3    1.580483374832607E-3   -2.825183087602656E-3    1.611343113489276E-3    3.057209494525906E-1    4.099871279815859E-1
 8.152401632600000E9     1.835136003512347E-1    5.082472744756944E-1   -2.832358670442066E-3    1.581048408452712E-3   -2.878578384033735E-3    1.622320398858797E-3    3.057659538363576E-1    4.097043106771416E-1
 8.152403721800000E9     1.835345150889889E-1    5.083817975486972E-1   -2.839006955860880E-3    1.576130696478654E-3   -2.849899796663563E-3    1.641708584251297E-3    3.059768614691208E-1    4.096856953703543E-1
 8.152405811000000E9     1.838312915502224E-1    5.083048615636008E-1   -2.836997851674896E-3    1.593496898602755E-3   -2.851084211888260E-3    1.641148191810553E-3    3.059357387875586E-1    4.095348530146419E-1
 8.152407900200000E9     1.839184140696379E-1    5.081037951123860E-1   -2.851546562973140E-3    1.601947017892681E-3   -2.869266731896707E-3    1.643131307648776E-3    3.060671442565422E-1    4.093824510172133E-1
 8.152409989400000E9     1.840625862114930E-1    5.080897738935853E-1   -2.843677217550620E-3    1.603403329371693E-3   -2.837496753841312E-3    1.637479011249170E-3    3.061795283062039E-1    4.093908581063753E-1
 8.152412078600000E9     1.842453143321508E-1    5.079900874445618E-1   -2.850949039039247E-3    1.603786663823484E-3   -2.859346455345147E-3    1.656751990058404E-3    3.063577536657159E-1    4.092916617617416E-1
 8.152414167800000E9     1.844630933853634E-1    5.080131513225162E-1   -2.850365649718782E-3    1.622461929014531E-3   -2.866736826028980E-3    1.658292535197030E-3    3.064674743787356E-1    4.093091174385065E-1
 8.152416257000000E9     1.846181339282823E-1    5.078980956072100E-1   -2.849242433429861E-3    1.594675701832969E-3   -2.869040250399256E-3    1.648095367407892E-3    3.065485927720379E-1    4.092023611169913E-1
 8.152418346200000E9     1.848503703935871E-1    5.078324621250434E-1   -2.885586157438341E-3    1.598432564229280E-3   -2.856173332233545E-3    1.687730552106047E-3    3.066090152257896E-1    4.090277838640560E-1
 8.152420435400000E9     1.849795418023112E-1    5.077783361633983E-1   -2.862096638159923E-3    1.608857496094486E-3   -2.877217868646679E-3    1.661141977672970E-3    3.066645893969029E-1    4.089594524980059E-1
 8.152422524600000E9     1.850511271745978E-1    5.077659641680120E-1   -2.856939440657126E-3    1.610908181733932E-3   -2.853364410112164E-3    1.664031152312203E-3    3.068300447722092E-1    4.088628284741047E-1
 8.152424613800000E9     1.853671296146182E-1    5.077479484954648E-1   -2.899481495954357E-3    1.636494174058803E-3   -2.901503969261419E-3    1.640014887949812E-3    3.068957917141319E-1    4.087715770028236E-1
 8.152426703000000E9     1.853115320488228E-1    5.075572202164471E-1   -2.889664514080131E-3    1.600183939896891E-3   -2.865606673527613E-3    1.669554170983154E-3    3.070892413780459E-1    4.087947327351756E-1
 8.152428792200000E9     1.855313315088661E-1    5.076255658085130E-1   -2.869771210838223E-3    1.627993498348455E-3   -2.875387630728113E-3    1.677412631558551E-3    3.071480350545464E-1    4.087431872278114E-1
 8.152430881400000E9     1.855450155245739E-1    5.074037243901146E-1   -2.881448934530811E-3    1.639826454203014E-3   -2.857372263156123E-3    1.710073651720241E-3    3.073428813363589E-1    4.085991734003014E-1
 8.152432970600000E9     1.858812508196728E-1    5.074255703979978E-1   -2.900767823223656E-3    1.618967284178976E-3   -2.867731326001351E-3    1.714786852890160E-3    3.073476252919965E-1    4.083722593660862E-1
 8.152435059800000E9     1.859619135763612E-1    5.074058962642789E-1   -2.877240808130185E-3    1.630491096299861E-3   -2.895017869546610E-3    1.669981056690836E-3    3.074615818098168E-1    4.082127753532475E-1
 8.152437149000000E9     1.861290347815903E-1    5.073848231753109E-1   -2.906744561142680E-3    1.650947159330767E-3   -2.904709313222360E-3    1.687702868507768E-3    3.075397425085638E-1    4.083656916411362E-1
 8.152439238200000E9     1.863829766899890E-1    5.072505978354037E-1   -2.914540645182170E-3    1.658811238532743E-3   -2.903464184124393E-3    1.732525868433949E-3    3.078017975520901E-1    4.083787829747661E-1
 8.152441327400000E9     1.864869652660942E-1    5.071869871115676E-1   -2.906996836704729E-3    1.667410326895249E-3   -2.907185685091237E-3    1.708063326354014E-3    3.078000829598244E-1    4.081416431761272E-1
 8.152443416600000E9     1.866951927963347E-1    5.071677258703428E-1   -2.910821231290199E-3    1.666191701600496E-3   -2.902391433058158E-3    1.705213465604356E-3    3.077748195744303E-1    4.081031209432202E-1
 8.152445505800000E9     1.868295849315041E-1    5.070326176013550E-1   -2.930764660360363E-3    1.644219228457217E-3   -2.917169464583594E-3    1.723626414388577E-3    3.078770360070344E-1    4.079862320045978E-1
 8.152447595000000E9     1.870201696836505E-1    5.071132498893265E-1   -2.937120836244608E-3    1.674512683239712E-3   -2.923920924745187E-3    1.726362019402125E-3    3.080209943511504E-1    4.080823334157043E-1
 8.152449684200000E9     1.871672388544071E-1    5.069606119880218E-1   -2.909040170898141E-3    1.665497651992402E-3   -2.928764493049652E-3    1.750931047787815E-3    3.081736486532237E-1    4.078982382134556E-1
 8.152451773400000E9     1.872766572223449E-1    5.068947529197543E-1   -2.929629422798436E-3    1.685858974479328E-3   -2.917396078870569E-3    1.737012906809737E-3    3.084096629951409E-1    4.076868308209307E-1
 8.152453862600000E9     1.874846892104089E-1    5.068209038407687E-1   -2.927894106449977E-3    1.684318707142352E-3   -2.924626049880128E-3    1.728459827970102E-3    3.084295763848103E-1    4.076188049960457E-1
 8.152455951800000E9     1.876081556344678E-1    5.067998730920871E-1   -2.945290155351007E-3    1.688121907299649E-3   -2.929592553887388E-3    1.757845254781617E-3    3.085489992944876E-1    4.075931354386532E-1
 8.152458041000000E9     1.878205186101170E-1    5.067078437135901E-1   -2.953664090209467E-3    1.670682326428410E-3   -2.928586143416980E-3    1.720745569481269E-3    3.086203545088736E-1    4.074596515228921E-1
 8.152460130200000E9     1.880389922499517E-1    5.065843789559696E-1   -2.931279005253485E-3    1.670975542869318E-3   -2.918624614032575E-3    1.739240653130597E-3    3.086883373489235E-1    4.075361978832424E-1
 8.152462219400000E9     1.882094622219256E-1    5.064941077880758E-1   -2.950747373853884E-3    1.694463434414227E-3   -2.948437347635544E-3    1.756031085136395E-3    3.088225118267405E-1    4.074905912442043E-1
 8.152464308600000E9     1.883426768009716E-1    5.065416846022728E-1   -2.933878872471968E-3    1.688874677821557E-3   -2.972161877222100E-3    1.750269448112379E-3    3.088570301410216E-1    4.073209737319615E-1
 8.152466397800000E9     1.885008426598118E-1    5.064974945394045E-1   -2.965070066619454E-3    1.735912669919480E-3   -2.972540085222752E-3    1.783963567241364E-3    3.090447388635998E-1    4.071898116579916E-1
 8.152468487000000E9     1.887189914829163E-1    5.063697383546778E-1   -2.962312764161719E-3    1.724113985659320E-3   -2.969609971340635E-3    1.743207612617768E-3    3.091150980082896E-1    4.071031955407960E-1
 8.152470576200000E9     1.888962186278172E-1    5.063658562411809E-1   -2.975932426832736E-3    1.702055601203048E-3   -3.010322986099610E-3    1.767730202075396E-3    3.093715961271843E-1    4.071037098819867E-1
 8.152472665400000E9     1.889113321400617E-1    5.062948121145522E-1   -2.949457103295792E-3    1.729908777207723E-3   -2.981583304482533E-3    1.791755932724020E-3    3.093016863808259E-1    4.069776601206993E-1
 8.152474754600000E9     1.892862820209864E-1    5.062074085766610E-1   -2.950239045389158E-3    1.765198501924580E-3   -2.975578808768456E-3    1.834521257099371E-3    3.093107268795027E-1    4.066982446204597E-1
 8.152476843800000E9     1.894181239694627E-1    5.062065343447056E-1   -2.976417677148552E-3    1.733393902946211E-3   -2.994905356392899E-3    1.803647629462056E-3    3.095986539578464E-1    4.067339758173354E-1
 8.152478933000000E9     1.895383559617016E-1    5.061247028879382E-1   -2.969982601227979E-3    1.748695428968107E-3   -2.987567827420491E-3    1.778834256839322E-3    3.096221223221642E-1    4.066958353297849E-1
 8.152481022200000E9     1.896726596174715E-1    5.060045974850044E-1   -3.014085020377870E-3    1.751255713492547E-3   -3.010892344382104E-3    1.822892027981405E-3    3.097814266185520E-1    4.065345234067257E-1
 8.152483111400000E9     1.898197477202551E-1    5.059400879426571E-1   -2.984856993381142E-3    1.750156167066567E-3   -2.991864044015299E-3    1.823174698816615E-3    3.097862340166029E-1    4.065471978411778E-1
 8.152485200600000E9     1.899898226829605E-1    5.058427528308749E-1   -2.990653225310340E-3    1.779548425396517E-3   -3.013317090487587E-3    1.839488823639816E-3    3.099686847276107E-1    4.065089974830254E-1
 8.152487289800000E9     1.902059572003481E-1    5.058295725336351E-1   -3.009150747522564E-3    1.764706210546995E-3   -3.027898955555623E-3    1.823482541396678E-3    3.101082036376527E-1    4.064038313553789E-1
 8.152489379000000E9     1.903490638897072E-1    5.057653764560479E-1   -3.015572685871278E-3    1.779640623832039E-3   -2.995154344755339E-3    1.858427501377732E-3    3.101789539177803E-1    4.063403706097504E-1
 8.152491468200000E9     1.905300913859018E-1    5.058101859318773E-1   -3.002191763869935E-3    1.781923070871750E-3   -2.999923390313815E-3    1.829055067045507E-3    3.103268158494152E-1    4.061792163319249E-1
 8.152493557400000E9     1.906359472114649E-1    5.055808660709042E-1   -3.019934039473305E-3    1.773068275961986E-3   -3.012678040067603E-3    1.820629513049049E-3    3.103491813729630E-1    4.061493939887707E-1
 8.152495646600000E9     1.907981977431886E-1    5.055092622538879E-1   -3.038918696268937E-3    1.782161067461496E-3   -2.987598019732030E-3    1.847002905942421E-3    3.104134954423146E-1    4.060267021274261E-1
 8.152497735800000E9     1.910867454386930E-1    5.054856986318710E-1   -3.014807664420066E-3    1.813279529253782E-3   -3.047159013713945E-3    1.837507047928398E-3    3.105969110318864E-1    4.059343953562703E-1
 8.152499825000000E9     1.912341665149284E-1    5.053952786876242E-1   -3.045614803845647E-3    1.794883620144757E-3   -3.026915474057615E-3    1.869336028921761E-3    3.107340058897083E-1    4.056931334084868E-1
 8.152501914200000E9     1.913122640002267E-1    5.053009368404929E-1   -3.067012448730084E-3    1.825783044038715E-3   -3.062326125604880E-3    1.886611580962947E-3    3.108137073798385E-1    4.058781995984354E-1
 8.152504003400000E9     1.914765509368983E-1    5.052504958107014E-1   -2.989046072113636E-3    1.789738431102186E-3   -3.035695995321446E-3    1.883173305246312E-3    3.108784103621598E-1    4.057152490201927E-1
 8.152506092600000E9     1.917507347582469E-1    5.053286093038012E-1   -3.055604535052919E-3    1.849413056576420E-3   -3.034508559373982E-3    1.880264809866790E-3    3.109644313559358E-1    4.055840720845071E-1
 8.152508181800000E9     1.919714076105049E-1    5.050309165720460E-1   -3.074472754474991E-3    1.821197873444121E-3   -3.068561141314034E-3    1.851411740653290E-3    3.111380977089847E-1    4.055225010581190E-1
 8.152510271000000E9     1.920979319965738E-1    5.050441730044277E-1   -3.060231832139129E-3    1.847228202136881E-3   -3.091483388436954E-3    1.884345731237369E-3    3.112903581012370E-1    4.054111347997716E-1
 8.152512360200000E9     1.922097322953804E-1    5.050339874268446E-1   -3.097247763260810E-3    1.835465332478704E-3   -3.044323455272883E-3    1.922580938146983E-3    3.113531616738723E-1    4.052935838078804E-1
 8.152514449400000E9     1.924936399705827E-1    5.048819559323842E-1   -3.069575186986638E-3    1.816073753119366E-3   -3.046453695972278E-3    1.889554362906170E-3    3.113985855888583E-1    4.052498621874755E-1
 8.152516538600000E9     1.925883101472304E-1    5.048471886872899E-1   -3.084370372868348E-3    1.830669989153953E-3   -3.068135868478331E-3    1.905691609412927E-3    3.116282940337390E-1    4.051391257357446E-1
 8.152518627800000E9     1.927627796031444E-1    5.047582383654186E-1   -3.074010615247413E-3    1.843889713558548E-3   -3.105294322529832E-3    1.923400675134324E-3    3.116193898758001E-1    4.052590707921872E-1
 8.152520717000000E9     1.928856974851648E-1    5.046884829094342E-1   -3.077312325946885E-3    1.900025521363069E-3   -3.115391933696089E-3    1.928061750105038E-3    3.118006867395725E-1    4.049532367089579E-1
 8.152522806200000E9     1.930552612811996E-1    5.046465469005000E-1   -3.088874400081127E-3    1.899700618754570E-3   -3.105639268096173E-3    1.967823699787723E-3    3.119604037838381E-1    4.048312095820728E-1
 8.152524895400000E9     1.931535384002702E-1    5.044207142638248E-1   -3.095782770425975E-3    1.881284414671041E-3   -3.093640506712342E-3    1.944959387507479E-3    3.120471061538238E-1    4.048673742881270E-1
 8.152526984600000E9     1.934169301937741E-1    5.044602553196359E-1   -3.106888950698402E-3    1.890517486557594E-3   -3.119134366118237E-3    1.954107040447977E-3    3.121529610498116E-1    4.046309155273076E-1
 8.152529073800000E9     1.935734013546880E-1    5.044041004455663E-1   -3.093093892801284E-3    1.878969783033333E-3   -3.128841082436469E-3    1.942527477065115E-3    3.123537889270316E-1    4.047201314887458E-1
 8.152531163000000E9     1.937290459849526E-1    5.043285068364302E-1   -3.147570669246689E-3    1.902673857058048E-3   -3.119817376769956E-3    1.968586332322317E-3    3.123793933487272E-1    4.046106793408414E-1
