#  HZ   S   RI   R     50.00 
! Rohde & Schwarz Vector Network Analyzer 
! Rohde-Schwarz,ZNB20-2Port,1311601062101988,3.16
! Created: UTC 3/21/2024, 1:22:15 AM
! freq[Hz]                re:S11                  im:S11                  re:S21                  im:S21                  re:S12                  im:S12                  re:S22                  im:S22
 8.152384874000000E9     1.818445344998217E-1    5.089904817912445E-1   -2.789990951633774E-3    1.523423612584214E-3   -2.829085605721292E-3    1.588322107605538E-3    3.048790955725587E-1    4.104236345533693E-1
 8.152386829575000E9     1.819778025942956E-1    5.089247475565676E-1   -2.788510761577655E-3    1.542304147843018E-3   -2.812127340217848E-3    1.603538403241726E-3    3.048188110111572E-1    4.103671051713770E-1
 8.152388785150000E9     1.822275615174867E-1    5.088733362240838E-1   -2.793096251446636E-3    1.534417708385831E-3   -2.811214693528561E-3    1.577335917571472E-3    3.052291373031937E-1    4.102409760405776E-1
 8.152390740725000E9     1.823461605452534E-1    5.087618767640270E-1   -2.801041442537600E-3    1.558241527682590E-3   -2.817456774549868E-3    1.621722655269956E-3    3.051863814268458E-1    4.103767641590439E-1
 8.152392696300000E9     1.824131544616755E-1    5.086037153514245E-1   -2.815246176181553E-3    1.557601247928566E-3   -2.789129800025101E-3    1.576413482759071E-3    3.052608828262933E-1    4.100637792982468E-1
 8.152394651875000E9     1.826290829359958E-1    5.087046035926427E-1   -2.832065639527078E-3    1.547349233274263E-3   -2.802989327265102E-3    1.582664583337457E-3    3.053883387541109E-1    4.100137855381549E-1
 8.152396607450000E9     1.828694914686800E-1    5.085136164180374E-1   -2.789024803143468E-3    1.546582196543084E-3   -2.829684232312538E-3    1.601049699427048E-3    3.054576058667827E-1    4.099186196945322E-1
 8.152398563025000E9     1.831447301882596E-1    5.084676701602728E-1   -2.831363428873052E-3    1.529082941076055E-3   -2.840415447377915E-3    1.599056928834233E-3    3.053769248129593E-1    4.097072715824427E-1
 8.152400518600000E9     1.831419544844901E-1    5.085034405508261E-1   -2.841370127455717E-3    1.556658881345400E-3   -2.869938573908342E-3    1.605402569077585E-3    3.056736275446338E-1    4.098264884504512E-1
 8.152402474175000E9     1.832670945521815E-1    5.083637897254047E-1   -2.815981842124898E-3    1.553738629214094E-3   -2.859841085116522E-3    1.570002507100400E-3    3.057072803463063E-1    4.096790710188307E-1
 8.152404429750000E9     1.834068638761399E-1    5.085265936366095E-1   -2.832588925045636E-3    1.575918263590346E-3   -2.827956238358801E-3    1.590735572077283E-3    3.059506913752072E-1    4.096721262386189E-1
 8.152406385325000E9     1.836941216846506E-1    5.084194769290352E-1   -2.843065105252182E-3    1.531521316541787E-3   -2.818477945969121E-3    1.602149318835870E-3    3.059059916993597E-1    4.095647249545255E-1
 8.152408340900000E9     1.837834023135062E-1    5.083002846123992E-1   -2.841345057238809E-3    1.555111072125264E-3   -2.818327443624379E-3    1.622068359874843E-3    3.060622876030330E-1    4.095406862805228E-1
 8.152410296475000E9     1.839653632210398E-1    5.082077258228161E-1   -2.853684147530771E-3    1.560848252121163E-3   -2.837433847540180E-3    1.657415705014626E-3    3.062452378190965E-1    4.094388863733803E-1
 8.152412252050000E9     1.840341642901250E-1    5.081733875760714E-1   -2.840813302553253E-3    1.575923990969211E-3   -2.841571198945110E-3    1.645397903830650E-3    3.062803931923224E-1    4.093769369262557E-1
 8.152414207625000E9     1.841573154027197E-1    5.080981977526178E-1   -2.853069860291494E-3    1.584374793504814E-3   -2.839643108768245E-3    1.630437519347124E-3    3.062403596447671E-1    4.092119741902866E-1
 8.152416163200000E9     1.843703249857291E-1    5.080712743197741E-1   -2.844330291697829E-3    1.573958655873043E-3   -2.870132066298220E-3    1.638950754767172E-3    3.064310940252487E-1    4.090995611297583E-1
 8.152418118775000E9     1.844950550727704E-1    5.080564529666440E-1   -2.831050704191673E-3    1.560534798889337E-3   -2.859420081123092E-3    1.647570293557601E-3    3.064289596831483E-1    4.091630052419916E-1
 8.152420074350000E9     1.847107109671975E-1    5.079520154776360E-1   -2.857510441346875E-3    1.597336531698307E-3   -2.860840736727654E-3    1.603269300706422E-3    3.066705197708148E-1    4.089175503452465E-1
 8.152422029925000E9     1.847363072637269E-1    5.078967423969982E-1   -2.847220935723258E-3    1.608824778416171E-3   -2.871485342486678E-3    1.643386726444414E-3    3.066836585359070E-1    4.089936080809470E-1
 8.152423985500000E9     1.849746917141714E-1    5.078240698805179E-1   -2.870374176822291E-3    1.601335628531222E-3   -2.846678403765205E-3    1.656590924326143E-3    3.068335625278217E-1    4.090625388572075E-1
 8.152425941075000E9     1.850364113959988E-1    5.078227138881692E-1   -2.868932549244944E-3    1.575566021380418E-3   -2.863297718355191E-3    1.640116451044384E-3    3.069471849601206E-1    4.088660077602541E-1
 8.152427896650000E9     1.853474609411654E-1    5.077330969205492E-1   -2.869692840156860E-3    1.606202721710740E-3   -2.835773916948058E-3    1.640830396062639E-3    3.071908185776274E-1    4.088101770707555E-1
 8.152429852225000E9     1.852918006808246E-1    5.077562583368278E-1   -2.861941525701189E-3    1.604334921810196E-3   -2.864840388330200E-3    1.636844877498466E-3    3.070178765782908E-1    4.086561847804344E-1
 8.152431807800000E9     1.855645801307393E-1    5.076852456558245E-1   -2.878363661760440E-3    1.596952125589980E-3   -2.860787021233233E-3    1.697828929378564E-3    3.072950331945039E-1    4.086521606454199E-1
 8.152433763375000E9     1.857513194372158E-1    5.075707717924492E-1   -2.876341765582244E-3    1.612815123357164E-3   -2.870889420645530E-3    1.653628958712054E-3    3.074565725169209E-1    4.085902170892471E-1
 8.152435718950000E9     1.858575129257942E-1    5.075632755504911E-1   -2.863853056323393E-3    1.621130145702860E-3   -2.878542308516257E-3    1.655893333047468E-3    3.074182641477730E-1    4.084242780857926E-1
 8.152437674525000E9     1.859492247603772E-1    5.075055579589209E-1   -2.876788180872665E-3    1.624724175975476E-3   -2.904329888121722E-3    1.667194164184322E-3    3.075210924696614E-1    4.083509591836418E-1
 8.152439630100000E9     1.861954567283309E-1    5.073983132444930E-1   -2.883994456175790E-3    1.621335733560453E-3   -2.866999372104858E-3    1.674534832363605E-3    3.076455915284535E-1    4.080927815455613E-1
 8.152441585675000E9     1.863908417321430E-1    5.073045480622714E-1   -2.896055884081008E-3    1.636421150030621E-3   -2.891162108004205E-3    1.668379675160651E-3    3.078290882784732E-1    4.081392409773493E-1
 8.152443541250000E9     1.863971102382500E-1    5.072981625167718E-1   -2.905016171854861E-3    1.651506994641008E-3   -2.901328928957370E-3    1.691202366277598E-3    3.077705827634581E-1    4.082509495176262E-1
 8.152445496825000E9     1.867260965969147E-1    5.072251338149573E-1   -2.905414325256429E-3    1.615382816536959E-3   -2.900253922789841E-3    1.691634317574186E-3    3.079053785689403E-1    4.078984677346295E-1
 8.152447452400000E9     1.867294795495381E-1    5.072861664864597E-1   -2.887612825519053E-3    1.631130128174251E-3   -2.910031504302038E-3    1.698179083448030E-3    3.079527190933024E-1    4.080487774820404E-1
 8.152449407975000E9     1.868997644615327E-1    5.071462451901289E-1   -2.914175532871874E-3    1.648727789254224E-3   -2.899689310974184E-3    1.697232219524880E-3    3.081513494320568E-1    4.078237960874483E-1
 8.152451363550000E9     1.870441836743388E-1    5.071798709453317E-1   -2.911575397291111E-3    1.644716908790564E-3   -2.888307258824737E-3    1.696157669294476E-3    3.081305450824455E-1    4.078570655873956E-1
 8.152453319125000E9     1.872762546777504E-1    5.069043007686131E-1   -2.909542979120083E-3    1.660901627281176E-3   -2.888178114794757E-3    1.696760430772042E-3    3.082844017095054E-1    4.077915828194613E-1
 8.152455274700000E9     1.872596204688358E-1    5.070150452916172E-1   -2.922226367429814E-3    1.659342200576941E-3   -2.905178251238003E-3    1.719718366860420E-3    3.083565026696408E-1    4.076174901126415E-1
 8.152457230275000E9     1.874744458159685E-1    5.068149469332418E-1   -2.908206636368364E-3    1.666525746532107E-3   -2.938138439709702E-3    1.706362405332433E-3    3.086060951006899E-1    4.075171746273830E-1
 8.152459185850000E9     1.877582819959561E-1    5.067545888453232E-1   -2.917399562011596E-3    1.659171355244646E-3   -2.936571460833221E-3    1.723947897277865E-3    3.086395562882080E-1    4.074853738123379E-1
 8.152461141425000E9     1.876686892789838E-1    5.067836083078022E-1   -2.914804265990542E-3    1.672644603494757E-3   -2.910012238626228E-3    1.696398335492317E-3    3.088826599591637E-1    4.074364881527970E-1
 8.152463097000000E9     1.879441636756734E-1    5.066433725890253E-1   -2.915064982456426E-3    1.668794660820325E-3   -2.913783723505134E-3    1.744735396557878E-3    3.087667524378738E-1    4.073557604155205E-1
 8.152465052575000E9     1.881635230155350E-1    5.065550372296519E-1   -2.946147080858362E-3    1.693026209294608E-3   -2.919993751876354E-3    1.731426293408331E-3    3.089350739125664E-1    4.071698612109803E-1
 8.152467008150000E9     1.882105035356089E-1    5.065236140706201E-1   -2.938439795530274E-3    1.678216805860258E-3   -2.950025703441981E-3    1.742694744885775E-3    3.090508180700016E-1    4.071134404024759E-1
 8.152468963725000E9     1.883820294564564E-1    5.066418845130553E-1   -2.932547312904203E-3    1.717723775206817E-3   -2.955727367529586E-3    1.755695598032873E-3    3.090827410809964E-1    4.071599081254726E-1
 8.152470919300000E9     1.885861330408597E-1    5.064295537158878E-1   -2.936689792776978E-3    1.679729663748858E-3   -2.927634512889376E-3    1.750246308913552E-3    3.092215869146479E-1    4.071387838284983E-1
 8.152472874875000E9     1.887457279930748E-1    5.064336893270509E-1   -2.931656868193308E-3    1.668401155716561E-3   -2.937501753139698E-3    1.740676812671101E-3    3.093891884264960E-1    4.070657919710152E-1
 8.152474830450000E9     1.889063806249223E-1    5.063585936586728E-1   -2.934999545669106E-3    1.702742080141572E-3   -2.960047776009556E-3    1.746313441061253E-3    3.093232157910560E-1    4.067739380746222E-1
 8.152476786025000E9     1.890073456544598E-1    5.063136741207109E-1   -2.948048446119676E-3    1.709453355161815E-3   -2.988625979113165E-3    1.750481457594668E-3    3.096349789772349E-1    4.067800481595541E-1
 8.152478741600000E9     1.891570426879110E-1    5.062497781541078E-1   -2.956704930838923E-3    1.697563792497176E-3   -2.958966632989083E-3    1.758445937769046E-3    3.096688993292483E-1    4.066945383342576E-1
 8.152480697175000E9     1.892690716767291E-1    5.061381079444182E-1   -2.951965519045940E-3    1.729084358934268E-3   -2.937630724298907E-3    1.770636186733135E-3    3.095687885766160E-1    4.066836981855646E-1
 8.152482652750000E9     1.894564887325274E-1    5.061103578547683E-1   -2.975273304926934E-3    1.717046262774695E-3   -2.969466555741491E-3    1.789957565505319E-3    3.097614552435406E-1    4.065672443395695E-1
 8.152484608325000E9     1.896396642601966E-1    5.061401079118689E-1   -2.967538898872591E-3    1.704716031457752E-3   -2.964310566061266E-3    1.762634415333820E-3    3.098266906795072E-1    4.065145022600926E-1
 8.152486563900000E9     1.897649170329798E-1    5.060134076323017E-1   -2.958965457236037E-3    1.752538869032641E-3   -2.968373846446562E-3    1.784916035680663E-3    3.100191352466649E-1    4.063888654465497E-1
 8.152488519475000E9     1.898609533873410E-1    5.059883850328790E-1   -2.993853870490993E-3    1.740250644366377E-3   -2.997293136252801E-3    1.768901406644998E-3    3.101770552748470E-1    4.062731903200513E-1
 8.152490475050000E9     1.901961405924811E-1    5.058305009455799E-1   -2.997119282850925E-3    1.730570824568043E-3   -2.973329621819823E-3    1.793110101564762E-3    3.103018415643392E-1    4.061923773400807E-1
 8.152492430625000E9     1.903146362262539E-1    5.057480546434714E-1   -2.992063057860936E-3    1.753846758956738E-3   -2.974053866031483E-3    1.793729766352683E-3    3.102661152083535E-1    4.060399423322292E-1
 8.152494386200000E9     1.904287503389853E-1    5.057718436732572E-1   -2.992883280530244E-3    1.738250930753978E-3   -2.985833919942975E-3    1.826762134674215E-3    3.103920947683790E-1    4.060774681809332E-1
 8.152496341775000E9     1.905854634163351E-1    5.057139887859535E-1   -3.003658563504596E-3    1.738013757263128E-3   -2.984087984296133E-3    1.840807390573719E-3    3.104686146052972E-1    4.060795927315291E-1
 8.152498297350000E9     1.908175344299772E-1    5.056080684931487E-1   -2.984338078617769E-3    1.750217960690967E-3   -3.011135801879546E-3    1.811940315314496E-3    3.105591449566766E-1    4.060541350582706E-1
 8.152500252925000E9     1.908120651557428E-1    5.056093094685900E-1   -3.018750249408060E-3    1.751215342796322E-3   -3.031517557652395E-3    1.792565776113753E-3    3.106150964763147E-1    4.058391608005010E-1
 8.152502208500000E9     1.911673646445946E-1    5.055102604047811E-1   -3.030157602994167E-3    1.750167568487725E-3   -3.015419291845097E-3    1.836505699780727E-3    3.107497662979464E-1    4.057514429761993E-1
 8.152504164075000E9     1.912970329897752E-1    5.054233153513700E-1   -3.020686463871471E-3    1.773093003540119E-3   -3.047142998993495E-3    1.841574186390824E-3    3.109249573128185E-1    4.056590877545661E-1
 8.152506119650000E9     1.913912440512057E-1    5.052769852146889E-1   -3.044134796557272E-3    1.782112727557355E-3   -2.997346141254883E-3    1.831579207578858E-3    3.110215347788904E-1    4.056694569882153E-1
 8.152508075225000E9     1.916286501710471E-1    5.052570758993757E-1   -3.036574008370080E-3    1.783823713895295E-3   -2.994619013568197E-3    1.837080628972037E-3    3.111936795819990E-1    4.055920464760689E-1
 8.152510030800000E9     1.917096376207764E-1    5.052643250406426E-1   -3.045601910968555E-3    1.786540934460259E-3   -3.059267292135649E-3    1.861858887046170E-3    3.110386142850908E-1    4.055984360706918E-1
 8.152511986375000E9     1.919108992189724E-1    5.051661102215833E-1   -3.040779891210678E-3    1.787980764368679E-3   -3.059250137011305E-3    1.846214713987138E-3    3.112351217953133E-1    4.054063804937696E-1
 8.152513941950000E9     1.919779641543469E-1    5.052194603591948E-1   -3.053324975807921E-3    1.799140690019901E-3   -3.050225640409802E-3    1.869402444322872E-3    3.113551600246968E-1    4.054286910591564E-1
 8.152515897525000E9     1.921840383329211E-1    5.051594183092211E-1   -3.061328342090024E-3    1.820936584837403E-3   -3.046996989223317E-3    1.863619438122221E-3    3.114828434634199E-1    4.052451285490443E-1
 8.152517853100000E9     1.922484202164303E-1    5.048839210691061E-1   -3.030987177780459E-3    1.818147601670877E-3   -3.041785345124023E-3    1.852032482256658E-3    3.115908651892397E-1    4.051900115002499E-1
 8.152519808675000E9     1.925236910706972E-1    5.050510296612042E-1   -3.083954116946923E-3    1.817197245157783E-3   -3.046210375270656E-3    1.901329855079842E-3    3.115776264355582E-1    4.049369676201815E-1
 8.152521764250000E9     1.926140082653552E-1    5.049544645701212E-1   -3.068366525258188E-3    1.843345290731971E-3   -3.073779377793152E-3    1.867495957684406E-3    3.116663029159247E-1    4.051353125786876E-1
 8.152523719825000E9     1.927578120320462E-1    5.048037152203551E-1   -3.057348148948345E-3    1.823674099271353E-3   -3.065541648558963E-3    1.892800539582060E-3    3.117732529596798E-1    4.049430191292132E-1
 8.152525675400000E9     1.930552840225563E-1    5.047896354389446E-1   -3.060386906815778E-3    1.851725173626032E-3   -3.064716550997729E-3    1.884136856847483E-3    3.119417914227347E-1    4.047339208794649E-1
 8.152527630975000E9     1.932561990955302E-1    5.046534321559413E-1   -3.062185051275219E-3    1.855083897584852E-3   -3.075099395084001E-3    1.872002596311375E-3    3.120709106933943E-1    4.047770293452196E-1
 8.152529586550000E9     1.933678790661116E-1    5.045648851870211E-1   -3.082064440411749E-3    1.839572621939302E-3   -3.080515228504488E-3    1.885952922253867E-3    3.122305830574225E-1    4.045874505881129E-1
 8.152531542125000E9     1.935194720646482E-1    5.045475741223627E-1   -3.114973565911247E-3    1.873238842197161E-3   -3.090044878445508E-3    1.935704976168657E-3    3.122355216618874E-1    4.046022653507158E-1
 8.152533497700000E9     1.936487522603515E-1    5.045116558631660E-1   -3.106672748000511E-3    1.881523488150155E-3   -3.115169205546329E-3    1.918273574281696E-3    3.123871262575731E-1    4.043145770468065E-1
 8.152535453275000E9     1.937636321254111E-1    5.043545666221466E-1   -3.090078433688831E-3    1.895862518703005E-3   -3.111443721321144E-3    1.923199562926282E-3    3.126749780118719E-1    4.044219880418083E-1
 8.152537408850000E9     1.940168624409927E-1    5.042565507591097E-1   -3.112219176395922E-3    1.874802842253107E-3   -3.116134938502266E-3    1.958205619153751E-3    3.125456206929786E-1    4.043528401807132E-1
 8.152539364425000E9     1.941225130933098E-1    5.041588423066946E-1   -3.115337009492651E-3    1.920630575344055E-3   -3.109893006489884E-3    1.931094350613704E-3    3.125782673400380E-1    4.043640946277069E-1
 8.152541320000000E9     1.942813420769637E-1    5.041510533827104E-1   -3.116096618435177E-3    1.881901398491501E-3   -3.117950267864550E-3    1.971650501257465E-3    3.126652459807952E-1    4.042148386814265E-1
 8.152543275575000E9     1.944811396437954E-1    5.040511899461421E-1   -3.120915857204368E-3    1.929371592026035E-3   -3.141717337045102E-3    1.939264399568575E-3    3.127791451337629E-1    4.041121051043843E-1
 8.152545231150000E9     1.945884641156295E-1    5.039831804821570E-1   -3.148920684548016E-3    1.888814990633156E-3   -3.124617992960719E-3    1.974386615802321E-3    3.129257192269558E-1    4.040709214205000E-1
 8.152547186725000E9     1.947814228755745E-1    5.040355231571203E-1   -3.142829083816933E-3    1.910898157775999E-3   -3.140838895597454E-3    1.973872771817420E-3    3.130974489748295E-1    4.041820492664093E-1
 8.152549142300000E9     1.949589327967221E-1    5.039560447267449E-1   -3.163099801436631E-3    1.919643063072049E-3   -3.127506090978170E-3    1.957011153545703E-3    3.132545745392470E-1    4.039457132909186E-1
 8.152551097875000E9     1.952326077559419E-1    5.038742561582714E-1   -3.158212660161866E-3    1.938634446561868E-3   -3.167834842735421E-3    2.027977798393109E-3    3.131522867333545E-1    4.036834842562521E-1
 8.152553053450000E9     1.953775296490141E-1    5.037402485711356E-1   -3.184822642544661E-3    1.922126353313789E-3   -3.139045030150881E-3    1.994032931782503E-3    3.133286010599949E-1    4.037053554291496E-1
 8.152555009025000E9     1.954785517215013E-1    5.037277836017809E-1   -3.170052804032022E-3    1.936565174552882E-3   -3.158790018932109E-3    2.020718460528181E-3    3.133661232450530E-1    4.034989209947292E-1
 8.152556964600000E9     1.956268435304206E-1    5.034457823387912E-1   -3.190709332597466E-3    1.980124156109658E-3   -3.144222728404107E-3    2.030284363582832E-3    3.136310294897650E-1    4.036057916057010E-1
 8.152558920175000E9     1.958619887811492E-1    5.035307177003011E-1   -3.202233426082670E-3    1.960681995162668E-3   -3.186998973241387E-3    2.034746822385907E-3    3.135874842884888E-1    4.034279329380264E-1
 8.152560875750000E9     1.959442805736516E-1    5.034241151936769E-1   -3.191507207818086E-3    1.990741003308831E-3   -3.207206872136788E-3    2.040640365803167E-3    3.136547250868669E-1    4.034327613086575E-1
