#  HZ   S   RI   R     50.00 
! Rohde & Schwarz Vector Network Analyzer 
! Rohde-Schwarz,ZNB20-2Port,1311601062101988,3.16
! Created: UTC 3/21/2024, 1:22:55 AM
! freq[Hz]                re:S11                  im:S11                  re:S21                  im:S21                  re:S12                  im:S12                  re:S22                  im:S22
 8.152534567000000E9     1.924114259118678E-1    5.051338341599203E-1   -2.967390200091900E-3    1.718477638428428E-3   -2.982681147867374E-3    1.777114826186650E-3    3.124817066127171E-1    4.044470415298180E-1
 8.152536064525000E9     1.925028249140350E-1    5.049980050999376E-1   -3.003012344459385E-3    1.751479129185004E-3   -3.022854475871917E-3    1.779117842477133E-3    3.125307663193511E-1    4.043051722557953E-1
 8.152537562050000E9     1.926182041686533E-1    5.049760184574854E-1   -3.005997595575659E-3    1.760057343897329E-3   -2.996744236444178E-3    1.808552729015778E-3    3.127291915400925E-1    4.043056149917307E-1
 8.152539059575000E9     1.926955381804699E-1    5.048852105905467E-1   -3.008371819038043E-3    1.755015350309766E-3   -3.007618756964197E-3    1.823922430444448E-3    3.127409405549660E-1    4.041682014495588E-1
 8.152540557100000E9     1.929282761714291E-1    5.049961914972662E-1   -3.016515191536736E-3    1.755363812861981E-3   -3.006030589966601E-3    1.809615532079207E-3    3.128924171790926E-1    4.041197961763749E-1
 8.152542054625000E9     1.929776333481968E-1    5.049450361832912E-1   -3.010440536682050E-3    1.779645059395582E-3   -3.006958603090440E-3    1.818136681682388E-3    3.128788615809963E-1    4.041739595203607E-1
 8.152543552150000E9     1.931621338358573E-1    5.048683293260731E-1   -3.012082032772775E-3    1.768776926138966E-3   -3.016358153995005E-3    1.824995073394114E-3    3.130120273454794E-1    4.040204321333095E-1
 8.152545049675000E9     1.932570363144621E-1    5.047972208691615E-1   -3.009367553397417E-3    1.785159759484762E-3   -3.012164162903760E-3    1.825698775006864E-3    3.131633621544967E-1    4.039392258457711E-1
 8.152546547200000E9     1.933872745571985E-1    5.047135004141319E-1   -3.041459556326263E-3    1.752828904980829E-3   -3.030657619374524E-3    1.796819793050377E-3    3.130888254595861E-1    4.038202305323967E-1
 8.152548044725000E9     1.935496559391510E-1    5.045643437975446E-1   -3.016519209631248E-3    1.755513304974291E-3   -3.017759659048247E-3    1.857180567797911E-3    3.131858955378416E-1    4.038144169703474E-1
 8.152549542250000E9     1.935893563217199E-1    5.045753969982735E-1   -3.032635553324528E-3    1.772731821019937E-3   -3.022422888672033E-3    1.825962542285964E-3    3.132970510131886E-1    4.037936100427384E-1
 8.152551039775000E9     1.937939562113895E-1    5.045321087191136E-1   -3.042955438937865E-3    1.773475426936475E-3   -3.059448604212252E-3    1.824235570716730E-3    3.133230372668697E-1    4.038590888757886E-1
 8.152552537300000E9     1.939527258630557E-1    5.042709214113855E-1   -3.050436251242500E-3    1.825665947812476E-3   -3.041536886818167E-3    1.865565539515297E-3    3.134654346748015E-1    4.035881450720921E-1
 8.152554034825000E9     1.940659044710827E-1    5.043300073347099E-1   -3.033279863227901E-3    1.784740144356291E-3   -3.069377620677886E-3    1.846766066394737E-3    3.135189075062572E-1    4.036141514834770E-1
 8.152555532350000E9     1.940922292589674E-1    5.044285413112501E-1   -3.048746643512186E-3    1.808409219699947E-3   -3.040587882042817E-3    1.845049147790179E-3    3.136627801881997E-1    4.037118599412038E-1
 8.152557029875000E9     1.942734991994811E-1    5.043417090741886E-1   -3.039738256923835E-3    1.815952434864924E-3   -3.067707614598196E-3    1.846612868615804E-3    3.137633935031788E-1    4.034485533039675E-1
 8.152558527400000E9     1.944511422334334E-1    5.041822765973334E-1   -3.056375684359574E-3    1.809661638672551E-3   -3.076463610656939E-3    1.877351088364337E-3    3.136979911647839E-1    4.033855108374049E-1
 8.152560024925000E9     1.945404269755472E-1    5.042029821977932E-1   -3.048230853430246E-3    1.810848298134150E-3   -3.064195472213998E-3    1.831969032734821E-3    3.139960198553127E-1    4.032287272187978E-1
 8.152561522450000E9     1.946199094360633E-1    5.042615999478007E-1   -3.073223908405152E-3    1.809899509502162E-3   -3.053960344672291E-3    1.869835200583550E-3    3.139061671388256E-1    4.033312032828613E-1
 8.152563019975000E9     1.947953432981649E-1    5.041043692253047E-1   -3.083841141571871E-3    1.808424647829769E-3   -3.060607749401602E-3    1.896301376093483E-3    3.140619040826675E-1    4.032730828768885E-1
 8.152564517500000E9     1.949616878411849E-1    5.040648218349142E-1   -3.094822122103830E-3    1.803556249382870E-3   -3.069967451188360E-3    1.884350946289972E-3    3.140305892792501E-1    4.032636560829148E-1
 8.152566015025000E9     1.950201538774131E-1    5.039364172525095E-1   -3.080190656505647E-3    1.813246227914134E-3   -3.051230892413041E-3    1.886352271474880E-3    3.142129171450249E-1    4.031596145732925E-1
 8.152567512550000E9     1.950814264384698E-1    5.039513896136621E-1   -3.089969710043505E-3    1.805421215091203E-3   -3.053949247820612E-3    1.900238754674682E-3    3.140295750838430E-1    4.030729330782800E-1
 8.152569010075000E9     1.953107505387720E-1    5.039122470305568E-1   -3.091032428873827E-3    1.811228984064650E-3   -3.069074644767873E-3    1.877820145334763E-3    3.143617512626858E-1    4.029227853505791E-1
 8.152570507600000E9     1.953861825024026E-1    5.039708107462056E-1   -3.124444939602716E-3    1.845557131562716E-3   -3.078042130138870E-3    1.887232857168698E-3    3.143187322463584E-1    4.029052843184682E-1
 8.152572005125000E9     1.954688248054192E-1    5.038741528427315E-1   -3.078143006418561E-3    1.838710641201544E-3   -3.077243274879790E-3    1.902945508435352E-3    3.144193057201774E-1    4.029560958540941E-1
 8.152573502650000E9     1.956594363971031E-1    5.037755226748273E-1   -3.105938323358181E-3    1.849604710421484E-3   -3.093321996963960E-3    1.868207649416982E-3    3.145472349275047E-1    4.028709935289928E-1
 8.152575000175000E9     1.957817525686349E-1    5.037903934904949E-1   -3.067799001342212E-3    1.874311146730392E-3   -3.086249124747721E-3    1.889426318975097E-3    3.144554140888500E-1    4.028911303639995E-1
 8.152576497700000E9     1.958268777032249E-1    5.037275200013853E-1   -3.126408740631333E-3    1.838272464147158E-3   -3.127896887691019E-3    1.913064730305921E-3    3.145412675738202E-1    4.026703636177517E-1
 8.152577995225000E9     1.959395054590619E-1    5.037351937004576E-1   -3.109961201956279E-3    1.879784041292478E-3   -3.103771307536843E-3    1.911109772884489E-3    3.147080792726597E-1    4.027271579332126E-1
 8.152579492750000E9     1.960838146949523E-1    5.036270084572928E-1   -3.127749361299542E-3    1.865784451777248E-3   -3.112017711760647E-3    1.913647353486797E-3    3.148631397350113E-1    4.027078422372229E-1
 8.152580990275000E9     1.963599577223903E-1    5.035132994540752E-1   -3.126327839909757E-3    1.863020661776053E-3   -3.122072404871007E-3    1.956741853492789E-3    3.149209073064598E-1    4.025452336364332E-1
 8.152582487800000E9     1.964318693140735E-1    5.034847009144290E-1   -3.131386921605413E-3    1.895620047940440E-3   -3.116889920541671E-3    1.945402566138621E-3    3.149681555107538E-1    4.025401728623871E-1
 8.152583985325000E9     1.964964762078877E-1    5.034708636516352E-1   -3.113732276428468E-3    1.884763907825677E-3   -3.117003788989454E-3    1.958442491867536E-3    3.149767088805751E-1    4.023979518912016E-1
 8.152585482850000E9     1.967633488023186E-1    5.033865273541875E-1   -3.111471594870115E-3    1.884209985053914E-3   -3.144660815359474E-3    1.969334260524761E-3    3.151170069029292E-1    4.024828015849691E-1
 8.152586980375000E9     1.967299171996288E-1    5.031893828800720E-1   -3.144779807486317E-3    1.895732401277666E-3   -3.159294212327828E-3    1.959330290259369E-3    3.150409850149262E-1    4.022905336797846E-1
 8.152588477900000E9     1.969076667749645E-1    5.032533598645336E-1   -3.150832558188587E-3    1.891766168555006E-3   -3.159129164263167E-3    1.983206557817373E-3    3.152099349924777E-1    4.022300073872604E-1
 8.152589975425000E9     1.971384946957328E-1    5.031840510593383E-1   -3.146108189796922E-3    1.921944673584771E-3   -3.161868628045358E-3    1.983551129390343E-3    3.153124042343284E-1    4.022552544625445E-1
 8.152591472950000E9     1.971305936613592E-1    5.031240797971126E-1   -3.146694396899614E-3    1.931382693576490E-3   -3.175948495633889E-3    2.012617129937087E-3    3.154843791874053E-1    4.021886791288403E-1
 8.152592970475000E9     1.973000158670394E-1    5.030829230485664E-1   -3.182785638903088E-3    1.923684913512899E-3   -3.185649890634175E-3    1.999809737320804E-3    3.154757888764353E-1    4.021176319848962E-1
 8.152594468000000E9     1.973445551109446E-1    5.030878046144973E-1   -3.158327486441138E-3    1.923449758151702E-3   -3.151924314307141E-3    1.987782536107121E-3    3.155769914254373E-1    4.018165851834447E-1
 8.152595965525000E9     1.975632331118203E-1    5.029674001034556E-1   -3.155257969758747E-3    1.938899592692934E-3   -3.156794005825810E-3    1.992814855296117E-3    3.155659760936272E-1    4.019105881102628E-1
 8.152597463050000E9     1.976962318041280E-1    5.029059057203823E-1   -3.161382633375482E-3    1.922681535914673E-3   -3.146135632318066E-3    1.993449903107131E-3    3.157572117965016E-1    4.019207426453526E-1
 8.152598960575000E9     1.978351110407339E-1    5.029419030083632E-1   -3.202822135891778E-3    1.926955312822258E-3   -3.211785648144169E-3    1.986860912509110E-3    3.156711049837351E-1    4.017959790221079E-1
 8.152600458100000E9     1.978803985653141E-1    5.028986172826907E-1   -3.173207684358994E-3    1.944075529719194E-3   -3.197661627522161E-3    2.020173437351725E-3    3.157573158189254E-1    4.018209415925989E-1
 8.152601955625000E9     1.981229948258364E-1    5.027839019094817E-1   -3.203033934606478E-3    1.950731809909447E-3   -3.202938156511337E-3    2.004125393351421E-3    3.159132395332406E-1    4.016053803506785E-1
 8.152603453150000E9     1.982929698443909E-1    5.027308812478483E-1   -3.180165364177916E-3    1.980876412839803E-3   -3.237544198246946E-3    2.009542462525179E-3    3.160212631201230E-1    4.015199194551040E-1
 8.152604950675000E9     1.983779947642557E-1    5.027418230555868E-1   -3.183366842868561E-3    1.963519977912070E-3   -3.213852137571069E-3    2.021957037786748E-3    3.159675688305913E-1    4.015730402271634E-1
 8.152606448200000E9     1.984913599185268E-1    5.026236876384799E-1   -3.220906630225420E-3    1.960983364936053E-3   -3.220974352580897E-3    2.014802843385793E-3    3.160804321844165E-1    4.015192403760870E-1
 8.152607945725000E9     1.986056933514249E-1    5.025070512725838E-1   -3.213622286500024E-3    1.993240262098294E-3   -3.219835695184493E-3    2.046034225594450E-3    3.163292658498750E-1    4.014748209783081E-1
 8.152609443250000E9     1.987478111354890E-1    5.025401889768690E-1   -3.228694152005001E-3    1.996785121063739E-3   -3.213286594566011E-3    2.056331119944741E-3    3.162268106073944E-1    4.012716956833319E-1
 8.152610940775000E9     1.990034424084023E-1    5.024552965671131E-1   -3.229699571961577E-3    1.993382783285444E-3   -3.262038083416748E-3    2.053630051122539E-3    3.163009835645044E-1    4.013123930850105E-1
 8.152612438300000E9     1.990094088368917E-1    5.024189560113542E-1   -3.238665506915536E-3    1.993613663821768E-3   -3.253991903638785E-3    2.090686174586019E-3    3.164273408777958E-1    4.011863899983997E-1
 8.152613935825000E9     1.992693543197874E-1    5.022265339435414E-1   -3.227683171102893E-3    1.984002447824440E-3   -3.270095276545145E-3    2.066613993884587E-3    3.164660357589961E-1    4.010223687718456E-1
 8.152615433350000E9     1.993052683014950E-1    5.022788835471412E-1   -3.243024265793632E-3    2.023918258063496E-3   -3.269845214231194E-3    2.062663898362806E-3    3.165045411498563E-1    4.011437308474224E-1
 8.152616930875000E9     1.994432481710042E-1    5.022238494747679E-1   -3.245204948035582E-3    2.020579990608905E-3   -3.236151096006114E-3    2.077715416354966E-3    3.167220161463424E-1    4.010960715316103E-1
 8.152618428400000E9     1.994982063352849E-1    5.021490176069444E-1   -3.262545011214212E-3    2.015845779480740E-3   -3.258667111235434E-3    2.070536129070175E-3    3.167634994440725E-1    4.010701843037183E-1
 8.152619925925000E9     1.998809547884208E-1    5.020373343456758E-1   -3.278644235301111E-3    2.040251546019125E-3   -3.273229534652321E-3    2.066139893260889E-3    3.167695929220735E-1    4.008793255847525E-1
 8.152621423450000E9     1.998369755955529E-1    5.021223768944536E-1   -3.272222288462581E-3    2.032395239700716E-3   -3.270362830706034E-3    2.105706239709166E-3    3.168126662731743E-1    4.009764270040905E-1
 8.152622920975000E9     1.999860069228424E-1    5.019527839507940E-1   -3.293805868067880E-3    2.051861796016502E-3   -3.289925396867429E-3    2.085964304719496E-3    3.169799289942133E-1    4.006938534564162E-1
 8.152624418500000E9     2.001702101187965E-1    5.019014052451828E-1   -3.264848302632478E-3    2.069763879738277E-3   -3.293872275025324E-3    2.140004856564594E-3    3.171300852545481E-1    4.006459017388881E-1
 8.152625916025000E9     2.002721979727345E-1    5.018166977588234E-1   -3.270446919909475E-3    2.068027710890404E-3   -3.306447078210079E-3    2.138149993475076E-3    3.172020449206397E-1    4.006792089915728E-1
 8.152627413550000E9     2.004269861181659E-1    5.017039172845527E-1   -3.296922750639573E-3    2.050805627806497E-3   -3.272922601745257E-3    2.111241273814092E-3    3.171789693764506E-1    4.006396423988359E-1
 8.152628911075000E9     2.006776750007212E-1    5.016934061147591E-1   -3.315125100787694E-3    2.080633313739443E-3   -3.280822958048728E-3    2.129222753530518E-3    3.171906200318260E-1    4.004868156481667E-1
 8.152630408600000E9     2.005969473219100E-1    5.017068807893242E-1   -3.320412113817825E-3    2.099172085459117E-3   -3.302372616540466E-3    2.149021570337910E-3    3.172709513777195E-1    4.004220224904096E-1
 8.152631906125000E9     2.007842067490161E-1    5.015835212275570E-1   -3.324517039575612E-3    2.080147457599254E-3   -3.330325110768347E-3    2.166954255512980E-3    3.173229581702633E-1    4.004276669312548E-1
 8.152633403650000E9     2.009303959554351E-1    5.015658889661034E-1   -3.326047933810123E-3    2.108597312950333E-3   -3.329496976883629E-3    2.153516303028416E-3    3.175129325440711E-1    4.004269172694254E-1
 8.152634901175000E9     2.012252925867519E-1    5.014708466370861E-1   -3.343576304580918E-3    2.120010132709670E-3   -3.320852911656078E-3    2.165375841807308E-3    3.174893919035061E-1    4.003634045506100E-1
 8.152636398700000E9     2.012188439490373E-1    5.013459658976301E-1   -3.344029677848092E-3    2.127830405740801E-3   -3.328039753112988E-3    2.160963454140807E-3    3.176397885644238E-1    4.001601226694857E-1
 8.152637896225000E9     2.013431642566377E-1    5.012941136658977E-1   -3.345586468440181E-3    2.130561045932986E-3   -3.357069114119214E-3    2.198165841316040E-3    3.177282055950121E-1    4.000874127630796E-1
 8.152639393750000E9     2.015570452780499E-1    5.012539768819145E-1   -3.359205046996468E-3    2.144214207103390E-3   -3.344925588622066E-3    2.185401415388053E-3    3.177432571655490E-1    4.001529993101750E-1
 8.152640891275000E9     2.017215380391477E-1    5.011317736117896E-1   -3.346927842457756E-3    2.139009969498114E-3   -3.373239705208524E-3    2.199178262630039E-3    3.178583600763136E-1    4.001096857064276E-1
 8.152642388800000E9     2.019255502005647E-1    5.010643341023269E-1   -3.353906626029739E-3    2.167755784291587E-3   -3.387426399032539E-3    2.231810548682812E-3    3.178592483072332E-1    4.000518243840764E-1
 8.152643886325000E9     2.019757235280262E-1    5.010384858776339E-1   -3.384797412650158E-3    2.159154272626586E-3   -3.392162262990715E-3    2.222646154669083E-3    3.179712764977737E-1    3.998694236066383E-1
 8.152645383850000E9     2.021485810331409E-1    5.009905925526157E-1   -3.360653282347174E-3    2.171781552963773E-3   -3.389486219780625E-3    2.229554642072212E-3    3.180270512321212E-1    3.998789558230278E-1
 8.152646881375000E9     2.022793333035561E-1    5.007740951258194E-1   -3.384491346472243E-3    2.184055111041054E-3   -3.415330131448723E-3    2.232840050356856E-3    3.182134949375524E-1    3.997749532311067E-1
 8.152648378900000E9     2.023694507930194E-1    5.007559073885527E-1   -3.379970086985859E-3    2.203775496035248E-3   -3.416168435323411E-3    2.284210443682345E-3    3.181611203117076E-1    3.996535780995900E-1
 8.152649876425000E9     2.025867469096306E-1    5.007844115087758E-1   -3.402083089218610E-3    2.187668390699633E-3   -3.410535389245068E-3    2.280318130191487E-3    3.183295722510356E-1    3.996249554371245E-1
 8.152651373950000E9     2.027070807971736E-1    5.006823817182957E-1   -3.407506906124319E-3    2.217938882213992E-3   -3.440665798525701E-3    2.248363115920906E-3    3.183984895390669E-1    3.997305167394223E-1
 8.152652871475000E9     2.028808349725317E-1    5.006249600575706E-1   -3.423085349972998E-3    2.224928236575801E-3   -3.431235862337699E-3    2.285699726622933E-3    3.184257849326669E-1    3.995629758956881E-1
 8.152654369000000E9     2.029118038144952E-1    5.004783856624954E-1   -3.434552752483216E-3    2.225474417034455E-3   -3.415646832552394E-3    2.335572681625463E-3    3.185248310867792E-1    3.995258523339820E-1
 8.152655866525000E9     2.032315164110312E-1    5.004636144815158E-1   -3.460163525565930E-3    2.227763764713859E-3   -3.462511272165574E-3    2.278989963836277E-3    3.186413815982980E-1    3.995950646828448E-1
 8.152657364050000E9     2.033145639862677E-1    5.004101845145640E-1   -3.452647314008845E-3    2.237557956539142E-3   -3.485036580506283E-3    2.323287951382234E-3    3.186646819116468E-1    3.994188884112905E-1
 8.152658861575000E9     2.035264763126150E-1    5.002445413186728E-1   -3.470705180117416E-3    2.240186889445380E-3   -3.460107144327698E-3    2.331849151782519E-3    3.186281704199899E-1    3.991253765244914E-1
 8.152660359100000E9     2.035955013713728E-1    5.003589590235380E-1   -3.459866012635870E-3    2.286087137770833E-3   -3.456135665835792E-3    2.365374817734894E-3    3.186970131542758E-1    3.991954778163173E-1
 8.152661856625000E9     2.036302421089267E-1    5.001858331187595E-1   -3.492088114070042E-3    2.292716171100693E-3   -3.496343680771466E-3    2.378858040767986E-3    3.188174796011269E-1    3.990289521346351E-1
 8.152663354150000E9     2.039367334074755E-1    5.000509328778772E-1   -3.509206192706369E-3    2.298480318221925E-3   -3.488702246804780E-3    2.359990779784678E-3    3.189660994075603E-1    3.990943326493622E-1
 8.152664851675000E9     2.040601742120382E-1    4.999973574316601E-1   -3.518563912284540E-3    2.297427583814166E-3   -3.509723571907218E-3    2.381570747330626E-3    3.189297790116510E-1    3.990435055996542E-1
 8.152666349200000E9     2.041892576539069E-1    4.998365796378463E-1   -3.514644778097569E-3    2.312023061652049E-3   -3.515243093871272E-3    2.408064532502998E-3    3.191564200154861E-1    3.989516206332412E-1
 8.152667846725000E9     2.044003135451420E-1    4.999389094006825E-1   -3.527747808262786E-3    2.327022428115934E-3   -3.490982057941560E-3    2.374600572645671E-3    3.190843818385208E-1    3.988322403064874E-1
 8.152669344250000E9     2.046130815243392E-1    4.997106535664466E-1   -3.536900941259948E-3    2.325115663623202E-3   -3.542607317501117E-3    2.401310898671811E-3    3.190977417073059E-1    3.988753379250840E-1
