#  HZ   S   RI   R     50.00 
! Rohde & Schwarz Vector Network Analyzer 
! Rohde-Schwarz,ZNB20-2Port,1311601062101988,3.16
! Created: UTC 3/21/2024, 12:53:26 AM
! freq[Hz]                re:S11                  im:S11                  re:S21                  im:S21                  re:S12                  im:S12                  re:S22                  im:S22
 8.151096880000000E9     1.110618742688205E-1    5.316319310069970E-1   -2.749470756454600E-3    1.042284123403452E-3   -2.746363862378792E-3    1.085027816212198E-3    2.577721932027176E-1    4.447943782901080E-1
 8.151100123050000E9     1.113269391402301E-1    5.315226455950900E-1   -2.740248455516733E-3    1.023037174573950E-3   -2.769672019381533E-3    1.106733383309790E-3    2.578910337685905E-1    4.446723799409538E-1
 8.151103366100000E9     1.116243017520982E-1    5.314483330656978E-1   -2.747064602757910E-3    1.031654403383128E-3   -2.769083185970966E-3    1.094249005008669E-3    2.581338394583684E-1    4.447351610047185E-1
 8.151106609150000E9     1.118681813169721E-1    5.314471869269329E-1   -2.730142006629614E-3    1.046255208846610E-3   -2.779773786218337E-3    1.082892447464768E-3    2.582500708340034E-1    4.445295246516461E-1
 8.151109852200000E9     1.121413930532896E-1    5.314250357358320E-1   -2.748515126020494E-3    1.055965597689217E-3   -2.741624707474647E-3    1.062333901038437E-3    2.585109707734116E-1    4.444160429406342E-1
 8.151113095250000E9     1.124181480106112E-1    5.313060606794638E-1   -2.758797055533977E-3    1.046648286206898E-3   -2.754296350117019E-3    1.092421874454759E-3    2.586420407177799E-1    4.443286345321393E-1
 8.151116338300000E9     1.126467881875094E-1    5.313125537472204E-1   -2.749081840295053E-3    1.054543387401915E-3   -2.744059771494038E-3    1.095889105094206E-3    2.588518324620097E-1    4.442949989927656E-1
 8.151119581350000E9     1.127167691853261E-1    5.312917352780215E-1   -2.736318211532534E-3    1.051334898242407E-3   -2.759522772334455E-3    1.072756159183165E-3    2.591372413405272E-1    4.440787175992064E-1
 8.151122824400000E9     1.129596137564371E-1    5.312469075974078E-1   -2.753430757735898E-3    1.034224611413442E-3   -2.729668593515922E-3    1.106785973399472E-3    2.592201467020502E-1    4.439295582694535E-1
 8.151126067450000E9     1.132911421667226E-1    5.310518820207225E-1   -2.749558521140799E-3    1.047264629909616E-3   -2.772356434661687E-3    1.103151744471694E-3    2.593366085605316E-1    4.437999070526611E-1
 8.151129310500000E9     1.135372186103818E-1    5.311337404096994E-1   -2.766557282513416E-3    1.056633548317609E-3   -2.775229084910850E-3    1.121530789850443E-3    2.595125704673149E-1    4.437043027790548E-1
 8.151132553550000E9     1.138423811472072E-1    5.310871487358487E-1   -2.762258844888377E-3    1.068875899161268E-3   -2.781121477821099E-3    1.108139603727889E-3    2.596364838777719E-1    4.437933656559485E-1
 8.151135796600000E9     1.140892762640557E-1    5.309448688274788E-1   -2.745343934317806E-3    1.096456944871958E-3   -2.770897004617219E-3    1.122977839769034E-3    2.599153492227557E-1    4.435562039304548E-1
 8.151139039650000E9     1.141773557286081E-1    5.309526534537105E-1   -2.755480647348204E-3    1.049043745774482E-3   -2.777700975371810E-3    1.106483419829391E-3    2.600311652551017E-1    4.434554118484818E-1
 8.151142282700000E9     1.144228389154041E-1    5.310058826224944E-1   -2.737938261976365E-3    1.071206179192393E-3   -2.806149059777343E-3    1.116691153946785E-3    2.602677593294967E-1    4.433863912454135E-1
 8.151145525750000E9     1.148152274319596E-1    5.308788859815550E-1   -2.775862495545757E-3    1.078190316974393E-3   -2.759695712672063E-3    1.117614268872490E-3    2.604854176157871E-1    4.432490597451657E-1
 8.151148768800000E9     1.148771708713830E-1    5.307826500405677E-1   -2.752031781072009E-3    1.076034362486361E-3   -2.727129787206749E-3    1.114934313528672E-3    2.606129709017203E-1    4.431882951557663E-1
 8.151152011850000E9     1.152167262835233E-1    5.308772317855875E-1   -2.755096495226711E-3    1.084653348852472E-3   -2.761539655482111E-3    1.118242874444344E-3    2.607270353001900E-1    4.430256472651990E-1
 8.151155254900000E9     1.154800688508083E-1    5.307888066394264E-1   -2.763790080040315E-3    1.081948388454961E-3   -2.761659401392403E-3    1.146221274333911E-3    2.609840131223074E-1    4.429565512168440E-1
 8.151158497950000E9     1.157917117626170E-1    5.306466684566452E-1   -2.758896670431223E-3    1.102641645795409E-3   -2.760352019176005E-3    1.153633122922524E-3    2.611308976411859E-1    4.428288631318292E-1
 8.151161741000000E9     1.158474245753319E-1    5.306427134325579E-1   -2.765973901669578E-3    1.098212367875279E-3   -2.766756476569545E-3    1.137945873432252E-3    2.613213647009161E-1    4.428110544204370E-1
 8.151164984050000E9     1.160950353487861E-1    5.306304896006647E-1   -2.768686225957494E-3    1.083003726095968E-3   -2.785595827534400E-3    1.152097622097020E-3    2.616682801635822E-1    4.425771193219828E-1
 8.151168227100000E9     1.163023634933339E-1    5.306579426092450E-1   -2.758318773629075E-3    1.065769340555374E-3   -2.778138051837730E-3    1.139648964179790E-3    2.617138437352253E-1    4.424711914682966E-1
 8.151171470150000E9     1.165149731491485E-1    5.304368059140642E-1   -2.798848482756073E-3    1.084393124394610E-3   -2.760466166593489E-3    1.162232420658051E-3    2.618410782376698E-1    4.422760354934007E-1
 8.151174713200000E9     1.168076621399623E-1    5.303451971268780E-1   -2.768357355000280E-3    1.091184301995768E-3   -2.766223670638758E-3    1.131990534070042E-3    2.619436445729305E-1    4.422710374629529E-1
 8.151177956250000E9     1.171444696695356E-1    5.304203108542199E-1   -2.780718557268957E-3    1.089761789679394E-3   -2.769569939893618E-3    1.156500012923080E-3    2.621590283448854E-1    4.420423571639796E-1
 8.151181199300000E9     1.173969035797554E-1    5.304095371412526E-1   -2.771904793487690E-3    1.083536717816978E-3   -2.792578180812756E-3    1.121043219448128E-3    2.625029057141031E-1    4.420197032021537E-1
 8.151184442350000E9     1.175953787776775E-1    5.302395713503329E-1   -2.786738358173507E-3    1.113822153230557E-3   -2.781486235275334E-3    1.155565050916745E-3    2.625650475257139E-1    4.418895847890833E-1
 8.151187685400000E9     1.178031780215307E-1    5.302495260296863E-1   -2.768682010632960E-3    1.109906830991890E-3   -2.796059880415467E-3    1.152126527495894E-3    2.627141051652648E-1    4.417741638321943E-1
 8.151190928450000E9     1.180058490688809E-1    5.302373777753228E-1   -2.776005373922283E-3    1.109647551235175E-3   -2.807208302114401E-3    1.204218994011412E-3    2.630404513153940E-1    4.417852000765209E-1
 8.151194171500000E9     1.181870237920401E-1    5.302059328289472E-1   -2.802760389956026E-3    1.102926941552534E-3   -2.813249205098252E-3    1.133785948947189E-3    2.631423705051496E-1    4.415560328627496E-1
 8.151197414550000E9     1.185595302304483E-1    5.301215990571690E-1   -2.770720450651370E-3    1.105768951551670E-3   -2.792482550864507E-3    1.178500464394940E-3    2.633061838762103E-1    4.414949768554438E-1
 8.151200657600000E9     1.188032648135509E-1    5.301064477245798E-1   -2.801993563300262E-3    1.116188834817304E-3   -2.815561310979269E-3    1.180629114775444E-3    2.635001203148495E-1    4.415186674978595E-1
 8.151203900650000E9     1.189251110600937E-1    5.300261004747328E-1   -2.790643097342044E-3    1.123747573546353E-3   -2.801018920834645E-3    1.149722519761443E-3    2.636458711597111E-1    4.412412867400252E-1
 8.151207143700000E9     1.190937691671413E-1    5.300451291900558E-1   -2.795355526294343E-3    1.144383684302397E-3   -2.812326704066221E-3    1.153677217214144E-3    2.636961774909525E-1    4.411640123038974E-1
 8.151210386750000E9     1.193998435510546E-1    5.298617725953622E-1   -2.783784416303649E-3    1.134709674130232E-3   -2.784523332910520E-3    1.160430212789310E-3    2.639049044685641E-1    4.411896510136843E-1
 8.151213629800000E9     1.196742479398343E-1    5.298966622486381E-1   -2.792930353251476E-3    1.136626539279632E-3   -2.831345052529814E-3    1.175034786406910E-3    2.641371769802484E-1    4.408944665054379E-1
 8.151216872850000E9     1.198326178212376E-1    5.299782081761092E-1   -2.804635615462608E-3    1.138542942132372E-3   -2.794726194817938E-3    1.153109594898191E-3    2.642831743322480E-1    4.409496469155939E-1
 8.151220115900000E9     1.202457236431819E-1    5.297995283179036E-1   -2.803066776214887E-3    1.138033945725182E-3   -2.801329507190207E-3    1.158657663261042E-3    2.644698772292008E-1    4.408136820441294E-1
 8.151223358950000E9     1.203991245934265E-1    5.297263675032203E-1   -2.780441881724877E-3    1.140087628034627E-3   -2.816175972867829E-3    1.186314942035539E-3    2.646476239352503E-1    4.405833414650564E-1
 8.151226602000000E9     1.205936948128550E-1    5.298073372909927E-1   -2.807970872153953E-3    1.130090216950699E-3   -2.798890670755568E-3    1.212025932969305E-3    2.649213554136151E-1    4.406099786276768E-1
 8.151229845050000E9     1.208641483285485E-1    5.296593351433152E-1   -2.827440599323778E-3    1.136568059538474E-3   -2.841645874172568E-3    1.198115060228771E-3    2.650697743679366E-1    4.403744449256664E-1
 8.151233088100000E9     1.211080492273885E-1    5.295135911408282E-1   -2.815686997160407E-3    1.140614553715211E-3   -2.837128649850410E-3    1.206135936304585E-3    2.651769346630136E-1    4.402836773666436E-1
 8.151236331150000E9     1.213686213468152E-1    5.295481323567914E-1   -2.833909307334106E-3    1.131560058556820E-3   -2.833642267345378E-3    1.202697382280624E-3    2.655162554760947E-1    4.400803299446789E-1
 8.151239574200000E9     1.215922093402043E-1    5.293463696538439E-1   -2.826979363818650E-3    1.156885754111221E-3   -2.836518708444149E-3    1.221027287565688E-3    2.656484476428240E-1    4.400368593174796E-1
 8.151242817250000E9     1.218270607557833E-1    5.294316879894844E-1   -2.829042792275888E-3    1.151175713257319E-3   -2.832536675951325E-3    1.181235663756544E-3    2.658419297940099E-1    4.400425354086248E-1
 8.151246060300000E9     1.220781534159298E-1    5.294079783124698E-1   -2.837184214028191E-3    1.141858278543515E-3   -2.836236196740732E-3    1.201188213751475E-3    2.658704522333079E-1    4.398967573438199E-1
 8.151249303350000E9     1.222680636294712E-1    5.292639101168131E-1   -2.811110275430103E-3    1.173827782449408E-3   -2.822156603974831E-3    1.230879015355883E-3    2.660408203802674E-1    4.397132991949321E-1
 8.151252546400000E9     1.225187204880749E-1    5.291874637466200E-1   -2.840387920789105E-3    1.171430087183265E-3   -2.822007232058528E-3    1.191002253713235E-3    2.662785217827394E-1    4.395436932861864E-1
 8.151255789450000E9     1.228136645434078E-1    5.290695254587920E-1   -2.842257450354188E-3    1.183768544865403E-3   -2.850401513863279E-3    1.221088505553136E-3    2.665258321799633E-1    4.395270085331696E-1
 8.151259032500000E9     1.229759222137092E-1    5.290931709025699E-1   -2.846114997681653E-3    1.167421416633020E-3   -2.827176380995761E-3    1.200082028652222E-3    2.666524482966280E-1    4.393200423429375E-1
 8.151262275550000E9     1.232380511748150E-1    5.290699827798993E-1   -2.848463431756211E-3    1.177366926602162E-3   -2.865370454480093E-3    1.231616274726294E-3    2.667944686112723E-1    4.393996459940488E-1
 8.151265518600000E9     1.234731753255811E-1    5.290674354473400E-1   -2.832398876369521E-3    1.180441976947649E-3   -2.847340341002589E-3    1.220826537775287E-3    2.670023024412794E-1    4.391320005537540E-1
 8.151268761650000E9     1.236353175865446E-1    5.289762826485213E-1   -2.832470335742560E-3    1.167958202268318E-3   -2.828558122007911E-3    1.243488439955336E-3    2.671376195641851E-1    4.390736333937305E-1
 8.151272004700000E9     1.239080086180217E-1    5.289733666618107E-1   -2.839887180309517E-3    1.187241917353816E-3   -2.862121712519463E-3    1.205367954847761E-3    2.674315429811767E-1    4.388642017861081E-1
 8.151275247750000E9     1.242129369172724E-1    5.288937076793843E-1   -2.846013705619421E-3    1.180250807943410E-3   -2.839377847700497E-3    1.254238764737063E-3    2.676048180052089E-1    4.388487529502133E-1
 8.151278490800000E9     1.244521051578260E-1    5.288222665699800E-1   -2.832350915882093E-3    1.197555323630646E-3   -2.848980491120567E-3    1.250344321957256E-3    2.676761257494202E-1    4.386592643505358E-1
 8.151281733850000E9     1.246173813254996E-1    5.288319931405329E-1   -2.856711700669497E-3    1.161582614549460E-3   -2.871813131641069E-3    1.247162911159461E-3    2.679021505326954E-1    4.385470832488755E-1
 8.151284976900000E9     1.249660649371265E-1    5.288840848072107E-1   -2.860323034329991E-3    1.185511759022878E-3   -2.884781749086993E-3    1.265148684141345E-3    2.679522343513935E-1    4.384394714573758E-1
 8.151288219950000E9     1.251619744463882E-1    5.286445238100325E-1   -2.867387337733686E-3    1.204450781932314E-3   -2.846857077437987E-3    1.270012011645175E-3    2.681704644084767E-1    4.384388876931881E-1
 8.151291463000000E9     1.253463517493711E-1    5.286549452009507E-1   -2.869024085208191E-3    1.203581985232906E-3   -2.872371951059126E-3    1.270945860673389E-3    2.684282467613332E-1    4.381758626933431E-1
 8.151294706050000E9     1.257739301622158E-1    5.285498071357172E-1   -2.869444769345366E-3    1.207339190480932E-3   -2.870776575803966E-3    1.245608323741104E-3    2.686208502640345E-1    4.381316735632511E-1
 8.151297949100000E9     1.259510601150969E-1    5.284578084927903E-1   -2.859026230570486E-3    1.235328842257070E-3   -2.886895091669995E-3    1.269742261856636E-3    2.687946289868874E-1    4.379787826546311E-1
 8.151301192150000E9     1.261144726755795E-1    5.283853740197593E-1   -2.866526479474173E-3    1.232155364602960E-3   -2.887842332963526E-3    1.259192422045042E-3    2.690363846862890E-1    4.378052179078165E-1
 8.151304435200000E9     1.263575647531585E-1    5.283846551475859E-1   -2.839899448104511E-3    1.205805415465750E-3   -2.874716470416749E-3    1.277211086587847E-3    2.692650533008127E-1    4.378997506968765E-1
 8.151307678250000E9     1.266038191909097E-1    5.283185070554989E-1   -2.877114376776489E-3    1.199407150284287E-3   -2.868543786509898E-3    1.262957755202804E-3    2.693403383032386E-1    4.375455735772160E-1
 8.151310921300000E9     1.267911296199694E-1    5.282595064403940E-1   -2.880486500193919E-3    1.228970736051987E-3   -2.881493969432312E-3    1.270498427050313E-3    2.694722058975847E-1    4.375501996421911E-1
 8.151314164350000E9     1.270440068620066E-1    5.282293744634530E-1   -2.878232083632562E-3    1.240194258575461E-3   -2.906307900015863E-3    1.248732324294085E-3    2.697414182565387E-1    4.374150237629268E-1
 8.151317407400000E9     1.272854062950642E-1    5.281845593818457E-1   -2.895891950531233E-3    1.262419826668498E-3   -2.881347062504927E-3    1.301379422782181E-3    2.698303284513686E-1    4.373090014061127E-1
 8.151320650450000E9     1.274634379825509E-1    5.281743196494468E-1   -2.876809401419275E-3    1.252376707215479E-3   -2.885555523152194E-3    1.285439776088795E-3    2.700031015648474E-1    4.371992983783133E-1
 8.151323893500000E9     1.277034329388986E-1    5.280812229299012E-1   -2.916019243623505E-3    1.247931709984786E-3   -2.887886171427652E-3    1.273759067614958E-3    2.701426208036041E-1    4.371437006586111E-1
 8.151327136550000E9     1.280630804999102E-1    5.281518885444922E-1   -2.915171723736043E-3    1.257737309148149E-3   -2.883356614999790E-3    1.293972239420000E-3    2.704658525427187E-1    4.369148442704634E-1
 8.151330379600000E9     1.282837288382528E-1    5.279771792804242E-1   -2.918813538710580E-3    1.274584376686607E-3   -2.899176488962078E-3    1.327039925385972E-3    2.704632286568899E-1    4.368875449732705E-1
 8.151333622650000E9     1.285020576564768E-1    5.279741520153637E-1   -2.910817428484714E-3    1.251460604593252E-3   -2.915949840703977E-3    1.295392219521744E-3    2.707625379720447E-1    4.367644797149680E-1
 8.151336865700000E9     1.288697850395961E-1    5.278659378417169E-1   -2.923015338056453E-3    1.266124392949710E-3   -2.882031407379694E-3    1.308968853206241E-3    2.709075544537924E-1    4.367075749212241E-1
 8.151340108750000E9     1.289721747898400E-1    5.277435333847132E-1   -2.906095184157130E-3    1.238856609360158E-3   -2.931025238330591E-3    1.295312929937033E-3    2.711522451129698E-1    4.365591233400130E-1
 8.151343351800000E9     1.293170646345972E-1    5.277831079331879E-1   -2.946549883034424E-3    1.258222250658380E-3   -2.908494689192142E-3    1.313471931203329E-3    2.712581377622555E-1    4.365068494905924E-1
 8.151346594850000E9     1.294728644887894E-1    5.276137380319301E-1   -2.908485828782369E-3    1.266429688291840E-3   -2.916114660470698E-3    1.283667335400013E-3    2.714058114456681E-1    4.363597439127813E-1
 8.151349837900000E9     1.297212044330950E-1    5.275671097219290E-1   -2.930764195102266E-3    1.280916459500166E-3   -2.917224868981327E-3    1.324104435195201E-3    2.716693351164479E-1    4.362748783231740E-1
 8.151353080950000E9     1.300119160093975E-1    5.274186682366405E-1   -2.922795836085749E-3    1.270245728664760E-3   -2.918555491826177E-3    1.358736034693650E-3    2.718356802591262E-1    4.360718819246307E-1
 8.151356324000000E9     1.303516365072782E-1    5.274368469198695E-1   -2.904810033185893E-3    1.300517292381412E-3   -2.949962985014608E-3    1.323165333006570E-3    2.719716711925329E-1    4.360356352634521E-1
 8.151359567050000E9     1.305285311487575E-1    5.273916593043937E-1   -2.934612393918637E-3    1.285095037781233E-3   -2.963598514907916E-3    1.357397102641118E-3    2.720949894720946E-1    4.358150655523257E-1
 8.151362810100000E9     1.306844687918415E-1    5.273032122292484E-1   -2.931982166767572E-3    1.263658832913327E-3   -2.942065275150355E-3    1.366388188265734E-3    2.723280395134888E-1    4.357718803618941E-1
 8.151366053150000E9     1.309563240365531E-1    5.273098628268497E-1   -2.942409311900341E-3    1.314749413688267E-3   -2.933397220738434E-3    1.338194253405777E-3    2.724155194017253E-1    4.357442896221233E-1
 8.151369296200000E9     1.312838661627740E-1    5.270644043124412E-1   -2.937346632898347E-3    1.285516090423715E-3   -2.973141420685243E-3    1.331780606750502E-3    2.726733107312932E-1    4.354550445868966E-1
 8.151372539250000E9     1.314075185445617E-1    5.271256206494875E-1   -2.962916113397831E-3    1.315825360304731E-3   -3.002389970616436E-3    1.353727997167472E-3    2.728068295653738E-1    4.353607856371427E-1
 8.151375782300000E9     1.316102413953119E-1    5.271201125067416E-1   -2.922383714231286E-3    1.290198737018097E-3   -2.975041884628331E-3    1.366193110952645E-3    2.729144732757194E-1    4.352621055943456E-1
 8.151379025350000E9     1.320208755179028E-1    5.270491857983953E-1   -2.958186597685648E-3    1.309768700337488E-3   -2.944942051298753E-3    1.368611037092792E-3    2.733078268193575E-1    4.350397309113750E-1
 8.151382268400000E9     1.321782921576226E-1    5.269509627926869E-1   -2.957549013492917E-3    1.324415026042972E-3   -2.973498484409529E-3    1.367868378471708E-3    2.733371052255017E-1    4.350611898245771E-1
 8.151385511450000E9     1.322580078906667E-1    5.268519686399844E-1   -2.962412179432004E-3    1.325728040841489E-3   -2.980333958792538E-3    1.378480985984031E-3    2.735750840773620E-1    4.349809683282981E-1
 8.151388754500000E9     1.327023448655681E-1    5.268865204768022E-1   -2.957110765243275E-3    1.322056743574774E-3   -2.939803696387439E-3    1.379972391669551E-3    2.737158090665471E-1    4.348637911050701E-1
