#  HZ   S   RI   R     50.00 
! Rohde & Schwarz Vector Network Analyzer 
! Rohde-Schwarz,ZNB20-2Port,1311601062101988,3.16
! Created: UTC 3/21/2024, 1:23:03 AM
! freq[Hz]                re:S11                  im:S11                  re:S21                  im:S21                  re:S12                  im:S12                  re:S22                  im:S22
 8.152518213000000E9     1.909847856567681E-1    5.055401282217338E-1   -2.953840575681836E-3    1.700066473975631E-3   -2.956683036241535E-3    1.759627530149362E-3    3.115515323768233E-1    4.050394807897764E-1
 8.152519763050000E9     1.911661777991596E-1    5.054176760396872E-1   -2.949972988402925E-3    1.719078191667649E-3   -2.981407696256402E-3    1.784677380078637E-3    3.116522606613979E-1    4.050131085374751E-1
 8.152521313100000E9     1.913811011366072E-1    5.055025166919006E-1   -2.972591321938938E-3    1.713791732412713E-3   -2.983532522316186E-3    1.778029634187346E-3    3.117702868730331E-1    4.050091491170703E-1
 8.152522863150000E9     1.914817211452080E-1    5.053113483818139E-1   -2.957286017237507E-3    1.722111098454442E-3   -2.999470844831219E-3    1.791362011055431E-3    3.118084219302729E-1    4.047832911688005E-1
 8.152524413200000E9     1.915751342314858E-1    5.052304383501779E-1   -2.995075225634598E-3    1.739565835740001E-3   -2.971588210570743E-3    1.792504874386653E-3    3.119794799644606E-1    4.047376833030227E-1
 8.152525963250000E9     1.918013129405514E-1    5.052701960263473E-1   -2.987766177734796E-3    1.726689466337845E-3   -2.979954368486251E-3    1.767512603410037E-3    3.120274762505901E-1    4.047988621701926E-1
 8.152527513300000E9     1.919044953895133E-1    5.053376190719777E-1   -2.991864282090549E-3    1.737537793074972E-3   -2.981334510460549E-3    1.773170464761494E-3    3.120660309415904E-1    4.046888235478722E-1
 8.152529063350000E9     1.919800538740276E-1    5.052692274677835E-1   -2.967843861533148E-3    1.733881030637502E-3   -2.957246117234012E-3    1.803180498563020E-3    3.122051926724590E-1    4.048297835313375E-1
 8.152530613400000E9     1.921441762942355E-1    5.050931329453729E-1   -2.998545951017840E-3    1.721503818732706E-3   -3.022607018350066E-3    1.816704176019726E-3    3.123040045631185E-1    4.045415504771802E-1
 8.152532163450000E9     1.922696902326864E-1    5.049607013205281E-1   -2.954112423585880E-3    1.744309829989728E-3   -2.995388223393186E-3    1.809170718212869E-3    3.124148313718812E-1    4.046395386415440E-1
 8.152533713500000E9     1.924803149647276E-1    5.050212287523365E-1   -2.989593440782061E-3    1.758745721093247E-3   -2.992244734050706E-3    1.781038923696135E-3    3.125466065174654E-1    4.043146802061338E-1
 8.152535263550000E9     1.924135670547408E-1    5.049550601152049E-1   -3.001601542662736E-3    1.761309279153009E-3   -3.009559302458486E-3    1.793618353919625E-3    3.124773570154795E-1    4.045551607812164E-1
 8.152536813600000E9     1.926344020932726E-1    5.048465344706222E-1   -2.993753275326700E-3    1.758703959366025E-3   -3.014298480748393E-3    1.818074632784028E-3    3.124659419267392E-1    4.043724004603219E-1
 8.152538363650000E9     1.928549665473243E-1    5.050186252789772E-1   -2.997143792273937E-3    1.789943368325618E-3   -2.995516630876870E-3    1.803430964720090E-3    3.127078541106482E-1    4.042468015115805E-1
 8.152539913700000E9     1.929223431350433E-1    5.047944848822201E-1   -2.979885865301016E-3    1.764506934921721E-3   -3.027371155784467E-3    1.830847907171826E-3    3.127782139243574E-1    4.043112884234255E-1
 8.152541463750000E9     1.929866527132456E-1    5.048343360791069E-1   -3.030396955936480E-3    1.769857093758017E-3   -3.020179681217083E-3    1.834424606032913E-3    3.127720617236315E-1    4.042526233258321E-1
 8.152543013800000E9     1.932389579663907E-1    5.047989429037374E-1   -2.988401162521778E-3    1.780575511452066E-3   -3.012884090870762E-3    1.815460796211659E-3    3.129279965259337E-1    4.040441236442285E-1
 8.152544563850000E9     1.932086659929730E-1    5.046789627178895E-1   -3.037650002224237E-3    1.799378932762310E-3   -3.025264158863236E-3    1.860748767066125E-3    3.127907434683092E-1    4.042520685062412E-1
 8.152546113900000E9     1.933752813514700E-1    5.046490030029372E-1   -3.016655548295178E-3    1.785014590880022E-3   -3.020607245725713E-3    1.838841300206119E-3    3.129833743262529E-1    4.039636340017176E-1
 8.152547663950000E9     1.935775257857396E-1    5.044483299136029E-1   -3.034559859802242E-3    1.792510726756882E-3   -3.067172667223687E-3    1.850285118302229E-3    3.131529795788072E-1    4.039600562177360E-1
 8.152549214000000E9     1.936352035068307E-1    5.044666131929244E-1   -3.054742467678809E-3    1.762269604585971E-3   -3.041694186403746E-3    1.847466271891231E-3    3.131439443075034E-1    4.037848825210859E-1
 8.152550764050000E9     1.937526187118210E-1    5.044474836264216E-1   -3.037230650490370E-3    1.786703582463408E-3   -3.008190165810160E-3    1.822847251555615E-3    3.133365073058897E-1    4.038403471661786E-1
 8.152552314100000E9     1.938007722977921E-1    5.043980433227391E-1   -3.031310201119880E-3    1.809652371424960E-3   -3.042477030125697E-3    1.827875662349729E-3    3.134085378254697E-1    4.037819208114851E-1
 8.152553864150000E9     1.941824616727483E-1    5.043584772126428E-1   -3.051593901495992E-3    1.807157442418806E-3   -3.061919002520144E-3    1.882767505920680E-3    3.134894526448610E-1    4.036847974110030E-1
 8.152555414200000E9     1.942520071388785E-1    5.042547861387247E-1   -3.074772851812119E-3    1.833001147590894E-3   -3.073453933219311E-3    1.910255648037049E-3    3.134585979316196E-1    4.034612212481176E-1
 8.152556964250000E9     1.943584147845549E-1    5.042533166958050E-1   -3.047500810476326E-3    1.841440921610705E-3   -3.052167759567474E-3    1.858295150313012E-3    3.135474124010004E-1    4.036021912483502E-1
 8.152558514300000E9     1.943816502845613E-1    5.042173880435551E-1   -3.073437672771756E-3    1.811175476765411E-3   -3.061779820440810E-3    1.845707727976170E-3    3.137462204921023E-1    4.035241034021771E-1
 8.152560064350000E9     1.946038113233760E-1    5.041705565217334E-1   -3.043817672538521E-3    1.829506850756902E-3   -3.074109959310411E-3    1.899621225082790E-3    3.137688312840051E-1    4.035397208333243E-1
 8.152561614400000E9     1.947508182716339E-1    5.040242484810152E-1   -3.062257171471065E-3    1.820117305699216E-3   -3.071087056690926E-3    1.872053280881676E-3    3.138843288363734E-1    4.034391804208544E-1
 8.152563164450000E9     1.948640761029958E-1    5.041686699110092E-1   -3.087185528531130E-3    1.828123502437182E-3   -3.079384158429138E-3    1.892536631165382E-3    3.140242225457607E-1    4.032496999262231E-1
 8.152564714500000E9     1.949238906858346E-1    5.040012111030696E-1   -3.071384499463431E-3    1.870156762562926E-3   -3.064265951477069E-3    1.903372869666791E-3    3.140256765137688E-1    4.032880320787245E-1
 8.152566264550000E9     1.950872581049418E-1    5.039459435103243E-1   -3.098427315093130E-3    1.854093658976119E-3   -3.105142124292803E-3    1.908601882530862E-3    3.141459401949262E-1    4.031144133438131E-1
 8.152567814600000E9     1.952084632224832E-1    5.038087282982828E-1   -3.075043824360279E-3    1.841300074901550E-3   -3.099786710207547E-3    1.905496131313820E-3    3.141439837611413E-1    4.031520033030829E-1
 8.152569364650000E9     1.954101006273722E-1    5.038623247245783E-1   -3.098355272147969E-3    1.865170441034790E-3   -3.086547741778972E-3    1.890269188677596E-3    3.141105122802912E-1    4.030296450466078E-1
 8.152570914700000E9     1.955932169574727E-1    5.038052369013046E-1   -3.104414199353453E-3    1.874743960585491E-3   -3.102544991839072E-3    1.930065425489659E-3    3.142757776482840E-1    4.029296879513414E-1
 8.152572464750000E9     1.956054103545953E-1    5.037810628649095E-1   -3.097000367443145E-3    1.848072116629521E-3   -3.098426062238733E-3    1.923062734622255E-3    3.143238495985169E-1    4.030344821600156E-1
 8.152574014800000E9     1.956517864444084E-1    5.035685238970469E-1   -3.087707028086263E-3    1.876375075016043E-3   -3.111838071918941E-3    1.938058718394389E-3    3.145235109180848E-1    4.027498071204363E-1
 8.152575564850000E9     1.959730859250405E-1    5.035847972593129E-1   -3.113797481614431E-3    1.861872826005931E-3   -3.074415941192352E-3    1.945864275812724E-3    3.145581440648287E-1    4.027384958716729E-1
 8.152577114900000E9     1.961263753288545E-1    5.036716369204416E-1   -3.117398481139642E-3    1.872288022561306E-3   -3.116714808411582E-3    1.942631062195965E-3    3.145224657514971E-1    4.027944923945395E-1
 8.152578664950000E9     1.960939353955826E-1    5.034830739140541E-1   -3.134165197444374E-3    1.899390166077498E-3   -3.112483977987023E-3    1.962364926181354E-3    3.146904615530500E-1    4.026060125355406E-1
 8.152580215000000E9     1.963613699994387E-1    5.034498973738257E-1   -3.132275841099940E-3    1.895900044546592E-3   -3.122658900938025E-3    1.953122602433131E-3    3.146538682861971E-1    4.026723529583446E-1
 8.152581765050000E9     1.965437227565530E-1    5.034297781180147E-1   -3.137438829155941E-3    1.862384249893443E-3   -3.127168016882984E-3    1.995232282967053E-3    3.147661076773375E-1    4.024407326105189E-1
 8.152583315100000E9     1.965943993318647E-1    5.034009690939812E-1   -3.115407710890909E-3    1.887480493281530E-3   -3.114391256277986E-3    1.947578184128012E-3    3.147772505583771E-1    4.026188228598858E-1
 8.152584865150000E9     1.966993041695045E-1    5.032240153369338E-1   -3.143742785081741E-3    1.890044886844618E-3   -3.111381854734793E-3    1.952452143218064E-3    3.150708972328154E-1    4.023248437187362E-1
 8.152586415200000E9     1.969193826796938E-1    5.031592318108199E-1   -3.148591717991594E-3    1.917259022094863E-3   -3.151857703234910E-3    1.970928038639754E-3    3.150518467419237E-1    4.023074673132323E-1
 8.152587965250000E9     1.970065045169426E-1    5.031747806472163E-1   -3.140927292228215E-3    1.931233742306190E-3   -3.117243360994275E-3    1.971974347548941E-3    3.151654051555016E-1    4.022149416245937E-1
 8.152589515300000E9     1.970228226205280E-1    5.030076400973562E-1   -3.167412933149841E-3    1.940915811973446E-3   -3.160515051607830E-3    1.975655100569911E-3    3.152128257810676E-1    4.021795995138930E-1
 8.152591065350000E9     1.972616043843275E-1    5.029355104330684E-1   -3.155199253945337E-3    1.928975814218565E-3   -3.181091167497617E-3    2.024553150036560E-3    3.152886655271289E-1    4.020401081730184E-1
 8.152592615400000E9     1.973294943477280E-1    5.029349309473453E-1   -3.158830121749462E-3    1.918710468934191E-3   -3.174164794105021E-3    2.018487044534157E-3    3.155031588239672E-1    4.021129782568837E-1
 8.152594165450000E9     1.975945033856640E-1    5.028738314454797E-1   -3.158065425153215E-3    1.939859422558940E-3   -3.149668270346618E-3    1.994808417413702E-3    3.154457870974812E-1    4.018976333426548E-1
 8.152595715500000E9     1.976676813123830E-1    5.028296419523435E-1   -3.201462812718668E-3    1.948869830072000E-3   -3.173918241137643E-3    2.036913187211599E-3    3.154189653019761E-1    4.020491181888156E-1
 8.152597265550000E9     1.977888881471667E-1    5.028068769396359E-1   -3.172377690725134E-3    1.947188727862204E-3   -3.179587482913261E-3    2.007824011346377E-3    3.155506835733526E-1    4.020470207450698E-1
 8.152598815600000E9     1.979316981291754E-1    5.028225530164011E-1   -3.187193501575851E-3    1.942368598826545E-3   -3.153051694386086E-3    2.029755942012421E-3    3.158113651198912E-1    4.019788412175745E-1
 8.152600365650000E9     1.980934697071713E-1    5.026168547457099E-1   -3.169581130900652E-3    1.974430503092346E-3   -3.216255572662502E-3    2.040701658428659E-3    3.157272025485483E-1    4.017152973890564E-1
 8.152601915700000E9     1.982053241528821E-1    5.026302946728146E-1   -3.215578485694447E-3    1.977752287654070E-3   -3.182716634597759E-3    2.048428834022343E-3    3.158020371365227E-1    4.015357675466752E-1
 8.152603465750000E9     1.983055987946526E-1    5.026172290922878E-1   -3.202295155492434E-3    1.977631018315671E-3   -3.206619884206811E-3    2.059861120923005E-3    3.159088820223831E-1    4.016166917085183E-1
 8.152605015800000E9     1.984006272864458E-1    5.024963081480348E-1   -3.196403649994692E-3    1.989003598932847E-3   -3.223486077146665E-3    2.073118507666214E-3    3.159550931483341E-1    4.016083888156378E-1
 8.152606565850000E9     1.986072568099433E-1    5.023559057524305E-1   -3.228284548300395E-3    2.008425632726340E-3   -3.225347204295547E-3    2.057389050227445E-3    3.159329203138361E-1    4.015697762728416E-1
 8.152608115900000E9     1.987869088173914E-1    5.024454898891325E-1   -3.202544832159183E-3    1.998790859129312E-3   -3.222511464052062E-3    2.080400773611067E-3    3.161368022588195E-1    4.015193134156420E-1
 8.152609665950000E9     1.989110231798796E-1    5.022837980215525E-1   -3.233782995276071E-3    1.995496507291572E-3   -3.233724931176621E-3    2.093310878826016E-3    3.161655883845544E-1    4.014551235005251E-1
 8.152611216000000E9     1.989824046947536E-1    5.023130806999767E-1   -3.242008703187349E-3    2.027326344537035E-3   -3.257564788783126E-3    2.068641908200072E-3    3.163330655667177E-1    4.012862136325939E-1
 8.152612766050000E9     1.990968593788522E-1    5.022092909336892E-1   -3.247614408110543E-3    2.039194953956291E-3   -3.248106049249662E-3    2.070923004773733E-3    3.163903725765475E-1    4.012458199251660E-1
 8.152614316100000E9     1.992976279246191E-1    5.021785667602412E-1   -3.239548168582750E-3    2.057738867381189E-3   -3.250757361197340E-3    2.090422624250682E-3    3.165333000368153E-1    4.011840726970371E-1
 8.152615866150000E9     1.993690930685473E-1    5.019984501549762E-1   -3.256687666078972E-3    2.057508126390853E-3   -3.251413970915593E-3    2.082858594990323E-3    3.165642259523007E-1    4.012381299927554E-1
 8.152617416200000E9     1.996139221607735E-1    5.020678516294284E-1   -3.262959093604130E-3    2.064339799938260E-3   -3.286986742402459E-3    2.105777616449989E-3    3.165760464413628E-1    4.010951771786998E-1
 8.152618966250000E9     1.997110812227850E-1    5.019792304156085E-1   -3.261743671684535E-3    2.042931336461156E-3   -3.281967719123940E-3    2.107687280989126E-3    3.166463685163550E-1    4.011163669804274E-1
 8.152620516300000E9     1.999379084206109E-1    5.019194800642601E-1   -3.284810236439093E-3    2.078661405487010E-3   -3.265006384330732E-3    2.126950569099496E-3    3.167357365585853E-1    4.010306692334615E-1
 8.152622066350000E9     2.000279250303973E-1    5.017942336420562E-1   -3.280719530096887E-3    2.066084712980576E-3   -3.299027886576680E-3    2.156492280479748E-3    3.168872783425523E-1    4.007225477769120E-1
 8.152623616400000E9     2.002403923744871E-1    5.017389750531042E-1   -3.288127359395051E-3    2.089704235495982E-3   -3.307934676504689E-3    2.159566241708994E-3    3.168900101525791E-1    4.007121549496162E-1
 8.152625166450000E9     2.002925671486531E-1    5.017768060384005E-1   -3.277723333450444E-3    2.099496691107438E-3   -3.295920486680046E-3    2.132109017976134E-3    3.169568653971590E-1    4.007764254541225E-1
 8.152626716500000E9     2.003656458712871E-1    5.015330989268211E-1   -3.332270213970410E-3    2.092741194873065E-3   -3.305946997487069E-3    2.158966792637880E-3    3.170958029474130E-1    4.006355158564067E-1
 8.152628266550000E9     2.006318593188614E-1    5.015280491237781E-1   -3.310846635474255E-3    2.103814642021242E-3   -3.294433223488972E-3    2.175842165514539E-3    3.170426186662538E-1    4.006522848555475E-1
 8.152629816600000E9     2.008341461080233E-1    5.014885291571102E-1   -3.294435252954443E-3    2.119557306051404E-3   -3.289524925138919E-3    2.191775714462072E-3    3.171871114833819E-1    4.005902197671311E-1
 8.152631366650000E9     2.008306102855112E-1    5.013350887574166E-1   -3.346150632243497E-3    2.149240556595329E-3   -3.344636185101994E-3    2.204060236675011E-3    3.172664704772200E-1    4.004634981855665E-1
 8.152632916700000E9     2.010302144228517E-1    5.012935227157558E-1   -3.327653388803699E-3    2.164216395536793E-3   -3.341817503038073E-3    2.214972304467577E-3    3.174423450332948E-1    4.003956966486183E-1
 8.152634466750000E9     2.010601350659543E-1    5.013053453024542E-1   -3.347443392854739E-3    2.122193815218287E-3   -3.356765100970901E-3    2.214795650073773E-3    3.175094854857622E-1    4.004886736066827E-1
 8.152636016800000E9     2.011911300406325E-1    5.012280143371758E-1   -3.371608118435645E-3    2.126977043756337E-3   -3.350468683233491E-3    2.250996420914832E-3    3.174655076133908E-1    4.002710071707923E-1
 8.152637566850000E9     2.015035475883986E-1    5.012082707365043E-1   -3.350116330672547E-3    2.129686902260839E-3   -3.372573901955415E-3    2.207156854953807E-3    3.175691963187112E-1    4.002036185638574E-1
 8.152639116900000E9     2.015763396884159E-1    5.011024102583047E-1   -3.348430496997094E-3    2.175814700848073E-3   -3.383031491956834E-3    2.232266613439602E-3    3.176808765730822E-1    4.002332371866986E-1
 8.152640666950000E9     2.017694410406820E-1    5.009617218947091E-1   -3.391982900797557E-3    2.169539792127464E-3   -3.387441093021825E-3    2.261008993799206E-3    3.176699368474516E-1    4.001292241058247E-1
 8.152642217000000E9     2.019678965581062E-1    5.007750348204763E-1   -3.374200675733438E-3    2.178365698771369E-3   -3.361223952970608E-3    2.267067267644041E-3    3.178183872089678E-1    4.001076908097099E-1
 8.152643767050000E9     2.021022543634179E-1    5.007572791074009E-1   -3.392850448080339E-3    2.193474940916898E-3   -3.375634806467233E-3    2.251710182591454E-3    3.177929549224304E-1    4.000490261700359E-1
 8.152645317100000E9     2.022055448905007E-1    5.007849526415015E-1   -3.384762427223369E-3    2.212980419187218E-3   -3.404026552028269E-3    2.306442446904941E-3    3.181070987166517E-1    3.999275564069109E-1
 8.152646867150000E9     2.024144206386208E-1    5.007198260124889E-1   -3.403589271541853E-3    2.220548672873063E-3   -3.439816666439530E-3    2.275753867981712E-3    3.181082219345788E-1    3.998090450578982E-1
 8.152648417200000E9     2.025534701696924E-1    5.005895545086251E-1   -3.405711369130829E-3    2.223257767065800E-3   -3.415958851495427E-3    2.304073621197035E-3    3.181721598283869E-1    3.997304360105411E-1
 8.152649967250000E9     2.025527875500517E-1    5.005474272854751E-1   -3.422506692564145E-3    2.244292927575966E-3   -3.409261552570407E-3    2.327170292350078E-3    3.181631385832274E-1    3.997506242121164E-1
 8.152651517300000E9     2.027948121690565E-1    5.003890798506327E-1   -3.443950859269042E-3    2.246712898829791E-3   -3.444008900341138E-3    2.332663619179246E-3    3.183409828226021E-1    3.995560083090542E-1
 8.152653067350000E9     2.029583646216843E-1    5.003565499308780E-1   -3.434504246099995E-3    2.271437175868005E-3   -3.443855842944466E-3    2.350596304416554E-3    3.184894751127270E-1    3.995806128129318E-1
 8.152654617400000E9     2.033150707560076E-1    5.002255001870088E-1   -3.434796786721371E-3    2.275792171770262E-3   -3.464829456078564E-3    2.358037741200779E-3    3.183763346103913E-1    3.996063002049661E-1
 8.152656167450000E9     2.034544810845896E-1    5.001135412155089E-1   -3.460836917495336E-3    2.288066772516492E-3   -3.418492172358606E-3    2.361217904113839E-3    3.184608440206947E-1    3.994932346909715E-1
 8.152657717500000E9     2.036353292529896E-1    5.000690723527762E-1   -3.458455801286144E-3    2.278774260454294E-3   -3.476091132592665E-3    2.367028623043264E-3    3.186589090340729E-1    3.993421442410893E-1
