#  HZ   S   RI   R     50.00 
! Rohde & Schwarz Vector Network Analyzer 
! Rohde-Schwarz,ZNB20-2Port,1311601062101988,3.16
! Created: UTC 3/21/2024, 1:23:12 AM
! freq[Hz]                re:S11                  im:S11                  re:S21                  im:S21                  re:S12                  im:S12                  re:S22                  im:S22
 8.152451146000000E9     1.860356186679140E-1    5.073362348271701E-1   -2.845486351022742E-3    1.593422980288495E-3   -2.850395522033729E-3    1.676719411207247E-3    3.082114406246604E-1    4.077870040867990E-1
 8.152452968825000E9     1.861148788159833E-1    5.072911440328731E-1   -2.845407203858079E-3    1.597638030773203E-3   -2.851276357503206E-3    1.608414369986287E-3    3.083020165945302E-1    4.078353825649221E-1
 8.152454791650000E9     1.863614751964857E-1    5.072473835743152E-1   -2.846418651087630E-3    1.597956375072772E-3   -2.868090661335785E-3    1.662295427319413E-3    3.083731668305489E-1    4.076522044975082E-1
 8.152456614475000E9     1.864852968786035E-1    5.071656187205358E-1   -2.847163083344915E-3    1.593581285497621E-3   -2.862527018529786E-3    1.671820786969330E-3    3.084092724175485E-1    4.076340469711187E-1
 8.152458437300000E9     1.866135250442202E-1    5.071554547172799E-1   -2.861029038575282E-3    1.585063099526467E-3   -2.835662055370828E-3    1.656652684761118E-3    3.084093020055083E-1    4.075823132581740E-1
 8.152460260125000E9     1.869096931709379E-1    5.070592855597974E-1   -2.854135933644079E-3    1.607566857310579E-3   -2.880719617725070E-3    1.664215380101274E-3    3.087537738694683E-1    4.075298325032022E-1
 8.152462082950000E9     1.870264822407344E-1    5.070225984794469E-1   -2.844005066787900E-3    1.593074578698427E-3   -2.874331888078311E-3    1.663851134679066E-3    3.087357827016929E-1    4.073576413124233E-1
 8.152463905775000E9     1.870839235536675E-1    5.068745358780007E-1   -2.846841424094119E-3    1.620184632578621E-3   -2.848474764252900E-3    1.700815728505550E-3    3.087722053515791E-1    4.073386951332708E-1
 8.152465728600000E9     1.872339817343198E-1    5.069435923919192E-1   -2.870503915515605E-3    1.622547645374891E-3   -2.837027557824261E-3    1.666535358440635E-3    3.089371977239679E-1    4.072819914668784E-1
 8.152467551425000E9     1.873786855362357E-1    5.068500308782401E-1   -2.854258368285429E-3    1.600299212384417E-3   -2.866806755004339E-3    1.666338623110479E-3    3.089706539713166E-1    4.071573106278172E-1
 8.152469374250000E9     1.874648970996680E-1    5.067549762390182E-1   -2.867096788734793E-3    1.623411178717460E-3   -2.866497569214291E-3    1.699662517196374E-3    3.091068127749671E-1    4.070853427233785E-1
 8.152471197075000E9     1.876571187588462E-1    5.067418652511519E-1   -2.866826467449058E-3    1.633093441835036E-3   -2.872634598848026E-3    1.692716808607614E-3    3.091405251798157E-1    4.071315437897534E-1
 8.152473019900000E9     1.878601152606884E-1    5.067285662142292E-1   -2.866137641151400E-3    1.664701032977292E-3   -2.899708351533639E-3    1.662766224921507E-3    3.093202342425220E-1    4.069679571987726E-1
 8.152474842725000E9     1.879398363753934E-1    5.067109938948060E-1   -2.906680846942491E-3    1.664624106447206E-3   -2.902441920624145E-3    1.680892585346962E-3    3.093255619630917E-1    4.068969619309954E-1
 8.152476665550000E9     1.881337436042557E-1    5.066403412241242E-1   -2.886614880259233E-3    1.655511871945978E-3   -2.903628261300359E-3    1.710297790636768E-3    3.094300871668361E-1    4.068041839207642E-1
 8.152478488375000E9     1.881852696153052E-1    5.066070619308292E-1   -2.887997966080619E-3    1.673257162815792E-3   -2.911608639916735E-3    1.737301130378892E-3    3.094147182519147E-1    4.068391253292400E-1
 8.152480311200000E9     1.883371227759009E-1    5.064634804560390E-1   -2.896645316342086E-3    1.644956506350807E-3   -2.867083145846783E-3    1.677679119292382E-3    3.094434267088287E-1    4.067496197609241E-1
 8.152482134025000E9     1.885008592617253E-1    5.064574167774438E-1   -2.915968389513207E-3    1.666630388602955E-3   -2.898107514475096E-3    1.729431091219817E-3    3.098195370105588E-1    4.066484214763301E-1
 8.152483956850000E9     1.886574405973489E-1    5.062706161006312E-1   -2.929335031507864E-3    1.643135526684279E-3   -2.899906945394986E-3    1.756019450600211E-3    3.096962762082122E-1    4.065345740683659E-1
 8.152485779675000E9     1.887536788831969E-1    5.064206074540882E-1   -2.916199292651269E-3    1.669506284784329E-3   -2.923967123224948E-3    1.694145018810785E-3    3.098944039000803E-1    4.063865982612331E-1
 8.152487602500000E9     1.890085011416682E-1    5.063054388601318E-1   -2.927375302029350E-3    1.653312627805127E-3   -2.904324118655951E-3    1.715479054000208E-3    3.100451972223593E-1    4.061959091937737E-1
 8.152489425325000E9     1.891447397889782E-1    5.062315882570103E-1   -2.926970093564756E-3    1.663056109410976E-3   -2.929137377731464E-3    1.718950490014655E-3    3.100999617057315E-1    4.062514486549323E-1
 8.152491248150000E9     1.892675662966441E-1    5.061932566284981E-1   -2.927769678825636E-3    1.672882283012019E-3   -2.944638440142647E-3    1.716634930656214E-3    3.102360032989095E-1    4.063107932560754E-1
 8.152493070975000E9     1.893128244027595E-1    5.060499159387735E-1   -2.940289652719284E-3    1.645101375459776E-3   -2.912933822132423E-3    1.711475591757300E-3    3.102521826178702E-1    4.061560272557084E-1
 8.152494893800000E9     1.895035239229330E-1    5.061242560575995E-1   -2.945123606399422E-3    1.675003438099242E-3   -2.922365901090230E-3    1.757139260262540E-3    3.104138629746387E-1    4.062322583722754E-1
 8.152496716625000E9     1.896182789899580E-1    5.060088660749000E-1   -2.934321483442219E-3    1.696494488332281E-3   -2.934911468421132E-3    1.744075127963094E-3    3.104718973910054E-1    4.060803574592452E-1
 8.152498539450000E9     1.897812756862519E-1    5.060339814364798E-1   -2.940663031863374E-3    1.686242699349186E-3   -2.933764751762766E-3    1.765556062514276E-3    3.105791519175899E-1    4.061354010607579E-1
 8.152500362275000E9     1.898625971755926E-1    5.058561386416262E-1   -2.930542084041790E-3    1.682898282271713E-3   -2.975578862199917E-3    1.757885110741325E-3    3.105138137372544E-1    4.059286230942696E-1
 8.152502185100000E9     1.900358970695226E-1    5.058026680098672E-1   -2.952297803461815E-3    1.706448549845444E-3   -2.935981972762054E-3    1.743908848955924E-3    3.105667295853229E-1    4.059365156317618E-1
 8.152504007925000E9     1.901647037206214E-1    5.057637549999749E-1   -2.939554137333215E-3    1.705650759434724E-3   -2.922642868558996E-3    1.738047823313479E-3    3.108269609570755E-1    4.057303617215727E-1
 8.152505830750000E9     1.905057870262165E-1    5.056376890676160E-1   -2.963153230290539E-3    1.742230090481264E-3   -2.950883128258460E-3    1.738775574278287E-3    3.108981077253229E-1    4.057394541949010E-1
 8.152507653575000E9     1.904242516275044E-1    5.055693975119769E-1   -2.935168257521908E-3    1.716869164364854E-3   -2.938283658452020E-3    1.794628059127777E-3    3.109904012568464E-1    4.054844672588881E-1
 8.152509476400000E9     1.905883293157688E-1    5.055603522027928E-1   -2.971761502901008E-3    1.707365689806120E-3   -2.936451610385668E-3    1.769803364726378E-3    3.110670107994171E-1    4.054957133300723E-1
 8.152511299225000E9     1.908354778806503E-1    5.055850748649207E-1   -2.965552477639615E-3    1.709167810831030E-3   -2.996427464891453E-3    1.758236974066997E-3    3.111211230966439E-1    4.055337820255476E-1
 8.152513122050000E9     1.909148487934696E-1    5.054922188374666E-1   -2.940486167427333E-3    1.721330968256187E-3   -2.945741790748038E-3    1.818613250255491E-3    3.112753599529667E-1    4.052997297699925E-1
 8.152514944875000E9     1.910163821747084E-1    5.054276146440235E-1   -2.949530952291791E-3    1.715780899909971E-3   -2.944276315527715E-3    1.796887943834375E-3    3.112962381694242E-1    4.054092389685213E-1
 8.152516767700000E9     1.912134855192653E-1    5.054486135932493E-1   -2.984246540177907E-3    1.746341364306864E-3   -2.970153540864429E-3    1.805458561527232E-3    3.114881463683772E-1    4.052490639071115E-1
 8.152518590525000E9     1.912820363676071E-1    5.053148319616566E-1   -2.977938792605012E-3    1.728758965090043E-3   -2.957546207184978E-3    1.795807302428825E-3    3.115817838593597E-1    4.051429932272761E-1
 8.152520413350000E9     1.914830490208932E-1    5.052948989530420E-1   -2.963023016415714E-3    1.736238753296976E-3   -2.982058814004708E-3    1.778271620589039E-3    3.115508694915244E-1    4.050603570348517E-1
 8.152522236175000E9     1.916749966392072E-1    5.052050812778082E-1   -2.982466784972707E-3    1.763727573181498E-3   -2.956720158814333E-3    1.788263250378937E-3    3.117894095093899E-1    4.050351649743150E-1
 8.152524059000000E9     1.918798229541641E-1    5.052195246957863E-1   -2.970960162291732E-3    1.719564783164333E-3   -2.988425676642883E-3    1.791590864665202E-3    3.117835858487029E-1    4.048328132112111E-1
 8.152525881825000E9     1.920014327802450E-1    5.050830536238107E-1   -3.000877033623545E-3    1.759502345714908E-3   -2.993080327979185E-3    1.802857438096023E-3    3.118657888039200E-1    4.048943849213705E-1
 8.152527704650000E9     1.921897443788845E-1    5.050389157026464E-1   -2.968157914427472E-3    1.760944722503150E-3   -3.011411457234734E-3    1.802335239405958E-3    3.120253291568014E-1    4.049292224873567E-1
 8.152529527475000E9     1.923484092215605E-1    5.050620688869366E-1   -2.999721825915569E-3    1.781183021640656E-3   -3.009687200650311E-3    1.836689384768324E-3    3.120341603317054E-1    4.046384237198067E-1
 8.152531350300000E9     1.924557472395156E-1    5.049429519686480E-1   -2.991584995356960E-3    1.789323150692083E-3   -3.015295142095530E-3    1.841364279798575E-3    3.121139295405261E-1    4.047347480753115E-1
 8.152533173125000E9     1.925326869177936E-1    5.048290223327165E-1   -3.012893929947881E-3    1.783838845032865E-3   -3.014555776532023E-3    1.861331046936806E-3    3.122636674819559E-1    4.045839718410776E-1
 8.152534995950000E9     1.926723386866591E-1    5.048223253846648E-1   -3.033643508227182E-3    1.748488267687921E-3   -3.008354406902483E-3    1.835996009080312E-3    3.124033098503053E-1    4.044343707701488E-1
 8.152536818775000E9     1.927957903645127E-1    5.046996108496059E-1   -3.011456329182112E-3    1.777217683470005E-3   -2.996702695246047E-3    1.820348952953351E-3    3.123769901244473E-1    4.045085158552037E-1
 8.152538641600000E9     1.930759406558867E-1    5.046928436038086E-1   -3.037234301293735E-3    1.811324457351670E-3   -3.028001826445690E-3    1.828312313326779E-3    3.125122696390894E-1    4.043502065616773E-1
 8.152540464425000E9     1.931743985649861E-1    5.047126997374959E-1   -3.048231376392265E-3    1.798808013919353E-3   -3.036509239129862E-3    1.831628445187210E-3    3.127615605036663E-1    4.043390217678741E-1
 8.152542287250000E9     1.934095274811485E-1    5.045523978103440E-1   -3.015736466317287E-3    1.783766085698063E-3   -3.054237860680926E-3    1.846822568727265E-3    3.127308943433456E-1    4.041560377757776E-1
 8.152544110075000E9     1.932868346816380E-1    5.044869614853218E-1   -3.010673401444504E-3    1.816210690097618E-3   -3.040869354689432E-3    1.865364398880462E-3    3.127499738528939E-1    4.041193159150965E-1
 8.152545932900000E9     1.934218480326094E-1    5.044001915475138E-1   -3.045763677385089E-3    1.816883103449677E-3   -3.006449254904842E-3    1.874321006437067E-3    3.130090443370328E-1    4.041321574419491E-1
 8.152547755725000E9     1.936784428062888E-1    5.044285652725896E-1   -3.050594875580799E-3    1.838160742269736E-3   -3.041048715603510E-3    1.861757049404900E-3    3.131162163153363E-1    4.039141057585236E-1
 8.152549578550000E9     1.938575579892457E-1    5.042249659920246E-1   -3.050147484949864E-3    1.826013383468115E-3   -3.065594904789378E-3    1.838802660435538E-3    3.131313282316268E-1    4.039075326061161E-1
 8.152551401375000E9     1.940323660853778E-1    5.042577384598547E-1   -3.073176040453260E-3    1.842851824008078E-3   -3.071492898712368E-3    1.892195629058995E-3    3.131614327092060E-1    4.038999466329335E-1
 8.152553224200000E9     1.942186296430654E-1    5.041860360714839E-1   -3.086513339789355E-3    1.844458751196428E-3   -3.066726770026662E-3    1.909441179070646E-3    3.132074797348137E-1    4.038468211128504E-1
 8.152555047025000E9     1.944501006293270E-1    5.041399442136700E-1   -3.067727210556808E-3    1.841271523513105E-3   -3.066052115792030E-3    1.911511251353052E-3    3.133567688137271E-1    4.037508018143094E-1
 8.152556869850000E9     1.944077116510853E-1    5.040891609617416E-1   -3.061525683021526E-3    1.863609416948998E-3   -3.060939923098141E-3    1.920051113232503E-3    3.135052448321484E-1    4.036583128172948E-1
 8.152558692675000E9     1.946027119813076E-1    5.039747395119720E-1   -3.068067523208751E-3    1.867272200690575E-3   -3.085720022670743E-3    1.892151442575896E-3    3.135252857762027E-1    4.034764321030906E-1
 8.152560515500000E9     1.947795204726103E-1    5.038681890349008E-1   -3.086611093824329E-3    1.851737208880098E-3   -3.073836748101895E-3    1.905675245523819E-3    3.135771306378662E-1    4.035513903673309E-1
 8.152562338325000E9     1.949012956846110E-1    5.038933187657663E-1   -3.083173843293653E-3    1.868854588579273E-3   -3.090122675931793E-3    1.929543695162494E-3    3.137442753027483E-1    4.032320180425152E-1
 8.152564161150000E9     1.951460089115160E-1    5.038674158201498E-1   -3.087521758905417E-3    1.871354158659781E-3   -3.066003902071554E-3    1.908174633348983E-3    3.139181836442207E-1    4.033987735760656E-1
 8.152565983975000E9     1.952445659367079E-1    5.038573410176881E-1   -3.101702516475253E-3    1.889494464827128E-3   -3.086545806701038E-3    1.975160910291770E-3    3.139048306684462E-1    4.034010106586226E-1
 8.152567806800000E9     1.954487173779572E-1    5.037362875895089E-1   -3.080028605987704E-3    1.882532453435592E-3   -3.130182256570855E-3    1.955806224732382E-3    3.140535798729573E-1    4.031847798488440E-1
 8.152569629625000E9     1.956101646875421E-1    5.035835548931075E-1   -3.116605949894648E-3    1.909140741071068E-3   -3.112490810214281E-3    1.945247926598187E-3    3.141072827668532E-1    4.030892604286286E-1
 8.152571452450000E9     1.958059762006163E-1    5.035251691792207E-1   -3.108913386997185E-3    1.879357020790537E-3   -3.122230936764543E-3    1.956456576924032E-3    3.141879106699682E-1    4.030240867457385E-1
 8.152573275275000E9     1.958781690269070E-1    5.034573288114224E-1   -3.111634006548734E-3    1.897212208764665E-3   -3.092573243765281E-3    1.955618099596851E-3    3.143552627305236E-1    4.028975646482377E-1
 8.152575098100000E9     1.959685792900426E-1    5.033462882397657E-1   -3.132527765576044E-3    1.888897298868897E-3   -3.138764005527322E-3    1.967527068537402E-3    3.143091348484869E-1    4.029862642667946E-1
 8.152576920925000E9     1.962597643687500E-1    5.034168820252577E-1   -3.143639851426685E-3    1.921805881793428E-3   -3.130307926379304E-3    1.987949415368677E-3    3.144308576606431E-1    4.028371276724040E-1
 8.152578743750000E9     1.964509960016455E-1    5.033693429927533E-1   -3.148411159132398E-3    1.942008068828253E-3   -3.126836244880580E-3    2.017796171513559E-3    3.145617014130927E-1    4.028669846384690E-1
 8.152580566575000E9     1.964942871444345E-1    5.031803364486299E-1   -3.148440157463213E-3    1.917972988031597E-3   -3.132055805681068E-3    1.985107459593250E-3    3.146060317749299E-1    4.025186982419548E-1
 8.152582389400000E9     1.968012940639994E-1    5.030811880550822E-1   -3.143457152102725E-3    1.932353005336696E-3   -3.157356138738710E-3    2.017854035201674E-3    3.146583525321083E-1    4.026123403016504E-1
 8.152584212225000E9     1.968225395576711E-1    5.030477961461661E-1   -3.145865589222774E-3    1.950396713265413E-3   -3.149044367594990E-3    2.032625037217752E-3    3.148570053950494E-1    4.026496495788587E-1
 8.152586035050000E9     1.969491142804733E-1    5.030440395241543E-1   -3.164255496076285E-3    1.945270153383257E-3   -3.176265081525481E-3    2.013018639311450E-3    3.148616365941571E-1    4.024914708770479E-1
 8.152587857875000E9     1.971668453416758E-1    5.029554391768163E-1   -3.153522602403780E-3    1.935690101386797E-3   -3.182052240711427E-3    2.036409331891997E-3    3.150463090566245E-1    4.022841263815987E-1
 8.152589680700000E9     1.974415768474789E-1    5.028461153621689E-1   -3.196551006449845E-3    1.965331151055281E-3   -3.164375874259509E-3    2.019902004920506E-3    3.151389465915957E-1    4.023757105850187E-1
 8.152591503525000E9     1.974793975472889E-1    5.028419337566193E-1   -3.204315247466085E-3    1.975932724481470E-3   -3.177827861063225E-3    2.028680710183119E-3    3.152101647184289E-1    4.022746528895293E-1
 8.152593326350000E9     1.976604214323038E-1    5.027521925687705E-1   -3.182549187853678E-3    1.985791008603756E-3   -3.175527722795730E-3    2.069579069366255E-3    3.152982839211072E-1    4.020511429904123E-1
 8.152595149175000E9     1.977885641723240E-1    5.025538511954899E-1   -3.196236217352350E-3    2.005206889696961E-3   -3.197517131992425E-3    2.050223604620296E-3    3.154592956481101E-1    4.019584546290823E-1
 8.152596972000000E9     1.978755000541324E-1    5.025725926903345E-1   -3.199124634766568E-3    2.012274333318645E-3   -3.213734177286028E-3    2.087397960565836E-3    3.153828245497818E-1    4.018699558432793E-1
 8.152598794825000E9     1.981282613284242E-1    5.025155296522268E-1   -3.216078753701840E-3    2.013809834560806E-3   -3.195009211925152E-3    2.054390321481509E-3    3.155475325866881E-1    4.020229505071402E-1
 8.152600617650000E9     1.982126075629716E-1    5.024504130751688E-1   -3.212901684949785E-3    2.015323547346959E-3   -3.228979993031342E-3    2.085899688862824E-3    3.157633133924448E-1    4.017596900975421E-1
 8.152602440475000E9     1.984739927686749E-1    5.024167506459938E-1   -3.262556141183602E-3    2.056510495451590E-3   -3.224864581392793E-3    2.100948638792576E-3    3.156397518766416E-1    4.016546271411912E-1
 8.152604263300000E9     1.986223949495247E-1    5.022104243975146E-1   -3.221169123033355E-3    2.031544203074052E-3   -3.240567904206822E-3    2.098771066522296E-3    3.157425417329826E-1    4.015999172480242E-1
 8.152606086125000E9     1.988050202252144E-1    5.021220117766274E-1   -3.235455307101415E-3    2.062091660885785E-3   -3.250346191051150E-3    2.094493562681745E-3    3.158631499103627E-1    4.015666802227010E-1
 8.152607908950000E9     1.988333099669935E-1    5.020882511961473E-1   -3.276805204238163E-3    2.067424746943026E-3   -3.221843589197697E-3    2.138148750242321E-3    3.160803509446393E-1    4.014774849624894E-1
 8.152609731775000E9     1.991461257839789E-1    5.020626946046874E-1   -3.250155877215419E-3    2.073922708592307E-3   -3.259084147734500E-3    2.135465469137889E-3    3.160885337701670E-1    4.015410416198043E-1
 8.152611554600000E9     1.991965090158296E-1    5.018642585746780E-1   -3.261371849727030E-3    2.078494281817338E-3   -3.256572894189522E-3    2.134753782742118E-3    3.163053788678198E-1    4.013653471819010E-1
 8.152613377425000E9     1.995138285069926E-1    5.018956491728513E-1   -3.268466994071954E-3    2.089521599064279E-3   -3.284706041573550E-3    2.182097862639146E-3    3.164133598801286E-1    4.013271137500421E-1
 8.152615200250000E9     1.996601082568194E-1    5.017137891412013E-1   -3.286240864628655E-3    2.086911063358165E-3   -3.267801462332390E-3    2.201171485404007E-3    3.163541544063635E-1    4.012130514179585E-1
