#  HZ   S   RI   R     50.00 
! Rohde & Schwarz Vector Network Analyzer 
! Rohde-Schwarz,ZNB20-2Port,1311601062101988,3.16
! Created: UTC 3/21/2024, 1:23:15 AM
! freq[Hz]                re:S11                  im:S11                  re:S21                  im:S21                  re:S12                  im:S12                  re:S22                  im:S22
 8.152443082000000E9     1.854133205434750E-1    5.074865091295082E-1   -2.858846997668305E-3    1.560900778344118E-3   -2.852596684428159E-3    1.638123197896712E-3    3.076526298513264E-1    4.080251199642924E-1
 8.152444927350000E9     1.855399122863550E-1    5.075209837397283E-1   -2.818226951480037E-3    1.599240303473126E-3   -2.826912411033641E-3    1.607974863937604E-3    3.078125344462256E-1    4.080883398244796E-1
 8.152446772700000E9     1.857525624822187E-1    5.073845709536908E-1   -2.850423549630587E-3    1.572334984691368E-3   -2.859475826783843E-3    1.651594011796141E-3    3.078313008562348E-1    4.080375712834049E-1
 8.152448618050000E9     1.859280387425590E-1    5.073193771420663E-1   -2.820971686675222E-3    1.582669948545814E-3   -2.818069900926395E-3    1.643050266142885E-3    3.079921289056044E-1    4.079792026836084E-1
 8.152450463400000E9     1.860375949578696E-1    5.073342968724900E-1   -2.851190223228542E-3    1.581518294561862E-3   -2.840549632160912E-3    1.684919579917854E-3    3.080410018359560E-1    4.078734956149492E-1
 8.152452308750000E9     1.862815561039405E-1    5.073599155604949E-1   -2.850651806594414E-3    1.566284865702074E-3   -2.845468066948007E-3    1.646991259683138E-3    3.081486853456532E-1    4.078992057945828E-1
 8.152454154100000E9     1.863523924940571E-1    5.071912575753288E-1   -2.856954331792749E-3    1.574118824859547E-3   -2.873833901801081E-3    1.684347637960226E-3    3.083096592053732E-1    4.077458979862555E-1
 8.152455999450000E9     1.865052211950672E-1    5.071821564942540E-1   -2.865524817499228E-3    1.624853731666763E-3   -2.840825627498368E-3    1.661996617601639E-3    3.083737086174128E-1    4.076537423667351E-1
 8.152457844800000E9     1.866976515544628E-1    5.070984853263104E-1   -2.854703479976111E-3    1.599821397944762E-3   -2.855773546686805E-3    1.660015293455093E-3    3.085371107484027E-1    4.075996349215792E-1
 8.152459690150000E9     1.867762758212256E-1    5.070741702519177E-1   -2.868936519617947E-3    1.618646937858950E-3   -2.870305697178120E-3    1.669623385255376E-3    3.086846906136285E-1    4.075973374036090E-1
 8.152461535500000E9     1.868631497682472E-1    5.070277250627481E-1   -2.865253439766939E-3    1.620041999980019E-3   -2.856511329805378E-3    1.685008973097548E-3    3.086830130623509E-1    4.074475080918732E-1
 8.152463380850000E9     1.869871411859106E-1    5.070177347866321E-1   -2.885657690168784E-3    1.618398427220240E-3   -2.878340365754409E-3    1.651017967892392E-3    3.087615947438452E-1    4.074247029203097E-1
 8.152465226200000E9     1.871549412283801E-1    5.068765681384602E-1   -2.870236487144538E-3    1.645467167729494E-3   -2.883847437790161E-3    1.687575136582218E-3    3.088686558009317E-1    4.072418914158314E-1
 8.152467071550000E9     1.874045861956591E-1    5.068596595097282E-1   -2.878399500491023E-3    1.610331517164782E-3   -2.848314695471459E-3    1.676747238126814E-3    3.088507961425739E-1    4.072792834530524E-1
 8.152468916900000E9     1.873807058435091E-1    5.067128979597499E-1   -2.906924859222715E-3    1.636979857498133E-3   -2.854133822336607E-3    1.689059553396436E-3    3.091772638262689E-1    4.072019691696007E-1
 8.152470762250000E9     1.876762053011380E-1    5.067837312727919E-1   -2.869092604431873E-3    1.642688793948561E-3   -2.881330424270365E-3    1.667741203649565E-3    3.092583929263786E-1    4.070122735923133E-1
 8.152472607600000E9     1.878325768334499E-1    5.067057628468621E-1   -2.907466351275516E-3    1.635331178115325E-3   -2.842009639804576E-3    1.676671826492963E-3    3.092984701027263E-1    4.070527307232862E-1
 8.152474452950000E9     1.877725010586830E-1    5.065964350156844E-1   -2.864201747472965E-3    1.636985815027243E-3   -2.895259341460872E-3    1.697718237398192E-3    3.092708639480986E-1    4.069805785306885E-1
 8.152476298300000E9     1.880918315999545E-1    5.065971337463322E-1   -2.878967159570441E-3    1.650685094820945E-3   -2.876121835991734E-3    1.673902645471001E-3    3.094231743240839E-1    4.068054834457155E-1
 8.152478143650000E9     1.882556382148468E-1    5.065695109704809E-1   -2.889853205657565E-3    1.633026728373812E-3   -2.920290984660069E-3    1.696117375007681E-3    3.094174375775363E-1    4.068372537891399E-1
 8.152479989000000E9     1.882573463153875E-1    5.065736479048747E-1   -2.897758099553743E-3    1.633170461517311E-3   -2.886619741958345E-3    1.707780432136626E-3    3.096230107063639E-1    4.067669601277435E-1
 8.152481834350000E9     1.884507267414807E-1    5.063974687555938E-1   -2.906136989761901E-3    1.630630429840533E-3   -2.899370913187746E-3    1.709686254426721E-3    3.096561323434904E-1    4.065460550876510E-1
 8.152483679700000E9     1.885297517446597E-1    5.063861488253401E-1   -2.906515616632845E-3    1.652168626390536E-3   -2.946421949345400E-3    1.703684255237820E-3    3.096907237096513E-1    4.066310817996799E-1
 8.152485525050000E9     1.888336724577916E-1    5.062869266853181E-1   -2.904412580783229E-3    1.666811982534304E-3   -2.904868447301253E-3    1.726118938939554E-3    3.098749209192438E-1    4.064551405134906E-1
 8.152487370400000E9     1.889693907181022E-1    5.062073689932733E-1   -2.906123884122478E-3    1.665535664666823E-3   -2.940755947590161E-3    1.723439943348930E-3    3.099854500696725E-1    4.063713213593761E-1
 8.152489215750000E9     1.890555527556465E-1    5.062520583271913E-1   -2.919025037722415E-3    1.693675220379037E-3   -2.920755191340023E-3    1.739513702451384E-3    3.100666286758069E-1    4.062936275100837E-1
 8.152491061100000E9     1.891741734654325E-1    5.062188322694545E-1   -2.920644894998750E-3    1.675312001719392E-3   -2.927258904775206E-3    1.703349040272640E-3    3.100758531404293E-1    4.062539913418173E-1
 8.152492906450000E9     1.893969931954576E-1    5.061483370150660E-1   -2.927738592336079E-3    1.686744230651867E-3   -2.910701551315674E-3    1.718449369670998E-3    3.102123329102367E-1    4.062259096614048E-1
 8.152494751800000E9     1.894282449285324E-1    5.060206436032832E-1   -2.929793782004445E-3    1.695173354440417E-3   -2.924287746049143E-3    1.748111593140337E-3    3.103434903846056E-1    4.060807001804848E-1
 8.152496597150000E9     1.897268396538991E-1    5.060777974645703E-1   -2.951439316536588E-3    1.675508406566396E-3   -2.974330244329602E-3    1.754165360063609E-3    3.103672873194259E-1    4.061871298583813E-1
 8.152498442500000E9     1.899423555843078E-1    5.058120341367781E-1   -2.945971120945419E-3    1.692460444173364E-3   -2.963182335484007E-3    1.777570835835698E-3    3.105380265021442E-1    4.060403648405381E-1
 8.152500287850000E9     1.898317397284275E-1    5.058966423631526E-1   -2.914541171565304E-3    1.699896433503982E-3   -2.943364047144523E-3    1.735799107046597E-3    3.105696911864738E-1    4.059145640325062E-1
 8.152502133200000E9     1.900949687850805E-1    5.057992954869408E-1   -2.932825226624874E-3    1.723742703450193E-3   -2.943960117658484E-3    1.721612069721951E-3    3.106236259666043E-1    4.056937408949846E-1
 8.152503978550000E9     1.902350374820045E-1    5.057616646025400E-1   -2.970283892756246E-3    1.711689472734141E-3   -2.936157655123529E-3    1.762481047568293E-3    3.108073005630730E-1    4.058080291497465E-1
 8.152505823900000E9     1.903885907573938E-1    5.056637052404250E-1   -2.966886701635761E-3    1.691619544821571E-3   -2.961732209258299E-3    1.751742012817193E-3    3.109156329381558E-1    4.057845502604472E-1
 8.152507669250000E9     1.905211097085951E-1    5.055922257780836E-1   -2.937833558146517E-3    1.719997349072611E-3   -2.942444789520971E-3    1.774471138143285E-3    3.109470459711914E-1    4.054838568652661E-1
 8.152509514600000E9     1.906178809274296E-1    5.056372472475881E-1   -2.951201054300759E-3    1.725809038028607E-3   -2.971669673401192E-3    1.779696974115270E-3    3.111305719938247E-1    4.054298106730976E-1
 8.152511359950000E9     1.908381826454514E-1    5.054071982820807E-1   -2.950766274467586E-3    1.718959912059153E-3   -2.939023488782505E-3    1.800818379273734E-3    3.110702768675820E-1    4.054258895990936E-1
 8.152513205300000E9     1.909602690272530E-1    5.054566753111983E-1   -2.953490464003558E-3    1.728013030437503E-3   -2.963355088163301E-3    1.759540317777710E-3    3.110909386463178E-1    4.054133421150732E-1
 8.152515050650000E9     1.910410582653935E-1    5.054431588309876E-1   -2.970263711273769E-3    1.712924881580856E-3   -2.970933650030462E-3    1.812958715520187E-3    3.113096481655997E-1    4.054229117235778E-1
 8.152516896000000E9     1.911851732280665E-1    5.053557724212354E-1   -2.980820435128835E-3    1.717380259172827E-3   -2.992553086656255E-3    1.812107626598178E-3    3.114430073767204E-1    4.055175384403024E-1
 8.152518741350000E9     1.913136900015362E-1    5.052502476522271E-1   -2.962273850085763E-3    1.743422348535741E-3   -2.979751556223282E-3    1.798508113608137E-3    3.115341351785980E-1    4.051762161399187E-1
 8.152520586700000E9     1.915979543208407E-1    5.052761360458561E-1   -2.958895180088431E-3    1.732347076894263E-3   -2.968168010800062E-3    1.789177739016407E-3    3.115617278639934E-1    4.050808711146313E-1
 8.152522432050000E9     1.916022265304897E-1    5.051443419451541E-1   -2.984045088358975E-3    1.762111376673258E-3   -2.993152318431476E-3    1.828530052909531E-3    3.117565095112309E-1    4.049985783650379E-1
 8.152524277400000E9     1.919219407275616E-1    5.049722156517017E-1   -2.962439657609436E-3    1.737325541983478E-3   -2.977435340494842E-3    1.817979825491690E-3    3.117351511797480E-1    4.050169073384149E-1
 8.152526122750000E9     1.919868973027354E-1    5.050375527614597E-1   -2.998230360910129E-3    1.742877215744692E-3   -3.000380692839601E-3    1.799914715629812E-3    3.118201765009332E-1    4.048623047559298E-1
 8.152527968100000E9     1.921062037816066E-1    5.049756718311482E-1   -3.021267498162536E-3    1.756840272463452E-3   -3.010060362976399E-3    1.841281315437781E-3    3.120072250141886E-1    4.047939905051868E-1
 8.152529813450000E9     1.923419077287336E-1    5.050186504473211E-1   -3.019964712193352E-3    1.791556630289260E-3   -3.014479829571896E-3    1.820040209897802E-3    3.121837823273741E-1    4.047526688378303E-1
 8.152531658800000E9     1.924300866843862E-1    5.049412897754559E-1   -3.029313865620397E-3    1.757837536769618E-3   -3.015015247833780E-3    1.850272048783622E-3    3.121628674228660E-1    4.046448487423016E-1
 8.152533504150000E9     1.926204243442657E-1    5.048176643923020E-1   -3.006784737702563E-3    1.785236685866137E-3   -3.013362184971539E-3    1.818125558410418E-3    3.122037335652322E-1    4.046397180815935E-1
 8.152535349500000E9     1.926785674222742E-1    5.047605515376116E-1   -3.013282448785091E-3    1.800693686501154E-3   -3.029885050082455E-3    1.854123008711732E-3    3.124813874468133E-1    4.044128743595994E-1
 8.152537194850000E9     1.929830464259301E-1    5.046971302716003E-1   -3.019916664983696E-3    1.786299849640916E-3   -3.047877225797207E-3    1.869054616791701E-3    3.124381964754945E-1    4.044448138795910E-1
 8.152539040200000E9     1.930298594172172E-1    5.046315259015758E-1   -3.021892152669585E-3    1.831502786819721E-3   -3.017249180759877E-3    1.872404611194211E-3    3.125887968847871E-1    4.042760747535973E-1
 8.152540885550000E9     1.932126409128439E-1    5.045091562433583E-1   -2.998814495886305E-3    1.798144279758569E-3   -3.024986789152685E-3    1.895616740395744E-3    3.126631598937295E-1    4.043793928816631E-1
 8.152542730900000E9     1.933775413578311E-1    5.045607618154772E-1   -3.021638555842954E-3    1.814762627702150E-3   -3.025653851175483E-3    1.876050073034786E-3    3.128071802483562E-1    4.042033852010197E-1
 8.152544576250000E9     1.935252809061006E-1    5.045407849176701E-1   -3.059560918199643E-3    1.809529889434725E-3   -3.060086051418349E-3    1.869149525860718E-3    3.128398527790341E-1    4.042127846269432E-1
 8.152546421600000E9     1.937076496808393E-1    5.042982494260370E-1   -3.061748500495866E-3    1.786098786504234E-3   -3.030994827632485E-3    1.862941559276496E-3    3.128693228494285E-1    4.040529782496143E-1
 8.152548266950000E9     1.938536630751952E-1    5.042464356642133E-1   -3.070471610790299E-3    1.853139649514257E-3   -3.061038901585105E-3    1.860130236386660E-3    3.129977101167180E-1    4.039794993133471E-1
 8.152550112300000E9     1.939017976050949E-1    5.042480716816889E-1   -3.069691986108616E-3    1.833741716126749E-3   -3.063620996186419E-3    1.909428217515720E-3    3.130176911810741E-1    4.038685032645913E-1
 8.152551957650000E9     1.941651717777337E-1    5.042572246947640E-1   -3.066395434533190E-3    1.851368111374000E-3   -3.038194276710084E-3    1.917221951359798E-3    3.131579790510694E-1    4.040158939302829E-1
 8.152553803000000E9     1.942738724337700E-1    5.041224152356910E-1   -3.069649879108513E-3    1.840287965739927E-3   -3.053049724560599E-3    1.911312152043297E-3    3.132316928328245E-1    4.036927584772359E-1
 8.152555648350000E9     1.944355245092290E-1    5.039583156487510E-1   -3.056596848212524E-3    1.830234483911543E-3   -3.061307051083778E-3    1.894763395338397E-3    3.133988353782972E-1    4.037311769799365E-1
 8.152557493700000E9     1.945272666741745E-1    5.040362217534236E-1   -3.092976944757207E-3    1.866379071654366E-3   -3.077578741161179E-3    1.917536947728677E-3    3.134059107618289E-1    4.036942037257132E-1
 8.152559339050000E9     1.946734633998304E-1    5.039345568081589E-1   -3.074127181777625E-3    1.873568604032713E-3   -3.077240239210277E-3    1.916877974930932E-3    3.135636175727411E-1    4.035248103696691E-1
 8.152561184400000E9     1.949053237163494E-1    5.037721052020027E-1   -3.091576255997000E-3    1.880506912264125E-3   -3.096874956285410E-3    1.919762921263278E-3    3.136287933800877E-1    4.034594775698108E-1
 8.152563029750000E9     1.950078029312853E-1    5.037709532551746E-1   -3.085729659363263E-3    1.891051595960868E-3   -3.110176597958399E-3    1.942302027738080E-3    3.138414239942323E-1    4.034050111533943E-1
 8.152564875100000E9     1.953051127770116E-1    5.037846974620960E-1   -3.073477650005015E-3    1.915387112022963E-3   -3.129073338613243E-3    1.948203925780817E-3    3.136799302769318E-1    4.031926119095499E-1
 8.152566720450000E9     1.952493804256050E-1    5.036681480011201E-1   -3.124168083735258E-3    1.889194806351242E-3   -3.098211750242641E-3    1.937682409399031E-3    3.139618570846256E-1    4.032825696410856E-1
 8.152568565800000E9     1.955457273304730E-1    5.036174586454635E-1   -3.127377685621512E-3    1.899265420019343E-3   -3.108082689100150E-3    1.953679763400956E-3    3.140082066430299E-1    4.032761763263196E-1
 8.152570411150000E9     1.956905185658598E-1    5.034445394954622E-1   -3.099914463792072E-3    1.898242134170326E-3   -3.111707454573742E-3    1.960615795785177E-3    3.141532108025765E-1    4.031574840804131E-1
 8.152572256500000E9     1.958684922396694E-1    5.034899234858879E-1   -3.121893291448060E-3    1.912782663107290E-3   -3.127865742650658E-3    1.962835312168819E-3    3.141165706365470E-1    4.030109573582344E-1
 8.152574101850000E9     1.959941981190698E-1    5.032176817171454E-1   -3.129725772835635E-3    1.927461422389711E-3   -3.147841653797534E-3    1.991910187914221E-3    3.141913219524261E-1    4.029312097248634E-1
 8.152575947200000E9     1.960958656151488E-1    5.033336929840438E-1   -3.157135684041048E-3    1.956888191606943E-3   -3.154527418977178E-3    1.971066311595218E-3    3.142889929831465E-1    4.027910970650480E-1
 8.152577792550000E9     1.963277125263463E-1    5.032836423427721E-1   -3.129876832992047E-3    1.923029489562715E-3   -3.131147450612119E-3    1.995497587932769E-3    3.143722145436140E-1    4.028790346142987E-1
 8.152579637900000E9     1.963670829641332E-1    5.032305204040189E-1   -3.134620442111062E-3    1.945482597076641E-3   -3.171922942330028E-3    1.992768430445523E-3    3.145067096774757E-1    4.026408671669819E-1
 8.152581483250000E9     1.965692919415224E-1    5.030532430702020E-1   -3.133618729418494E-3    1.948618967420651E-3   -3.150680681308476E-3    2.007320687279348E-3    3.146328359967134E-1    4.025995054723628E-1
 8.152583328600000E9     1.968268361506752E-1    5.030188476247655E-1   -3.158012441306299E-3    1.938181071235069E-3   -3.151423084630375E-3    2.014380279353041E-3    3.147256551538254E-1    4.025330935900804E-1
 8.152585173950000E9     1.968789105068983E-1    5.029900377969405E-1   -3.189915143573723E-3    1.967240395561664E-3   -3.200659137334374E-3    1.998546820796519E-3    3.149028854847166E-1    4.024206303878456E-1
 8.152587019300000E9     1.969729884043859E-1    5.029226179794346E-1   -3.159535410781885E-3    1.966012592220354E-3   -3.203239351052666E-3    2.021659741156970E-3    3.148495964405043E-1    4.025217941829893E-1
 8.152588864650000E9     1.972527369265959E-1    5.028964574447634E-1   -3.167557852665091E-3    1.978704266462789E-3   -3.154352785628572E-3    2.056582397333515E-3    3.150535868613970E-1    4.022350797400288E-1
 8.152590710000000E9     1.975169914935971E-1    5.028282928056352E-1   -3.186714113573245E-3    1.992961617756049E-3   -3.152610186571172E-3    2.039447549811782E-3    3.151597799192167E-1    4.020929709012370E-1
 8.152592555350000E9     1.975487701839714E-1    5.027728401875421E-1   -3.203699918042597E-3    1.993567117724852E-3   -3.190773259194002E-3    2.081637310626124E-3    3.151663923600972E-1    4.021537828709183E-1
 8.152594400700000E9     1.978122959531170E-1    5.027252738996982E-1   -3.199379386385876E-3    2.006420944836102E-3   -3.188499318648963E-3    2.073043324380797E-3    3.152422791501538E-1    4.021669579738451E-1
 8.152596246050000E9     1.978593944457800E-1    5.024841180884112E-1   -3.207222183469991E-3    2.034964175934186E-3   -3.204247303499771E-3    2.079114659918415E-3    3.153541583594734E-1    4.020764648118570E-1
 8.152598091400000E9     1.981047817165053E-1    5.023543863642995E-1   -3.186248293013738E-3    2.006038250659912E-3   -3.213258150236752E-3    2.076552718075633E-3    3.155047667561106E-1    4.017891743344028E-1
 8.152599936750000E9     1.982661475482226E-1    5.024219514586126E-1   -3.217006433590545E-3    2.021304166228174E-3   -3.242223733420225E-3    2.112509990836369E-3    3.155804153461228E-1    4.018756674152058E-1
 8.152601782100000E9     1.982826006159930E-1    5.022342093329331E-1   -3.252321318610468E-3    2.013343147553877E-3   -3.242938442703961E-3    2.088941632377233E-3    3.156951269363333E-1    4.018539901686434E-1
 8.152603627450000E9     1.985148908492338E-1    5.021571171521697E-1   -3.234744833796544E-3    2.054292655182153E-3   -3.254957875484196E-3    2.089490740366630E-3    3.157780963511716E-1    4.017963233659749E-1
 8.152605472800000E9     1.986813409252739E-1    5.022481608322964E-1   -3.245576745570588E-3    2.050337392692099E-3   -3.254484297413195E-3    2.123577771090631E-3    3.157547388394035E-1    4.015912198055693E-1
 8.152607318150000E9     1.988631403602356E-1    5.020367193848423E-1   -3.227313583080146E-3    2.071832754164387E-3   -3.287738553678094E-3    2.122110437327781E-3    3.158705303135065E-1    4.015362144295511E-1
 8.152609163500000E9     1.990448569200759E-1    5.019636124748431E-1   -3.245733478500427E-3    2.075367544013075E-3   -3.269245819890851E-3    2.114826470277762E-3    3.160580491040839E-1    4.013558726756073E-1
