#  HZ   S   RI   R     50.00 
! Rohde & Schwarz Vector Network Analyzer 
! Rohde-Schwarz,ZNB20-2Port,1311601062101988,3.16
! Created: UTC 3/21/2024, 1:23:22 AM
! freq[Hz]                re:S11                  im:S11                  re:S21                  im:S21                  re:S12                  im:S12                  re:S22                  im:S22
 8.152418932000000E9     1.835828937758795E-1    5.082390269599545E-1   -2.808584474888452E-3    1.568143132962766E-3   -2.805642118942268E-3    1.624657797176811E-3    3.063896783780384E-1    4.091363236138538E-1
 8.152420863975000E9     1.837148066104389E-1    5.082668177559253E-1   -2.822808952265804E-3    1.561794486331765E-3   -2.784471386490595E-3    1.605301644587621E-3    3.064459602308887E-1    4.090631245670601E-1
 8.152422795950000E9     1.838738265670352E-1    5.081235427755478E-1   -2.827540770349513E-3    1.545328678157015E-3   -2.820580086628712E-3    1.601373933836764E-3    3.066425121649815E-1    4.090361384763530E-1
 8.152424727925000E9     1.840800547910845E-1    5.078947848296076E-1   -2.816331714582059E-3    1.552418688420371E-3   -2.831650395203725E-3    1.613761614025851E-3    3.066081699992459E-1    4.090294930808667E-1
 8.152426659900000E9     1.842282817460601E-1    5.079863727637369E-1   -2.820666889371769E-3    1.572332021353454E-3   -2.845274885777307E-3    1.631065949721253E-3    3.066790544835546E-1    4.089210502524707E-1
 8.152428591875000E9     1.843374742554710E-1    5.079053923957250E-1   -2.826475216435528E-3    1.568206594974604E-3   -2.820471218060225E-3    1.590773207212454E-3    3.069028057471309E-1    4.088678633112390E-1
 8.152430523850000E9     1.845562201442642E-1    5.078244507491927E-1   -2.862707664974958E-3    1.554374606997494E-3   -2.862796168236754E-3    1.645239457250043E-3    3.069554343076575E-1    4.087016243830253E-1
 8.152432455825000E9     1.846298223460753E-1    5.078654800464492E-1   -2.844750169008827E-3    1.558828387510876E-3   -2.847159969205717E-3    1.628947859515607E-3    3.070064273861950E-1    4.086062377732885E-1
 8.152434387800000E9     1.848605519085269E-1    5.077185000160370E-1   -2.838944593712034E-3    1.597285636274578E-3   -2.848249455549338E-3    1.645854769747463E-3    3.073241519060619E-1    4.086589994162622E-1
 8.152436319775000E9     1.849246099859984E-1    5.076009097188151E-1   -2.812859053788206E-3    1.565422208123940E-3   -2.810647113153933E-3    1.606725829594414E-3    3.072743647746360E-1    4.085399192667143E-1
 8.152438251750000E9     1.851404862665812E-1    5.076841055255741E-1   -2.849149598567274E-3    1.593608226601613E-3   -2.848856261919272E-3    1.624527891183547E-3    3.074348656744534E-1    4.083536370249636E-1
 8.152440183725000E9     1.852641843480509E-1    5.075640765406346E-1   -2.868097049154166E-3    1.578017331826189E-3   -2.825846273063170E-3    1.650869593189490E-3    3.076020437095683E-1    4.084054449596119E-1
 8.152442115700000E9     1.853900785995544E-1    5.074826936465460E-1   -2.836708389919675E-3    1.596332916546806E-3   -2.855666590736980E-3    1.675267837712845E-3    3.077218251770776E-1    4.083581608564358E-1
 8.152444047675000E9     1.855765877543692E-1    5.075226632183623E-1   -2.869829713357656E-3    1.572776485247567E-3   -2.832324633272008E-3    1.623659837657737E-3    3.077216467271046E-1    4.082306520059553E-1
 8.152445979650000E9     1.856550099661767E-1    5.073734191874839E-1   -2.853604705330690E-3    1.603076109349884E-3   -2.845493903063177E-3    1.627216247168813E-3    3.078783817377134E-1    4.082221459642848E-1
 8.152447911625000E9     1.858867560593622E-1    5.073720254189320E-1   -2.844748737052325E-3    1.600518838514854E-3   -2.872516809090797E-3    1.661758844717494E-3    3.078772287782561E-1    4.080739595976820E-1
 8.152449843600000E9     1.859778085959712E-1    5.072899136743730E-1   -2.849710232604906E-3    1.606786746994673E-3   -2.866902602866564E-3    1.684576341406908E-3    3.080220910804585E-1    4.079667832417177E-1
 8.152451775575000E9     1.861258437694550E-1    5.072947128017983E-1   -2.871798346808818E-3    1.617243402661511E-3   -2.866701739386978E-3    1.646675050125912E-3    3.080172057557014E-1    4.077845500232494E-1
 8.152453707550000E9     1.863757942084111E-1    5.071957701604646E-1   -2.855962331031051E-3    1.606968410212336E-3   -2.866600734998636E-3    1.632108867467959E-3    3.081637899269059E-1    4.078728575855206E-1
 8.152455639525000E9     1.864531613645487E-1    5.071983062045262E-1   -2.852653031340838E-3    1.636360001795535E-3   -2.864953905050744E-3    1.662483699498963E-3    3.083021959977702E-1    4.076868590428021E-1
 8.152457571500000E9     1.867057753212382E-1    5.070295636894315E-1   -2.880969184323552E-3    1.617741621270251E-3   -2.870077527653929E-3    1.680526197648647E-3    3.083472062646007E-1    4.078217377023621E-1
 8.152459503475000E9     1.867372227138260E-1    5.070594909442038E-1   -2.862423648151330E-3    1.608844362631045E-3   -2.853007270371490E-3    1.669592498827189E-3    3.085773671835624E-1    4.074907850262749E-1
 8.152461435450000E9     1.869073147843523E-1    5.070261246812416E-1   -2.848402883419862E-3    1.624951484471659E-3   -2.868036751029602E-3    1.707070294854707E-3    3.086632450770639E-1    4.075062021977495E-1
 8.152463367425000E9     1.870535409410375E-1    5.069129859690764E-1   -2.860555867544677E-3    1.640287321804802E-3   -2.868858724441079E-3    1.669434760323607E-3    3.087561032417299E-1    4.074697711390922E-1
 8.152465299400000E9     1.872328324300923E-1    5.068766930862019E-1   -2.874715709582707E-3    1.655747155972853E-3   -2.890535513258043E-3    1.683283660775111E-3    3.087208651432855E-1    4.074346002324565E-1
 8.152467231375000E9     1.873135450132871E-1    5.067226624699037E-1   -2.886520009348205E-3    1.650560014520391E-3   -2.867352089013243E-3    1.666539808218914E-3    3.088951824714230E-1    4.072717586444147E-1
 8.152469163350000E9     1.876048710410315E-1    5.067050968299561E-1   -2.881076534183549E-3    1.637810891204839E-3   -2.893074684616108E-3    1.717432125755679E-3    3.087847023730648E-1    4.071752714955221E-1
 8.152471095325000E9     1.876485727969713E-1    5.066387071519386E-1   -2.895961967915868E-3    1.636221194901779E-3   -2.891357786737096E-3    1.685356115081701E-3    3.091626602057154E-1    4.070816604851341E-1
 8.152473027300000E9     1.878084675196237E-1    5.065534643088971E-1   -2.916462570496776E-3    1.669710723499725E-3   -2.894606465627475E-3    1.708336263548383E-3    3.092049291983577E-1    4.070893487663724E-1
 8.152474959275000E9     1.878452700917012E-1    5.065669640855174E-1   -2.902439543603931E-3    1.641881218386407E-3   -2.918049565342612E-3    1.723955658128086E-3    3.093036411289394E-1    4.070121224625842E-1
 8.152476891250000E9     1.880643097468943E-1    5.064252676138976E-1   -2.889812594106823E-3    1.680045067283613E-3   -2.896594552075781E-3    1.699965131886175E-3    3.092576834125516E-1    4.069271507579393E-1
 8.152478823225000E9     1.883278621571577E-1    5.065002063523706E-1   -2.902733762775167E-3    1.679458921521941E-3   -2.908947197078797E-3    1.717814745672651E-3    3.094288280091403E-1    4.067785509553764E-1
 8.152480755200000E9     1.883973026296585E-1    5.063632042784558E-1   -2.904550036332713E-3    1.672073199343263E-3   -2.905111734176006E-3    1.715901618747934E-3    3.094304839738773E-1    4.066765597798648E-1
 8.152482687175000E9     1.885683812158669E-1    5.063207510219701E-1   -2.927961285926806E-3    1.691433576690088E-3   -2.917679502683960E-3    1.752305627972370E-3    3.097034236019997E-1    4.066759504749334E-1
 8.152484619150000E9     1.887011523688515E-1    5.064147876075825E-1   -2.935550333550782E-3    1.672882915236908E-3   -2.955580253533134E-3    1.724420491275414E-3    3.098026201639997E-1    4.065610378444772E-1
 8.152486551125000E9     1.890025643125883E-1    5.062756016733873E-1   -2.910336359127016E-3    1.682235136532655E-3   -2.935006915207853E-3    1.728824810234282E-3    3.097484206159437E-1    4.064444039608739E-1
 8.152488483100000E9     1.890178455838727E-1    5.062062603503298E-1   -2.930592530070438E-3    1.673116056140755E-3   -2.936687521025376E-3    1.732619058395923E-3    3.099279622876625E-1    4.063775795574166E-1
 8.152490415075000E9     1.891853251448789E-1    5.060264163019909E-1   -2.937362900051273E-3    1.682597027487969E-3   -2.940542738781884E-3    1.731743115575485E-3    3.100606468048050E-1    4.064453550237457E-1
 8.152492347050000E9     1.892447272814348E-1    5.060072129542036E-1   -2.933449813234916E-3    1.665174812996509E-3   -2.948223262636905E-3    1.727919353549187E-3    3.099947861120453E-1    4.063316144539863E-1
 8.152494279025000E9     1.894169419625734E-1    5.059125593930561E-1   -2.904374668768753E-3    1.692406194133878E-3   -2.926594239877688E-3    1.729170249953448E-3    3.100201908531856E-1    4.062080726301911E-1
 8.152496211000000E9     1.896187154211026E-1    5.059659516352790E-1   -2.943203384422106E-3    1.700245458553169E-3   -2.956954438492597E-3    1.788198623263293E-3    3.103068704810271E-1    4.061235439397215E-1
 8.152498142975000E9     1.897188385778321E-1    5.058696558708453E-1   -2.940065113269385E-3    1.696787854110951E-3   -2.927934126688483E-3    1.758018469434862E-3    3.104353221581584E-1    4.062272806599032E-1
 8.152500074950000E9     1.898811478976471E-1    5.058682043624695E-1   -2.931728150542117E-3    1.705719784040851E-3   -2.951723158961307E-3    1.772799542836026E-3    3.106929744776963E-1    4.059778464978698E-1
 8.152502006925000E9     1.900132748193587E-1    5.057417077276702E-1   -2.965738649889323E-3    1.736433170413282E-3   -2.920781298658229E-3    1.767559613671382E-3    3.105950304411706E-1    4.060296326560238E-1
 8.152503938900000E9     1.902833196065437E-1    5.057487294919848E-1   -2.965106809645160E-3    1.721589527389939E-3   -2.943262930756643E-3    1.775241302416224E-3    3.107694208664052E-1    4.058477875274458E-1
 8.152505870875000E9     1.903534949015195E-1    5.056014890746082E-1   -2.960817863847301E-3    1.745907055197220E-3   -2.973806549012922E-3    1.778133640789269E-3    3.108300593704127E-1    4.058110706731859E-1
 8.152507802850000E9     1.905976877189766E-1    5.056227817556884E-1   -2.969635864727261E-3    1.733358974372606E-3   -2.972799317108716E-3    1.784426373715555E-3    3.107774437132066E-1    4.058651982522275E-1
 8.152509734825000E9     1.906927266961206E-1    5.055218725820692E-1   -2.939558453518108E-3    1.714766200687020E-3   -2.958569076128984E-3    1.762132195909978E-3    3.109897616043507E-1    4.055400406752864E-1
 8.152511666800000E9     1.907914443510750E-1    5.055212032538896E-1   -2.977467683273531E-3    1.733339958240852E-3   -2.988311268248677E-3    1.786307699568405E-3    3.111385754419148E-1    4.055443294618566E-1
 8.152513598775000E9     1.910206986670368E-1    5.052546739107788E-1   -2.973323005670438E-3    1.778917720128436E-3   -3.000252993860655E-3    1.786344728177909E-3    3.111637245010885E-1    4.054595761222473E-1
 8.152515530750000E9     1.911095614766300E-1    5.054134483878825E-1   -2.989218885314508E-3    1.753846961602301E-3   -2.972693166059583E-3    1.818086390048399E-3    3.113216498169408E-1    4.054737215000134E-1
 8.152517462725000E9     1.912658744777101E-1    5.052597427112550E-1   -2.995270915143873E-3    1.757116897732203E-3   -2.975204273620229E-3    1.823083494129365E-3    3.114541614029155E-1    4.052307185124564E-1
 8.152519394700000E9     1.915385672218337E-1    5.051845087838575E-1   -3.000064509160142E-3    1.778340497471591E-3   -2.997961611894116E-3    1.797667922674126E-3    3.115396002945068E-1    4.052088898107246E-1
 8.152521326675000E9     1.915623287956205E-1    5.051294741440345E-1   -2.983203030615252E-3    1.784760179304769E-3   -2.995322947826570E-3    1.827366487330745E-3    3.114816683262205E-1    4.051610528607434E-1
 8.152523258650000E9     1.916594148201451E-1    5.050319186835519E-1   -3.001227480481900E-3    1.782085301047057E-3   -3.009785103218723E-3    1.839021564668625E-3    3.116720106455758E-1    4.050044991116541E-1
 8.152525190625000E9     1.918105299490568E-1    5.050109459418598E-1   -3.018451875607010E-3    1.747376693747769E-3   -3.021434627036836E-3    1.817466719075450E-3    3.117899905851506E-1    4.049707260085109E-1
 8.152527122600000E9     1.920292823160315E-1    5.049245104164963E-1   -3.009987640484546E-3    1.765183689852675E-3   -3.000542873756520E-3    1.842045437433886E-3    3.119214236998039E-1    4.049010204029553E-1
 8.152529054575000E9     1.923033610288293E-1    5.048784136250424E-1   -3.009299894820675E-3    1.778964572952620E-3   -2.996832230197040E-3    1.837908741797505E-3    3.119654085311741E-1    4.049125610167652E-1
 8.152530986550000E9     1.922436386269760E-1    5.048094885807771E-1   -3.013497628165161E-3    1.778375139970785E-3   -3.032006941139435E-3    1.850692324090515E-3    3.121081324910837E-1    4.047595202076710E-1
 8.152532918525000E9     1.925539327591332E-1    5.047355546903188E-1   -3.005403601218859E-3    1.790725144263765E-3   -3.041842187571891E-3    1.854025291430889E-3    3.121327491043389E-1    4.047623504659016E-1
 8.152534850500000E9     1.927203634456589E-1    5.047919307396620E-1   -3.027819559414042E-3    1.801759182433512E-3   -3.004462539085912E-3    1.863863686864178E-3    3.122879972676373E-1    4.045309228211296E-1
 8.152536782475000E9     1.928235295292450E-1    5.046458579680518E-1   -3.040690978811862E-3    1.810162452825740E-3   -3.040634979557752E-3    1.886198666288084E-3    3.122868335235429E-1    4.045878483333477E-1
 8.152538714450000E9     1.930457210871281E-1    5.046290000276746E-1   -3.047222095028536E-3    1.821663264581588E-3   -3.047575378177647E-3    1.860838764213664E-3    3.123654587228480E-1    4.044572008997187E-1
 8.152540646425000E9     1.931729734987504E-1    5.044009834237987E-1   -3.035348575258319E-3    1.803985062687345E-3   -3.040764286030880E-3    1.856331557243672E-3    3.124714295745091E-1    4.044544783169184E-1
 8.152542578400000E9     1.933442895966281E-1    5.045166550112044E-1   -3.057699844340238E-3    1.836477306942234E-3   -3.032989046509017E-3    1.896499312982824E-3    3.125540516459377E-1    4.042803980421549E-1
 8.152544510375000E9     1.934914725043300E-1    5.044590399258903E-1   -3.066544092041642E-3    1.820093645474440E-3   -3.040508597363475E-3    1.893832381319983E-3    3.126765496495508E-1    4.041230554273906E-1
 8.152546442350000E9     1.936319078449726E-1    5.042752192707903E-1   -3.047253537083163E-3    1.822741144835067E-3   -3.068251145450072E-3    1.871614662427655E-3    3.127021178591183E-1    4.041729714190196E-1
 8.152548374325000E9     1.938488509931280E-1    5.042357506942500E-1   -3.058334929915961E-3    1.855301787710676E-3   -3.077834726614897E-3    1.921718663788999E-3    3.130124122319239E-1    4.040351262672576E-1
 8.152550306300000E9     1.940140124569664E-1    5.041823109368795E-1   -3.073607708298877E-3    1.874041739865526E-3   -3.069304016163992E-3    1.915517706164066E-3    3.129119709984114E-1    4.040113896016149E-1
 8.152552238275000E9     1.941353027885281E-1    5.041029710449966E-1   -3.079847796567533E-3    1.864504822439031E-3   -3.052954260732393E-3    1.934335828162328E-3    3.131788719474403E-1    4.038407775757190E-1
 8.152554170250000E9     1.941746998342759E-1    5.040711551546100E-1   -3.069499008659330E-3    1.868113802735885E-3   -3.083160188592291E-3    1.929950620763890E-3    3.131387715550712E-1    4.037728143695321E-1
 8.152556102225000E9     1.944910593809038E-1    5.040348750085039E-1   -3.082201527435345E-3    1.874992082510802E-3   -3.055783157023600E-3    1.927830447895436E-3    3.132674836674378E-1    4.036386687353166E-1
 8.152558034200000E9     1.946036466933004E-1    5.039414134029125E-1   -3.089337736023651E-3    1.886881382326347E-3   -3.081638864563878E-3    1.933203401798235E-3    3.133905918889635E-1    4.035213359579797E-1
 8.152559966175000E9     1.948044727546428E-1    5.037724921057859E-1   -3.094516506805537E-3    1.904757120339858E-3   -3.125686765136358E-3    1.909020048650723E-3    3.134321708791989E-1    4.035125007443437E-1
 8.152561898150000E9     1.948149263505922E-1    5.037588008061261E-1   -3.115435450819254E-3    1.923159783389858E-3   -3.119349436679154E-3    1.941902082837499E-3    3.136234876574279E-1    4.035201664215862E-1
 8.152563830125000E9     1.951344721215313E-1    5.037240945567151E-1   -3.108313680720261E-3    1.899641295755214E-3   -3.112022049859845E-3    1.971241790900058E-3    3.135571530170538E-1    4.034376735982234E-1
 8.152565762100000E9     1.953480738839555E-1    5.036303604498070E-1   -3.127995196057003E-3    1.913140337828956E-3   -3.086550905547901E-3    1.975057597113554E-3    3.137622243803998E-1    4.033720367447096E-1
 8.152567694075000E9     1.954311261514458E-1    5.035899370249063E-1   -3.122010656543084E-3    1.883646325256827E-3   -3.105793185268090E-3    1.969384397736672E-3    3.138831675691846E-1    4.032584140844064E-1
 8.152569626050000E9     1.955828083999813E-1    5.036531370700594E-1   -3.122185674978559E-3    1.906470903852043E-3   -3.123465540355044E-3    1.979780355700299E-3    3.140430932709125E-1    4.032848450896187E-1
 8.152571558025000E9     1.957104712147635E-1    5.033834736436846E-1   -3.115791226965747E-3    1.947116799979333E-3   -3.135944802769005E-3    1.979733506909664E-3    3.141553604263959E-1    4.030287682059451E-1
 8.152573490000000E9     1.958584682492812E-1    5.034456130235895E-1   -3.150696459619349E-3    1.949527311862894E-3   -3.138419298851060E-3    1.984931351742961E-3    3.141699098597380E-1    4.030158059688448E-1
 8.152575421975000E9     1.960709039694231E-1    5.032261356484756E-1   -3.132238789056417E-3    1.942156324690070E-3   -3.179862022591036E-3    2.032346429753984E-3    3.142000140494225E-1    4.027931164193521E-1
 8.152577353950000E9     1.962515064673421E-1    5.032006102746006E-1   -3.155865316165314E-3    1.964983854830119E-3   -3.175072482377639E-3    2.013141146521921E-3    3.144681515600034E-1    4.030051344070193E-1
 8.152579285925000E9     1.964791493957246E-1    5.031892836723789E-1   -3.157452589850078E-3    1.998967505372993E-3   -3.146193305687183E-3    2.027245224656411E-3    3.144091927961187E-1    4.026741726039412E-1
 8.152581217900000E9     1.966335907767501E-1    5.030236332832656E-1   -3.144787524979655E-3    1.972676738421959E-3   -3.157030830949831E-3    2.061250896673565E-3    3.145722276815227E-1    4.028133370238337E-1
 8.152583149875000E9     1.968282147878192E-1    5.030167505891354E-1   -3.170029484871633E-3    1.958652846124532E-3   -3.166079764429672E-3    2.011454790996213E-3    3.146673229936395E-1    4.027533890875536E-1
 8.152585081850000E9     1.968844334718417E-1    5.029567671579579E-1   -3.190542179275072E-3    1.994927645661169E-3   -3.179719606289358E-3    2.037294441482585E-3    3.146273325340234E-1    4.025258625078360E-1
 8.152587013825000E9     1.971088938299413E-1    5.029057545030132E-1   -3.183899511993459E-3    1.982757508254215E-3   -3.195144518297379E-3    2.043911784026621E-3    3.148269531789782E-1    4.024154781709419E-1
 8.152588945800000E9     1.972693825378067E-1    5.027392354486622E-1   -3.222140306563653E-3    2.013490605563056E-3   -3.220855357272077E-3    2.060821707712002E-3    3.148897071681742E-1    4.023661599164746E-1
 8.152590877775000E9     1.975308888684578E-1    5.027434553211401E-1   -3.217665448630301E-3    1.993414632975575E-3   -3.197666979447899E-3    2.055181059323186E-3    3.150779848111404E-1    4.023432899560560E-1
 8.152592809750000E9     1.976386607044129E-1    5.026106175394091E-1   -3.198480252193788E-3    2.019365994164926E-3   -3.233332091874918E-3    2.103498649959658E-3    3.151380635194598E-1    4.020962059597558E-1
