#  HZ   S   RI   R     50.00 
! Rohde & Schwarz Vector Network Analyzer 
! Rohde-Schwarz,ZNB20-2Port,1311601062101988,3.16
! Created: UTC 3/21/2024, 1:23:38 AM
! freq[Hz]                re:S11                  im:S11                  re:S21                  im:S21                  re:S12                  im:S12                  re:S22                  im:S22
 8.152440003000000E9     1.848971100944274E-1    5.077172011189236E-1   -2.825477746649820E-3    1.570603854458350E-3   -2.780242645379931E-3    1.618902447517986E-3    3.072891139843076E-1    4.082955038025856E-1
 8.152441895325000E9     1.851118865315998E-1    5.076146034669364E-1   -2.818131627556411E-3    1.573591016441700E-3   -2.796911358463689E-3    1.615027015144033E-3    3.075528282243803E-1    4.082083314780885E-1
 8.152443787650000E9     1.853300360214975E-1    5.075620659833133E-1   -2.816365430357519E-3    1.575917814480194E-3   -2.832436090130994E-3    1.632521667741992E-3    3.076231601081010E-1    4.080984412816419E-1
 8.152445679975000E9     1.853472778637591E-1    5.076098402815604E-1   -2.829530919147579E-3    1.579973479035542E-3   -2.833253488935685E-3    1.643015563652585E-3    3.076543825658715E-1    4.081798005706236E-1
 8.152447572300000E9     1.855354000687884E-1    5.073260887205356E-1   -2.819942993165100E-3    1.570999487438732E-3   -2.855058642492067E-3    1.636955693522710E-3    3.078985413636603E-1    4.080851877171237E-1
 8.152449464625000E9     1.856760242324133E-1    5.073157699799280E-1   -2.828586803344317E-3    1.591229014711963E-3   -2.853570534288642E-3    1.653156264699908E-3    3.079871175538005E-1    4.080155192588097E-1
 8.152451356950000E9     1.858410004288120E-1    5.073543188141487E-1   -2.818802279263313E-3    1.599318079599935E-3   -2.821051422869174E-3    1.629014120305633E-3    3.079663899170127E-1    4.079972473648499E-1
 8.152453249275000E9     1.860539558352583E-1    5.072919903105330E-1   -2.821821970444126E-3    1.587993117532453E-3   -2.856535026518205E-3    1.645339642054352E-3    3.081192241935703E-1    4.078250998195773E-1
 8.152455141600000E9     1.862161025100776E-1    5.071779052054727E-1   -2.821162438121281E-3    1.599233290899039E-3   -2.860487352281802E-3    1.640404111820676E-3    3.081380688369013E-1    4.075461550673466E-1
 8.152457033925000E9     1.862009074786978E-1    5.071063249832196E-1   -2.864463676124263E-3    1.582492765232222E-3   -2.854495034046999E-3    1.654877993917908E-3    3.083444890972682E-1    4.075930493324343E-1
 8.152458926250000E9     1.864580864480194E-1    5.071179334915278E-1   -2.843602222725111E-3    1.586540964243032E-3   -2.868135914495777E-3    1.631463331236571E-3    3.084748507842773E-1    4.075529857557466E-1
 8.152460818575000E9     1.866198399815498E-1    5.070713544119578E-1   -2.855978703698166E-3    1.597775708813877E-3   -2.825840815772934E-3    1.626581863689082E-3    3.084968293461079E-1    4.075650225945570E-1
 8.152462710900000E9     1.868494742696338E-1    5.070447536489024E-1   -2.835858601473978E-3    1.601651037001249E-3   -2.865172861327600E-3    1.695625590782157E-3    3.085994160278968E-1    4.075071008134699E-1
 8.152464603225000E9     1.868136162531226E-1    5.069768939601799E-1   -2.857459811560017E-3    1.599453477362050E-3   -2.856377645350244E-3    1.661045408666058E-3    3.087183094290776E-1    4.075661943282787E-1
 8.152466495550000E9     1.870368490908599E-1    5.069955713332771E-1   -2.856512761812285E-3    1.608999945713651E-3   -2.828915307315251E-3    1.617608588194966E-3    3.087987425260538E-1    4.074887145627091E-1
 8.152468387875000E9     1.870928250966112E-1    5.069298658189388E-1   -2.875855405108645E-3    1.594598122388047E-3   -2.874716557452068E-3    1.666798569558892E-3    3.088324251542613E-1    4.073386918369055E-1
 8.152470280200000E9     1.872736081583376E-1    5.067772726376303E-1   -2.873388889043072E-3    1.623196133983339E-3   -2.865244305190700E-3    1.672969120663578E-3    3.089583128922800E-1    4.071313886559862E-1
 8.152472172525000E9     1.874448524841029E-1    5.068153259791873E-1   -2.882373104792836E-3    1.619015475674831E-3   -2.853173956652086E-3    1.692319448030248E-3    3.090230295298720E-1    4.070908019314239E-1
 8.152474064850000E9     1.876426657534731E-1    5.066772315994991E-1   -2.856958887252447E-3    1.610662300079408E-3   -2.838045306542913E-3    1.693692221135950E-3    3.092523332819095E-1    4.069887333468892E-1
 8.152475957175000E9     1.877606286510740E-1    5.066562992526383E-1   -2.872190304479946E-3    1.619783194781793E-3   -2.892066473514928E-3    1.657095448136354E-3    3.093994777517866E-1    4.069647563471456E-1
 8.152477849500000E9     1.879199480532338E-1    5.066180139383709E-1   -2.869943439858020E-3    1.635201986409094E-3   -2.880048184088213E-3    1.702756061217446E-3    3.093457731690499E-1    4.068171564624962E-1
 8.152479741825000E9     1.879843033546500E-1    5.064791865163960E-1   -2.904679418726056E-3    1.630184413620527E-3   -2.884476915966121E-3    1.688821453257758E-3    3.095215244642956E-1    4.068312405033245E-1
 8.152481634150000E9     1.881402663131837E-1    5.065278601328929E-1   -2.893477182967264E-3    1.616497840867646E-3   -2.886753041833315E-3    1.680805700569570E-3    3.095272270713596E-1    4.067295293646401E-1
 8.152483526475000E9     1.882777604445574E-1    5.064161368575659E-1   -2.867351181278286E-3    1.634448190984403E-3   -2.873737615869074E-3    1.687939915165146E-3    3.096350248750920E-1    4.066650557183681E-1
 8.152485418800000E9     1.885120274435149E-1    5.064029645855974E-1   -2.885843881561029E-3    1.638150529761543E-3   -2.899742827437237E-3    1.686039409566184E-3    3.098750147626638E-1    4.065982634026791E-1
 8.152487311125000E9     1.885932250852095E-1    5.063775205738182E-1   -2.904528079386807E-3    1.647770144275005E-3   -2.900610857155030E-3    1.726491310340470E-3    3.098633867181645E-1    4.064816444167084E-1
 8.152489203450000E9     1.886661416546876E-1    5.063341737391899E-1   -2.899965521980662E-3    1.649281907651941E-3   -2.881979623690841E-3    1.717178115996442E-3    3.099630413291112E-1    4.063424031744891E-1
 8.152491095775000E9     1.889035907721245E-1    5.063572464228955E-1   -2.890011028473928E-3    1.685857278224543E-3   -2.908101920455906E-3    1.683196672740206E-3    3.100103466025417E-1    4.063291948877253E-1
 8.152492988100000E9     1.890268529009409E-1    5.061121708762721E-1   -2.920786532224061E-3    1.640517511542764E-3   -2.899196224619068E-3    1.716563018374048E-3    3.101586489075174E-1    4.062537736005706E-1
 8.152494880425000E9     1.891171113241760E-1    5.061096921994438E-1   -2.880981015543622E-3    1.668071653807319E-3   -2.881548519788452E-3    1.710309314073857E-3    3.101653153399979E-1    4.061851649344536E-1
 8.152496772750000E9     1.893763082810445E-1    5.061067794360874E-1   -2.908940180862850E-3    1.671542579525079E-3   -2.911107083985120E-3    1.710944340313105E-3    3.104038229386071E-1    4.060565421784526E-1
 8.152498665075000E9     1.894110886851362E-1    5.060630774948749E-1   -2.929408267508917E-3    1.678475563181727E-3   -2.907307132316573E-3    1.712148025087932E-3    3.105147503071807E-1    4.059932023185120E-1
 8.152500557400000E9     1.895341462555100E-1    5.059360217485792E-1   -2.944698386790366E-3    1.641881771034544E-3   -2.904660099412701E-3    1.725436781699876E-3    3.104746671337775E-1    4.059203259472375E-1
 8.152502449725000E9     1.897197489240599E-1    5.058638333718021E-1   -2.922672078790631E-3    1.667297991296572E-3   -2.915439155781280E-3    1.738035628073740E-3    3.107245251603076E-1    4.058901301922228E-1
 8.152504342050000E9     1.898316095970209E-1    5.058358042730313E-1   -2.924169192987931E-3    1.679033947786269E-3   -2.929443274392054E-3    1.741027184211301E-3    3.107006514577218E-1    4.059020577333756E-1
 8.152506234375000E9     1.901324309449325E-1    5.057482641600677E-1   -2.944686841752301E-3    1.721341049750333E-3   -2.936030127499876E-3    1.720522417863844E-3    3.108476590931986E-1    4.057330995215505E-1
 8.152508126700000E9     1.902653940122563E-1    5.056935796169103E-1   -2.930671432737150E-3    1.693721526612879E-3   -2.947147829256284E-3    1.748503029196823E-3    3.108799677523080E-1    4.056035511196359E-1
 8.152510019025000E9     1.903067253881334E-1    5.056699016934574E-1   -2.963325984899057E-3    1.710206157755536E-3   -2.943242404454431E-3    1.763673922951176E-3    3.110489112786094E-1    4.055058581010894E-1
 8.152511911350000E9     1.905920404746051E-1    5.056223932985954E-1   -2.933084096037747E-3    1.695555161544002E-3   -2.944074912169740E-3    1.731101141172111E-3    3.110940868711548E-1    4.055384012218468E-1
 8.152513803675000E9     1.906304813266943E-1    5.056034361408801E-1   -2.938782979267207E-3    1.719398326584569E-3   -2.956803996224297E-3    1.780316857832409E-3    3.113118084173432E-1    4.054752299219991E-1
 8.152515696000000E9     1.907801074549085E-1    5.054612090711499E-1   -2.948273972439776E-3    1.725408239383015E-3   -2.919366727940415E-3    1.782012655269366E-3    3.113606488976919E-1    4.053668449593869E-1
 8.152517588325000E9     1.908838101270571E-1    5.053436577227617E-1   -2.956652513254294E-3    1.720432288250819E-3   -2.940175118622153E-3    1.776746876644975E-3    3.112159596684117E-1    4.053624667066609E-1
 8.152519480650000E9     1.910433929317625E-1    5.053120272402756E-1   -2.962729984096376E-3    1.707133481505075E-3   -2.960983610094123E-3    1.777131072346331E-3    3.115258999266584E-1    4.053400742254031E-1
 8.152521372975000E9     1.913231492718999E-1    5.053279194984763E-1   -2.986530744201280E-3    1.704473365017680E-3   -2.961048176329696E-3    1.787228422333110E-3    3.114964940391879E-1    4.051782190814808E-1
 8.152523265300000E9     1.914565564089951E-1    5.052772557465514E-1   -2.951995798510854E-3    1.711894203091255E-3   -2.971571165548379E-3    1.766698305486641E-3    3.117007268782232E-1    4.049280783877666E-1
 8.152525157625000E9     1.916268721399403E-1    5.052783745874594E-1   -2.959457639279483E-3    1.746487381312297E-3   -2.985428010508064E-3    1.779352123260540E-3    3.118347566228292E-1    4.050000010894186E-1
 8.152527049950000E9     1.916882129937854E-1    5.052454959304060E-1   -2.979942176429926E-3    1.736873283196203E-3   -2.955384193658929E-3    1.784830908782914E-3    3.117924728906018E-1    4.048718634684168E-1
 8.152528942275000E9     1.918433515975848E-1    5.049799378529054E-1   -2.971887101814698E-3    1.750789327136008E-3   -2.966294429276859E-3    1.783921983185419E-3    3.119180709097932E-1    4.046888766099224E-1
 8.152530834600000E9     1.919688816078677E-1    5.050966576181241E-1   -2.980633712174894E-3    1.726034102155035E-3   -2.975655292452749E-3    1.787952539285465E-3    3.118908797803069E-1    4.047160441129319E-1
 8.152532726925000E9     1.921151056482809E-1    5.048007114078358E-1   -2.996772054359525E-3    1.778134895162813E-3   -2.995462530984199E-3    1.800054580371217E-3    3.121174208218634E-1    4.049075378385538E-1
 8.152534619250000E9     1.922882491623176E-1    5.048105384189387E-1   -3.011422749915098E-3    1.771032570214113E-3   -2.976258613017849E-3    1.821231475821877E-3    3.122500005791066E-1    4.045749701982692E-1
 8.152536511575000E9     1.925361998663239E-1    5.048333407881876E-1   -2.978506423134457E-3    1.787710237517901E-3   -3.000658664410910E-3    1.791502421970772E-3    3.122503495192931E-1    4.044559958876246E-1
 8.152538403900000E9     1.926320578159199E-1    5.046795481015226E-1   -2.998316432237311E-3    1.770804000199239E-3   -2.995819659869228E-3    1.853530043162830E-3    3.122514413656433E-1    4.044667552501667E-1
 8.152540296225000E9     1.927290031679134E-1    5.047193616141843E-1   -2.992358137930317E-3    1.795270586975285E-3   -3.017739425537856E-3    1.857496928595403E-3    3.126144678545740E-1    4.044261897325483E-1
 8.152542188550000E9     1.928587992239736E-1    5.046637192386638E-1   -3.023617018141265E-3    1.794168409103666E-3   -2.987146181587670E-3    1.826435192484300E-3    3.125751307557576E-1    4.043201276702814E-1
 8.152544080875000E9     1.929652700859926E-1    5.046339002393128E-1   -3.015289896305596E-3    1.775548018242090E-3   -3.021194411026273E-3    1.874079443494105E-3    3.128237377236525E-1    4.041148429232534E-1
 8.152545973200000E9     1.931676648778402E-1    5.045210690918533E-1   -3.009697571429889E-3    1.787922170948198E-3   -3.035479330637557E-3    1.839765627329243E-3    3.126431062353519E-1    4.041095642382387E-1
 8.152547865525000E9     1.933877414297843E-1    5.045457160614121E-1   -3.006456463529347E-3    1.781481204933674E-3   -3.009141690405590E-3    1.868316686259081E-3    3.127480198733587E-1    4.041884033879582E-1
 8.152549757850000E9     1.935754716900246E-1    5.043920961750399E-1   -3.043295155108899E-3    1.788333331174457E-3   -3.021552315334888E-3    1.893043659097916E-3    3.130254272780324E-1    4.039298481391946E-1
 8.152551650175000E9     1.936273688467475E-1    5.043836396678140E-1   -3.025982026890639E-3    1.823333005922214E-3   -3.046605328825012E-3    1.848933196221476E-3    3.129492587380751E-1    4.038362048901581E-1
 8.152553542500000E9     1.938528579789343E-1    5.042627161706950E-1   -3.061160999893602E-3    1.827051573148372E-3   -3.063168649090506E-3    1.834972506171733E-3    3.131935915081939E-1    4.037883884788155E-1
 8.152555434825000E9     1.940870244385170E-1    5.041807656868359E-1   -3.040853268612840E-3    1.828307165213193E-3   -3.055361366585275E-3    1.885300378833907E-3    3.132652511911524E-1    4.038335701564398E-1
 8.152557327150000E9     1.942053659602341E-1    5.041838422925498E-1   -3.030067236148876E-3    1.847480909674564E-3   -3.059252306461969E-3    1.873026005856083E-3    3.134371264240449E-1    4.036558537812063E-1
 8.152559219475000E9     1.944188051513012E-1    5.041632978256064E-1   -3.057427287743151E-3    1.836443151137985E-3   -3.039678853095645E-3    1.892050450619165E-3    3.133851257022984E-1    4.036591909602468E-1
 8.152561111800000E9     1.944622347430373E-1    5.039861610027015E-1   -3.069655625430578E-3    1.824625984401632E-3   -3.065638921778431E-3    1.884949714623848E-3    3.135099691289905E-1    4.035839161947068E-1
 8.152563004125000E9     1.946860517554090E-1    5.040192401862462E-1   -3.073643006978384E-3    1.833672956303869E-3   -3.081665678604159E-3    1.867730276397439E-3    3.136644494602814E-1    4.033851358367079E-1
 8.152564896450000E9     1.948046258801281E-1    5.038554488443094E-1   -3.060053768021928E-3    1.841295692448529E-3   -3.031117875806347E-3    1.910481020025230E-3    3.137984672821451E-1    4.034008869266701E-1
 8.152566788775000E9     1.949688190950636E-1    5.039229102694790E-1   -3.050812054414098E-3    1.843024276022768E-3   -3.074435906466662E-3    1.902965304475934E-3    3.139576911857380E-1    4.032060827843034E-1
 8.152568681100000E9     1.950353136758422E-1    5.036704907257130E-1   -3.084833526136106E-3    1.871655051337278E-3   -3.066925466921378E-3    1.919390037651492E-3    3.139873110355845E-1    4.031678779355088E-1
 8.152570573425000E9     1.952332851035793E-1    5.037239390353090E-1   -3.077985980405549E-3    1.882035521607311E-3   -3.086189304484089E-3    1.940393302173620E-3    3.140862975308199E-1    4.031640906201658E-1
 8.152572465750000E9     1.954505952238973E-1    5.035736468543186E-1   -3.107094082070028E-3    1.877059306136853E-3   -3.087108066717795E-3    1.959396374887947E-3    3.141462170512568E-1    4.030281881081983E-1
 8.152574358075000E9     1.956679420094633E-1    5.035548096424364E-1   -3.073179587593663E-3    1.877428990725634E-3   -3.097933792150769E-3    1.964020283977103E-3    3.142216328378213E-1    4.030392908519863E-1
 8.152576250400000E9     1.957617710891420E-1    5.034613884809903E-1   -3.124619865609412E-3    1.885354555346314E-3   -3.129369912148964E-3    1.963774311953988E-3    3.142627519173515E-1    4.028869133222404E-1
 8.152578142725000E9     1.958082804404588E-1    5.035547399365263E-1   -3.098452326096905E-3    1.895030448977723E-3   -3.102343424931908E-3    1.946520101046687E-3    3.144286685990773E-1    4.028665945889757E-1
 8.152580035050000E9     1.959652896154812E-1    5.034330778419518E-1   -3.109033748952181E-3    1.893992635169338E-3   -3.095161771155270E-3    1.970138665843247E-3    3.144522364449316E-1    4.027801520820137E-1
 8.152581927375000E9     1.961989618433931E-1    5.032126590937487E-1   -3.135570055938732E-3    1.912015189551215E-3   -3.120237179383837E-3    1.956953668601885E-3    3.145801584724098E-1    4.026181724919471E-1
 8.152583819700000E9     1.964810908350207E-1    5.031630872314039E-1   -3.134342189272824E-3    1.930718755659116E-3   -3.141613234901143E-3    1.946376209510002E-3    3.146096606857950E-1    4.026280339519052E-1
 8.152585712025000E9     1.965158961883441E-1    5.032091607223527E-1   -3.130760907940254E-3    1.925008068808607E-3   -3.147685222592102E-3    1.961286991456059E-3    3.146817015877909E-1    4.025031062591267E-1
 8.152587604350000E9     1.966303196433312E-1    5.031006821340288E-1   -3.135944066387568E-3    1.912352760485783E-3   -3.140314482065927E-3    1.975054224758348E-3    3.148604506147609E-1    4.025296125453879E-1
 8.152589496675000E9     1.968295909669327E-1    5.030339454774603E-1   -3.119188998647998E-3    1.984691599445626E-3   -3.151311253655324E-3    2.006021824162029E-3    3.149182541249940E-1    4.022459546579412E-1
 8.152591389000000E9     1.969564794751789E-1    5.030068037078055E-1   -3.134795431126546E-3    1.951634587830309E-3   -3.149696804367503E-3    1.973485564383196E-3    3.150431847380140E-1    4.022566849612020E-1
 8.152593281325000E9     1.971576257387658E-1    5.028072105839292E-1   -3.161871150841346E-3    1.951927737740704E-3   -3.158925994562988E-3    2.052158473138958E-3    3.152200689317470E-1    4.022175134482444E-1
 8.152595173650000E9     1.974021439922014E-1    5.028140358612213E-1   -3.162817729250295E-3    1.984626941076041E-3   -3.159685013336348E-3    2.004089129962900E-3    3.153240414794919E-1    4.021188235511446E-1
 8.152597065975000E9     1.975963585327926E-1    5.027023047118468E-1   -3.168589909761264E-3    1.970229723266175E-3   -3.207788572313905E-3    1.998416642108420E-3    3.154013342659185E-1    4.021368609071282E-1
 8.152598958300000E9     1.976719286664595E-1    5.026637629716091E-1   -3.188123120575477E-3    1.969435526250435E-3   -3.204056864080083E-3    2.028619604073400E-3    3.154874935760728E-1    4.019088498714251E-1
 8.152600850625000E9     1.979066060397016E-1    5.025236957159182E-1   -3.185928302421056E-3    1.977653547421037E-3   -3.147994136926076E-3    2.068709591017559E-3    3.154869684914644E-1    4.018447154379316E-1
 8.152602742950000E9     1.979962920693164E-1    5.024306278625451E-1   -3.188617473879723E-3    1.988037648061760E-3   -3.198655957344788E-3    2.023838519504521E-3    3.156626481819980E-1    4.018499957564287E-1
 8.152604635275000E9     1.980888629903909E-1    5.023842353027370E-1   -3.196758073708473E-3    2.008805477345855E-3   -3.192872446881195E-3    2.040918793430400E-3    3.156491410269234E-1    4.018135717396356E-1
 8.152606527600000E9     1.983155097419373E-1    5.024180695936464E-1   -3.221404114446507E-3    1.997454818618402E-3   -3.228858961592109E-3    2.067666555917017E-3    3.158540060443494E-1    4.014890096573418E-1
 8.152608419925000E9     1.985475170208552E-1    5.022652505369044E-1   -3.193881356963820E-3    2.035881762001836E-3   -3.203960851400583E-3    2.069722336689163E-3    3.159041516575908E-1    4.017133843157160E-1
 8.152610312250000E9     1.987049707935500E-1    5.021409746069699E-1   -3.222674280962411E-3    2.042687553498939E-3   -3.196735057020892E-3    2.098380108424280E-3    3.159565880763223E-1    4.015577712777243E-1
