#  HZ   S   RI   R     50.00 
! Rohde & Schwarz Vector Network Analyzer 
! Rohde-Schwarz,ZNB20-2Port,1311601062101988,3.16
! Created: UTC 3/21/2024, 1:24:00 AM
! freq[Hz]                re:S11                  im:S11                  re:S21                  im:S21                  re:S12                  im:S12                  re:S22                  im:S22
 8.152540794000000E9     1.919553269582012E-1    5.051544740074484E-1   -2.970241773080694E-3    1.703463420917987E-3   -2.950081171587318E-3    1.755109741139406E-3    3.121366164597338E-1    4.044629550773923E-1
 8.152542372250000E9     1.920691857401241E-1    5.051548843979994E-1   -2.918691106989291E-3    1.708049819562515E-3   -2.953259776883891E-3    1.784449010302579E-3    3.122179248957963E-1    4.042771033649214E-1
 8.152543950500000E9     1.922377295711571E-1    5.050726188890241E-1   -2.914943821953995E-3    1.716776202903425E-3   -2.960594255965689E-3    1.783815296754260E-3    3.124094767391994E-1    4.041831795423628E-1
 8.152545528750000E9     1.922499511760438E-1    5.050362929705211E-1   -2.938056353495878E-3    1.703197200563152E-3   -2.936345050128083E-3    1.761578460031491E-3    3.124788044519457E-1    4.042061761402215E-1
 8.152547107000000E9     1.924618392771284E-1    5.049370613344331E-1   -2.927570706881594E-3    1.697034136612916E-3   -2.961148259264711E-3    1.744874074608580E-3    3.125606365185357E-1    4.040081049634843E-1
 8.152548685250000E9     1.926548647710689E-1    5.048008758044025E-1   -2.961734829087162E-3    1.718321340597986E-3   -2.935744095147581E-3    1.769453276631119E-3    3.126312181409595E-1    4.042255252681243E-1
 8.152550263500000E9     1.928064275116210E-1    5.048733458237700E-1   -2.958045271635279E-3    1.700512248016366E-3   -2.939634484624541E-3    1.763596753800046E-3    3.126249614900019E-1    4.040202902802422E-1
 8.152551841750000E9     1.928463069578620E-1    5.047966034022480E-1   -2.973603462670300E-3    1.724345262937214E-3   -2.990979792197106E-3    1.780374898320845E-3    3.128234309982055E-1    4.039151301867021E-1
 8.152553420000000E9     1.929795401382040E-1    5.046087797837184E-1   -2.990549119706719E-3    1.735706832111722E-3   -2.971603184222810E-3    1.748870652625712E-3    3.128819394704246E-1    4.038391327680800E-1
 8.152554998250000E9     1.931223836844004E-1    5.046967632626650E-1   -2.955741478295640E-3    1.713335297761469E-3   -2.976734589010907E-3    1.785178656004831E-3    3.129551706662016E-1    4.037896564274863E-1
 8.152556576500000E9     1.932967308880450E-1    5.047241541718770E-1   -2.989908398628756E-3    1.733708100102241E-3   -2.981641576825114E-3    1.786838577022293E-3    3.129106555099324E-1    4.037967672142952E-1
 8.152558154750000E9     1.934098615515252E-1    5.045165983295891E-1   -2.961400580477751E-3    1.739319310486005E-3   -2.984923282444081E-3    1.792380020591966E-3    3.130395192104498E-1    4.037278071974792E-1
 8.152559733000000E9     1.935283267859835E-1    5.045321915423199E-1   -2.985392877411878E-3    1.738235253355713E-3   -2.967958522783700E-3    1.799688193707230E-3    3.131119338557903E-1    4.037096032125000E-1
 8.152561311250000E9     1.937063076893416E-1    5.045159526714982E-1   -2.989341200986634E-3    1.726021548597983E-3   -2.978515813808047E-3    1.817881830856287E-3    3.130406087142741E-1    4.036071175070639E-1
 8.152562889500000E9     1.938493305639484E-1    5.043908557049589E-1   -2.995194731027688E-3    1.738950032047218E-3   -2.995461403530143E-3    1.813183573816873E-3    3.133874144501770E-1    4.036632045011956E-1
 8.152564467750000E9     1.940163392975373E-1    5.043824377110311E-1   -2.978843712618123E-3    1.759059373968119E-3   -3.005718912310713E-3    1.810179227988791E-3    3.132814559069915E-1    4.034246089947277E-1
 8.152566046000000E9     1.941629663519089E-1    5.043900872267287E-1   -2.996546927987609E-3    1.769801626430525E-3   -2.994141092094719E-3    1.801354445297500E-3    3.135202258362075E-1    4.034439514905608E-1
 8.152567624250000E9     1.941632421839161E-1    5.041848464610730E-1   -2.986551608311767E-3    1.769174439477857E-3   -2.989958844449811E-3    1.810573294026671E-3    3.134970301107298E-1    4.032217150482170E-1
 8.152569202500000E9     1.942970040722693E-1    5.042905711303852E-1   -2.966905881916194E-3    1.759931765873248E-3   -3.002218356299527E-3    1.829805321983565E-3    3.136299869572566E-1    4.033449820143050E-1
 8.152570780750000E9     1.944084422814877E-1    5.042348502979845E-1   -3.021131981081121E-3    1.772438277471193E-3   -2.997110842871807E-3    1.837843744984144E-3    3.137800048304117E-1    4.031892880648090E-1
 8.152572359000000E9     1.944405773929060E-1    5.041415616992634E-1   -3.004891808305684E-3    1.772353000059564E-3   -3.034267279997512E-3    1.803387813719743E-3    3.137587138490776E-1    4.031210041695960E-1
 8.152573937250000E9     1.946487388490521E-1    5.041183338857537E-1   -3.018067407500128E-3    1.776344034334472E-3   -3.003429631375147E-3    1.825095244545041E-3    3.137093512898850E-1    4.030362148883187E-1
 8.152575515500000E9     1.948864989933147E-1    5.039776319284349E-1   -3.012020434075224E-3    1.788238379083042E-3   -2.999771476957296E-3    1.849121280362147E-3    3.138490377624130E-1    4.030480387815369E-1
 8.152577093750000E9     1.949492088671737E-1    5.039570202344330E-1   -3.040142034752277E-3    1.790271164591055E-3   -2.991050945289719E-3    1.847764407434302E-3    3.140093753096619E-1    4.029186136075290E-1
 8.152578672000000E9     1.950902423411184E-1    5.039530721956871E-1   -3.017506532592863E-3    1.811496060868631E-3   -3.014074442051419E-3    1.844091176364027E-3    3.140819736419906E-1    4.028659758419072E-1
 8.152580250250000E9     1.952740013011584E-1    5.038197059607399E-1   -3.026229576078022E-3    1.794579504429711E-3   -3.037918098070993E-3    1.857692599118669E-3    3.141484516956242E-1    4.029616639040533E-1
 8.152581828500000E9     1.953618196293426E-1    5.038167467754278E-1   -3.017044961386323E-3    1.806941832828817E-3   -3.038038861887602E-3    1.865176045932866E-3    3.142848983330837E-1    4.027720025259294E-1
 8.152583406750000E9     1.954395276780486E-1    5.038250900602295E-1   -3.039271251243945E-3    1.802881228761149E-3   -3.040402788495791E-3    1.855946345941860E-3    3.143106143160312E-1    4.027068186607515E-1
 8.152584985000000E9     1.956282251071067E-1    5.036922157574572E-1   -3.052836727130981E-3    1.820217381709479E-3   -3.067249108114372E-3    1.895881577979581E-3    3.143780559036853E-1    4.026362188998845E-1
 8.152586563250000E9     1.956514450610235E-1    5.037683152523322E-1   -3.034264582167431E-3    1.809267226240621E-3   -3.052682703256327E-3    1.872309947010995E-3    3.144525213432828E-1    4.027170892378817E-1
 8.152588141500000E9     1.958560347533668E-1    5.036288629608414E-1   -3.062368015788383E-3    1.809381946855934E-3   -3.066678202368900E-3    1.859132972849687E-3    3.144150443439615E-1    4.025632352133460E-1
 8.152589719750000E9     1.959066039212531E-1    5.035715020800162E-1   -3.065873032111091E-3    1.810269709597481E-3   -3.077313865604881E-3    1.875233428615659E-3    3.145718962512482E-1    4.023734945634843E-1
 8.152591298000000E9     1.961085514143384E-1    5.035749493935683E-1   -3.080637979505563E-3    1.808113543811610E-3   -3.040230984726376E-3    1.880870271096468E-3    3.147941451735406E-1    4.024713321340230E-1
 8.152592876250000E9     1.961635476260373E-1    5.034186851955644E-1   -3.090741565761657E-3    1.829660181144119E-3   -3.055086666229735E-3    1.889565792261165E-3    3.147336815949625E-1    4.023004469063871E-1
 8.152594454500000E9     1.964009865680627E-1    5.034923198842610E-1   -3.067239363968747E-3    1.831928235573709E-3   -3.075174263813228E-3    1.907937158312622E-3    3.148403139169551E-1    4.022979734595138E-1
 8.152596032750000E9     1.965023545269880E-1    5.032885274816800E-1   -3.090700724508297E-3    1.841373189601634E-3   -3.097745463206145E-3    1.906006114733587E-3    3.149443475313063E-1    4.021390752761376E-1
 8.152597611000000E9     1.965719578726409E-1    5.033002522881411E-1   -3.070541988917463E-3    1.850094340331969E-3   -3.081226281540763E-3    1.888591537640788E-3    3.149693056247237E-1    4.020852653899943E-1
 8.152599189250000E9     1.967616216127223E-1    5.032303432411090E-1   -3.068800259478624E-3    1.836172387728372E-3   -3.070964507738263E-3    1.875780775847924E-3    3.150876320937554E-1    4.020717435246212E-1
 8.152600767500000E9     1.969515525524719E-1    5.031953967245203E-1   -3.095234555857120E-3    1.825181274575433E-3   -3.074409089505117E-3    1.901528653781308E-3    3.152196180177610E-1    4.019867431537442E-1
 8.152602345750000E9     1.970437179387882E-1    5.031884106447361E-1   -3.096031264327208E-3    1.828293627999744E-3   -3.114195865519900E-3    1.928096423178115E-3    3.153399923051888E-1    4.019468195981704E-1
 8.152603924000000E9     1.971776559431665E-1    5.031791976199528E-1   -3.085147426911993E-3    1.904653060906866E-3   -3.126984681689092E-3    1.933056567635059E-3    3.153386011128948E-1    4.019213277803688E-1
 8.152605502250000E9     1.971851075971851E-1    5.030692813108525E-1   -3.100441055099100E-3    1.868081623947333E-3   -3.115561107394993E-3    1.939233760719459E-3    3.154042029966228E-1    4.016883515734289E-1
 8.152607080500000E9     1.974201115684226E-1    5.029233041484783E-1   -3.114366299067787E-3    1.862773646097130E-3   -3.112388924887863E-3    1.926709669012606E-3    3.155609110333072E-1    4.019170084162239E-1
 8.152608658750000E9     1.975091302743286E-1    5.028751295088424E-1   -3.115078963109012E-3    1.874634200965547E-3   -3.127527566418834E-3    1.952368583190261E-3    3.154831634588416E-1    4.016198697697013E-1
 8.152610237000000E9     1.976396387409483E-1    5.028015873476552E-1   -3.117545668331456E-3    1.900473770481474E-3   -3.108447238951951E-3    1.953444013961990E-3    3.156131564618782E-1    4.015613632836618E-1
 8.152611815250000E9     1.977369108071049E-1    5.028084690085042E-1   -3.115140936182521E-3    1.899598756248841E-3   -3.168493483073291E-3    1.967530878121240E-3    3.156702541901649E-1    4.015450060425172E-1
 8.152613393500000E9     1.980001053515975E-1    5.028130396607322E-1   -3.144475128067674E-3    1.904045879040750E-3   -3.157763492367982E-3    1.978752180093332E-3    3.156824529610458E-1    4.014907406897598E-1
 8.152614971750000E9     1.980425401145456E-1    5.026532237103528E-1   -3.124188722368320E-3    1.914582564522346E-3   -3.136154441345235E-3    1.943575363199329E-3    3.157908796166305E-1    4.013805316889907E-1
 8.152616550000000E9     1.981616663652009E-1    5.025201723182983E-1   -3.158487585726808E-3    1.938002107029689E-3   -3.132160842857290E-3    1.968652617642965E-3    3.160451537233995E-1    4.013134526920179E-1
 8.152618128250000E9     1.982747669492320E-1    5.025119601332613E-1   -3.160854733291542E-3    1.897115284274539E-3   -3.128194542206620E-3    1.952070648459430E-3    3.160792897337137E-1    4.011484177724736E-1
 8.152619706500000E9     1.985303996628078E-1    5.025128218775027E-1   -3.142777941656359E-3    1.934284154144539E-3   -3.137509605864385E-3    1.958872722763384E-3    3.161924299333535E-1    4.012831053501077E-1
 8.152621284750000E9     1.985093607004997E-1    5.024862696700458E-1   -3.156197627964315E-3    1.944196055189338E-3   -3.144980856112232E-3    1.968688603020944E-3    3.161868347353394E-1    4.010917180361944E-1
 8.152622863000000E9     1.987199351317845E-1    5.024231405035792E-1   -3.148947333142502E-3    1.943435972208019E-3   -3.140076024771934E-3    2.029322577669853E-3    3.161685412384666E-1    4.009602809014497E-1
 8.152624441250000E9     1.988603984327850E-1    5.023277104750542E-1   -3.167372927393067E-3    1.939271713096820E-3   -3.180949316167409E-3    2.012988996313999E-3    3.164314293091208E-1    4.010534187983544E-1
 8.152626019500000E9     1.990561376955320E-1    5.022923287695004E-1   -3.190121276670786E-3    1.942526428826949E-3   -3.182161895254172E-3    2.025484951967573E-3    3.164673201684193E-1    4.009589240940502E-1
 8.152627597750000E9     1.991169295738464E-1    5.022316839397660E-1   -3.198989037970179E-3    1.968033672073612E-3   -3.166542726553540E-3    2.027538807612272E-3    3.164827936269345E-1    4.008685126234871E-1
 8.152629176000000E9     1.992804617767937E-1    5.021263053483133E-1   -3.183966960067258E-3    1.927463327707195E-3   -3.177527932828453E-3    2.017277316956819E-3    3.166046310889320E-1    4.007122840023518E-1
 8.152630754250000E9     1.993242112992703E-1    5.020368607834076E-1   -3.194504072145202E-3    1.966679147675349E-3   -3.176128945700843E-3    2.021462918220160E-3    3.165732217602435E-1    4.007546139171798E-1
 8.152632332500000E9     1.995672302838150E-1    5.021807740619445E-1   -3.194046150900375E-3    1.985110241495365E-3   -3.171707205365149E-3    2.024109938904911E-3    3.166102630379044E-1    4.007128265049210E-1
 8.152633910750000E9     1.997253726634477E-1    5.020918050845640E-1   -3.199295319505202E-3    1.969978579745272E-3   -3.152934774605645E-3    2.065576750743001E-3    3.167983785946870E-1    4.005545845646722E-1
 8.152635489000000E9     1.998875872443818E-1    5.018658280243826E-1   -3.203615468769661E-3    1.974746598827426E-3   -3.161681251292079E-3    2.050799884774116E-3    3.168393238811285E-1    4.005867494647622E-1
 8.152637067250000E9     1.999842974591199E-1    5.019579872859493E-1   -3.217015985561814E-3    2.011681366687342E-3   -3.205794981757554E-3    2.075155138238752E-3    3.169147230849996E-1    4.004917876228417E-1
 8.152638645500000E9     2.002222076846688E-1    5.018047312800039E-1   -3.203073854700033E-3    2.004835272962032E-3   -3.215824371017872E-3    2.052949766438287E-3    3.171805352473318E-1    4.003090281794137E-1
 8.152640223750000E9     2.002659426903131E-1    5.016120624859202E-1   -3.228149882155284E-3    1.999766780858462E-3   -3.235010702121289E-3    2.036054544136463E-3    3.170790596437526E-1    4.003206954750609E-1
 8.152641802000000E9     2.004382996647637E-1    5.016646870305701E-1   -3.252209195485502E-3    1.991581478393485E-3   -3.236074327320419E-3    2.077200237854273E-3    3.170719973955007E-1    4.002700445222782E-1
 8.152643380250000E9     2.006700519429276E-1    5.016752172220030E-1   -3.230328343439571E-3    2.020024165226255E-3   -3.196797089454033E-3    2.085838614861075E-3    3.172877039565136E-1    4.001967313645048E-1
 8.152644958500000E9     2.007885478206653E-1    5.015122443942456E-1   -3.244459089161213E-3    2.018298806644963E-3   -3.228823840601247E-3    2.083459260821134E-3    3.173637814373236E-1    4.001978176702621E-1
 8.152646536750000E9     2.008410105514707E-1    5.015746501565929E-1   -3.258725004952112E-3    2.021896030406598E-3   -3.251669150627886E-3    2.108285672166242E-3    3.173979940099212E-1    4.000543400604664E-1
 8.152648115000000E9     2.009932035576450E-1    5.013649336107645E-1   -3.264660536652195E-3    2.056059799805538E-3   -3.266532669360843E-3    2.106641722105744E-3    3.175785386576855E-1    4.000158338579683E-1
 8.152649693250000E9     2.012034066614718E-1    5.014523461831313E-1   -3.269136476027200E-3    2.062071426734334E-3   -3.284251304782833E-3    2.098913606069539E-3    3.177291852216978E-1    3.998982445662413E-1
 8.152651271500000E9     2.013213946609254E-1    5.012894245350124E-1   -3.294307603645015E-3    2.057271162600520E-3   -3.249471841175279E-3    2.119902425624287E-3    3.177648294795323E-1    3.998717867429567E-1
 8.152652849750000E9     2.014878486523104E-1    5.012608212430445E-1   -3.265488268598397E-3    2.063485567494110E-3   -3.267874188127593E-3    2.105508786307161E-3    3.177761348083317E-1    3.997064072277149E-1
 8.152654428000000E9     2.016262505559192E-1    5.011813816917730E-1   -3.279146677264589E-3    2.070036403519405E-3   -3.280220357272231E-3    2.136745526353425E-3    3.177283263630641E-1    3.998893919247626E-1
 8.152656006250000E9     2.017180379962253E-1    5.011405803843600E-1   -3.286249551250195E-3    2.072478782914576E-3   -3.295445597846124E-3    2.152227405916718E-3    3.177712658371334E-1    3.996479133440675E-1
 8.152657584500000E9     2.018962661742955E-1    5.011062500901420E-1   -3.309221433985909E-3    2.086543314674491E-3   -3.265523236456569E-3    2.130949187769968E-3    3.178719782017903E-1    3.996503180339291E-1
 8.152659162750000E9     2.019864578523196E-1    5.010491776593622E-1   -3.306575488744128E-3    2.105884734522250E-3   -3.311021353495026E-3    2.148675767215385E-3    3.181097537738372E-1    3.996179286607033E-1
 8.152660741000000E9     2.022191710142613E-1    5.009036145301649E-1   -3.318490761317324E-3    2.109678863676378E-3   -3.306403803149434E-3    2.185465162622908E-3    3.181577827594806E-1    3.995673064497179E-1
 8.152662319250000E9     2.022108938576709E-1    5.007200446885510E-1   -3.325230762065600E-3    2.127983304692368E-3   -3.342923094788823E-3    2.182758601149332E-3    3.181091452943322E-1    3.993767281666343E-1
 8.152663897500000E9     2.024764431458153E-1    5.007254644412342E-1   -3.327089353342098E-3    2.129514739511601E-3   -3.300044862356515E-3    2.160274111407379E-3    3.182413607814952E-1    3.993694803123460E-1
 8.152665475750000E9     2.026697872789244E-1    5.006709158536401E-1   -3.358806529661230E-3    2.166042412357251E-3   -3.353591162422252E-3    2.205239506756911E-3    3.185533850753345E-1    3.994512497605826E-1
 8.152667054000000E9     2.027797207274804E-1    5.005545134230643E-1   -3.359791939899682E-3    2.151557727664942E-3   -3.325569512102010E-3    2.237209746103454E-3    3.184898751238032E-1    3.992008258354277E-1
 8.152668632250000E9     2.029685963123976E-1    5.005387376960300E-1   -3.333709967505605E-3    2.132671618888370E-3   -3.365649069506860E-3    2.229417007559379E-3    3.185413880904633E-1    3.991750791826000E-1
 8.152670210500000E9     2.030992153187343E-1    5.004184612084644E-1   -3.362803299585978E-3    2.176774398338572E-3   -3.363955247837879E-3    2.195096156283021E-3    3.186944096053189E-1    3.990215429713919E-1
 8.152671788750000E9     2.032531282182580E-1    5.003840827356839E-1   -3.363166175564592E-3    2.165060368942430E-3   -3.374357503590970E-3    2.224485594368866E-3    3.187626200796796E-1    3.990676841111708E-1
 8.152673367000000E9     2.032493948300360E-1    5.003577578405713E-1   -3.362302310511798E-3    2.193255028802469E-3   -3.373809964180228E-3    2.238579569244502E-3    3.186804914864365E-1    3.990169143479697E-1
 8.152674945250000E9     2.034648447243068E-1    5.002598150456380E-1   -3.375632485315300E-3    2.200674480721737E-3   -3.392607352118934E-3    2.268723512724032E-3    3.188814525077266E-1    3.988222637494823E-1
 8.152676523500000E9     2.036835024764058E-1    5.001507825371669E-1   -3.394219430979496E-3    2.213877598200286E-3   -3.412374606467384E-3    2.271074476498428E-3    3.189907800185392E-1    3.989097388691519E-1
 8.152678101750000E9     2.038081718369394E-1    5.000795076870370E-1   -3.399903933846855E-3    2.216423398484208E-3   -3.378043098751892E-3    2.283163425988317E-3    3.190048337163220E-1    3.988067293130834E-1
 8.152679680000000E9     2.039907641641660E-1    5.000362233084924E-1   -3.417283071844236E-3    2.206515480271688E-3   -3.413346278083097E-3    2.266824931391366E-3    3.190341726463143E-1    3.988026238609345E-1
 8.152681258250000E9     2.041334785913120E-1    4.999541280192494E-1   -3.404410117336119E-3    2.235054408893216E-3   -3.453199374876999E-3    2.315300237289823E-3    3.190430184328163E-1    3.986703336077003E-1
 8.152682836500000E9     2.041663203192359E-1    4.998347691565840E-1   -3.434034553773849E-3    2.258001234605011E-3   -3.411156101306176E-3    2.296434897372736E-3    3.191499930250525E-1    3.985570512503930E-1
