#  HZ   S   RI   R     50.00 
! Rohde & Schwarz Vector Network Analyzer 
! Rohde-Schwarz,ZNB20-2Port,1311601062101988,3.16
! Created: UTC 3/21/2024, 1:24:02 AM
! freq[Hz]                re:S11                  im:S11                  re:S21                  im:S21                  re:S12                  im:S12                  re:S22                  im:S22
 8.152552348000000E9     1.929010061448392E-1    5.048685524392745E-1   -2.947937682131456E-3    1.708812583938197E-3   -2.966067090536823E-3    1.773768739638411E-3    3.127469555131973E-1    4.038449307766060E-1
 8.152553889650000E9     1.929490358975742E-1    5.047545715522429E-1   -2.965526724825476E-3    1.725567564619527E-3   -2.944242284979183E-3    1.751406867026736E-3    3.129330661620995E-1    4.038208165214497E-1
 8.152555431300000E9     1.931979188523022E-1    5.047528242933099E-1   -2.978597732896961E-3    1.730319429138567E-3   -2.971300574801160E-3    1.756984221114794E-3    3.128954888591744E-1    4.037972685317918E-1
 8.152556972950000E9     1.933200244781990E-1    5.046690350205641E-1   -2.938215577278645E-3    1.740792566916596E-3   -2.969167232564726E-3    1.783563731077066E-3    3.130947886694831E-1    4.037658538380198E-1
 8.152558514600000E9     1.933367377260665E-1    5.046080230520296E-1   -2.993927094981979E-3    1.734499985013685E-3   -2.980799741230705E-3    1.795604403038587E-3    3.131365030384384E-1    4.035964178509555E-1
 8.152560056250000E9     1.935142084804872E-1    5.045122917612477E-1   -2.958309199952830E-3    1.727000018187794E-3   -2.992680660107345E-3    1.802395747481198E-3    3.131675546271359E-1    4.037007633470406E-1
 8.152561597900000E9     1.937005753306244E-1    5.045178503537827E-1   -2.969279183713392E-3    1.707801580017629E-3   -2.992435601739952E-3    1.787653661317528E-3    3.132379198914043E-1    4.036884163699317E-1
 8.152563139550000E9     1.937574347835896E-1    5.044502922787174E-1   -2.985937063424458E-3    1.755953443742314E-3   -2.983418749582469E-3    1.809468344495124E-3    3.133820599860574E-1    4.034317503009792E-1
 8.152564681200000E9     1.939328274561467E-1    5.044203653077391E-1   -3.014653500073736E-3    1.749936974414144E-3   -3.029900800679121E-3    1.806270065916762E-3    3.133895043456728E-1    4.034183694872162E-1
 8.152566222850000E9     1.940281286719161E-1    5.043695507027096E-1   -2.991889099850377E-3    1.727333915939099E-3   -2.998296601573849E-3    1.825543636485995E-3    3.134777101905376E-1    4.035042054839892E-1
 8.152567764500000E9     1.941237144732359E-1    5.043195081631887E-1   -2.977742601734604E-3    1.746852780540713E-3   -3.007898264904899E-3    1.795563386777587E-3    3.136815957111385E-1    4.032456915439906E-1
 8.152569306150000E9     1.942501496552985E-1    5.042029316365719E-1   -2.962625572930597E-3    1.743029597577853E-3   -2.979699937963029E-3    1.809476887887257E-3    3.135858924747257E-1    4.031835454175700E-1
 8.152570847800000E9     1.943737832578672E-1    5.041699459412917E-1   -2.989535697817710E-3    1.769983293316394E-3   -2.989383958467951E-3    1.845201114941109E-3    3.137321218904229E-1    4.033274795741208E-1
 8.152572389450000E9     1.944967858551466E-1    5.041856360855803E-1   -2.993276831097302E-3    1.772684493906679E-3   -2.972316595282572E-3    1.789686536731551E-3    3.138845402457544E-1    4.030923686312056E-1
 8.152573931100000E9     1.947273783304267E-1    5.040593603197606E-1   -3.014547967161452E-3    1.762202358302667E-3   -3.002855163874558E-3    1.818189216878434E-3    3.137973314420238E-1    4.032126530407310E-1
 8.152575472750000E9     1.947642469549306E-1    5.040179117297742E-1   -3.007299480266421E-3    1.793007297331691E-3   -3.005989335088212E-3    1.825809116111569E-3    3.137627901331644E-1    4.030818748223204E-1
 8.152577014400000E9     1.948529758467863E-1    5.039928459135764E-1   -2.999184408777826E-3    1.804915783380509E-3   -3.011113475417976E-3    1.826718412207638E-3    3.138699578240978E-1    4.028910278017451E-1
 8.152578556050000E9     1.950104735032961E-1    5.040568287239068E-1   -3.036225869699325E-3    1.785772355791206E-3   -3.015212375558717E-3    1.814532825163296E-3    3.141368798045556E-1    4.027743936146926E-1
 8.152580097700000E9     1.952397655112480E-1    5.038784544630714E-1   -3.025247229519308E-3    1.773251255943464E-3   -2.993450625592518E-3    1.848373157530011E-3    3.140598171364007E-1    4.028160731313841E-1
 8.152581639350000E9     1.953283354810858E-1    5.038569267444951E-1   -3.036321373090345E-3    1.797937915282497E-3   -3.037970961267198E-3    1.866039928626158E-3    3.142840769776317E-1    4.026986594421936E-1
 8.152583181000000E9     1.953214225487539E-1    5.038378448152894E-1   -3.038111954126922E-3    1.790377294592892E-3   -3.056241342025731E-3    1.837982437071314E-3    3.142066972959237E-1    4.026981289782162E-1
 8.152584722650000E9     1.955073863067042E-1    5.037818321612249E-1   -3.025088466085170E-3    1.820594989482909E-3   -3.043081621342625E-3    1.851641191925055E-3    3.145243038597113E-1    4.026830699688242E-1
 8.152586264300000E9     1.956789544491533E-1    5.037149316515074E-1   -3.029006444340165E-3    1.794477607343909E-3   -3.053884277340530E-3    1.845750596110969E-3    3.144551660236002E-1    4.025192353954521E-1
 8.152587805950000E9     1.957656433854574E-1    5.036428816087064E-1   -3.060165784884478E-3    1.794669779795667E-3   -3.057846561443354E-3    1.843789694854802E-3    3.146544697865526E-1    4.024995585172313E-1
 8.152589347600000E9     1.959545759524161E-1    5.035222414514736E-1   -3.049142886702173E-3    1.809201657560097E-3   -3.030561737535406E-3    1.875062346051342E-3    3.145180070376114E-1    4.024526169657734E-1
 8.152590889250000E9     1.960594147255701E-1    5.035322591483697E-1   -3.064969151858608E-3    1.811313663192884E-3   -3.075859019180584E-3    1.870906152436024E-3    3.146743270072779E-1    4.023431580612101E-1
 8.152592430900000E9     1.960838497297425E-1    5.034243214463227E-1   -3.037320023409044E-3    1.831600887583158E-3   -3.033278171209141E-3    1.896288506914973E-3    3.147291699849645E-1    4.022380441970245E-1
 8.152593972550000E9     1.962766783829453E-1    5.034974260831251E-1   -3.080463587873997E-3    1.812952138877407E-3   -3.044700810113677E-3    1.904745081855884E-3    3.148781558650537E-1    4.023087861428364E-1
 8.152595514200000E9     1.964338155042664E-1    5.033481307146924E-1   -3.078291961706689E-3    1.827697992270439E-3   -3.092238905781056E-3    1.860162590962691E-3    3.149615904084368E-1    4.021432058723993E-1
 8.152597055850000E9     1.964776881561464E-1    5.032932510673034E-1   -3.071221875936585E-3    1.833397726667662E-3   -3.104099926103082E-3    1.895430818810601E-3    3.150039611928810E-1    4.022727626510090E-1
 8.152598597500000E9     1.967296410302349E-1    5.032164011229142E-1   -3.098803786604221E-3    1.847214875264034E-3   -3.060323671380163E-3    1.888465227181442E-3    3.150540100609364E-1    4.020379315271473E-1
 8.152600139150000E9     1.968996991193973E-1    5.033174805229288E-1   -3.096219972776270E-3    1.869819054935699E-3   -3.072498605784321E-3    1.928129327941834E-3    3.151478453847886E-1    4.019663585346083E-1
 8.152601680800000E9     1.970050893542342E-1    5.032360400891839E-1   -3.100659907998070E-3    1.859296058179960E-3   -3.084282880335507E-3    1.911277677538160E-3    3.152276775130119E-1    4.019364063551729E-1
 8.152603222450000E9     1.971139080732819E-1    5.031415569479399E-1   -3.077959953462936E-3    1.839285548843501E-3   -3.073934045829938E-3    1.908734841525105E-3    3.154540010711181E-1    4.017713895383854E-1
 8.152604764100000E9     1.972062884096307E-1    5.030761917878175E-1   -3.095609405761702E-3    1.875618913942337E-3   -3.078038615513311E-3    1.929094633676287E-3    3.154132748326698E-1    4.018728544454276E-1
 8.152606305750000E9     1.972990698564371E-1    5.030782066922068E-1   -3.072660155014273E-3    1.872976442790211E-3   -3.122083304809909E-3    1.960652332658373E-3    3.155062440209321E-1    4.017577003311090E-1
 8.152607847400000E9     1.973631426819902E-1    5.028949261073948E-1   -3.113108881097278E-3    1.853816241108802E-3   -3.101000495856562E-3    1.942232876954080E-3    3.155520899457556E-1    4.016821441684415E-1
 8.152609389050000E9     1.974895001339056E-1    5.029760138820435E-1   -3.090612829637705E-3    1.844308364336505E-3   -3.117898541757070E-3    1.952510629668586E-3    3.156822089090716E-1    4.015971877707403E-1
 8.152610930700000E9     1.976433938935301E-1    5.028636542759141E-1   -3.105122923870454E-3    1.895292624929540E-3   -3.112810751113065E-3    1.911309427054021E-3    3.156601787071476E-1    4.016759882931370E-1
 8.152612472350000E9     1.978186483086760E-1    5.028883854789234E-1   -3.124781163520220E-3    1.877370817035470E-3   -3.115916819534393E-3    1.948275772724751E-3    3.158707187792890E-1    4.014938601899115E-1
 8.152614014000000E9     1.979171080898922E-1    5.027729353021985E-1   -3.127773558591722E-3    1.917717724055128E-3   -3.118894837322537E-3    1.951849868838805E-3    3.157541410048329E-1    4.014283279568218E-1
 8.152615555650000E9     1.980574245656518E-1    5.026495380243864E-1   -3.139923211468224E-3    1.890606808352269E-3   -3.114598657823031E-3    1.955405190129838E-3    3.158835822237259E-1    4.013210859390119E-1
 8.152617097300000E9     1.981609472193036E-1    5.025909085113694E-1   -3.120338087270443E-3    1.909536052866581E-3   -3.148542859357295E-3    1.959228369445582E-3    3.158395396796359E-1    4.011530916987052E-1
 8.152618638950000E9     1.983123886068424E-1    5.026575306821724E-1   -3.122278765919223E-3    1.886144615814188E-3   -3.113037597169311E-3    1.975703122895484E-3    3.160601950153948E-1    4.013548691245805E-1
 8.152620180600000E9     1.984399691042065E-1    5.025659687789590E-1   -3.164644335331630E-3    1.883301123897172E-3   -3.147605405764840E-3    1.971635532447283E-3    3.162444289947206E-1    4.011496752082480E-1
 8.152621722250000E9     1.987225031353819E-1    5.025378083310035E-1   -3.166780832104396E-3    1.945649464365716E-3   -3.124734777039104E-3    1.992387385363142E-3    3.162577772420713E-1    4.012508210266311E-1
 8.152623263900000E9     1.988150830457004E-1    5.024691836597399E-1   -3.154124353605424E-3    1.928897728163923E-3   -3.139754076827091E-3    1.992616381281211E-3    3.164067654578022E-1    4.009995699402410E-1
 8.152624805550000E9     1.988689744124219E-1    5.023824619292562E-1   -3.148953755932804E-3    1.940341770901926E-3   -3.176649660545998E-3    2.015438652403883E-3    3.164609361283426E-1    4.009676369061334E-1
 8.152626347200000E9     1.989106918830388E-1    5.022289488001830E-1   -3.141490598639012E-3    1.918029160752619E-3   -3.176882469448516E-3    2.025246981040685E-3    3.164349141209332E-1    4.008864151634215E-1
 8.152627888850000E9     1.990995843026433E-1    5.021755812587384E-1   -3.146192559648634E-3    1.950187307807989E-3   -3.180243115123305E-3    2.011954245967259E-3    3.166419915358630E-1    4.008725012273862E-1
 8.152629430500000E9     1.991875250006298E-1    5.021601075130879E-1   -3.182528942812121E-3    1.952761456142351E-3   -3.157347652307874E-3    2.034455022557835E-3    3.166047330122228E-1    4.009153501045765E-1
 8.152630972150000E9     1.994433249988928E-1    5.022047586809955E-1   -3.167531279859396E-3    1.936860702632562E-3   -3.181004809271071E-3    1.999894593783487E-3    3.167450437818335E-1    4.007914380233830E-1
 8.152632513800000E9     1.995143443429493E-1    5.021790229037121E-1   -3.175048971626353E-3    1.964645387585591E-3   -3.196104526925959E-3    2.061553789313728E-3    3.168120608899174E-1    4.007441741896082E-1
 8.152634055450000E9     1.997004749608166E-1    5.020897459772055E-1   -3.192537970336077E-3    1.945972640597134E-3   -3.198010548198311E-3    2.027376386848535E-3    3.167563058762633E-1    4.006645428413675E-1
 8.152635597100000E9     1.998851183150152E-1    5.019797320296970E-1   -3.175558821237912E-3    1.977550363706440E-3   -3.193450573696490E-3    2.026668217087376E-3    3.169308254020959E-1    4.006088880488330E-1
 8.152637138750000E9     1.999941784795051E-1    5.019241121087553E-1   -3.201982266556652E-3    1.979560477710767E-3   -3.195100223234420E-3    2.052597254219872E-3    3.170742494975997E-1    4.004934731598866E-1
 8.152638680400000E9     2.001387112039479E-1    5.019033662539578E-1   -3.223254571766894E-3    1.966951222930211E-3   -3.218397086323766E-3    2.057639428594173E-3    3.170661390029825E-1    4.003772633428427E-1
 8.152640222050000E9     2.001829868580430E-1    5.017506100649100E-1   -3.236382143765404E-3    2.006928272746400E-3   -3.191712565100101E-3    2.052630454938760E-3    3.172141198229271E-1    4.001964608260466E-1
 8.152641763700000E9     2.004647277439955E-1    5.016654056895541E-1   -3.220054789097382E-3    2.012264402885285E-3   -3.242491753608409E-3    2.079075212385155E-3    3.173489201649426E-1    4.003057102799181E-1
 8.152643305350000E9     2.004692023619296E-1    5.015783857336207E-1   -3.218695857688085E-3    2.038436057254889E-3   -3.209761960348744E-3    2.065041826682045E-3    3.173124161596620E-1    4.001532607814235E-1
 8.152644847000000E9     2.006311607565330E-1    5.016029502931587E-1   -3.259155309690660E-3    2.013242514332374E-3   -3.226410100185973E-3    2.075715494442630E-3    3.173408243895252E-1    4.002603499840937E-1
 8.152646388650000E9     2.007741852469138E-1    5.015371208811191E-1   -3.247415801624581E-3    2.026678891142808E-3   -3.225874768767355E-3    2.097902123691179E-3    3.174613862368230E-1    4.000422046207360E-1
 8.152647930300000E9     2.009058466218103E-1    5.016755246729735E-1   -3.253912371831151E-3    2.021805765687271E-3   -3.269149507646133E-3    2.084620763438293E-3    3.175894647297746E-1    4.000971027280544E-1
 8.152649471950000E9     2.010136301764553E-1    5.014071795849065E-1   -3.238292692788082E-3    2.036561748559168E-3   -3.254232293149415E-3    2.103111938370523E-3    3.176558394317397E-1    3.998418965999703E-1
 8.152651013600000E9     2.011807693659128E-1    5.013169109314792E-1   -3.244190494044726E-3    2.040504852230564E-3   -3.272310887340147E-3    2.120190410437569E-3    3.177811026452314E-1    3.998513542819131E-1
 8.152652555250000E9     2.014411771067757E-1    5.012693563201781E-1   -3.268976519050041E-3    2.080555337554255E-3   -3.261275359682271E-3    2.108522047966721E-3    3.177475481882888E-1    3.998444412769688E-1
 8.152654096900000E9     2.015537543029411E-1    5.012787593737420E-1   -3.283982368525863E-3    2.057985612917001E-3   -3.282311292772329E-3    2.134377578768739E-3    3.179651915113408E-1    3.998457269585814E-1
 8.152655638550000E9     2.016249619269662E-1    5.011531977477284E-1   -3.269808212215824E-3    2.055761208608935E-3   -3.267662776987856E-3    2.086529371021012E-3    3.180843347880740E-1    3.998404421169467E-1
 8.152657180200000E9     2.019555958818293E-1    5.011477916959002E-1   -3.257432737270538E-3    2.076577534747606E-3   -3.309104707259017E-3    2.126258995109816E-3    3.181255929728577E-1    3.996270392277924E-1
 8.152658721850000E9     2.018690058183467E-1    5.010527884475600E-1   -3.282379280433597E-3    2.089004613802926E-3   -3.263744023721704E-3    2.165734639039795E-3    3.181353630202884E-1    3.995829081664420E-1
 8.152660263500000E9     2.020476074894982E-1    5.009363971557799E-1   -3.271700126366349E-3    2.091846480545908E-3   -3.321035584036291E-3    2.151254231323124E-3    3.182255201491945E-1    3.996582198924217E-1
 8.152661805150000E9     2.022352795034864E-1    5.009762591678949E-1   -3.335157767630808E-3    2.100896872890324E-3   -3.302556822702573E-3    2.164101612691294E-3    3.182303798142418E-1    3.994884033931463E-1
 8.152663346800000E9     2.023283092869608E-1    5.008640941602249E-1   -3.323389888233980E-3    2.113431483114847E-3   -3.292065943404016E-3    2.146905980239007E-3    3.182870306580441E-1    3.995000319676361E-1
 8.152664888450000E9     2.025545830825787E-1    5.007318259706925E-1   -3.333351839458750E-3    2.104190325097558E-3   -3.338030185286453E-3    2.193854511688812E-3    3.182806390656142E-1    3.993624144213562E-1
 8.152666430100000E9     2.026360936437727E-1    5.006629888952611E-1   -3.326394707894665E-3    2.128883306008409E-3   -3.341353220460626E-3    2.173699947365332E-3    3.183617393805158E-1    3.992406422872460E-1
 8.152667971750000E9     2.027475875797259E-1    5.006614050937218E-1   -3.329009276422484E-3    2.117588988973358E-3   -3.300933660865454E-3    2.187647132304692E-3    3.185072449845421E-1    3.990619091703850E-1
 8.152669513400000E9     2.029443082424708E-1    5.005366188103250E-1   -3.343286289674308E-3    2.150927820431425E-3   -3.346189781023347E-3    2.192808177102073E-3    3.187188612587829E-1    3.990275193714377E-1
 8.152671055050000E9     2.030222679656936E-1    5.005263428197331E-1   -3.356865161238392E-3    2.168059854075011E-3   -3.341452649088977E-3    2.214983976375502E-3    3.187051330070376E-1    3.991009265237574E-1
 8.152672596700000E9     2.032956792499883E-1    5.004829204880734E-1   -3.336921463342509E-3    2.141051447996521E-3   -3.370472823933247E-3    2.237746431491139E-3    3.188627198132792E-1    3.990859678856817E-1
 8.152674138350000E9     2.033384812772132E-1    5.003673053036469E-1   -3.376980969433445E-3    2.171398475694325E-3   -3.374132418459259E-3    2.225002016942008E-3    3.188156432094472E-1    3.990552116090539E-1
 8.152675680000000E9     2.036106398634867E-1    5.003574227082318E-1   -3.382366922131825E-3    2.160845472910824E-3   -3.366930128934670E-3    2.237923390209446E-3    3.189522323255010E-1    3.988740683720800E-1
 8.152677221650000E9     2.035756443616037E-1    5.003031125068572E-1   -3.383810396073931E-3    2.203857657206387E-3   -3.376517216057114E-3    2.265025200678452E-3    3.189461114780041E-1    3.988772254316286E-1
 8.152678763300000E9     2.036879889577296E-1    5.001659382283495E-1   -3.405770866980093E-3    2.217571296047818E-3   -3.400731778246435E-3    2.289710053614864E-3    3.190865811985770E-1    3.988862543378949E-1
 8.152680304950000E9     2.039382741913862E-1    5.000571034704202E-1   -3.390063892326006E-3    2.210929812707857E-3   -3.378117021388134E-3    2.252530708795972E-3    3.191537444293909E-1    3.986838525739165E-1
 8.152681846600000E9     2.040756523913583E-1    4.999358833663697E-1   -3.411967160105583E-3    2.252663093651121E-3   -3.400331304627970E-3    2.298165269779653E-3    3.192631489097827E-1    3.985692103265780E-1
 8.152683388250000E9     2.042702438930969E-1    4.998621594636992E-1   -3.417160910457484E-3    2.221251898501840E-3   -3.412437336927545E-3    2.290094915514087E-3    3.192713341915619E-1    3.986129909955460E-1
 8.152684929900000E9     2.043703635220387E-1    4.998707561576294E-1   -3.426582276467742E-3    2.252107077605019E-3   -3.432604871876115E-3    2.319189754944756E-3    3.194127888253374E-1    3.984260463297804E-1
 8.152686471550000E9     2.045736351864049E-1    4.997183741833902E-1   -3.448847163980367E-3    2.235747797555652E-3   -3.425346090622008E-3    2.328438944326492E-3    3.194613748714663E-1    3.984511047782672E-1
 8.152688013200000E9     2.047634174583070E-1    4.997399341507486E-1   -3.445304921567895E-3    2.253523541134712E-3   -3.460391965289738E-3    2.323879367430810E-3    3.195586738988456E-1    3.983879207848545E-1
 8.152689554850000E9     2.048963597097619E-1    4.996577648272111E-1   -3.449926190555053E-3    2.263598485498402E-3   -3.432308769420306E-3    2.326707289554073E-3    3.195643350006340E-1    3.982603723764599E-1
 8.152691096500000E9     2.050923134017937E-1    4.995089467615348E-1   -3.441386778505182E-3    2.295656004006433E-3   -3.465133585705279E-3    2.322162955194546E-3    3.197336476198960E-1    3.981533813545161E-1
