#  HZ   S   RI   R     50.00 
! Rohde & Schwarz Vector Network Analyzer 
! Rohde-Schwarz,ZNB20-2Port,1311601062101988,3.16
! Created: UTC 3/21/2024, 12:50:37 AM
! freq[Hz]                re:S11                  im:S11                  re:S21                  im:S21                  re:S12                  im:S12                  re:S22                  im:S22
 8.151396594000000E9     1.363460435681844E-1    5.266305148920342E-1   -3.241046646415037E-3    1.463277575539760E-3   -3.225561290231075E-3    1.510362668110856E-3    2.773161248143471E-1    4.330064589457573E-1
 8.151398026700000E9     1.365836561687108E-1    5.265974468311766E-1   -3.226544061625272E-3    1.447661688174038E-3   -3.238859349578899E-3    1.521742717435840E-3    2.772542129342872E-1    4.330930325522607E-1
 8.151399459400000E9     1.367431228224444E-1    5.266698238253480E-1   -3.222957294312812E-3    1.446462957681091E-3   -3.208556318910704E-3    1.516196690847088E-3    2.774166334499452E-1    4.329995359392303E-1
 8.151400892100000E9     1.367862853176980E-1    5.264540562365391E-1   -3.253759023614115E-3    1.459866941460904E-3   -3.237391626646997E-3    1.523960476102839E-3    2.775070590347789E-1    4.329634466425901E-1
 8.151402324800000E9     1.369109065596319E-1    5.264365682639794E-1   -3.256312841876115E-3    1.449457625767207E-3   -3.263124485863824E-3    1.485856474359072E-3    2.774322000495463E-1    4.329601576861050E-1
 8.151403757500000E9     1.370921820930247E-1    5.265864935960902E-1   -3.257730347155783E-3    1.476991057963755E-3   -3.254988779431940E-3    1.503590842434826E-3    2.776552556379009E-1    4.327102350995382E-1
 8.151405190200000E9     1.371214434303122E-1    5.264200798560964E-1   -3.240642979177913E-3    1.480211859610068E-3   -3.254086890031583E-3    1.549255860461982E-3    2.776987845998614E-1    4.328582622291947E-1
 8.151406622900000E9     1.373817509430811E-1    5.264221491240125E-1   -3.249496530699808E-3    1.475334825008028E-3   -3.255565692641127E-3    1.509876109487445E-3    2.777893382459437E-1    4.327847095061728E-1
 8.151408055600000E9     1.373829506707877E-1    5.263747206424084E-1   -3.271201827379999E-3    1.477577922203596E-3   -3.241435252762736E-3    1.527865832149987E-3    2.779137069166916E-1    4.327466609727968E-1
 8.151409488300000E9     1.374889509566478E-1    5.262962124680020E-1   -3.267120308123295E-3    1.510516267695143E-3   -3.271593007221203E-3    1.538130571585013E-3    2.778250390055439E-1    4.325742034681309E-1
 8.151410921000000E9     1.376463951894732E-1    5.263292537853006E-1   -3.240671354350482E-3    1.471860709906058E-3   -3.281903042213828E-3    1.560649336179205E-3    2.779713644935352E-1    4.325587990133078E-1
 8.151412353700000E9     1.377056208657080E-1    5.262543063696422E-1   -3.243195765016322E-3    1.513833433556673E-3   -3.285322263333130E-3    1.555844250345792E-3    2.779942544193931E-1    4.324695014604806E-1
 8.151413786400000E9     1.379772320835659E-1    5.263302372543111E-1   -3.283705274944983E-3    1.502095380856041E-3   -3.283235504149452E-3    1.536900875100461E-3    2.782103135868792E-1    4.324466796977579E-1
 8.151415219100000E9     1.380408213055873E-1    5.263188005593770E-1   -3.286508833741508E-3    1.498060819757074E-3   -3.292508846827604E-3    1.572540372596751E-3    2.781440112848462E-1    4.324751385482138E-1
 8.151416651800000E9     1.381555495204576E-1    5.262017144499501E-1   -3.268647989931595E-3    1.502800774912791E-3   -3.296657585490044E-3    1.550568209863784E-3    2.782695330385125E-1    4.322968917250294E-1
 8.151418084500000E9     1.382337743667323E-1    5.262443143775201E-1   -3.288322543211912E-3    1.490637937635598E-3   -3.330700551199851E-3    1.580918422353209E-3    2.784052711852650E-1    4.322332879678205E-1
 8.151419517200000E9     1.383382472670006E-1    5.261529161868690E-1   -3.312860186592574E-3    1.506404679029669E-3   -3.341331178886328E-3    1.568023675400580E-3    2.783428870226803E-1    4.323886368737992E-1
 8.151420949900000E9     1.385443723020610E-1    5.261320560773375E-1   -3.291501841229083E-3    1.502494218314384E-3   -3.309891300459245E-3    1.592147715527551E-3    2.785090248008239E-1    4.321382975978003E-1
 8.151422382600000E9     1.387720669334162E-1    5.260865300862727E-1   -3.313616614110619E-3    1.542665906593947E-3   -3.299237999815899E-3    1.587963151910294E-3    2.786261150091097E-1    4.320967230726739E-1
 8.151423815300000E9     1.388862795806891E-1    5.258846155765771E-1   -3.301724903599756E-3    1.525853951948692E-3   -3.321904088625872E-3    1.609842372090667E-3    2.786782080354493E-1    4.320283864268047E-1
 8.151425248000000E9     1.389847283459975E-1    5.260667525262661E-1   -3.331633466296073E-3    1.540384257507624E-3   -3.312197931749028E-3    1.619958252104346E-3    2.787089810227409E-1    4.320422143453533E-1
 8.151426680700000E9     1.390889829217835E-1    5.259298174534539E-1   -3.311946352871591E-3    1.543806952516990E-3   -3.322208212336500E-3    1.592746247815599E-3    2.789427917128368E-1    4.320277184332597E-1
 8.151428113400000E9     1.392112762602171E-1    5.259642452643164E-1   -3.334620101014909E-3    1.542499470570224E-3   -3.334051388685583E-3    1.595174947398211E-3    2.790412872081338E-1    4.319378016190728E-1
 8.151429546100000E9     1.392651634024330E-1    5.259704048466244E-1   -3.380887844496490E-3    1.567821425163177E-3   -3.338166441636123E-3    1.605899400219228E-3    2.789531069202081E-1    4.318686058677774E-1
 8.151430978800000E9     1.395497960207325E-1    5.258416632949683E-1   -3.340539089351558E-3    1.554955321065128E-3   -3.356413531836355E-3    1.606444498497015E-3    2.790929512845146E-1    4.317973196833801E-1
 8.151432411500000E9     1.395064059864851E-1    5.257252838785890E-1   -3.350209925379356E-3    1.560070100802267E-3   -3.345479846785944E-3    1.624430616442531E-3    2.790736771144535E-1    4.318606316036172E-1
 8.151433844200000E9     1.397218161694839E-1    5.257522746499561E-1   -3.357225843887854E-3    1.576816435029794E-3   -3.318620307586807E-3    1.608892535684766E-3    2.793730754756928E-1    4.315932860521565E-1
 8.151435276900000E9     1.398521977931295E-1    5.257316467318721E-1   -3.340220887894964E-3    1.555135541169893E-3   -3.365577638184420E-3    1.653046474607660E-3    2.792816817797044E-1    4.317402562212911E-1
 8.151436709600000E9     1.399931690513417E-1    5.256531979699228E-1   -3.344036251388127E-3    1.564748531083160E-3   -3.372342659841914E-3    1.594821236037307E-3    2.792036527292853E-1    4.315989609524122E-1
 8.151438142300000E9     1.400067844100841E-1    5.255952448075148E-1   -3.365820010910999E-3    1.576338038272192E-3   -3.364838313109051E-3    1.637097237479901E-3    2.794666425107327E-1    4.316105464350789E-1
 8.151439575000000E9     1.402400906750568E-1    5.256212739634362E-1   -3.382574632876422E-3    1.583649372149643E-3   -3.378306280568883E-3    1.632896895276797E-3    2.795897245954369E-1    4.315420762482290E-1
 8.151441007700000E9     1.404853770169941E-1    5.255799868491867E-1   -3.357310375511218E-3    1.579089881416625E-3   -3.369147020201971E-3    1.642327116080280E-3    2.796259889062245E-1    4.315135883996772E-1
 8.151442440400000E9     1.404693091648964E-1    5.255369223847063E-1   -3.380278564158896E-3    1.564854460490800E-3   -3.366731785827761E-3    1.627525975188850E-3    2.796618418925478E-1    4.313058216012073E-1
 8.151443873100000E9     1.405784968968075E-1    5.253900289224329E-1   -3.408329898135615E-3    1.575115979696701E-3   -3.361686023968126E-3    1.647319831133992E-3    2.797508073217853E-1    4.313635182775143E-1
 8.151445305800000E9     1.408227011338396E-1    5.253924797831500E-1   -3.405968857068691E-3    1.605258386219086E-3   -3.375694763323004E-3    1.662147366379397E-3    2.799090365771422E-1    4.312421240476682E-1
 8.151446738500000E9     1.409135666085856E-1    5.254113441387950E-1   -3.390626311947694E-3    1.604956198190719E-3   -3.378640635723876E-3    1.649133554820912E-3    2.799556146924269E-1    4.312635435936786E-1
 8.151448171200000E9     1.410562759735151E-1    5.254650705721133E-1   -3.423343514718572E-3    1.593226185812456E-3   -3.424602900767735E-3    1.688896909200344E-3    2.800315025683282E-1    4.311930344869112E-1
 8.151449603900000E9     1.412503067339884E-1    5.252073672341234E-1   -3.407563564974306E-3    1.613761674121748E-3   -3.412775458507096E-3    1.654298157342489E-3    2.802060187455783E-1    4.311134853698272E-1
 8.151451036600000E9     1.413080060074479E-1    5.252789178394857E-1   -3.402747349554496E-3    1.614243426264529E-3   -3.431432763846922E-3    1.691511526645314E-3    2.801623436434121E-1    4.311340607035484E-1
 8.151452469300000E9     1.413930361282267E-1    5.252994486254321E-1   -3.423707184517630E-3    1.613460861585104E-3   -3.448614638963560E-3    1.660003786244998E-3    2.802355471176896E-1    4.310015901266631E-1
 8.151453902000000E9     1.416385767660489E-1    5.252084395952333E-1   -3.434044917552087E-3    1.611243411698760E-3   -3.428979003698419E-3    1.687041490173571E-3    2.803462712519086E-1    4.310209445478694E-1
 8.151455334700000E9     1.416420432146245E-1    5.252069260303762E-1   -3.429314501876210E-3    1.643495533444047E-3   -3.455774079356676E-3    1.695373765078550E-3    2.803408662724777E-1    4.309235520089145E-1
 8.151456767400000E9     1.418783651043464E-1    5.251522744818796E-1   -3.427600079818357E-3    1.632433652415187E-3   -3.422560133219685E-3    1.701737460874553E-3    2.803279966681166E-1    4.307251617577220E-1
 8.151458200100000E9     1.418590351671885E-1    5.251877456852645E-1   -3.458741554065131E-3    1.644685214934897E-3   -3.449796471119078E-3    1.736716304284053E-3    2.804692207074115E-1    4.308267955136561E-1
 8.151459632800000E9     1.420173878050478E-1    5.250609070196328E-1   -3.454891817307216E-3    1.629386411897373E-3   -3.455791283128998E-3    1.713178805546888E-3    2.806287080907167E-1    4.308446457424031E-1
 8.151461065500000E9     1.422008871048323E-1    5.250428441260114E-1   -3.463247224292856E-3    1.645250742668062E-3   -3.463937218985225E-3    1.728599952861314E-3    2.807061061481935E-1    4.307586846698624E-1
 8.151462498200000E9     1.423694074326110E-1    5.249444015019408E-1   -3.470221878648284E-3    1.626469131838485E-3   -3.445944870532317E-3    1.723998508836953E-3    2.807803623593081E-1    4.305590301631514E-1
 8.151463930900000E9     1.425105309152706E-1    5.248784174993028E-1   -3.475735351164117E-3    1.672889176678569E-3   -3.485378364748114E-3    1.761263032823215E-3    2.808434440081392E-1    4.305708111651867E-1
 8.151465363600000E9     1.425359001481487E-1    5.249112322639976E-1   -3.486048703201735E-3    1.683382587124616E-3   -3.499865913911954E-3    1.743746462837765E-3    2.808503181619875E-1    4.305492517579398E-1
 8.151466796300000E9     1.427755347797976E-1    5.249780911669172E-1   -3.484207675352115E-3    1.675603857501459E-3   -3.491074435469527E-3    1.716253397610353E-3    2.811176796126302E-1    4.304365014090062E-1
 8.151468229000000E9     1.428682898567951E-1    5.248072527682026E-1   -3.507954181826671E-3    1.677323897159762E-3   -3.493079461595364E-3    1.728604329948762E-3    2.810969879484310E-1    4.304783521017476E-1
 8.151469661700000E9     1.431443955203312E-1    5.247240638715029E-1   -3.502178297688883E-3    1.714219760694773E-3   -3.480215150729834E-3    1.748293534266239E-3    2.811262576078813E-1    4.303973942082477E-1
 8.151471094400000E9     1.431721733951268E-1    5.246822314077585E-1   -3.498092855080634E-3    1.665144840317138E-3   -3.517002020091641E-3    1.786498516878652E-3    2.812087877695311E-1    4.303010923748760E-1
 8.151472527100000E9     1.432657431342955E-1    5.247226986921990E-1   -3.494398455459435E-3    1.673652306429845E-3   -3.511114362627287E-3    1.770407946823225E-3    2.813157533059686E-1    4.303464993251704E-1
 8.151473959800000E9     1.434351124882587E-1    5.246347328210562E-1   -3.522607574171816E-3    1.705113288884290E-3   -3.530852815375285E-3    1.761234445549903E-3    2.814362198459117E-1    4.302274015231857E-1
 8.151475392500000E9     1.436177326305789E-1    5.247157729561153E-1   -3.515518823023625E-3    1.719044154824245E-3   -3.531443905874691E-3    1.747087506583772E-3    2.815790842684459E-1    4.301550429361456E-1
 8.151476825200000E9     1.437377165712939E-1    5.245430859190934E-1   -3.544155671740043E-3    1.721603928456095E-3   -3.539995746726114E-3    1.806260472687407E-3    2.815935470464506E-1    4.302463166909292E-1
 8.151478257900000E9     1.439188023282361E-1    5.245566072763680E-1   -3.552549994994466E-3    1.742290756969894E-3   -3.539812753219998E-3    1.772494841044562E-3    2.816382677293104E-1    4.300681780015577E-1
 8.151479690600000E9     1.438388835530269E-1    5.243038793212976E-1   -3.561411693847774E-3    1.742061551692086E-3   -3.549474768909629E-3    1.841248657579442E-3    2.817782828437217E-1    4.300797670922732E-1
 8.151481123300000E9     1.441244371676024E-1    5.242757479266540E-1   -3.575599143894454E-3    1.747003244221389E-3   -3.546567253813622E-3    1.816481849722015E-3    2.817880103091688E-1    4.298989989304767E-1
 8.151482556000000E9     1.442548593005303E-1    5.243921862212869E-1   -3.583097262190397E-3    1.746382907833399E-3   -3.554690135536310E-3    1.816987447900732E-3    2.818773436223020E-1    4.299439786745122E-1
 8.151483988700000E9     1.444356718778746E-1    5.243179511409017E-1   -3.577302551344041E-3    1.758697051463145E-3   -3.596525073750566E-3    1.817934022972925E-3    2.819807509423543E-1    4.297113656065288E-1
 8.151485421400000E9     1.445972015215515E-1    5.243192274186371E-1   -3.589502297649680E-3    1.762740272284468E-3   -3.570345511573016E-3    1.817739894627197E-3    2.820454379081858E-1    4.298110914525634E-1
 8.151486854100000E9     1.446851817405466E-1    5.241937894251952E-1   -3.584215048808891E-3    1.767701356587004E-3   -3.594252584831421E-3    1.828646762139169E-3    2.820886638446097E-1    4.297709515586056E-1
 8.151488286800000E9     1.449434693531464E-1    5.242953929970254E-1   -3.583317319525035E-3    1.775123296656004E-3   -3.599291425870881E-3    1.827011491328603E-3    2.821661546731565E-1    4.296230776524242E-1
 8.151489719500000E9     1.449577380136121E-1    5.242149008678282E-1   -3.616526483903136E-3    1.775818882565500E-3   -3.608551430428290E-3    1.878919906322972E-3    2.823148535992465E-1    4.296532230845706E-1
 8.151491152200000E9     1.452021603090184E-1    5.241383753906006E-1   -3.589275468856647E-3    1.782730822398505E-3   -3.604404817124791E-3    1.837158426549108E-3    2.823854129843748E-1    4.296187230706725E-1
 8.151492584900000E9     1.452861197455961E-1    5.240515849663078E-1   -3.608170642062603E-3    1.784363296544285E-3   -3.613009483892881E-3    1.830750908783284E-3    2.824028985715527E-1    4.294858668077575E-1
 8.151494017600000E9     1.454041589749239E-1    5.239750180014880E-1   -3.646952135031640E-3    1.787002062951298E-3   -3.609924527431379E-3    1.847087613292128E-3    2.825857716975160E-1    4.294914997764091E-1
 8.151495450300000E9     1.456010102439214E-1    5.238435031644845E-1   -3.638791733871945E-3    1.792815388591294E-3   -3.643566352842157E-3    1.879439505467235E-3    2.826203420700344E-1    4.293878764997660E-1
 8.151496883000000E9     1.457191411097492E-1    5.238806635500065E-1   -3.649842308185266E-3    1.829092985996047E-3   -3.649359874996715E-3    1.884592382158055E-3    2.827549245327369E-1    4.294313589360728E-1
 8.151498315700000E9     1.456455598528554E-1    5.237485538448214E-1   -3.657878601637849E-3    1.848299866798827E-3   -3.678711268135365E-3    1.899938163632854E-3    2.828113061089140E-1    4.293700286608808E-1
 8.151499748400000E9     1.460734738673937E-1    5.237867082229570E-1   -3.658026141141732E-3    1.818337006724613E-3   -3.653118558209531E-3    1.920077293703987E-3    2.828318001704024E-1    4.293144891429030E-1
 8.151501181100000E9     1.461854597598395E-1    5.237539803197687E-1   -3.666591910068625E-3    1.846263405393256E-3   -3.651371933526373E-3    1.933605286431267E-3    2.829430392489269E-1    4.291032849422385E-1
 8.151502613800000E9     1.463580637086958E-1    5.237203808925176E-1   -3.680612731577018E-3    1.841188059825023E-3   -3.710388591793924E-3    1.927679917624519E-3    2.830269412109519E-1    4.291364877765785E-1
 8.151504046500000E9     1.466072147508853E-1    5.235893767990838E-1   -3.690745246814598E-3    1.853210689966016E-3   -3.679172720608583E-3    1.937440678404623E-3    2.831231780421726E-1    4.290496054356654E-1
 8.151505479200000E9     1.465067380073426E-1    5.234667246863709E-1   -3.668320371739571E-3    1.879662960038305E-3   -3.698684530527417E-3    1.922227726892340E-3    2.832021336163112E-1    4.291505424837940E-1
 8.151506911900000E9     1.467267675484918E-1    5.235508148046171E-1   -3.697296459278427E-3    1.897449430380989E-3   -3.697614523148419E-3    1.925353397359944E-3    2.832519286738093E-1    4.289466946098571E-1
 8.151508344600000E9     1.469408969343088E-1    5.234941837201462E-1   -3.731446918399740E-3    1.921350269304536E-3   -3.737758830255427E-3    1.937471946186826E-3    2.833185491813097E-1    4.288785299154483E-1
 8.151509777300000E9     1.470974598487533E-1    5.233651196554557E-1   -3.738240870489260E-3    1.905087706329925E-3   -3.754871100632980E-3    1.975242021651214E-3    2.833846190021728E-1    4.287422851998951E-1
 8.151511210000000E9     1.471982427393960E-1    5.233773622582008E-1   -3.726339954845303E-3    1.912632007487989E-3   -3.751894652829422E-3    1.968549547442810E-3    2.835404335437496E-1    4.288236811740230E-1
 8.151512642700000E9     1.472990895019166E-1    5.233142432464055E-1   -3.743282975887144E-3    1.915353521817504E-3   -3.739367668032585E-3    1.970032476969173E-3    2.835663610403453E-1    4.287082134744146E-1
 8.151514075400000E9     1.474716595002000E-1    5.233474437658602E-1   -3.728925508235299E-3    1.961117890551276E-3   -3.767777337387028E-3    2.001790513621171E-3    2.835811041041496E-1    4.288307870655242E-1
 8.151515508100000E9     1.476955454284834E-1    5.231738989748229E-1   -3.778820316907314E-3    1.931887416977105E-3   -3.757117597024497E-3    1.991267857248593E-3    2.836355519059337E-1    4.285054313544955E-1
 8.151516940800000E9     1.479005374101082E-1    5.231259237229369E-1   -3.784824090731686E-3    1.942610319499881E-3   -3.790448340249840E-3    2.020688818863514E-3    2.838013174904743E-1    4.285167324768846E-1
 8.151518373500000E9     1.480163626511536E-1    5.231004653845414E-1   -3.766050955972950E-3    1.969825768159361E-3   -3.813967250033632E-3    2.033595255289465E-3    2.838210905216182E-1    4.285732534348110E-1
 8.151519806200000E9     1.480406416751664E-1    5.230645517993840E-1   -3.814629680052169E-3    1.985095246395249E-3   -3.780480583250089E-3    2.046440252854424E-3    2.839557295717631E-1    4.285377267242778E-1
 8.151521238900000E9     1.483462346519069E-1    5.228500319390904E-1   -3.826163896150373E-3    1.977000491653862E-3   -3.824704473367399E-3    2.040142168941926E-3    2.840449397943159E-1    4.284481161850008E-1
 8.151522671600000E9     1.485100836357380E-1    5.229152630486021E-1   -3.811232536634812E-3    1.992276939062931E-3   -3.849056773159438E-3    2.055559736372640E-3    2.842051884934488E-1    4.284876993332675E-1
 8.151524104300000E9     1.486100301223088E-1    5.228815348433378E-1   -3.846590411368255E-3    2.008237968853065E-3   -3.852819893211463E-3    2.070181002059016E-3    2.840816214812195E-1    4.281745640273580E-1
 8.151525537000000E9     1.488494086362211E-1    5.228306058621878E-1   -3.858675646599270E-3    2.010762312679166E-3   -3.848091828025491E-3    2.068417254976368E-3    2.842040133331497E-1    4.282813252165118E-1
