#  HZ   S   RI   R     50.00 
! Rohde & Schwarz Vector Network Analyzer 
! Rohde-Schwarz,ZNB20-2Port,1311601062101988,3.16
! Created: UTC 3/21/2024, 12:53:59 AM
! freq[Hz]                re:S11                  im:S11                  re:S21                  im:S21                  re:S12                  im:S12                  re:S22                  im:S22
 8.150999839000000E9     1.038419961323702E-1    5.328892301061020E-1   -2.698150442489099E-3    9.495966081687855E-4   -2.680613120968460E-3    1.022939980645348E-3    2.515089892351653E-1    4.484670469640769E-1
 8.151003578275000E9     1.041105266722593E-1    5.328915643983760E-1   -2.713944073589312E-3    9.469058583320199E-4   -2.717362700847700E-3    1.048246111508720E-3    2.518224874654772E-1    4.485019285538123E-1
 8.151007317550000E9     1.042918379456676E-1    5.327289660252496E-1   -2.701907818651741E-3    9.545668677424073E-4   -2.726104769604024E-3    1.032479040518174E-3    2.520427145029888E-1    4.483551147195157E-1
 8.151011056825000E9     1.046366369630485E-1    5.326811023568651E-1   -2.712466106695820E-3    9.783850409486377E-4   -2.736693741871960E-3    9.892425299885947E-4    2.522283203578065E-1    4.482088845822896E-1
 8.151014796100000E9     1.050070919708183E-1    5.326426440155438E-1   -2.696695756492127E-3    9.946042535919314E-4   -2.685456439908173E-3    1.036497599174562E-3    2.525678404015332E-1    4.481412301549286E-1
 8.151018535375000E9     1.053210978500313E-1    5.325724771996238E-1   -2.698416961482935E-3    9.603839370437775E-4   -2.748252449617892E-3    1.036236345954763E-3    2.525637628619926E-1    4.479446271683460E-1
 8.151022274650000E9     1.054585988713976E-1    5.324922996627754E-1   -2.724966063131774E-3    9.803079180129724E-4   -2.685089281388664E-3    1.041362817411967E-3    2.529518756552219E-1    4.477377604564771E-1
 8.151026013925000E9     1.058796165391154E-1    5.324874452087461E-1   -2.716303132371816E-3    9.969003100605573E-4   -2.717644914356727E-3    1.039569896812965E-3    2.530147700636450E-1    4.476835903748477E-1
 8.151029753200000E9     1.060397435789150E-1    5.324234822030680E-1   -2.699332840077287E-3    9.959081800064112E-4   -2.718881065640526E-3    1.039302783100185E-3    2.532094771329765E-1    4.475615864318379E-1
 8.151033492475000E9     1.062713169570670E-1    5.324772343674552E-1   -2.705541324128254E-3    9.938112058114380E-4   -2.757825469868554E-3    1.051231058741601E-3    2.533466158573514E-1    4.473333868303415E-1
 8.151037231750000E9     1.064736334957433E-1    5.323143129411393E-1   -2.706072272934079E-3    9.866665517964596E-4   -2.731942825810539E-3    1.059400794638016E-3    2.536706170621264E-1    4.473027191581328E-1
 8.151040971025000E9     1.069323784937147E-1    5.322240402336296E-1   -2.692823334733680E-3    9.952589204636204E-4   -2.710624637298899E-3    1.035691654090297E-3    2.538719662362623E-1    4.471436997231863E-1
 8.151044710300000E9     1.071299922608889E-1    5.323071417562683E-1   -2.701659909112877E-3    9.781404143750206E-4   -2.695359283450356E-3    1.064006896219791E-3    2.541152211575473E-1    4.471245048527963E-1
 8.151048449575000E9     1.074364506967854E-1    5.321843022139772E-1   -2.718117693757123E-3    9.979592993774548E-4   -2.748049738228793E-3    1.026556395818179E-3    2.543029787545548E-1    4.470327881177202E-1
 8.151052188850000E9     1.075347633751442E-1    5.321137303994867E-1   -2.716781858715887E-3    1.027575865969783E-3   -2.744892152591469E-3    1.042325824991338E-3    2.544832974091749E-1    4.468113192790535E-1
 8.151055928125000E9     1.079591436256245E-1    5.320936437059245E-1   -2.709337835149633E-3    1.020557541095727E-3   -2.712997489101167E-3    1.057902066535161E-3    2.547605536469610E-1    4.467763006506467E-1
 8.151059667400000E9     1.081966736243693E-1    5.320595764543724E-1   -2.702046633564657E-3    1.019602398199466E-3   -2.713765244312874E-3    1.071935716812169E-3    2.549697773714767E-1    4.465776233015895E-1
 8.151063406675000E9     1.085018690484525E-1    5.320415582929338E-1   -2.725149194596499E-3    9.954910960642323E-4   -2.724583391819260E-3    1.057397747722339E-3    2.551015688808465E-1    4.465357973590007E-1
 8.151067145950000E9     1.087120111045685E-1    5.318570232016966E-1   -2.751101071960167E-3    1.046241282334316E-3   -2.702713851427050E-3    1.071365452745893E-3    2.554824468509209E-1    4.462572849028263E-1
 8.151070885225000E9     1.089644661037184E-1    5.319480651069608E-1   -2.707618918588810E-3    1.010131700511567E-3   -2.727465792272534E-3    1.092205648543896E-3    2.555615155114873E-1    4.462392802846767E-1
 8.151074624500000E9     1.092241966632072E-1    5.317054721427669E-1   -2.702219687883398E-3    1.014656477071519E-3   -2.720365982781513E-3    1.049038541831576E-3    2.557206230266374E-1    4.460995662233996E-1
 8.151078363775000E9     1.095355278370175E-1    5.318105132078799E-1   -2.723369069227844E-3    1.014457865927053E-3   -2.737032523583251E-3    1.088095333106513E-3    2.558612701971842E-1    4.460119535919634E-1
 8.151082103050000E9     1.098122588841923E-1    5.316744275298642E-1   -2.736214096975918E-3    1.030930201615859E-3   -2.750366372072865E-3    1.099776458880275E-3    2.562281857615060E-1    4.458952324462576E-1
 8.151085842325000E9     1.100941431622992E-1    5.314853680746761E-1   -2.742486946056415E-3    1.060611320787240E-3   -2.722536347352876E-3    1.094552980617251E-3    2.562973859454075E-1    4.457599411519151E-1
 8.151089581600000E9     1.103520943748871E-1    5.317034171415729E-1   -2.731201774132884E-3    1.054143262914278E-3   -2.751960301546888E-3    1.083645507518090E-3    2.565647348422307E-1    4.455836475212110E-1
 8.151093320875000E9     1.105079379121297E-1    5.315907991881432E-1   -2.708508551057243E-3    1.028530440196458E-3   -2.744509886235888E-3    1.065006779608062E-3    2.568220285508346E-1    4.455732294665005E-1
 8.151097060150000E9     1.109299833060203E-1    5.315307069765394E-1   -2.736213000314128E-3    1.051622520711776E-3   -2.741061974397252E-3    1.074970177093963E-3    2.570238089962609E-1    4.453124969656916E-1
 8.151100799425000E9     1.111442621744674E-1    5.314943150616401E-1   -2.767699125898270E-3    1.017296243203121E-3   -2.733470417778615E-3    1.072368165741015E-3    2.571619156096741E-1    4.453684078253263E-1
 8.151104538700000E9     1.115023868821685E-1    5.313900748364656E-1   -2.756962200680206E-3    1.034167936792670E-3   -2.774507791388199E-3    1.092161069683136E-3    2.574551383054426E-1    4.450376355420433E-1
 8.151108277975000E9     1.117203136747118E-1    5.313502983252657E-1   -2.753918286325039E-3    1.046732546575799E-3   -2.730764721726280E-3    1.097735007481078E-3    2.576343747158365E-1    4.449379048277649E-1
 8.151112017250000E9     1.120603635900610E-1    5.313048174085491E-1   -2.751376951268935E-3    1.051090651526467E-3   -2.751071575577605E-3    1.078406700063773E-3    2.577404997537320E-1    4.449126991001425E-1
 8.151115756525000E9     1.122620480003419E-1    5.313089830555785E-1   -2.757120049552762E-3    1.015872146198942E-3   -2.774490655426057E-3    1.068135204842613E-3    2.580553698172807E-1    4.447091500601420E-1
 8.151119495800000E9     1.124568393564493E-1    5.313356149091802E-1   -2.755135629778488E-3    1.038868448474114E-3   -2.747598954388223E-3    1.106518811226839E-3    2.581517809358437E-1    4.445793699176807E-1
 8.151123235075000E9     1.127199736498056E-1    5.310330787696809E-1   -2.710821823940950E-3    1.034430437084520E-3   -2.712510366743584E-3    1.110958711337095E-3    2.584764247963695E-1    4.444866951997247E-1
 8.151126974350000E9     1.130240860332297E-1    5.310960640952606E-1   -2.766567808312589E-3    1.039511518963597E-3   -2.796702525032412E-3    1.082569504625051E-3    2.586655792119323E-1    4.444208275307754E-1
 8.151130713625000E9     1.132406906722981E-1    5.311851238509218E-1   -2.751254598651859E-3    1.062247707611842E-3   -2.766077061043056E-3    1.087033215263596E-3    2.589304799923580E-1    4.442012621021749E-1
 8.151134452900000E9     1.135858020328539E-1    5.310266421191758E-1   -2.776945551605554E-3    1.050997690715197E-3   -2.771668208774273E-3    1.089137120570367E-3    2.591981310251179E-1    4.441289286277724E-1
 8.151138192175000E9     1.137696732363565E-1    5.309591539195573E-1   -2.741115992225037E-3    1.038887576954254E-3   -2.737125778313689E-3    1.141833117088622E-3    2.592700295959490E-1    4.439639459689407E-1
 8.151141931450000E9     1.142291013023317E-1    5.307623605532091E-1   -2.740782859011555E-3    1.074601512239394E-3   -2.762093257742463E-3    1.114118469348729E-3    2.593640541212295E-1    4.437671753459881E-1
 8.151145670725000E9     1.144240040143788E-1    5.309387972223389E-1   -2.758030072462185E-3    1.058153667295695E-3   -2.781492868634886E-3    1.076709480971169E-3    2.596902921954038E-1    4.436134471290942E-1
 8.151149410000000E9     1.146763089241985E-1    5.307258327978263E-1   -2.733377090930599E-3    1.076993157435511E-3   -2.769772379993542E-3    1.111830584905443E-3    2.599129775305341E-1    4.435247770324184E-1
 8.151153149275000E9     1.150100836273300E-1    5.307799091721132E-1   -2.763782476040771E-3    1.087042238635074E-3   -2.741877552785067E-3    1.149731226196933E-3    2.601688915324722E-1    4.433069992693567E-1
 8.151156888550000E9     1.151838806571784E-1    5.306930413150300E-1   -2.746717969118044E-3    1.077849708438832E-3   -2.757999224708466E-3    1.124109380322822E-3    2.602608335283129E-1    4.432919959839590E-1
 8.151160627825000E9     1.154127447152800E-1    5.306206176429513E-1   -2.718658266828109E-3    1.089549952353122E-3   -2.746284084726915E-3    1.148497337318585E-3    2.604033871918355E-1    4.433164257088628E-1
 8.151164367100000E9     1.157561255193600E-1    5.304605118254481E-1   -2.797040510659926E-3    1.071830688420931E-3   -2.789261804171401E-3    1.123483490128499E-3    2.607835144824225E-1    4.429718245802584E-1
 8.151168106375000E9     1.158943455260536E-1    5.305186741366232E-1   -2.774688932162817E-3    1.072621078574591E-3   -2.773816740204683E-3    1.143081038140865E-3    2.609041374261838E-1    4.430144680503958E-1
 8.151171845650000E9     1.162443048657010E-1    5.304781608983602E-1   -2.763575359842832E-3    1.113552454053148E-3   -2.779629782350946E-3    1.134852725962771E-3    2.610413548981537E-1    4.427254002690267E-1
 8.151175584925000E9     1.165922140376805E-1    5.304055586991439E-1   -2.766059296169996E-3    1.062869801635266E-3   -2.773588205653780E-3    1.138718246324972E-3    2.613502486519038E-1    4.426411509925795E-1
 8.151179324200000E9     1.167906850481156E-1    5.304034379027303E-1   -2.746397829222801E-3    1.086698818100590E-3   -2.757313891396159E-3    1.147655528383680E-3    2.615610492792715E-1    4.425148366237188E-1
 8.151183063475000E9     1.170515721068481E-1    5.303132624710778E-1   -2.788955473339175E-3    1.069725627714211E-3   -2.761418347457739E-3    1.151114273981648E-3    2.617146743084676E-1    4.422606987533784E-1
 8.151186802750000E9     1.173136630384529E-1    5.302621570720731E-1   -2.775235056683016E-3    1.098768034633827E-3   -2.759014675280406E-3    1.145408928087007E-3    2.618502040635423E-1    4.423675811041705E-1
 8.151190542025000E9     1.175755416417976E-1    5.301898024483874E-1   -2.785843392692855E-3    1.103881098993864E-3   -2.756757990174261E-3    1.129310060888921E-3    2.620980226609933E-1    4.421179321580881E-1
 8.151194281300000E9     1.179236288316306E-1    5.300983415248449E-1   -2.794235495104420E-3    1.096705339875212E-3   -2.752525782976910E-3    1.139889877854315E-3    2.624433875659919E-1    4.420029735882606E-1
 8.151198020575000E9     1.182940336474667E-1    5.300893129546552E-1   -2.784380290659666E-3    1.098701658274981E-3   -2.789387887888732E-3    1.184517108434796E-3    2.625923627796845E-1    4.419558852671427E-1
 8.151201759850000E9     1.184102259355085E-1    5.299029140468539E-1   -2.775042658914517E-3    1.084604500280851E-3   -2.788442430738276E-3    1.174105361728906E-3    2.628139745538968E-1    4.417667126826208E-1
 8.151205499125000E9     1.186870443318395E-1    5.300080845475397E-1   -2.786427458155100E-3    1.124268638771533E-3   -2.796951263040965E-3    1.164245892669837E-3    2.629106557121897E-1    4.417456840343683E-1
 8.151209238400000E9     1.189359113139600E-1    5.298211340879756E-1   -2.771752782018504E-3    1.120475326052777E-3   -2.797261059088501E-3    1.190646807139322E-3    2.631580189057176E-1    4.416722848519359E-1
 8.151212977675000E9     1.192471171370608E-1    5.298931327071238E-1   -2.806146018492650E-3    1.109067388267248E-3   -2.804948294686220E-3    1.170861958388934E-3    2.633982717434551E-1    4.413824431669099E-1
 8.151216716950000E9     1.195062005099467E-1    5.297771196819789E-1   -2.791215608862089E-3    1.133992663530012E-3   -2.784637350085180E-3    1.170232776008594E-3    2.635650915040454E-1    4.413722095477348E-1
 8.151220456225000E9     1.197842848171573E-1    5.296775146623174E-1   -2.769099803840820E-3    1.111280504057571E-3   -2.798736643545760E-3    1.171875587578800E-3    2.637433139709863E-1    4.412451457251666E-1
 8.151224195500000E9     1.201431953416007E-1    5.297121261670463E-1   -2.779167463823598E-3    1.128393818191134E-3   -2.793569131816969E-3    1.202186947616726E-3    2.640265389871393E-1    4.409859310758164E-1
 8.151227934775000E9     1.202884399897469E-1    5.295929944645514E-1   -2.800641317294419E-3    1.100309554633272E-3   -2.829513373524071E-3    1.209685154801825E-3    2.642228559486750E-1    4.409451748337969E-1
 8.151231674050000E9     1.204817038624730E-1    5.295281774682463E-1   -2.806263709822211E-3    1.133902750499764E-3   -2.811172780517711E-3    1.157490880349808E-3    2.643768967971347E-1    4.408834465450280E-1
 8.151235413325000E9     1.208903161548809E-1    5.295095815672998E-1   -2.781755567436606E-3    1.165598967290058E-3   -2.824008647215670E-3    1.193748855085484E-3    2.645598204262919E-1    4.406371800925709E-1
 8.151239152600000E9     1.211319879888286E-1    5.294258039457274E-1   -2.817155344403377E-3    1.124275059784798E-3   -2.835590003760201E-3    1.195606303377139E-3    2.648445545921376E-1    4.406260131008184E-1
 8.151242891875000E9     1.213674025561687E-1    5.294078900263579E-1   -2.802799264663562E-3    1.147411663640856E-3   -2.812862155054008E-3    1.201740868632851E-3    2.650691348778192E-1    4.404705941069752E-1
 8.151246631150000E9     1.217502851054245E-1    5.293605476637238E-1   -2.815061635519529E-3    1.156058519975997E-3   -2.833575572096148E-3    1.199923738035400E-3    2.652955893485697E-1    4.402017685734881E-1
 8.151250370425000E9     1.219618523268836E-1    5.293006999127300E-1   -2.837396470976393E-3    1.170932139732701E-3   -2.816509758149221E-3    1.212172934344312E-3    2.653927519149219E-1    4.401230259468998E-1
 8.151254109700000E9     1.221945861112991E-1    5.291974736408477E-1   -2.814437004604891E-3    1.184902357522447E-3   -2.838201447738095E-3    1.222224996780654E-3    2.657025813866535E-1    4.400828951231365E-1
 8.151257848975000E9     1.226330365886533E-1    5.292269545577711E-1   -2.823944849781221E-3    1.164227864660009E-3   -2.820423693214116E-3    1.191587012627590E-3    2.659515422788649E-1    4.398310106000022E-1
 8.151261588250000E9     1.228009951450798E-1    5.290826814061224E-1   -2.823675231888051E-3    1.164357608326203E-3   -2.831880197508285E-3    1.219633333560365E-3    2.661819884216929E-1    4.397300386835382E-1
 8.151265327525000E9     1.229988951035164E-1    5.289731153874705E-1   -2.843187683549839E-3    1.173531965494059E-3   -2.848963541689323E-3    1.195647774494173E-3    2.662853151860269E-1    4.396302536813245E-1
 8.151269066800000E9     1.232897997289391E-1    5.289524995331667E-1   -2.829035540375532E-3    1.156594276163799E-3   -2.877408093252416E-3    1.205353120318055E-3    2.665020044841260E-1    4.395128657729672E-1
 8.151272806075000E9     1.236205812697514E-1    5.288975675497292E-1   -2.807264925213662E-3    1.178605806123633E-3   -2.867791983796074E-3    1.218523200321288E-3    2.666697270544414E-1    4.393524853130831E-1
 8.151276545350000E9     1.238698955683321E-1    5.288885846261884E-1   -2.831320922757938E-3    1.192879666132675E-3   -2.829336793203149E-3    1.240862314898919E-3    2.669149649080023E-1    4.392597836865986E-1
 8.151280284625000E9     1.240796332323581E-1    5.288843997854709E-1   -2.826883297376066E-3    1.180724804855778E-3   -2.820352948350205E-3    1.235584650047314E-3    2.670903618586158E-1    4.390066367329252E-1
 8.151284023900000E9     1.244234052116664E-1    5.287514869118196E-1   -2.810465832015822E-3    1.183424944802161E-3   -2.851095335014524E-3    1.215146423094757E-3    2.673369934365152E-1    4.390514436476989E-1
 8.151287763175000E9     1.246801566901255E-1    5.286767028237731E-1   -2.828211583286792E-3    1.214112397984370E-3   -2.867489170624463E-3    1.232296058512454E-3    2.674435864962982E-1    4.390228386512064E-1
 8.151291502450000E9     1.249787409185514E-1    5.285328078528315E-1   -2.827674660711999E-3    1.181474799701286E-3   -2.824481726044418E-3    1.224661297162036E-3    2.677831125844539E-1    4.388113441649842E-1
 8.151295241725000E9     1.252283743450393E-1    5.285540343971589E-1   -2.837356106663693E-3    1.202074089414213E-3   -2.852504241618920E-3    1.255797379369580E-3    2.679674966654687E-1    4.385513502146607E-1
 8.151298981000000E9     1.256489843134058E-1    5.284309675262479E-1   -2.851589766396860E-3    1.228949623897383E-3   -2.881699694712266E-3    1.242366482484838E-3    2.681272120324556E-1    4.384904364922063E-1
 8.151302720275000E9     1.257340458333840E-1    5.284028171806110E-1   -2.853233923549006E-3    1.215163318181410E-3   -2.856792281855274E-3    1.263798800395198E-3    2.683134959841877E-1    4.384081841314749E-1
 8.151306459550000E9     1.259276635962849E-1    5.283655049186151E-1   -2.855493225662906E-3    1.211335632027170E-3   -2.873836446618396E-3    1.261268118177044E-3    2.686178842455076E-1    4.382239314697893E-1
 8.151310198825000E9     1.263471361033209E-1    5.282180375355203E-1   -2.844267728717835E-3    1.247291041632483E-3   -2.865087982079545E-3    1.253062535271256E-3    2.686163569948889E-1    4.380629101278195E-1
 8.151313938100000E9     1.265690695913306E-1    5.282716669445914E-1   -2.860844583281703E-3    1.230547960445683E-3   -2.887926873646228E-3    1.237939471879467E-3    2.688346919071052E-1    4.379425529913465E-1
 8.151317677375000E9     1.269055697608559E-1    5.281967868705332E-1   -2.852986681865930E-3    1.206322837338458E-3   -2.881499300290401E-3    1.256397142093137E-3    2.690459142497076E-1    4.376971473297357E-1
 8.151321416650000E9     1.271998218497130E-1    5.279455719269778E-1   -2.848855397512588E-3    1.228879967922348E-3   -2.901261257106236E-3    1.280913968418471E-3    2.693589142617591E-1    4.376489203983552E-1
 8.151325155925000E9     1.274544441869965E-1    5.279727646349104E-1   -2.904268481193830E-3    1.230982409880349E-3   -2.888204137879238E-3    1.314994993721671E-3    2.696145934735278E-1    4.376627282290599E-1
 8.151328895200000E9     1.277716571060686E-1    5.279814979565044E-1   -2.850074253882941E-3    1.228625380576777E-3   -2.913096695655862E-3    1.293509531251851E-3    2.697921543122703E-1    4.373724863454675E-1
 8.151332634475000E9     1.280316755066397E-1    5.279123094269846E-1   -2.868700067401440E-3    1.266883527489950E-3   -2.908125278470587E-3    1.308705736547729E-3    2.700049124258592E-1    4.374285550694164E-1
 8.151336373750000E9     1.283132591135355E-1    5.278222069909339E-1   -2.861701129777496E-3    1.263535316860606E-3   -2.879932593902367E-3    1.308207024360763E-3    2.701510258451358E-1    4.370993080039470E-1
