#  HZ   S   RI   R     50.00 
! Rohde & Schwarz Vector Network Analyzer 
! Rohde-Schwarz,ZNB20-2Port,1311601062101988,3.16
! Created: UTC 3/21/2024, 12:54:11 AM
! freq[Hz]                re:S11                  im:S11                  re:S21                  im:S21                  re:S12                  im:S12                  re:S22                  im:S22
 8.150956491000000E9     1.005946107359707E-1    5.332818721231870E-1   -2.683273007982980E-3    9.378757199501400E-4   -2.679947650178256E-3    9.806308687551513E-4    2.487805672730632E-1    4.501930231892123E-1
 8.150960447575000E9     1.009220696473765E-1    5.332846895501462E-1   -2.684483119344427E-3    9.377867903734948E-4   -2.723487358536783E-3    1.041954333343790E-3    2.490384646999035E-1    4.501233959224253E-1
 8.150964404150000E9     1.012657494411575E-1    5.333075767628628E-1   -2.667598464646316E-3    9.453832171375954E-4   -2.689095474434840E-3    9.952857566495556E-4    2.492411750010706E-1    4.499994581095386E-1
 8.150968360725000E9     1.015328823639453E-1    5.330719836856637E-1   -2.692016087755993E-3    9.393752457701473E-4   -2.691995193363239E-3    1.006220966460761E-3    2.494665684583465E-1    4.498101053440374E-1
 8.150972317300000E9     1.017581488873843E-1    5.332000894761183E-1   -2.680943529832364E-3    9.394242852892308E-4   -2.694462566350780E-3    1.039117589916059E-3    2.496276877752420E-1    4.497475395500039E-1
 8.150976273875000E9     1.020511451454282E-1    5.332050914730364E-1   -2.700594519102275E-3    9.773458609294166E-4   -2.689290275802083E-3    9.951834594595795E-4    2.497519459638862E-1    4.496651572195040E-1
 8.150980230450000E9     1.024635211432015E-1    5.330802121240160E-1   -2.669885978410369E-3    9.540285672874446E-4   -2.699706279818322E-3    9.895025894209608E-4    2.499401790821761E-1    4.494552095652150E-1
 8.150984187025000E9     1.026511044828797E-1    5.329985805945893E-1   -2.671080592186174E-3    9.798513352349953E-4   -2.694103702231434E-3    1.042812504017539E-3    2.502727705473470E-1    4.492674643655478E-1
 8.150988143600000E9     1.029200092056059E-1    5.329233572522338E-1   -2.694383883099582E-3    9.454298130850297E-4   -2.690657755251976E-3    1.010467603736902E-3    2.505498518712803E-1    4.491674313214965E-1
 8.150992100175000E9     1.031853787748890E-1    5.328532817825022E-1   -2.699449128764104E-3    9.608079966022805E-4   -2.705289046536910E-3    9.955580847766255E-4    2.507199716703571E-1    4.490595298275833E-1
 8.150996056750000E9     1.035582858329091E-1    5.328360518746313E-1   -2.698025256814133E-3    9.680839167879638E-4   -2.681327813590462E-3    9.998092241850247E-4    2.509001447405745E-1    4.489498066864090E-1
 8.151000013325000E9     1.038503941284051E-1    5.328075103112070E-1   -2.710586762306168E-3    9.414733453409109E-4   -2.673600768615386E-3    1.028278237170036E-3    2.513156107548121E-1    4.488480382051653E-1
 8.151003969900000E9     1.041019399970564E-1    5.326933584648348E-1   -2.708470427742350E-3    9.869267030200577E-4   -2.699357114732178E-3    1.034347221341480E-3    2.514898243267831E-1    4.486722301992770E-1
 8.151007926475000E9     1.043931435060165E-1    5.327095083603310E-1   -2.702743519953977E-3    9.722479099024406E-4   -2.713087436207506E-3    1.028661759379030E-3    2.516808265892538E-1    4.485330389127765E-1
 8.151011883050000E9     1.045773741983412E-1    5.325548540869728E-1   -2.695297376931836E-3    9.784879557199460E-4   -2.724604789715242E-3    9.869489428005150E-4    2.518774832235064E-1    4.482469603208293E-1
 8.151015839625000E9     1.048756337867577E-1    5.326670414775285E-1   -2.709503355304250E-3    9.851789096207192E-4   -2.700996956852900E-3    1.022466793870834E-3    2.520801914431329E-1    4.483530125395223E-1
 8.151019796200000E9     1.051266646680793E-1    5.324838634160564E-1   -2.684060070709266E-3    9.701450492278842E-4   -2.738347765331739E-3    1.047731824313590E-3    2.522952984778205E-1    4.481616185828688E-1
 8.151023752775000E9     1.055089347288844E-1    5.325398005732580E-1   -2.704765408557300E-3    9.823605113947660E-4   -2.709846001301397E-3    1.021163668757608E-3    2.524512680058010E-1    4.480151532864552E-1
 8.151027709350000E9     1.058671265820918E-1    5.323435895158949E-1   -2.683529141579164E-3    9.763610949539903E-4   -2.686686649717002E-3    1.028116642083772E-3    2.527083721416144E-1    4.478220316514090E-1
 8.151031665925000E9     1.062004702073367E-1    5.324474247299703E-1   -2.713867902600458E-3    9.877621589941350E-4   -2.712935734653671E-3    1.032257098908373E-3    2.529979346002462E-1    4.477538263554660E-1
 8.151035622500000E9     1.063457535672439E-1    5.323879333519942E-1   -2.701910801434711E-3    9.919718943045810E-4   -2.738602675041166E-3    1.064637382783234E-3    2.532164867066326E-1    4.476658972393725E-1
 8.151039579075000E9     1.066542538445773E-1    5.323064557172443E-1   -2.706312159757186E-3    9.906959664401061E-4   -2.731318382707044E-3    1.016528569507137E-3    2.534167817983665E-1    4.474588498940257E-1
 8.151043535650000E9     1.069308021243956E-1    5.321691787882989E-1   -2.706752872322186E-3    9.941758641716664E-4   -2.743972157673808E-3    1.060815612661589E-3    2.537516481823804E-1    4.474262700242011E-1
 8.151047492225000E9     1.072397464141633E-1    5.321534250532381E-1   -2.722174446409415E-3    9.836372082349630E-4   -2.716777995658057E-3    1.065755309631535E-3    2.539215579374592E-1    4.472849705891116E-1
 8.151051448800000E9     1.074519782314417E-1    5.320819042108147E-1   -2.715197328760788E-3    9.786373868882839E-4   -2.711519028887576E-3    1.036677083868457E-3    2.540268147019715E-1    4.472218762846982E-1
 8.151055405375000E9     1.076771828318312E-1    5.321893404844744E-1   -2.691768491195827E-3    1.008625345127507E-3   -2.718316523071548E-3    1.043915490199834E-3    2.542345418289110E-1    4.468214765371201E-1
 8.151059361950000E9     1.080643372303005E-1    5.320453874863224E-1   -2.717068786673818E-3    9.758477416195069E-4   -2.731437508084115E-3    1.056999818942913E-3    2.545126534487079E-1    4.467690108649688E-1
 8.151063318525000E9     1.082944627481097E-1    5.320911330822855E-1   -2.722192842558210E-3    9.870267913919379E-4   -2.690742783606110E-3    1.024412244366423E-3    2.547827919127192E-1    4.467984912848269E-1
 8.151067275100000E9     1.085138536366013E-1    5.318903675920987E-1   -2.731720004811502E-3    9.831039159353564E-4   -2.712814722882553E-3    1.065568127971909E-3    2.548936730511580E-1    4.466966383180109E-1
 8.151071231675000E9     1.088699126186021E-1    5.318214207371065E-1   -2.685038368072367E-3    1.003112609759568E-3   -2.768277335008361E-3    1.068202602634218E-3    2.551276181917113E-1    4.464167064736115E-1
 8.151075188250000E9     1.091408049618661E-1    5.318215813355517E-1   -2.725237869980199E-3    1.006888254832021E-3   -2.719895898186723E-3    1.071966910389270E-3    2.553949005637505E-1    4.464079911201185E-1
 8.151079144825000E9     1.096251784547064E-1    5.317119717260663E-1   -2.720641559133910E-3    1.015591269229204E-3   -2.731726572267207E-3    1.060707676016771E-3    2.556544634849684E-1    4.462056729341393E-1
 8.151083101400000E9     1.097692072314180E-1    5.316243079775483E-1   -2.716711017235500E-3    1.016193070401769E-3   -2.735937897450645E-3    1.070168715641828E-3    2.558247449350714E-1    4.461104870703430E-1
 8.151087057975000E9     1.100605351972393E-1    5.317088545132911E-1   -2.727540268193511E-3    1.008084803528834E-3   -2.757484599544340E-3    1.067801257977284E-3    2.560207494205707E-1    4.459575458598861E-1
 8.151091014550000E9     1.104263171508770E-1    5.314979536000503E-1   -2.738891091946096E-3    1.024891425744505E-3   -2.716242225060414E-3    1.059362935074721E-3    2.562436190024999E-1    4.458099636291605E-1
 8.151094971125000E9     1.106815457648387E-1    5.316285207910273E-1   -2.730392351257231E-3    1.019570974634205E-3   -2.736889343820667E-3    1.072620345018329E-3    2.564898692742938E-1    4.455958920370504E-1
 8.151098927700000E9     1.108393997659383E-1    5.315369735929505E-1   -2.750092321006668E-3    1.025518905858264E-3   -2.727018202648740E-3    1.067740878067320E-3    2.566170160635164E-1    4.455317952391113E-1
 8.151102884275000E9     1.112305927617922E-1    5.313524615692679E-1   -2.726093637411754E-3    1.030512344580676E-3   -2.750412552996880E-3    1.081843094274509E-3    2.569307059407844E-1    4.454298774290661E-1
 8.151106840850000E9     1.114319447055092E-1    5.314172385555506E-1   -2.707433864361743E-3    1.053821785346944E-3   -2.765454085807860E-3    1.065935898695704E-3    2.571718926803139E-1    4.453024068010672E-1
 8.151110797425000E9     1.117260484975834E-1    5.313059704431989E-1   -2.714027838307188E-3    1.047713375868178E-3   -2.726870221766510E-3    1.067099319328422E-3    2.573096950081315E-1    4.451708795349663E-1
 8.151114754000000E9     1.120905906564932E-1    5.311771040422005E-1   -2.744737474815622E-3    1.054141714121067E-3   -2.715930524693660E-3    1.084022263267602E-3    2.576700191876945E-1    4.449547385421634E-1
 8.151118710575000E9     1.122483395984013E-1    5.312636897304761E-1   -2.747926666391621E-3    1.023441935135267E-3   -2.751629172000369E-3    1.088274338877265E-3    2.577282533293036E-1    4.446867907470228E-1
 8.151122667150000E9     1.127190417817356E-1    5.311215571679881E-1   -2.734264485968609E-3    1.067710445223555E-3   -2.757095708906589E-3    1.070375897198990E-3    2.581224662688827E-1    4.447233618027671E-1
 8.151126623725000E9     1.128131790178870E-1    5.310699375888144E-1   -2.732638662316364E-3    1.053155737274762E-3   -2.730136097738782E-3    1.089610764597807E-3    2.582820088420602E-1    4.445711542145788E-1
 8.151130580300000E9     1.132179273119774E-1    5.310203172934762E-1   -2.750436282246939E-3    1.057257101755789E-3   -2.730201781536610E-3    1.089181570237357E-3    2.583570757874168E-1    4.445959918310760E-1
 8.151134536875000E9     1.134744225475638E-1    5.309806215162937E-1   -2.742361255129463E-3    1.062152110099315E-3   -2.768382812982942E-3    1.105299366980256E-3    2.587373700961622E-1    4.443261508592650E-1
 8.151138493450000E9     1.137088505683955E-1    5.310024120359492E-1   -2.756240147355660E-3    1.049320195924927E-3   -2.774811171605207E-3    1.095527019818183E-3    2.589084979769903E-1    4.443243928327426E-1
 8.151142450025000E9     1.139179408274983E-1    5.308846265133714E-1   -2.722932110493999E-3    1.066136049997601E-3   -2.723533241634349E-3    1.117621288987116E-3    2.592232719762546E-1    4.439521215752303E-1
 8.151146406600000E9     1.142899740481461E-1    5.308742027355806E-1   -2.758569533427986E-3    1.074428737929016E-3   -2.749187672678649E-3    1.098669117326080E-3    2.595833485540596E-1    4.439057394933560E-1
 8.151150363175000E9     1.146793799685732E-1    5.308097129046597E-1   -2.752913314611622E-3    1.057735506034181E-3   -2.745364239809419E-3    1.119827072151878E-3    2.595486465349478E-1    4.438481984557416E-1
 8.151154319750000E9     1.149545776441484E-1    5.307701645752156E-1   -2.743174481454647E-3    1.078804215050679E-3   -2.742477442465195E-3    1.124436178669406E-3    2.596739175912860E-1    4.435335666693560E-1
 8.151158276325000E9     1.152122393508313E-1    5.306926057069790E-1   -2.784401726506867E-3    1.054466172884877E-3   -2.772336649013098E-3    1.098897919488616E-3    2.600389548880616E-1    4.435157968656901E-1
 8.151162232900000E9     1.154440991020145E-1    5.306321233417767E-1   -2.759698536387780E-3    1.097860960435424E-3   -2.750143567952566E-3    1.099774546889236E-3    2.601429311898799E-1    4.433703026625886E-1
 8.151166189475000E9     1.156961767199666E-1    5.304971878981322E-1   -2.765068693641734E-3    1.083627062999376E-3   -2.786851846958173E-3    1.149225254822170E-3    2.603278065252221E-1    4.431708726701339E-1
 8.151170146050000E9     1.160260171633501E-1    5.305220408458023E-1   -2.753477600669328E-3    1.088281172373659E-3   -2.772054185350441E-3    1.128738282488790E-3    2.606547176617252E-1    4.432439057356912E-1
 8.151174102625000E9     1.162971707040984E-1    5.302248220749080E-1   -2.787295872607890E-3    1.095890209857136E-3   -2.765450785449635E-3    1.117976752719358E-3    2.608789149975578E-1    4.429767122289555E-1
 8.151178059200000E9     1.165503546205187E-1    5.303193927323959E-1   -2.753968420663701E-3    1.090751406371877E-3   -2.770573187343705E-3    1.131242023575690E-3    2.610596809356640E-1    4.429299282701397E-1
 8.151182015775000E9     1.168460211508655E-1    5.303859065642331E-1   -2.768765223366785E-3    1.096607624363169E-3   -2.777229857202254E-3    1.133267208538258E-3    2.612761978645542E-1    4.426929180024984E-1
 8.151185972350000E9     1.172184863078705E-1    5.302401337934840E-1   -2.775414947483309E-3    1.103521967596321E-3   -2.797288751957009E-3    1.162410609113018E-3    2.613555824438020E-1    4.425599648222749E-1
 8.151189928925000E9     1.174100727140234E-1    5.300908132265354E-1   -2.762032376101210E-3    1.101874381563307E-3   -2.787781677904198E-3    1.152219348683396E-3    2.617001470708766E-1    4.424237526498406E-1
 8.151193885500000E9     1.177598954029548E-1    5.301081414008307E-1   -2.758771869522510E-3    1.102262319439576E-3   -2.783568725103258E-3    1.118106298062023E-3    2.619403457129025E-1    4.423803022212953E-1
 8.151197842075000E9     1.179506616023313E-1    5.300098774067202E-1   -2.777686372076848E-3    1.095212760084641E-3   -2.773486877466533E-3    1.154511352911365E-3    2.621348459759735E-1    4.422826001570050E-1
 8.151201798650000E9     1.181480420402105E-1    5.299640629464316E-1   -2.770525732298755E-3    1.117099227698862E-3   -2.801169585303067E-3    1.145900530577436E-3    2.623187288385369E-1    4.420916283639006E-1
 8.151205755225000E9     1.185957279998827E-1    5.299120829098795E-1   -2.737052229359890E-3    1.124755323779500E-3   -2.801299943504406E-3    1.128926823918460E-3    2.627058469989698E-1    4.418197445213884E-1
 8.151209711800000E9     1.189680435939387E-1    5.298669315655936E-1   -2.805903340469618E-3    1.115896991394995E-3   -2.782532732092862E-3    1.170479018565340E-3    2.627307247543902E-1    4.417727059615055E-1
 8.151213668375000E9     1.191159948761977E-1    5.298806849958586E-1   -2.806712154971908E-3    1.100650171739923E-3   -2.779781652999768E-3    1.179067925689031E-3    2.630719442471673E-1    4.416409695756069E-1
 8.151217624950000E9     1.194647150608068E-1    5.297810623378649E-1   -2.790465217184194E-3    1.106743141927767E-3   -2.794402752934356E-3    1.181694532813797E-3    2.634196959745995E-1    4.414444252575222E-1
 8.151221581525000E9     1.196689438895163E-1    5.295951960281025E-1   -2.798978566996418E-3    1.102421885444289E-3   -2.776533310164027E-3    1.185210354690310E-3    2.633874222560381E-1    4.414545087491836E-1
 8.151225538100000E9     1.200162915765810E-1    5.296687101476826E-1   -2.778516735960462E-3    1.113475410129405E-3   -2.807946662605322E-3    1.182037611326762E-3    2.637217002876686E-1    4.411913102202660E-1
 8.151229494675000E9     1.201989327562511E-1    5.295553702987055E-1   -2.787456808843376E-3    1.146048000610637E-3   -2.803396058866051E-3    1.177631001578538E-3    2.638488008542675E-1    4.410732679831176E-1
 8.151233451250000E9     1.206186593172900E-1    5.294714687635655E-1   -2.797193147264108E-3    1.130701015454544E-3   -2.813064520906249E-3    1.177779109564081E-3    2.643145536767966E-1    4.408393140269904E-1
 8.151237407825000E9     1.208721128633166E-1    5.295195298310862E-1   -2.806308143678014E-3    1.141670481037315E-3   -2.820883556178152E-3    1.191782941689704E-3    2.643716963468523E-1    4.409856088441694E-1
 8.151241364400000E9     1.211090050877615E-1    5.294727453466592E-1   -2.823649003897414E-3    1.130502395421125E-3   -2.817578589327054E-3    1.197005635186924E-3    2.646101769881838E-1    4.407360454194592E-1
 8.151245320975000E9     1.213305240827545E-1    5.292620511026258E-1   -2.801031067113626E-3    1.142334261932734E-3   -2.823004654733980E-3    1.200909514475825E-3    2.648328050474823E-1    4.406082930381972E-1
 8.151249277550000E9     1.217430699840014E-1    5.292626796837699E-1   -2.789173449648517E-3    1.136648665427385E-3   -2.850061170767366E-3    1.199806723329549E-3    2.649415037111417E-1    4.405038918744826E-1
 8.151253234125000E9     1.220973264124046E-1    5.291754393241829E-1   -2.812035050047212E-3    1.128463291713375E-3   -2.837935860744051E-3    1.218192661510158E-3    2.652609251581475E-1    4.402294643070228E-1
 8.151257190700000E9     1.224124448400559E-1    5.290887817556449E-1   -2.820961954302169E-3    1.158558212478309E-3   -2.833232295588553E-3    1.215643731048314E-3    2.654351623769014E-1    4.402349007203640E-1
 8.151261147275000E9     1.226045361910802E-1    5.290651945956978E-1   -2.816957469268415E-3    1.146119056006360E-3   -2.826902181234427E-3    1.199109373850834E-3    2.655078026995678E-1    4.400158218390230E-1
 8.151265103850000E9     1.228625810735849E-1    5.290037587235187E-1   -2.791181473684665E-3    1.163361965526268E-3   -2.791253086855611E-3    1.219980672097422E-3    2.657874595677975E-1    4.398360358794260E-1
 8.151269060425000E9     1.232683054244633E-1    5.289796198569515E-1   -2.820498576994139E-3    1.173918946971753E-3   -2.833020144340752E-3    1.235843964019910E-3    2.659624487626378E-1    4.397050134068473E-1
 8.151273017000000E9     1.234961502840686E-1    5.288385135419152E-1   -2.818917334297529E-3    1.184110200912532E-3   -2.839576037306397E-3    1.218411533543279E-3    2.663012443567625E-1    4.396700263063038E-1
 8.151276973575000E9     1.237943939179036E-1    5.289156407900045E-1   -2.841538597766599E-3    1.196021961492063E-3   -2.839950326919082E-3    1.229067690788827E-3    2.665226575482993E-1    4.393522992482388E-1
 8.151280930150000E9     1.241487160280045E-1    5.287461182617328E-1   -2.834405427609787E-3    1.163289857896459E-3   -2.852633296485032E-3    1.216739816015992E-3    2.667466274145500E-1    4.393369851160040E-1
 8.151284886725000E9     1.243609332361893E-1    5.286784734759030E-1   -2.817239284780979E-3    1.182177335123128E-3   -2.847519518073007E-3    1.231930490948869E-3    2.669843744427142E-1    4.390919767741157E-1
 8.151288843300000E9     1.246387101174078E-1    5.285793429289356E-1   -2.843034442751319E-3    1.171381589429222E-3   -2.852810404825334E-3    1.271666228862283E-3    2.670939162311278E-1    4.390798802021212E-1
 8.151292799875000E9     1.248754747513136E-1    5.285435828307793E-1   -2.848273500891704E-3    1.186912886197107E-3   -2.846158507952670E-3    1.247983550670372E-3    2.673999978653961E-1    4.386923279304824E-1
 8.151296756450000E9     1.251878774758718E-1    5.284464542036630E-1   -2.829695282287449E-3    1.208516853526049E-3   -2.859401921447288E-3    1.244307886424015E-3    2.676516478302482E-1    4.387780697721209E-1
 8.151300713025000E9     1.255570782013506E-1    5.283170260844099E-1   -2.818613170127405E-3    1.206920306106330E-3   -2.859515846062559E-3    1.280663748883639E-3    2.678757065506136E-1    4.387370311186225E-1
 8.151304669600000E9     1.258054826023879E-1    5.284050803436975E-1   -2.849423396242157E-3    1.221208387867833E-3   -2.860798419049029E-3    1.270792793802304E-3    2.680217123500159E-1    4.384730309028123E-1
 8.151308626175000E9     1.261038410258019E-1    5.281788939984789E-1   -2.844410663138151E-3    1.197767266099555E-3   -2.855395751428743E-3    1.265387050646310E-3    2.681399696319254E-1    4.383421583768553E-1
 8.151312582750000E9     1.262524444030856E-1    5.282667507809309E-1   -2.841377974209366E-3    1.209283820624064E-3   -2.856415987156190E-3    1.262882328262720E-3    2.684674045401249E-1    4.381941214140210E-1
