#  HZ   S   RI   R     50.00 
! Rohde & Schwarz Vector Network Analyzer 
! Rohde-Schwarz,ZNB20-2Port,1311601062101988,3.16
! Created: UTC 3/21/2024, 12:54:13 AM
! freq[Hz]                re:S11                  im:S11                  re:S21                  im:S21                  re:S12                  im:S12                  re:S22                  im:S22
 8.150971741000000E9     1.016229688523050E-1    5.330489055594063E-1   -2.684129456071220E-3    9.568107961419057E-4   -2.708344596629971E-3    1.013363132556178E-3    2.495189089792272E-1    4.497325833533748E-1
 8.150975631250000E9     1.019717046159616E-1    5.332068775879525E-1   -2.690553241851754E-3    9.574676070272185E-4   -2.701320798704593E-3    1.003142819407919E-3    2.496280188107375E-1    4.496857366730029E-1
 8.150979521500000E9     1.022007004122129E-1    5.330622136179992E-1   -2.675502290527781E-3    9.674499557361261E-4   -2.694819709234926E-3    9.936044540916112E-4    2.499407783801381E-1    4.494759561026249E-1
 8.150983411750000E9     1.024681868167755E-1    5.328646009169169E-1   -2.692619974873937E-3    9.636084685503560E-4   -2.694213381573757E-3    1.018378227677883E-3    2.500677525280596E-1    4.494305493274586E-1
 8.150987302000000E9     1.028255037293840E-1    5.329070014057868E-1   -2.671750007425932E-3    9.594169338043380E-4   -2.659912575757970E-3    1.025419538654987E-3    2.502885779016515E-1    4.490910938949276E-1
 8.150991192250000E9     1.031188579583364E-1    5.328728680060016E-1   -2.698114985009625E-3    9.497112596630532E-4   -2.700950427459818E-3    1.019552968665481E-3    2.505164039045024E-1    4.490683135963091E-1
 8.150995082500000E9     1.033729670915995E-1    5.328441474361800E-1   -2.675064732536791E-3    9.481073803950954E-4   -2.727054808012359E-3    1.005814864193312E-3    2.507665863359890E-1    4.489573142755791E-1
 8.150998972750000E9     1.036601625245354E-1    5.329469693053204E-1   -2.699310550831920E-3    9.656519422685445E-4   -2.679858486766000E-3    9.918874627408564E-4    2.508542695989049E-1    4.487280270071521E-1
 8.151002863000000E9     1.039145260935640E-1    5.327653172891708E-1   -2.685228734370215E-3    9.825787630753601E-4   -2.718920268012250E-3    1.015058225712185E-3    2.512297846830466E-1    4.486537443027551E-1
 8.151006753250000E9     1.041904112512936E-1    5.327869260635135E-1   -2.721727899523724E-3    9.550445068736162E-4   -2.694724824657740E-3    1.050544546341345E-3    2.515883467129402E-1    4.486881709483749E-1
 8.151010643500000E9     1.044794232514921E-1    5.326041071868927E-1   -2.685790241844043E-3    9.634079108020239E-4   -2.720834846527766E-3    1.040155052646262E-3    2.517707882620076E-1    4.484403000572409E-1
 8.151014533750000E9     1.048051599140566E-1    5.326029389975493E-1   -2.710273092111001E-3    9.833042624395945E-4   -2.710904317427265E-3    1.057785347158209E-3    2.519510036724012E-1    4.483079665340227E-1
 8.151018424000000E9     1.051034470429635E-1    5.326660260236721E-1   -2.711162108808066E-3    9.823790399736856E-4   -2.719732684587031E-3    1.047263699736386E-3    2.521641688675920E-1    4.481798404265423E-1
 8.151022314250000E9     1.053950634188845E-1    5.325161979547641E-1   -2.696085975319519E-3    9.913144821790260E-4   -2.728050100502474E-3    1.033591811232584E-3    2.522851232452387E-1    4.480526301286842E-1
 8.151026204500000E9     1.056336958184806E-1    5.323971741052558E-1   -2.692447645494921E-3    9.524931753864088E-4   -2.703212095261979E-3    1.012280151158625E-3    2.525879000505096E-1    4.479988118175959E-1
 8.151030094750000E9     1.058700990926611E-1    5.325546380036879E-1   -2.700303585975864E-3    1.004298914481379E-3   -2.720930522240623E-3    1.038452699358986E-3    2.526981880547355E-1    4.476904356715073E-1
 8.151033985000000E9     1.062187821693363E-1    5.323835633726300E-1   -2.708925136777844E-3    1.006086319160291E-3   -2.722883264006926E-3    1.032648966338760E-3    2.528913168431176E-1    4.477808160488481E-1
 8.151037875250000E9     1.064969374988267E-1    5.322205509219918E-1   -2.681290916401787E-3    9.959210474710127E-4   -2.694695427134811E-3    1.019541245110655E-3    2.530660212567615E-1    4.477034180990673E-1
 8.151041765500000E9     1.068019277845839E-1    5.321711281743483E-1   -2.702865190262079E-3    9.809754988348988E-4   -2.707878484885243E-3    1.040292062523285E-3    2.534158721930863E-1    4.473247714862953E-1
 8.151045655750000E9     1.070438592811453E-1    5.321559210796106E-1   -2.717870046351522E-3    1.011883853294234E-3   -2.716207207980336E-3    1.047157046104261E-3    2.536011778825386E-1    4.472557176050993E-1
 8.151049546000000E9     1.072475340092005E-1    5.321430301037411E-1   -2.705361375988496E-3    9.845216331578657E-4   -2.703125411772668E-3    1.036298037490896E-3    2.539007847718772E-1    4.472924308208591E-1
 8.151053436250000E9     1.075962295688906E-1    5.319889453706005E-1   -2.711530829804764E-3    9.988258630191362E-4   -2.720144936585653E-3    1.056679483144086E-3    2.541427816080045E-1    4.471112424784483E-1
 8.151057326500000E9     1.078904243886894E-1    5.320245451413355E-1   -2.735434408614486E-3    1.021536101153408E-3   -2.751724187694014E-3    1.061539377856945E-3    2.542777929334943E-1    4.468091077853159E-1
 8.151061216750000E9     1.081182527877997E-1    5.319624554502835E-1   -2.711799761576187E-3    1.012844731335500E-3   -2.718478982850651E-3    1.069795776293396E-3    2.545649308825125E-1    4.468681333240421E-1
 8.151065107000000E9     1.083376475718218E-1    5.318289631816245E-1   -2.712594863324187E-3    9.818091484623992E-4   -2.701135343512660E-3    1.024651136982572E-3    2.545371016855115E-1    4.466717592210708E-1
 8.151068997250000E9     1.086165372342368E-1    5.319608133430821E-1   -2.727418532008066E-3    1.000938910502536E-3   -2.717277666414294E-3    1.053464512002568E-3    2.549084096464757E-1    4.465411293113984E-1
 8.151072887500000E9     1.090168468121983E-1    5.318671544300579E-1   -2.701161902713570E-3    1.022592527648236E-3   -2.736672725747838E-3    1.083747920724365E-3    2.551829176189858E-1    4.464841363504949E-1
 8.151076777750000E9     1.093363363545537E-1    5.317667199545788E-1   -2.711266522248673E-3    1.007263459236683E-3   -2.747277694464085E-3    1.071622600672534E-3    2.552924012129241E-1    4.462904978206716E-1
 8.151080668000000E9     1.096042932860835E-1    5.317483104803367E-1   -2.710319364768094E-3    1.036039728282409E-3   -2.730694099563582E-3    1.094270118122201E-3    2.556825273360820E-1    4.462090379542607E-1
 8.151084558250000E9     1.099895288548575E-1    5.316445110480064E-1   -2.728919594011340E-3    1.004909569476744E-3   -2.732792674761524E-3    1.053954973652222E-3    2.557555041416539E-1    4.460747550193862E-1
 8.151088448500000E9     1.099963498889055E-1    5.315393200545654E-1   -2.727067522949879E-3    1.025142572245989E-3   -2.741634864670773E-3    1.092338347191931E-3    2.560557072451870E-1    4.460207946442704E-1
 8.151092338750000E9     1.102759191634446E-1    5.315298151976469E-1   -2.727766853978084E-3    1.015476363942411E-3   -2.729081292118855E-3    1.048120298496959E-3    2.562631544992944E-1    4.457713762502068E-1
 8.151096229000000E9     1.105093585983820E-1    5.315964106087996E-1   -2.719707116676288E-3    1.030755966827726E-3   -2.735330257366362E-3    1.027048619622427E-3    2.565183458413158E-1    4.455988632884579E-1
 8.151100119250000E9     1.108090982319572E-1    5.314957952028038E-1   -2.707038404212631E-3    1.030657285119596E-3   -2.736977300801578E-3    1.094678234320983E-3    2.567119186697194E-1    4.454941535965999E-1
 8.151104009500000E9     1.111952636158828E-1    5.312991402636398E-1   -2.734431868241048E-3    1.054482134554298E-3   -2.753920132493480E-3    1.074583012816967E-3    2.568234633143328E-1    4.453684180208440E-1
 8.151107899750000E9     1.114401877694699E-1    5.313814471738862E-1   -2.749539185567467E-3    1.010377858646968E-3   -2.723128543725256E-3    1.095835835537029E-3    2.570715197121793E-1    4.452593468936814E-1
 8.151111790000000E9     1.117623349043391E-1    5.313256603023772E-1   -2.746235837925556E-3    1.035844162393280E-3   -2.737126103659053E-3    1.090196144429998E-3    2.573236104503735E-1    4.451511827621299E-1
 8.151115680250000E9     1.120659075250744E-1    5.313171932386778E-1   -2.747488729097467E-3    1.026904019670699E-3   -2.766775123581399E-3    1.091940825489551E-3    2.574709644833335E-1    4.450207797322793E-1
 8.151119570500000E9     1.122681184391662E-1    5.312831720410466E-1   -2.730820272965133E-3    1.038870156000845E-3   -2.743638734036590E-3    1.109467496102378E-3    2.578929264592096E-1    4.450219746808357E-1
 8.151123460750000E9     1.125501308759078E-1    5.311850238001127E-1   -2.730747343275069E-3    1.034595906524689E-3   -2.764283961683259E-3    1.061066879675177E-3    2.579287871713142E-1    4.447893819627834E-1
 8.151127351000000E9     1.128832509543596E-1    5.310917084128306E-1   -2.715463326532625E-3    1.039540377578567E-3   -2.750869127812541E-3    1.089525926826071E-3    2.582041481694048E-1    4.446282768185796E-1
 8.151131241250000E9     1.131266800995777E-1    5.310582892486427E-1   -2.758274950823815E-3    1.036989098333244E-3   -2.723260998508252E-3    1.103088270415060E-3    2.584535019601915E-1    4.445763393443843E-1
 8.151135131500000E9     1.134041963575806E-1    5.310964759945475E-1   -2.737512414537492E-3    1.068938315739345E-3   -2.760291343670798E-3    1.106945119292692E-3    2.585879989296095E-1    4.443279429594851E-1
 8.151139021750000E9     1.136860781405966E-1    5.309774265401397E-1   -2.753196253281896E-3    1.081935181958958E-3   -2.751330920723097E-3    1.105139260783416E-3    2.587837499234788E-1    4.442326173737149E-1
 8.151142912000000E9     1.140409439203252E-1    5.308326209593236E-1   -2.732071043029687E-3    1.071985923846686E-3   -2.742876834036860E-3    1.127021853899498E-3    2.590459551649817E-1    4.440634717325825E-1
 8.151146802250000E9     1.141774489704249E-1    5.308129417788312E-1   -2.777497372004356E-3    1.045881798033155E-3   -2.758614030219546E-3    1.114390442489496E-3    2.591689164073371E-1    4.438866648361425E-1
 8.151150692500000E9     1.146170884436498E-1    5.306905492856145E-1   -2.745656349104585E-3    1.073850973471457E-3   -2.747824616080274E-3    1.123670563999962E-3    2.594063851892828E-1    4.438597133677405E-1
 8.151154582750000E9     1.148357293140938E-1    5.306737070516993E-1   -2.755083597168515E-3    1.086430343921475E-3   -2.764424631887928E-3    1.109699094201005E-3    2.596836461242687E-1    4.436619665675177E-1
 8.151158473000000E9     1.152156529018735E-1    5.305612352910040E-1   -2.774563546059591E-3    1.072035962535408E-3   -2.752254443577258E-3    1.135646042870598E-3    2.599257481584710E-1    4.434749018684887E-1
 8.151162363250000E9     1.154394763798162E-1    5.305765905486507E-1   -2.719645185112604E-3    1.050334891106682E-3   -2.764889283843326E-3    1.141428658875599E-3    2.601804544682909E-1    4.433758042351057E-1
 8.151166253500000E9     1.156445707747010E-1    5.305886758636708E-1   -2.743975757790772E-3    1.085781389519306E-3   -2.768751782540978E-3    1.129289047532269E-3    2.603748043884905E-1    4.433800520014669E-1
 8.151170143750000E9     1.159421095807329E-1    5.305201921781890E-1   -2.768586423766243E-3    1.059659588352492E-3   -2.796031368946383E-3    1.114046185158498E-3    2.605043372697369E-1    4.431903992143040E-1
 8.151174034000000E9     1.161782744302426E-1    5.304823563178110E-1   -2.755183692413762E-3    1.054814730290618E-3   -2.760841071792101E-3    1.123683624979858E-3    2.607285238102300E-1    4.428747553045104E-1
 8.151177924250000E9     1.165910271707540E-1    5.303115726028838E-1   -2.777980353502675E-3    1.059838116527237E-3   -2.771039257063519E-3    1.143166883472148E-3    2.610481323334367E-1    4.428181926406506E-1
 8.151181814500000E9     1.166602570093211E-1    5.301569033447104E-1   -2.779669861299392E-3    1.101336891239084E-3   -2.783438715305638E-3    1.191008490219164E-3    2.610840771176864E-1    4.427588777976569E-1
 8.151185704750000E9     1.170761916592193E-1    5.302568858775016E-1   -2.747415231804801E-3    1.114224639213425E-3   -2.795222680065250E-3    1.173438178197240E-3    2.613563171623929E-1    4.427114164128194E-1
 8.151189595000000E9     1.172575337826954E-1    5.301831718969106E-1   -2.768722888238274E-3    1.115471381115041E-3   -2.794830507874552E-3    1.164741140959144E-3    2.615929063761009E-1    4.425632745925471E-1
 8.151193485250000E9     1.175841064035217E-1    5.301908844147283E-1   -2.749426572109150E-3    1.108476475370895E-3   -2.772816315797510E-3    1.152989348748583E-3    2.618229297916719E-1    4.423673832228565E-1
 8.151197375500000E9     1.178462878081602E-1    5.300792321116704E-1   -2.744830800908253E-3    1.100670844519931E-3   -2.787189407302523E-3    1.180676229929838E-3    2.619800350361203E-1    4.423058309071769E-1
 8.151201265750000E9     1.181110352892627E-1    5.299884792112540E-1   -2.760092737893315E-3    1.100214185244715E-3   -2.792282741257882E-3    1.174947439463579E-3    2.622719514956529E-1    4.421179607279028E-1
 8.151205156000000E9     1.185358046543208E-1    5.298924831041991E-1   -2.782055158713457E-3    1.110115678265449E-3   -2.784277564900112E-3    1.161992138230329E-3    2.626854215751013E-1    4.418362307129800E-1
 8.151209046250000E9     1.186642819216525E-1    5.300201255813771E-1   -2.798560547024420E-3    1.106562150925458E-3   -2.762671879594581E-3    1.168432360361896E-3    2.625770949300348E-1    4.419811493758443E-1
 8.151212936500000E9     1.189550877835975E-1    5.298701335880099E-1   -2.782043947596278E-3    1.093959582845819E-3   -2.803705350653018E-3    1.147318416170143E-3    2.628996806015685E-1    4.418233889391711E-1
 8.151216826750000E9     1.192682527950804E-1    5.297967708392357E-1   -2.787947245949419E-3    1.141071177012321E-3   -2.810874066925409E-3    1.152203234038828E-3    2.630655736447109E-1    4.416488155629426E-1
 8.151220717000000E9     1.195598910476816E-1    5.296469348131349E-1   -2.785862569572604E-3    1.095916130916251E-3   -2.803085747902439E-3    1.192579103803862E-3    2.632042324902026E-1    4.416157821924929E-1
 8.151224607250000E9     1.199030737474276E-1    5.296767288134948E-1   -2.804246253315734E-3    1.122350316383693E-3   -2.807245201165023E-3    1.182188007565505E-3    2.635137673694001E-1    4.413020505550379E-1
 8.151228497500000E9     1.201436242492533E-1    5.295930581320962E-1   -2.783642924238399E-3    1.113327939472424E-3   -2.803649599974354E-3    1.172910758473585E-3    2.637449035146983E-1    4.410715943703726E-1
 8.151232387750000E9     1.203772725681029E-1    5.294637595841429E-1   -2.763699683249102E-3    1.121166275658126E-3   -2.799596097674162E-3    1.198873508187740E-3    2.639014384792392E-1    4.411007117882479E-1
 8.151236278000000E9     1.207429321867136E-1    5.295206522384635E-1   -2.787030072006227E-3    1.126841488736399E-3   -2.770667872121907E-3    1.205670480840334E-3    2.641107609101990E-1    4.409435149941068E-1
 8.151240168250000E9     1.210632805369693E-1    5.293853569355225E-1   -2.788905612641607E-3    1.151982772084890E-3   -2.787946159286711E-3    1.200468911161618E-3    2.642894088579972E-1    4.408081518187972E-1
 8.151244058500000E9     1.212881382217911E-1    5.293432770127787E-1   -2.817799686751281E-3    1.153947429417367E-3   -2.816113370555773E-3    1.187810918175043E-3    2.646208658044295E-1    4.406207888953684E-1
 8.151247948750000E9     1.215585113387791E-1    5.292836600259339E-1   -2.785383862090878E-3    1.145231442950975E-3   -2.788981285673676E-3    1.204199768626798E-3    2.647779871963930E-1    4.404706144256870E-1
 8.151251839000000E9     1.219079851728424E-1    5.291729032217281E-1   -2.815728016345857E-3    1.136782287588360E-3   -2.794099485446391E-3    1.199030120695584E-3    2.649683907103718E-1    4.404094290024716E-1
 8.151255729250000E9     1.221544349861919E-1    5.291390201490304E-1   -2.783943210437242E-3    1.163501970085467E-3   -2.814647899173010E-3    1.210075335288534E-3    2.651153120002102E-1    4.401773130752862E-1
 8.151259619500000E9     1.224219827699876E-1    5.291476056072181E-1   -2.808379336058292E-3    1.156030525011710E-3   -2.799893152637057E-3    1.234158211311514E-3    2.653486950860089E-1    4.400996006229368E-1
 8.151263509750000E9     1.227817657791971E-1    5.290312827333487E-1   -2.820476210102494E-3    1.150829786309718E-3   -2.844816754649199E-3    1.211263335718588E-3    2.656228355414491E-1    4.400949778093639E-1
 8.151267400000000E9     1.230158930882248E-1    5.289207938026497E-1   -2.823941652991433E-3    1.160035783915304E-3   -2.810405321568353E-3    1.215814880670021E-3    2.659901224998381E-1    4.398561316664747E-1
 8.151271290250000E9     1.232505743009307E-1    5.289812702552318E-1   -2.829367035261184E-3    1.194683187711317E-3   -2.847796223134460E-3    1.219610847378929E-3    2.661219925179353E-1    4.397516360065477E-1
 8.151275180500000E9     1.235539816235769E-1    5.288243142307663E-1   -2.801946847031465E-3    1.164676441682662E-3   -2.819065121895587E-3    1.266031092160494E-3    2.661550926071465E-1    4.396196878440647E-1
 8.151279070750000E9     1.237792797919766E-1    5.288216053988714E-1   -2.817501240572882E-3    1.196708372846977E-3   -2.828102347270420E-3    1.220345863417357E-3    2.665615573518502E-1    4.394167179836131E-1
 8.151282961000000E9     1.241811438781895E-1    5.286949869671479E-1   -2.835217662069935E-3    1.190818395668259E-3   -2.851435790319530E-3    1.218986088460868E-3    2.668523788043408E-1    4.393940974776086E-1
 8.151286851250000E9     1.243422272449880E-1    5.285308307161998E-1   -2.836987449998326E-3    1.191574943076488E-3   -2.835849036288218E-3    1.239460738263453E-3    2.668722725292917E-1    4.392289195047430E-1
 8.151290741500000E9     1.247471542925573E-1    5.285698153177133E-1   -2.845102863809150E-3    1.178845145216374E-3   -2.812867145767634E-3    1.226848175272892E-3    2.671363713629347E-1    4.390051198666134E-1
 8.151294631750000E9     1.250157821446387E-1    5.285833433969321E-1   -2.833349042948483E-3    1.185199765540989E-3   -2.842491835084523E-3    1.244848656972670E-3    2.673831806407829E-1    4.389209116145633E-1
 8.151298522000000E9     1.253585166336004E-1    5.284330807155191E-1   -2.853191581809653E-3    1.200494026366636E-3   -2.865043429864946E-3    1.248518341940857E-3    2.674463296192650E-1    4.387941172292735E-1
 8.151302412250000E9     1.255678369286628E-1    5.282619495874064E-1   -2.865253858404440E-3    1.210104607679678E-3   -2.849429521558560E-3    1.209970987213786E-3    2.677797082128595E-1    4.386451946453787E-1
 8.151306302500000E9     1.259402540002817E-1    5.283241300199022E-1   -2.857128049426956E-3    1.200913305421062E-3   -2.860998488369988E-3    1.250959988086651E-3    2.681686467583701E-1    4.384325147262400E-1
 8.151310192750000E9     1.260908850369397E-1    5.283021407880455E-1   -2.860977200858202E-3    1.216507401289958E-3   -2.855163872238010E-3    1.232259808609285E-3    2.681844662833763E-1    4.383972252436508E-1
 8.151314083000000E9     1.264083301993206E-1    5.282059439668038E-1   -2.871255037531326E-3    1.230150761502680E-3   -2.871359589052381E-3    1.265106166311369E-3    2.684442118327423E-1    4.382307203849507E-1
 8.151317973250000E9     1.267002027997370E-1    5.281772024987406E-1   -2.856720940240311E-3    1.220341607410520E-3   -2.860239278799781E-3    1.245741911362496E-3    2.687204653673382E-1    4.380651763563624E-1
 8.151321863500000E9     1.270186004491660E-1    5.280847935422159E-1   -2.844489836696385E-3    1.213770430937499E-3   -2.874816612206374E-3    1.303911334724154E-3    2.688571133903501E-1    4.379965611557010E-1
