#  HZ   S   RI   R     50.00 
! Rohde & Schwarz Vector Network Analyzer 
! Rohde-Schwarz,ZNB20-2Port,1311601062101988,3.16
! Created: UTC 3/21/2024, 12:54:21 AM
! freq[Hz]                re:S11                  im:S11                  re:S21                  im:S21                  re:S12                  im:S12                  re:S22                  im:S22
 8.150941260000000E9     9.945646884450576E-2    5.335301136964318E-1   -2.665034260761254E-3    9.356001414282637E-4   -2.664534570265219E-3    9.792107263550441E-4    2.474978918326811E-1    4.508171391791022E-1
 8.150945302700000E9     9.979870362907783E-2    5.334209595857825E-1   -2.673690444924710E-3    9.514554115341429E-4   -2.671891156189121E-3    9.836444402369399E-4    2.476959373376372E-1    4.506781714109618E-1
 8.150949345400000E9     9.996701822398113E-2    5.333178482407166E-1   -2.665400312392993E-3    9.283809915604848E-4   -2.681982252178490E-3    1.031758968045118E-3    2.480383905845524E-1    4.505886726483926E-1
 8.150953388100000E9     1.000976577770702E-1    5.334123093920762E-1   -2.692445647981412E-3    9.440816724156340E-4   -2.690286523103884E-3    9.633303122550270E-4    2.481174561309142E-1    4.504841337361353E-1
 8.150957430800000E9     1.005237639338273E-1    5.332517590542021E-1   -2.694410466155982E-3    9.245291583171798E-4   -2.677542891627875E-3    9.704003307826550E-4    2.484480427991497E-1    4.502922676986807E-1
 8.150961473500000E9     1.008613384477270E-1    5.332151654738569E-1   -2.698787621098495E-3    9.120345613866234E-4   -2.679624503630156E-3    9.896888741673738E-4    2.486616432068800E-1    4.501018130575920E-1
 8.150965516200000E9     1.011445791336580E-1    5.332482117981266E-1   -2.668575307301218E-3    9.506123944285639E-4   -2.691976358014604E-3    1.009636712616521E-3    2.488812853635258E-1    4.500102959685195E-1
 8.150969558900000E9     1.015516749363587E-1    5.331164438315067E-1   -2.675035782973216E-3    9.625242582948255E-4   -2.712616587727224E-3    1.012393808357050E-3    2.491488704798240E-1    4.499905055429473E-1
 8.150973601600000E9     1.019479455453200E-1    5.330651022939266E-1   -2.700578726591307E-3    9.372994615176747E-4   -2.700710084298789E-3    1.026805700074197E-3    2.494205839942663E-1    4.498047654585772E-1
 8.150977644300000E9     1.020769884591934E-1    5.331576523079328E-1   -2.696481481455146E-3    9.578726315640912E-4   -2.662913039120236E-3    1.007385302439501E-3    2.495434367443359E-1    4.498692528842430E-1
 8.150981687000000E9     1.024071909056514E-1    5.330506657651571E-1   -2.670666424044677E-3    9.687401023169671E-4   -2.689895536281970E-3    9.906357353560780E-4    2.498354869605186E-1    4.496631038278165E-1
 8.150985729700000E9     1.026882252128112E-1    5.330100555067617E-1   -2.687904242199730E-3    9.593007139332421E-4   -2.708204544661688E-3    9.980989191494039E-4    2.500258193532429E-1    4.494418160992284E-1
 8.150989772400000E9     1.030491667725541E-1    5.328602960672509E-1   -2.678312700640184E-3    9.626424667358556E-4   -2.709804850145273E-3    9.998487640754247E-4    2.502421753879356E-1    4.492377169110063E-1
 8.150993815100000E9     1.033118521769406E-1    5.328496606254211E-1   -2.706921565756474E-3    9.580678736817636E-4   -2.711058505398274E-3    1.031045133512837E-3    2.504146784443880E-1    4.492030226874431E-1
 8.150997857800000E9     1.035633212520506E-1    5.328932353775782E-1   -2.703437847825785E-3    9.610294373082692E-4   -2.697617258143581E-3    1.013530446162938E-3    2.507476960468760E-1    4.490479040939838E-1
 8.151001900500000E9     1.038653677884367E-1    5.328382833429673E-1   -2.700415095631143E-3    9.380652321575434E-4   -2.699382015504612E-3    9.947991857904017E-4    2.509220397609698E-1    4.488208518515167E-1
 8.151005943200000E9     1.040561299914284E-1    5.327933727030134E-1   -2.682329631535991E-3    9.934099889668184E-4   -2.711104098082558E-3    1.041341149719538E-3    2.510796771913812E-1    4.488397773642305E-1
 8.151009985900000E9     1.042840247492406E-1    5.326637614097391E-1   -2.683772620451426E-3    9.510949282674207E-4   -2.700545320505609E-3    1.014673372224166E-3    2.513514309004867E-1    4.487484811052386E-1
 8.151014028600000E9     1.047030846471128E-1    5.326129480681396E-1   -2.694935625151203E-3    9.741098724075601E-4   -2.732221675333849E-3    1.042326597085157E-3    2.516345671874338E-1    4.486640335871214E-1
 8.151018071300000E9     1.049644926511048E-1    5.325924657505423E-1   -2.704780174160261E-3    9.496176565882581E-4   -2.734036895656526E-3    1.018003542928556E-3    2.518365513402364E-1    4.483991918333424E-1
 8.151022114000000E9     1.052618647793080E-1    5.324969134934346E-1   -2.691992624165947E-3    9.914799030814054E-4   -2.723633941942783E-3    1.023238577276259E-3    2.520246964426627E-1    4.482248608736318E-1
 8.151026156700000E9     1.055569487307076E-1    5.325130750429723E-1   -2.721424870358305E-3    9.872909471720767E-4   -2.702204289396820E-3    1.002976121479688E-3    2.522879806432001E-1    4.481126878422477E-1
 8.151030199400000E9     1.059293718535839E-1    5.325303790862421E-1   -2.712940325048367E-3    9.916839897066844E-4   -2.684057408478977E-3    1.055987149699867E-3    2.525722904747289E-1    4.481658663176042E-1
 8.151034242100000E9     1.060566464378306E-1    5.323233800643350E-1   -2.698977332860543E-3    9.753098101837215E-4   -2.704349514276336E-3    1.031743561641209E-3    2.528084057195474E-1    4.478566190784527E-1
 8.151038284800000E9     1.063005105362813E-1    5.322819036308507E-1   -2.709995306935821E-3    9.996955972052619E-4   -2.708215065975025E-3    1.043211375949024E-3    2.530699400860910E-1    4.476477189335638E-1
 8.151042327500000E9     1.066630574076063E-1    5.321840645078815E-1   -2.697981839451387E-3    1.005578210171268E-3   -2.668738181101238E-3    1.041751835816448E-3    2.531499835977757E-1    4.477240674840786E-1
 8.151046370200000E9     1.071178000546695E-1    5.321420170968145E-1   -2.727693695166272E-3    1.020597559045932E-3   -2.714783307183461E-3    1.047683660709511E-3    2.534406124791104E-1    4.474769107517714E-1
 8.151050412900000E9     1.071744911423981E-1    5.321754913977034E-1   -2.676749238090935E-3    1.000928321116763E-3   -2.704210790468431E-3    1.047024082403578E-3    2.535819856741783E-1    4.474180408267115E-1
 8.151054455600000E9     1.076513558821860E-1    5.321751262689762E-1   -2.710331044957388E-3    9.991297388425361E-4   -2.708655946101726E-3    1.055734644890822E-3    2.537345896625408E-1    4.471356920444330E-1
 8.151058498300000E9     1.079007543187679E-1    5.319523917415585E-1   -2.691706999963716E-3    9.948982194225775E-4   -2.722998303606518E-3    1.039998423875977E-3    2.538690972551497E-1    4.470260319624541E-1
 8.151062541000000E9     1.082208216365378E-1    5.320304244987434E-1   -2.707121481185821E-3    9.929712051503345E-4   -2.689202906756036E-3    1.071110368493150E-3    2.543584539883696E-1    4.469414721700511E-1
 8.151066583700000E9     1.084093321990637E-1    5.319958368327420E-1   -2.693733841531593E-3    9.872730196794257E-4   -2.711091037576431E-3    1.058436953435124E-3    2.543668322549290E-1    4.466733580840399E-1
 8.151070626400000E9     1.086749352507485E-1    5.318884357328524E-1   -2.698021747965878E-3    9.749704514560096E-4   -2.694716178596917E-3    1.076343728817489E-3    2.547481492734324E-1    4.467317536057539E-1
 8.151074669100000E9     1.089712444270995E-1    5.317825720303239E-1   -2.734107431521557E-3    1.011349495657651E-3   -2.719152896824261E-3    1.058508965922645E-3    2.550252807890978E-1    4.465297455515819E-1
 8.151078711800000E9     1.093252052065606E-1    5.317269111353822E-1   -2.714478765987726E-3    1.012730262416858E-3   -2.742050029021494E-3    1.068443500408030E-3    2.551160223387098E-1    4.463743507066084E-1
 8.151082754500000E9     1.095242419284612E-1    5.316043528456201E-1   -2.706915148664938E-3    1.014910740356057E-3   -2.742688341677292E-3    1.064763870848569E-3    2.555285220603185E-1    4.461843484104672E-1
 8.151086797200000E9     1.099674672703608E-1    5.317086518882690E-1   -2.712258883417641E-3    1.021169949917619E-3   -2.724475410464922E-3    1.065467402227696E-3    2.556533818716688E-1    4.459009331008530E-1
 8.151090839900000E9     1.102251237928126E-1    5.315679668801871E-1   -2.728790956637247E-3    1.035028808462480E-3   -2.755114403102352E-3    1.072937006041155E-3    2.557684564409249E-1    4.459522792660706E-1
 8.151094882600000E9     1.104251916226360E-1    5.316258473638371E-1   -2.711391691243281E-3    1.010493410278639E-3   -2.734239003610497E-3    1.087436380950714E-3    2.559866890502012E-1    4.459802747176660E-1
 8.151098925300000E9     1.107513164864459E-1    5.315626189975042E-1   -2.722873317773474E-3    1.012920000898455E-3   -2.740022377536970E-3    1.097515789020596E-3    2.562296257541138E-1    4.457378060624901E-1
 8.151102968000000E9     1.110058660045326E-1    5.314812153089881E-1   -2.740207356784509E-3    1.031330635448936E-3   -2.708741573458408E-3    1.090955933439717E-3    2.565999651574797E-1    4.455391163260289E-1
 8.151107010700000E9     1.112961024316491E-1    5.314600684408599E-1   -2.732495164254774E-3    1.026678058824676E-3   -2.725499231914707E-3    1.096654765485035E-3    2.568179983127929E-1    4.455219202051946E-1
 8.151111053400000E9     1.116685003817117E-1    5.312925300947055E-1   -2.703321739227046E-3    1.036725220547989E-3   -2.729947434310519E-3    1.075042182286049E-3    2.569932335326960E-1    4.452774773205577E-1
 8.151115096100000E9     1.118377541010126E-1    5.312107158726000E-1   -2.715889828373942E-3    1.042127688252258E-3   -2.732563268878189E-3    1.077260615951795E-3    2.572266811095974E-1    4.451724266128561E-1
 8.151119138800000E9     1.122109241154757E-1    5.311620863354880E-1   -2.739936619591821E-3    1.036707584602553E-3   -2.744822568208956E-3    1.096814117539049E-3    2.574553890585781E-1    4.450262164099954E-1
 8.151123181500000E9     1.124849398569664E-1    5.309694124453000E-1   -2.735873831648256E-3    1.041758842553509E-3   -2.716178043274215E-3    1.099862836794744E-3    2.576627441995205E-1    4.450835825046842E-1
 8.151127224200000E9     1.127578521940937E-1    5.311037265558100E-1   -2.738246019990254E-3    1.051179803006322E-3   -2.726411882177375E-3    1.076392774747166E-3    2.579467898550881E-1    4.446670890612786E-1
 8.151131266900000E9     1.130661891907944E-1    5.310513626725326E-1   -2.731110552070717E-3    1.040908504785698E-3   -2.749606556053312E-3    1.098422508261578E-3    2.581567494645853E-1    4.445803914627875E-1
 8.151135309600000E9     1.133694208249903E-1    5.309738805106990E-1   -2.721396347687199E-3    1.052501805289595E-3   -2.728588036701118E-3    1.115999836529508E-3    2.583394535310108E-1    4.445810480546355E-1
 8.151139352300000E9     1.136008218335398E-1    5.309837339564561E-1   -2.730509057015088E-3    1.061283999265717E-3   -2.772294321107101E-3    1.110176787108541E-3    2.585801502399074E-1    4.443193754096158E-1
 8.151143395000000E9     1.140048300439637E-1    5.308677338010903E-1   -2.761833425351658E-3    1.057517298228208E-3   -2.746429370966269E-3    1.093992901364794E-3    2.588829480400436E-1    4.442138650595803E-1
 8.151147437700000E9     1.143217277769561E-1    5.308740412673809E-1   -2.725995809292316E-3    1.057311258835629E-3   -2.737142599418857E-3    1.110845173135786E-3    2.589750512084302E-1    4.439858997065987E-1
 8.151151480400000E9     1.144756345376437E-1    5.307412286001144E-1   -2.755320248269470E-3    1.076019892668011E-3   -2.761524874958087E-3    1.112958003434973E-3    2.591093154879943E-1    4.440205563043476E-1
 8.151155523100000E9     1.148656920526944E-1    5.306297442967259E-1   -2.750585445612188E-3    1.053039297775682E-3   -2.753207026243736E-3    1.106460940299960E-3    2.595098609961543E-1    4.440092313204212E-1
 8.151159565800000E9     1.150520508740342E-1    5.306358894174044E-1   -2.745229719603056E-3    1.082071197839065E-3   -2.763948981558944E-3    1.145628996247803E-3    2.597239294555468E-1    4.436490161900045E-1
 8.151163608500000E9     1.153420095204856E-1    5.304997423678873E-1   -2.743450711989583E-3    1.082634730358124E-3   -2.743624310718140E-3    1.154110483815866E-3    2.599059985735601E-1    4.434927775520283E-1
 8.151167651200000E9     1.156253303407310E-1    5.305336105183751E-1   -2.768547447070641E-3    1.082103043990136E-3   -2.752428913003137E-3    1.163660809418564E-3    2.600384718060407E-1    4.433522968522958E-1
 8.151171693900000E9     1.159935718309661E-1    5.305807477531449E-1   -2.731205670357975E-3    1.074187438321005E-3   -2.781243162214508E-3    1.147546120435816E-3    2.603048257659580E-1    4.432328836001067E-1
 8.151175736600000E9     1.162004267374891E-1    5.304903846155098E-1   -2.755498296021770E-3    1.092758331510158E-3   -2.755006186737655E-3    1.162681857212180E-3    2.605073602907081E-1    4.431366518807519E-1
 8.151179779300000E9     1.166045177835983E-1    5.302754751322051E-1   -2.744876234322140E-3    1.090685970004665E-3   -2.754486950012640E-3    1.117585817947891E-3    2.608015107280540E-1    4.430875740308089E-1
 8.151183822000000E9     1.167934344127177E-1    5.300894812023605E-1   -2.766353735950011E-3    1.095731055989359E-3   -2.774834793071967E-3    1.146220210814775E-3    2.609296598716709E-1    4.428530506049187E-1
 8.151187864700000E9     1.171503982700123E-1    5.302244389756529E-1   -2.754258560382484E-3    1.100816169249018E-3   -2.791907020086145E-3    1.166221944681874E-3    2.611662370453028E-1    4.428311631727178E-1
 8.151191907400000E9     1.174031702407782E-1    5.302015063319404E-1   -2.789648160431096E-3    1.074006649580477E-3   -2.761257647118385E-3    1.133259246462942E-3    2.614243758317845E-1    4.425984243586623E-1
 8.151195950100000E9     1.176569725368521E-1    5.300865462623532E-1   -2.774603231105195E-3    1.107767110280292E-3   -2.789154834335375E-3    1.186364601990942E-3    2.616813199719413E-1    4.425263111456780E-1
 8.151199992800000E9     1.179357291417637E-1    5.300287777549373E-1   -2.743134121659029E-3    1.104358177234013E-3   -2.780804792457702E-3    1.160024572875665E-3    2.619054354563122E-1    4.423543043644941E-1
 8.151204035500000E9     1.183613861678641E-1    5.299699622628901E-1   -2.762197023415331E-3    1.099024049913228E-3   -2.792088654342550E-3    1.155962264091254E-3    2.620321980861437E-1    4.420758343932653E-1
 8.151208078200000E9     1.186227921958579E-1    5.298783480987616E-1   -2.794301590825002E-3    1.072326276506472E-3   -2.776822530564704E-3    1.181879636919159E-3    2.624241487445581E-1    4.419041974330221E-1
 8.151212120900000E9     1.189663640911806E-1    5.298734427895316E-1   -2.778367384709939E-3    1.117097298178157E-3   -2.797596624057013E-3    1.166652271214522E-3    2.625389309985239E-1    4.419397898260461E-1
 8.151216163600000E9     1.191944532445536E-1    5.297445472424156E-1   -2.799429498484383E-3    1.105702156612703E-3   -2.814092135034881E-3    1.170504651516977E-3    2.627969546055767E-1    4.417100332969694E-1
 8.151220206300000E9     1.193674168412431E-1    5.296567347497421E-1   -2.750841394720561E-3    1.144455773862889E-3   -2.784325930854554E-3    1.169943862815340E-3    2.630210853351780E-1    4.415866647836739E-1
 8.151224249000000E9     1.197831716556423E-1    5.297551694925855E-1   -2.776247956610565E-3    1.128316096383339E-3   -2.777234812918858E-3    1.203205697370362E-3    2.631897380776502E-1    4.414852364046937E-1
 8.151228291700000E9     1.200310750011417E-1    5.296536359726819E-1   -2.805232256491008E-3    1.132462980938827E-3   -2.769524277764749E-3    1.182770652535306E-3    2.633999858663257E-1    4.412682832590156E-1
 8.151232334400000E9     1.203423852596679E-1    5.294933917839425E-1   -2.771601795798400E-3    1.116386998240527E-3   -2.802512375785055E-3    1.192438007364695E-3    2.635790511472974E-1    4.412368688232695E-1
 8.151236377100000E9     1.206392593734581E-1    5.294487494875418E-1   -2.779602389297187E-3    1.137397530552914E-3   -2.791507462700942E-3    1.189280413312977E-3    2.638569438212193E-1    4.411419338078334E-1
 8.151240419800000E9     1.209986503705214E-1    5.294498889468419E-1   -2.792874723081556E-3    1.132227164888322E-3   -2.795223503940934E-3    1.185179139307908E-3    2.642207244680880E-1    4.409725051078643E-1
 8.151244462500000E9     1.211197861101204E-1    5.293997671624076E-1   -2.819001466336412E-3    1.163721610653248E-3   -2.797152833581951E-3    1.167597530511576E-3    2.643882535077741E-1    4.408528883082873E-1
 8.151248505200000E9     1.215211978237568E-1    5.292810168059363E-1   -2.807645962002730E-3    1.161920414141626E-3   -2.823918706595309E-3    1.189192946584382E-3    2.645692775274419E-1    4.404913514151119E-1
 8.151252547900000E9     1.218480957842982E-1    5.292490472468681E-1   -2.812435414305041E-3    1.144434599178071E-3   -2.816720727491732E-3    1.218629707602097E-3    2.647922010415595E-1    4.405448469597198E-1
 8.151256590600000E9     1.220032811587957E-1    5.291860808262608E-1   -2.822054532766194E-3    1.155612208831468E-3   -2.841706863661643E-3    1.196127642940462E-3    2.649258305771685E-1    4.405130659087976E-1
 8.151260633300000E9     1.224815727112639E-1    5.291011227085913E-1   -2.806826113565918E-3    1.167621228209622E-3   -2.805475125252458E-3    1.219639244403178E-3    2.651801011964207E-1    4.403356238168225E-1
 8.151264676000000E9     1.227302779073774E-1    5.289680767321443E-1   -2.808403339379962E-3    1.155022561445892E-3   -2.791222402938603E-3    1.220211545717359E-3    2.654723010965463E-1    4.400991543926873E-1
 8.151268718700000E9     1.229961693544703E-1    5.289645340669239E-1   -2.836843845268165E-3    1.153435896245694E-3   -2.815284056003822E-3    1.198479530066390E-3    2.657061356709773E-1    4.399486879051629E-1
 8.151272761400000E9     1.233488190281633E-1    5.289171982434943E-1   -2.817127642274102E-3    1.174165040191338E-3   -2.825240655191855E-3    1.198261361596495E-3    2.658370519197250E-1    4.397043458602496E-1
 8.151276804100000E9     1.236280401430762E-1    5.289248884474445E-1   -2.823886968787682E-3    1.143109614319926E-3   -2.832146177481708E-3    1.206463648449051E-3    2.661514730448399E-1    4.397854607496867E-1
 8.151280846800000E9     1.238567684340476E-1    5.288233324564556E-1   -2.832991908177688E-3    1.185321510308020E-3   -2.847516573113508E-3    1.233381555437115E-3    2.663273275426061E-1    4.396347454274903E-1
 8.151284889500000E9     1.242401536722674E-1    5.287131026781869E-1   -2.815645148395648E-3    1.199719549351802E-3   -2.854489857290460E-3    1.240918533399373E-3    2.665203406136276E-1    4.392444497032198E-1
 8.151288932200000E9     1.244369442179765E-1    5.286391824051498E-1   -2.831567625302801E-3    1.184327228089330E-3   -2.838688641075311E-3    1.254982131426049E-3    2.668045234252833E-1    4.393239230999963E-1
 8.151292974900000E9     1.247733192189275E-1    5.286114323829686E-1   -2.822850426750767E-3    1.190074131074159E-3   -2.884316440105214E-3    1.268699643958528E-3    2.669761932852336E-1    4.392032312719139E-1
 8.151297017600000E9     1.250141568060772E-1    5.285071187729615E-1   -2.818449328871630E-3    1.209340630200297E-3   -2.834791223069156E-3    1.239148630421997E-3    2.671701992186529E-1    4.389947111295485E-1
 8.151301060300000E9     1.253247648085110E-1    5.284188680957781E-1   -2.830570072770238E-3    1.211213605632477E-3   -2.845604012174663E-3    1.252093232453338E-3    2.673913784562276E-1    4.390051995666294E-1
 8.151305103000000E9     1.255564107470367E-1    5.283962463135293E-1   -2.850112712128647E-3    1.199343895744462E-3   -2.842565680110543E-3    1.265411585969856E-3    2.674606779347724E-1    4.387678481126042E-1
