#  HZ   S   RI   R     50.00 
! Rohde & Schwarz Vector Network Analyzer 
! Rohde-Schwarz,ZNB20-2Port,1311601062101988,3.16
! Created: UTC 3/21/2024, 12:54:23 AM
! freq[Hz]                re:S11                  im:S11                  re:S21                  im:S21                  re:S12                  im:S12                  re:S22                  im:S22
 8.150924734000000E9     9.820496394166563E-2    5.336335946177002E-1   -2.669924064846265E-3    9.230610975881204E-4   -2.687166789297805E-3    9.920165084196185E-4    2.466056796329190E-1    4.515342469019716E-1
 8.150928855925000E9     9.851701501872838E-2    5.335900060231734E-1   -2.675663298911063E-3    9.367731174069933E-4   -2.710433575454372E-3    9.741442288796622E-4    2.467973772879651E-1    4.513963147499093E-1
 8.150932977850000E9     9.888175885812990E-2    5.335776870482480E-1   -2.668623222438265E-3    9.343370939025742E-4   -2.717469235137319E-3    9.503924881638915E-4    2.470397060702671E-1    4.512034173148076E-1
 8.150937099775000E9     9.911369556353726E-2    5.334551303881736E-1   -2.662355459038205E-3    9.372758606931492E-4   -2.681054281340411E-3    1.007467125730351E-3    2.472000443998524E-1    4.509641850186364E-1
 8.150941221700000E9     9.940996661865435E-2    5.335207932892466E-1   -2.691385999000094E-3    9.272330795883919E-4   -2.686766674333548E-3    9.947912392479880E-4    2.473022355781418E-1    4.508509493139395E-1
 8.150945343625000E9     9.983696380322776E-2    5.332973275017422E-1   -2.654458880984037E-3    9.484758502603208E-4   -2.701636520967733E-3    9.997779194632849E-4    2.476645295233388E-1    4.508376591179525E-1
 8.150949465550000E9     1.000175880449603E-1    5.333675789043220E-1   -2.685078280407240E-3    9.332795640978123E-4   -2.681977152063730E-3    9.993968576608959E-4    2.478510673529900E-1    4.506406138739982E-1
 8.150953587475000E9     1.003373326654269E-1    5.333476557522531E-1   -2.668764325121942E-3    9.600158538669727E-4   -2.713882270396231E-3    9.894196328491041E-4    2.482020999644536E-1    4.505123813103942E-1
 8.150957709400000E9     1.006628124812764E-1    5.332777547651926E-1   -2.676091207287437E-3    9.237831213866118E-4   -2.665909756317884E-3    1.007923578479203E-3    2.483838328566274E-1    4.503773184560428E-1
 8.150961831325000E9     1.009408656113638E-1    5.332321285772383E-1   -2.681468809477717E-3    9.283377059081614E-4   -2.687589076305010E-3    1.000268351037151E-3    2.486494625953982E-1    4.502399755556659E-1
 8.150965953250000E9     1.011416348513247E-1    5.332203212661546E-1   -2.689588710933522E-3    9.427657860561567E-4   -2.694521364443223E-3    9.702066576790561E-4    2.488679691779304E-1    4.501707663690939E-1
 8.150970075175000E9     1.014599461534407E-1    5.331798822179368E-1   -2.682722866774056E-3    9.774329417211705E-4   -2.690999417156031E-3    1.019251286753099E-3    2.490246665746855E-1    4.500769297227491E-1
 8.150974197100000E9     1.018089491982471E-1    5.330081529285180E-1   -2.692107169970640E-3    9.577952519470585E-4   -2.701753081543602E-3    9.963470714553838E-4    2.493772311403870E-1    4.497547424459782E-1
 8.150978319025000E9     1.021051405934067E-1    5.329817132969508E-1   -2.674325571564744E-3    9.401189820312759E-4   -2.692238641994329E-3    1.000861842680826E-3    2.495820484380735E-1    4.496416172396451E-1
 8.150982440950000E9     1.023217171912848E-1    5.330502112589266E-1   -2.671111180659476E-3    9.317103824371661E-4   -2.706728153596531E-3    1.005999098384590E-3    2.498741171280051E-1    4.496230979907702E-1
 8.150986562875000E9     1.026989991985799E-1    5.330415202354323E-1   -2.685725062611943E-3    9.437472477402903E-4   -2.696083064337593E-3    1.022528240018043E-3    2.501010560825594E-1    4.495654965364002E-1
 8.150990684800000E9     1.030333733242446E-1    5.329082685696955E-1   -2.675624165744005E-3    9.715497637520679E-4   -2.705097006619945E-3    9.892129712630274E-4    2.502118872530140E-1    4.493393461369953E-1
 8.150994806725000E9     1.033485484447627E-1    5.329308828659294E-1   -2.659474547717496E-3    9.695349091388058E-4   -2.729020752510515E-3    1.001800073523501E-3    2.506032599814395E-1    4.492011546899521E-1
 8.150998928650000E9     1.035577142922077E-1    5.328818210014848E-1   -2.701312053129127E-3    9.601353724418450E-4   -2.718604098827493E-3    1.022458970922671E-3    2.507891354640887E-1    4.490819555611048E-1
 8.151003050575000E9     1.038584872489541E-1    5.327495881632307E-1   -2.704947270728822E-3    9.560342591231168E-4   -2.708524974398903E-3    1.017858267925383E-3    2.509191457233115E-1    4.489067099611556E-1
 8.151007172500000E9     1.041911003093609E-1    5.326450648939149E-1   -2.708653760883694E-3    9.748765148410860E-4   -2.710858410635881E-3    1.008335801748701E-3    2.510456279611887E-1    4.488461411435835E-1
 8.151011294425000E9     1.045550788791698E-1    5.325021792798348E-1   -2.686730504388940E-3    9.963862847280761E-4   -2.688909194852858E-3    1.044992706063511E-3    2.514387895440826E-1    4.485730438641031E-1
 8.151015416350000E9     1.047005192538754E-1    5.326250682394492E-1   -2.690197048011472E-3    9.712989934467716E-4   -2.685075115872744E-3    1.009628485861409E-3    2.515857486640402E-1    4.485449402267956E-1
 8.151019538275000E9     1.050985944816210E-1    5.326011647344197E-1   -2.675864653086590E-3    9.686339211262548E-4   -2.712157955196653E-3    1.031969170973125E-3    2.518987043479760E-1    4.484254750545992E-1
 8.151023660200000E9     1.054344971862771E-1    5.324435733580517E-1   -2.712076068919399E-3    9.922734271432488E-4   -2.704756120371027E-3    1.007579795718063E-3    2.520940292128233E-1    4.483305927423712E-1
 8.151027782125000E9     1.056644094637928E-1    5.324858327268013E-1   -2.688088608565929E-3    9.998113560381397E-4   -2.721776960761081E-3    1.050223660928004E-3    2.522912870344942E-1    4.480674965278705E-1
 8.151031904050000E9     1.059400597594636E-1    5.324021493719464E-1   -2.719815394186970E-3    9.831194246396843E-4   -2.725579082979332E-3    1.015941830616458E-3    2.523251994983895E-1    4.480307454644667E-1
 8.151036025975000E9     1.061404846211043E-1    5.322731044362125E-1   -2.686260757854763E-3    1.015119571677948E-3   -2.692419043892435E-3    1.032250662416832E-3    2.526935069823901E-1    4.478883644136128E-1
 8.151040147900000E9     1.065654248478263E-1    5.322593253249329E-1   -2.691043816841054E-3    9.881673920083425E-4   -2.722658206411671E-3    1.028679623559467E-3    2.530969791359233E-1    4.477866478083710E-1
 8.151044269825000E9     1.068226394746248E-1    5.322477277100871E-1   -2.696761767472216E-3    1.013500748683612E-3   -2.713305080377538E-3    1.040458146901913E-3    2.531670541443768E-1    4.476948740085248E-1
 8.151048391750000E9     1.070488741289177E-1    5.321672731251443E-1   -2.696650968611194E-3    9.891089957741669E-4   -2.661121661248564E-3    1.051532560503081E-3    2.533405814430592E-1    4.475111823704487E-1
 8.151052513675000E9     1.074177707436459E-1    5.321376913148823E-1   -2.709288618554081E-3    1.003559948824416E-3   -2.727305308250745E-3    1.044320097027211E-3    2.538028702903464E-1    4.473681185516050E-1
 8.151056635600000E9     1.077002811810209E-1    5.320829936598745E-1   -2.712825212298942E-3    9.971716794362727E-4   -2.739040452190669E-3    1.057184822413696E-3    2.538041813967143E-1    4.472393373547155E-1
 8.151060757525000E9     1.080376630998438E-1    5.321065937069281E-1   -2.695514038549438E-3    9.944140873325465E-4   -2.715537428800169E-3    1.027314152822902E-3    2.541902389395099E-1    4.471992942941617E-1
 8.151064879450000E9     1.084024032559037E-1    5.318235747019856E-1   -2.713209769084161E-3    9.970568042549208E-4   -2.711093239059850E-3    1.094578930233664E-3    2.541776121728535E-1    4.467346213114322E-1
 8.151069001375000E9     1.085862791328227E-1    5.318973717835508E-1   -2.730648512904890E-3    1.023429868091004E-3   -2.739820936823586E-3    1.073257968661930E-3    2.546370848430990E-1    4.468434994733996E-1
 8.151073123300000E9     1.089555897625145E-1    5.317784539625344E-1   -2.734723061865524E-3    1.028201330840528E-3   -2.749491301338072E-3    1.064584785317261E-3    2.548506472031367E-1    4.466448900320758E-1
 8.151077245225000E9     1.091583715970229E-1    5.316710223808067E-1   -2.721857501019712E-3    1.004161016236190E-3   -2.730879280964726E-3    1.083794687317177E-3    2.551827277052526E-1    4.464712921278157E-1
 8.151081367150000E9     1.093924885459848E-1    5.316626231991721E-1   -2.714151197544767E-3    1.011158501030934E-3   -2.720636495873875E-3    1.067848772930417E-3    2.552908577008574E-1    4.464189793072996E-1
 8.151085489075000E9     1.097856220616089E-1    5.316815467205813E-1   -2.706075617162462E-3    1.007271898117458E-3   -2.722265961303717E-3    1.084315306324037E-3    2.554718734781945E-1    4.462721886591401E-1
 8.151089611000000E9     1.100416877325279E-1    5.315545244690260E-1   -2.742330812044958E-3    1.049385618493740E-3   -2.747067474520422E-3    1.058975615724687E-3    2.556819411910178E-1    4.460905781304150E-1
 8.151093732925000E9     1.102826985842192E-1    5.315315936856665E-1   -2.706677878792850E-3    1.046603447174672E-3   -2.746116220246860E-3    1.078978470215336E-3    2.559331514051771E-1    4.459085433726798E-1
 8.151097854850000E9     1.105903841971208E-1    5.315612825956795E-1   -2.712051121448145E-3    1.024851118495090E-3   -2.767009549885737E-3    1.099538348291738E-3    2.562043049836327E-1    4.457539827705141E-1
 8.151101976775000E9     1.109543098678601E-1    5.315042558282733E-1   -2.755959240030333E-3    1.033465650924980E-3   -2.748238463705229E-3    1.096969153402997E-3    2.563218877889272E-1    4.457192046444107E-1
 8.151106098700000E9     1.111714182381468E-1    5.313585410153088E-1   -2.720177676115237E-3    1.037914196555467E-3   -2.757081339041483E-3    1.105498119106217E-3    2.566320060396370E-1    4.455701934446525E-1
 8.151110220625000E9     1.113723934943096E-1    5.312654577905476E-1   -2.743705191247191E-3    1.039704783807245E-3   -2.711759644688754E-3    1.092026660352065E-3    2.568978908739635E-1    4.454796710987782E-1
 8.151114342550000E9     1.118602810862211E-1    5.313521062094004E-1   -2.712124068283308E-3    1.030511004997241E-3   -2.719706603297454E-3    1.103324791928550E-3    2.571211418502138E-1    4.452014292970306E-1
 8.151118464475000E9     1.121275278669669E-1    5.312763795991277E-1   -2.725429700682073E-3    1.055981313851020E-3   -2.751515453149738E-3    1.097259458112227E-3    2.572879527983327E-1    4.451779141000719E-1
 8.151122586400000E9     1.124787479603107E-1    5.310841956810535E-1   -2.713832390872099E-3    1.035996488466662E-3   -2.713881125620014E-3    1.064738334565777E-3    2.576777927561569E-1    4.450083119620521E-1
 8.151126708325000E9     1.127880888262771E-1    5.309340497155079E-1   -2.745073906759900E-3    1.049969902780855E-3   -2.745505656483421E-3    1.091047131012260E-3    2.577590838343524E-1    4.447752087439869E-1
 8.151130830250000E9     1.129698528641691E-1    5.310580735625311E-1   -2.717861723496339E-3    1.041399856274443E-3   -2.783569988287197E-3    1.092937188637814E-3    2.580898862928986E-1    4.445825776236308E-1
 8.151134952175000E9     1.132934206249473E-1    5.310158535515869E-1   -2.757392993356702E-3    1.083574180499702E-3   -2.741842449530055E-3    1.130819581490418E-3    2.583113864005518E-1    4.446987600140099E-1
 8.151139074100000E9     1.137075130538335E-1    5.309554473524147E-1   -2.753873334265356E-3    1.027395407683757E-3   -2.739509778232975E-3    1.088600729339830E-3    2.585198717850371E-1    4.444253969386249E-1
 8.151143196025000E9     1.138338099765627E-1    5.308127145683117E-1   -2.725747722921561E-3    1.035231696957672E-3   -2.735538178779493E-3    1.100668152970025E-3    2.586315623826037E-1    4.442650436350356E-1
 8.151147317950000E9     1.141412931790318E-1    5.308563091834497E-1   -2.715548814237467E-3    1.042002813878741E-3   -2.767038545269427E-3    1.137315271676038E-3    2.590318209223278E-1    4.441113775109369E-1
 8.151151439875000E9     1.143987792987015E-1    5.307528175747088E-1   -2.766171384831191E-3    1.067777066210911E-3   -2.753629946181776E-3    1.113456912422015E-3    2.592593961614775E-1    4.441384015022385E-1
 8.151155561800000E9     1.148015159719425E-1    5.306685292107440E-1   -2.744051194674978E-3    1.053546956415955E-3   -2.732044678286684E-3    1.123023989206044E-3    2.593801738778324E-1    4.438556096281194E-1
 8.151159683725000E9     1.150782329567584E-1    5.306249124557840E-1   -2.744992662094528E-3    1.079692908335041E-3   -2.765376251161660E-3    1.107037995149025E-3    2.596894400564531E-1    4.436443913448765E-1
 8.151163805650000E9     1.152787038799399E-1    5.305242274564771E-1   -2.735269732197014E-3    1.070096248760208E-3   -2.770851944942878E-3    1.140069355684179E-3    2.597224514480754E-1    4.436614825958398E-1
 8.151167927575000E9     1.156327568783435E-1    5.304227333283663E-1   -2.735879314954165E-3    1.062051917354580E-3   -2.765305564777458E-3    1.132189379656364E-3    2.600275846574361E-1    4.435027561590963E-1
 8.151172049500000E9     1.159294366986866E-1    5.305085070444039E-1   -2.767827011006675E-3    1.076818761810472E-3   -2.760396833905446E-3    1.116425393707642E-3    2.602283529633949E-1    4.433651756319017E-1
 8.151176171425000E9     1.161802870409221E-1    5.303990307098450E-1   -2.753926973116338E-3    1.093174529611683E-3   -2.804761099656715E-3    1.143281375247337E-3    2.605205886197157E-1    4.432047317503769E-1
 8.151180293350000E9     1.165424074337024E-1    5.302330047333920E-1   -2.770944742945460E-3    1.114213014687594E-3   -2.759717799480106E-3    1.158994400710985E-3    2.606103212910453E-1    4.430204910017567E-1
 8.151184415275000E9     1.169119073328656E-1    5.303330883506178E-1   -2.760215678453700E-3    1.081073198327477E-3   -2.754034378902631E-3    1.141994982589655E-3    2.608998766472482E-1    4.429025779088755E-1
 8.151188537200000E9     1.172573525232158E-1    5.302336643629723E-1   -2.778589077780255E-3    1.088278610041968E-3   -2.776913003731778E-3    1.148343953688460E-3    2.611302238270128E-1    4.427265671024277E-1
 8.151192659125000E9     1.174035916071297E-1    5.301099995492640E-1   -2.765213013750676E-3    1.111761232317994E-3   -2.744778029576189E-3    1.167311488649825E-3    2.614858846571383E-1    4.424739847327359E-1
 8.151196781050000E9     1.177194325797731E-1    5.301647855245359E-1   -2.764013203164288E-3    1.101344018151003E-3   -2.759779046679926E-3    1.162953483017707E-3    2.616664604365829E-1    4.424531685192294E-1
 8.151200902975000E9     1.179284561790699E-1    5.300412194575670E-1   -2.762743519270069E-3    1.095042002896826E-3   -2.773260607377555E-3    1.195011741950422E-3    2.617814779300194E-1    4.421688531700819E-1
 8.151205024900000E9     1.183466066721785E-1    5.299726390681868E-1   -2.783296034173294E-3    1.122744991835884E-3   -2.775598217429617E-3    1.157909940661083E-3    2.620592214404343E-1    4.420427151193186E-1
 8.151209146825000E9     1.186713496592887E-1    5.300243753764510E-1   -2.784492773108539E-3    1.100503371804546E-3   -2.798057898974072E-3    1.174186587922136E-3    2.623835534297235E-1    4.421172587977756E-1
 8.151213268750000E9     1.189001512130129E-1    5.297699250117729E-1   -2.767300031608641E-3    1.134088372787057E-3   -2.796581322153850E-3    1.153718846137695E-3    2.626311075218956E-1    4.418690206421674E-1
 8.151217390675000E9     1.192092473609569E-1    5.296916922675746E-1   -2.780066712016491E-3    1.125140290594713E-3   -2.770730728263834E-3    1.202441125403172E-3    2.628206836553525E-1    4.417825078478175E-1
 8.151221512600000E9     1.194077266236700E-1    5.297567261119667E-1   -2.780264218582863E-3    1.103744094138144E-3   -2.798847923331670E-3    1.193169035126118E-3    2.629817547921015E-1    4.416920292395694E-1
 8.151225634525000E9     1.197404744184908E-1    5.296791253431482E-1   -2.801602287820833E-3    1.134249697916637E-3   -2.826255562997517E-3    1.188928535320431E-3    2.632430773974468E-1    4.416457125219875E-1
 8.151229756450000E9     1.200025951894874E-1    5.295801024582070E-1   -2.795416803935705E-3    1.117265503084440E-3   -2.791617805113039E-3    1.190283620957965E-3    2.634956212667008E-1    4.412132996634650E-1
 8.151233878375000E9     1.204398893350221E-1    5.295848337976513E-1   -2.803492378471391E-3    1.148132690717459E-3   -2.809220840612492E-3    1.186299314901969E-3    2.637819012956033E-1    4.412124069217349E-1
 8.151238000300000E9     1.207664775918732E-1    5.294390393445167E-1   -2.764098623084055E-3    1.136146376953483E-3   -2.811955123644402E-3    1.193056030805297E-3    2.639135683599544E-1    4.411403842491370E-1
 8.151242122225000E9     1.211018617638667E-1    5.293580040382792E-1   -2.791735756444393E-3    1.125935446506610E-3   -2.815046175368313E-3    1.212220867881358E-3    2.641987380504739E-1    4.409855992992333E-1
 8.151246244150000E9     1.212922392932592E-1    5.292432590096769E-1   -2.780767740275628E-3    1.143893377524947E-3   -2.810117680996250E-3    1.199877484020985E-3    2.642850961361571E-1    4.406923319097600E-1
 8.151250366075000E9     1.215354249467871E-1    5.292187327238886E-1   -2.812716960369109E-3    1.159889124001563E-3   -2.803656918546822E-3    1.224920606766510E-3    2.645976679321219E-1    4.406834047378816E-1
 8.151254488000000E9     1.218953750853811E-1    5.291999458880191E-1   -2.837252867568863E-3    1.150513345077704E-3   -2.816128743216314E-3    1.226147019118049E-3    2.648560859633701E-1    4.405345640900174E-1
 8.151258609925000E9     1.221438245299194E-1    5.290680343238695E-1   -2.826113926914498E-3    1.173750548261951E-3   -2.815016856144566E-3    1.194807867858197E-3    2.650022493839113E-1    4.403790096768835E-1
 8.151262731850000E9     1.225518240042231E-1    5.290364860391796E-1   -2.804993891361044E-3    1.142989485346838E-3   -2.796236527045059E-3    1.237095482650399E-3    2.652071498010292E-1    4.401028888503489E-1
 8.151266853775000E9     1.227500438573816E-1    5.289530641565421E-1   -2.797392603468901E-3    1.188333022062458E-3   -2.806003847141757E-3    1.223867976045721E-3    2.655754754859314E-1    4.400390832962372E-1
 8.151270975700000E9     1.230813394127011E-1    5.289342461138177E-1   -2.825200435901522E-3    1.168770496670405E-3   -2.839209315482315E-3    1.237727188288194E-3    2.656535299183831E-1    4.399432605437851E-1
 8.151275097625000E9     1.234386967566433E-1    5.288247187801246E-1   -2.796166983030872E-3    1.189499248979850E-3   -2.792003278455563E-3    1.232037875360826E-3    2.658948236933211E-1    4.398269983279341E-1
 8.151279219550000E9     1.237145740225163E-1    5.287786912863244E-1   -2.822926425114650E-3    1.179446041165298E-3   -2.813886883268147E-3    1.208861725770310E-3    2.661916316414480E-1    4.396650858405106E-1
 8.151283341475000E9     1.239702989120259E-1    5.288046301204099E-1   -2.838970654004741E-3    1.149082322014751E-3   -2.833146626698794E-3    1.250757908624593E-3    2.663279911111778E-1    4.394684197649714E-1
 8.151287463400000E9     1.242225897516204E-1    5.285747570093569E-1   -2.826803200963340E-3    1.213431588915894E-3   -2.846414950114594E-3    1.213572584999222E-3    2.666446758545927E-1    4.394464045080020E-1
 8.151291585325000E9     1.245273474473939E-1    5.286802839894231E-1   -2.827359221762912E-3    1.207354926056413E-3   -2.866165914543874E-3    1.242864931345211E-3    2.669175768394024E-1    4.391705555855482E-1
 8.151295707250000E9     1.249187191963805E-1    5.284159606451880E-1   -2.837271682270815E-3    1.156864105068931E-3   -2.836120974759383E-3    1.240659970632667E-3    2.670554455391498E-1    4.389838732621388E-1
