#  HZ   S   RI   R     50.00 
! Rohde & Schwarz Vector Network Analyzer 
! Rohde-Schwarz,ZNB20-2Port,1311601062101988,3.16
! Created: UTC 3/21/2024, 12:54:25 AM
! freq[Hz]                re:S11                  im:S11                  re:S21                  im:S21                  re:S12                  im:S12                  re:S22                  im:S22
 8.150921772000000E9     9.805311032858323E-2    5.336847125148657E-1   -2.656042077500631E-3    9.436983119789507E-4   -2.691354648552857E-3    9.683816658476507E-4    2.463149544387963E-1    4.514292208564851E-1
 8.150925911850000E9     9.822837626699342E-2    5.337702003165937E-1   -2.685016556107526E-3    9.175463695890990E-4   -2.662598953695197E-3    9.688561135323716E-4    2.465235286969947E-1    4.514242448962079E-1
 8.150930051700000E9     9.864111453384404E-2    5.335884464023045E-1   -2.686139578622853E-3    9.267611043997088E-4   -2.699923808931617E-3    9.487596045324610E-4    2.468753713958372E-1    4.512567981208714E-1
 8.150934191550000E9     9.893124135428970E-2    5.334561494098611E-1   -2.664022216330765E-3    9.390807152075261E-4   -2.705443211332772E-3    9.818243928719180E-4    2.470624683286997E-1    4.511740845783409E-1
 8.150938331400000E9     9.916773675229257E-2    5.335426258614449E-1   -2.644043417275868E-3    9.158828340901511E-4   -2.681404483047955E-3    9.677885008327026E-4    2.473021112888342E-1    4.510729965793965E-1
 8.150942471250000E9     9.962259984378580E-2    5.334848265891416E-1   -2.696470867216888E-3    9.250964463869232E-4   -2.696594147000181E-3    9.981610020315251E-4    2.475473976158392E-1    4.508562617386201E-1
 8.150946611100000E9     1.000372237096803E-1    5.333695183864993E-1   -2.661255941034020E-3    9.429145490460546E-4   -2.686404243665414E-3    1.006947273942042E-3    2.475788754488897E-1    4.508030246028781E-1
 8.150950750950000E9     9.992466518296932E-2    5.333024936721100E-1   -2.669691949189029E-3    9.571133309458976E-4   -2.730616787439018E-3    9.871270055271319E-4    2.479574460589136E-1    4.506437926218178E-1
 8.150954890800000E9     1.003949677584525E-1    5.333246832804184E-1   -2.677430500624637E-3    9.378023409063649E-4   -2.685683436920286E-3    9.767758506975296E-4    2.481604976329588E-1    4.505011801027442E-1
 8.150959030650000E9     1.008487722038196E-1    5.331708086522615E-1   -2.660314051841718E-3    9.619731190021765E-4   -2.680332393706669E-3    1.017494247090569E-3    2.484649843917097E-1    4.502805822665911E-1
 8.150963170500000E9     1.010212498110518E-1    5.332168314977002E-1   -2.676449762422423E-3    9.313973639270398E-4   -2.682444031761440E-3    9.851694955800132E-4    2.485794228071096E-1    4.501556472707819E-1
 8.150967310350000E9     1.013929091709634E-1    5.331396279264977E-1   -2.676691149684091E-3    9.369836847873420E-4   -2.645464576741240E-3    1.002320060689819E-3    2.489134178425319E-1    4.501129631463564E-1
 8.150971450200000E9     1.014784671016728E-1    5.331351890375423E-1   -2.688859119182926E-3    9.432689894009590E-4   -2.732321307656656E-3    9.757596612764125E-4    2.490052040969732E-1    4.499684521700170E-1
 8.150975590050000E9     1.018149213410883E-1    5.330543245101547E-1   -2.709452599066122E-3    9.580402087315684E-4   -2.685780733004874E-3    1.004730205814317E-3    2.493689881345454E-1    4.499560375389065E-1
 8.150979729900000E9     1.021301123998847E-1    5.330545520712718E-1   -2.684848171074638E-3    9.609871831305373E-4   -2.695468050298816E-3    1.003110841406019E-3    2.494131291387141E-1    4.497737116455269E-1
 8.150983869750000E9     1.025297325898857E-1    5.329226952153790E-1   -2.682476867809415E-3    9.475516103845200E-4   -2.690812185752016E-3    1.013268242538560E-3    2.498302569909510E-1    4.496299706552506E-1
 8.150988009600000E9     1.027841693330167E-1    5.329016122892636E-1   -2.693983140846333E-3    9.700441106632333E-4   -2.703714504650141E-3    9.832298460200489E-4    2.500256255252806E-1    4.493323959318921E-1
 8.150992149450000E9     1.031303827602028E-1    5.329045391724729E-1   -2.671300036158712E-3    9.345489295062235E-4   -2.706695636579587E-3    9.981877083684713E-4    2.503530007414480E-1    4.492521802883647E-1
 8.150996289300000E9     1.033538084715057E-1    5.327829020792196E-1   -2.690706893206047E-3    9.633096049522341E-4   -2.702950492512768E-3    1.029344046969667E-3    2.504274900479959E-1    4.490519913215486E-1
 8.151000429150000E9     1.038245076918187E-1    5.327417303795505E-1   -2.698715954036970E-3    9.763999387051024E-4   -2.690021900943355E-3    1.052080278782571E-3    2.508105615576680E-1    4.490159175643978E-1
 8.151004569000000E9     1.040106333310612E-1    5.326808920866519E-1   -2.672169294814347E-3    9.957610270632854E-4   -2.713417391357641E-3    1.018174781382908E-3    2.509761096511644E-1    4.489704689160107E-1
 8.151008708850000E9     1.044093066528908E-1    5.327028383168601E-1   -2.674391038095221E-3    9.627207107819578E-4   -2.724041359178031E-3    1.004999024628724E-3    2.512609855362267E-1    4.487722895482014E-1
 8.151012848700000E9     1.044740708100268E-1    5.326497283256856E-1   -2.701114040873822E-3    9.565973199982661E-4   -2.707753494528783E-3    9.973554605580842E-4    2.514380701716508E-1    4.486713761299002E-1
 8.151016988550000E9     1.049416972083784E-1    5.324911761028694E-1   -2.700762897616826E-3    9.736350841048007E-4   -2.668406522925256E-3    1.019501055841668E-3    2.516013805085195E-1    4.484424227092972E-1
 8.151021128400000E9     1.051459948665761E-1    5.324833492540094E-1   -2.668733577083032E-3    9.782326033985740E-4   -2.694136628966381E-3    1.016672771065617E-3    2.518629135540331E-1    4.483222659051891E-1
 8.151025268250000E9     1.055663156589576E-1    5.324325526127972E-1   -2.699974430481451E-3    9.955478454445909E-4   -2.678782377075140E-3    1.009294833390187E-3    2.521782422238010E-1    4.481540079757916E-1
 8.151029408100000E9     1.058317428855851E-1    5.323924995263728E-1   -2.705847925041859E-3    9.904336473859417E-4   -2.706108197839817E-3    1.039923803029121E-3    2.523643593399402E-1    4.482495749546268E-1
 8.151033547950000E9     1.060047835990343E-1    5.324273372322281E-1   -2.714068438329478E-3    1.008929170992652E-3   -2.694703618852833E-3    1.015954342980271E-3    2.525818558569665E-1    4.480496837790070E-1
 8.151037687800000E9     1.062646040261948E-1    5.323818549653080E-1   -2.701267815972609E-3    1.021969921588783E-3   -2.721806136194155E-3    1.044120111717756E-3    2.527472001781299E-1    4.478309549696040E-1
 8.151041827650000E9     1.065879650822292E-1    5.322223519202428E-1   -2.716796033403602E-3    9.994662138842073E-4   -2.712710819378622E-3    1.032335560523599E-3    2.530432277221897E-1    4.476049419551923E-1
 8.151045967500000E9     1.068541221476836E-1    5.321813838259174E-1   -2.709473960886629E-3    1.000216126968786E-3   -2.723787318333512E-3    1.051396539289783E-3    2.533055867807249E-1    4.475850929580094E-1
 8.151050107350000E9     1.072378111869379E-1    5.321996530683842E-1   -2.681026018071955E-3    9.984993267525587E-4   -2.714932975216628E-3    1.055592688576373E-3    2.535507698319420E-1    4.473076326437393E-1
 8.151054247200000E9     1.075869488592806E-1    5.321703447960185E-1   -2.704727526616827E-3    9.795430678155087E-4   -2.727318447573786E-3    1.035000049490993E-3    2.537152005272624E-1    4.471288452109992E-1
 8.151058387050000E9     1.078196460371297E-1    5.320149216659152E-1   -2.701600166191639E-3    1.003049405882542E-3   -2.679747665717722E-3    1.039822431176770E-3    2.539473618192390E-1    4.470188757095284E-1
 8.151062526900000E9     1.080577913018214E-1    5.318563440536594E-1   -2.715033515127491E-3    1.006253271647944E-3   -2.735508576067699E-3    1.079798087808770E-3    2.541430537502580E-1    4.470297807930246E-1
 8.151066666750000E9     1.083265521837245E-1    5.318737985032664E-1   -2.718306728380348E-3    1.020367085113382E-3   -2.741579925032239E-3    1.062293241667203E-3    2.543674704281622E-1    4.468120443948072E-1
 8.151070806600000E9     1.086292784923080E-1    5.317485821495628E-1   -2.710824287363329E-3    1.016317015078410E-3   -2.686899724740575E-3    1.059050131733477E-3    2.546230306275616E-1    4.467379806452155E-1
 8.151074946450000E9     1.089703559206555E-1    5.317995174730167E-1   -2.719022655363162E-3    1.011629210683616E-3   -2.715110022060378E-3    1.062821143650426E-3    2.547467791937170E-1    4.466079352707149E-1
 8.151079086300000E9     1.093889676583445E-1    5.318531079397322E-1   -2.715470379028661E-3    1.011548267619520E-3   -2.748928563301368E-3    1.082486618214954E-3    2.550829919976586E-1    4.463068231397097E-1
 8.151083226150000E9     1.095674410193780E-1    5.316202627898732E-1   -2.710743654341292E-3    1.040749728249699E-3   -2.708012498414063E-3    1.034265115474290E-3    2.554058608530044E-1    4.462010649490504E-1
 8.151087366000000E9     1.099466741723727E-1    5.316865736311370E-1   -2.706570656262477E-3    1.014446657830462E-3   -2.727931771725352E-3    1.063743248771694E-3    2.554860129414395E-1    4.461638554520645E-1
 8.151091505850000E9     1.101404587435310E-1    5.315856277358993E-1   -2.710627561103062E-3    1.004060128746434E-3   -2.736821283701037E-3    1.052503774784956E-3    2.558494079611878E-1    4.460645131584673E-1
 8.151095645700000E9     1.105286572129797E-1    5.315110599826048E-1   -2.721038175938537E-3    1.027527237248644E-3   -2.726544486231713E-3    1.096801903082580E-3    2.561076627262470E-1    4.458120424843149E-1
 8.151099785550000E9     1.107098989635703E-1    5.314271230914132E-1   -2.702069193012964E-3    1.010754371069760E-3   -2.751533104668555E-3    1.072816663040447E-3    2.561951131070107E-1    4.457876503123210E-1
 8.151103925400000E9     1.110257329676833E-1    5.313260739420934E-1   -2.723463098673589E-3    1.037463059844423E-3   -2.726594398880500E-3    1.086804187469556E-3    2.564377588038553E-1    4.455246009072001E-1
 8.151108065250000E9     1.114045856186456E-1    5.312774532668570E-1   -2.711352130130969E-3    1.043115494396359E-3   -2.711437463743022E-3    1.101523065484412E-3    2.566632249508023E-1    4.455653739764794E-1
 8.151112205100000E9     1.116408339812857E-1    5.313570353384378E-1   -2.696931159738123E-3    1.041750799514613E-3   -2.734913354128471E-3    1.079792714032223E-3    2.568495605060599E-1    4.453983521831976E-1
 8.151116344950000E9     1.118883022466068E-1    5.313650753747645E-1   -2.728746570743518E-3    1.055619997478896E-3   -2.790361307165777E-3    1.086760449844167E-3    2.571975076047758E-1    4.451429385417800E-1
 8.151120484800000E9     1.122420868540853E-1    5.310800890163039E-1   -2.708850021450756E-3    1.059517992204001E-3   -2.738223886734254E-3    1.073844721940940E-3    2.573141742071203E-1    4.452397289992321E-1
 8.151124624650000E9     1.124684409671230E-1    5.310843175034790E-1   -2.729004527141207E-3    1.059407950489152E-3   -2.732968243301443E-3    1.103403889969888E-3    2.577194664481192E-1    4.450283466577475E-1
 8.151128764500000E9     1.126434808497937E-1    5.309136318883390E-1   -2.734254261751565E-3    1.060321469516622E-3   -2.750147697905843E-3    1.090164794291396E-3    2.579282716048044E-1    4.448393366297705E-1
 8.151132904350000E9     1.131236673041706E-1    5.309389364003402E-1   -2.719735459613562E-3    1.046687000450077E-3   -2.750372512261263E-3    1.103807173361643E-3    2.581578432232753E-1    4.446179488713132E-1
 8.151137044200000E9     1.133434311335691E-1    5.310229537575377E-1   -2.747353845443434E-3    1.062950736206064E-3   -2.735713005018815E-3    1.112078326539842E-3    2.583600431903937E-1    4.445346659078240E-1
 8.151141184050000E9     1.136549284478348E-1    5.308653368245474E-1   -2.741236130721575E-3    1.067672745542538E-3   -2.736541884220440E-3    1.100235624472494E-3    2.585005376150945E-1    4.444410761720576E-1
 8.151145323900000E9     1.141821787693417E-1    5.308671645505609E-1   -2.734165701499019E-3    1.072281547159267E-3   -2.764960825022940E-3    1.123597844029040E-3    2.587767039588104E-1    4.442079628544395E-1
 8.151149463750000E9     1.142834582248364E-1    5.307708055123065E-1   -2.738428063541087E-3    1.047952680987302E-3   -2.757030649885718E-3    1.121806867799305E-3    2.589977159524354E-1    4.440572409621635E-1
 8.151153603600000E9     1.146152436774800E-1    5.307223548177586E-1   -2.748481206251477E-3    1.081593587529222E-3   -2.758734241902130E-3    1.120791444610545E-3    2.592047727053604E-1    4.439436206708138E-1
 8.151157743450000E9     1.148408917088330E-1    5.305814047299220E-1   -2.748626620229676E-3    1.103706396813565E-3   -2.760272113974960E-3    1.090799689198619E-3    2.594638656506333E-1    4.438993658269477E-1
 8.151161883300000E9     1.151854769616251E-1    5.306285783513033E-1   -2.781044162161047E-3    1.055576963495217E-3   -2.779552815566609E-3    1.120284729696386E-3    2.597904151856936E-1    4.436887727171858E-1
 8.151166023150000E9     1.154141050973137E-1    5.304752790569272E-1   -2.758454405860831E-3    1.089227569017841E-3   -2.777558946934176E-3    1.127646753879826E-3    2.598569782325690E-1    4.435849184910390E-1
 8.151170163000000E9     1.156964362685999E-1    5.305066965924602E-1   -2.768467831898100E-3    1.076635812476846E-3   -2.748949154298473E-3    1.145137200225443E-3    2.603003751511272E-1    4.433488799691438E-1
 8.151174302850000E9     1.162142023433569E-1    5.303343155368901E-1   -2.770307234261608E-3    1.067423207637857E-3   -2.758858888376793E-3    1.153311299350303E-3    2.604187887788061E-1    4.432117870695153E-1
 8.151178442700000E9     1.165249415532220E-1    5.302451616022421E-1   -2.755695773389004E-3    1.101786590385660E-3   -2.789699591215476E-3    1.126830042414544E-3    2.605251207117658E-1    4.431369403774462E-1
 8.151182582550000E9     1.166786493683988E-1    5.302406363310204E-1   -2.764383020680479E-3    1.104577428049740E-3   -2.782888267616931E-3    1.126674194148074E-3    2.609356053133745E-1    4.429001712722410E-1
 8.151186722400000E9     1.170153622225688E-1    5.302294143811829E-1   -2.780102576795339E-3    1.095060640886552E-3   -2.771248837808547E-3    1.118054406806013E-3    2.610357454319533E-1    4.427769510309118E-1
 8.151190862250000E9     1.171893917147994E-1    5.302878893762738E-1   -2.769068138677337E-3    1.108317230577247E-3   -2.768367143273657E-3    1.174510237937209E-3    2.612144426746510E-1    4.425874611263164E-1
 8.151195002100000E9     1.175872468996694E-1    5.301430534135763E-1   -2.789234602985059E-3    1.099350785375760E-3   -2.749135452104764E-3    1.140283150018919E-3    2.615152069600536E-1    4.425163434316320E-1
 8.151199141950000E9     1.178365823092404E-1    5.300909847899375E-1   -2.773211170685322E-3    1.120110197530718E-3   -2.771698071829930E-3    1.142501290061842E-3    2.617169634197973E-1    4.423833420112261E-1
 8.151203281800000E9     1.182325586749171E-1    5.298978551706977E-1   -2.779065922634919E-3    1.123810408808210E-3   -2.769665704226202E-3    1.154497664449069E-3    2.619195872005074E-1    4.422156764610869E-1
 8.151207421650000E9     1.185337436357063E-1    5.298787645163461E-1   -2.793391741053359E-3    1.091815080375669E-3   -2.780892600608904E-3    1.144762045833658E-3    2.622374061054201E-1    4.421723854432503E-1
 8.151211561500000E9     1.187561808403223E-1    5.297730925083595E-1   -2.791764494759946E-3    1.157646150793965E-3   -2.768317786003710E-3    1.156476003809457E-3    2.624221367633790E-1    4.419360498600185E-1
 8.151215701350000E9     1.191123948628853E-1    5.298431631453364E-1   -2.773128822340555E-3    1.111980870224644E-3   -2.780318639438476E-3    1.173188146488154E-3    2.626356530137707E-1    4.418782621554800E-1
 8.151219841200000E9     1.194325328991415E-1    5.296693575368134E-1   -2.774875343621448E-3    1.125769369167486E-3   -2.817488649608992E-3    1.159440030365892E-3    2.629357540662005E-1    4.418574019199149E-1
 8.151223981050000E9     1.196331791610364E-1    5.296417786375548E-1   -2.773122170922111E-3    1.134721250201378E-3   -2.772203205989903E-3    1.166457351494803E-3    2.630470330638572E-1    4.416403599592452E-1
 8.151228120900000E9     1.199258021056093E-1    5.295707955826398E-1   -2.812269399231330E-3    1.138748893580878E-3   -2.801493320969162E-3    1.175112211119943E-3    2.633826489707772E-1    4.414629626566430E-1
 8.151232260750000E9     1.202268946509368E-1    5.296007579594572E-1   -2.790725635036334E-3    1.123728651397650E-3   -2.809475358228781E-3    1.150366795632772E-3    2.634858891008845E-1    4.412075477798756E-1
 8.151236400600000E9     1.205764952058343E-1    5.294254638649427E-1   -2.774002660576160E-3    1.133518792738545E-3   -2.794128508810456E-3    1.203412954897245E-3    2.637678110087828E-1    4.412279454147527E-1
 8.151240540450000E9     1.208305872049395E-1    5.294270820572922E-1   -2.791373402313582E-3    1.115352452209835E-3   -2.812703138285983E-3    1.188851541581407E-3    2.639319124592616E-1    4.409684762113840E-1
 8.151244680300000E9     1.212501408880824E-1    5.292899550258897E-1   -2.792123141941128E-3    1.142056727394601E-3   -2.785024025929068E-3    1.170673100475565E-3    2.642577712908485E-1    4.408337476478061E-1
 8.151248820150000E9     1.215553688501969E-1    5.292277735030201E-1   -2.808343951984384E-3    1.148927822000688E-3   -2.820153952710987E-3    1.210345850853505E-3    2.644824882469123E-1    4.406799278484377E-1
 8.151252960000000E9     1.217564498894785E-1    5.291439966421705E-1   -2.798102389691770E-3    1.165043502924224E-3   -2.794014075090742E-3    1.184119056571060E-3    2.647491501028059E-1    4.404202251346220E-1
 8.151257099850000E9     1.221389918982367E-1    5.289451100365413E-1   -2.805394465744220E-3    1.163768195784438E-3   -2.828919400816715E-3    1.205397419141238E-3    2.648267612149041E-1    4.403391768201653E-1
 8.151261239700000E9     1.223700268306323E-1    5.289884963188357E-1   -2.809991139796597E-3    1.156444470128777E-3   -2.822726267948136E-3    1.166705547137988E-3    2.650535490151815E-1    4.402346261043346E-1
 8.151265379550000E9     1.227075483816876E-1    5.289263322973503E-1   -2.808120697944584E-3    1.159147567862511E-3   -2.823024389203389E-3    1.240759702659363E-3    2.652376185650156E-1    4.402421166087246E-1
 8.151269519400000E9     1.229437767937508E-1    5.289634332855618E-1   -2.809849365273721E-3    1.182612542693202E-3   -2.836986665127975E-3    1.205069197615788E-3    2.656081999101724E-1    4.399537442664253E-1
 8.151273659250000E9     1.233210401023566E-1    5.288061552061760E-1   -2.806360694517066E-3    1.152986340627283E-3   -2.812900065587671E-3    1.259598008445848E-3    2.657631284013506E-1    4.399343693145131E-1
 8.151277799100000E9     1.235506978170201E-1    5.288764970268433E-1   -2.811690872389261E-3    1.194696812433399E-3   -2.810910229338098E-3    1.246766053866683E-3    2.660704121601052E-1    4.396612569280953E-1
 8.151281938950000E9     1.239607691768088E-1    5.286430959383728E-1   -2.826343617010849E-3    1.170901939597974E-3   -2.876584882355684E-3    1.220943824187380E-3    2.661897669503052E-1    4.395478046388246E-1
 8.151286078800000E9     1.242560296077726E-1    5.286778867796150E-1   -2.817982338549155E-3    1.187589879390953E-3   -2.836123375510928E-3    1.226282970153654E-3    2.665281183008815E-1    4.395450543680637E-1
 8.151290218650000E9     1.245102920850713E-1    5.286024294070951E-1   -2.839078037360485E-3    1.186979314738646E-3   -2.854766073884415E-3    1.238415000718046E-3    2.667255737891299E-1    4.393273396009617E-1
 8.151294358500000E9     1.248036646475819E-1    5.286065118534768E-1   -2.837611229071068E-3    1.192151584673250E-3   -2.817633618019899E-3    1.229004330275436E-3    2.669830543220069E-1    4.390957117545791E-1
