#  HZ   S   RI   R     50.00 
! Rohde & Schwarz Vector Network Analyzer 
! Rohde-Schwarz,ZNB20-2Port,1311601062101988,3.16
! Created: UTC 3/21/2024, 12:54:36 AM
! freq[Hz]                re:S11                  im:S11                  re:S21                  im:S21                  re:S12                  im:S12                  re:S22                  im:S22
 8.150906895000000E9     9.672914367003177E-2    5.338734841694632E-1   -2.676721042358642E-3    9.161248170721116E-4   -2.668675869759266E-3    9.807135418074954E-4    2.451325169309608E-1    4.523416233624301E-1
 8.150911109625000E9     9.704032267869352E-2    5.337992564466317E-1   -2.656481801339549E-3    9.191640863087112E-4   -2.706110031613540E-3    9.537178137268963E-4    2.454335705341226E-1    4.521341339285151E-1
 8.150915324250000E9     9.746127437062480E-2    5.337584722989538E-1   -2.680014032183685E-3    9.003156185637505E-4   -2.691997224998298E-3    9.511142139728131E-4    2.456068886279134E-1    4.519634335238139E-1
 8.150919538875000E9     9.782682247340198E-2    5.337248070393229E-1   -2.660283702639605E-3    9.253456015027734E-4   -2.696214156303400E-3    9.799106708330890E-4    2.457529768942525E-1    4.518939481699522E-1
 8.150923753500000E9     9.805776435755713E-2    5.336622240398217E-1   -2.674002638042121E-3    9.398044200262200E-4   -2.662502584048052E-3    9.905825542878841E-4    2.460608668800507E-1    4.516996616460253E-1
 8.150927968125000E9     9.843185174185212E-2    5.335857815472190E-1   -2.668653344380186E-3    9.376572137181252E-4   -2.682170682461546E-3    1.017352776545808E-3    2.463619102637784E-1    4.516039965122028E-1
 8.150932182750000E9     9.870790921646017E-2    5.335917001549653E-1   -2.685085942194912E-3    9.142830378193531E-4   -2.642411033862702E-3    9.823245051535840E-4    2.465544954087209E-1    4.515323141367401E-1
 8.150936397375000E9     9.905437412742889E-2    5.334263757479795E-1   -2.665041863642675E-3    9.181883803197554E-4   -2.678803690853884E-3    1.000085986403444E-3    2.468101412182995E-1    4.512670511482604E-1
 8.150940612000000E9     9.926380383940391E-2    5.334771557729060E-1   -2.670052460346616E-3    9.032439962990825E-4   -2.658411323352516E-3    9.962226411028125E-4    2.469571310265576E-1    4.512145461015709E-1
 8.150944826625000E9     9.967193898019962E-2    5.333698029917276E-1   -2.670524641349190E-3    9.347266125475433E-4   -2.682350623882893E-3    1.010208722413552E-3    2.472237538279926E-1    4.509866638418217E-1
 8.150949041250000E9     9.996527508284289E-2    5.333453002483391E-1   -2.675598655594844E-3    9.493739350872230E-4   -2.660047924894807E-3    9.875562988254205E-4    2.474848160255393E-1    4.510585879416623E-1
 8.150953255875000E9     1.001945604278404E-1    5.334137846733155E-1   -2.677768294880017E-3    9.478561770321327E-4   -2.714117436283617E-3    9.783142014672952E-4    2.477754394240057E-1    4.508259008990276E-1
 8.150957470500000E9     1.005208384471295E-1    5.332329664515404E-1   -2.667433786093761E-3    9.558463177245907E-4   -2.661292975757732E-3    9.754743180059902E-4    2.478275651379225E-1    4.505651658030216E-1
 8.150961685125000E9     1.008331225778605E-1    5.332269953474383E-1   -2.677865029335602E-3    9.557709839387629E-4   -2.706035614237004E-3    1.010155305715678E-3    2.482148275071097E-1    4.504408787162061E-1
 8.150965899750000E9     1.011325365272959E-1    5.331798824235094E-1   -2.665708213106358E-3    9.664223426850856E-4   -2.700872641266719E-3    1.014876615039649E-3    2.484176531018638E-1    4.503194971304935E-1
 8.150970114375000E9     1.013021215257189E-1    5.331166393161073E-1   -2.699761847211951E-3    9.251101549018008E-4   -2.678759911984207E-3    9.730092223350830E-4    2.486889887952494E-1    4.503274692914414E-1
 8.150974329000000E9     1.015887136970327E-1    5.330260461933809E-1   -2.681294091782455E-3    9.633595554600334E-4   -2.666227777278094E-3    9.979519881401868E-4    2.488184731872797E-1    4.500903452396127E-1
 8.150978543625000E9     1.019431535896130E-1    5.330164875035244E-1   -2.686398268982878E-3    9.567665035832963E-4   -2.703850131361953E-3    9.725459200924403E-4    2.490893998308274E-1    4.499757405861342E-1
 8.150982758250000E9     1.022531256718394E-1    5.330350173594322E-1   -2.696373905021341E-3    9.493729823896139E-4   -2.682898221833591E-3    1.005344141501075E-3    2.493489535862858E-1    4.498142106099021E-1
 8.150986972875000E9     1.027273013187448E-1    5.328669973077480E-1   -2.689570983222856E-3    9.528729555014682E-4   -2.694464611364294E-3    1.028579474210932E-3    2.495457583199471E-1    4.496965661342400E-1
 8.150991187500000E9     1.029067922391674E-1    5.328679578656558E-1   -2.703735861542029E-3    9.663639735171743E-4   -2.690407920183277E-3    1.000618568908515E-3    2.498528311175996E-1    4.495297996166695E-1
 8.150995402125000E9     1.032301648345156E-1    5.327650383006589E-1   -2.692727618357755E-3    9.561279021589787E-4   -2.679786253867273E-3    1.042976179350230E-3    2.500915740479763E-1    4.494429249223613E-1
 8.150999616750000E9     1.034519173157436E-1    5.327104263554440E-1   -2.667030257211886E-3    9.607995895591204E-4   -2.685070646442063E-3    1.015895999954627E-3    2.502577268572302E-1    4.493445236255317E-1
 8.151003831375000E9     1.037487201708447E-1    5.326966962569721E-1   -2.670478216156295E-3    9.588669589819831E-4   -2.697902312001095E-3    1.005976257711227E-3    2.504522274626473E-1    4.491860519045057E-1
 8.151008046000000E9     1.041131512957453E-1    5.326192700609392E-1   -2.698918097712820E-3    9.819845483385289E-4   -2.730987411613686E-3    1.048760930300704E-3    2.507849085865123E-1    4.489415708345634E-1
 8.151012260625000E9     1.044127746499312E-1    5.326173327962981E-1   -2.706157595134850E-3    9.759942258486715E-4   -2.680224892696480E-3    1.030526880791300E-3    2.509801586508950E-1    4.488546833386546E-1
 8.151016475250000E9     1.047002333297410E-1    5.325441327642864E-1   -2.714414424817701E-3    9.648295016478337E-4   -2.704064558765797E-3    1.037526953633689E-3    2.512433986504814E-1    4.487540526478046E-1
 8.151020689875000E9     1.050007243893122E-1    5.326042278349667E-1   -2.677749184896355E-3    9.702002788427396E-4   -2.687624954189330E-3    1.011620702343788E-3    2.515548136734631E-1    4.484421284668069E-1
 8.151024904500000E9     1.052548643573784E-1    5.324221647129913E-1   -2.702496404280161E-3    9.983822775852099E-4   -2.695589331290749E-3    1.027382270635368E-3    2.515568575200475E-1    4.486003540950705E-1
 8.151029119125000E9     1.056364236808225E-1    5.322829447876567E-1   -2.704832470244850E-3    9.926205981492405E-4   -2.704913580139930E-3    1.027072929851537E-3    2.519057338786423E-1    4.483837342535807E-1
 8.151033333750000E9     1.058802888890896E-1    5.322538117801883E-1   -2.705093494528332E-3    9.833829347309271E-4   -2.693029429007999E-3    1.034925420190077E-3    2.520290945486125E-1    4.481515364889072E-1
 8.151037548375000E9     1.062615078529609E-1    5.322914733220813E-1   -2.702846911501615E-3    1.000130239922647E-3   -2.700236243008598E-3    1.048286554832822E-3    2.523334495439852E-1    4.480769840724139E-1
 8.151041763000000E9     1.064890444659111E-1    5.322656475839694E-1   -2.674199268519082E-3    1.018267761219856E-3   -2.712968148947842E-3    1.044973514045196E-3    2.527265483596254E-1    4.479390539290107E-1
 8.151045977625000E9     1.068462031398259E-1    5.322224624307910E-1   -2.708398385786603E-3    9.981375169285922E-4   -2.728335619641733E-3    1.073041090928599E-3    2.530613020846745E-1    4.477235451982836E-1
 8.151050192250000E9     1.070792713734222E-1    5.320627357543279E-1   -2.712422112617211E-3    9.831375847175721E-4   -2.726115356953789E-3    1.048204123065583E-3    2.531937907551801E-1    4.476555981035213E-1
 8.151054406875000E9     1.074416651520461E-1    5.320771650333597E-1   -2.679609764527806E-3    9.978329794470301E-4   -2.726735610551777E-3    1.035421563392331E-3    2.533084942964898E-1    4.474527213764738E-1
 8.151058621500000E9     1.077405841105344E-1    5.319821401833250E-1   -2.702111746910552E-3    1.013575091161900E-3   -2.715906588493971E-3    1.062954291274898E-3    2.536883291120426E-1    4.473078692587949E-1
 8.151062836125000E9     1.080083704367634E-1    5.319028348656888E-1   -2.716865828032717E-3    9.939440381358312E-4   -2.715684989491421E-3    1.021278200487538E-3    2.539008218044430E-1    4.471586533477603E-1
 8.151067050750000E9     1.082303291266637E-1    5.319345516773791E-1   -2.715570392278765E-3    9.899218889923365E-4   -2.720198551310196E-3    1.071669694604707E-3    2.540523350945617E-1    4.469938944515854E-1
 8.151071265375000E9     1.085616272016611E-1    5.318245599167111E-1   -2.686641918173421E-3    1.014994545662610E-3   -2.736155264271566E-3    1.090901927310217E-3    2.543038281208785E-1    4.469153871139808E-1
 8.151075480000000E9     1.088299218804225E-1    5.317839582775157E-1   -2.744780149087301E-3    1.018989815129017E-3   -2.741300019431574E-3    1.075318588508173E-3    2.546000021858988E-1    4.467702750445306E-1
 8.151079694625000E9     1.091143424837265E-1    5.316698903664363E-1   -2.714443436114264E-3    9.901312816986880E-4   -2.736512047937641E-3    1.055437391062900E-3    2.548486335553989E-1    4.466203121696513E-1
 8.151083909250000E9     1.095399860702390E-1    5.317443548152682E-1   -2.722604204348362E-3    1.020616964722548E-3   -2.713039076041797E-3    1.049433628156392E-3    2.550687603582633E-1    4.463496751681978E-1
 8.151088123875000E9     1.098691128357445E-1    5.316414317515739E-1   -2.718137198297517E-3    1.026262343962961E-3   -2.728671393391661E-3    1.060625619971155E-3    2.552270703352217E-1    4.463010967696267E-1
 8.151092338500000E9     1.102155029213780E-1    5.315924473322887E-1   -2.721061431803320E-3    1.025227863424662E-3   -2.730591235978286E-3    1.073600026671580E-3    2.554094046751679E-1    4.462066761676929E-1
 8.151096553125000E9     1.104168763061426E-1    5.315144026600049E-1   -2.702961518100586E-3    1.037245771543386E-3   -2.703945479838982E-3    1.070000406599104E-3    2.557910223127290E-1    4.460873525126353E-1
 8.151100767750000E9     1.107855821989313E-1    5.314482766017258E-1   -2.772439736929756E-3    1.003143179329537E-3   -2.707398637851096E-3    1.049283946537037E-3    2.558309289775695E-1    4.459432136249143E-1
 8.151104982375000E9     1.109604838416979E-1    5.313021076789306E-1   -2.705012010238667E-3    1.028080563022733E-3   -2.754723925294795E-3    1.083548689664062E-3    2.562894526779236E-1    4.458852537800050E-1
 8.151109197000000E9     1.114119379896406E-1    5.313972297664215E-1   -2.737074832457022E-3    1.034772722376730E-3   -2.735044478481977E-3    1.097732875290339E-3    2.564809401196823E-1    4.458126895823810E-1
 8.151113411625000E9     1.115737979863072E-1    5.312346605964943E-1   -2.714996407081496E-3    1.050485779491093E-3   -2.749830240846770E-3    1.074150572649501E-3    2.567328896466708E-1    4.455791541771058E-1
 8.151117626250000E9     1.118405620137449E-1    5.312320774557411E-1   -2.720131421763115E-3    1.043689152603177E-3   -2.730519988049115E-3    1.084751877977192E-3    2.568758896563170E-1    4.452965151927039E-1
 8.151121840875000E9     1.122579736860224E-1    5.310961648216220E-1   -2.724735031767952E-3    1.030851573881268E-3   -2.744202455310622E-3    1.120938054628342E-3    2.570897452386690E-1    4.451810583112211E-1
 8.151126055500000E9     1.125309718977314E-1    5.309982910049906E-1   -2.738608092371286E-3    1.049530868968379E-3   -2.740109367531394E-3    1.102129386988062E-3    2.573831485703191E-1    4.450989164982398E-1
 8.151130270125000E9     1.128937847220293E-1    5.310387585866007E-1   -2.710444000317965E-3    1.042853346200270E-3   -2.722616673245947E-3    1.110723166038832E-3    2.576218459632978E-1    4.449924791813208E-1
 8.151134484750000E9     1.131067033646013E-1    5.309535031765495E-1   -2.734526782211727E-3    1.058033417363166E-3   -2.739780683587099E-3    1.102420601361929E-3    2.578045190855391E-1    4.448619238470243E-1
 8.151138699375000E9     1.134039419943125E-1    5.308586691953892E-1   -2.735385464507599E-3    1.062482721940756E-3   -2.745191642300377E-3    1.116459107271512E-3    2.580246014330448E-1    4.447029322926310E-1
 8.151142914000000E9     1.138156991827423E-1    5.307790538175019E-1   -2.742337054872852E-3    1.041431450406029E-3   -2.741575766883838E-3    1.114496406459389E-3    2.582812707771912E-1    4.446159940571330E-1
 8.151147128625000E9     1.140332839898387E-1    5.308239681223865E-1   -2.730861795573697E-3    1.048024062617582E-3   -2.785967290492395E-3    1.111173680057200E-3    2.584914290661646E-1    4.443722324287483E-1
 8.151151343250000E9     1.143922182485834E-1    5.307753763711448E-1   -2.751337306847545E-3    1.064407475977441E-3   -2.753411733724253E-3    1.121599413005677E-3    2.586938634925671E-1    4.443054712480589E-1
 8.151155557875000E9     1.147965790444876E-1    5.306604496726359E-1   -2.739943058603166E-3    1.066558249964136E-3   -2.766163837006624E-3    1.117639150619071E-3    2.589261646435009E-1    4.440579737922041E-1
 8.151159772500000E9     1.149964138060884E-1    5.305740811001003E-1   -2.756360378456362E-3    1.065966022234954E-3   -2.756009929526328E-3    1.118697898458472E-3    2.591835479274490E-1    4.439774761769816E-1
 8.151163987125000E9     1.152704456820356E-1    5.305659349601729E-1   -2.747373015556078E-3    1.071261749463578E-3   -2.755218959048145E-3    1.123168989478925E-3    2.593296978790497E-1    4.437217087774791E-1
 8.151168201750000E9     1.154185230857969E-1    5.304787168912312E-1   -2.757137671648236E-3    1.073841202810292E-3   -2.737462625888030E-3    1.120715801925200E-3    2.597103778196544E-1    4.435707839099276E-1
 8.151172416375000E9     1.158078325177743E-1    5.305208109135907E-1   -2.762346930288437E-3    1.068391739054874E-3   -2.784949079007538E-3    1.097911648308360E-3    2.598354079684967E-1    4.435151013777808E-1
 8.151176631000000E9     1.161458132401381E-1    5.303709064300809E-1   -2.741793959003271E-3    1.090224160083767E-3   -2.763092570217443E-3    1.142301964614308E-3    2.600436458383723E-1    4.433550506567780E-1
 8.151180845625000E9     1.165852212793482E-1    5.302690529847961E-1   -2.747645909466357E-3    1.077145986839777E-3   -2.750583936577244E-3    1.124921425067450E-3    2.603695030750339E-1    4.433423938899644E-1
 8.151185060250000E9     1.167972809729767E-1    5.303133508717862E-1   -2.764996433920134E-3    1.077093809296377E-3   -2.765094931609845E-3    1.095755467458482E-3    2.606027326852551E-1    4.431681138664062E-1
 8.151189274875000E9     1.170738790307733E-1    5.301707830797150E-1   -2.780990898224781E-3    1.083656066919946E-3   -2.763736692482404E-3    1.152706911199724E-3    2.608325989549945E-1    4.429349931844800E-1
 8.151193489500000E9     1.174422528946912E-1    5.300646420334715E-1   -2.759542329774023E-3    1.104005410116720E-3   -2.775197458113192E-3    1.158257940804656E-3    2.611175192816618E-1    4.428005193536209E-1
 8.151197704125000E9     1.177250244925598E-1    5.300212425889861E-1   -2.767390073390807E-3    1.129254941966158E-3   -2.792262964196696E-3    1.148173857115280E-3    2.612432240054539E-1    4.427745368370076E-1
 8.151201918750000E9     1.179555619740704E-1    5.299538939164077E-1   -2.780104390843176E-3    1.110562663774252E-3   -2.785457807197047E-3    1.151798291652870E-3    2.615303009670698E-1    4.427110050802608E-1
 8.151206133375000E9     1.183573840516807E-1    5.298901033957736E-1   -2.754759862405529E-3    1.097141729262460E-3   -2.787856622402897E-3    1.177360001323309E-3    2.616759807878692E-1    4.423015333471222E-1
 8.151210348000000E9     1.185125977740520E-1    5.298547012326014E-1   -2.769121284620434E-3    1.120079198141205E-3   -2.785863294697211E-3    1.183983379785795E-3    2.619841030527360E-1    4.423359045096295E-1
 8.151214562625000E9     1.189268809488570E-1    5.297838904022755E-1   -2.778750104175279E-3    1.082664115823044E-3   -2.787779210260721E-3    1.184990980659733E-3    2.620774885892370E-1    4.421720386650809E-1
 8.151218777250000E9     1.191750097601204E-1    5.297313654763324E-1   -2.782798009061645E-3    1.107707082171974E-3   -2.790156066352548E-3    1.156243454410875E-3    2.624579524422864E-1    4.419166171261391E-1
 8.151222991875000E9     1.194712782313051E-1    5.295736123630087E-1   -2.791438172642814E-3    1.109173792652963E-3   -2.783064364281787E-3    1.172546886272063E-3    2.626588203128408E-1    4.418199148461141E-1
 8.151227206500000E9     1.198513564597289E-1    5.295473594407580E-1   -2.780101009057814E-3    1.130503018559540E-3   -2.813232671834046E-3    1.172821101980642E-3    2.629223651963593E-1    4.416535314043098E-1
 8.151231421125000E9     1.200148723029898E-1    5.294881674028719E-1   -2.785159691981469E-3    1.126314004164508E-3   -2.799480622883232E-3    1.193229133904595E-3    2.631886903925613E-1    4.416916279636480E-1
 8.151235635750000E9     1.203442737994173E-1    5.294489318941621E-1   -2.785825822608539E-3    1.133159754205955E-3   -2.778351817905421E-3    1.181018878827860E-3    2.633259309091346E-1    4.414270674391128E-1
 8.151239850375000E9     1.208051732672589E-1    5.294646926559936E-1   -2.808283571520844E-3    1.127024479271841E-3   -2.810670562842130E-3    1.182105501903626E-3    2.635734921524361E-1    4.411442248995715E-1
 8.151244065000000E9     1.209767941108355E-1    5.292612023239724E-1   -2.776450226624352E-3    1.133650359763559E-3   -2.773273951322673E-3    1.181585157787594E-3    2.638041038347935E-1    4.412819807268072E-1
 8.151248279625000E9     1.212931647264538E-1    5.293035663429800E-1   -2.788788670152198E-3    1.173250314926875E-3   -2.821220904270585E-3    1.198190426711926E-3    2.640022071752736E-1    4.409846955970859E-1
 8.151252494250000E9     1.216639789456762E-1    5.290891813394970E-1   -2.785831210371540E-3    1.143520549420699E-3   -2.792471355016332E-3    1.196521107139916E-3    2.642628131501668E-1    4.407410221437638E-1
 8.151256708875000E9     1.219224601358393E-1    5.292199078800385E-1   -2.806049399828028E-3    1.136830479386366E-3   -2.785428238472307E-3    1.200301321951601E-3    2.644794826263898E-1    4.407592983577938E-1
 8.151260923500000E9     1.222532258480642E-1    5.291276317527012E-1   -2.790901715036761E-3    1.157165887645494E-3   -2.835702494126513E-3    1.230001705565390E-3    2.646966847179293E-1    4.404662599700789E-1
 8.151265138125000E9     1.225022433774267E-1    5.290642144877099E-1   -2.832387218564570E-3    1.171942160300766E-3   -2.825616581879662E-3    1.218858093543724E-3    2.649279925659961E-1    4.404745424505686E-1
 8.151269352750000E9     1.229096648444669E-1    5.289752511622169E-1   -2.825213180314923E-3    1.138239426030515E-3   -2.817878411434624E-3    1.232867158971879E-3    2.652424892542681E-1    4.402067697671159E-1
 8.151273567375000E9     1.232207231548617E-1    5.289860823757331E-1   -2.790725959747889E-3    1.170276961275529E-3   -2.805874712144937E-3    1.240399584215205E-3    2.654074193135311E-1    4.401558877233663E-1
 8.151277782000000E9     1.234887921181964E-1    5.287315732047759E-1   -2.826367834367583E-3    1.166322383960645E-3   -2.837237648958080E-3    1.232634236080139E-3    2.657550354281282E-1    4.398834939989707E-1
 8.151281996625000E9     1.238303846843145E-1    5.287662114516003E-1   -2.852349503261058E-3    1.168433199325652E-3   -2.822307520763108E-3    1.273221637059840E-3    2.658991276348508E-1    4.398476754287243E-1
 8.151286211250000E9     1.240520108171224E-1    5.286726758014909E-1   -2.844684528303389E-3    1.147419045678680E-3   -2.853061300843596E-3    1.208133006507368E-3    2.661130753316557E-1    4.396923470725229E-1
