#  HZ   S   RI   R     50.00 
! Rohde & Schwarz Vector Network Analyzer 
! Rohde-Schwarz,ZNB20-2Port,1311601062101988,3.16
! Created: UTC 12/23/2023, 3:45:33 AM
! freq[Hz]                re:S11                  im:S11                  re:S21                  im:S21                  re:S12                  im:S12                  re:S22                  im:S22
 6.516918218000000E9    -2.309952051003991E-1   -1.879603685890177E-2    1.295628553401882E-2   -5.197765003669571E-3    1.297539178057231E-2   -4.571668050523709E-3    1.975290494229776E-1    5.112667404036103E-1
 6.516930343575000E9    -2.308849164030297E-1   -1.851570722104028E-2    1.304125011817050E-2   -5.177546738987304E-3    1.322860451447555E-2   -4.579006526987405E-3    1.984637165393425E-1    5.110405314451640E-1
 6.516942469150000E9    -2.307883713612685E-1   -1.845909599911975E-2    1.313757228974289E-2   -5.190469813533724E-3    1.316959850746581E-2   -4.687400590977393E-3    1.993549571747633E-1    5.106545190164286E-1
 6.516954594725000E9    -2.306318263414598E-1   -1.821529082570786E-2    1.308683562802929E-2   -5.255045373186304E-3    1.328628326099673E-2   -4.792373314935081E-3    2.001359009042728E-1    5.103783784332339E-1
 6.516966720300000E9    -2.306134261653913E-1   -1.805992379977327E-2    1.311619342806372E-2   -5.232147544343863E-3    1.324312543401404E-2   -4.858433629709702E-3    2.011740593954525E-1    5.098619473583822E-1
 6.516978845875000E9    -2.304395674250186E-1   -1.767373409617254E-2    1.311925339412510E-2   -5.319544538610395E-3    1.333496106656638E-2   -4.954537808052942E-3    2.021179534865848E-1    5.096962517210557E-1
 6.516990971450000E9    -2.304778357352364E-1   -1.766949336824527E-2    1.324148622210283E-2   -5.433606564067883E-3    1.335530971592014E-2   -5.068027468308122E-3    2.029429594172129E-1    5.092246049065080E-1
 6.517003097025000E9    -2.301644483968625E-1   -1.740240765364042E-2    1.329462844926876E-2   -5.410148481433750E-3    1.341186075137539E-2   -5.015452276983301E-3    2.038694529916854E-1    5.090465312555498E-1
 6.517015222600000E9    -2.302294368056009E-1   -1.721175342316504E-2    1.346165186207691E-2   -5.431305689612542E-3    1.355913263896097E-2   -4.987914043195084E-3    2.046864148259107E-1    5.088502372151478E-1
 6.517027348175000E9    -2.298902633687211E-1   -1.708325951155226E-2    1.333026606327358E-2   -5.575792079519509E-3    1.348189339062438E-2   -5.189919088738421E-3    2.057092498368677E-1    5.082668610988248E-1
 6.517039473750000E9    -2.298855178177392E-1   -1.698449182778216E-2    1.347453555329224E-2   -5.605771802293947E-3    1.364355208328101E-2   -5.116452633741513E-3    2.065353680074482E-1    5.078493835116032E-1
 6.517051599325000E9    -2.297528791627162E-1   -1.674965112368912E-2    1.350470934297811E-2   -5.646927206482515E-3    1.368629167985213E-2   -5.251198602213858E-3    2.074904676981378E-1    5.074846224177424E-1
 6.517063724900000E9    -2.295973386062976E-1   -1.654572699094351E-2    1.370539068698637E-2   -5.640370484512821E-3    1.377403841877826E-2   -5.271684607212813E-3    2.085220205123162E-1    5.073597041306535E-1
 6.517075850475000E9    -2.294808662609607E-1   -1.629123382607019E-2    1.369115828535948E-2   -5.848866198694017E-3    1.375400014378271E-2   -5.314943643912161E-3    2.093427920217876E-1    5.069288607518517E-1
 6.517087976050000E9    -2.293606402912396E-1   -1.612989068831462E-2    1.368876514030817E-2   -5.825102199218753E-3    1.389450610077372E-2   -5.371187833092424E-3    2.101837674283359E-1    5.064296998218076E-1
 6.517100101625000E9    -2.291290053951790E-1   -1.589909614734305E-2    1.379435434924652E-2   -5.743756670533779E-3    1.397989995428461E-2   -5.380901654606472E-3    2.109476252592099E-1    5.061716195414862E-1
 6.517112227200000E9    -2.291132773966920E-1   -1.582464852964171E-2    1.385655359824808E-2   -6.036981783910498E-3    1.393132214784608E-2   -5.400326762295574E-3    2.119499024733111E-1    5.058366369047776E-1
 6.517124352775000E9    -2.289104557530358E-1   -1.561965801450819E-2    1.394273267334505E-2   -5.992519584326949E-3    1.396662314525625E-2   -5.513371229431387E-3    2.128651874104107E-1    5.053409501893563E-1
 6.517136478350000E9    -2.288407571740378E-1   -1.542535766001501E-2    1.392341422584385E-2   -6.077594156303649E-3    1.413027574303328E-2   -5.514782034362700E-3    2.137213888439344E-1    5.050322989834688E-1
 6.517148603925000E9    -2.286500444221976E-1   -1.526812417193714E-2    1.406046171936844E-2   -6.152053798967975E-3    1.406619063486075E-2   -5.660401966386899E-3    2.146077111338362E-1    5.046764712616481E-1
 6.517160729500000E9    -2.286064618574109E-1   -1.503250830369364E-2    1.405209499754068E-2   -6.159807447532552E-3    1.421722909891846E-2   -5.674373693449465E-3    2.155659010763890E-1    5.044303165092876E-1
 6.517172855075000E9    -2.284603928999917E-1   -1.485243737416379E-2    1.417951357034197E-2   -6.313014224237687E-3    1.439265232923504E-2   -5.752298771278012E-3    2.164104801461803E-1    5.038116089015591E-1
 6.517184980650000E9    -2.282720717571645E-1   -1.464171962332271E-2    1.430443445495562E-2   -6.387854023133620E-3    1.442318531990442E-2   -5.867479348080695E-3    2.173941838382145E-1    5.036458227223257E-1
 6.517197106225000E9    -2.281364309305944E-1   -1.446079134493614E-2    1.425241808155673E-2   -6.323505407614353E-3    1.431270575360143E-2   -5.827865326230868E-3    2.181583733472280E-1    5.032068987170837E-1
 6.517209231800000E9    -2.280796709714759E-1   -1.431585994977345E-2    1.429476537761011E-2   -6.517094131154402E-3    1.442067040451190E-2   -5.941798007892306E-3    2.191599184676171E-1    5.027797930181596E-1
 6.517221357375000E9    -2.278529154439027E-1   -1.418928943929877E-2    1.443037555133474E-2   -6.595192228495839E-3    1.455213906895854E-2   -6.028877735424177E-3    2.199360354623546E-1    5.024084250025158E-1
 6.517233482950000E9    -2.279126308450248E-1   -1.402233263053484E-2    1.462734716055302E-2   -6.621566500087565E-3    1.457341094644057E-2   -6.107752020751185E-3    2.209245285919161E-1    5.019428466161435E-1
 6.517245608525000E9    -2.276948323256774E-1   -1.376294494162714E-2    1.466183483979374E-2   -6.535322670411390E-3    1.462312235814584E-2   -6.155710529031309E-3    2.218220280396764E-1    5.015012722242987E-1
 6.517257734100000E9    -2.275110871062998E-1   -1.352301626396950E-2    1.459980159171726E-2   -6.647828246375584E-3    1.478711715686094E-2   -6.205671222701224E-3    2.225591829484249E-1    5.012341107713807E-1
 6.517269859675000E9    -2.273263364529968E-1   -1.336542672733820E-2    1.464192175845961E-2   -6.753767596278565E-3    1.479617441980097E-2   -6.267225669583723E-3    2.235664563513148E-1    5.009645768121463E-1
 6.517281985250000E9    -2.272445049329855E-1   -1.332183660239817E-2    1.484660174676159E-2   -6.917262484370944E-3    1.486623088539482E-2   -6.294392299374242E-3    2.245919483783781E-1    5.005124156912929E-1
 6.517294110825000E9    -2.270853052691347E-1   -1.302741121477878E-2    1.487206859007723E-2   -6.913740842655511E-3    1.500886565716008E-2   -6.464659619880859E-3    2.254205481536786E-1    5.000357083228807E-1
 6.517306236400000E9    -2.268761849633125E-1   -1.300127252832039E-2    1.493297925111141E-2   -7.062474799738185E-3    1.501322904184495E-2   -6.376360702617114E-3    2.262565306089099E-1    4.995662145687682E-1
 6.517318361975000E9    -2.267881049327433E-1   -1.277323351831883E-2    1.487487213659545E-2   -6.887417348434144E-3    1.503137050186920E-2   -6.670378322641727E-3    2.272625726503043E-1    4.993291713920431E-1
 6.517330487550000E9    -2.267043442069608E-1   -1.259950481407405E-2    1.495053436738782E-2   -7.141989913269049E-3    1.521208167208983E-2   -6.689178678599237E-3    2.280267285893263E-1    4.988263206928559E-1
 6.517342613125000E9    -2.264080221284064E-1   -1.260582652311908E-2    1.502751106984588E-2   -7.227345163685623E-3    1.528354871720976E-2   -6.801930233695444E-3    2.289307518602687E-1    4.985246362484269E-1
 6.517354738700000E9    -2.263664579303853E-1   -1.220453475572997E-2    1.515211838015477E-2   -7.304462604587977E-3    1.527053822404363E-2   -6.819098878833426E-3    2.298786837880128E-1    4.980206086560426E-1
 6.517366864275000E9    -2.262523067209364E-1   -1.217189867750422E-2    1.528380094478914E-2   -7.288841033818476E-3    1.538449869616459E-2   -6.905082159666312E-3    2.307309618959446E-1    4.977261980538442E-1
 6.517378989850000E9    -2.260949486679245E-1   -1.199712199822250E-2    1.522737209936169E-2   -7.364643952793308E-3    1.554724952231981E-2   -6.913394220264938E-3    2.317493649371524E-1    4.972658995930545E-1
 6.517391115425000E9    -2.259110089351883E-1   -1.179833983540545E-2    1.544287971469631E-2   -7.500054827962754E-3    1.565196288300990E-2   -6.994352353147604E-3    2.324702975556301E-1    4.969021129391949E-1
 6.517403241000000E9    -2.257132619739930E-1   -1.163955478364105E-2    1.549189221786404E-2   -7.501656645636082E-3    1.567131037285630E-2   -7.022730293782464E-3    2.334438652178858E-1    4.965094165604406E-1
 6.517415366575000E9    -2.255666768974977E-1   -1.146464156278919E-2    1.557206223005769E-2   -7.722918121030266E-3    1.581274165995724E-2   -7.136369052035995E-3    2.344024639513229E-1    4.961630867424568E-1
 6.517427492150000E9    -2.255127287945901E-1   -1.124936946975462E-2    1.562392981200932E-2   -7.604675255319896E-3    1.579267049820799E-2   -7.265341587734797E-3    2.353177477265441E-1    4.955966937674862E-1
 6.517439617725000E9    -2.253664057929710E-1   -1.119046412810296E-2    1.562231391822192E-2   -7.813123139585468E-3    1.586880153844522E-2   -7.302825247325711E-3    2.362387616182092E-1    4.952633324682480E-1
 6.517451743300000E9    -2.250730931783248E-1   -1.113575581610402E-2    1.582132315322898E-2   -7.950927364434241E-3    1.586722449583064E-2   -7.412924526440530E-3    2.370120422200288E-1    4.947598750276642E-1
 6.517463868875000E9    -2.250317807654856E-1   -1.078720271849540E-2    1.592920858746400E-2   -8.017623201053573E-3    1.606287529725894E-2   -7.725182092994940E-3    2.380114906410674E-1    4.943657715187222E-1
 6.517475994450000E9    -2.248243761215515E-1   -1.070291849033978E-2    1.596399901138911E-2   -8.105966083983420E-3    1.605243109618387E-2   -7.567132738145867E-3    2.387632457027856E-1    4.939464948328704E-1
 6.517488120025000E9    -2.245691131420988E-1   -1.059809355188005E-2    1.609479315110639E-2   -8.205564358301651E-3    1.619441781837028E-2   -7.688155895188812E-3    2.398017235846762E-1    4.934475689279800E-1
 6.517500245600000E9    -2.245330760093046E-1   -1.039941097135620E-2    1.589940393710542E-2   -8.332640980883540E-3    1.635750085446908E-2   -7.621002196787788E-3    2.403864727449867E-1    4.930019394392969E-1
 6.517512371175000E9    -2.243191017120197E-1   -1.037810184806836E-2    1.606083181258918E-2   -8.448477464407913E-3    1.643163692958936E-2   -7.794558016136391E-3    2.415483874238690E-1    4.926146147891689E-1
 6.517524496750000E9    -2.241389368085780E-1   -1.018297845953787E-2    1.629444075379873E-2   -8.365252348664417E-3    1.642212414066720E-2   -7.897451930139706E-3    2.424258146422112E-1    4.921721360195551E-1
 6.517536622325000E9    -2.239817800060299E-1   -9.952125589010591E-3    1.621000538815454E-2   -8.492221085340656E-3    1.654361367056031E-2   -8.032412842838961E-3    2.434044794370193E-1    4.917347541200344E-1
 6.517548747900000E9    -2.238249486081869E-1   -9.761885047995925E-3    1.662857345062444E-2   -8.528716230001600E-3    1.664401270868887E-2   -8.135840701563899E-3    2.442911033705190E-1    4.914666651124240E-1
 6.517560873475000E9    -2.235594733289797E-1   -9.666195448892969E-3    1.662089860781354E-2   -8.769105637242406E-3    1.670719203159639E-2   -8.176035644801485E-3    2.449690976732169E-1    4.908698033222786E-1
 6.517572999050000E9    -2.234457071590803E-1   -9.492676671340640E-3    1.671024202151225E-2   -8.797761571948125E-3    1.689048388613849E-2   -8.178912558547915E-3    2.461047356823968E-1    4.904871568165276E-1
 6.517585124625000E9    -2.233093825507870E-1   -9.269458597560473E-3    1.674244609413669E-2   -8.844653234317486E-3    1.693616400709878E-2   -8.351898866097399E-3    2.469400559623524E-1    4.899222234349224E-1
 6.517597250200000E9    -2.230913820021658E-1   -9.179556408119474E-3    1.679988827509961E-2   -9.063480125051615E-3    1.705893242014276E-2   -8.473928345981629E-3    2.477482154455409E-1    4.894706765235853E-1
 6.517609375775000E9    -2.229456071577250E-1   -9.130012461097620E-3    1.687743598486309E-2   -9.157937678811918E-3    1.709609944954991E-2   -8.537735267180427E-3    2.487542968817279E-1    4.891061015992652E-1
 6.517621501350000E9    -2.228818932973803E-1   -8.935371339217669E-3    1.691550304546549E-2   -9.192487151019500E-3    1.719099233184812E-2   -8.553769141867838E-3    2.496572435141751E-1    4.885630877126043E-1
 6.517633626925000E9    -2.226138974450409E-1   -8.837630065643528E-3    1.699804774753642E-2   -9.401743905252613E-3    1.723043200314986E-2   -8.834482780121503E-3    2.503751474329196E-1    4.881694030075846E-1
 6.517645752500000E9    -2.225027919086083E-1   -8.705866816201393E-3    1.722504158426233E-2   -9.505571514193697E-3    1.744040877898520E-2   -8.917455481483760E-3    2.513407318972250E-1    4.877898824071681E-1
 6.517657878075000E9    -2.223285771913037E-1   -8.589348805390874E-3    1.727987644821800E-2   -9.441905247636365E-3    1.752900639429171E-2   -8.961624992308345E-3    2.524016378809656E-1    4.870607836886107E-1
 6.517670003650000E9    -2.219540477380010E-1   -8.505969983192212E-3    1.728028529397308E-2   -9.671419366806039E-3    1.769833049238021E-2   -8.954843452604682E-3    2.533425491418134E-1    4.866693511462866E-1
 6.517682129225000E9    -2.218277384593282E-1   -8.223702437073144E-3    1.745388868394356E-2   -9.740593350019994E-3    1.761751051626319E-2   -9.216742122407091E-3    2.540860603751523E-1    4.861948907560486E-1
 6.517694254800000E9    -2.216354695724792E-1   -8.178203931546316E-3    1.753553783850188E-2   -9.961148945731016E-3    1.781404290537808E-2   -9.389076425127306E-3    2.549898853218587E-1    4.857861200155030E-1
 6.517706380375000E9    -2.214991262146234E-1   -8.092544098138825E-3    1.757816150646146E-2   -9.976768935485049E-3    1.796019433668507E-2   -9.414584666962567E-3    2.557972365248130E-1    4.854241661812559E-1
 6.517718505950000E9    -2.212966309226325E-1   -7.956178977553874E-3    1.772452168735780E-2   -1.004175824158465E-2    1.800729070664869E-2   -9.458430471355373E-3    2.567469397935236E-1    4.848462667345752E-1
 6.517730631525000E9    -2.211913879456958E-1   -7.800608890698306E-3    1.791843393151730E-2   -1.024659167778120E-2    1.806471026116096E-2   -9.728287954333129E-3    2.577241206380380E-1    4.843325833172496E-1
 6.517742757100000E9    -2.209312597072810E-1   -7.669328536999434E-3    1.789946428914393E-2   -1.034999672060460E-2    1.815295453784662E-2   -9.740465899685469E-3    2.585296480728230E-1    4.837312437146496E-1
 6.517754882675000E9    -2.206702792415940E-1   -7.605134742701318E-3    1.780412445878683E-2   -1.048758858083250E-2    1.835611912135442E-2   -9.752393604143763E-3    2.595561421310924E-1    4.831977882182341E-1
 6.517767008250000E9    -2.205246276576825E-1   -7.353750333932245E-3    1.802164155472180E-2   -1.073784488798529E-2    1.836759011265532E-2   -9.993427873698765E-3    2.604559499913800E-1    4.828286404847809E-1
 6.517779133825000E9    -2.202791024093335E-1   -7.258875751942683E-3    1.823730714815847E-2   -1.083956465302504E-2    1.856184384842766E-2   -1.010870646679400E-2    2.612620684364702E-1    4.823358414678088E-1
 6.517791259400000E9    -2.200487784374108E-1   -7.195703288817541E-3    1.836890938950163E-2   -1.082296465356661E-2    1.872570855735686E-2   -1.021751713248793E-2    2.621350182326500E-1    4.818729973383228E-1
 6.517803384975000E9    -2.199634449751797E-1   -7.110242702300726E-3    1.846926450257054E-2   -1.092745279650196E-2    1.871874649462878E-2   -1.037293601391412E-2    2.630370219049163E-1    4.812601648061247E-1
 6.517815510550000E9    -2.196963376716585E-1   -7.109366437920264E-3    1.861418434186629E-2   -1.111818643449858E-2    1.888035800802556E-2   -1.046247781903490E-2    2.639167432429129E-1    4.808488482868402E-1
 6.517827636125000E9    -2.195022855667834E-1   -6.964404325696237E-3    1.861910804405696E-2   -1.125305724462828E-2    1.902497955278754E-2   -1.059281020906663E-2    2.648525694321822E-1    4.802276189659846E-1
 6.517839761700000E9    -2.191820063479671E-1   -6.807577091049612E-3    1.887423977616242E-2   -1.132281109819215E-2    1.916482274918822E-2   -1.067698529898267E-2    2.659410543005146E-1    4.798395451566171E-1
 6.517851887275000E9    -2.190812511494875E-1   -6.756739257196668E-3    1.887740450650575E-2   -1.143929122217271E-2    1.914653397376598E-2   -1.088910814677914E-2    2.666961442559435E-1    4.793392152960295E-1
 6.517864012850000E9    -2.189003735917609E-1   -6.621192153871991E-3    1.908753617798858E-2   -1.161209042224503E-2    1.939924731841852E-2   -1.110900594757870E-2    2.675911661010918E-1    4.786517374609336E-1
 6.517876138425000E9    -2.186564319209804E-1   -6.691922828183050E-3    1.921568181958884E-2   -1.184321004375949E-2    1.948334168888570E-2   -1.125280598545246E-2    2.684098328983427E-1    4.782271635960013E-1
 6.517888264000000E9    -2.184103392615407E-1   -6.553899504040997E-3    1.919811182611226E-2   -1.196084749251772E-2    1.966201865831220E-2   -1.136272473449572E-2    2.694849924321726E-1    4.776662670078533E-1
 6.517900389575000E9    -2.182030338109495E-1   -6.387550254942218E-3    1.935735001171394E-2   -1.202539814757735E-2    1.979262471646703E-2   -1.141622070628847E-2    2.705207328231739E-1    4.771228040373155E-1
 6.517912515150000E9    -2.180288810896035E-1   -6.337459811434325E-3    1.947575101372567E-2   -1.223362599875628E-2    1.997119237228511E-2   -1.158362806315230E-2    2.712553337817254E-1    4.766475760039626E-1
 6.517924640725000E9    -2.177826592335427E-1   -6.301840743459212E-3    1.962433304594297E-2   -1.240685997160817E-2    2.002193945524044E-2   -1.172561873738050E-2    2.721328930442098E-1    4.760599855492628E-1
 6.517936766300000E9    -2.174791224028774E-1   -6.199154991554384E-3    1.970962618741447E-2   -1.262156766860576E-2    2.017308126685618E-2   -1.188867430441259E-2    2.729609677047515E-1    4.756033121704650E-1
 6.517948891875000E9    -2.173039489093308E-1   -6.142460203835039E-3    1.980900023738676E-2   -1.280366989873943E-2    2.024792435750698E-2   -1.200320612387469E-2    2.740026504009493E-1    4.748456409148972E-1
 6.517961017450000E9    -2.170885336250245E-1   -5.961444838415976E-3    2.011811884370613E-2   -1.289009227316929E-2    2.047381441832327E-2   -1.228531291518080E-2    2.748273965590530E-1    4.744249124542033E-1
 6.517973143025000E9    -2.167931571868726E-1   -5.899959484955837E-3    2.006735770236007E-2   -1.301130304048815E-2    2.056323593005898E-2   -1.244763780181957E-2    2.757677767614714E-1    4.739311015895964E-1
 6.517985268600000E9    -2.166255489553249E-1   -5.868063323018459E-3    2.020289378978614E-2   -1.318586825081528E-2    2.067761051832961E-2   -1.260183211403597E-2    2.766752627698896E-1    4.732721542534319E-1
 6.517997394175000E9    -2.163978508824994E-1   -5.899802981775138E-3    2.034334705168543E-2   -1.343476152793386E-2    2.078930921865265E-2   -1.277089350627901E-2    2.777663412995369E-1    4.728232102002683E-1
 6.518009519750000E9    -2.161061375903653E-1   -5.829142428263526E-3    2.047862787906837E-2   -1.369906324164399E-2    2.091699214459893E-2   -1.290557253497692E-2    2.785588641502034E-1    4.722895849021583E-1
