#  HZ   S   RI   R     50.00 
! Rohde & Schwarz Vector Network Analyzer 
! Rohde-Schwarz,ZNB20-2Port,1311601062101988,3.16
! Created: UTC 12/23/2023, 3:47:45 AM
! freq[Hz]                re:S11                  im:S11                  re:S21                  im:S21                  re:S12                  im:S12                  re:S22                  im:S22
 6.516863790000000E9    -2.313616362777318E-1   -1.968471247233841E-2    1.276987044202659E-2   -5.051867337797248E-3    1.292766111561348E-2   -4.488923643811481E-3    1.934511488035323E-1    5.126542348261328E-1
 6.516876097925000E9    -2.312591242911583E-1   -1.949416429901974E-2    1.291079014983151E-2   -4.962477232811540E-3    1.290864356115345E-2   -4.465396040053565E-3    1.945246812068714E-1    5.124575687180387E-1
 6.516888405850000E9    -2.310582804014260E-1   -1.926614444919236E-2    1.290704034132618E-2   -5.044364273235884E-3    1.298027473660040E-2   -4.412267667622675E-3    1.953467273491637E-1    5.120753363264199E-1
 6.516900713775000E9    -2.311221175300598E-1   -1.906009564082348E-2    1.312211578057237E-2   -5.149705242671509E-3    1.308140521926326E-2   -4.723213806472882E-3    1.965198140706153E-1    5.117368992343556E-1
 6.516913021700000E9    -2.308561326816140E-1   -1.878733301549368E-2    1.305344420253762E-2   -5.182225376009465E-3    1.305703397503310E-2   -4.656693655090198E-3    1.972081065576896E-1    5.113477165194767E-1
 6.516925329625000E9    -2.307401767485855E-1   -1.871805488948685E-2    1.302379888309373E-2   -5.305255459622800E-3    1.317969168339119E-2   -4.695585466306547E-3    1.980441670448002E-1    5.109954663180112E-1
 6.516937637550000E9    -2.307035814435562E-1   -1.848204219992209E-2    1.313149222265294E-2   -5.292251634509500E-3    1.329996500735559E-2   -4.776967971988047E-3    1.990362994321888E-1    5.107219446831790E-1
 6.516949945475000E9    -2.305720942386098E-1   -1.829590944031388E-2    1.322483461151470E-2   -5.318047336079620E-3    1.321906666756101E-2   -4.803141821698309E-3    1.999881012892105E-1    5.103667178705137E-1
 6.516962253400000E9    -2.305020015127149E-1   -1.803995190564522E-2    1.333515379763604E-2   -5.362442440873098E-3    1.335477208021458E-2   -4.876571687598407E-3    2.008378931785494E-1    5.101259435032506E-1
 6.516974561325000E9    -2.303024281060860E-1   -1.789784541833993E-2    1.318042772550585E-2   -5.391911861939143E-3    1.334890361977376E-2   -4.982500953505764E-3    2.018200687594491E-1    5.097431718907277E-1
 6.516986869250000E9    -2.301700050847820E-1   -1.767233063516014E-2    1.336691622339582E-2   -5.441399618555830E-3    1.349717144257953E-2   -4.987110413836099E-3    2.027057550702865E-1    5.092616695089925E-1
 6.516999177175000E9    -2.301097510762470E-1   -1.758196831428038E-2    1.354142962639960E-2   -5.510718551572146E-3    1.343838989082417E-2   -5.055193330736372E-3    2.037238447246193E-1    5.089337116275944E-1
 6.517011485100000E9    -2.299000399746431E-1   -1.725989055113963E-2    1.343370212510639E-2   -5.568658288440765E-3    1.355689188259084E-2   -5.107627598722517E-3    2.045064857172056E-1    5.086537338320802E-1
 6.517023793025000E9    -2.297909477640264E-1   -1.714305200893237E-2    1.355033931495279E-2   -5.639470269809133E-3    1.365562461289732E-2   -5.104175536147749E-3    2.054129874566225E-1    5.081596376491031E-1
 6.517036100950000E9    -2.297122556906896E-1   -1.695024577370154E-2    1.362493668697296E-2   -5.669919561054703E-3    1.369797226877820E-2   -5.213633531188902E-3    2.063459994615576E-1    5.078141749902917E-1
 6.517048408875000E9    -2.296134332828727E-1   -1.666021161590418E-2    1.368499557713926E-2   -5.727002204897931E-3    1.378752277079669E-2   -5.128909613958370E-3    2.072842586996015E-1    5.074891689747170E-1
 6.517060716800000E9    -2.295045242765382E-1   -1.653633558671588E-2    1.369548150785415E-2   -5.851925913023893E-3    1.378031459965648E-2   -5.370047092906368E-3    2.081473424774648E-1    5.071906735403844E-1
 6.517073024725000E9    -2.293317035611072E-1   -1.637188165648413E-2    1.386360561215147E-2   -5.914043785403185E-3    1.374153997010359E-2   -5.272356404920604E-3    2.091804781135029E-1    5.067829576832575E-1
 6.517085332650000E9    -2.292268212149398E-1   -1.612180393596681E-2    1.386813301033254E-2   -5.915980901367976E-3    1.399019575764700E-2   -5.370729058093142E-3    2.099918084280955E-1    5.064905252136652E-1
 6.517097640575000E9    -2.290526447845086E-1   -1.590785178139075E-2    1.397626023079102E-2   -5.878384565924908E-3    1.403144846032447E-2   -5.451919490365798E-3    2.109071420186556E-1    5.061594399464899E-1
 6.517109948500000E9    -2.289191374066759E-1   -1.586715318173536E-2    1.391591754475097E-2   -6.037820525050427E-3    1.410239148689087E-2   -5.494142420187582E-3    2.119153278957283E-1    5.057494076377190E-1
 6.517122256425000E9    -2.287893039390403E-1   -1.551979953752638E-2    1.394173252559588E-2   -6.136409742771254E-3    1.413894412025380E-2   -5.593976262960227E-3    2.128689757745509E-1    5.053087809007509E-1
 6.517134564350000E9    -2.286795951602037E-1   -1.540988803050565E-2    1.408416380279053E-2   -6.127305167587853E-3    1.416650927997869E-2   -5.655113571461629E-3    2.137086670618720E-1    5.049844270160523E-1
 6.517146872275000E9    -2.285755641809253E-1   -1.524093296382951E-2    1.399489941078327E-2   -6.159583483611821E-3    1.416077087384816E-2   -5.772584471071172E-3    2.146158560675193E-1    5.046418551043947E-1
 6.517159180200000E9    -2.284482040490112E-1   -1.504490483573017E-2    1.419041893023278E-2   -6.356360561729947E-3    1.434777580836060E-2   -5.643320022300610E-3    2.154714235855329E-1    5.041449865540316E-1
 6.517171488125000E9    -2.282705759001092E-1   -1.485867598114766E-2    1.434159520598822E-2   -6.315621213916334E-3    1.444333787500424E-2   -5.862067887030348E-3    2.164581882274759E-1    5.037933739750590E-1
 6.517183796050000E9    -2.281652493963858E-1   -1.473744414847038E-2    1.439203519280140E-2   -6.443544574476693E-3    1.453690722532581E-2   -5.878666434525718E-3    2.173366202232591E-1    5.035073336030751E-1
 6.517196103975000E9    -2.280336534636036E-1   -1.448332258418359E-2    1.433495593329217E-2   -6.580662329222563E-3    1.450829354367224E-2   -5.916979619233650E-3    2.180960830307430E-1    5.031385895584094E-1
 6.517208411900000E9    -2.278530839774932E-1   -1.433757745399460E-2    1.443919771238675E-2   -6.568565213539121E-3    1.461697468255678E-2   -5.982135523453516E-3    2.190917387196027E-1    5.028055652163310E-1
 6.517220719825000E9    -2.277058218078057E-1   -1.417095883208257E-2    1.449655635755866E-2   -6.538369084987344E-3    1.467577530945037E-2   -6.165389659086088E-3    2.201335469914804E-1    5.023505464986482E-1
 6.517233027750000E9    -2.275068072475295E-1   -1.390555599339737E-2    1.476871716574341E-2   -6.703412196112872E-3    1.470518360183595E-2   -6.192448321812619E-3    2.208304866060469E-1    5.020100938671525E-1
 6.517245335675000E9    -2.274682659673462E-1   -1.380674573088349E-2    1.459458245218729E-2   -6.771599510557127E-3    1.479580758741742E-2   -6.308365147570842E-3    2.219755560969066E-1    5.015321768321652E-1
 6.517257643600000E9    -2.273581549615211E-1   -1.365144590512589E-2    1.462876283330839E-2   -6.668068919701638E-3    1.492144140013949E-2   -6.281010824512528E-3    2.226721521933355E-1    5.011326536860934E-1
 6.517269951525000E9    -2.270562984155671E-1   -1.357056790456501E-2    1.475608281836033E-2   -6.831966448524488E-3    1.492427598928352E-2   -6.397546287435625E-3    2.236523015792966E-1    5.008382769703932E-1
 6.517282259450000E9    -2.269091398950055E-1   -1.323971250733286E-2    1.494764709363292E-2   -6.915549839959536E-3    1.509042893365047E-2   -6.389479287980111E-3    2.246843211802339E-1    5.003571937559609E-1
 6.517294567375000E9    -2.267978970410516E-1   -1.307767364419286E-2    1.491125583041923E-2   -7.122305696208702E-3    1.505901287120750E-2   -6.520153282532568E-3    2.254810782664605E-1    4.998759882026972E-1
 6.517306875300000E9    -2.268379138021397E-1   -1.305191797373024E-2    1.505365657083915E-2   -7.162547788252846E-3    1.527428623781584E-2   -6.620184860006559E-3    2.264828174791224E-1    4.995937362867228E-1
 6.517319183225000E9    -2.266601670011324E-1   -1.269762302009645E-2    1.508573067786896E-2   -7.094304853389429E-3    1.532268739542429E-2   -6.624632171732219E-3    2.273516920555670E-1    4.991826920700335E-1
 6.517331491150000E9    -2.264774696267221E-1   -1.260669686447654E-2    1.520815972737932E-2   -7.241250424166725E-3    1.536291607494390E-2   -6.689400877978096E-3    2.284050233056239E-1    4.986845916343570E-1
 6.517343799075000E9    -2.261929786493812E-1   -1.238744507433302E-2    1.517688002843209E-2   -7.295247023120371E-3    1.537962061645658E-2   -6.924770895473619E-3    2.291363100105644E-1    4.983994121274012E-1
 6.517356107000000E9    -2.260742659361164E-1   -1.218899395396363E-2    1.530594138956986E-2   -7.373930553448575E-3    1.548179825056696E-2   -6.921964008323101E-3    2.299886787428254E-1    4.980290894467897E-1
 6.517368414925000E9    -2.259441798299926E-1   -1.211855582682288E-2    1.540924521852166E-2   -7.485133461459291E-3    1.556235411264857E-2   -6.941347611415967E-3    2.308086425593904E-1    4.975225005877177E-1
 6.517380722850000E9    -2.258675001510400E-1   -1.194710050947802E-2    1.532692116495135E-2   -7.446782123666711E-3    1.561758734126290E-2   -7.017124662092449E-3    2.318155200702929E-1    4.970570962897137E-1
 6.517393030775000E9    -2.256937139531028E-1   -1.181003366900385E-2    1.540866741740130E-2   -7.639110450804102E-3    1.575337664417980E-2   -7.075693061192179E-3    2.327521642848413E-1    4.966112481767018E-1
 6.517405338700000E9    -2.255250218013992E-1   -1.161367539506520E-2    1.552191487130292E-2   -7.787365037348662E-3    1.586430489051571E-2   -7.248897583135608E-3    2.336600929093103E-1    4.961891404514488E-1
 6.517417646625000E9    -2.253203408085610E-1   -1.149639859253029E-2    1.568982778458050E-2   -7.956268668472549E-3    1.582525098489763E-2   -7.190223902213869E-3    2.346358003204160E-1    4.958848815992691E-1
 6.517429954550000E9    -2.250906386457426E-1   -1.126937362834950E-2    1.586409284712660E-2   -7.871280835259396E-3    1.591122768496187E-2   -7.318214191700683E-3    2.355435574953597E-1    4.953343555469556E-1
 6.517442262475000E9    -2.250847507445229E-1   -1.115269237123245E-2    1.597135056131427E-2   -7.985381620734294E-3    1.604209081556924E-2   -7.423170717885489E-3    2.363249807641011E-1    4.949351249895054E-1
 6.517454570400000E9    -2.248297091686022E-1   -1.093152093510015E-2    1.587343520952596E-2   -8.075497847211829E-3    1.614105003230704E-2   -7.544415402217751E-3    2.374710847599290E-1    4.944353003623732E-1
 6.517466878325000E9    -2.247089289410757E-1   -1.072292027123886E-2    1.602766718203483E-2   -8.182245406559770E-3    1.627112754507463E-2   -7.553252090371631E-3    2.382054075664354E-1    4.940641590736581E-1
 6.517479186250000E9    -2.245088082960352E-1   -1.068164093711045E-2    1.604362806667694E-2   -8.284232320650268E-3    1.637844265756286E-2   -7.692072909497466E-3    2.390975375437397E-1    4.936866234417878E-1
 6.517491494175000E9    -2.244466672433776E-1   -1.056021165793041E-2    1.605026409920593E-2   -8.286553099402469E-3    1.633839429438105E-2   -7.714302883049499E-3    2.401399934897653E-1    4.931551975846842E-1
 6.517503802100000E9    -2.240682987169591E-1   -1.033669398722363E-2    1.616728274132375E-2   -8.410864061575677E-3    1.641387674168064E-2   -7.846067035598422E-3    2.411343610439934E-1    4.927531613647465E-1
 6.517516110025000E9    -2.240987865929050E-1   -1.020155440934261E-2    1.625075459905900E-2   -8.502437883429024E-3    1.657708947386101E-2   -8.014397092828833E-3    2.419052496800243E-1    4.922924802260205E-1
 6.517528417950000E9    -2.239202258693231E-1   -1.010530752372421E-2    1.631954698108258E-2   -8.636740038558481E-3    1.665196960680755E-2   -8.001674126086933E-3    2.427054247085572E-1    4.918691753814239E-1
 6.517540725875000E9    -2.236765857490684E-1   -9.881684838433593E-3    1.642528347107174E-2   -8.689205777139237E-3    1.670346253099416E-2   -8.180814924115693E-3    2.436298532269502E-1    4.913384199956556E-1
 6.517553033800000E9    -2.235257820063377E-1   -9.814841262448193E-3    1.654669068093482E-2   -8.739056014020362E-3    1.689944085861067E-2   -8.229587464148458E-3    2.448176434720858E-1    4.909275636564300E-1
 6.517565341725000E9    -2.234708070040063E-1   -9.637915438019286E-3    1.668035134683752E-2   -8.892233049714307E-3    1.692336513554903E-2   -8.344672313813086E-3    2.455330193623529E-1    4.905833843223718E-1
 6.517577649650000E9    -2.231534610652955E-1   -9.453858199647768E-3    1.671918985071293E-2   -9.035649416307983E-3    1.694268025496431E-2   -8.489429484251257E-3    2.463960062329716E-1    4.901340171651088E-1
 6.517589957575000E9    -2.230631333141895E-1   -9.356926717756467E-3    1.695181638301195E-2   -9.059574276418236E-3    1.711444089985165E-2   -8.479918344083908E-3    2.474884420000714E-1    4.895389741950131E-1
 6.517602265500000E9    -2.227772068246349E-1   -9.262883447980527E-3    1.697819693154439E-2   -9.270121907173481E-3    1.720501292634433E-2   -8.636303256050313E-3    2.483628381031721E-1    4.892257214183078E-1
 6.517614573425000E9    -2.226908503492805E-1   -9.065788378330813E-3    1.698323846706248E-2   -9.337446856028110E-3    1.729887168178306E-2   -8.723129666712475E-3    2.492905258428169E-1    4.886597039159927E-1
 6.517626881350000E9    -2.225428124280835E-1   -8.879800595187138E-3    1.716652089454315E-2   -9.457884596328367E-3    1.739894396687458E-2   -8.857110598480251E-3    2.500940217535282E-1    4.882242678489814E-1
 6.517639189275000E9    -2.222045265093507E-1   -8.892037391537402E-3    1.726705063500682E-2   -9.513925156645274E-3    1.752318017907675E-2   -8.883840681816985E-3    2.510628273339887E-1    4.876801778930836E-1
 6.517651497200000E9    -2.219629401289097E-1   -8.750266668085357E-3    1.732451051070361E-2   -9.623723827932466E-3    1.757721222325753E-2   -9.155876682050644E-3    2.518714755398004E-1    4.872797765789725E-1
 6.517663805125000E9    -2.218688962667062E-1   -8.584170477520020E-3    1.736346632491451E-2   -9.665100573143902E-3    1.765287441538528E-2   -9.211827364909733E-3    2.527494600522536E-1    4.868353670902291E-1
 6.517676113050000E9    -2.217618465385217E-1   -8.511608664958852E-3    1.739645676258201E-2   -9.804726266881980E-3    1.778392403562294E-2   -9.317155779941492E-3    2.537645114876237E-1    4.862618269436109E-1
 6.517688420975000E9    -2.215229380412173E-1   -8.447454436107530E-3    1.750657779363091E-2   -1.008384711760065E-2    1.791748497854944E-2   -9.355186732953559E-3    2.546417045027820E-1    4.857567309953945E-1
 6.517700728900000E9    -2.213059746690172E-1   -8.261305650482349E-3    1.774502350199106E-2   -1.015187290573441E-2    1.800048451727298E-2   -9.545608079945067E-3    2.555754299895058E-1    4.852822237829687E-1
 6.517713036825000E9    -2.211147495678074E-1   -8.170158385767456E-3    1.781249574401472E-2   -1.023425434751907E-2    1.816681794570669E-2   -9.630377120569562E-3    2.564519217165821E-1    4.846608280894270E-1
 6.517725344750000E9    -2.209574372765794E-1   -7.938755613325453E-3    1.789858339443656E-2   -1.038691716686824E-2    1.827742371954890E-2   -9.801416721196948E-3    2.573604139310118E-1    4.842030722617097E-1
 6.517737652675000E9    -2.207344276151817E-1   -7.873878689968489E-3    1.802222581238170E-2   -1.047752111825004E-2    1.841251045759532E-2   -9.939657912602784E-3    2.582654330959233E-1    4.837720408075066E-1
 6.517749960600000E9    -2.206680411178801E-1   -7.642634715795600E-3    1.824175836834323E-2   -1.056426929356278E-2    1.859158781745450E-2   -9.981728886367855E-3    2.592763985090988E-1    4.833529071502219E-1
 6.517762268525000E9    -2.203238418457572E-1   -7.603114336001324E-3    1.825970467615895E-2   -1.067676852242135E-2    1.854771016914647E-2   -1.011678617769863E-2    2.601376044704157E-1    4.827499173002902E-1
 6.517774576450000E9    -2.200987253115222E-1   -7.474428987979831E-3    1.828753855683183E-2   -1.090732150063395E-2    1.873750996113336E-2   -1.028905799534395E-2    2.610284749685087E-1    4.824027455022244E-1
 6.517786884375000E9    -2.198847013274170E-1   -7.329794827335039E-3    1.837206932382753E-2   -1.093557370026748E-2    1.879497725101238E-2   -1.033502289099877E-2    2.619451375203711E-1    4.817315783183182E-1
 6.517799192300000E9    -2.196558091647707E-1   -7.196565663348723E-3    1.861971234088513E-2   -1.106895370994364E-2    1.895380755061766E-2   -1.047176514606731E-2    2.629758454871896E-1    4.814143350185452E-1
 6.517811500225000E9    -2.195173642972122E-1   -7.141185514872981E-3    1.865129320680271E-2   -1.133827516430047E-2    1.903796129176502E-2   -1.059948753304275E-2    2.638338843194278E-1    4.806953966602980E-1
 6.517823808150000E9    -2.192866132979782E-1   -7.122236954668184E-3    1.872859086576460E-2   -1.142130309911540E-2    1.913134859768303E-2   -1.078930750882119E-2    2.647214854031997E-1    4.801275620211848E-1
 6.517836116075000E9    -2.190216439525536E-1   -6.991368018944894E-3    1.890853351508273E-2   -1.154569975838062E-2    1.925382624666559E-2   -1.084698340781146E-2    2.656962689305968E-1    4.796148557846568E-1
 6.517848424000000E9    -2.188781358140451E-1   -6.841791601149958E-3    1.912587500643098E-2   -1.180975014500079E-2    1.937725388271634E-2   -1.109356097974312E-2    2.665732410381188E-1    4.793509521339944E-1
 6.517860731925000E9    -2.185758408193544E-1   -6.758316250652732E-3    1.921508171385325E-2   -1.189586274473491E-2    1.950172060126311E-2   -1.123730724255657E-2    2.674997971278528E-1    4.785670425722482E-1
 6.517873039850000E9    -2.185402770574967E-1   -6.737399378762054E-3    1.915881009904074E-2   -1.211622485126461E-2    1.972044850173786E-2   -1.132827559628436E-2    2.683584943047729E-1    4.781318725498165E-1
 6.517885347775000E9    -2.181857485612851E-1   -6.649023312459867E-3    1.944797651425974E-2   -1.206617242399740E-2    1.979708127192430E-2   -1.152940100642624E-2    2.693231801710554E-1    4.775680568332955E-1
 6.517897655700000E9    -2.178926629307517E-1   -6.605544593086624E-3    1.962581260444913E-2   -1.237334139992176E-2    1.991254852791196E-2   -1.164456683174766E-2    2.702137757076168E-1    4.771038094745488E-1
 6.517909963625000E9    -2.176949081134091E-1   -6.522869590349485E-3    1.961592149468619E-2   -1.254716819158084E-2    2.010929990554745E-2   -1.171963815907940E-2    2.711018488748110E-1    4.764898523560576E-1
 6.517922271550000E9    -2.175396716558246E-1   -6.418725097650587E-3    1.973662873426326E-2   -1.256793564671250E-2    2.021168867962911E-2   -1.200496784810105E-2    2.720104402587377E-1    4.759730873265190E-1
 6.517934579475000E9    -2.172143468757115E-1   -6.306394705564164E-3    1.986158625568545E-2   -1.282120662665905E-2    2.027634567744740E-2   -1.213410187380917E-2    2.730146517319590E-1    4.753225905976947E-1
 6.517946887400000E9    -2.170028962736890E-1   -6.255775734984605E-3    1.999468525472138E-2   -1.298909826627954E-2    2.041803107873993E-2   -1.232224763489513E-2    2.738908334650218E-1    4.747443838617446E-1
 6.517959195325000E9    -2.168312381270872E-1   -6.160865705351551E-3    2.026593467073693E-2   -1.310600030903104E-2    2.058348623689537E-2   -1.231243146844193E-2    2.747798296910164E-1    4.742964356286244E-1
 6.517971503250000E9    -2.165380514982861E-1   -6.165028391816854E-3    2.019185849178382E-2   -1.339888559620560E-2    2.063952586023927E-2   -1.269080069148630E-2    2.757901961103494E-1    4.737865933720228E-1
