#  HZ   S   RI   R     50.00 
! Rohde & Schwarz Vector Network Analyzer 
! Rohde-Schwarz,ZNB20-2Port,1311601062101988,3.16
! Created: UTC 12/23/2023, 3:57:22 AM
! freq[Hz]                re:S11                  im:S11                  re:S21                  im:S21                  re:S12                  im:S12                  re:S22                  im:S22
 6.517018356000000E9    -2.301631784634080E-1   -1.683063519870098E-2    1.318223322145723E-2   -5.379880498332846E-3    1.328997454450902E-2   -4.690634789442951E-3    2.044263249501112E-1    5.088631840915997E-1
 6.517030212575000E9    -2.299740588370916E-1   -1.669132920452621E-2    1.322322933375956E-2   -5.382195680356711E-3    1.337195453159637E-2   -4.957438304713528E-3    2.052177145313170E-1    5.086752605959285E-1
 6.517042069150000E9    -2.298943371022179E-1   -1.655562283214079E-2    1.323492926071061E-2   -5.493303161962141E-3    1.340053729478595E-2   -4.985521012350048E-3    2.061143302629979E-1    5.081620117127024E-1
 6.517053925725000E9    -2.297236709185629E-1   -1.619733291885774E-2    1.338431107470877E-2   -5.513681230836443E-3    1.339310816574889E-2   -5.028079138457361E-3    2.069690946520247E-1    5.078533519518303E-1
 6.517065782300000E9    -2.296327404049957E-1   -1.608452319136975E-2    1.350163335392406E-2   -5.464001730405882E-3    1.345249926069737E-2   -5.023667229483228E-3    2.079839625309471E-1    5.074648320583179E-1
 6.517077638875000E9    -2.295214156474250E-1   -1.582254784625755E-2    1.346306203987041E-2   -5.567165177553480E-3    1.359418754445501E-2   -5.128721034660591E-3    2.088805502597460E-1    5.070250800991536E-1
 6.517089495450000E9    -2.294184291048892E-1   -1.579437732821009E-2    1.342876951346434E-2   -5.632330185400980E-3    1.374307212888437E-2   -5.209398130299630E-3    2.096483097397931E-1    5.068803876418285E-1
 6.517101352025000E9    -2.291584060324543E-1   -1.548523622525314E-2    1.356803740434702E-2   -5.746889280147435E-3    1.364199850939450E-2   -5.306953032763072E-3    2.105473835324444E-1    5.064851309179047E-1
 6.517113208600000E9    -2.292636155554446E-1   -1.527334396963271E-2    1.375839010027972E-2   -5.711552079339895E-3    1.387441095469269E-2   -5.356898436459024E-3    2.113901345857556E-1    5.061130454716175E-1
 6.517125065175000E9    -2.290284307980536E-1   -1.507527580728137E-2    1.376108242828057E-2   -5.990935574369495E-3    1.364368551298301E-2   -5.446650215289623E-3    2.124198791834022E-1    5.057868841701454E-1
 6.517136921750000E9    -2.289020838647686E-1   -1.498851975502363E-2    1.377568243075990E-2   -5.982094555073598E-3    1.385465410037802E-2   -5.327017143582954E-3    2.130700084384525E-1    5.053022356249620E-1
 6.517148778325000E9    -2.287578119801446E-1   -1.474540604270731E-2    1.373910388331696E-2   -5.943129604008860E-3    1.395581191903607E-2   -5.471675654886681E-3    2.141167793361915E-1    5.050058117760782E-1
 6.517160634900000E9    -2.286969773635677E-1   -1.458754891092231E-2    1.375579838493592E-2   -5.958119515182814E-3    1.386150993695479E-2   -5.379469586417993E-3    2.149469376855484E-1    5.045987532620598E-1
 6.517172491475000E9    -2.284851184403186E-1   -1.443381640723070E-2    1.392596621380315E-2   -5.970287754341471E-3    1.400757247170665E-2   -5.543245783617230E-3    2.159228231108473E-1    5.042270903795928E-1
 6.517184348050000E9    -2.283901407088217E-1   -1.423742877052903E-2    1.407492169970737E-2   -6.134711012076026E-3    1.404566427033359E-2   -5.644411860936548E-3    2.166596162912894E-1    5.038957219938538E-1
 6.517196204625000E9    -2.282870051022651E-1   -1.407899759908150E-2    1.390232002583868E-2   -6.128320273644433E-3    1.408988224984485E-2   -5.622843507932959E-3    2.175611273477122E-1    5.034856752140788E-1
 6.517208061200000E9    -2.281370407702767E-1   -1.390700358892969E-2    1.418326777289410E-2   -6.136700318140851E-3    1.428791196280665E-2   -5.770344529885878E-3    2.185505509436568E-1    5.032809718917008E-1
 6.517219917775000E9    -2.280090020152344E-1   -1.372273970091320E-2    1.426429647437650E-2   -6.308980243388590E-3    1.430228153569055E-2   -5.801090584665636E-3    2.194445740810092E-1    5.028807356273408E-1
 6.517231774350000E9    -2.279831397468158E-1   -1.353611799842269E-2    1.421053764342837E-2   -6.357313494750555E-3    1.432078391655475E-2   -5.834919986538243E-3    2.201909421881780E-1    5.024203758901234E-1
 6.517243630925000E9    -2.277053723696538E-1   -1.333053434332405E-2    1.440776858572905E-2   -6.447891090059246E-3    1.443297110729897E-2   -5.885061053862876E-3    2.211793277529611E-1    5.019930878109112E-1
 6.517255487500000E9    -2.276241524379197E-1   -1.323175101710815E-2    1.434605962689800E-2   -6.488294469531933E-3    1.449367152618090E-2   -5.961495332770113E-3    2.218812264666808E-1    5.017057834803051E-1
 6.517267344075000E9    -2.275733866761102E-1   -1.296391470040986E-2    1.448039730579414E-2   -6.532175627269682E-3    1.456583575383179E-2   -6.053512854421536E-3    2.228534877315137E-1    5.012600711697426E-1
 6.517279200650000E9    -2.273899264942960E-1   -1.283653331572106E-2    1.460794744558233E-2   -6.677858492260003E-3    1.460226817368987E-2   -6.064476604492472E-3    2.237509149734652E-1    5.007198537909328E-1
 6.517291057225000E9    -2.273566277850609E-1   -1.263985703156529E-2    1.438619589919687E-2   -6.688307794209161E-3    1.474026473129957E-2   -6.058162352462280E-3    2.245397354528231E-1    5.005791665626679E-1
 6.517302913800000E9    -2.270125951983425E-1   -1.250272575904178E-2    1.462588728374758E-2   -6.754455352659772E-3    1.470585413166063E-2   -6.272313803926598E-3    2.255273070977882E-1    5.002237667071263E-1
 6.517314770375000E9    -2.268949085478320E-1   -1.237904554985120E-2    1.462791312254731E-2   -6.798894708256155E-3    1.479275134680838E-2   -6.251754621981745E-3    2.263681422357954E-1    4.999661530693050E-1
 6.517326626950000E9    -2.268069429757955E-1   -1.217905891671365E-2    1.473945230376652E-2   -6.966844345314858E-3    1.487568557277710E-2   -6.484272728111549E-3    2.272146311031050E-1    4.993477953621760E-1
 6.517338483525000E9    -2.266534706714849E-1   -1.201085610174024E-2    1.478014077868920E-2   -6.936706533111862E-3    1.499280907577097E-2   -6.408999085324480E-3    2.280609732093777E-1    4.990698478754633E-1
 6.517350340100000E9    -2.265148580286848E-1   -1.191725193311539E-2    1.488112699953296E-2   -7.029723697245270E-3    1.499927074216177E-2   -6.524563601449580E-3    2.288820949409029E-1    4.988130781630038E-1
 6.517362196675000E9    -2.264027803473695E-1   -1.177686804920596E-2    1.490870232010201E-2   -7.063968741889430E-3    1.505133736719419E-2   -6.612745738228382E-3    2.298018842095495E-1    4.982610580556170E-1
 6.517374053250000E9    -2.262431945338554E-1   -1.154569374416830E-2    1.502722950812926E-2   -7.188869080209434E-3    1.524858728756505E-2   -6.639537061641362E-3    2.306670847086382E-1    4.977920889994025E-1
 6.517385909825000E9    -2.260718699580003E-1   -1.134228878611544E-2    1.505630886511625E-2   -7.294883703425781E-3    1.528513899718266E-2   -6.777918062282331E-3    2.315172845595499E-1    4.974254729004776E-1
 6.517397766400000E9    -2.258788814028310E-1   -1.118838690029461E-2    1.512237139507895E-2   -7.329553172225959E-3    1.538596267943861E-2   -6.789528036301421E-3    2.324255390444497E-1    4.970614986333871E-1
 6.517409622975000E9    -2.258981023530195E-1   -1.108755572134084E-2    1.519127385418965E-2   -7.290545151936468E-3    1.537430616753921E-2   -6.810842553880155E-3    2.333049104057434E-1    4.965963834415143E-1
 6.517421479550000E9    -2.255624369789873E-1   -1.094142762354816E-2    1.529336046409045E-2   -7.417043373471903E-3    1.545300168204830E-2   -6.923453825785536E-3    2.343018716036872E-1    4.961851205993058E-1
 6.517433336125000E9    -2.255014942185108E-1   -1.082013117132197E-2    1.541392252344531E-2   -7.484886420723104E-3    1.554997712695394E-2   -7.009175753223302E-3    2.350329872255733E-1    4.958480954010550E-1
 6.517445192700000E9    -2.254419606897022E-1   -1.059521295950605E-2    1.532780103884124E-2   -7.646906677999548E-3    1.561084637455466E-2   -7.139577484050494E-3    2.358865778784456E-1    4.954543957256355E-1
 6.517457049275000E9    -2.252612751978618E-1   -1.040658628743906E-2    1.545857568851157E-2   -7.727053028032903E-3    1.566781380205015E-2   -7.158587181740663E-3    2.367949126150460E-1    4.949972122556735E-1
 6.517468905850000E9    -2.250472899289476E-1   -1.027337224897985E-2    1.553094883106716E-2   -7.768340141329810E-3    1.585378352171941E-2   -7.176920753116918E-3    2.376529600883015E-1    4.944719998996564E-1
 6.517480762425000E9    -2.248969134446155E-1   -1.017468019948809E-2    1.571872205839908E-2   -7.934844234975227E-3    1.587054173377313E-2   -7.355244022720781E-3    2.385669069890989E-1    4.941368122013196E-1
 6.517492619000000E9    -2.247089738049715E-1   -1.001724900575448E-2    1.568426221098769E-2   -7.960715210900443E-3    1.598208057366357E-2   -7.394877392982733E-3    2.393139959404361E-1    4.938351760073821E-1
 6.517504475575000E9    -2.246241387567277E-1   -9.801706792730422E-3    1.571605234413088E-2   -8.139898937006946E-3    1.594713886454088E-2   -7.468703992951083E-3    2.402498951802716E-1    4.932603860560035E-1
 6.517516332150000E9    -2.245086927126961E-1   -9.706851661490535E-3    1.591086665452160E-2   -8.095038777096339E-3    1.600870339761243E-2   -7.424427769765691E-3    2.411322013489432E-1    4.930301294689202E-1
 6.517528188725000E9    -2.241989808783030E-1   -9.482644151851800E-3    1.586921978989389E-2   -8.127911970701545E-3    1.630761279306818E-2   -7.704073426412919E-3    2.418728933444283E-1    4.925383998866735E-1
 6.517540045300000E9    -2.240841683758001E-1   -9.335626902986930E-3    1.603377586098379E-2   -8.274951705105763E-3    1.628064393508713E-2   -7.709356710814549E-3    2.427794518108482E-1    4.920577488864588E-1
 6.517551901875000E9    -2.239646030308833E-1   -9.173424745059522E-3    1.613148766163755E-2   -8.422323424590447E-3    1.635571245241673E-2   -7.784038462609544E-3    2.438410325544389E-1    4.916145245034716E-1
 6.517563758450000E9    -2.237688006566793E-1   -9.008885972840015E-3    1.616612902233502E-2   -8.496046450693502E-3    1.646626051303787E-2   -7.818799948982205E-3    2.445635292190174E-1    4.911859992096860E-1
 6.517575615025000E9    -2.237491009987105E-1   -8.882059101396734E-3    1.635960118601180E-2   -8.510972093397230E-3    1.636428999498427E-2   -7.798880976780986E-3    2.455659090590881E-1    4.907502229005166E-1
 6.517587471600000E9    -2.235076187511117E-1   -8.838504626562261E-3    1.631483045993777E-2   -8.519889641157014E-3    1.659001678295526E-2   -8.054484060092766E-3    2.464758260640221E-1    4.902828867883040E-1
 6.517599328175000E9    -2.233565461085286E-1   -8.657333423836167E-3    1.646009840142511E-2   -8.887673546557480E-3    1.673431982251228E-2   -8.166679860990733E-3    2.473210477828354E-1    4.897795724192697E-1
 6.517611184750000E9    -2.231843465496415E-1   -8.611870729804984E-3    1.651270597796371E-2   -8.854308842071520E-3    1.670489688818132E-2   -8.288951757901146E-3    2.482068313205949E-1    4.895140472171846E-1
 6.517623041325000E9    -2.231053824733160E-1   -8.392904364993058E-3    1.653703096003112E-2   -8.812547318987264E-3    1.688720024977859E-2   -8.294772664765124E-3    2.490288250798499E-1    4.890512187584977E-1
 6.517634897900000E9    -2.227879098111916E-1   -8.257810852944164E-3    1.660679174240318E-2   -9.021536599095251E-3    1.694482898992507E-2   -8.487751175865097E-3    2.500444799605208E-1    4.887822007696676E-1
 6.517646754475000E9    -2.226204663408150E-1   -8.004525799506983E-3    1.678149494311233E-2   -8.972659034859573E-3    1.702702018812579E-2   -8.539083573768412E-3    2.507616708401267E-1    4.881473998850441E-1
 6.517658611050000E9    -2.225001783556034E-1   -7.896233825305105E-3    1.682857509502812E-2   -9.197061808457471E-3    1.707571245504598E-2   -8.602111588582390E-3    2.515783143170218E-1    4.876156305812218E-1
 6.517670467625000E9    -2.222910736848315E-1   -7.814995460050028E-3    1.699209309780202E-2   -9.342630604082169E-3    1.715699492612299E-2   -8.744479307515854E-3    2.526203411275738E-1    4.871998859803660E-1
 6.517682324200000E9    -2.220552068687481E-1   -7.705144004249984E-3    1.698230738630594E-2   -9.392593381604581E-3    1.731050869852188E-2   -8.940268593537462E-3    2.534519563540439E-1    4.866790337431616E-1
 6.517694180775000E9    -2.218123825812502E-1   -7.630701405866663E-3    1.716934757072005E-2   -9.461602638326653E-3    1.733793685296982E-2   -8.902999810326623E-3    2.542704010503179E-1    4.863149519096897E-1
 6.517706037350000E9    -2.217640596849031E-1   -7.361730006244119E-3    1.721160757726842E-2   -9.550911611209334E-3    1.760437507850503E-2   -9.054961149742365E-3    2.550918341158977E-1    4.858808813108081E-1
 6.517717893925000E9    -2.215597852692801E-1   -7.295495753802669E-3    1.731125465371717E-2   -9.596025000080671E-3    1.753801443498598E-2   -9.276484127641050E-3    2.560390691380012E-1    4.855263858078597E-1
 6.517729750500000E9    -2.213779734816428E-1   -7.251255990966614E-3    1.736312852037246E-2   -9.883029688751450E-3    1.758696349345958E-2   -9.322671449159100E-3    2.569249747724199E-1    4.847842397595994E-1
 6.517741607075000E9    -2.211414291226006E-1   -7.163479459839998E-3    1.743542116053041E-2   -1.006299749410878E-2    1.778753882372256E-2   -9.403713939951588E-3    2.577661948975937E-1    4.843741170027984E-1
 6.517753463650000E9    -2.209070283378328E-1   -6.941711998547690E-3    1.751052370141318E-2   -9.960555073712091E-3    1.786727127916161E-2   -9.389834040627282E-3    2.587015955189116E-1    4.838348462285696E-1
 6.517765320225000E9    -2.206770239040473E-1   -6.837142112649368E-3    1.773867792794928E-2   -1.011703286084185E-2    1.795503019386280E-2   -9.707491845427223E-3    2.596774402488211E-1    4.835121301267902E-1
 6.517777176800000E9    -2.206719163972780E-1   -6.695211526718547E-3    1.775497216930539E-2   -1.024457662480497E-2    1.802569256642619E-2   -9.710496655492470E-3    2.604375814214595E-1    4.829789238238447E-1
 6.517789033375000E9    -2.204326945852035E-1   -6.572739084536556E-3    1.784767662052181E-2   -1.044615115249020E-2    1.820441119435095E-2   -9.752887296590322E-3    2.613378500620379E-1    4.824934230669669E-1
 6.517800889950000E9    -2.201827509736264E-1   -6.407593157435557E-3    1.799633336090973E-2   -1.050155117473972E-2    1.834924599658684E-2   -9.922034866046288E-3    2.622160899888086E-1    4.820401430316590E-1
 6.517812746525000E9    -2.200121514636729E-1   -6.324239177556936E-3    1.813219825370459E-2   -1.050948036195054E-2    1.842417931005058E-2   -1.001068895877722E-2    2.630084340926377E-1    4.815274211769240E-1
 6.517824603100000E9    -2.197796686488050E-1   -6.404453409523116E-3    1.819367441152146E-2   -1.073997000318335E-2    1.850331995931748E-2   -1.004936125016309E-2    2.639971310530060E-1    4.810844352701183E-1
 6.517836459675000E9    -2.196568318257135E-1   -6.129451619448049E-3    1.838384701073784E-2   -1.079874018333440E-2    1.858424349104202E-2   -1.022610028318629E-2    2.648498429767980E-1    4.805664863701089E-1
 6.517848316250000E9    -2.193890630431062E-1   -6.092259269446055E-3    1.832486623456538E-2   -1.095120881233873E-2    1.868438731537759E-2   -1.037303847775840E-2    2.657258982790363E-1    4.800415384433246E-1
 6.517860172825000E9    -2.193137980388101E-1   -6.023051532686616E-3    1.861715790912798E-2   -1.103317985423054E-2    1.888893945265384E-2   -1.061533307221612E-2    2.665864393167917E-1    4.794650171078417E-1
 6.517872029400000E9    -2.191040913466439E-1   -5.966068909432089E-3    1.853446225305167E-2   -1.116831230809311E-2    1.901759786056771E-2   -1.059904714303330E-2    2.675159911879520E-1    4.790216555611538E-1
 6.517883885975000E9    -2.188736657571889E-1   -5.874270624640371E-3    1.869863216126659E-2   -1.147687090749848E-2    1.904496093891158E-2   -1.078633371635532E-2    2.684795768448935E-1    4.786124734427319E-1
 6.517895742550000E9    -2.186958801990111E-1   -5.703866209468987E-3    1.883136315018434E-2   -1.136377760147753E-2    1.918963117832000E-2   -1.090829112679590E-2    2.691740421852255E-1    4.780056160997662E-1
 6.517907599125000E9    -2.183079920068514E-1   -5.659228857711177E-3    1.893017748297897E-2   -1.171041417712620E-2    1.934338111995619E-2   -1.097578133808869E-2    2.701695203883624E-1    4.775526479456350E-1
 6.517919455700000E9    -2.181940664279653E-1   -5.538192817286080E-3    1.906715361567159E-2   -1.177256878681638E-2    1.947754059544736E-2   -1.113983668397608E-2    2.710125737937142E-1    4.770966825014402E-1
 6.517931312275000E9    -2.180612452611627E-1   -5.408011209091491E-3    1.921587779795102E-2   -1.202660173450035E-2    1.959317652056013E-2   -1.129804797161104E-2    2.718102003369494E-1    4.765733748753649E-1
 6.517943168850000E9    -2.179068491897357E-1   -5.414499891220951E-3    1.931051003770357E-2   -1.208686713168010E-2    1.974229437161790E-2   -1.136506451998390E-2    2.727675266679404E-1    4.759088007307620E-1
 6.517955025425000E9    -2.174963201512722E-1   -5.190368304472693E-3    1.948467783542929E-2   -1.224382593533276E-2    1.984090945003724E-2   -1.154062189878146E-2    2.735660425343848E-1    4.755404461018788E-1
 6.517966882000000E9    -2.173776606256376E-1   -5.230560540122300E-3    1.964524282666747E-2   -1.235589676593520E-2    1.994449527003014E-2   -1.175502405803509E-2    2.745321048628279E-1    4.749595161115279E-1
 6.517978738575000E9    -2.171401510585063E-1   -5.190799197884390E-3    1.968726819176387E-2   -1.248516601021372E-2    2.009629397030725E-2   -1.180693041788764E-2    2.753219131592907E-1    4.744682220036165E-1
 6.517990595150000E9    -2.169777916421220E-1   -5.112110500354172E-3    1.974495913549311E-2   -1.270156405398419E-2    2.011829572770620E-2   -1.207318242841489E-2    2.762421570376964E-1    4.738831093353970E-1
 6.518002451725000E9    -2.166830881065493E-1   -4.952733579571982E-3    1.994093977978000E-2   -1.291953161325711E-2    2.026646918415584E-2   -1.214939233357263E-2    2.772719204922910E-1    4.732811779486325E-1
 6.518014308300000E9    -2.163884066279367E-1   -4.886523806902110E-3    2.007132499771588E-2   -1.306661712890809E-2    2.058317203309486E-2   -1.247890636569399E-2    2.781050543402879E-1    4.726537092245129E-1
 6.518026164875000E9    -2.163034608192671E-1   -4.761746057644369E-3    2.030322474008592E-2   -1.317842837638201E-2    2.054560271526917E-2   -1.250265424915985E-2    2.790768457824406E-1    4.721296277853573E-1
 6.518038021450000E9    -2.158928119535736E-1   -4.809889082267585E-3    2.034312016522392E-2   -1.335492509995309E-2    2.070415877126296E-2   -1.267621334619522E-2    2.798224285739883E-1    4.716018295191776E-1
 6.518049878025000E9    -2.156270904774543E-1   -4.867972820353215E-3    2.039476618290886E-2   -1.347467637550219E-2    2.085411042103572E-2   -1.293680434930264E-2    2.808637981830540E-1    4.711183245497513E-1
 6.518061734600000E9    -2.154672725121177E-1   -4.618838100150054E-3    2.054285350006943E-2   -1.374209638414926E-2    2.104327659994785E-2   -1.295212441543508E-2    2.817110194138093E-1    4.705188652047870E-1
 6.518073591175000E9    -2.153176493692512E-1   -4.592474794800454E-3    2.086485395149246E-2   -1.384309863860072E-2    2.120826416764145E-2   -1.322208944225062E-2    2.825546890888393E-1    4.699243182976464E-1
 6.518085447750000E9    -2.150353132317207E-1   -4.478582161430010E-3    2.073379616386757E-2   -1.401555492681773E-2    2.126558647975763E-2   -1.339793133265155E-2    2.834932950617661E-1    4.692395739853846E-1
