#  HZ   S   RI   R     50.00 
! Rohde & Schwarz Vector Network Analyzer 
! Rohde-Schwarz,ZNB20-2Port,1311601062101988,3.16
! Created: UTC 12/23/2023, 3:36:51 AM
! freq[Hz]                re:S11                  im:S11                  re:S21                  im:S21                  re:S12                  im:S12                  re:S22                  im:S22
 6.517108202000000E9    -2.298850476820456E-1   -1.487280416075788E-2    1.362124363733994E-2   -5.649849340186719E-3    1.365897257877291E-2   -5.229450502308023E-3    2.117292204894439E-1    5.061541509194366E-1
 6.517119699775000E9    -2.299102839169015E-1   -1.476959822853928E-2    1.356646562211731E-2   -5.767658837602500E-3    1.354299049180110E-2   -5.231353605856127E-3    2.126006889841991E-1    5.059272901820855E-1
 6.517131197550000E9    -2.298211630740030E-1   -1.450434669849708E-2    1.361656182373350E-2   -5.777968530239334E-3    1.368030118621742E-2   -5.393182287786735E-3    2.134875982869281E-1    5.054444652023894E-1
 6.517142695325000E9    -2.296816854986479E-1   -1.439689214779116E-2    1.364774302820565E-2   -5.645060253177484E-3    1.363387188558455E-2   -5.384544308929593E-3    2.142886788325911E-1    5.051315944382280E-1
 6.517154193100000E9    -2.294521553420312E-1   -1.415672263899712E-2    1.372537981058384E-2   -6.046545443448975E-3    1.381203739862296E-2   -5.395239528287706E-3    2.150486650878548E-1    5.048045906819283E-1
 6.517165690875000E9    -2.293370319985243E-1   -1.398384590596195E-2    1.372129555923529E-2   -5.902390073220194E-3    1.387063047356531E-2   -5.371949944668377E-3    2.157659150403493E-1    5.044859168571642E-1
 6.517177188650000E9    -2.293484877651554E-1   -1.377982339164026E-2    1.382116307406403E-2   -5.911130627971211E-3    1.393452398863291E-2   -5.441453815275910E-3    2.168763046343785E-1    5.040170522540871E-1
 6.517188686425000E9    -2.290900833041914E-1   -1.370583534269406E-2    1.386783197247169E-2   -6.122589368864407E-3    1.387032347100906E-2   -5.664657587945301E-3    2.176447598965332E-1    5.036296200611660E-1
 6.517200184200000E9    -2.289876829474943E-1   -1.347483303055819E-2    1.403355091519885E-2   -6.179989722028820E-3    1.408268932482701E-2   -5.630521656206467E-3    2.183951112105319E-1    5.034777973370930E-1
 6.517211681975000E9    -2.289617888225199E-1   -1.333411266067496E-2    1.405272034287594E-2   -6.267445901728302E-3    1.406645727883816E-2   -5.709093621242294E-3    2.193154933275104E-1    5.030021223340424E-1
 6.517223179750000E9    -2.287755398949772E-1   -1.313374519000348E-2    1.409391645341600E-2   -6.178360275639621E-3    1.419517057101631E-2   -5.788074360054530E-3    2.200520546051151E-1    5.027001195167011E-1
 6.517234677525000E9    -2.286612202004759E-1   -1.296755867476171E-2    1.401783014887714E-2   -6.272678432671262E-3    1.425191767945169E-2   -5.822117439288806E-3    2.210130503090209E-1    5.023884807188984E-1
 6.517246175300000E9    -2.285490514318465E-1   -1.289908249467139E-2    1.425506632242814E-2   -6.409588333214652E-3    1.436850086620659E-2   -5.874617453621817E-3    2.219065927478480E-1    5.019096641173841E-1
 6.517257673075000E9    -2.283638557289975E-1   -1.270455532668127E-2    1.414616006602919E-2   -6.455518820498900E-3    1.440048529689513E-2   -5.928836470660821E-3    2.226146162876200E-1    5.017207904639757E-1
 6.517269170850000E9    -2.283555020419735E-1   -1.239588206690438E-2    1.430752589036646E-2   -6.466996105338940E-3    1.449962567415164E-2   -5.980451102030114E-3    2.235353402231494E-1    5.013560023024242E-1
 6.517280668625000E9    -2.281879257702265E-1   -1.237849631758199E-2    1.427820280917373E-2   -6.535795736642082E-3    1.456682023392554E-2   -6.036469508272828E-3    2.243252532051665E-1    5.008886050540281E-1
 6.517292166400000E9    -2.279985371958623E-1   -1.212037894092597E-2    1.425803503288344E-2   -6.627714645516767E-3    1.470176501086088E-2   -6.057766042556663E-3    2.253208300908133E-1    5.005092498996572E-1
 6.517303664175000E9    -2.278912235970230E-1   -1.197652523443334E-2    1.452046567105397E-2   -6.735416130501676E-3    1.466758196855333E-2   -6.166619520635843E-3    2.261886249103900E-1    5.001337950540075E-1
 6.517315161950000E9    -2.277895407743458E-1   -1.177660033856182E-2    1.451486742237022E-2   -6.709708866129950E-3    1.471808387343784E-2   -6.187548001796560E-3    2.269886860280984E-1    4.997699624358779E-1
 6.517326659725000E9    -2.276245992801004E-1   -1.173564652257880E-2    1.455487091370553E-2   -6.735206779064893E-3    1.472229142557050E-2   -6.266350624464958E-3    2.278006346483657E-1    4.994797909221347E-1
 6.517338157500000E9    -2.276310938423338E-1   -1.147839495262399E-2    1.474987867801476E-2   -6.915671887804570E-3    1.481559742423135E-2   -6.349427848184600E-3    2.287167142120567E-1    4.990552240517845E-1
 6.517349655275000E9    -2.273093673358264E-1   -1.128224320184491E-2    1.471707346364532E-2   -7.003805513054096E-3    1.481267157539637E-2   -6.392850425704390E-3    2.294446835710723E-1    4.986842057457300E-1
 6.517361153050000E9    -2.272088342584252E-1   -1.110560803394614E-2    1.483840797635804E-2   -7.106424332535604E-3    1.499101366303067E-2   -6.524821160602346E-3    2.303260897308640E-1    4.982612177209536E-1
 6.517372650825000E9    -2.271111429851331E-1   -1.112635883738388E-2    1.479700614423566E-2   -7.159066774548032E-3    1.501550178922294E-2   -6.571565999934932E-3    2.312546565257618E-1    4.978856198901380E-1
 6.517384148600000E9    -2.269520077307894E-1   -1.076638663398421E-2    1.489005454262655E-2   -7.219131681630771E-3    1.513198445622894E-2   -6.629056489262942E-3    2.320496960826085E-1    4.974614715479853E-1
 6.517395646375000E9    -2.267511438787598E-1   -1.066566813262462E-2    1.484306574366612E-2   -7.106398913959596E-3    1.515522742131444E-2   -6.652519015303635E-3    2.328823917131079E-1    4.970577604031787E-1
 6.517407144150000E9    -2.266165221832520E-1   -1.058369410817384E-2    1.505268444137036E-2   -7.155714398655711E-3    1.522523323789868E-2   -6.603095942720156E-3    2.335401211001388E-1    4.968601265040335E-1
 6.517418641925000E9    -2.264835329999166E-1   -1.042727440655640E-2    1.513814516148182E-2   -7.273990557610024E-3    1.524630528080365E-2   -6.840039732387245E-3    2.345552387434054E-1    4.963259639956779E-1
 6.517430139700000E9    -2.263666483277457E-1   -1.024592285003832E-2    1.519784542752407E-2   -7.515776706240531E-3    1.535089050767524E-2   -6.913333554226955E-3    2.353763818268566E-1    4.959584972165722E-1
 6.517441637475000E9    -2.262895897569771E-1   -1.008968387354138E-2    1.516834525069197E-2   -7.408814612048765E-3    1.548407839955727E-2   -6.928368436212886E-3    2.361773549734781E-1    4.955214557888413E-1
 6.517453135250000E9    -2.260733074102603E-1   -9.888926010573776E-3    1.540297970426440E-2   -7.628792097725615E-3    1.552110329699899E-2   -6.870766115324969E-3    2.371183489198372E-1    4.951878998203641E-1
 6.517464633025000E9    -2.260174331803281E-1   -9.743094150863206E-3    1.542404227589515E-2   -7.525818202441494E-3    1.567044466696149E-2   -7.048207330905039E-3    2.380512942308446E-1    4.948502550175579E-1
 6.517476130800000E9    -2.257616861625376E-1   -9.615546282666060E-3    1.525676378591512E-2   -7.525347702444540E-3    1.558318769818342E-2   -7.184566425330755E-3    2.387882718838318E-1    4.944040423826285E-1
 6.517487628575000E9    -2.256910638415459E-1   -9.437036737608795E-3    1.556597115793324E-2   -7.892347136696598E-3    1.581767413572691E-2   -7.294702706375856E-3    2.396769118307167E-1    4.938814713639088E-1
 6.517499126350000E9    -2.255817540068645E-1   -9.371159828020174E-3    1.558145537380628E-2   -7.858084356652318E-3    1.578127458592648E-2   -7.360755572376912E-3    2.404195474568645E-1    4.935648130440560E-1
 6.517510624125000E9    -2.253833323826738E-1   -9.210505397509105E-3    1.560720629273501E-2   -7.860627492978169E-3    1.592728104637113E-2   -7.456750842853500E-3    2.413352793243856E-1    4.932293090396546E-1
 6.517522121900000E9    -2.253177879087267E-1   -9.040771058721149E-3    1.584346926982698E-2   -8.062806934844837E-3    1.594684988336712E-2   -7.505648062616305E-3    2.421058259027844E-1    4.928244216433399E-1
 6.517533619675000E9    -2.251248631187613E-1   -8.834927168280406E-3    1.586105900792999E-2   -8.123413708853959E-3    1.614818844052212E-2   -7.665983037616259E-3    2.428741442091881E-1    4.923085294127457E-1
 6.517545117450000E9    -2.248925412260600E-1   -8.771152483524593E-3    1.593401862599791E-2   -8.265090439051983E-3    1.609443386441140E-2   -7.592520986771053E-3    2.439131015401687E-1    4.918541042984777E-1
 6.517556615225000E9    -2.247921279167937E-1   -8.576361175795391E-3    1.598981659982925E-2   -8.199270426055474E-3    1.623823285735832E-2   -7.674624871322463E-3    2.447503484196716E-1    4.915108759691528E-1
 6.517568113000000E9    -2.246143706571531E-1   -8.363425096726666E-3    1.610586223334404E-2   -8.400759804078485E-3    1.636354547362269E-2   -7.751070328950522E-3    2.456426483969663E-1    4.911595865342505E-1
 6.517579610775000E9    -2.244394584311837E-1   -8.377139238364698E-3    1.616126995039986E-2   -8.354893909111852E-3    1.633794364829085E-2   -7.704784040511136E-3    2.463591556879650E-1    4.907732775363310E-1
 6.517591108550000E9    -2.242344698110283E-1   -8.089794577240383E-3    1.623389849394224E-2   -8.502381987174202E-3    1.646158218002430E-2   -7.866608673733368E-3    2.472767853123267E-1    4.902761542544629E-1
 6.517602606325000E9    -2.240767232680367E-1   -7.996936766063277E-3    1.635678845722961E-2   -8.576150342316763E-3    1.653619325946133E-2   -7.996874982394937E-3    2.481444336999249E-1    4.898905189490516E-1
 6.517614104100000E9    -2.238550934058360E-1   -7.924532954702223E-3    1.622453701240162E-2   -8.604638825112912E-3    1.662082160960256E-2   -8.032154393754258E-3    2.488629744825021E-1    4.894796304193555E-1
 6.517625601875000E9    -2.238059382862065E-1   -7.695904492884316E-3    1.639883408028713E-2   -8.658869780073975E-3    1.670183276012099E-2   -8.187654990127333E-3    2.498820507386185E-1    4.888509787333467E-1
 6.517637099650000E9    -2.236236657390938E-1   -7.686398606297908E-3    1.658210679434674E-2   -8.874281426501048E-3    1.686136079098881E-2   -8.275287744316084E-3    2.508193345040477E-1    4.884212342029725E-1
 6.517648597425000E9    -2.235095925828825E-1   -7.507410969452304E-3    1.661537357340793E-2   -8.882619126363664E-3    1.684123693290294E-2   -8.346445797801571E-3    2.514346038749244E-1    4.881910051773753E-1
 6.517660095200000E9    -2.232909408930255E-1   -7.487161737250219E-3    1.672977580256742E-2   -9.059466190961606E-3    1.708618054570766E-2   -8.437725693366486E-3    2.523366454077305E-1    4.875465911402186E-1
 6.517671592975000E9    -2.231013516320915E-1   -7.291642024604544E-3    1.674429801657554E-2   -9.094390111195835E-3    1.712592128500192E-2   -8.534372341308742E-3    2.532851859320361E-1    4.871294171449271E-1
 6.517683090750000E9    -2.229301353659731E-1   -7.025644408060295E-3    1.691008996916657E-2   -9.278139189019390E-3    1.711602189195511E-2   -8.700240380367326E-3    2.539801360940820E-1    4.867451625961752E-1
 6.517694588525000E9    -2.227658146693019E-1   -6.982930958250133E-3    1.695227901948793E-2   -9.319675109571787E-3    1.729072473036914E-2   -8.673748728535494E-3    2.549838773522272E-1    4.862825670742264E-1
 6.517706086300000E9    -2.226618146954119E-1   -6.726246958788033E-3    1.699981422366189E-2   -9.412841545412304E-3    1.732587053216088E-2   -8.842030684794513E-3    2.558512495786870E-1    4.859248046175460E-1
 6.517717584075000E9    -2.224935604678832E-1   -6.702101932795524E-3    1.714887146349368E-2   -9.490103675215794E-3    1.740504473108851E-2   -9.006619658381653E-3    2.566550208849108E-1    4.855045280336867E-1
 6.517729081850000E9    -2.222980822506135E-1   -6.636902495226529E-3    1.734971550837005E-2   -9.652316136207297E-3    1.749320871521029E-2   -9.121086379621638E-3    2.574915732275850E-1    4.850393856676063E-1
 6.517740579625000E9    -2.220999304936748E-1   -6.396616530077371E-3    1.746992261862798E-2   -9.688322441725199E-3    1.765467465363657E-2   -9.140941887027531E-3    2.581894476493133E-1    4.844093775020500E-1
 6.517752077400000E9    -2.219082658643226E-1   -6.370609810446015E-3    1.741712807502808E-2   -9.925653416627756E-3    1.771340533126280E-2   -9.260434986384439E-3    2.590450053136019E-1    4.840743387027296E-1
 6.517763575175000E9    -2.217328977786690E-1   -6.274913691755585E-3    1.753423978650713E-2   -9.993203402508448E-3    1.777284126124290E-2   -9.350133605848070E-3    2.599074010884741E-1    4.836814331519278E-1
 6.517775072950000E9    -2.215671969462495E-1   -6.137734017492883E-3    1.775680968191844E-2   -9.977895408750402E-3    1.790348534011324E-2   -9.490836783735327E-3    2.609431042478577E-1    4.831576616403881E-1
 6.517786570725000E9    -2.213430324563850E-1   -5.978369684533814E-3    1.779677337761745E-2   -1.016527033925384E-2    1.806590027441449E-2   -9.551132675910705E-3    2.616231194133412E-1    4.826381410431205E-1
 6.517798068500000E9    -2.212123157378694E-1   -5.859991446129051E-3    1.779321170344230E-2   -1.023807262794094E-2    1.820269372518112E-2   -9.658047163394539E-3    2.625106935133952E-1    4.822980224180713E-1
 6.517809566275000E9    -2.210590017456377E-1   -5.780852309765692E-3    1.788887848837142E-2   -1.042863426821181E-2    1.825004576187852E-2   -9.840636928900024E-3    2.633807865757313E-1    4.817386372731792E-1
 6.517821064050000E9    -2.208345180966994E-1   -5.649897886371275E-3    1.801865438562469E-2   -1.051900156726146E-2    1.828816399173685E-2   -9.844803049077373E-3    2.643157184836145E-1    4.813339745758112E-1
 6.517832561825000E9    -2.205897854902419E-1   -5.611418202168553E-3    1.812033005632267E-2   -1.059401755596315E-2    1.844999103696455E-2   -1.006932243892929E-2    2.651495276034176E-1    4.808527547053500E-1
 6.517844059600000E9    -2.205386386722338E-1   -5.434537678198035E-3    1.825613641151916E-2   -1.067588913680415E-2    1.855177339720813E-2   -1.013945443123265E-2    2.659264806403766E-1    4.801702974275199E-1
 6.517855557375000E9    -2.202042789598165E-1   -5.339903043461902E-3    1.839137820934240E-2   -1.094927683534693E-2    1.870145681071787E-2   -1.019352780671580E-2    2.668064381429331E-1    4.798099314137107E-1
 6.517867055150000E9    -2.200676081167211E-1   -5.151549178391536E-3    1.845818072570385E-2   -1.104145350345401E-2    1.878528804053547E-2   -1.037548516962448E-2    2.676074041216551E-1    4.793572794757863E-1
 6.517878552925000E9    -2.197724793746484E-1   -5.145087840941060E-3    1.864909045752608E-2   -1.111327011214372E-2    1.894041523374395E-2   -1.045882021619866E-2    2.685120946690676E-1    4.789969787484360E-1
 6.517890050700000E9    -2.196904229273263E-1   -4.964573060224691E-3    1.859055965795990E-2   -1.126955282372647E-2    1.892580761829698E-2   -1.056661776616365E-2    2.692939246359248E-1    4.782926300401904E-1
 6.517901548475000E9    -2.194484581583225E-1   -4.961194029585950E-3    1.871420963323879E-2   -1.121639817020906E-2    1.912627196865947E-2   -1.072641922849473E-2    2.701241959721873E-1    4.778768335742247E-1
 6.517913046250000E9    -2.192657741017519E-1   -4.889034401093561E-3    1.872117994323816E-2   -1.150482796520800E-2    1.915783059827447E-2   -1.089553721421032E-2    2.710157129275667E-1    4.774068883129107E-1
 6.517924544025000E9    -2.190116958849421E-1   -4.823908397664638E-3    1.898270529992818E-2   -1.159528902788269E-2    1.929057491500218E-2   -1.100292962674718E-2    2.718514759694413E-1    4.766739421014881E-1
 6.517936041800000E9    -2.188112257870510E-1   -4.696897619611512E-3    1.906473703771356E-2   -1.179337690769570E-2    1.940575367703090E-2   -1.108124352866031E-2    2.728113198379523E-1    4.762053382121669E-1
 6.517947539575000E9    -2.186390407124024E-1   -4.675952748799214E-3    1.919051029596329E-2   -1.193227595278653E-2    1.959220654105967E-2   -1.125300710843299E-2    2.736936186906540E-1    4.757579817444323E-1
 6.517959037350000E9    -2.183762718680572E-1   -4.476722625744552E-3    1.931900930781456E-2   -1.192632239246124E-2    1.968492513257194E-2   -1.147427783405468E-2    2.745942422056235E-1    4.753182634543008E-1
 6.517970535125000E9    -2.181187628470160E-1   -4.464816492862985E-3    1.942588059547862E-2   -1.225263685374522E-2    1.998127990146641E-2   -1.155340813706729E-2    2.754229386068928E-1    4.747122194469717E-1
 6.517982032900000E9    -2.179525793600350E-1   -4.371536663914263E-3    1.948505338620795E-2   -1.235861154296324E-2    1.988769017526023E-2   -1.168774480315194E-2    2.762416333939998E-1    4.743105651500288E-1
 6.517993530675000E9    -2.177582102835083E-1   -4.280619609816376E-3    1.960116431966274E-2   -1.249012007599854E-2    1.998553198170631E-2   -1.178273156771921E-2    2.771499568066299E-1    4.738403018930228E-1
 6.518005028450000E9    -2.174561745769859E-1   -4.211786570713505E-3    1.983010875012748E-2   -1.260040888979140E-2    2.017635063747214E-2   -1.198980301041293E-2    2.780239146140622E-1    4.733090423002319E-1
 6.518016526225000E9    -2.173194652261566E-1   -4.129015083693123E-3    1.984274599476327E-2   -1.283443082076813E-2    2.015457581238811E-2   -1.211166452349062E-2    2.787700019346424E-1    4.726127613732526E-1
 6.518028024000000E9    -2.171061946353858E-1   -4.107311611523552E-3    1.991255248155673E-2   -1.287083976854584E-2    2.048242266071792E-2   -1.236229843968736E-2    2.795737904221676E-1    4.721152115332573E-1
 6.518039521775000E9    -2.169410127228200E-1   -4.038489387015833E-3    2.015708597650049E-2   -1.301439122496802E-2    2.065040719694122E-2   -1.245417961869935E-2    2.806153498683894E-1    4.716852934030551E-1
 6.518051019550000E9    -2.166382157962510E-1   -4.092177378726405E-3    2.020288049271024E-2   -1.318539898672114E-2    2.070712173607014E-2   -1.255870526818478E-2    2.814816047427570E-1    4.712553741842450E-1
 6.518062517325000E9    -2.162926945169753E-1   -3.934917872904778E-3    2.035149877455194E-2   -1.342428302027414E-2    2.077317384040694E-2   -1.275990413763606E-2    2.822426217720358E-1    4.705365601882931E-1
 6.518074015100000E9    -2.161889730406478E-1   -3.892609466140643E-3    2.049871511429186E-2   -1.359160440965085E-2    2.099769432126326E-2   -1.291238109285919E-2    2.830725033764717E-1    4.698569294748872E-1
 6.518085512875000E9    -2.159198558678924E-1   -3.860424529765346E-3    2.076625333258161E-2   -1.371529253747625E-2    2.119816207311157E-2   -1.298311228636916E-2    2.840283266689495E-1    4.694486201100688E-1
 6.518097010650000E9    -2.156023628769771E-1   -3.785182941538732E-3    2.092977880322458E-2   -1.392861342686536E-2    2.117695513181929E-2   -1.333672739323613E-2    2.848345025162985E-1    4.688360524358773E-1
 6.518108508425000E9    -2.154827799787916E-1   -3.760142611785704E-3    2.091528692882121E-2   -1.413114111031745E-2    2.129323428110098E-2   -1.341501031905174E-2    2.857908169818638E-1    4.683386509734920E-1
 6.518120006200000E9    -2.152755953512715E-1   -3.723927206404854E-3    2.100775374388647E-2   -1.420852138172277E-2    2.148278547569516E-2   -1.359580013282785E-2    2.866291601689862E-1    4.677827102035446E-1
 6.518131503975000E9    -2.149973246853296E-1   -3.708812088742384E-3    2.120258976020096E-2   -1.452070424032838E-2    2.157148170720412E-2   -1.375337181175031E-2    2.873737258626473E-1    4.671086063862878E-1
 6.518143001750000E9    -2.146778940247368E-1   -3.552202141530238E-3    2.122593793198623E-2   -1.454808201727507E-2    2.178371884085484E-2   -1.401020970521526E-2    2.883030336808617E-1    4.667446663982886E-1
