#  HZ   S   RI   R     50.00 
! Rohde & Schwarz Vector Network Analyzer 
! Rohde-Schwarz,ZNB20-2Port,1311601062101988,3.16
! Created: UTC 12/23/2023, 3:59:22 AM
! freq[Hz]                re:S11                  im:S11                  re:S21                  im:S21                  re:S12                  im:S12                  re:S22                  im:S22
 6.517081664000000E9    -2.296679949045364E-1   -1.542024156569167E-2    1.332116736497988E-2   -5.495787803107262E-3    1.341693116876880E-2   -5.121193602446309E-3    2.089022030085532E-1    5.070529198540585E-1
 6.517093323375000E9    -2.295735082906340E-1   -1.529277976612790E-2    1.341080988747007E-2   -5.623353225336100E-3    1.360416301610210E-2   -5.167664040962179E-3    2.097543716946301E-1    5.067680119805466E-1
 6.517104982750000E9    -2.293093166939018E-1   -1.514757253839143E-2    1.345602412584391E-2   -5.674566825906367E-3    1.361851322117160E-2   -5.217789793991170E-3    2.105780536744412E-1    5.064838260218431E-1
 6.517116642125000E9    -2.293013890000092E-1   -1.490209099965358E-2    1.358695753089184E-2   -5.727633469104596E-3    1.366543733397156E-2   -5.156025270401880E-3    2.114653034637375E-1    5.060972300049615E-1
 6.517128301500000E9    -2.292167174984910E-1   -1.481522351742004E-2    1.366746710388085E-2   -5.672777651099761E-3    1.368141276787663E-2   -5.306205771757641E-3    2.123679333684401E-1    5.058395806447131E-1
 6.517139960875000E9    -2.290020347404698E-1   -1.454948144492281E-2    1.370629984392045E-2   -5.874007150287615E-3    1.381444844804037E-2   -5.300175532651601E-3    2.131393974861791E-1    5.053229948181107E-1
 6.517151620250000E9    -2.289747822785067E-1   -1.432331973235216E-2    1.365108705318487E-2   -5.784689313075121E-3    1.378418988219563E-2   -5.365780507496949E-3    2.141346360624756E-1    5.051415595290963E-1
 6.517163279625000E9    -2.287995368783159E-1   -1.434202915192624E-2    1.362378083244624E-2   -6.001339205040177E-3    1.381428132138862E-2   -5.417218290511993E-3    2.149839791430044E-1    5.046632271598128E-1
 6.517174939000000E9    -2.287831788559651E-1   -1.404717237584710E-2    1.386204431888599E-2   -6.083675416908484E-3    1.384458091415793E-2   -5.532689783360400E-3    2.156805617381113E-1    5.043565856706338E-1
 6.517186598375000E9    -2.286476550608797E-1   -1.386402432907866E-2    1.371386883978501E-2   -6.049893203079733E-3    1.400328169864447E-2   -5.474308384174567E-3    2.164980559169925E-1    5.040138696133664E-1
 6.517198257750000E9    -2.284903282999823E-1   -1.368007479678318E-2    1.384707604146133E-2   -6.155535208650244E-3    1.408990314854468E-2   -5.623078705757387E-3    2.175288350030247E-1    5.037073677736135E-1
 6.517209917125000E9    -2.283432881759024E-1   -1.355205433916218E-2    1.404286023397031E-2   -6.089379835810218E-3    1.407414488587951E-2   -5.603630342848558E-3    2.183660493511667E-1    5.032431636842293E-1
 6.517221576500000E9    -2.281060248988971E-1   -1.332539812129025E-2    1.404766204493778E-2   -6.185718686765113E-3    1.415898494638509E-2   -5.635606318703919E-3    2.191777150782651E-1    5.029092231892374E-1
 6.517233235875000E9    -2.281190940787049E-1   -1.310372070352212E-2    1.416704063991967E-2   -6.262954039373466E-3    1.421276597652075E-2   -5.797256546202982E-3    2.200923736191134E-1    5.025110279056025E-1
 6.517244895250000E9    -2.279709009648508E-1   -1.292821306389461E-2    1.419513815533405E-2   -6.346115084061935E-3    1.427229519424956E-2   -5.882067709426795E-3    2.210536306472960E-1    5.021579711552936E-1
 6.517256554625000E9    -2.278598286118251E-1   -1.280761935557564E-2    1.414104235624410E-2   -6.435230088896537E-3    1.436744518406250E-2   -5.929927630542843E-3    2.218237002693946E-1    5.017878299761673E-1
 6.517268214000000E9    -2.276993713253271E-1   -1.264585954811531E-2    1.430840689292942E-2   -6.622161087030488E-3    1.434893352878967E-2   -5.950149703670283E-3    2.227158571637552E-1    5.014060497580095E-1
 6.517279873375000E9    -2.276548019007248E-1   -1.246113108274705E-2    1.417715577693927E-2   -6.626124291308220E-3    1.440069588119548E-2   -6.000179551545984E-3    2.235145464802982E-1    5.011319516089953E-1
 6.517291532750000E9    -2.273731925398296E-1   -1.227081522608000E-2    1.451188198829803E-2   -6.643708227831782E-3    1.455755714070172E-2   -6.095725103940316E-3    2.245083593162256E-1    5.007483720680903E-1
 6.517303192125000E9    -2.273339922637589E-1   -1.211889917634280E-2    1.443114651765989E-2   -6.576057131905597E-3    1.461842166868847E-2   -6.131468809483603E-3    2.251477413690458E-1    5.002779292642222E-1
 6.517314851500000E9    -2.271925980851922E-1   -1.196112466021006E-2    1.454004294431481E-2   -6.616334888827504E-3    1.463795755503704E-2   -6.131011420854115E-3    2.260433555644063E-1    5.000489522276781E-1
 6.517326510875000E9    -2.269662087525749E-1   -1.180923347841572E-2    1.445651080728231E-2   -6.939748045260132E-3    1.471912402236566E-2   -6.241654516456471E-3    2.269233555253575E-1    4.996259945390443E-1
 6.517338170250000E9    -2.268653352520687E-1   -1.166347709485905E-2    1.461810777771033E-2   -6.839118554989639E-3    1.480503131019317E-2   -6.270545954200539E-3    2.278399792540989E-1    4.990942079755746E-1
 6.517349829625000E9    -2.268209744431664E-1   -1.144088028307252E-2    1.476547896921283E-2   -6.915019199907209E-3    1.483824325942085E-2   -6.369322535167718E-3    2.286307668067862E-1    4.987570158646509E-1
 6.517361489000000E9    -2.265037732493299E-1   -1.130882295394393E-2    1.478883497211310E-2   -6.825160020719897E-3    1.493242863998979E-2   -6.467077899402660E-3    2.294670889362411E-1    4.983449126780648E-1
 6.517373148375000E9    -2.263966951721688E-1   -1.129504340980897E-2    1.481255982153796E-2   -7.111202749010535E-3    1.499077524419603E-2   -6.499132911392345E-3    2.304420733680296E-1    4.979892651310723E-1
 6.517384807750000E9    -2.262691551208013E-1   -1.110387514881968E-2    1.486070617186841E-2   -7.065844290874923E-3    1.502801132556126E-2   -6.590073641689701E-3    2.313094496618018E-1    4.976489831954017E-1
 6.517396467125000E9    -2.262572832343124E-1   -1.079262524855221E-2    1.512660290971455E-2   -6.998807972076963E-3    1.523510083943786E-2   -6.628264143363302E-3    2.321388929269807E-1    4.973909136344263E-1
 6.517408126500000E9    -2.261686331460958E-1   -1.070138792409256E-2    1.508799637728981E-2   -7.237711921026954E-3    1.517303282329684E-2   -6.715886592958368E-3    2.329443743333801E-1    4.968922337576691E-1
 6.517419785875000E9    -2.258633347531849E-1   -1.051952988384104E-2    1.513128018554868E-2   -7.341383244888105E-3    1.521264959591425E-2   -6.805954938485429E-3    2.337481993299945E-1    4.965237108942884E-1
 6.517431445250000E9    -2.257318200667990E-1   -1.028168641257421E-2    1.515818364147811E-2   -7.365764775719284E-3    1.544196474732326E-2   -7.000986174076990E-3    2.345634678998433E-1    4.961381165865631E-1
 6.517443104625000E9    -2.255912639166507E-1   -1.008695831900691E-2    1.534136096930651E-2   -7.537754725023525E-3    1.552344536978676E-2   -7.049072013295577E-3    2.356300507575444E-1    4.957358168066275E-1
 6.517454764000000E9    -2.254856478747274E-1   -1.010818125170808E-2    1.525109683749765E-2   -7.609021784367941E-3    1.552756787829045E-2   -7.069683267432721E-3    2.363839516182611E-1    4.953188363464129E-1
 6.517466423375000E9    -2.252881201766093E-1   -9.832677112504358E-3    1.541078890262293E-2   -7.701577140176052E-3    1.558910718786409E-2   -6.958940199783524E-3    2.371434103567584E-1    4.948827617357724E-1
 6.517478082750000E9    -2.251569819537101E-1   -9.765822119267903E-3    1.547321879715899E-2   -7.718316112810423E-3    1.576648328554608E-2   -7.049905029387132E-3    2.380647978987639E-1    4.944498252660333E-1
 6.517489742125000E9    -2.248861049236642E-1   -9.573123590893786E-3    1.543175944157320E-2   -7.747639939644845E-3    1.578209201779799E-2   -7.311080128142146E-3    2.389419683024457E-1    4.941301036871479E-1
 6.517501401500000E9    -2.248048290929532E-1   -9.507155749677445E-3    1.562058604179068E-2   -7.802926568161812E-3    1.573661019863025E-2   -7.339679631762681E-3    2.398357316217606E-1    4.936534123242435E-1
 6.517513060875000E9    -2.246512583748583E-1   -9.361684798929366E-3    1.570259721448800E-2   -7.909124735209725E-3    1.594634031637557E-2   -7.348916792141410E-3    2.406426517182486E-1    4.934020249479117E-1
 6.517524720250000E9    -2.245431016554327E-1   -9.136242013249007E-3    1.569491210785736E-2   -7.984083472686256E-3    1.592627083259178E-2   -7.493881246715710E-3    2.415416871823387E-1    4.928562345114390E-1
 6.517536379625000E9    -2.243740549699668E-1   -9.023771779293486E-3    1.586854601654115E-2   -7.957991560686443E-3    1.610168922981412E-2   -7.570715209510492E-3    2.424253413398360E-1    4.923823522422061E-1
 6.517548039000000E9    -2.241694180818257E-1   -8.846720237257870E-3    1.595167928592052E-2   -8.151832748824217E-3    1.608706236714848E-2   -7.658071475285619E-3    2.432484121954198E-1    4.920610888560683E-1
 6.517559698375000E9    -2.241275508325650E-1   -8.708906897885393E-3    1.596268524881020E-2   -8.241740130919779E-3    1.617546037017049E-2   -7.657858500567184E-3    2.441476080201126E-1    4.915774600432961E-1
 6.517571357750000E9    -2.238858223049603E-1   -8.579429190351920E-3    1.600768722669367E-2   -8.438102660752959E-3    1.625724454497763E-2   -7.663379248706935E-3    2.449489013139851E-1    4.910843085138877E-1
 6.517583017125000E9    -2.237372914334142E-1   -8.423523306069611E-3    1.623688209716974E-2   -8.435481954092121E-3    1.638967260470399E-2   -7.901774864469479E-3    2.458307098006462E-1    4.907868790507992E-1
 6.517594676500000E9    -2.236606985305909E-1   -8.231038405943233E-3    1.638917354489710E-2   -8.372814332059910E-3    1.646040750573449E-2   -7.968862970536304E-3    2.466949450955855E-1    4.902436461548827E-1
 6.517606335875000E9    -2.234677919178651E-1   -8.147266907840341E-3    1.621630988851551E-2   -8.568647486929140E-3    1.649738291322312E-2   -8.007869690100783E-3    2.475622243119539E-1    4.898780022158847E-1
 6.517617995250000E9    -2.233614709707252E-1   -7.936772479118052E-3    1.636739198242558E-2   -8.669539040807842E-3    1.665487836420616E-2   -8.057812217773960E-3    2.483625300196308E-1    4.894468300120110E-1
 6.517629654625000E9    -2.231001469535608E-1   -7.884593518051892E-3    1.647565724116071E-2   -8.758390484088779E-3    1.660164716226660E-2   -8.242267805755489E-3    2.492592776814321E-1    4.890101792687775E-1
 6.517641314000000E9    -2.229128801279764E-1   -7.797542328577816E-3    1.656865141403136E-2   -8.826216615838885E-3    1.680680413497495E-2   -8.381283166482963E-3    2.500849373103380E-1    4.886508378926244E-1
 6.517652973375000E9    -2.227974930938624E-1   -7.649329480109110E-3    1.676589725615670E-2   -9.016994999588135E-3    1.691293444103190E-2   -8.388358049053298E-3    2.511051454444899E-1    4.880867914760187E-1
 6.517664632750000E9    -2.226393462547981E-1   -7.472421024596205E-3    1.673378425200689E-2   -8.980468866259854E-3    1.709270345146056E-2   -8.413855799678193E-3    2.519699592079667E-1    4.876629547532095E-1
 6.517676292125000E9    -2.223855343704541E-1   -7.339883605142108E-3    1.695051501882024E-2   -9.122113836486820E-3    1.719098929013787E-2   -8.571998146421365E-3    2.526965259897298E-1    4.872652091854485E-1
 6.517687951500000E9    -2.222730604981522E-1   -7.126801208737574E-3    1.695069386276570E-2   -9.264018756718357E-3    1.709655994392475E-2   -8.552517800081646E-3    2.536050973306160E-1    4.868136091994768E-1
 6.517699610875000E9    -2.221604751773499E-1   -7.075445496371216E-3    1.701984260341702E-2   -9.342689992856272E-3    1.731992672419558E-2   -8.820999902768516E-3    2.544065727670975E-1    4.862747950974634E-1
 6.517711270250000E9    -2.219220492518487E-1   -6.981070417007249E-3    1.715158389353388E-2   -9.485505012924535E-3    1.738370875400763E-2   -8.725551877075081E-3    2.552141485780031E-1    4.858906744573998E-1
 6.517722929625000E9    -2.217055999680358E-1   -6.850625546512847E-3    1.723678386403497E-2   -9.471707235564160E-3    1.736903740319332E-2   -8.925370825076219E-3    2.561387989005142E-1    4.853584325038073E-1
 6.517734589000000E9    -2.215739606607777E-1   -6.768715820824764E-3    1.725932666172243E-2   -9.541791798805134E-3    1.755731604407046E-2   -9.013489323382699E-3    2.570908876023648E-1    4.849776426923288E-1
 6.517746248375000E9    -2.213648439043798E-1   -6.657406362342166E-3    1.724705237459462E-2   -9.720220911914372E-3    1.753555555402907E-2   -9.166794952997008E-3    2.578481354409908E-1    4.844774838200268E-1
 6.517757907750000E9    -2.212531698017129E-1   -6.549811172588313E-3    1.727559852422390E-2   -9.826840072350122E-3    1.768856994468026E-2   -9.285639069222421E-3    2.587918926276356E-1    4.839653327603644E-1
 6.517769567125000E9    -2.210304647966706E-1   -6.346245198495729E-3    1.759227751194853E-2   -9.998625299882869E-3    1.776869808678390E-2   -9.313154809442883E-3    2.594639049902764E-1    4.835476922172864E-1
 6.517781226500000E9    -2.208630777524250E-1   -6.282506214636618E-3    1.768670943787130E-2   -1.006489244664740E-2    1.789622892793227E-2   -9.520302066518695E-3    2.606811936055161E-1    4.830801406010555E-1
 6.517792885875000E9    -2.206604686956280E-1   -6.110560114347042E-3    1.776696776248748E-2   -1.034138776522781E-2    1.800488020588302E-2   -9.691581783984710E-3    2.612537681338734E-1    4.825996105409998E-1
 6.517804545250000E9    -2.204728410863969E-1   -6.036837218513817E-3    1.777408842685975E-2   -1.027834236656911E-2    1.809651685346753E-2   -9.741156951425859E-3    2.620957085450626E-1    4.821921794601310E-1
 6.517816204625000E9    -2.204074300245111E-1   -5.892213494348092E-3    1.793374999068923E-2   -1.033266585284150E-2    1.831250138399924E-2   -9.824017689242966E-3    2.631179460247117E-1    4.817952326944097E-1
 6.517827864000000E9    -2.200905085691950E-1   -5.763191624842119E-3    1.800297497383164E-2   -1.043250770376400E-2    1.841490431129432E-2   -1.009352967896072E-2    2.639977670858772E-1    4.811568860216556E-1
 6.517839523375000E9    -2.198589724760150E-1   -5.615816519515993E-3    1.815423563073137E-2   -1.056736607310513E-2    1.848062346241081E-2   -9.950405449752907E-3    2.647737875493951E-1    4.806080425449964E-1
 6.517851182750000E9    -2.198187291123969E-1   -5.579454009935862E-3    1.831979273375431E-2   -1.081025923373288E-2    1.852147551684691E-2   -1.013462540140927E-2    2.656988570224844E-1    4.803173117101808E-1
 6.517862842125000E9    -2.194135778975780E-1   -5.447797868651377E-3    1.839995192105917E-2   -1.087544409261969E-2    1.863910619723806E-2   -1.037402634550020E-2    2.665312510498357E-1    4.797079693510624E-1
 6.517874501500000E9    -2.192820163045501E-1   -5.345572285636608E-3    1.853077393076799E-2   -1.105382412408734E-2    1.883625748566477E-2   -1.033167756720009E-2    2.674343559660617E-1    4.792288682073800E-1
 6.517886160875000E9    -2.189872739790511E-1   -5.382309340173244E-3    1.863989565819732E-2   -1.112619417916632E-2    1.896880053262002E-2   -1.049264702200946E-2    2.680901591036735E-1    4.786962876420346E-1
 6.517897820250000E9    -2.189706709757360E-1   -5.197512935220167E-3    1.862637482898313E-2   -1.124710431928235E-2    1.902315256409940E-2   -1.076867313407144E-2    2.691463206303070E-1    4.781754185397807E-1
 6.517909479625000E9    -2.186127390119431E-1   -5.075213779834910E-3    1.879328954716337E-2   -1.144097346752290E-2    1.908055222990617E-2   -1.084125604250740E-2    2.701041142466978E-1    4.777374892657747E-1
 6.517921139000000E9    -2.184844700038303E-1   -4.910789387423104E-3    1.894163864365190E-2   -1.146879066878875E-2    1.918463775803484E-2   -1.094059241222357E-2    2.708212237605574E-1    4.772311060771598E-1
 6.517932798375000E9    -2.184788103210558E-1   -5.020382984575313E-3    1.899597438625776E-2   -1.167222484802668E-2    1.929687443956542E-2   -1.106010417453810E-2    2.717025581614768E-1    4.767670420720072E-1
 6.517944457750000E9    -2.180983714852537E-1   -4.751958816852256E-3    1.911781940038621E-2   -1.179389078813920E-2    1.946562768769279E-2   -1.117660087566526E-2    2.725206603617368E-1    4.762720979503361E-1
 6.517956117125000E9    -2.178890513921007E-1   -4.774241055398766E-3    1.928982267120997E-2   -1.192390033023181E-2    1.960032751892223E-2   -1.130225366832673E-2    2.733744796554725E-1    4.756996670236687E-1
 6.517967776500000E9    -2.175804402675615E-1   -4.616770459965229E-3    1.929618493620915E-2   -1.203640017560174E-2    1.967538203200950E-2   -1.139604006627651E-2    2.743016271780451E-1    4.752133626283185E-1
 6.517979435875000E9    -2.174982076611874E-1   -4.600579735562222E-3    1.949733078929319E-2   -1.215487333604101E-2    1.984595076655929E-2   -1.165526306759025E-2    2.751157492569111E-1    4.747149780539707E-1
 6.517991095250000E9    -2.173461492677335E-1   -4.454248437683389E-3    1.950922443017325E-2   -1.228951011452426E-2    1.999125608758880E-2   -1.177663514642233E-2    2.760125715889937E-1    4.740064934446497E-1
 6.518002754625000E9    -2.169910300070796E-1   -4.370533922769093E-3    1.974008793664374E-2   -1.255512054434516E-2    2.006049413862876E-2   -1.188112207529736E-2    2.769971519355995E-1    4.735857287543037E-1
 6.518014414000000E9    -2.167528306093584E-1   -4.351822595812447E-3    1.981047669198243E-2   -1.271976831211671E-2    2.024882294615209E-2   -1.205815985600924E-2    2.778591918864451E-1    4.730437486687525E-1
 6.518026073375000E9    -2.164850829789833E-1   -4.212112728594023E-3    1.993673707211273E-2   -1.280493546110361E-2    2.043623564894895E-2   -1.220656054243213E-2    2.786017493091886E-1    4.725041846877509E-1
 6.518037732750000E9    -2.162981534166125E-1   -4.246865648839883E-3    2.013794292378723E-2   -1.288877041660882E-2    2.048091252397913E-2   -1.241295782822641E-2    2.796097407533846E-1    4.720117893684767E-1
 6.518049392125000E9    -2.161333599026756E-1   -4.183078955242984E-3    2.007261323011192E-2   -1.309590898982312E-2    2.052329317347969E-2   -1.256547777674013E-2    2.803818083725799E-1    4.714455544213828E-1
 6.518061051500000E9    -2.158791699178055E-1   -4.144050756832112E-3    2.015691806522216E-2   -1.339454517039768E-2    2.070305238812942E-2   -1.270380977848383E-2    2.813385058495421E-1    4.707444843518714E-1
 6.518072710875000E9    -2.156117039912842E-1   -3.986098803908269E-3    2.031308303894959E-2   -1.341609094173281E-2    2.089489690974319E-2   -1.284219772673144E-2    2.822507152078225E-1    4.702859536627736E-1
 6.518084370250000E9    -2.153843862635477E-1   -3.968995615878080E-3    2.051568369144453E-2   -1.371980362743038E-2    2.106884282672540E-2   -1.302264539808597E-2    2.829883020741320E-1    4.697089247080989E-1
 6.518096029625000E9    -2.151785170074604E-1   -3.941152947960247E-3    2.072807169721815E-2   -1.389456442540950E-2    2.114177029760983E-2   -1.311923336718963E-2    2.838619179286181E-1    4.692555303784656E-1
 6.518107689000000E9    -2.149457911777137E-1   -3.875353573113143E-3    2.089175149130777E-2   -1.406979002829373E-2    2.134771266629349E-2   -1.338520084692205E-2    2.847279433468778E-1    4.687036498948088E-1
 6.518119348375000E9    -2.146143301510525E-1   -3.881979425230271E-3    2.084865334842407E-2   -1.424142918644273E-2    2.141802473616397E-2   -1.352749706525245E-2    2.856134078288222E-1    4.681277389139654E-1
 6.518131007750000E9    -2.143642676304209E-1   -3.834949254327022E-3    2.113575774350110E-2   -1.437576631216317E-2    2.144347706959485E-2   -1.374407189463357E-2    2.866033014527236E-1    4.674754140082166E-1
