#  HZ   S   RI   R     50.00 
! Rohde & Schwarz Vector Network Analyzer 
! Rohde-Schwarz,ZNB20-2Port,1311601062101988,3.16
! Created: UTC 12/23/2023, 4:01:45 AM
! freq[Hz]                re:S11                  im:S11                  re:S21                  im:S21                  re:S12                  im:S12                  re:S22                  im:S22
 6.517161709000000E9    -2.291312129957195E-1   -1.376304300893872E-2    1.351104703989770E-2   -5.771699665239089E-3    1.369913822805423E-2   -5.255855829667456E-3    2.147380155118843E-1    5.048722422999744E-1
 6.517173110425000E9    -2.290401634394128E-1   -1.365003333495594E-2    1.354256649307969E-2   -5.803293231995025E-3    1.372675359727056E-2   -5.322810784284269E-3    2.155254243049567E-1    5.043596932019394E-1
 6.517184511850000E9    -2.288743200857546E-1   -1.347253987973392E-2    1.361102952462655E-2   -5.948040839370478E-3    1.381306991603413E-2   -5.427298141740964E-3    2.163057777182823E-1    5.040514027348103E-1
 6.517195913275000E9    -2.287683569844721E-1   -1.324096195229807E-2    1.373942891148852E-2   -5.928102352258482E-3    1.388604253697227E-2   -5.528336895641453E-3    2.173278185053268E-1    5.038692173549140E-1
 6.517207314700000E9    -2.287420666347346E-1   -1.298232839043555E-2    1.386186396922997E-2   -5.957294756117276E-3    1.394901873879415E-2   -5.600808175057405E-3    2.180387172422700E-1    5.034473432921339E-1
 6.517218716125000E9    -2.284209471389726E-1   -1.294989993713236E-2    1.391517436856416E-2   -5.984367599000901E-3    1.393321853285152E-2   -5.626036888758987E-3    2.189344128426910E-1    5.031542279842267E-1
 6.517230117550000E9    -2.285226864379841E-1   -1.264105070822774E-2    1.391332061421531E-2   -6.109307963645101E-3    1.405853974208787E-2   -5.720497108027544E-3    2.196686638149913E-1    5.027904588848854E-1
 6.517241518975000E9    -2.282829766669654E-1   -1.254715072428832E-2    1.402789398370649E-2   -6.203193798878568E-3    1.412727638147509E-2   -5.555760093863335E-3    2.205405686632575E-1    5.023951629500291E-1
 6.517252920400000E9    -2.281208819300287E-1   -1.230076515982241E-2    1.405567698643753E-2   -6.190076787455878E-3    1.417343991388871E-2   -5.770825950864570E-3    2.214219148112349E-1    5.020917310696459E-1
 6.517264321825000E9    -2.280817146238383E-1   -1.233342603502984E-2    1.398869082140692E-2   -6.304370828051097E-3    1.414526345095798E-2   -5.735530559459721E-3    2.223559584273323E-1    5.015761413327134E-1
 6.517275723250000E9    -2.278642652999172E-1   -1.195412694142811E-2    1.425537340661141E-2   -6.426175136542832E-3    1.438389762243746E-2   -5.821339773209076E-3    2.230852390508598E-1    5.013162267199076E-1
 6.517287124675000E9    -2.278241563607489E-1   -1.191168770755013E-2    1.414008495671755E-2   -6.405924811980367E-3    1.439691938995824E-2   -5.869054626537716E-3    2.238115385897431E-1    5.010470799391995E-1
 6.517298526100000E9    -2.276479480547469E-1   -1.168419279947562E-2    1.427997612836238E-2   -6.495611402599358E-3    1.433510921192601E-2   -6.006970653794196E-3    2.247699102976050E-1    5.006333107440989E-1
 6.517309927525000E9    -2.275279484212323E-1   -1.159061581422954E-2    1.427354208967985E-2   -6.397268515779427E-3    1.445117096595296E-2   -6.021428085520258E-3    2.256200078090616E-1    5.002775400310219E-1
 6.517321328950000E9    -2.273433501932450E-1   -1.137948759123073E-2    1.441391351036468E-2   -6.729876380625448E-3    1.449811040745274E-2   -6.104319040424608E-3    2.264308179366838E-1    4.998811821287600E-1
 6.517332730375000E9    -2.272057448880075E-1   -1.111080922830242E-2    1.438597989202333E-2   -6.576011904701901E-3    1.468494603251492E-2   -6.084580082303139E-3    2.274133198899924E-1    4.994209836417789E-1
 6.517344131800000E9    -2.271345564809969E-1   -1.101664647536153E-2    1.457581617116105E-2   -6.811546114711562E-3    1.460884255773011E-2   -6.262278386216536E-3    2.280949944727241E-1    4.991438136236818E-1
 6.517355533225000E9    -2.269081465743647E-1   -1.098818683146242E-2    1.457633801427671E-2   -6.642156291462893E-3    1.476766217713671E-2   -6.329160573011046E-3    2.289788034119701E-1    4.987615290069319E-1
 6.517366934650000E9    -2.267374547036023E-1   -1.077285384844883E-2    1.463106634918804E-2   -6.811756775828565E-3    1.479051192122025E-2   -6.343548715435787E-3    2.298190873282156E-1    4.983880465387395E-1
 6.517378336075000E9    -2.267496987260701E-1   -1.046069958329209E-2    1.468265396349568E-2   -6.844730586987216E-3    1.478613750007391E-2   -6.359583026557032E-3    2.307087149602403E-1    4.980056158226548E-1
 6.517389737500000E9    -2.265321772927167E-1   -1.042853658928383E-2    1.470769405676468E-2   -7.012719587519493E-3    1.497801159071923E-2   -6.456998713887813E-3    2.315394084230322E-1    4.976824205375678E-1
 6.517401138925000E9    -2.264100129722278E-1   -1.028726798657254E-2    1.478334923892674E-2   -7.205280277703325E-3    1.497491644722763E-2   -6.556705440853215E-3    2.322294697794694E-1    4.971768173949587E-1
 6.517412540350000E9    -2.263547595346044E-1   -1.015793136303093E-2    1.484487319000030E-2   -7.089515752551208E-3    1.505959102317458E-2   -6.579301441634955E-3    2.331351923277062E-1    4.968595275476119E-1
 6.517423941775000E9    -2.261954576346461E-1   -9.990844436933276E-3    1.493731602399174E-2   -7.036611130361864E-3    1.514795336993615E-2   -6.616262199278534E-3    2.340784803904322E-1    4.964866769070214E-1
 6.517435343200000E9    -2.259985484716169E-1   -9.798236120706237E-3    1.502725211821734E-2   -7.240427737729714E-3    1.519503751057997E-2   -6.727725415607858E-3    2.348258976368194E-1    4.960920953952601E-1
 6.517446744625000E9    -2.259086605897968E-1   -9.688117962118306E-3    1.505043290430327E-2   -7.293690834268926E-3    1.522243050660513E-2   -6.845786504807929E-3    2.356605535009330E-1    4.957201396107463E-1
 6.517458146050000E9    -2.256590019287710E-1   -9.431901165654720E-3    1.516237486637955E-2   -7.302295191563469E-3    1.537288110057686E-2   -6.760226692270908E-3    2.364974430970549E-1    4.952207527754056E-1
 6.517469547475000E9    -2.255545584819013E-1   -9.389630716452222E-3    1.526576453975527E-2   -7.409662912320696E-3    1.544423458973558E-2   -6.927001869836796E-3    2.373519507421469E-1    4.949087700589720E-1
 6.517480948900000E9    -2.254682042116981E-1   -9.185259484985390E-3    1.520925078005375E-2   -7.516468708007116E-3    1.553466924907951E-2   -6.975011842135341E-3    2.381259469913669E-1    4.945150953620028E-1
 6.517492350325000E9    -2.253474754489607E-1   -9.034849598425527E-3    1.522053087621048E-2   -7.557139661133421E-3    1.557828284758999E-2   -7.040858425951788E-3    2.390550070820266E-1    4.941556816496883E-1
 6.517503751750000E9    -2.251549751115237E-1   -8.969452057086599E-3    1.547856218473821E-2   -7.650191032481793E-3    1.566656414027185E-2   -7.089803127002198E-3    2.398852166236715E-1    4.936358126088253E-1
 6.517515153175000E9    -2.250028829016066E-1   -8.699824437021832E-3    1.561220895368183E-2   -7.743482165186665E-3    1.568302950076583E-2   -7.249252303570358E-3    2.407182342329795E-1    4.932242172299454E-1
 6.517526554600000E9    -2.248436829464068E-1   -8.591533322198881E-3    1.560719442572258E-2   -7.749990384792226E-3    1.583577764093266E-2   -7.262078725927395E-3    2.415468681274104E-1    4.928863694801418E-1
 6.517537956025000E9    -2.247091732567912E-1   -8.457687040300083E-3    1.567239543909143E-2   -7.993237641582775E-3    1.592982432121980E-2   -7.309827294244480E-3    2.422789275129847E-1    4.925702666423856E-1
 6.517549357450000E9    -2.245964262974172E-1   -8.326120652371084E-3    1.573406848574936E-2   -7.989921252609425E-3    1.595538102181777E-2   -7.543797137907974E-3    2.432947665469322E-1    4.920180348110922E-1
 6.517560758875000E9    -2.243246285951344E-1   -8.076515460151200E-3    1.578196442263064E-2   -7.965030931779998E-3    1.605054195808613E-2   -7.556138629742458E-3    2.440306141614911E-1    4.917543135836911E-1
 6.517572160300000E9    -2.243238329721878E-1   -7.994848037433121E-3    1.577217272415012E-2   -8.055944546409764E-3    1.600194301079839E-2   -7.547236709725598E-3    2.447355257622923E-1    4.913295435548418E-1
 6.517583561725000E9    -2.240679885062033E-1   -7.785645311241120E-3    1.595313762045664E-2   -8.226727300047853E-3    1.618344230846793E-2   -7.690828223339923E-3    2.456106431163124E-1    4.907931852195952E-1
 6.517594963150000E9    -2.239962106475451E-1   -7.784885381201115E-3    1.606687688475758E-2   -8.243771454690671E-3    1.637795230954101E-2   -7.843707213876547E-3    2.464890699267319E-1    4.905003873975116E-1
 6.517606364575000E9    -2.238663406744154E-1   -7.520992198481177E-3    1.597362444132452E-2   -8.266028796858517E-3    1.640198908311750E-2   -7.855752864702708E-3    2.473353495448477E-1    4.899438187615638E-1
 6.517617766000000E9    -2.236540679870147E-1   -7.425691767508849E-3    1.622397253160211E-2   -8.390409949684690E-3    1.639695974592449E-2   -7.872147962970708E-3    2.482101942227261E-1    4.896331274971590E-1
 6.517629167425000E9    -2.233582749081065E-1   -7.234199209525461E-3    1.633870723806006E-2   -8.490050629408743E-3    1.645920215326252E-2   -7.996279787204299E-3    2.490785552856852E-1    4.893622988128320E-1
 6.517640568850000E9    -2.232970207315432E-1   -7.051786042272226E-3    1.641485262052257E-2   -8.669850887239322E-3    1.657382965282449E-2   -8.116604821122036E-3    2.499193748928092E-1    4.885541540117092E-1
 6.517651970275000E9    -2.232636245127380E-1   -6.893433854611571E-3    1.656802687727960E-2   -8.726878114401308E-3    1.655422323174287E-2   -8.161895571453455E-3    2.508456188945782E-1    4.884552881584827E-1
 6.517663371700000E9    -2.230466061102734E-1   -6.800801832367667E-3    1.647383546327898E-2   -8.768453844204554E-3    1.673597951069859E-2   -8.366637946677089E-3    2.516512836926955E-1    4.880070825069561E-1
 6.517674773125000E9    -2.228450953274132E-1   -6.768741931700462E-3    1.654240668998472E-2   -8.783476741186418E-3    1.680924278110164E-2   -8.339744479392478E-3    2.524472316988828E-1    4.875256449161604E-1
 6.517686174550000E9    -2.226554684125193E-1   -6.642008286866674E-3    1.660876663462050E-2   -8.861508170482483E-3    1.698237526813124E-2   -8.477331722802108E-3    2.534545700212342E-1    4.869722541121467E-1
 6.517697575975000E9    -2.225956761262246E-1   -6.536461442702534E-3    1.670259786741927E-2   -9.052838478740284E-3    1.698080278479081E-2   -8.527972923197803E-3    2.541276268763797E-1    4.865624669394409E-1
 6.517708977400000E9    -2.223104878759356E-1   -6.340715653325136E-3    1.683211042172524E-2   -9.151446724252204E-3    1.704294106103635E-2   -8.685273552649603E-3    2.550328590927198E-1    4.860939180757002E-1
 6.517720378825000E9    -2.222537137727902E-1   -6.325422797981283E-3    1.686924902154538E-2   -9.372621676898339E-3    1.718539275779441E-2   -8.663346555742276E-3    2.558761057889890E-1    4.858119476528175E-1
 6.517731780250000E9    -2.220158587304447E-1   -6.125260871499473E-3    1.702606258675297E-2   -9.371690422467863E-3    1.727364477555887E-2   -8.819502051460435E-3    2.566740976575402E-1    4.851868682236449E-1
 6.517743181675000E9    -2.219058464770392E-1   -6.050754356010656E-3    1.708327144201157E-2   -9.480957374531468E-3    1.744266315501600E-2   -8.852715608968357E-3    2.575143221372381E-1    4.848907755069065E-1
 6.517754583100000E9    -2.216825115473710E-1   -5.909854955976263E-3    1.723631799657379E-2   -9.549503535690788E-3    1.750567780562249E-2   -8.896684324151076E-3    2.583659090345696E-1    4.843112811107003E-1
 6.517765984525000E9    -2.214871864863796E-1   -5.794201519169093E-3    1.726928737052443E-2   -9.593934413288475E-3    1.756930141670426E-2   -9.093374027199392E-3    2.591296454013366E-1    4.839661332964271E-1
 6.517777385950000E9    -2.212627729646651E-1   -5.537838312968502E-3    1.738414606276969E-2   -9.872265932511079E-3    1.762567439191180E-2   -9.200446164416639E-3    2.599563856432530E-1    4.834747489707770E-1
 6.517788787375000E9    -2.210285276096867E-1   -5.477036925464022E-3    1.747695616938868E-2   -9.790858773001490E-3    1.772440472799422E-2   -9.317772689011737E-3    2.609078328863361E-1    4.830307731380205E-1
 6.517800188800000E9    -2.208417557002700E-1   -5.309356439759575E-3    1.744536949522928E-2   -9.949540940432149E-3    1.776396499780527E-2   -9.444941878782451E-3    2.617345895311725E-1    4.825574891976261E-1
 6.517811590225000E9    -2.207708923372747E-1   -5.311474126402973E-3    1.762311084852497E-2   -1.004648922764300E-2    1.792520439801190E-2   -9.479172218497461E-3    2.625566681124997E-1    4.820816612560626E-1
 6.517822991650000E9    -2.205943093850088E-1   -5.130819216513318E-3    1.768295447008766E-2   -1.015532449537853E-2    1.804024521758077E-2   -9.573824793522315E-3    2.632763274981587E-1    4.816953661219416E-1
 6.517834393075000E9    -2.203226591213133E-1   -5.034566743282190E-3    1.789944185134862E-2   -1.027914863818133E-2    1.820749830574580E-2   -9.706193194220390E-3    2.642264903390739E-1    4.811139536237964E-1
 6.517845794500000E9    -2.203093193197754E-1   -5.002784425393398E-3    1.787025291728138E-2   -1.057001585762800E-2    1.820325115341229E-2   -9.814486903477092E-3    2.651198781401317E-1    4.806742206181790E-1
 6.517857195925000E9    -2.200168682614469E-1   -4.937004914357469E-3    1.808689564178786E-2   -1.068950653995685E-2    1.837224550947666E-2   -9.935383387757124E-3    2.659236086305365E-1    4.801885476656819E-1
 6.517868597350000E9    -2.198258775965866E-1   -4.814388021512590E-3    1.815635465724685E-2   -1.057395745527239E-2    1.845974790780749E-2   -1.000464226735589E-2    2.668563403540232E-1    4.798744729372847E-1
 6.517879998775000E9    -2.195431014195875E-1   -4.540672949252076E-3    1.811292157954628E-2   -1.082587268393906E-2    1.853608828945738E-2   -1.015889844061292E-2    2.676509581862917E-1    4.792860308481914E-1
 6.517891400200000E9    -2.194212404415187E-1   -4.634650089978072E-3    1.836997617082888E-2   -1.078434619200990E-2    1.865643631873635E-2   -1.031980215585462E-2    2.684149097722497E-1    4.788515621794766E-1
 6.517902801625000E9    -2.193404168877580E-1   -4.521707243098448E-3    1.847360903758653E-2   -1.100006595429685E-2    1.883882693872892E-2   -1.043182875753622E-2    2.693472631041282E-1    4.781688641565618E-1
 6.517914203050000E9    -2.189979531711248E-1   -4.385981531280960E-3    1.864067157772594E-2   -1.110775184109585E-2    1.894895018515815E-2   -1.050905945247139E-2    2.700847877815317E-1    4.777607985682666E-1
 6.517925604475000E9    -2.188360986756587E-1   -4.334222838701692E-3    1.862723326939973E-2   -1.123316762841603E-2    1.893062754619159E-2   -1.063386929811142E-2    2.709276232038076E-1    4.773217516028921E-1
 6.517937005900000E9    -2.186874916456716E-1   -4.081224912900571E-3    1.869373547562822E-2   -1.138947024134894E-2    1.911260573131164E-2   -1.076023423333300E-2    2.718367213377344E-1    4.770424901233977E-1
 6.517948407325000E9    -2.184185328744791E-1   -3.934024416425874E-3    1.881671781132902E-2   -1.170160665226321E-2    1.918807021923414E-2   -1.086056917359762E-2    2.726693450582259E-1    4.762979838767284E-1
 6.517959808750000E9    -2.181756923163650E-1   -4.111246512463048E-3    1.890735374281357E-2   -1.171291741210497E-2    1.932779241389715E-2   -1.107752273333916E-2    2.734382289855963E-1    4.756222707328083E-1
 6.517971210175000E9    -2.181231560421459E-1   -3.898795607853874E-3    1.902391109414215E-2   -1.185868321928736E-2    1.948378000217551E-2   -1.112056064773804E-2    2.744133976826507E-1    4.754189985945116E-1
 6.517982611600000E9    -2.177478885691023E-1   -3.799490280801383E-3    1.921419683610058E-2   -1.198231250545597E-2    1.949783901405017E-2   -1.135316828076621E-2    2.752895110515247E-1    4.749364390584244E-1
 6.517994013025000E9    -2.176261976410044E-1   -3.760280903908272E-3    1.932193030234858E-2   -1.211246409418125E-2    1.963598476192473E-2   -1.139579175096094E-2    2.761419342910850E-1    4.742986812342023E-1
 6.518005414450000E9    -2.173245818567920E-1   -3.557305634148179E-3    1.946782201078258E-2   -1.218315026388222E-2    1.984075027408069E-2   -1.158699334128275E-2    2.768553708339440E-1    4.737380080916596E-1
 6.518016815875000E9    -2.172040997755513E-1   -3.570039478908035E-3    1.951973914074869E-2   -1.243153921581599E-2    1.991038192145326E-2   -1.171301563809660E-2    2.777115919784398E-1    4.733513099129443E-1
 6.518028217300000E9    -2.168715339210694E-1   -3.611888884474806E-3    1.959045692755582E-2   -1.244724368416399E-2    2.008691313384674E-2   -1.186307420692043E-2    2.784320576332637E-1    4.728373023087658E-1
 6.518039618725000E9    -2.167517376225133E-1   -3.374109051470756E-3    1.965812044312054E-2   -1.275287439009620E-2    2.027228440546895E-2   -1.204331203107874E-2    2.794995013986804E-1    4.722979913733271E-1
 6.518051020150000E9    -2.165108391355292E-1   -3.384181393204076E-3    1.983636584218217E-2   -1.272396887212306E-2    2.040043637735797E-2   -1.218044727755692E-2    2.804010153538265E-1    4.717005332982411E-1
 6.518062421575000E9    -2.163027649534217E-1   -3.332073474636699E-3    2.006077609284738E-2   -1.280644263054526E-2    2.046553830710706E-2   -1.226124374336869E-2    2.812313903098823E-1    4.712726194453217E-1
 6.518073823000000E9    -2.160903857632738E-1   -3.229377008850153E-3    2.017037199829626E-2   -1.305808935114811E-2    2.052334994235881E-2   -1.249507215400173E-2    2.819152241940188E-1    4.706157536447949E-1
 6.518085224425000E9    -2.158592435743893E-1   -3.201783035989022E-3    2.010840553536393E-2   -1.321030142702758E-2    2.070929557003836E-2   -1.260514635014212E-2    2.827484539257619E-1    4.701677298575603E-1
 6.518096625850000E9    -2.156331399289083E-1   -3.088149853409099E-3    2.045047001564685E-2   -1.335174854936344E-2    2.079670812838451E-2   -1.285762646658564E-2    2.836530794673610E-1    4.696177236453631E-1
 6.518108027275000E9    -2.154293226298775E-1   -3.000814903995742E-3    2.042530767223771E-2   -1.364302918828213E-2    2.089598252570206E-2   -1.294769024410714E-2    2.844561950740708E-1    4.689546594134555E-1
 6.518119428700000E9    -2.151131269729888E-1   -3.031973623659091E-3    2.056839966338887E-2   -1.383690140124053E-2    2.119789401019282E-2   -1.307068045920201E-2    2.853561139265550E-1    4.684183590151147E-1
 6.518130830125000E9    -2.149169854460942E-1   -3.050028106705046E-3    2.072555941561724E-2   -1.390466273407070E-2    2.129887153128222E-2   -1.320598596404133E-2    2.862419992957013E-1    4.678593746359727E-1
 6.518142231550000E9    -2.146897475873516E-1   -2.963695764225300E-3    2.100243880138071E-2   -1.405650721786362E-2    2.136266264128257E-2   -1.351488582499959E-2    2.871062773056623E-1    4.673735102691344E-1
 6.518153632975000E9    -2.143933759992320E-1   -2.901869269827124E-3    2.105372447076695E-2   -1.421498012806139E-2    2.147558209100095E-2   -1.357643787626227E-2    2.880893135024168E-1    4.667654462511212E-1
 6.518165034400000E9    -2.141140826257359E-1   -2.782068836710482E-3    2.129816117504979E-2   -1.451951258867921E-2    2.156488833171883E-2   -1.394736098822975E-2    2.888583997666828E-1    4.662461315217699E-1
 6.518176435825000E9    -2.137572906541999E-1   -2.813524569669977E-3    2.134835826679955E-2   -1.457825566654787E-2    2.170566034209990E-2   -1.401898612124273E-2    2.895908618035054E-1    4.656529218552192E-1
 6.518187837250000E9    -2.137203542816355E-1   -2.736898557922556E-3    2.143099224745318E-2   -1.486261077330192E-2    2.194014917910214E-2   -1.414198390819081E-2    2.905024557868976E-1    4.650971651107974E-1
