#  HZ   S   RI   R     50.00 
! Rohde & Schwarz Vector Network Analyzer 
! Rohde-Schwarz,ZNB20-2Port,1311601062101988,3.16
! Created: UTC 12/23/2023, 3:43:10 AM
! freq[Hz]                re:S11                  im:S11                  re:S21                  im:S21                  re:S12                  im:S12                  re:S22                  im:S22
 6.516983027000000E9    -2.305819993550668E-1   -1.768824799639158E-2    1.315322067039465E-2   -5.380050849405929E-3    1.324557060353348E-2   -4.808051808276799E-3    2.022355979385681E-1    5.096608633982900E-1
 6.516994902575000E9    -2.304290438554045E-1   -1.747086257809290E-2    1.320993773689325E-2   -5.358534141505921E-3    1.333358641875975E-2   -4.977979310592297E-3    2.032591157786817E-1    5.092876879905061E-1
 6.517006778150000E9    -2.304302600947929E-1   -1.719518292923570E-2    1.339162924748418E-2   -5.362588452848163E-3    1.333773291456147E-2   -4.923278010068716E-3    2.041038510996492E-1    5.089533778117828E-1
 6.517018653725000E9    -2.302974159579914E-1   -1.710641757842523E-2    1.329624387194148E-2   -5.527563502024555E-3    1.345245794454298E-2   -5.005643515767167E-3    2.049384822910038E-1    5.085250457297531E-1
 6.517030529300000E9    -2.300134847225152E-1   -1.681561254274300E-2    1.333464660065063E-2   -5.491512453288742E-3    1.355759252424978E-2   -5.132113982553249E-3    2.059303166263128E-1    5.083201039265193E-1
 6.517042404875000E9    -2.300801433097242E-1   -1.670279019657095E-2    1.344896419774757E-2   -5.671537851277753E-3    1.352503266447812E-2   -5.076547571498582E-3    2.066683942998762E-1    5.078372062930273E-1
 6.517054280450000E9    -2.299396856081517E-1   -1.650653533908622E-2    1.333643842684858E-2   -5.569181182117839E-3    1.368653893709372E-2   -5.166227323917061E-3    2.076371877076279E-1    5.075358198363596E-1
 6.517066156025000E9    -2.297913183723524E-1   -1.632355642926111E-2    1.354255648446312E-2   -5.677495822737401E-3    1.361724130760331E-2   -5.240086976746478E-3    2.085547497421760E-1    5.073822530407066E-1
 6.517078031600000E9    -2.296755312756814E-1   -1.613331605306772E-2    1.356055147762867E-2   -5.752632954071427E-3    1.383109307934212E-2   -5.145371045863550E-3    2.094312804274469E-1    5.069386963938302E-1
 6.517089907175000E9    -2.295403203075887E-1   -1.599093145122740E-2    1.380084151391841E-2   -5.682977829827628E-3    1.371010081281760E-2   -5.301074723494377E-3    2.101345897941488E-1    5.066281902028010E-1
 6.517101782750000E9    -2.293678226193557E-1   -1.579005366434238E-2    1.366540340382009E-2   -5.767980899008474E-3    1.379871224974442E-2   -5.362499511991483E-3    2.111612751222859E-1    5.062466864745149E-1
 6.517113658325000E9    -2.293381576298896E-1   -1.556415994500455E-2    1.389620112762035E-2   -5.988608840429501E-3    1.393466095739983E-2   -5.402344177468392E-3    2.119992372985922E-1    5.057573026274497E-1
 6.517125533900000E9    -2.291874516593952E-1   -1.550768285127075E-2    1.376343304734113E-2   -5.900917623860706E-3    1.391160016124476E-2   -5.486383625130132E-3    2.128673260768369E-1    5.055100286557836E-1
 6.517137409475000E9    -2.289660195444801E-1   -1.527567257703163E-2    1.396615164321624E-2   -5.943172121754123E-3    1.405906061624912E-2   -5.492871805363189E-3    2.136402857266776E-1    5.051755733183291E-1
 6.517149285050000E9    -2.289962119302331E-1   -1.500454989560880E-2    1.398804632313176E-2   -5.989434250481817E-3    1.416533746189320E-2   -5.648877141426986E-3    2.145862411088876E-1    5.048254502081410E-1
 6.517161160625000E9    -2.288019612990009E-1   -1.487152913061811E-2    1.415081979128142E-2   -6.126685312114145E-3    1.412890286800791E-2   -5.544527463327751E-3    2.154669188292654E-1    5.044479103019297E-1
 6.517173036200000E9    -2.286924672980236E-1   -1.476362604462511E-2    1.413626715014528E-2   -6.204739263370325E-3    1.434279848934142E-2   -5.658699057446962E-3    2.163061564500274E-1    5.040822752357668E-1
 6.517184911775000E9    -2.285362208279284E-1   -1.450393207545239E-2    1.409470014580165E-2   -6.124917079870925E-3    1.427633761341004E-2   -5.707302478445980E-3    2.171637717016996E-1    5.037200397959838E-1
 6.517196787350000E9    -2.284220408914538E-1   -1.435476772456238E-2    1.422602821551722E-2   -6.296162466324325E-3    1.436049843277113E-2   -5.838367866279120E-3    2.183745479627264E-1    5.032698592272511E-1
 6.517208662925000E9    -2.282666329372852E-1   -1.412150582844955E-2    1.423849251585147E-2   -6.118356601390951E-3    1.450744353246703E-2   -5.890254842332606E-3    2.188814966016499E-1    5.029827663140620E-1
 6.517220538500000E9    -2.281317695170623E-1   -1.407788021306661E-2    1.438197539835761E-2   -6.501044799970946E-3    1.455115765972719E-2   -5.967262294935404E-3    2.198267035615474E-1    5.026217472097602E-1
 6.517232414075000E9    -2.280073630183492E-1   -1.381326912025355E-2    1.442830079208466E-2   -6.478263566471280E-3    1.461715015497320E-2   -6.027288763624486E-3    2.205979020104085E-1    5.022015876987130E-1
 6.517244289650000E9    -2.279230004745582E-1   -1.369735463075738E-2    1.443942326846387E-2   -6.523369342780458E-3    1.447777055249033E-2   -6.072978580357353E-3    2.216259702122124E-1    5.018430395546233E-1
 6.517256165225000E9    -2.277304991420124E-1   -1.356881496935548E-2    1.453260880409433E-2   -6.631094513541681E-3    1.464882785508328E-2   -6.092720526413587E-3    2.223958873064317E-1    5.014625789811876E-1
 6.517268040800000E9    -2.275081697720322E-1   -1.327154959485505E-2    1.450367205025496E-2   -6.722314569962939E-3    1.468323644036098E-2   -6.123528938420525E-3    2.233059298522069E-1    5.012067902374737E-1
 6.517279916375000E9    -2.274999691725684E-1   -1.325988659247954E-2    1.453929108651304E-2   -6.701647619572596E-3    1.487859075435824E-2   -6.250366504425129E-3    2.241927618342358E-1    5.006823192130794E-1
 6.517291791950000E9    -2.273595032966298E-1   -1.298993852177880E-2    1.481658984823950E-2   -6.775818295059156E-3    1.480331818593824E-2   -6.349127577545998E-3    2.249940085532746E-1    5.003086532988570E-1
 6.517303667525000E9    -2.272482337181483E-1   -1.276631248519637E-2    1.482613117363538E-2   -6.793356517116900E-3    1.499245800852519E-2   -6.287227452877178E-3    2.260522583019579E-1    4.998381506881199E-1
 6.517315543100000E9    -2.270205079574681E-1   -1.271710258636044E-2    1.490358762018393E-2   -6.939767942616269E-3    1.505614844872888E-2   -6.400593829495537E-3    2.269718325974014E-1    4.996241496258798E-1
 6.517327418675000E9    -2.269455342090994E-1   -1.248659361909434E-2    1.493283039227667E-2   -7.032936345561494E-3    1.507907013628356E-2   -6.453093034831001E-3    2.277127812723914E-1    4.991642016772141E-1
 6.517339294250000E9    -2.267463714510872E-1   -1.243190867277473E-2    1.505906985256829E-2   -7.064936333780217E-3    1.525501797406474E-2   -6.527984750548390E-3    2.286426220273782E-1    4.988816779354739E-1
 6.517351169825000E9    -2.266759519419983E-1   -1.215094872903416E-2    1.494419021639693E-2   -7.199563918104264E-3    1.530531975149803E-2   -6.574500906680880E-3    2.295546798614310E-1    4.984188154792641E-1
 6.517363045400000E9    -2.265129694663131E-1   -1.202572232464995E-2    1.511308178268041E-2   -7.298268344564460E-3    1.531556258593808E-2   -6.585142951229762E-3    2.305123905817003E-1    4.980269349178920E-1
 6.517374920975000E9    -2.263417121420722E-1   -1.189431919254050E-2    1.511431601690938E-2   -7.314034130071823E-3    1.542421997486226E-2   -6.824162415071026E-3    2.312870438849385E-1    4.975816203688271E-1
 6.517386796550000E9    -2.261539501899390E-1   -1.164547971920403E-2    1.528730903033328E-2   -7.426619609210527E-3    1.546859004497128E-2   -6.944794847282737E-3    2.322364383444532E-1    4.971351743399813E-1
 6.517398672125000E9    -2.259737255031810E-1   -1.152469808551622E-2    1.524857467880017E-2   -7.396762809486488E-3    1.562909595810530E-2   -6.893122218425339E-3    2.329143994240064E-1    4.967104222767750E-1
 6.517410547700000E9    -2.259889898221762E-1   -1.136432555267351E-2    1.550861908332372E-2   -7.611211623800131E-3    1.563287221091687E-2   -6.945941616124501E-3    2.338827104540014E-1    4.963369375028909E-1
 6.517422423275000E9    -2.257669635438301E-1   -1.121840297175608E-2    1.539160832978306E-2   -7.554963129418971E-3    1.563867591311400E-2   -7.057726727480174E-3    2.348869888217283E-1    4.958947434991346E-1
 6.517434298850000E9    -2.255221551877312E-1   -1.099871694093388E-2    1.568979917982158E-2   -7.647156960736453E-3    1.568784033954271E-2   -7.162462068993639E-3    2.356497445683630E-1    4.955685824074231E-1
 6.517446174425000E9    -2.254511480756741E-1   -1.085297328857022E-2    1.568976200838771E-2   -7.825764980821652E-3    1.582549486097999E-2   -7.183888674427005E-3    2.365816963962084E-1    4.951484282540346E-1
 6.517458050000000E9    -2.253294294133970E-1   -1.072282254527675E-2    1.571934436054347E-2   -7.951615854995533E-3    1.589858238166757E-2   -7.253472791941731E-3    2.374250762676632E-1    4.947618867673109E-1
 6.517469925575000E9    -2.251593099717076E-1   -1.053733280952466E-2    1.582089826266319E-2   -7.934070203246490E-3    1.598970835825895E-2   -7.315393841008305E-3    2.384279839864683E-1    4.943155804528672E-1
 6.517481801150000E9    -2.250174619527842E-1   -1.032202404078049E-2    1.583353582807010E-2   -7.983942151160921E-3    1.611410912952072E-2   -7.514614718269562E-3    2.393041554092807E-1    4.938961287067205E-1
 6.517493676725000E9    -2.248446976321198E-1   -1.033967071152008E-2    1.594156422705321E-2   -8.096865075095907E-3    1.621480141301517E-2   -7.511396013394229E-3    2.400356019513896E-1    4.934632189699258E-1
 6.517505552300000E9    -2.246234889434592E-1   -1.015989142772402E-2    1.602092433829851E-2   -8.136478479218489E-3    1.626480076271810E-2   -7.602300078506914E-3    2.408754297894500E-1    4.931038330310804E-1
 6.517517427875000E9    -2.244831831839716E-1   -9.964137743881120E-3    1.611109743485768E-2   -8.310628829075220E-3    1.645223743785499E-2   -7.595092651960909E-3    2.417578782314554E-1    4.926231313718814E-1
 6.517529303450000E9    -2.243057238325208E-1   -9.812396951437943E-3    1.614472121040834E-2   -8.241713377424202E-3    1.647575687265847E-2   -7.810727277255849E-3    2.426490444017798E-1    4.922630369988277E-1
 6.517541179025000E9    -2.241073369249614E-1   -9.671502305374769E-3    1.631038751398716E-2   -8.509757093197717E-3    1.645376438392413E-2   -7.854887914714928E-3    2.435593131500498E-1    4.919028413677006E-1
 6.517553054600000E9    -2.240550404653901E-1   -9.489221540982265E-3    1.624106681457441E-2   -8.477805970801068E-3    1.664625458480453E-2   -7.890103191577737E-3    2.443418197555791E-1    4.912883756433683E-1
 6.517564930175000E9    -2.239256715898630E-1   -9.408711432275013E-3    1.645224247879353E-2   -8.530522076227611E-3    1.660661145530126E-2   -8.009489428491010E-3    2.452104611421208E-1    4.908805734606956E-1
 6.517576805750000E9    -2.236193029303573E-1   -9.278931379467134E-3    1.647189644787371E-2   -8.675094819802189E-3    1.667987548471030E-2   -8.239597549024884E-3    2.461092871783994E-1    4.905071107300088E-1
 6.517588681325000E9    -2.234278799349811E-1   -9.146074679666473E-3    1.664949670099923E-2   -8.766498163379452E-3    1.674775959647526E-2   -8.188538543391986E-3    2.471591736509978E-1    4.899152974917939E-1
 6.517600556900000E9    -2.233779818820353E-1   -8.974054406759684E-3    1.671859121767477E-2   -8.782771097058073E-3    1.692498608656813E-2   -8.265594337773142E-3    2.478900914911508E-1    4.895667815698792E-1
 6.517612432475000E9    -2.231401780197018E-1   -8.883666097133345E-3    1.677623415959872E-2   -9.031068205215521E-3    1.708892751670162E-2   -8.449711395232647E-3    2.487608181651032E-1    4.892274696908322E-1
 6.517624308050000E9    -2.230501740165305E-1   -8.627817102323881E-3    1.692460901149484E-2   -9.011997978428155E-3    1.710877320279463E-2   -8.618520914707804E-3    2.498015812850851E-1    4.886451125527299E-1
 6.517636183625000E9    -2.228701098134124E-1   -8.597620522748452E-3    1.692526107787037E-2   -9.232087948609649E-3    1.717409636072901E-2   -8.628201152435783E-3    2.506494266053379E-1    4.880424993892435E-1
 6.517648059200000E9    -2.226451560427133E-1   -8.437812393334253E-3    1.712477212440631E-2   -9.293146788908737E-3    1.729629012342763E-2   -8.680061877868791E-3    2.515088145234909E-1    4.877319447508880E-1
 6.517659934775000E9    -2.224286305257231E-1   -8.274272091594868E-3    1.714744111895392E-2   -9.363276488793572E-3    1.747601962424111E-2   -8.841629835942102E-3    2.524627975997019E-1    4.872940995438904E-1
 6.517671810350000E9    -2.223311467433524E-1   -8.199328022013504E-3    1.708168651228833E-2   -9.501551022840560E-3    1.748179416407715E-2   -9.052180728826636E-3    2.534499714393209E-1    4.868605134897918E-1
 6.517683685925000E9    -2.222085424321353E-1   -8.092561422324177E-3    1.729785175930136E-2   -9.584289505373366E-3    1.759662697910647E-2   -9.054488149087641E-3    2.542665300181426E-1    4.864295349744693E-1
 6.517695561500000E9    -2.219754010672090E-1   -7.895127520038844E-3    1.733518387640733E-2   -9.694867438885308E-3    1.770251736312664E-2   -9.068570963856016E-3    2.549516589116015E-1    4.859262535583056E-1
 6.517707437075000E9    -2.218477203493259E-1   -7.879728770566644E-3    1.740869677824399E-2   -9.826536240934835E-3    1.780067389513303E-2   -9.239417032635061E-3    2.558456419067670E-1    4.853858374409484E-1
 6.517719312650000E9    -2.214779736883108E-1   -7.663498426347575E-3    1.753482722788128E-2   -9.963691609431469E-3    1.787499027275258E-2   -9.319037803638030E-3    2.567860318768706E-1    4.849429928460963E-1
 6.517731188225000E9    -2.213593697329599E-1   -7.533380529045695E-3    1.769089822531433E-2   -1.010037946332941E-2    1.799086523814308E-2   -9.445094818261762E-3    2.575640031359850E-1    4.844454203011930E-1
 6.517743063800000E9    -2.212298537784997E-1   -7.520319275429221E-3    1.779470614386056E-2   -1.014453723316290E-2    1.813821631161688E-2   -9.527647918219471E-3    2.584733750605379E-1    4.841014210256978E-1
 6.517754939375000E9    -2.210403285415118E-1   -7.272268016549161E-3    1.802629199902585E-2   -1.026670769241647E-2    1.820847847665519E-2   -9.712114678173686E-3    2.594153319151029E-1    4.835244269960158E-1
 6.517766814950000E9    -2.208456036931810E-1   -7.266079975980901E-3    1.803495748671264E-2   -1.044894326207515E-2    1.817261334478231E-2   -9.822621778888154E-3    2.604188727775628E-1    4.830581180729342E-1
 6.517778690525000E9    -2.205255089003582E-1   -7.236050758117633E-3    1.803344001619540E-2   -1.055112773216466E-2    1.851709039849041E-2   -9.921598670207388E-3    2.611377788910993E-1    4.826532288023649E-1
 6.517790566100000E9    -2.203501002624075E-1   -7.045841595792678E-3    1.829654463581435E-2   -1.062939347619800E-2    1.846067297307768E-2   -1.014103995207553E-2    2.620443862933288E-1    4.819407983831810E-1
 6.517802441675000E9    -2.202668313899514E-1   -6.909566268618151E-3    1.833106085436747E-2   -1.080833443905461E-2    1.870115381035448E-2   -1.014340219109267E-2    2.629135543623239E-1    4.816723753355914E-1
 6.517814317250000E9    -2.199300931517032E-1   -6.803958633333294E-3    1.835840512356640E-2   -1.086235684822239E-2    1.875344404388715E-2   -1.047563922842075E-2    2.638510666231228E-1    4.810434902033861E-1
 6.517826192825000E9    -2.197633498162312E-1   -6.664924870797262E-3    1.847415929691886E-2   -1.120426018901424E-2    1.885623111159043E-2   -1.046798917912562E-2    2.646454190118042E-1    4.806143713796455E-1
 6.517838068400000E9    -2.196296789687723E-1   -6.642843463370973E-3    1.860989315609588E-2   -1.122075614941916E-2    1.897014096005691E-2   -1.050232303067790E-2    2.656744208289648E-1    4.800112836136159E-1
 6.517849943975000E9    -2.194108219735547E-1   -6.541889836039388E-3    1.875460147607998E-2   -1.131666930693273E-2    1.913914850078371E-2   -1.065966892907041E-2    2.664218029900028E-1    4.795646338883777E-1
 6.517861819550000E9    -2.191731881423918E-1   -6.480139409032368E-3    1.892389189898494E-2   -1.139835277133567E-2    1.912650053936265E-2   -1.082003204591305E-2    2.675098187884390E-1    4.791796092340315E-1
 6.517873695125000E9    -2.190753578258280E-1   -6.281430831927699E-3    1.901599181014853E-2   -1.155656919914930E-2    1.940453887629197E-2   -1.093247633833496E-2    2.683250338965014E-1    4.785290367364821E-1
 6.517885570700000E9    -2.188582975661947E-1   -6.179027679839769E-3    1.909200718296822E-2   -1.180835469834636E-2    1.953645131117504E-2   -1.098246892612211E-2    2.690182725814315E-1    4.781129469496834E-1
 6.517897446275000E9    -2.185213056429762E-1   -6.160604744306339E-3    1.921041763991873E-2   -1.177077084231278E-2    1.950968140562014E-2   -1.121801754579247E-2    2.700047087070485E-1    4.775857466762513E-1
 6.517909321850000E9    -2.183713393731587E-1   -6.058281188876562E-3    1.944570646955994E-2   -1.205717462928929E-2    1.970308585024300E-2   -1.135253730781607E-2    2.709807802227819E-1    4.769504223751516E-1
 6.517921197425000E9    -2.181271179071699E-1   -6.015332345025205E-3    1.948749373209438E-2   -1.204418836706986E-2    1.976648929215923E-2   -1.146344326390765E-2    2.718158630389403E-1    4.765566430790593E-1
 6.517933073000000E9    -2.178736118333738E-1   -5.787676670696530E-3    1.954010924377374E-2   -1.226943723511492E-2    1.993107907593196E-2   -1.163136735141563E-2    2.727928965745385E-1    4.758904695854160E-1
 6.517944948575000E9    -2.177625327990237E-1   -5.654702934493423E-3    1.979999265919152E-2   -1.244679895124421E-2    2.004581514317806E-2   -1.174522265935180E-2    2.735946103812642E-1    4.754310764036218E-1
 6.517956824150000E9    -2.174318838241270E-1   -5.772103849497674E-3    1.985756853742560E-2   -1.253637417497719E-2    2.022395108922635E-2   -1.186448811600409E-2    2.745063795875974E-1    4.747790266730049E-1
 6.517968699725000E9    -2.172689906846406E-1   -5.614566576754617E-3    1.996026562069732E-2   -1.275138139719626E-2    2.036559918456844E-2   -1.205206841364202E-2    2.753700614993840E-1    4.743171676577900E-1
 6.517980575300000E9    -2.170048834503241E-1   -5.517546232191671E-3    2.002508183548486E-2   -1.291647907481212E-2    2.055423413731233E-2   -1.221284563585065E-2    2.763753137923134E-1    4.737119696949087E-1
 6.517992450875000E9    -2.167224909592483E-1   -5.484632753436583E-3    2.017076477969627E-2   -1.304000239681571E-2    2.064333805633124E-2   -1.234642773157086E-2    2.771496131775684E-1    4.732484945339784E-1
 6.518004326450000E9    -2.166339658643844E-1   -5.370788087631480E-3    2.024547685675549E-2   -1.323567309121894E-2    2.083576917876358E-2   -1.256265978039452E-2    2.779427491624439E-1    4.726977240815473E-1
 6.518016202025000E9    -2.162341303414317E-1   -5.417796531217784E-3    2.042397158181801E-2   -1.346524976653397E-2    2.086090895578486E-2   -1.268231329608370E-2    2.789388160281291E-1    4.722198985734259E-1
 6.518028077600000E9    -2.159630219203740E-1   -5.422831209336498E-3    2.064939468352931E-2   -1.361141876219144E-2    2.098154309614199E-2   -1.290850620732663E-2    2.798712596240817E-1    4.715182899767856E-1
 6.518039953175000E9    -2.158748788606093E-1   -5.422616709379386E-3    2.077222179711627E-2   -1.379830538164876E-2    2.119225102015174E-2   -1.312869655449949E-2    2.808956616319881E-1    4.710158299559195E-1
 6.518051828750000E9    -2.156321408505067E-1   -5.275418249900553E-3    2.086415205333313E-2   -1.407699373604339E-2    2.139734425682628E-2   -1.327020039632814E-2    2.815954205795569E-1    4.704811849549708E-1
