#  HZ   S   RI   R     50.00 
! Rohde & Schwarz Vector Network Analyzer 
! Rohde-Schwarz,ZNB20-2Port,1311601062101988,3.16
! Created: UTC 12/23/2023, 3:44:16 AM
! freq[Hz]                re:S11                  im:S11                  re:S21                  im:S21                  re:S12                  im:S12                  re:S22                  im:S22
 6.516943695000000E9    -2.309239339650526E-1   -1.834752930126026E-2    1.304349929306363E-2   -5.166978155991240E-3    1.305691464511935E-2   -4.587666318727487E-3    1.993906457494966E-1    5.107001507692351E-1
 6.516955736500000E9    -2.307064797809577E-1   -1.822650488476920E-2    1.320359536053219E-2   -5.251924684914100E-3    1.315870036304467E-2   -4.800435418869382E-3    2.003002807099740E-1    5.103508843828218E-1
 6.516967778000000E9    -2.307155327325816E-1   -1.792833974526630E-2    1.316773798201130E-2   -5.430080393889316E-3    1.323336516327039E-2   -4.748013303828344E-3    2.011649065790166E-1    5.101767590929812E-1
 6.516979819500000E9    -2.305889727479651E-1   -1.769741732098877E-2    1.324953244481682E-2   -5.292572365499000E-3    1.335915253491244E-2   -4.820071432001104E-3    2.021137396457440E-1    5.096058458109057E-1
 6.516991861000000E9    -2.304145046245653E-1   -1.759605521902549E-2    1.329297216322516E-2   -5.304076295958879E-3    1.332258892420417E-2   -4.885708919852638E-3    2.029983876523971E-1    5.093172495132569E-1
 6.517003902500000E9    -2.303112424625341E-1   -1.743308123413167E-2    1.341619769208227E-2   -5.396423901034296E-3    1.341015261587968E-2   -5.017990662161011E-3    2.040081033228177E-1    5.091975113237825E-1
 6.517015944000000E9    -2.302893081573004E-1   -1.710045771252235E-2    1.346945093894398E-2   -5.481735644932539E-3    1.345943504124621E-2   -5.034847977942155E-3    2.047081955879451E-1    5.086724312704994E-1
 6.517027985500000E9    -2.300117400589796E-1   -1.695067351563928E-2    1.350051227377318E-2   -5.460814115322360E-3    1.346747365465669E-2   -5.080555958571770E-3    2.057238658333600E-1    5.082588696840412E-1
 6.517040027000000E9    -2.299940972046249E-1   -1.683730719485473E-2    1.355868679497528E-2   -5.496987320666302E-3    1.375479509084053E-2   -5.144541235384761E-3    2.065741617050318E-1    5.080555815081211E-1
 6.517052068500000E9    -2.298827034529510E-1   -1.663444015964697E-2    1.349723088353966E-2   -5.663842016961429E-3    1.355386417868767E-2   -5.096463738074208E-3    2.073990641341746E-1    5.076867886802797E-1
 6.517064110000000E9    -2.297104967707113E-1   -1.642762674394761E-2    1.351973366435168E-2   -5.572028342071058E-3    1.362668065738368E-2   -5.194640312953708E-3    2.082682301482281E-1    5.073752210484435E-1
 6.517076151500000E9    -2.295216482252114E-1   -1.623054020011748E-2    1.353412587052304E-2   -5.768584276566660E-3    1.379444040845364E-2   -5.333935015982866E-3    2.091798629976054E-1    5.069344751233889E-1
 6.517088193000000E9    -2.295360150935167E-1   -1.615586350136424E-2    1.376748251607615E-2   -5.828757091614237E-3    1.379778988435757E-2   -5.291130421047385E-3    2.102434130497345E-1    5.065884710533388E-1
 6.517100234500000E9    -2.293985935144417E-1   -1.594407270683872E-2    1.376678415821407E-2   -5.901455507540835E-3    1.386136681971278E-2   -5.426283733331832E-3    2.111028770370408E-1    5.063051143207699E-1
 6.517112276000000E9    -2.291855186771823E-1   -1.566654579659425E-2    1.374796729333751E-2   -5.729694448593770E-3    1.391195732994261E-2   -5.462830583075418E-3    2.118904341757765E-1    5.059349149969546E-1
 6.517124317500000E9    -2.290545799738799E-1   -1.548562639914395E-2    1.395204682601864E-2   -6.000796610074634E-3    1.394669646987334E-2   -5.422795646578132E-3    2.128087452938257E-1    5.055816551548962E-1
 6.517136359000000E9    -2.289419621631929E-1   -1.530005026901158E-2    1.401857793414487E-2   -6.036631581152248E-3    1.394673027380681E-2   -5.561676557936462E-3    2.137209924757099E-1    5.050925437095739E-1
 6.517148400500000E9    -2.288344431234897E-1   -1.519521026031457E-2    1.394549186463049E-2   -6.134977009308154E-3    1.407467893657663E-2   -5.509234670182069E-3    2.145473246150396E-1    5.048074706334298E-1
 6.517160442000000E9    -2.286431953198561E-1   -1.493008700137821E-2    1.403892701909936E-2   -6.123694276635922E-3    1.421891551001980E-2   -5.571802281004074E-3    2.154568737889445E-1    5.044107039236311E-1
 6.517172483500000E9    -2.285821132240880E-1   -1.478587544873273E-2    1.402406069084318E-2   -6.209269132637133E-3    1.412130688389574E-2   -5.670433226928291E-3    2.162891270469393E-1    5.040834381963385E-1
 6.517184525000000E9    -2.284919173141746E-1   -1.470245504832733E-2    1.426015154069021E-2   -6.160424292796338E-3    1.427078762495701E-2   -5.863215409859861E-3    2.173043920612670E-1    5.036405729005438E-1
 6.517196566500000E9    -2.282390839681302E-1   -1.437810966932251E-2    1.425456902543517E-2   -6.268233328810047E-3    1.425651751215219E-2   -5.908574543775226E-3    2.181981915757442E-1    5.033184509597821E-1
 6.517208608000000E9    -2.282158454451684E-1   -1.426558986085823E-2    1.425090773537244E-2   -6.485534743992680E-3    1.444788580618337E-2   -5.890060293979790E-3    2.190555960352538E-1    5.028481848292828E-1
 6.517220649500000E9    -2.280183749275392E-1   -1.410901456371588E-2    1.432391144617978E-2   -6.393803671738156E-3    1.447391592150119E-2   -5.875008268182406E-3    2.199168801786030E-1    5.025814454501224E-1
 6.517232691000000E9    -2.278213059753711E-1   -1.398699936024085E-2    1.448200480446567E-2   -6.523429153126812E-3    1.457411619073399E-2   -6.008519792793517E-3    2.209095034559059E-1    5.021644117552410E-1
 6.517244732500000E9    -2.278013784770015E-1   -1.372482709953570E-2    1.445009580964627E-2   -6.729715330987266E-3    1.467463206212581E-2   -6.020775663299292E-3    2.218063630182028E-1    5.017923014955264E-1
 6.517256774000000E9    -2.276215472952114E-1   -1.351572855562257E-2    1.457069817697116E-2   -6.562046145070932E-3    1.470471628675622E-2   -6.236779203901056E-3    2.226229388238167E-1    5.013909337848420E-1
 6.517268815500000E9    -2.274801859381148E-1   -1.342839623327701E-2    1.463112190275802E-2   -6.818571881014677E-3    1.470068675009456E-2   -6.159533066539576E-3    2.236170558851588E-1    5.010758833935013E-1
 6.517280857000000E9    -2.274289402286369E-1   -1.330286829287776E-2    1.464620681550412E-2   -6.836825818289173E-3    1.484697834052054E-2   -6.277508919640123E-3    2.242763206896321E-1    5.006590347679242E-1
 6.517292898500000E9    -2.271766193546887E-1   -1.307529689619468E-2    1.470890105963932E-2   -6.955015014209399E-3    1.487432100969620E-2   -6.303187209068637E-3    2.253233436944075E-1    5.004059113826064E-1
 6.517304940000000E9    -2.269998312981061E-1   -1.281320404002571E-2    1.491234566469441E-2   -6.987817350342060E-3    1.501946334625847E-2   -6.422716185929980E-3    2.261152174737933E-1    4.999287918855192E-1
 6.517316981500000E9    -2.269423790234669E-1   -1.267124626720705E-2    1.490542686653240E-2   -7.045139979383379E-3    1.501086379354157E-2   -6.617235401478939E-3    2.270612152033594E-1    4.994217629018268E-1
 6.517329023000000E9    -2.268020490594489E-1   -1.252673803014657E-2    1.511409242007296E-2   -6.943208258307682E-3    1.520903687227578E-2   -6.589708844551950E-3    2.280084690174567E-1    4.991067399514370E-1
 6.517341064500000E9    -2.266724906623091E-1   -1.241970317334466E-2    1.500992759226328E-2   -7.217634963888641E-3    1.523774877267236E-2   -6.767270413371233E-3    2.288727130666116E-1    4.987271141182276E-1
 6.517353106000000E9    -2.264213370750919E-1   -1.224750121379143E-2    1.513306472348818E-2   -7.265005797968785E-3    1.518251163808485E-2   -6.682590889545349E-3    2.296160409161102E-1    4.982705356283256E-1
 6.517365147500000E9    -2.264401499954862E-1   -1.214832016341843E-2    1.515967920062986E-2   -7.215838382736398E-3    1.531629695947652E-2   -6.861304961407725E-3    2.305817579471358E-1    4.977800723427341E-1
 6.517377189000000E9    -2.262802893980035E-1   -1.184386574245675E-2    1.525003699683750E-2   -7.380401798004774E-3    1.544168418865398E-2   -6.830096380678697E-3    2.315178305617439E-1    4.974916785087796E-1
 6.517389230500000E9    -2.260777193017887E-1   -1.162647733083613E-2    1.530249874510468E-2   -7.362891222423180E-3    1.553061745714645E-2   -6.883375520854049E-3    2.323544440060635E-1    4.971743484921953E-1
 6.517401272000000E9    -2.258411740225003E-1   -1.165699231557129E-2    1.543002075148964E-2   -7.454960554218271E-3    1.554927915184691E-2   -6.934530426579943E-3    2.332230741290539E-1    4.967185787180806E-1
 6.517413313500000E9    -2.257575248042449E-1   -1.137843271022985E-2    1.549996886703608E-2   -7.698415214051053E-3    1.570846887890105E-2   -7.069614641242890E-3    2.342141871712968E-1    4.962339301782628E-1
 6.517425355000000E9    -2.255447863086856E-1   -1.123788579512632E-2    1.557054903599532E-2   -7.620995414567967E-3    1.577753362778123E-2   -7.221256143106340E-3    2.350329092975827E-1    4.956865336702276E-1
 6.517437396500000E9    -2.254856486894058E-1   -1.111808110044149E-2    1.568037250858446E-2   -7.809396592099103E-3    1.582496939083084E-2   -7.276576417964794E-3    2.360740553010765E-1    4.952879761231867E-1
 6.517449438000000E9    -2.253887113415497E-1   -1.096248352165186E-2    1.575359389671953E-2   -7.835484754298591E-3    1.590436629636739E-2   -7.378311017059009E-3    2.367987187940097E-1    4.948554022368591E-1
 6.517461479500000E9    -2.251027018821903E-1   -1.088541341822305E-2    1.570079050750619E-2   -7.852268978741925E-3    1.601869467342872E-2   -7.320495101121081E-3    2.376727508303730E-1    4.944782931402157E-1
 6.517473521000000E9    -2.249858212933155E-1   -1.055463910250323E-2    1.584110432355402E-2   -8.189550291736744E-3    1.603021666045016E-2   -7.524485377606741E-3    2.385820161839706E-1    4.941148421971858E-1
 6.517485562500000E9    -2.248227711411635E-1   -1.057814001295174E-2    1.606848898993463E-2   -8.096727843931369E-3    1.624601457256568E-2   -7.556262184785947E-3    2.395141829835682E-1    4.937472404143871E-1
 6.517497604000000E9    -2.247241541692182E-1   -1.023515707086617E-2    1.601219400446922E-2   -8.233813465001370E-3    1.614028009779103E-2   -7.615396446804989E-3    2.404041350549605E-1    4.930700930691770E-1
 6.517509645500000E9    -2.245648888380578E-1   -1.013366464682275E-2    1.606065132095243E-2   -8.210087730713569E-3    1.632454413134908E-2   -7.694388658273362E-3    2.412511188168825E-1    4.928964620052445E-1
 6.517521687000000E9    -2.243850939217380E-1   -9.896038556972650E-3    1.620329340596413E-2   -8.374619381062079E-3    1.647505016926475E-2   -7.798640195005083E-3    2.422789141349783E-1    4.923555451556098E-1
 6.517533728500000E9    -2.240416184465208E-1   -9.944487194219987E-3    1.616020187537279E-2   -8.431168591394939E-3    1.646871312139508E-2   -7.824327930672446E-3    2.430140328289782E-1    4.918538579576286E-1
 6.517545770000000E9    -2.239899940696114E-1   -9.831457471001920E-3    1.626080702542962E-2   -8.593831546365945E-3    1.657032687740009E-2   -7.956219077150203E-3    2.439444632098785E-1    4.914673597560884E-1
 6.517557811500000E9    -2.240056502534084E-1   -9.606180125422595E-3    1.653082223248539E-2   -8.644218163791377E-3    1.667672083250508E-2   -8.076707801480168E-3    2.449066197896020E-1    4.911863681840906E-1
 6.517569853000000E9    -2.236927219493290E-1   -9.440215762970532E-3    1.646378000958771E-2   -8.670433411784778E-3    1.671664843308611E-2   -8.170229949963248E-3    2.458038719426771E-1    4.907175344533317E-1
 6.517581894500000E9    -2.235111596247425E-1   -9.367912805148069E-3    1.662814254998238E-2   -8.836257558212223E-3    1.683434317159514E-2   -8.270969266955605E-3    2.467779370582175E-1    4.903411704888666E-1
 6.517593936000000E9    -2.233185185296997E-1   -9.209911058407046E-3    1.667207700663115E-2   -8.984095806748508E-3    1.691327308124905E-2   -8.366562115102933E-3    2.474802125615769E-1    4.896763916225743E-1
 6.517605977500000E9    -2.230447229781734E-1   -9.007288373073949E-3    1.669346288084150E-2   -9.073608963306310E-3    1.706437210256783E-2   -8.516828779311116E-3    2.483035202165713E-1    4.893474230322378E-1
 6.517618019000000E9    -2.228664259605490E-1   -8.841461110485633E-3    1.677838030644765E-2   -9.156196541174418E-3    1.708070148202857E-2   -8.500566188358333E-3    2.492292836169915E-1    4.889431413867145E-1
 6.517630060500000E9    -2.227377799490484E-1   -8.773123210989905E-3    1.695448332911420E-2   -9.217478810619279E-3    1.721041498638656E-2   -8.645675968948585E-3    2.502955806415673E-1    4.884146839580401E-1
 6.517642102000000E9    -2.227049989368804E-1   -8.704261105968551E-3    1.697199718848565E-2   -9.316361881494708E-3    1.722959474804726E-2   -8.828848121536581E-3    2.510393898143347E-1    4.879215549514382E-1
 6.517654143500000E9    -2.224418864711339E-1   -8.476928768302614E-3    1.716009896955617E-2   -9.427876246880216E-3    1.742987630284590E-2   -8.876915543958771E-3    2.520056906161842E-1    4.872893362851604E-1
 6.517666185000000E9    -2.222639168252797E-1   -8.291458168415347E-3    1.723091795851094E-2   -9.447203671332626E-3    1.754135597028877E-2   -8.905307874192955E-3    2.528763092667896E-1    4.871294881430275E-1
 6.517678226500000E9    -2.221091304699915E-1   -8.209184214102964E-3    1.734636705597441E-2   -9.705780675980444E-3    1.757079539355466E-2   -9.084429569212994E-3    2.537463689082562E-1    4.865429308322269E-1
 6.517690268000000E9    -2.219273632646734E-1   -8.086271697976167E-3    1.744971584769217E-2   -9.716215725948373E-3    1.769785008140781E-2   -9.195672468165416E-3    2.545904653130413E-1    4.859852787926872E-1
 6.517702309500000E9    -2.217487717855739E-1   -8.076245573106022E-3    1.760847280537192E-2   -9.943705441430596E-3    1.779903325158721E-2   -9.284763182195448E-3    2.554861808493171E-1    4.855394502512860E-1
 6.517714351000000E9    -2.213817840488899E-1   -7.923369276011323E-3    1.753284625042226E-2   -1.000875933903420E-2    1.788595051289642E-2   -9.427426669489406E-3    2.563538685355212E-1    4.849575060784645E-1
 6.517726392500000E9    -2.213333208974979E-1   -7.783386270681847E-3    1.764524718254234E-2   -9.911552967534914E-3    1.802143728853686E-2   -9.452939536136792E-3    2.573765360525419E-1    4.846063723847953E-1
 6.517738434000000E9    -2.211246684292564E-1   -7.687471169162931E-3    1.786221105086887E-2   -1.021308647154581E-2    1.818535614159525E-2   -9.582906358108058E-3    2.583296204415319E-1    4.841305831977979E-1
 6.517750475500000E9    -2.209475321884762E-1   -7.464554713625384E-3    1.797442441669509E-2   -1.019791266177538E-2    1.827433565592084E-2   -9.800768150261629E-3    2.589251295826366E-1    4.836495279903821E-1
 6.517762517000000E9    -2.207263987061329E-1   -7.445013723429997E-3    1.803544147057533E-2   -1.051127885517272E-2    1.827936109498759E-2   -9.895822968806776E-3    2.601184431780022E-1    4.830986098292588E-1
 6.517774558500000E9    -2.205019651355067E-1   -7.176511189784167E-3    1.816723514808789E-2   -1.054936210183350E-2    1.850560860034519E-2   -9.933968919190399E-3    2.609493096564139E-1    4.825583167675485E-1
 6.517786600000000E9    -2.203284477644867E-1   -7.255803899227942E-3    1.817692873729495E-2   -1.064032307271012E-2    1.847903015340561E-2   -1.008548403843303E-2    2.619097335843550E-1    4.822550253513997E-1
 6.517798641500000E9    -2.201742835130471E-1   -7.067949887457392E-3    1.839373461552335E-2   -1.084495217703094E-2    1.867007171749850E-2   -1.016318688637962E-2    2.626906621668532E-1    4.817147211973714E-1
 6.517810683000000E9    -2.199793609695683E-1   -6.920153433964183E-3    1.846394357523789E-2   -1.090023661946102E-2    1.866126112026086E-2   -1.036766065016399E-2    2.637725890939567E-1    4.811821862470034E-1
 6.517822724500000E9    -2.197723691739177E-1   -6.820019018878994E-3    1.847257351383237E-2   -1.095787610318652E-2    1.902508925048675E-2   -1.046728082680215E-2    2.646636359097075E-1    4.807591872068884E-1
 6.517834766000000E9    -2.195351908233525E-1   -6.785310138095304E-3    1.872734318201880E-2   -1.115560663374723E-2    1.909339757843447E-2   -1.052405176738341E-2    2.652910961702757E-1    4.801586963687859E-1
 6.517846807500000E9    -2.194184827616706E-1   -6.661302731537289E-3    1.874821737109362E-2   -1.122449333699006E-2    1.915123103128682E-2   -1.072133554650287E-2    2.662225128936627E-1    4.795751076546573E-1
 6.517858849000000E9    -2.190853061008339E-1   -6.636333068904028E-3    1.891644405959147E-2   -1.147711731388627E-2    1.923532117984997E-2   -1.081649899672106E-2    2.671916237701538E-1    4.790377694140573E-1
 6.517870890500000E9    -2.188885665553914E-1   -6.507324790729850E-3    1.898464062750800E-2   -1.161064617281048E-2    1.930722119868846E-2   -1.093597395007253E-2    2.681521816005818E-1    4.786458732562398E-1
 6.517882932000000E9    -2.186759171719744E-1   -6.391945098372309E-3    1.911313588243729E-2   -1.181122777266630E-2    1.940504529368838E-2   -1.115214477315892E-2    2.690003409854434E-1    4.779376608033921E-1
 6.517894973500000E9    -2.184571297478355E-1   -6.286800623903017E-3    1.911304823626080E-2   -1.197166642942080E-2    1.949621818960199E-2   -1.123368562377734E-2    2.698669429878282E-1    4.775528997816030E-1
 6.517907015000000E9    -2.182277024072676E-1   -6.268399010004908E-3    1.928563366263210E-2   -1.216603904977899E-2    1.977830091389384E-2   -1.148327436724823E-2    2.707787092012370E-1    4.770809276457978E-1
 6.517919056500000E9    -2.179817715606099E-1   -6.168326000733841E-3    1.948073873993350E-2   -1.231227131055122E-2    1.982704411277356E-2   -1.147516090691878E-2    2.717142192484398E-1    4.765993609408699E-1
 6.517931098000000E9    -2.179018600858195E-1   -6.029134199457310E-3    1.967885155598513E-2   -1.240479214331913E-2    1.997558704019962E-2   -1.168927762607573E-2    2.725622776555335E-1    4.759787742550809E-1
 6.517943139500000E9    -2.176071640265831E-1   -6.049634670109062E-3    1.977098399176608E-2   -1.258209031870556E-2    2.013346264861028E-2   -1.183759767986494E-2    2.734850644749422E-1    4.754090681256128E-1
 6.517955181000000E9    -2.173855334114089E-1   -5.859175506550004E-3    1.977010098704605E-2   -1.265792480802608E-2    2.037840892037650E-2   -1.201452709562674E-2    2.744158172752461E-1    4.747751159729368E-1
 6.517967222500000E9    -2.171567441218832E-1   -5.843151215553297E-3    1.999677429276985E-2   -1.294264368464793E-2    2.042842756753186E-2   -1.219002744843163E-2    2.753849667767365E-1    4.742474094272924E-1
 6.517979264000000E9    -2.169550111544331E-1   -5.755302523386800E-3    2.011706364039589E-2   -1.311661904733106E-2    2.049327683570049E-2   -1.245938431418987E-2    2.761013556786852E-1    4.738242243406889E-1
 6.517991305500000E9    -2.166744892960437E-1   -5.635756263188322E-3    2.024893190273092E-2   -1.321147428698075E-2    2.059238867152861E-2   -1.249880434102812E-2    2.771122401658053E-1    4.731347944772691E-1
 6.518003347000000E9    -2.164543745608354E-1   -5.631648897836603E-3    2.034064257683752E-2   -1.329867113025876E-2    2.079082118827777E-2   -1.269057772583449E-2    2.780328164746219E-1    4.726525115714949E-1
 6.518015388500000E9    -2.161415939314465E-1   -5.634044696507622E-3    2.042018519841848E-2   -1.344486844479888E-2    2.090246361825146E-2   -1.290352369443475E-2    2.788919931534898E-1    4.719865654787917E-1
 6.518027430000000E9    -2.158570260306391E-1   -5.464269088321007E-3    2.055355990624686E-2   -1.366378515891656E-2    2.104816862996727E-2   -1.301564643339941E-2    2.796985153362386E-1    4.715814709114119E-1
