#  HZ   S   RI   R     50.00 
! Rohde & Schwarz Vector Network Analyzer 
! Rohde-Schwarz,ZNB20-2Port,1311601062101988,3.16
! Created: UTC 12/23/2023, 3:44:33 AM
! freq[Hz]                re:S11                  im:S11                  re:S21                  im:S21                  re:S12                  im:S12                  re:S22                  im:S22
 6.516945989000000E9    -2.308152173651125E-1   -1.832003452297044E-2    1.306256524639808E-2   -5.204859380315002E-3    1.316609043234386E-2   -4.745985804376392E-3    1.995934041740048E-1    5.105953568255616E-1
 6.516958010975000E9    -2.306791574685841E-1   -1.815513816997617E-2    1.320854860136486E-2   -5.206797142090535E-3    1.319617152872807E-2   -4.784408522078370E-3    2.005890505216808E-1    5.102960968089271E-1
 6.516970032950000E9    -2.305385463095722E-1   -1.786074532799148E-2    1.313156844103783E-2   -5.229959989749280E-3    1.328325017615838E-2   -4.773528900578320E-3    2.013911903870594E-1    5.099982335042899E-1
 6.516982054925000E9    -2.304688147504776E-1   -1.775749974806011E-2    1.319377554497703E-2   -5.424482188612490E-3    1.333900179359234E-2   -4.822158733322682E-3    2.023257650017666E-1    5.097087156774385E-1
 6.516994076900000E9    -2.303582016048035E-1   -1.760820724987000E-2    1.318689424750894E-2   -5.312872086173554E-3    1.333630580579534E-2   -4.822227212432344E-3    2.031720865056788E-1    5.094190097539023E-1
 6.517006098875000E9    -2.302798053551728E-1   -1.737808139511852E-2    1.341723496603048E-2   -5.475206288634923E-3    1.332589782968564E-2   -4.971387722324506E-3    2.041892005931356E-1    5.089661309491178E-1
 6.517018120850000E9    -2.302724791607372E-1   -1.716116058517630E-2    1.333269136559042E-2   -5.403891193620457E-3    1.343833462702149E-2   -5.088536978873500E-3    2.050320046672036E-1    5.085537552084479E-1
 6.517030142825000E9    -2.300335407719151E-1   -1.693987398019095E-2    1.353266436551818E-2   -5.591020154992315E-3    1.344141666859617E-2   -4.984553160311176E-3    2.059551842199704E-1    5.082286079898859E-1
 6.517042164800000E9    -2.299499332074662E-1   -1.681555802414202E-2    1.332534464159047E-2   -5.603071448472071E-3    1.351337199404517E-2   -5.162427436843121E-3    2.066036700545653E-1    5.079877544658173E-1
 6.517054186775000E9    -2.297352766398110E-1   -1.665912866383830E-2    1.350204245587266E-2   -5.564424103609003E-3    1.361298177517649E-2   -5.238565162631977E-3    2.076808845408873E-1    5.075157379112872E-1
 6.517066208750000E9    -2.297267163686943E-1   -1.640117108394044E-2    1.356174557968128E-2   -5.782448837089550E-3    1.371596855161989E-2   -5.230181761780204E-3    2.084673053501828E-1    5.071618915447809E-1
 6.517078230725000E9    -2.294757193125972E-1   -1.612972836522308E-2    1.367429857200423E-2   -5.767766562049963E-3    1.371307920069386E-2   -5.318578466115035E-3    2.093086746046072E-1    5.067712355217369E-1
 6.517090252700000E9    -2.294889049203033E-1   -1.602373721706341E-2    1.361426589439320E-2   -5.719773673303120E-3    1.380825667178890E-2   -5.359840973763334E-3    2.103259274211757E-1    5.064765019167139E-1
 6.517102274675000E9    -2.291909028710448E-1   -1.589524668905322E-2    1.376049174888608E-2   -5.972472902311105E-3    1.390377080096914E-2   -5.352027665503677E-3    2.111356916354594E-1    5.059988435020981E-1
 6.517114296650000E9    -2.291196300203148E-1   -1.574517669237564E-2    1.382815212531904E-2   -5.934584926852044E-3    1.384473148291689E-2   -5.500111313807976E-3    2.120444493680838E-1    5.057114276286807E-1
 6.517126318625000E9    -2.289006707536081E-1   -1.546124805458836E-2    1.389319182622891E-2   -6.072546836100505E-3    1.405986684318239E-2   -5.586034205329576E-3    2.129836283235720E-1    5.054571417299193E-1
 6.517138340600000E9    -2.289847268274248E-1   -1.531434927383133E-2    1.380105801596321E-2   -6.016054027492959E-3    1.406156359572988E-2   -5.544779936204192E-3    2.138019799866684E-1    5.049668605972835E-1
 6.517150362575000E9    -2.287849540063946E-1   -1.518216094593216E-2    1.402438537028446E-2   -6.190919914813685E-3    1.415508945325702E-2   -5.628388733637366E-3    2.147636448708987E-1    5.047589578324047E-1
 6.517162384550000E9    -2.287012381540023E-1   -1.493875245750245E-2    1.407258722031455E-2   -6.173648127632486E-3    1.420044216398938E-2   -5.709494725162017E-3    2.156333799799144E-1    5.042057992167305E-1
 6.517174406525000E9    -2.285247354268667E-1   -1.480908306350836E-2    1.405264451939750E-2   -6.209677750994898E-3    1.442379046871487E-2   -5.654915278167342E-3    2.165406622841391E-1    5.039688659867290E-1
 6.517186428500000E9    -2.285105022202400E-1   -1.459484931317710E-2    1.405713827998545E-2   -6.254181203659330E-3    1.435735174685215E-2   -5.815597093240203E-3    2.174055199809892E-1    5.035149604590445E-1
 6.517198450475000E9    -2.282458800194496E-1   -1.443672825547432E-2    1.428091849865288E-2   -6.214333092907633E-3    1.435650444570849E-2   -5.802346910497107E-3    2.182856561316495E-1    5.031260427345854E-1
 6.517210472450000E9    -2.281806935269342E-1   -1.426511925255492E-2    1.437044675259947E-2   -6.384320738054321E-3    1.437247665772826E-2   -5.908871761519901E-3    2.191380088572085E-1    5.028157406516717E-1
 6.517222494425000E9    -2.279854048911860E-1   -1.401063511190842E-2    1.433113061170351E-2   -6.423898897105621E-3    1.459336442676934E-2   -6.054978358973355E-3    2.201138484658235E-1    5.023697532972454E-1
 6.517234516400000E9    -2.279181473598826E-1   -1.386109032870240E-2    1.445229576084660E-2   -6.538404299739340E-3    1.453684430194832E-2   -6.063581318845797E-3    2.210642052250011E-1    5.020482731147775E-1
 6.517246538375000E9    -2.276883357882391E-1   -1.373321620678384E-2    1.451867960669376E-2   -6.621069178620815E-3    1.474362205248876E-2   -6.173391462370430E-3    2.218705787247739E-1    5.017097911229965E-1
 6.517258560350000E9    -2.275214984551113E-1   -1.359894715935928E-2    1.452259610182047E-2   -6.782658480092562E-3    1.472191114169151E-2   -6.201849407007696E-3    2.227969009500847E-1    5.012625594901257E-1
 6.517270582325000E9    -2.273943542390953E-1   -1.342711235758561E-2    1.468731611427285E-2   -6.709063010500992E-3    1.478108799544749E-2   -6.295198495379621E-3    2.234877450405217E-1    5.011478239166501E-1
 6.517282604300000E9    -2.273963560491303E-1   -1.321897115412162E-2    1.466536731025703E-2   -6.808280585166873E-3    1.485718944796402E-2   -6.306672585792744E-3    2.244612278735372E-1    5.006155832286852E-1
 6.517294626275000E9    -2.271611874445180E-1   -1.308342628024977E-2    1.482780756137385E-2   -6.952893041629031E-3    1.496623660542156E-2   -6.325090290851604E-3    2.254046230520002E-1    5.001582529934939E-1
 6.517306648250000E9    -2.270035427222180E-1   -1.285619745468453E-2    1.491316586139186E-2   -6.979050269604748E-3    1.501302365672516E-2   -6.479770792716719E-3    2.263046360922197E-1    4.997191934487160E-1
 6.517318670225000E9    -2.269167135569556E-1   -1.260782088991320E-2    1.494642438328826E-2   -6.992215332005500E-3    1.511827365053986E-2   -6.460357135199297E-3    2.270691050514883E-1    4.992682214256335E-1
 6.517330692200000E9    -2.268656015549620E-1   -1.256972952693840E-2    1.499142153312296E-2   -7.222656008306057E-3    1.521746790518567E-2   -6.625136889065047E-3    2.281808487982948E-1    4.989574114375182E-1
 6.517342714175000E9    -2.265987817573472E-1   -1.236146901329823E-2    1.510950797126382E-2   -7.113385422801882E-3    1.522041743012097E-2   -6.671996822045911E-3    2.288853716675774E-1    4.986195104499933E-1
 6.517354736150000E9    -2.263881910625683E-1   -1.229044948702271E-2    1.512804515245953E-2   -7.195846166993363E-3    1.532268460325032E-2   -6.714137557475754E-3    2.299595044089514E-1    4.981089440670982E-1
 6.517366758125000E9    -2.262660768112661E-1   -1.203628367823810E-2    1.509931035466612E-2   -7.319369696215714E-3    1.526485450044143E-2   -6.813352933485029E-3    2.308021258569014E-1    4.979218188646353E-1
 6.517378780100000E9    -2.261351582581685E-1   -1.189496657417853E-2    1.530966131628916E-2   -7.420479688538835E-3    1.545201284013581E-2   -6.944350293145765E-3    2.315789174997107E-1    4.972342453152540E-1
 6.517390802075000E9    -2.260629765254454E-1   -1.177961704986171E-2    1.536859647260705E-2   -7.415943470902078E-3    1.550712523670142E-2   -6.945660549763792E-3    2.323888151669351E-1    4.969532191138440E-1
 6.517402824050000E9    -2.258964663324491E-1   -1.155871531436477E-2    1.540084888465955E-2   -7.497981896379314E-3    1.562373345440880E-2   -7.010855281012287E-3    2.334087481470452E-1    4.966113988932028E-1
 6.517414846025000E9    -2.257110061096187E-1   -1.141699250690537E-2    1.552875844902790E-2   -7.600102573170440E-3    1.563831990863121E-2   -7.154581545207414E-3    2.343662746950282E-1    4.961473195169414E-1
 6.517426868000000E9    -2.255933572036803E-1   -1.125296532168585E-2    1.558791319245836E-2   -7.573562954512142E-3    1.579913781953142E-2   -7.219243484587457E-3    2.352171950689205E-1    4.957273454768173E-1
 6.517438889975000E9    -2.254421450262251E-1   -1.112300684085470E-2    1.557245248537661E-2   -7.799125015428300E-3    1.582847844344501E-2   -7.334936730883483E-3    2.361249667669602E-1    4.952626206081452E-1
 6.517450911950000E9    -2.251832851588214E-1   -1.095238833290121E-2    1.572745273978214E-2   -7.868482958364545E-3    1.598439351070070E-2   -7.384684595955164E-3    2.369100823895893E-1    4.948904640317903E-1
 6.517462933925000E9    -2.250596398743389E-1   -1.072809439385821E-2    1.579504680133009E-2   -7.938129851258227E-3    1.603844035311700E-2   -7.457596158412498E-3    2.379250650497429E-1    4.943948538689585E-1
 6.517474955900000E9    -2.248954890401235E-1   -1.065241595805207E-2    1.592864501499002E-2   -7.985130855615259E-3    1.601864891174959E-2   -7.500013620204604E-3    2.388049982050140E-1    4.939566266397689E-1
 6.517486977875000E9    -2.247999329757926E-1   -1.058192068460252E-2    1.583793926890605E-2   -8.006974139185814E-3    1.618228125878086E-2   -7.500653628231088E-3    2.395220725721383E-1    4.935633565246919E-1
 6.517498999850000E9    -2.246066972741895E-1   -1.036018081408105E-2    1.612721518825855E-2   -8.214248258441668E-3    1.630540451184689E-2   -7.782324896284365E-3    2.405228672578206E-1    4.931574375251034E-1
 6.517511021825000E9    -2.244803892261427E-1   -1.017751347599126E-2    1.621554918140489E-2   -8.357560875977750E-3    1.628097752424454E-2   -7.750551712850028E-3    2.413435949665555E-1    4.927365100012951E-1
 6.517523043800000E9    -2.241893618290727E-1   -1.008196796418019E-2    1.613936552149463E-2   -8.367840177253007E-3    1.654647755824953E-2   -7.868094201172278E-3    2.421715767748928E-1    4.924012466191688E-1
 6.517535065775000E9    -2.241514416445297E-1   -9.825766022431235E-3    1.617499496718543E-2   -8.549558818947024E-3    1.648900655246427E-2   -7.976515701395577E-3    2.431635370495092E-1    4.919821470271134E-1
 6.517547087750000E9    -2.240372115397835E-1   -9.706268130551012E-3    1.639924887379462E-2   -8.544743884826778E-3    1.658343492331140E-2   -7.913019568192231E-3    2.441030127944140E-1    4.915109773795744E-1
 6.517559109725000E9    -2.237962053656980E-1   -9.647080146096993E-3    1.640582638671420E-2   -8.704945520035708E-3    1.666046353400894E-2   -8.081729973288012E-3    2.450153853226102E-1    4.910980375627073E-1
 6.517571131700000E9    -2.235985769460284E-1   -9.646076959021102E-3    1.646819489715181E-2   -8.716512944433626E-3    1.680787075229575E-2   -8.250548225622299E-3    2.456711050721920E-1    4.905644137431079E-1
 6.517583153675000E9    -2.234123506626577E-1   -9.345241997601094E-3    1.663785161472393E-2   -8.940436032556258E-3    1.692723061988313E-2   -8.287122791518770E-3    2.468455522874106E-1    4.901054537199807E-1
 6.517595175650000E9    -2.232312352896467E-1   -9.146446863700879E-3    1.673121888844304E-2   -9.033378526563079E-3    1.693167583120469E-2   -8.324877984889576E-3    2.476272210444466E-1    4.896496292080244E-1
 6.517607197625000E9    -2.231214907649751E-1   -9.062291463094441E-3    1.691207901096007E-2   -9.040587372295612E-3    1.707992197624616E-2   -8.477005908003507E-3    2.486808874689998E-1    4.890845438632734E-1
 6.517619219600000E9    -2.229268231630963E-1   -8.871373894199393E-3    1.692765415459525E-2   -9.045305860469643E-3    1.726847808523395E-2   -8.509792818563306E-3    2.494319266207386E-1    4.888128073671376E-1
 6.517631241575000E9    -2.227904576788283E-1   -8.809237999744115E-3    1.694129194805567E-2   -9.306518875282764E-3    1.720792034460987E-2   -8.817099116041990E-3    2.502521499591316E-1    4.882741942051798E-1
 6.517643263550000E9    -2.226364334925706E-1   -8.648544371822491E-3    1.701176132588394E-2   -9.328440582365155E-3    1.732396534507270E-2   -8.849034902707258E-3    2.513030662426261E-1    4.877855716038030E-1
 6.517655285525000E9    -2.223864741352036E-1   -8.581001237962948E-3    1.725204930620469E-2   -9.480301982291429E-3    1.743839548966239E-2   -8.879379740146647E-3    2.520714887201934E-1    4.874843177220141E-1
 6.517667307500000E9    -2.221892348180180E-1   -8.458140927914764E-3    1.731341866516449E-2   -9.594319912733731E-3    1.756352494536141E-2   -8.931210319676912E-3    2.530243197831685E-1    4.867892316819148E-1
 6.517679329475000E9    -2.220889948406002E-1   -8.217840697303162E-3    1.732070834289892E-2   -9.623131353559505E-3    1.764208692722000E-2   -9.092078047670493E-3    2.538432783522506E-1    4.863433325139287E-1
 6.517691351450000E9    -2.219044641444997E-1   -8.121976890635933E-3    1.745679749218236E-2   -9.738523659267235E-3    1.777914216873995E-2   -9.259588187751805E-3    2.547622459727454E-1    4.859580043618232E-1
 6.517703373425000E9    -2.215904601846714E-1   -7.983116828621231E-3    1.766048375341512E-2   -9.894121765130754E-3    1.788045808421373E-2   -9.310078272928351E-3    2.556699458636926E-1    4.854932764269747E-1
 6.517715395400000E9    -2.214819247356976E-1   -7.929147160027938E-3    1.765707319193324E-2   -9.959862461886302E-3    1.791256680867422E-2   -9.416081413085402E-3    2.565907058959283E-1    4.849597567121225E-1
 6.517727417375000E9    -2.212603735790644E-1   -7.708328090037932E-3    1.778108739374028E-2   -1.005562807636451E-2    1.802352345292165E-2   -9.466347580338437E-3    2.574236922703740E-1    4.844733966441448E-1
 6.517739439350000E9    -2.209991910484840E-1   -7.534674368243685E-3    1.782955317466485E-2   -1.019150537220817E-2    1.818038689637282E-2   -9.647007604068135E-3    2.582835701527968E-1    4.840425038407656E-1
 6.517751461325000E9    -2.208636191133251E-1   -7.531591544147452E-3    1.784962897593012E-2   -1.031957791756296E-2    1.828151933713957E-2   -9.812865467924181E-3    2.593171040093212E-1    4.833824476711557E-1
 6.517763483300000E9    -2.206155719526305E-1   -7.442728096925849E-3    1.802489462901295E-2   -1.050732283630442E-2    1.829693753448249E-2   -9.860307165942347E-3    2.601073712705153E-1    4.831123516863392E-1
 6.517775505275000E9    -2.204732030283555E-1   -7.303781682997866E-3    1.813886802957444E-2   -1.059526518232437E-2    1.848056785847115E-2   -1.000003988084424E-2    2.610979040788758E-1    4.826138559132603E-1
 6.517787527250000E9    -2.203363696850119E-1   -7.132527640456058E-3    1.832164233610885E-2   -1.069081206366276E-2    1.855818265828757E-2   -1.007867544913759E-2    2.619830012601239E-1    4.820265387404662E-1
 6.517799549225000E9    -2.201197654843819E-1   -7.143652230806832E-3    1.834815711699776E-2   -1.082408215959976E-2    1.865778577158006E-2   -1.017752837008768E-2    2.627342170937400E-1    4.815342127171627E-1
 6.517811571200000E9    -2.198776286455456E-1   -6.973972547215020E-3    1.848948885812680E-2   -1.099986665947697E-2    1.883216548592161E-2   -1.033619193967421E-2    2.635871031472027E-1    4.809611994125079E-1
 6.517823593175000E9    -2.196949624983859E-1   -6.880618927092946E-3    1.855513640290607E-2   -1.110492588197928E-2    1.890492975945279E-2   -1.049089955939684E-2    2.645707917417386E-1    4.805496754415481E-1
 6.517835615150000E9    -2.194698000370306E-1   -6.783908326942810E-3    1.877046897616192E-2   -1.132081072245601E-2    1.908650729137096E-2   -1.063748397638582E-2    2.653669684791136E-1    4.801755740701338E-1
 6.517847637125000E9    -2.192852072631783E-1   -6.750241453672407E-3    1.882000247043175E-2   -1.142820717814839E-2    1.915594104000574E-2   -1.069743207389657E-2    2.664454320341623E-1    4.795297901371079E-1
 6.517859659100000E9    -2.190874551056043E-1   -6.582847793182614E-3    1.896244570291509E-2   -1.160657953851306E-2    1.932083252047937E-2   -1.089312208991894E-2    2.672714311642326E-1    4.790645551426266E-1
 6.517871681075000E9    -2.188216823710989E-1   -6.471635893709761E-3    1.909429039030439E-2   -1.169197747499445E-2    1.928694688918821E-2   -1.101101028371674E-2    2.681839293888191E-1    4.784548844164048E-1
 6.517883703050000E9    -2.186702703836099E-1   -6.307911423476837E-3    1.906782024450749E-2   -1.181717763511227E-2    1.950215793499597E-2   -1.120151348790270E-2    2.690751475786415E-1    4.779173132386723E-1
 6.517895725025000E9    -2.184419574669453E-1   -6.398208402016214E-3    1.917898175801828E-2   -1.206401492522373E-2    1.975021917858753E-2   -1.128299767073622E-2    2.698381952263499E-1    4.773891749275331E-1
 6.517907747000000E9    -2.182045233747161E-1   -6.307016233277883E-3    1.933346879522753E-2   -1.211929455762581E-2    1.968072751517330E-2   -1.153268915759769E-2    2.708863952971453E-1    4.770360728520011E-1
 6.517919768975000E9    -2.179740460011737E-1   -6.232501365451334E-3    1.939090311328973E-2   -1.227884326852057E-2    1.991604412088065E-2   -1.161127472001614E-2    2.717537943360042E-1    4.763968356692426E-1
 6.517931790950000E9    -2.178046105742273E-1   -6.074467740852424E-3    1.970490837479762E-2   -1.232928186646217E-2    2.010162439464330E-2   -1.179968745560651E-2    2.727718299383103E-1    4.758966408743671E-1
 6.517943812925000E9    -2.174819393349408E-1   -5.937524786155589E-3    1.981581353901849E-2   -1.259023806637256E-2    2.012879650836406E-2   -1.191024271258266E-2    2.735762213518614E-1    4.754205189924682E-1
 6.517955834900000E9    -2.172879906982965E-1   -6.057610711055494E-3    1.991538138703078E-2   -1.272585970502340E-2    2.017480376615242E-2   -1.209334113944186E-2    2.744342814685988E-1    4.747802465494514E-1
 6.517967856875000E9    -2.171007090899529E-1   -5.906227742348828E-3    2.000459664470588E-2   -1.285811741115462E-2    2.036189416081720E-2   -1.226919509424636E-2    2.754600551727717E-1    4.743561877640530E-1
 6.517979878850000E9    -2.168676885881303E-1   -5.777308943448486E-3    2.022713231015681E-2   -1.303160762459651E-2    2.056718104654978E-2   -1.241197010855341E-2    2.762805773160775E-1    4.737362450504242E-1
 6.517991900825000E9    -2.166982979036056E-1   -5.734959271517132E-3    2.023827412847093E-2   -1.307461943177557E-2    2.065292188568837E-2   -1.253132392121481E-2    2.771542143194985E-1    4.730802545703129E-1
 6.518003922800000E9    -2.163594973048067E-1   -5.671128041012720E-3    2.035742623448834E-2   -1.352214157194111E-2    2.082977918443808E-2   -1.274126780037801E-2    2.781338099392430E-1    4.725503776375495E-1
 6.518015944775000E9    -2.161000941227123E-1   -5.604834826286427E-3    2.053828836371784E-2   -1.369007617385524E-2    2.091792501437147E-2   -1.279660431772209E-2    2.790577934455790E-1    4.718163408547750E-1
 6.518027966750000E9    -2.159309770460215E-1   -5.568297986282305E-3    2.065118030369625E-2   -1.381492035740066E-2    2.101190600262220E-2   -1.310493313405305E-2    2.798434719272466E-1    4.713850262025079E-1
