#  HZ   S   DB   R     50.00 
! Rohde & Schwarz Vector Network Analyzer 
! Rohde-Schwarz,ZNB20-2Port,1311601062101988,3.16
! Created: UTC 1/12/2023, 6:42:30 PM
! freq[Hz]                db:S11                  ang:S11                 db:S21                  ang:S21                 db:S12                  ang:S12                 db:S22                  ang:S22
 7.874816547000000E9    -2.238247819826751       3.496262526055050E1    -5.288982369319004E1    -5.544205800115460E1    -5.264472121047766E1    -5.849777200343235E1    -2.176915029948781       1.102040313264487E1
 7.874877200550000E9    -2.238685121111987       3.479722201025606E1    -5.260783994899306E1    -5.883731313804694E1    -5.265096058987177E1    -6.163881019047140E1    -2.179107258060955       1.088944050146607E1
 7.874937854100000E9    -2.236879884428841       3.462049829855526E1    -5.262656991758278E1    -6.009546532526135E1    -5.278661515967173E1    -6.045230268317724E1    -2.174902026505746       1.075474926581703E1
 7.874998507650000E9    -2.234541898133726       3.443680161729479E1    -5.261199828936512E1    -5.489586180118340E1    -5.252949701796312E1    -6.310839393751164E1    -2.173597617700306       1.062349422640579E1
 7.875059161200000E9    -2.235990211627556       3.431536561632622E1    -5.223052118294120E1    -5.862107241046211E1    -5.251421687752851E1    -6.167388994286176E1    -2.177633831174488       1.050214907922573E1
 7.875119814750000E9    -2.229086902114191       3.412140600689330E1    -5.249042507428594E1    -5.792311110645941E1    -5.229446655725417E1    -6.239831808259772E1    -2.171062095540722       1.037186731958342E1
 7.875180468300000E9    -2.233706389820384       3.398926797034559E1    -5.216333577349231E1    -5.935430989890110E1    -5.200570546107799E1    -6.288728833408389E1    -2.165768753525527       1.014472450780458E1
 7.875241121850000E9    -2.231351171051834       3.380537999573905E1    -5.174405109143430E1    -5.877408693401473E1    -5.192664554229851E1    -6.094657302129332E1    -2.160006156298052       9.991143813192989
 7.875301775400000E9    -2.232635193668299       3.361810832071157E1    -5.169716451504434E1    -5.602638547054640E1    -5.206165206578778E1    -6.004067964464009E1    -2.161050760212776       9.890567174814656
 7.875362428950000E9    -2.229499270104633       3.346934872104441E1    -5.173187789232599E1    -5.965304070537665E1    -5.214545720488309E1    -6.287755491602766E1    -2.160070423226467       9.761949513487755
 7.875423082500000E9    -2.226485111208430       3.329814169723272E1    -5.204386987292273E1    -5.909574077554708E1    -5.206806098115946E1    -6.229299990234389E1    -2.163514530694013       9.644161680270265
 7.875483736050000E9    -2.226492419645327       3.311789201912106E1    -5.225736907517980E1    -5.984585187162025E1    -5.171892674261226E1    -6.359538046725120E1    -2.162885727301495       9.430986562779397
 7.875544389600000E9    -2.223852348833721       3.299530735047875E1    -5.148184050694460E1    -5.850128131749802E1    -5.184697973566361E1    -6.361811621371363E1    -2.160725051775232       9.305623909374214
 7.875605043150000E9    -2.221643083054493       3.279157496433880E1    -5.158701186969742E1    -6.141842355231566E1    -5.159731662755762E1    -6.401643602047923E1    -2.158436164482817       9.177465433624031
 7.875665696700000E9    -2.228854748578161       3.263523167410433E1    -5.147132273852321E1    -6.037348215588568E1    -5.156570902195961E1    -6.300390228762451E1    -2.156383078066699       8.988712316939447
 7.875726350250000E9    -2.222932859026083       3.248240173530295E1    -5.145382688490140E1    -6.260184080289201E1    -5.128544938322428E1    -6.480142276862038E1    -2.151410010722263       8.863777421019321
 7.875787003800000E9    -2.220755671523357       3.230205112331329E1    -5.142172019931246E1    -6.155785947894042E1    -5.127210835368072E1    -6.451999891134845E1    -2.150122091623223       8.729736328552123
 7.875847657350000E9    -2.217790214028390       3.216025794833791E1    -5.125272832723378E1    -6.233464520856258E1    -5.135027745322147E1    -6.438173457536604E1    -2.151864326652068       8.557634303875881
 7.875908310900000E9    -2.218606056267774       3.197118320597000E1    -5.110628032352213E1    -6.337767422001556E1    -5.111462566682778E1    -6.445606209644333E1    -2.150467875510943       8.434729600902831
 7.875968964450000E9    -2.222647120397496       3.179361098333290E1    -5.108898668688492E1    -6.119440196806479E1    -5.095935565180352E1    -6.433749671101826E1    -2.150658238636049       8.304358548852790
 7.876029618000000E9    -2.213892948361283       3.164210258509828E1    -5.101977833560476E1    -6.246020213787261E1    -5.105609505412115E1    -6.629227846996794E1    -2.147581391712338       8.147543044706147
 7.876090271550000E9    -2.216511928065781       3.148527714183472E1    -5.055304881248692E1    -6.399742960406283E1    -5.084953245745762E1    -6.692150787996331E1    -2.146639635901219       8.065125517029340
 7.876150925100000E9    -2.213501447317236       3.131679764475567E1    -5.077951987617705E1    -6.329772045188304E1    -5.055736955405465E1    -6.646803940467488E1    -2.138036263593149       7.856516456105851
 7.876211578650000E9    -2.216054571394803       3.114842816650226E1    -5.037025946183250E1    -6.411887102714348E1    -5.070462647361641E1    -6.617539957276718E1    -2.139016445664166       7.766691692805975
 7.876272232200000E9    -2.214760707828732       3.099759283081244E1    -5.054033088376887E1    -6.344662093869105E1    -5.053651741270546E1    -6.748241121879275E1    -2.131154664074637       7.564875454613819
 7.876332885750000E9    -2.208795089398416       3.082665274197427E1    -5.022714638432226E1    -6.324601922731790E1    -5.049445090166036E1    -6.759650720306085E1    -2.138592321015919       7.404921508301395
 7.876393539300000E9    -2.210038020005847       3.064580754503199E1    -5.023001997970145E1    -6.587725870994795E1    -5.046064218639449E1    -6.659409839815919E1    -2.129803371274269       7.283158189345329
 7.876454192850000E9    -2.211791981555940       3.049002164559029E1    -5.011992943492821E1    -6.486711265768012E1    -5.031101900164649E1    -6.671088921190876E1    -2.131838848136715       7.195771266624357
 7.876514846400000E9    -2.213115566409409       3.033129364708729E1    -5.025049666586504E1    -6.605758171434739E1    -5.015658392136763E1    -6.847300263009340E1    -2.130262380132002       7.036280473527531
 7.876575499950000E9    -2.207505955481997       3.017287116468867E1    -4.993659426839223E1    -6.522109509245047E1    -5.012574229376075E1    -6.841011044955090E1    -2.126260836031010       6.835480886513670
 7.876636153500000E9    -2.206765798646482       3.000968978678979E1    -4.975357560254987E1    -6.418360100554693E1    -4.990146885845971E1    -6.897288114043897E1    -2.132414146020186       6.762962189934854
 7.876696807050000E9    -2.203861752564485       2.984267446055928E1    -4.973572662810496E1    -6.733805608140020E1    -4.988754216126949E1    -6.734923303066432E1    -2.119193437322251       6.597511933293764
 7.876757460600000E9    -2.202308779236030       2.967300055027352E1    -4.958546127523582E1    -6.583422354706759E1    -4.962595638338739E1    -6.863975735765264E1    -2.128993361144149       6.423874686248507
 7.876818114150000E9    -2.206812147480789       2.949089028954479E1    -4.959365244956606E1    -6.544124621693788E1    -4.944666118802689E1    -6.934562597942700E1    -2.116568773213312       6.313891045245469
 7.876878767700000E9    -2.202640628041629       2.931520898085762E1    -4.926476071034523E1    -6.585051225773080E1    -4.951222000359572E1    -6.944867465298955E1    -2.121279874291277       6.166522266838523
 7.876939421250000E9    -2.207210044749861       2.916802043794265E1    -4.916760731482285E1    -6.577806589606115E1    -4.932803907957160E1    -7.001426603171254E1    -2.122445978188649       6.013573570784237
 7.877000074800000E9    -2.203774812335743       2.899990614430373E1    -4.892754670193636E1    -6.632493590171526E1    -4.913002126758086E1    -7.012060847364805E1    -2.107459337079386       5.924050711918440
 7.877060728350000E9    -2.201907385150708       2.883640914498624E1    -4.895295028812996E1    -6.808133005536982E1    -4.906503653507097E1    -7.009547957041700E1    -2.118706047223701       5.744919807187637
 7.877121381900000E9    -2.200912121097906       2.867600412560786E1    -4.900951489425144E1    -6.730038354271136E1    -4.905793273746461E1    -7.157927737803567E1    -2.108054143284015       5.599464894344929
 7.877182035450000E9    -2.197022545021272       2.848924257934729E1    -4.877053491348416E1    -6.817239671704559E1    -4.885770903964610E1    -7.230586431838987E1    -2.113224475352849       5.454971917384946
 7.877242689000000E9    -2.198427588597965       2.832471561733289E1    -4.866112962890460E1    -6.839561694891528E1    -4.865370672354811E1    -7.152736626316421E1    -2.111201841874761       5.289039158198370
 7.877303342550000E9    -2.203077320353445       2.818235309869507E1    -4.855653715772377E1    -6.828505382825477E1    -4.849377042441149E1    -7.078456798851512E1    -2.107521903792134       5.181818321446083
 7.877363996100000E9    -2.196810135512859       2.801794780193253E1    -4.840591227050565E1    -6.785022774779199E1    -4.851108615776490E1    -7.352063962758533E1    -2.103541019258000       5.026594087265633
 7.877424649650000E9    -2.194965796619642       2.783296090273301E1    -4.803355504746597E1    -6.910009290837164E1    -4.808504741324442E1    -7.191070384093763E1    -2.104001051133753       4.865020472059321
 7.877485303200000E9    -2.198215509019218       2.770305440208653E1    -4.802170192499946E1    -6.987404519184614E1    -4.797871968862353E1    -7.390095047904778E1    -2.109152480802337       4.768267658262466
 7.877545956750000E9    -2.195086695270119       2.752501327800210E1    -4.784687513553278E1    -7.148075818290080E1    -4.804493537529102E1    -7.442904706757199E1    -2.098885467053841       4.625355769636585
 7.877606610300000E9    -2.194513964535672       2.736092811247550E1    -4.785832796130094E1    -7.075729637342941E1    -4.777799614590172E1    -7.382800755958264E1    -2.098065452385300       4.455688834148411
 7.877667263850000E9    -2.197318080830122       2.717634156233658E1    -4.776825768020670E1    -7.099415242849940E1    -4.751196126674098E1    -7.469896576115310E1    -2.100500655776733       4.271542371156177
 7.877727917400000E9    -2.193601526182548       2.701935234955772E1    -4.727930694807257E1    -7.162098860637498E1    -4.751654752560345E1    -7.524024778955314E1    -2.095612162370437       4.179690117929379
 7.877788570950000E9    -2.193753976978895       2.685292259803905E1    -4.717143496935307E1    -7.209227251393308E1    -4.731741071465296E1    -7.475949287485689E1    -2.099522496776877       4.040484092069359
 7.877849224500000E9    -2.192458723885552       2.666770832302844E1    -4.698950860895700E1    -7.170772717849576E1    -4.701974061853137E1    -7.602138621088527E1    -2.097577681599948       3.858973687535326
 7.877909878050000E9    -2.192982085216085       2.652114301866708E1    -4.681301765228307E1    -7.184115542724565E1    -4.686355004709903E1    -7.626820833566879E1    -2.100158304266549       3.752495746327376
 7.877970531600000E9    -2.188848608134093       2.633909408572636E1    -4.670010156678310E1    -7.301266196379885E1    -4.686467385877585E1    -7.601966013351357E1    -2.093331402554891       3.596744742963679
 7.878031185150000E9    -2.190054339375024       2.616645939824058E1    -4.648838056228476E1    -7.319297201137262E1    -4.674611013107915E1    -7.651444053892368E1    -2.096476225328310       3.432792338486329
 7.878091838700000E9    -2.189094973762910       2.601592401171902E1    -4.653228580193490E1    -7.399844470379441E1    -4.650601162859794E1    -7.782680263825621E1    -2.093786740568850       3.325980202983336
 7.878152492250000E9    -2.189730725310914       2.583526212983289E1    -4.620802480927853E1    -7.473365936370389E1    -4.620488502800256E1    -7.782593227768746E1    -2.086156532801918       3.204095940910200
 7.878213145800000E9    -2.187195602589719       2.565845412049148E1    -4.609892435670587E1    -7.510082242372494E1    -4.621552745998466E1    -7.784678841751577E1    -2.090392616767868       2.999104449592717
 7.878273799350000E9    -2.188341997353587       2.548713309644952E1    -4.583671904047712E1    -7.585887712039148E1    -4.603680558329366E1    -7.890552769972891E1    -2.086048490778485       2.904620615223021
 7.878334452900000E9    -2.188187136808218       2.531696873179774E1    -4.574851900296687E1    -7.615967901138680E1    -4.567857766641233E1    -7.929657298820986E1    -2.085222615220947       2.756299408588090
 7.878395106450000E9    -2.192674074010262       2.515678628102353E1    -4.543910318616776E1    -7.668150834916555E1    -4.556580375482703E1    -8.019172541542201E1    -2.088341670942026       2.591566657475333
 7.878455760000000E9    -2.185958895181328       2.498711327997498E1    -4.532624315732708E1    -7.787997891079173E1    -4.538428736348226E1    -8.051943778320285E1    -2.089708230407688       2.508570594747179
 7.878516413550000E9    -2.189265136863335       2.483581112558931E1    -4.507288540648609E1    -7.771974406021135E1    -4.519114384959590E1    -8.031158037470523E1    -2.086340676413930       2.321557307286821
 7.878577067100000E9    -2.187144720550110       2.466142348381088E1    -4.480799017000032E1    -7.854699411179864E1    -4.494431043988554E1    -8.073917066690554E1    -2.093019628107097       2.184616681438527
 7.878637720650000E9    -2.184453783594348       2.448981285173162E1    -4.468766744281748E1    -7.895068121365119E1    -4.470692689809460E1    -8.168213271815530E1    -2.085245274939989       2.053511480244368
 7.878698374200000E9    -2.185614756510638       2.433607563928655E1    -4.456477944490451E1    -7.909680347831242E1    -4.455950105329589E1    -8.275080123364873E1    -2.085223156255283       1.884867971781427
 7.878759027750000E9    -2.185594731023859       2.416280370879493E1    -4.429029651568506E1    -7.949698611096102E1    -4.429640300565363E1    -8.364953305838834E1    -2.083770413571497       1.754690343333424
 7.878819681300000E9    -2.186881236174266       2.396425051092926E1    -4.406463347739928E1    -8.015644429598497E1    -4.407085333573940E1    -8.405106143852102E1    -2.083510633387280       1.630957435001645
 7.878880334850000E9    -2.186631078729570       2.379271674843092E1    -4.370464649191674E1    -8.005826979073554E1    -4.391749235420452E1    -8.455033545691990E1    -2.084344296329975       1.439571918382837
 7.878940988400000E9    -2.185757160453058       2.362459224879563E1    -4.350126446379036E1    -8.121698760954843E1    -4.355140759890549E1    -8.564092070597891E1    -2.082186167816196       1.334856605339187
 7.879001641950000E9    -2.189096514041809       2.346789043587594E1    -4.324803344347394E1    -8.312557260111659E1    -4.334194786592036E1    -8.663040103571848E1    -2.082479088842761       1.171029550009572
 7.879062295500000E9    -2.187740202009163       2.327600606822865E1    -4.301397667760834E1    -8.345635587249625E1    -4.318669883294504E1    -8.663769797511802E1    -2.085402345397990       1.027953679484140
 7.879122949050000E9    -2.189804528544015       2.310919530318605E1    -4.268927302227042E1    -8.358045389031538E1    -4.283532517271460E1    -8.738482530860735E1    -2.081897569804747       8.768286131363415E-1
 7.879183602600000E9    -2.188788514015837       2.293940210753211E1    -4.241370894745245E1    -8.546569477648600E1    -4.256752755599567E1    -8.888863121140039E1    -2.084142369058906       7.221016630621490E-1
 7.879244256150000E9    -2.191780799775721       2.274033511508277E1    -4.221983707324179E1    -8.516058274075436E1    -4.228065988517791E1    -9.003718158173895E1    -2.082281139223731       5.360579658793095E-1
 7.879304909700000E9    -2.190021953973348       2.260099118899097E1    -4.191717935791493E1    -8.728756865083103E1    -4.210901441359914E1    -8.988103428672801E1    -2.085042254894341       4.619031959550547E-1
 7.879365563250000E9    -2.193397886852600       2.239202656647311E1    -4.163584049091772E1    -8.801885573563231E1    -4.177043577997493E1    -9.133924088728371E1    -2.088238056154521       2.854404475172415E-1
 7.879426216800000E9    -2.189661827674287       2.225042180107172E1    -4.133292598399086E1    -8.879539217992034E1    -4.154819745906014E1    -9.213757907876200E1    -2.087477777459365       1.353092611548850E-1
 7.879486870350000E9    -2.194810016782138       2.208593686267044E1    -4.097100099884344E1    -9.001573104308781E1    -4.113172008834952E1    -9.340241730829501E1    -2.089452347880173      -5.420167288491786E-2
 7.879547523900000E9    -2.201366309029531       2.189861527094202E1    -4.066103421085829E1    -9.124394227062021E1    -4.088418109085919E1    -9.470570860030847E1    -2.083334043182499      -1.661616109683206E-1
 7.879608177450000E9    -2.200675341007490       2.171600311200938E1    -4.042668773659909E1    -9.243637731073299E1    -4.065572219108289E1    -9.638024456521758E1    -2.091846527814540      -3.832512582499066E-1
 7.879668831000000E9    -2.201076103001878       2.153480737958798E1    -4.006186524682784E1    -9.385929928971117E1    -4.027080249591258E1    -9.714186973182092E1    -2.094071349063698      -5.140372201763145E-1
 7.879729484550000E9    -2.205819067593831       2.136920700833942E1    -3.970713216070536E1    -9.487275360461770E1    -3.987630222656436E1    -9.830672482817980E1    -2.096946128920440      -6.614407006045238E-1
 7.879790138100000E9    -2.210150736203170       2.117886070403127E1    -3.933802486383973E1    -9.681534507711777E1    -3.953074171130261E1    -1.002930064065783E2    -2.100652316012259      -8.320993206257762E-1
 7.879850791650000E9    -2.214609209904676       2.099475903274394E1    -3.895088219365343E1    -9.803159772391818E1    -3.921137876297660E1    -1.017546986589181E2    -2.100440650117527      -1.017957637852055
 7.879911445200000E9    -2.220013591239082       2.082562004539137E1    -3.863283790852202E1    -1.000277360718016E2    -3.879610152562714E1    -1.033433656242857E2    -2.115776675637110      -1.113500179785928
 7.879972098750000E9    -2.224012853688164       2.067378783920423E1    -3.827587426602655E1    -1.019359946397282E2    -3.843725095133949E1    -1.054139877852039E2    -2.113640150149390      -1.268558913497460
 7.880032752300000E9    -2.229167067608683       2.048922144251017E1    -3.785873181766328E1    -1.037706214266708E2    -3.807959244173973E1    -1.069966260444054E2    -2.119808926124427      -1.452771519855496
 7.880093405850000E9    -2.235382920198634       2.031962672425093E1    -3.749422251072947E1    -1.061008893114235E2    -3.772042401414166E1    -1.092604875989942E2    -2.122835866625391      -1.596981386453691
 7.880154059400000E9    -2.245331699666940       2.014049584953026E1    -3.707626708348882E1    -1.084407962947241E2    -3.727512884256057E1    -1.120863345511528E2    -2.134656617502480      -1.684806511734470
 7.880214712950000E9    -2.253216140981647       1.994590142213457E1    -3.668140669641663E1    -1.111634312448263E2    -3.688982736253651E1    -1.146756686427312E2    -2.144538562452060      -1.857512416793969
 7.880275366500000E9    -2.264368398288988       1.980274926678327E1    -3.632317469207590E1    -1.140650313256814E2    -3.647467029176688E1    -1.173247574420930E2    -2.148477747625325      -2.040772376476622
 7.880336020050000E9    -2.273202028108581       1.967325778368308E1    -3.588589658889757E1    -1.170797523951948E2    -3.606527674131222E1    -1.207339514572624E2    -2.163452636953633      -2.126093863338050
