#  HZ   S   DB   R     50.00 
! Rohde & Schwarz Vector Network Analyzer 
! Rohde-Schwarz,ZNB20-2Port,1311601062101988,3.16
! Created: UTC 1/12/2023, 6:45:19 PM
! freq[Hz]                db:S11                  ang:S11                 db:S21                  ang:S21                 db:S12                  ang:S12                 db:S22                  ang:S22
 7.875090076000000E9    -2.231339320772303       3.427500464211429E1    -5.294661155714454E1    -5.634097476054849E1    -5.263674477730864E1    -6.181128822912952E1    -2.158772781178548       1.045768039431532E1
 7.875150729550000E9    -2.230391202275736       3.412711301887911E1    -5.244614861686738E1    -5.982425598050597E1    -5.292275539787041E1    -6.013136024585929E1    -2.170355638232230       1.029343598479016E1
 7.875211383100000E9    -2.229645878974511       3.393852413810575E1    -5.218435691320558E1    -5.389846038293025E1    -5.265916735367664E1    -5.875596930082563E1    -2.159516417928325       1.013517060797665E1
 7.875272036650000E9    -2.230869261991188       3.377259820429479E1    -5.208667587162222E1    -5.812691547255147E1    -5.237811073925180E1    -6.096017357900691E1    -2.154697491663569       9.998506753605010
 7.875332690200000E9    -2.229265151815828       3.363227550109476E1    -5.266244716750364E1    -5.998259952457339E1    -5.216861454679290E1    -6.008471177935811E1    -2.154350100800224       9.864745715018733
 7.875393343750000E9    -2.228623713794505       3.342977838030866E1    -5.242952515608235E1    -5.809042268335085E1    -5.245313941769233E1    -6.139556732922183E1    -2.154026455755330       9.725306487420390
 7.875453997300000E9    -2.225860895868711       3.327054482039272E1    -5.226286396545851E1    -5.702661310512600E1    -5.211957296905080E1    -6.282487375103707E1    -2.151575324153864       9.602827893243475
 7.875514650850000E9    -2.223291765047084       3.311010745409830E1    -5.225581723618706E1    -5.775612845639100E1    -5.225182824800417E1    -6.096140073644541E1    -2.148832385283688       9.386919551466939
 7.875575304400000E9    -2.223966115209059       3.293715963072855E1    -5.212592162459409E1    -5.766209725034171E1    -5.203551222672583E1    -6.242800970144481E1    -2.144160319319359       9.272930400361648
 7.875635957950000E9    -2.225257888224498       3.276888705793950E1    -5.181729545147508E1    -5.994463628131269E1    -5.209317150692249E1    -6.187144287502895E1    -2.144553656620319       9.186841707572968
 7.875696611500000E9    -2.221153979975343       3.262805965857711E1    -5.192122624880274E1    -6.177832351220977E1    -5.182317816803235E1    -6.124038498413372E1    -2.146239413331250       9.005680832025909
 7.875757265050000E9    -2.218946968634589       3.244449821905877E1    -5.182866234035296E1    -6.155653882607101E1    -5.181947062380065E1    -6.210726184254690E1    -2.145499400537334       8.882694427734739
 7.875817918600000E9    -2.219518021436780       3.227622752060159E1    -5.137348731816284E1    -6.029470465874841E1    -5.162117687719637E1    -6.411458003137254E1    -2.137098618061325       8.699610391948402
 7.875878572150000E9    -2.219557459882933       3.208812156659346E1    -5.169127009853449E1    -5.962010965454606E1    -5.168598429197588E1    -6.498556267028893E1    -2.140415024354346       8.580062505793824
 7.875939225700000E9    -2.221992047478775       3.195956753151382E1    -5.149082549659007E1    -5.968478011122285E1    -5.153922485775819E1    -6.310786017433819E1    -2.140290767561817       8.411128693843329
 7.875999879250000E9    -2.218876096633598       3.178990170782442E1    -5.151052205665100E1    -5.944613534045001E1    -5.160390744685340E1    -6.484773074957471E1    -2.137312877275213       8.265339344605799
 7.876060532800000E9    -2.217236227665484       3.160673349053316E1    -5.128610894273996E1    -6.318633046497600E1    -5.123973865699354E1    -6.444389146909521E1    -2.134861317061098       8.163677422601598
 7.876121186350000E9    -2.213975364609491       3.145161568783412E1    -5.099127957721181E1    -6.065638820472152E1    -5.113802150241949E1    -6.638548927373718E1    -2.136390397242605       7.985833678495216
 7.876181839900000E9    -2.212625941201169       3.129276583742578E1    -5.108400799192716E1    -6.285691194200341E1    -5.122080372173344E1    -6.547028094444146E1    -2.125189068620974       7.906882364301198
 7.876242493450000E9    -2.212081138372643       3.112337468184282E1    -5.113930935827006E1    -6.122777407505296E1    -5.137018432416605E1    -6.533671141701689E1    -2.123483888373057       7.696626097776934
 7.876303147000000E9    -2.208844977758444       3.095466684539623E1    -5.096190317085611E1    -6.149828718256296E1    -5.103161775265399E1    -6.595548752678263E1    -2.125794752305588       7.579436591297784
 7.876363800550000E9    -2.207233883737072       3.078568267867736E1    -5.068781158326853E1    -6.196267501051404E1    -5.083468628819122E1    -6.609519044228857E1    -2.127503923203688       7.413507521926812
 7.876424454100000E9    -2.206144766093685       3.062837075214676E1    -5.039698490883536E1    -6.281343644294254E1    -5.071625373025753E1    -6.580919778021324E1    -2.126749168464721       7.306162798511577
 7.876485107650000E9    -2.209306146763817       3.043846524222822E1    -5.078496096692657E1    -6.594745337619948E1    -5.064160281097145E1    -6.742395436218906E1    -2.124037505833316       7.126912534263337
 7.876545761200000E9    -2.207535929132224       3.028565512663866E1    -5.030986973689451E1    -6.444626630741431E1    -5.058897914291531E1    -6.691014506618457E1    -2.119381078871398       7.000636348871400
 7.876606414750000E9    -2.205405875618004       3.013471629438129E1    -5.041053530660808E1    -6.285492918882949E1    -5.053846663318023E1    -6.708773086746201E1    -2.118389112345032       6.871203726411371
 7.876667068300000E9    -2.201389898120280       2.997653748716854E1    -5.021517504998475E1    -6.280196377664623E1    -5.049519315982620E1    -6.934619377746392E1    -2.114926242600028       6.712354200435402
 7.876727721850000E9    -2.199921083744201       2.979295062691540E1    -5.009419045595649E1    -6.494889378938952E1    -5.019473713631174E1    -6.920494315274964E1    -2.115510926443112       6.557990386437626
 7.876788375400000E9    -2.202218160959174       2.965431750626323E1    -4.994324557520641E1    -6.392229420331530E1    -5.030766825596345E1    -6.757251699227790E1    -2.116760350831433       6.401588526121937
 7.876849028950000E9    -2.197743985204577       2.947578078811341E1    -4.972711175562346E1    -6.471450912200747E1    -4.997314101844864E1    -6.837707022530354E1    -2.115686360272753       6.286138344712931
 7.876909682500000E9    -2.201064814334831       2.929711196030435E1    -4.982692696734874E1    -6.407175779428545E1    -4.993040283332466E1    -6.820886964805050E1    -2.112275066290243       6.094749717251837
 7.876970336050000E9    -2.196308855822471       2.912032011048134E1    -4.975841223727664E1    -6.560150028615678E1    -4.982644577359017E1    -6.956427236740041E1    -2.108698366081406       6.034770389960113
 7.877030989600000E9    -2.197663068056585       2.896909128032921E1    -4.947413272529387E1    -6.570003152230461E1    -4.954277776564506E1    -7.015186044307758E1    -2.107246607433345       5.924652734654122
 7.877091643150000E9    -2.200360290877295       2.881732658798325E1    -4.945643165088402E1    -6.448990104747122E1    -4.942715227168293E1    -6.877654016775575E1    -2.108857316009318       5.726474656489312
 7.877152296700000E9    -2.193358705217237       2.863385406809260E1    -4.930827133860419E1    -6.597510812752796E1    -4.932362723898480E1    -6.997698227593303E1    -2.102853632276882       5.558341907271729
 7.877212950250000E9    -2.195503264295009       2.848577076400196E1    -4.906211402315640E1    -6.607181427720542E1    -4.940709366980606E1    -7.013207023873130E1    -2.102057506941839       5.423712860520931
 7.877273603800000E9    -2.197451157159228       2.831667212964645E1    -4.905044239713298E1    -6.629427780173462E1    -4.900592281521560E1    -7.002868526970924E1    -2.105912436104585       5.349039958880763
 7.877334257350000E9    -2.194307886272473       2.814387731797456E1    -4.897112671415595E1    -6.756101044302014E1    -4.903369630385718E1    -7.101472265371795E1    -2.099652142613272       5.156144390416030
 7.877394910900000E9    -2.194300865497852       2.797729432288754E1    -4.891484850359716E1    -6.729261593134702E1    -4.892041190628304E1    -7.198969028136317E1    -2.103756675312780       5.065464771689966
 7.877455564450000E9    -2.191572540245631       2.782998363464527E1    -4.849428095658848E1    -6.820434591298931E1    -4.892147605690691E1    -7.057755435433936E1    -2.102252402569782       4.867112477168906
 7.877516218000000E9    -2.190835225815906       2.765054234712641E1    -4.863767430625291E1    -6.729868758331369E1    -4.847464758386224E1    -7.134174382605447E1    -2.093999414645054       4.760217655981031
 7.877576871550000E9    -2.192440753440329       2.747737678417387E1    -4.843980561034326E1    -6.825311569562695E1    -4.840993310098021E1    -7.061765770014355E1    -2.094708995808237       4.622175266466352
 7.877637525100000E9    -2.193367119281883       2.731987513554179E1    -4.822121321349996E1    -6.933075327864066E1    -4.827748389831433E1    -7.209772789339411E1    -2.087909394627747       4.461594070164410
 7.877698178650000E9    -2.187768546159164       2.712942554302853E1    -4.804198328520941E1    -6.872289640674687E1    -4.822206452044351E1    -7.176744021795986E1    -2.084954005160577       4.285810503231269
 7.877758832200000E9    -2.190758096721691       2.699301142540476E1    -4.799379624391449E1    -6.926593065090314E1    -4.789365774625472E1    -7.214229311683440E1    -2.090908384491242       4.173716089287868
 7.877819485750000E9    -2.190979261259302       2.679796055292837E1    -4.768954029698235E1    -6.918724980851334E1    -4.795534622519786E1    -7.317352340326191E1    -2.095300772920445       4.018825195085726
 7.877880139300000E9    -2.187197692928216       2.667010706882864E1    -4.778235051581174E1    -7.027159954070859E1    -4.768992899240381E1    -7.328537165728177E1    -2.083213776759166       3.917935140193118
 7.877940792850000E9    -2.188272296886512       2.649221725109908E1    -4.746334059161615E1    -7.050241326352310E1    -4.772653513469472E1    -7.355228650257416E1    -2.082168809941607       3.731637669713291
 7.878001446400000E9    -2.188283787522118       2.632146289659983E1    -4.726445228746239E1    -7.054285125102980E1    -4.740018844644760E1    -7.509862779931144E1    -2.077700314825577       3.564256804798441
 7.878062099950000E9    -2.186738028439063       2.615397397182346E1    -4.732664334864870E1    -7.107385605264926E1    -4.738967996445821E1    -7.424932952918604E1    -2.090676919133815       3.501126783029129
 7.878122753500000E9    -2.186024198083943       2.597951744457587E1    -4.690311554037426E1    -7.124034118774402E1    -4.707788230687619E1    -7.571038824547969E1    -2.083840427785700       3.301190707968489
 7.878183407050000E9    -2.186881453853627       2.582051612005122E1    -4.673570031317477E1    -7.217554029860349E1    -4.691276369277053E1    -7.582306018564864E1    -2.077174683700182       3.184131778088260
 7.878244060600000E9    -2.183727590427087       2.565958425121825E1    -4.664107380607196E1    -7.231599547130128E1    -4.676430825119658E1    -7.578816851820120E1    -2.085614434520503       3.021585751193786
 7.878304714150000E9    -2.184223959397618       2.548099808656290E1    -4.661418804214524E1    -7.312793899849824E1    -4.662264519189144E1    -7.649941997163712E1    -2.072746184310279       2.943516900228450
 7.878365367700000E9    -2.182264876528713       2.529651296180984E1    -4.625947708720734E1    -7.342020952999412E1    -4.638698241221163E1    -7.596867758166891E1    -2.076698880175038       2.747010910475520
 7.878426021250000E9    -2.182290231310439       2.513223497505668E1    -4.613716010196183E1    -7.350347543982421E1    -4.634163320314160E1    -7.761226438297405E1    -2.082653895940709       2.639610519404513
 7.878486674800000E9    -2.184461168953920       2.498108186187267E1    -4.588036100478170E1    -7.345078679846829E1    -4.617589687750925E1    -7.739592168631665E1    -2.084696463724879       2.506451861366267
 7.878547328350000E9    -2.179819281728365       2.483000815996528E1    -4.580199056871790E1    -7.403719128916632E1    -4.583984772834939E1    -7.754274421264985E1    -2.068921890469943       2.334427858574387
 7.878607981900000E9    -2.182976674953987       2.465237901232340E1    -4.545507856627866E1    -7.449091607923590E1    -4.577374795115681E1    -7.854302657689922E1    -2.078645806712733       2.187951031770975
 7.878668635450000E9    -2.177382608866459       2.448516868784243E1    -4.542275669378006E1    -7.554614126426600E1    -4.551103115956367E1    -7.958753479470154E1    -2.079005054216921       2.079513215532226
 7.878729289000000E9    -2.180720067177602       2.428968373224860E1    -4.528436806448704E1    -7.524250786488238E1    -4.522825273209208E1    -7.993733951872609E1    -2.074845151282034       1.936953883320490
 7.878789942550000E9    -2.181674525692304       2.415479329914239E1    -4.498463588418239E1    -7.663078026373817E1    -4.512912884788767E1    -8.029188045347591E1    -2.065661583309058       1.740274675357878
 7.878850596100000E9    -2.178759182244292       2.395735980813745E1    -4.486802185595886E1    -7.739203979788363E1    -4.493471367836680E1    -8.113758622358560E1    -2.061132860350816       1.611294103441354
 7.878911249650000E9    -2.176977118033306       2.378755497124300E1    -4.461592359650912E1    -7.779127573894655E1    -4.466246126862112E1    -8.048950685182500E1    -2.075076277695159       1.466824719877127
 7.878971903200000E9    -2.178808414527887       2.363662658662378E1    -4.431089229944880E1    -7.824444285499854E1    -4.438173551823012E1    -8.109528691023300E1    -2.070432121747837       1.311350048024027
 7.879032556750000E9    -2.181558533337347       2.343609302353465E1    -4.423171145432814E1    -7.942454085285907E1    -4.421369995833131E1    -8.195586915699405E1    -2.075323532557507       1.173888429186163
 7.879093210300000E9    -2.180205495470636       2.328641724265419E1    -4.377120886389683E1    -7.841893952936648E1    -4.396496804333011E1    -8.270100057791316E1    -2.075397790926734       1.084690378998494
 7.879153863850000E9    -2.184007974311393       2.310855246186199E1    -4.368397552382437E1    -8.034506448451529E1    -4.374518111979231E1    -8.298139525537152E1    -2.063933087395171       8.998895693866107E-1
 7.879214517400000E9    -2.179294432151390       2.293894537825713E1    -4.340487459391205E1    -8.094150354094678E1    -4.353245064051740E1    -8.443102299733766E1    -2.068646369507332       7.252009109882156E-1
 7.879275170950000E9    -2.178370100164611       2.277048690340067E1    -4.318175205251024E1    -8.206059163016185E1    -4.328616189504623E1    -8.418830716501351E1    -2.066813322322298       5.961827942482654E-1
 7.879335824500000E9    -2.182329852079774       2.260331874553413E1    -4.279126395306230E1    -8.242459782578332E1    -4.288687907282630E1    -8.506547154207632E1    -2.067540717582208       4.621587194989203E-1
 7.879396478050000E9    -2.179000867012022       2.241975808500992E1    -4.248384471971301E1    -8.282262612355507E1    -4.282279743804942E1    -8.591548448000296E1    -2.065180476483707       2.822442669361918E-1
 7.879457131600000E9    -2.181857103794675       2.224372584182513E1    -4.227731938725868E1    -8.383157614286706E1    -4.245614463945721E1    -8.672194198438363E1    -2.070499411335935       1.825432101475247E-1
 7.879517785150000E9    -2.185587995121516       2.205987778052863E1    -4.207802996139837E1    -8.474961398482459E1    -4.226061578258349E1    -8.808927468178047E1    -2.072116127586583      -5.206764723567853E-2
 7.879578438700000E9    -2.185271388133115       2.187660227370472E1    -4.182113956757556E1    -8.511190600632004E1    -4.198424678278742E1    -8.903339646260100E1    -2.066934341122132      -1.716739869547191E-1
 7.879639092250000E9    -2.182551649366688       2.172505115106049E1    -4.146228217837083E1    -8.610074584144719E1    -4.162164162700596E1    -8.989722360761667E1    -2.072749007404657      -3.081156772041070E-1
 7.879699745800000E9    -2.183501736367492       2.154350916817931E1    -4.116747330712496E1    -8.698804372462141E1    -4.131827372331684E1    -9.094881007753541E1    -2.079438257381312      -4.788472830714033E-1
 7.879760399350000E9    -2.184333684432210       2.136143042236301E1    -4.085208638925078E1    -8.743362085549987E1    -4.099032075895008E1    -9.183176443797143E1    -2.072829416324805      -5.907099531391916E-1
 7.879821052900000E9    -2.187454147973364       2.116289669240505E1    -4.039857753995504E1    -8.866397860230718E1    -4.066963128257588E1    -9.276795608261175E1    -2.066511378251366      -7.890122899630647E-1
 7.879881706450000E9    -2.194225733038849       2.099947544745898E1    -4.015764495858556E1    -9.002436010878958E1    -4.035400553478823E1    -9.384581300383194E1    -2.075104091632838      -9.487074425114316E-1
 7.879942360000000E9    -2.195388748188139       2.081631317455267E1    -3.988979097114398E1    -9.139459750217318E1    -3.998470157573644E1    -9.525970035417961E1    -2.076449409336113      -1.080200124119621
 7.880003013550000E9    -2.197736711887071       2.063633974080902E1    -3.945784583645401E1    -9.308051853703557E1    -3.960031735062098E1    -9.615774947718782E1    -2.080783343930156      -1.262850722121414
 7.880063667100000E9    -2.202718245904431       2.045932732385202E1    -3.907014790263791E1    -9.401037934776549E1    -3.925383433601358E1    -9.770449942571790E1    -2.084193801592535      -1.396290637198377
 7.880124320650000E9    -2.207372035535004       2.029874860924617E1    -3.876044824664221E1    -9.658729874910952E1    -3.889657131428716E1    -9.939436635497728E1    -2.090995097649316      -1.530402866359628
 7.880184974200000E9    -2.210835414769041       2.007770280548487E1    -3.826731724018435E1    -9.807773910421800E1    -3.850306465535665E1    -1.013545591069391E2    -2.102046187622026      -1.762449273621764
 7.880245627750000E9    -2.216783716777684       1.989022416059682E1    -3.799550468682533E1    -9.905419022250247E1    -3.814126823331806E1    -1.029706025202842E2    -2.099496584947240      -1.877793504445022
 7.880306281300000E9    -2.222871956498747       1.973720069690667E1    -3.750745996816776E1    -1.013230427369532E2    -3.771923138744658E1    -1.047143026484927E2    -2.111124640673950      -2.086620677917097
 7.880366934850000E9    -2.228292035141732       1.955120416683842E1    -3.709807001982274E1    -1.033215081731160E2    -3.724992400909261E1    -1.068208219819808E2    -2.108628242505188      -2.202744821134670
 7.880427588400000E9    -2.236618647165523       1.938489265493262E1    -3.661648945092913E1    -1.057089024076820E2    -3.682071426955584E1    -1.092862780415081E2    -2.117046862325779      -2.404800708552343
 7.880488241950000E9    -2.246577780116370       1.918543163005926E1    -3.615934891964941E1    -1.090727419461927E2    -3.640787239358659E1    -1.120546424282107E2    -2.130046101201873      -2.519454391829866
 7.880548895500000E9    -2.260152005856894       1.903152742038856E1    -3.569861935799220E1    -1.113347506786636E2    -3.596059391952630E1    -1.148553360300074E2    -2.136667223466598      -2.651401119096450
 7.880609549050000E9    -2.271417946645736       1.888390341960232E1    -3.523158944729177E1    -1.143025192281382E2    -3.550857201428879E1    -1.179803199223410E2    -2.156666892214373      -2.866881603844268
