#  HZ   S   DB   R     50.00 
! Rohde & Schwarz Vector Network Analyzer 
! Rohde-Schwarz,ZNB20-2Port,1311601062101988,3.16
! Created: UTC 1/12/2023, 6:34:36 PM
! freq[Hz]                db:S11                  ang:S11                 db:S21                  ang:S21                 db:S12                  ang:S12                 db:S22                  ang:S22
 7.874803329000000E9    -2.228157978129610       3.509322358065091E1    -5.271419084715462E1    -5.976493128786024E1    -5.257384601575595E1    -6.023854479703127E1    -2.146228816615277       1.103896520456216E1
 7.874863982550000E9    -2.228652098034639       3.491673974283553E1    -5.253955075143815E1    -5.988104974639197E1    -5.254683311214032E1    -6.149799593107964E1    -2.142826456307503       1.090718189909894E1
 7.874924636100000E9    -2.227118831009276       3.476348391089814E1    -5.230273174845572E1    -5.932810444486296E1    -5.234937756468733E1    -6.135655014690216E1    -2.133384217056687       1.075420000432806E1
 7.874985289650000E9    -2.226292386164721       3.457904518458624E1    -5.241361022807034E1    -5.956843520566522E1    -5.245886133796585E1    -6.223829868781984E1    -2.135863187290219       1.061322640155348E1
 7.875045943200000E9    -2.223475158322645       3.442169904145535E1    -5.236776648521585E1    -5.768102250694409E1    -5.240223487705396E1    -6.108625712282946E1    -2.135097890225805       1.045388858374208E1
 7.875106596750000E9    -2.222675841967052       3.425128589069319E1    -5.212066972049115E1    -5.894862514059231E1    -5.205317122269948E1    -6.165151868696166E1    -2.138441345809915       1.032110996631904E1
 7.875167250300000E9    -2.220322618581866       3.410767234175367E1    -5.202002994910853E1    -6.218053309084846E1    -5.222105696839787E1    -6.322127213819417E1    -2.133718500301299       1.016868035605751E1
 7.875227903850000E9    -2.221835584627598       3.390813813179095E1    -5.210527083170938E1    -6.003490056581491E1    -5.207165265301397E1    -6.318780901039851E1    -2.132791170291105       9.997418358335036
 7.875288557400000E9    -2.220626437824132       3.375677029514767E1    -5.198310054925920E1    -6.135642099175558E1    -5.175109654913040E1    -6.430423553975720E1    -2.131734649107257       9.900872081595045
 7.875349210950000E9    -2.218803250309920       3.360775626366421E1    -5.141368856325155E1    -5.993556368488733E1    -5.183009530338914E1    -6.466328351458534E1    -2.126652831162518       9.763992703145634
 7.875409864500000E9    -2.220379559119369       3.341946904305752E1    -5.164887886865183E1    -5.990451039403170E1    -5.188219816752543E1    -6.390685262170872E1    -2.131289880757524       9.605259571836724
 7.875470518050000E9    -2.214096096555064       3.327200488682087E1    -5.158715208135423E1    -6.003518305939413E1    -5.194739319555578E1    -6.379808742227137E1    -2.128610307632101       9.469359466672918
 7.875531171600000E9    -2.216039054603121       3.309406802856658E1    -5.143184257548191E1    -6.050027910098367E1    -5.146325943384199E1    -6.377610540352208E1    -2.122849043044712       9.337247262340536
 7.875591825150000E9    -2.214124876450520       3.292536257327648E1    -5.166381137292396E1    -5.999854346380091E1    -5.155799393609630E1    -6.413535808784782E1    -2.113214572463605       9.170283132881355
 7.875652478700000E9    -2.214638822523049       3.277406359295411E1    -5.123209258575244E1    -6.216557497241451E1    -5.152562908771465E1    -6.548252790432710E1    -2.121229316533666       8.998195449533199
 7.875713132250000E9    -2.211104493744172       3.260531894595972E1    -5.111446265255351E1    -6.255625701962257E1    -5.150774018890790E1    -6.372627247066511E1    -2.119850611084990       8.903576465309103
 7.875773785800000E9    -2.212209346480877       3.243891675903651E1    -5.121306414883749E1    -6.221839673985453E1    -5.129089101949984E1    -6.415932164571500E1    -2.119861250686279       8.729682371595469
 7.875834439350000E9    -2.208458950594267       3.226875855677559E1    -5.113249669145839E1    -6.385948581870856E1    -5.111141052411724E1    -6.536119135008077E1    -2.121746299496181       8.591955962336289
 7.875895092900000E9    -2.211851216860044       3.207536351466180E1    -5.117751516065734E1    -6.295848375304250E1    -5.079705947660323E1    -6.516220844906515E1    -2.110140020980818       8.465734872501997
 7.875955746450000E9    -2.205102882800388       3.192183073148837E1    -5.083456492355275E1    -6.281172287808057E1    -5.079399458294301E1    -6.508211740095926E1    -2.108735573626432       8.332252609218033
 7.876016400000000E9    -2.207756213333735       3.175840739586487E1    -5.111336732300258E1    -6.369505610138704E1    -5.076428810214603E1    -6.681337428448403E1    -2.107041360531620       8.131471780122279
 7.876077053550000E9    -2.207774799551071       3.159026135188244E1    -5.078671678681712E1    -6.545029425081003E1    -5.070813337479122E1    -6.517549753826924E1    -2.106675561720080       8.048241706858756
 7.876137707100000E9    -2.208672163580283       3.144835971996987E1    -5.063193039842587E1    -6.503096706395441E1    -5.062252707676605E1    -6.562112079153935E1    -2.101454249361788       7.919786723465238
 7.876198360650000E9    -2.207686434001200       3.129956847934377E1    -5.069690037965820E1    -6.320758881279344E1    -5.051187234335168E1    -6.691402337272038E1    -2.104046032132283       7.784777331102402
 7.876259014200000E9    -2.205533075973859       3.110385720952529E1    -5.056746031839191E1    -6.360682553685206E1    -5.022665720404196E1    -6.769139057149575E1    -2.104243142357892       7.603003379150524
 7.876319667750000E9    -2.199274806210954       3.092060813719730E1    -5.017432126186004E1    -6.396033807587229E1    -5.023925043837999E1    -6.779345986773589E1    -2.096536280075354       7.449333821894070
 7.876380321300000E9    -2.198127260123959       3.079056892878259E1    -5.004826323263070E1    -6.614661046478905E1    -5.006477467509097E1    -6.772090145525330E1    -2.096900525569435       7.325086360663420
 7.876440974850000E9    -2.202935533241723       3.060608949654076E1    -4.997546682715687E1    -6.556037757662700E1    -5.011310879944529E1    -6.821810719245872E1    -2.096983885029034       7.121210206393370
 7.876501628400000E9    -2.199433933591157       3.046417060054582E1    -4.992730317573161E1    -6.498126471313297E1    -5.006040136360081E1    -6.728539209321629E1    -2.094286608625791       7.050776192991678
 7.876562281950000E9    -2.201864864470353       3.029600518963309E1    -4.975970194875784E1    -6.610663857710291E1    -4.981688433242511E1    -6.948283087073453E1    -2.099246003176310       6.918874162373262
 7.876622935500000E9    -2.197703489407256       3.010898244552924E1    -4.948228397339379E1    -6.646174589061739E1    -4.976877757170939E1    -7.064719564122605E1    -2.091915155139886       6.748968984071240
 7.876683589050000E9    -2.196985308335094       2.994901785311582E1    -4.932161858408737E1    -6.620548698682478E1    -4.958871934900937E1    -6.939142142999161E1    -2.087001636503149       6.636708621785560
 7.876744242600000E9    -2.195701929654100       2.978402844052220E1    -4.941712714488563E1    -6.853795796213132E1    -4.952036627522342E1    -6.913264550547277E1    -2.086047937271972       6.452163705983652
 7.876804896150000E9    -2.195753474684608       2.962856281658486E1    -4.934415312763225E1    -6.659965060860952E1    -4.924963973368833E1    -7.073239623217663E1    -2.085415420427166       6.302969166750646
 7.876865549700000E9    -2.194691767074775       2.942891019073326E1    -4.900884442537841E1    -6.698128807997489E1    -4.920167450857404E1    -6.992910090980268E1    -2.091904953310579       6.195239797624993
 7.876926203250000E9    -2.192154946165195       2.928300171762818E1    -4.912761407672856E1    -6.689847301664388E1    -4.903607980540655E1    -6.986403798322802E1    -2.084946556012512       6.059274173983374
 7.876986856800000E9    -2.192872617963763       2.910612154747862E1    -4.918535073549919E1    -6.762418099204893E1    -4.912272213719078E1    -7.164175517752969E1    -2.085942935468674       5.879337869966197
 7.877047510350000E9    -2.194331124590610       2.896205775288838E1    -4.873888013686131E1    -6.822336779472187E1    -4.884263216664849E1    -7.166801504637218E1    -2.080611104455056       5.749033431281198
 7.877108163900000E9    -2.193047798578128       2.879440039035861E1    -4.840473284760490E1    -6.841578670761676E1    -4.878039098447627E1    -7.289127426157947E1    -2.085229511110261       5.615629586699628
 7.877168817450000E9    -2.188491134327886       2.861230008009809E1    -4.844044380808616E1    -6.904639447320882E1    -4.851939797327644E1    -7.222578631988061E1    -2.079787098847023       5.437164221379271
 7.877229471000000E9    -2.191063524474957       2.846707252138606E1    -4.841512077640879E1    -6.822206483350172E1    -4.833682495123649E1    -7.312608495680711E1    -2.077671727895595       5.274317963269045
 7.877290124550000E9    -2.190826331377775       2.829537139107580E1    -4.842951775272530E1    -6.949255106840424E1    -4.830272433862636E1    -7.293671749082087E1    -2.078448885097401       5.154337745591033
 7.877350778100000E9    -2.188597981946735       2.812922390958694E1    -4.799001486299198E1    -6.946778551338913E1    -4.829475802093594E1    -7.256592461086764E1    -2.070466817622096       5.035012808691818
 7.877411431650000E9    -2.186110722466575       2.795090820878645E1    -4.805025852323794E1    -6.927815575548031E1    -4.805518537680405E1    -7.368552743906152E1    -2.070522143041419       4.911153007602642
 7.877472085200000E9    -2.188786075653335       2.780479903902831E1    -4.778695426006408E1    -6.874227782903485E1    -4.774117350304527E1    -7.359149173074425E1    -2.071380467157593       4.772344407127721
 7.877532738750000E9    -2.184842652848861       2.762067642516613E1    -4.774181624815328E1    -7.142859953042006E1    -4.770599887698729E1    -7.504930739303398E1    -2.073171529217418       4.647529357512925
 7.877593392300000E9    -2.183557844427065       2.746192329729382E1    -4.755270500440781E1    -7.151454068003642E1    -4.777010714154018E1    -7.379676148480840E1    -2.075483406570935       4.485167766087978
 7.877654045850000E9    -2.186863299643933       2.729785264985368E1    -4.744394105828984E1    -7.121358236790861E1    -4.748198907186519E1    -7.497440333215745E1    -2.064581424624390       4.309537699205331
 7.877714699400000E9    -2.183046224508367       2.713411630043389E1    -4.718049499116248E1    -7.238263082261966E1    -4.726383549729228E1    -7.540877802967211E1    -2.066288342465302       4.170195363606642
 7.877775352950000E9    -2.181599555030696       2.698019291808452E1    -4.703128591171595E1    -7.159160173635898E1    -4.719641600251354E1    -7.527339180474546E1    -2.063910079580034       3.987506942032912
 7.877836006500000E9    -2.181783537757504       2.681637588882584E1    -4.696175028045783E1    -7.214949060558887E1    -4.696147247914033E1    -7.577761824642553E1    -2.063566027046460       3.903225370371648
 7.877896660050000E9    -2.182020859360700       2.662641039237426E1    -4.661281691036669E1    -7.411781691502456E1    -4.671437284070336E1    -7.729486208113806E1    -2.062322869845747       3.747144510963562
 7.877957313600000E9    -2.179297578960058       2.646667927676812E1    -4.646292962479555E1    -7.332588550116179E1    -4.665893724214436E1    -7.741717062595229E1    -2.065823197132503       3.583851067641667
 7.878017967150000E9    -2.181410070431637       2.630682174078324E1    -4.637804396537342E1    -7.400755856451443E1    -4.664439723542898E1    -7.726413783412144E1    -2.061209887479211       3.460174514690797
 7.878078620700000E9    -2.179998157931340       2.611647511882358E1    -4.633234320258790E1    -7.386480874003273E1    -4.637243425786227E1    -7.735980140396468E1    -2.065340438781953       3.332359572130148
 7.878139274250000E9    -2.180146954823850       2.598466850733652E1    -4.609016448832682E1    -7.585833573625831E1    -4.614782823754233E1    -7.883219996025704E1    -2.064076901307593       3.181844182878170
 7.878199927800000E9    -2.181065046077171       2.578849484426752E1    -4.590573468343483E1    -7.518172466947475E1    -4.599783275665222E1    -7.849348491077592E1    -2.061947507477967       3.042124674925468
 7.878260581350000E9    -2.177399884133120       2.561007084256653E1    -4.573692024172281E1    -7.631563870368382E1    -4.579735342015038E1    -7.871935484165782E1    -2.057717770819753       2.874990169050575
 7.878321234900000E9    -2.181299971127286       2.545764305223462E1    -4.558680481900184E1    -7.642064811335668E1    -4.565191150072353E1    -7.969037257761644E1    -2.055882517094594       2.770235217572906
 7.878381888450000E9    -2.176698686703230       2.528522688116832E1    -4.538807056936161E1    -7.728577037126584E1    -4.542697304076845E1    -8.065099021832161E1    -2.058923639833826       2.626743007291698
 7.878442542000000E9    -2.176007920664937       2.513418528336721E1    -4.499745412452736E1    -7.758165715992547E1    -4.522167974026389E1    -8.075750407921548E1    -2.052279871385890       2.478321627246807
 7.878503195550000E9    -2.179699940409068       2.495303732378116E1    -4.501215658936153E1    -7.796403881112749E1    -4.500036390988808E1    -8.151811872607101E1    -2.055137453887057       2.343792817754637
 7.878563849100000E9    -2.181637989780098       2.476980802687495E1    -4.474918946598093E1    -7.939224148913048E1    -4.481044837515703E1    -8.227163162040027E1    -2.052881595091796       2.196916196126368
 7.878624502650000E9    -2.176738991777550       2.460572932133847E1    -4.454835685657507E1    -7.977009783651026E1    -4.477214399488744E1    -8.321043313938357E1    -2.052434068302205       2.037618097484585
 7.878685156200000E9    -2.176562060021193       2.441133306630208E1    -4.421656575019848E1    -7.925537990320063E1    -4.437684055560712E1    -8.320301070058991E1    -2.046355703279727       1.890738276501546
 7.878745809750000E9    -2.177645547521179       2.426005251559590E1    -4.415110310558192E1    -7.963096571796572E1    -4.411241715563981E1    -8.365068568801257E1    -2.050756138706901       1.749407598665907
 7.878806463300000E9    -2.181889641012546       2.409216555342331E1    -4.387548090064836E1    -8.078207687556331E1    -4.396971399431635E1    -8.397863885101617E1    -2.048303519547053       1.643543748891059
 7.878867116850000E9    -2.178152612611536       2.392528498331228E1    -4.371432503384102E1    -8.195426720306537E1    -4.370273793497577E1    -8.449443242976112E1    -2.052637930195040       1.451634200682284
 7.878927770400000E9    -2.178285553230886       2.375409228347921E1    -4.336998449060861E1    -8.271704525883408E1    -4.354151004309465E1    -8.598077346289803E1    -2.051536198535413       1.315222683126666
 7.878988423950000E9    -2.181411291234665       2.358481688747297E1    -4.309895982846061E1    -8.348083142848165E1    -4.325783796657756E1    -8.616101017275909E1    -2.046706575349039       1.164873971604759
 7.879049077500000E9    -2.177998627554136       2.339533610918033E1    -4.278059302112113E1    -8.405475533475173E1    -4.303246808384414E1    -8.704501901185539E1    -2.057173076560849       1.027163172680855
 7.879109731050000E9    -2.180467006140112       2.322396897081216E1    -4.256035352646569E1    -8.505749205379932E1    -4.273137518345649E1    -8.783180833279214E1    -2.051140595876294       8.922627095506802E-1
 7.879170384600000E9    -2.179502642335204       2.305880365088431E1    -4.240158388563380E1    -8.537756695572138E1    -4.251358259466555E1    -8.853054731786590E1    -2.053334341064551       7.404159247412520E-1
 7.879231038150000E9    -2.187206608181475       2.287985874336634E1    -4.212578520062767E1    -8.645537170396852E1    -4.234981127833586E1    -9.011668237717103E1    -2.051327258844554       5.499840715245147E-1
 7.879291691700000E9    -2.182921456530856       2.271136966392879E1    -4.176876559953335E1    -8.699922847912464E1    -4.201810004672489E1    -9.099545396568968E1    -2.046627274481926       4.071420549293674E-1
 7.879352345250000E9    -2.184288260438740       2.252605538626192E1    -4.153137659007954E1    -8.852176523230409E1    -4.170611992742167E1    -9.103536213101020E1    -2.056150253331064       2.481195198453737E-1
 7.879412998800000E9    -2.184798600128031       2.236054984846037E1    -4.126990042378861E1    -8.870401668163734E1    -4.150954186476685E1    -9.231353126246937E1    -2.053003580867133       1.168651534008523E-1
 7.879473652350000E9    -2.189351968885230       2.218025281944913E1    -4.086304409482299E1    -9.028635196133257E1    -4.108329278713461E1    -9.364003028563916E1    -2.059764064084125      -5.331391300806014E-2
 7.879534305900000E9    -2.191903873175809       2.197509916408818E1    -4.058718647740099E1    -9.166769777202936E1    -4.080671252178923E1    -9.481674238058159E1    -2.058436874108073      -2.016719239447145E-1
 7.879594959450000E9    -2.190696621101631       2.183519342353870E1    -4.036112532377688E1    -9.264133569924199E1    -4.043460786176458E1    -9.628758879489661E1    -2.064727348319599      -3.545443051969672E-1
 7.879655613000000E9    -2.192733965387217       2.163976651417899E1    -4.002330874296069E1    -9.392129711447437E1    -4.012971514608896E1    -9.708627398854156E1    -2.062147699084708      -4.881815182494065E-1
 7.879716266550000E9    -2.196539707803934       2.147327566083195E1    -3.965329628296815E1    -9.536371911636955E1    -3.975119452235789E1    -9.875271649882255E1    -2.066790146154638      -6.775366978574497E-1
 7.879776920100000E9    -2.202703489493921       2.129049596454179E1    -3.929916718846545E1    -9.682708153581504E1    -3.944223030154354E1    -1.004424865358872E2    -2.069422185546497      -8.133176343757893E-1
 7.879837573650000E9    -2.206129481725934       2.112853500200886E1    -3.886363028855970E1    -9.841557439661710E1    -3.907970382073750E1    -1.018343183162886E2    -2.075432624376853      -9.882880798906601E-1
 7.879898227200000E9    -2.211163349023595       2.093445871162771E1    -3.850190197723934E1    -1.002264568961085E2    -3.873925778375004E1    -1.037546070447451E2    -2.082583136291431      -1.090835205100687
 7.879958880750000E9    -2.218337596602081       2.077193871117306E1    -3.818289872424351E1    -1.019200923513160E2    -3.836267168399344E1    -1.057526933759335E2    -2.081776057902549      -1.259272611182550
 7.880019534300000E9    -2.224249949352691       2.060283960984094E1    -3.780733976634735E1    -1.042553851981273E2    -3.801279265426019E1    -1.075157265640826E2    -2.096289396031112      -1.428932838160736
 7.880080187850000E9    -2.228450002202156       2.040821294172919E1    -3.737938602606244E1    -1.063875543819834E2    -3.751778339173238E1    -1.096116382621729E2    -2.099412956009638      -1.568592214155455
 7.880140841400000E9    -2.239916389193782       2.025600768920799E1    -3.697808042078040E1    -1.088836574553248E2    -3.714985622827655E1    -1.120735553666176E2    -2.107922230223426      -1.773557686952017
 7.880201494950000E9    -2.247392810086135       2.010153840629721E1    -3.659984515653578E1    -1.117002380129549E2    -3.679078112545618E1    -1.147565689991063E2    -2.109097128002479      -1.860370157018812
 7.880262148500000E9    -2.256312296262820       1.994547691607369E1    -3.621853888118391E1    -1.144605692736232E2    -3.635850337754943E1    -1.178540888160051E2    -2.125204351284835      -2.014925115827812
 7.880322802050000E9    -2.267693516954252       1.978956333899779E1    -3.581428643258192E1    -1.176768981776533E2    -3.596452830613445E1    -1.210651802485284E2    -2.136193984672122      -2.154302104320097
