#  HZ   S   DB   R     50.00 
! Rohde & Schwarz Vector Network Analyzer 
! Rohde-Schwarz,ZNB20-2Port,1311601062101988,3.16
! Created: UTC 1/12/2023, 6:36:03 PM
! freq[Hz]                db:S11                  ang:S11                 db:S21                  ang:S21                 db:S12                  ang:S12                 db:S22                  ang:S22
 7.874702286000000E9    -2.232168221311471       3.535346683409664E1    -5.272058026077801E1    -5.830959795513909E1    -5.260680003566684E1    -6.231753107358286E1    -2.168727376734209       1.125319277352020E1
 7.874762939550000E9    -2.236333825129267       3.518755575145165E1    -5.237182164184890E1    -5.972597661468941E1    -5.240668368289337E1    -6.129162588134128E1    -2.165118686414372       1.112785464695160E1
 7.874823593100000E9    -2.231015511699889       3.503322250111328E1    -5.269142187263468E1    -5.956762623727152E1    -5.241267923761194E1    -6.135655292465886E1    -2.164839657527279       1.099168895722316E1
 7.874884246650000E9    -2.229175086601181       3.487016133989385E1    -5.252342103592240E1    -5.852830331326384E1    -5.247883634529445E1    -6.299453927309749E1    -2.152054310766069       1.083821035150619E1
 7.874944900200000E9    -2.233014962413558       3.470224920003655E1    -5.214459136734844E1    -5.897843115571413E1    -5.236527306385810E1    -6.291928453723811E1    -2.152822563925565       1.070358461180995E1
 7.875005553750000E9    -2.227997671270985       3.450416824199373E1    -5.208489076025466E1    -5.933832563005118E1    -5.222337157443440E1    -6.186076360512948E1    -2.156555858288581       1.055223294518927E1
 7.875066207300000E9    -2.225234063631068       3.437088060820430E1    -5.229139595056678E1    -6.185463864382647E1    -5.218067718538803E1    -6.373389948560137E1    -2.154296101400946       1.038933690767336E1
 7.875126860850000E9    -2.229376801443244       3.420487489206735E1    -5.191551300624181E1    -6.011029368477192E1    -5.195011280149850E1    -6.221146749912522E1    -2.148834727465047       1.026086507056792E1
 7.875187514400000E9    -2.227147994519753       3.403501471370537E1    -5.192632557810556E1    -5.952569705965863E1    -5.200539639274530E1    -6.618744932066956E1    -2.142567138737003       1.014170058221928E1
 7.875248167950000E9    -2.224018836306288       3.387353301967915E1    -5.184992394185612E1    -6.113021863400115E1    -5.173637857620171E1    -6.493996629903100E1    -2.144897507474150       1.001471487943888E1
 7.875308821500000E9    -2.220020681943957       3.370541689618965E1    -5.181879045450564E1    -6.183878081355306E1    -5.168166324507344E1    -6.520149783030239E1    -2.144578761301863       9.818299943951470
 7.875369475050000E9    -2.221982964898496       3.354490897130891E1    -5.185786955495825E1    -6.006429487640865E1    -5.159409418028967E1    -6.516348670931667E1    -2.138025897698730       9.638106772723706
 7.875430128600000E9    -2.219387092016310       3.337365801647960E1    -5.153108461323001E1    -6.051317335322004E1    -5.155700985771087E1    -6.468969769143007E1    -2.139036056418357       9.528960191284773
 7.875490782150000E9    -2.222261703349672       3.321440739982701E1    -5.124475913272914E1    -6.079454622633104E1    -5.142119773381083E1    -6.523162144574881E1    -2.135185102839697       9.422606583271081
 7.875551435700000E9    -2.219051447295372       3.303488417117512E1    -5.148186797789446E1    -6.357701270133589E1    -5.134189937483644E1    -6.577546244622499E1    -2.135746889711855       9.284599190110269
 7.875612089250000E9    -2.216646119759869       3.287461993363787E1    -5.129864790565138E1    -6.295915954057823E1    -5.137153153362831E1    -6.422774234183446E1    -2.128089776997626       9.100977260478762
 7.875672742800000E9    -2.218611789053241       3.268305214047564E1    -5.112538775052565E1    -6.249031823951426E1    -5.111016633550562E1    -6.493517157368886E1    -2.125483553283409       8.976378731951488
 7.875733396350000E9    -2.214236876888338       3.252660684703256E1    -5.103442076440409E1    -6.320510624484237E1    -5.124064244079968E1    -6.579942670096729E1    -2.135855121575736       8.858259843508389
 7.875794049900000E9    -2.214540742355592       3.236017721542350E1    -5.092527053534324E1    -6.291116607390038E1    -5.098464443436168E1    -6.738236672098148E1    -2.128264042375888       8.690109640460831
 7.875854703450000E9    -2.215683206909877       3.220108496706585E1    -5.094413419925257E1    -6.346558267842462E1    -5.077396384386656E1    -6.699087806047315E1    -2.130883884585214       8.537812598935073
 7.875915357000000E9    -2.209391737823135       3.204828239565244E1    -5.087476483485651E1    -6.434568202263874E1    -5.105005495580409E1    -6.643237016419567E1    -2.127868786561693       8.442522818387275
 7.875976010550000E9    -2.207483489308165       3.187016703367565E1    -5.064940047355012E1    -6.381446218394651E1    -5.080679596899482E1    -6.769934795496251E1    -2.128565446402487       8.277925212703739
 7.876036664100000E9    -2.212631944602356       3.169294234023925E1    -5.059314004935498E1    -6.329054465444486E1    -5.057216611583424E1    -6.758006955220311E1    -2.124995882425758       8.104556348676999
 7.876097317650000E9    -2.206276989508774       3.153808485108373E1    -5.037992403319385E1    -6.380560883477803E1    -5.056796407413248E1    -6.730208167628163E1    -2.124845447832997       7.974641897763227
 7.876157971200000E9    -2.211467951644151       3.139449657890666E1    -5.031990776223624E1    -6.333262126233866E1    -5.036023218002150E1    -6.732348459917155E1    -2.124579058888045       7.865377582543768
 7.876218624750000E9    -2.210971392431756       3.120387317126596E1    -5.020642241892319E1    -6.504289635408809E1    -5.025499490281792E1    -6.823297329210885E1    -2.123189718778391       7.678470500774156
 7.876279278300000E9    -2.206940808208279       3.104721917344136E1    -5.015502756500213E1    -6.585506911484515E1    -5.020845785243914E1    -6.855775952583056E1    -2.123151984905993       7.546672453235419
 7.876339931850000E9    -2.206758247929889       3.089101696205702E1    -5.005539965285195E1    -6.368456423055991E1    -5.000695357721340E1    -6.803681454247568E1    -2.118593985828438       7.396543784456996
 7.876400585400000E9    -2.205964724644550       3.070966675226266E1    -5.019988726190709E1    -6.588437188801329E1    -5.010924650852463E1    -6.935065035284515E1    -2.113562477467364       7.232436407713165
 7.876461238950000E9    -2.201115283463018       3.055769780023502E1    -4.968068579571650E1    -6.484079688798747E1    -4.986521617967040E1    -6.980191591181840E1    -2.116038834070442       7.138597236256972
 7.876521892500000E9    -2.206400837355307       3.039181831001349E1    -4.972494838880445E1    -6.741825088528121E1    -4.997972531339133E1    -6.968809744037880E1    -2.112379794128341       7.013133326079155
 7.876582546050000E9    -2.202247055753426       3.017987692489996E1    -4.950098325184228E1    -6.608230411342720E1    -4.960852899170433E1    -6.987285326043846E1    -2.108675025140441       6.822687528523343
 7.876643199600000E9    -2.199099955414397       3.004955165197410E1    -4.944651267607234E1    -6.757246308029630E1    -4.966340690723396E1    -7.062674832354740E1    -2.110413976178389       6.646747548865930
 7.876703853150000E9    -2.200086536265560       2.990822501206974E1    -4.944778002756135E1    -6.740794358253318E1    -4.953331959013354E1    -6.989857817900850E1    -2.108697513139464       6.517005068812802
 7.876764506700000E9    -2.197642689618990       2.974278500328116E1    -4.910222948945854E1    -6.760885733233302E1    -4.930635900977771E1    -7.000323744861979E1    -2.102020688575168       6.387911094807184
 7.876825160250000E9    -2.199025550621160       2.957467390029571E1    -4.887962457816619E1    -6.904368370914115E1    -4.923755213643916E1    -7.072392317816569E1    -2.100609423698079       6.242834898091321
 7.876885813800000E9    -2.196969853905537       2.940378806961793E1    -4.897059217046935E1    -6.754016223113220E1    -4.912944588040236E1    -7.133022790883743E1    -2.100272007286569       6.134209308877670
 7.876946467350000E9    -2.197568792769508       2.923358625284921E1    -4.878516718291762E1    -6.865512017438421E1    -4.889327901135191E1    -7.195095987636505E1    -2.093646121627528       6.014071348285373
 7.877007120900000E9    -2.196704285231195       2.904594216402901E1    -4.863252281388704E1    -6.948341710485683E1    -4.880220846992152E1    -7.253246442769472E1    -2.094249804424826       5.836744558414449
 7.877067774450000E9    -2.197150498281265       2.889654771143804E1    -4.862660651256155E1    -6.889732208978452E1    -4.867767805173882E1    -7.238566085299193E1    -2.100817828920303       5.659523604693322
 7.877128428000000E9    -2.191497515372382       2.872821891299953E1    -4.839405477374910E1    -6.884611529507147E1    -4.855298481056896E1    -7.321361937790324E1    -2.096722619316266       5.566626577178404
 7.877189081550000E9    -2.194950299607968       2.856957518662166E1    -4.839041119010389E1    -7.044054249286668E1    -4.844190738602369E1    -7.296346385518909E1    -2.094502204185510       5.385198817615803
 7.877249735100000E9    -2.193531874751915       2.839522492982710E1    -4.824149040532678E1    -7.132937674673657E1    -4.809636599801003E1    -7.328921122134558E1    -2.089076442921755       5.278782060627103
 7.877310388650000E9    -2.191153094501382       2.824204585405773E1    -4.788087962708538E1    -7.132489061755830E1    -4.809896990381925E1    -7.469352591497423E1    -2.087405641157226       5.100086173067298
 7.877371042200000E9    -2.194321217999969       2.806811425157897E1    -4.790711450945858E1    -7.249508198340251E1    -4.807963726510928E1    -7.388044539779162E1    -2.088939866250247       4.988374865094454
 7.877431695750000E9    -2.193551550692643       2.789185066291703E1    -4.787126029148798E1    -7.135050982187444E1    -4.789240147746567E1    -7.461604931166559E1    -2.085685221030934       4.826203355268189
 7.877492349300000E9    -2.191788183560589       2.774646049526126E1    -4.747971335916444E1    -7.036864946396946E1    -4.758864683290714E1    -7.553613604621896E1    -2.088866342043901       4.725408149760526
 7.877553002850000E9    -2.187546496607670       2.758267919926286E1    -4.737858047153370E1    -7.181866975639109E1    -4.767785841676663E1    -7.577712045424772E1    -2.082955719578572       4.571409625120613
 7.877613656400000E9    -2.189594491739923       2.741746972310496E1    -4.722638924450130E1    -7.221783538923449E1    -4.733711929632258E1    -7.535878223552513E1    -2.085418649162792       4.395054269042910
 7.877674309950000E9    -2.186858469553748       2.722699082564884E1    -4.711548093979222E1    -7.299379413996596E1    -4.724490625782934E1    -7.586875013747974E1    -2.089694535836552       4.287891810951173
 7.877734963500000E9    -2.188411301667251       2.706157198509352E1    -4.682507029250008E1    -7.376235733782273E1    -4.702952311318584E1    -7.665045939967476E1    -2.084413380864342       4.139058555177124
 7.877795617050000E9    -2.188395014345350       2.689922983233317E1    -4.656525811620040E1    -7.364139053835251E1    -4.684729962528228E1    -7.770017116469130E1    -2.082713994486014       3.954949431355344
 7.877856270600000E9    -2.186551010114165       2.672759959754203E1    -4.648555195584758E1    -7.422836700459810E1    -4.665978880764030E1    -7.768084856120390E1    -2.085596399494549       3.874637478985353
 7.877916924150000E9    -2.186468221557602       2.655880923206485E1    -4.656911205748142E1    -7.512940968520508E1    -4.657497105287280E1    -7.755297385825958E1    -2.077462893216648       3.704229001457941
 7.877977577700000E9    -2.184304211016456       2.639953461591035E1    -4.641896398355663E1    -7.530713397510601E1    -4.625356668466121E1    -7.928513562743127E1    -2.077082001221854       3.556186678064946
 7.878038231250000E9    -2.184533828665565       2.621482272069486E1    -4.620018376964364E1    -7.551870428875228E1    -4.625858207543554E1    -7.946784351746031E1    -2.075802940477955       3.380556183736789
 7.878098884800000E9    -2.181074887408171       2.607212851482475E1    -4.582901277707401E1    -7.685431364399513E1    -4.604353509641338E1    -7.984817668219671E1    -2.078320435736183       3.254851942046993
 7.878159538350000E9    -2.187657432029638       2.589000975725602E1    -4.565643462220753E1    -7.678046996766264E1    -4.589370017921603E1    -7.963141517107201E1    -2.080334107902032       3.104412534510764
 7.878220191900000E9    -2.180837619042398       2.570597871159987E1    -4.551089564368228E1    -7.744321016893517E1    -4.580953843303632E1    -8.072140555222715E1    -2.080464285051398       3.000086901919833
 7.878280845450000E9    -2.184930096958009       2.555406350701099E1    -4.530720097403476E1    -7.768404552115138E1    -4.548221013456207E1    -8.176608434005325E1    -2.072262455479208       2.851973281550484
 7.878341499000000E9    -2.184501089777378       2.536247528460879E1    -4.516668683507805E1    -7.836091033392375E1    -4.519969993673443E1    -8.110286500473499E1    -2.071904788441649       2.686288686539611
 7.878402152550000E9    -2.185220601319543       2.520093373612525E1    -4.492458559174588E1    -7.841499587219002E1    -4.517566686654600E1    -8.175231394413292E1    -2.071097075986270       2.568204019015014
 7.878462806100000E9    -2.182164700905899       2.503276437083127E1    -4.474055356278658E1    -7.904635643398589E1    -4.483397712412520E1    -8.262532621622051E1    -2.073054633482775       2.404046307568079
 7.878523459650000E9    -2.181915942527324       2.487354966730804E1    -4.458377344148300E1    -7.902679709123632E1    -4.464063012280966E1    -8.330739164879951E1    -2.068511790575443       2.276159941956847
 7.878584113200000E9    -2.188162612048381       2.469106745511944E1    -4.437288566489077E1    -8.045184215845075E1    -4.441418838683611E1    -8.317665575928422E1    -2.071356384091765       2.100635223598582
 7.878644766750000E9    -2.180759863436883       2.454420834801176E1    -4.415003548303491E1    -8.098962391969468E1    -4.425195063120648E1    -8.464031925342330E1    -2.064690568931757       1.992150961854727
 7.878705420300000E9    -2.183814073078619       2.437528124857575E1    -4.388555007355287E1    -8.187667538145540E1    -4.408418236230291E1    -8.539153260423679E1    -2.068735368169371       1.860235662507197
 7.878766073850000E9    -2.185038406830495       2.417211088281663E1    -4.365077894800105E1    -8.220230984651893E1    -4.380999093636019E1    -8.600603075727024E1    -2.071208861283616       1.696823291098299
 7.878826727400000E9    -2.183560119594368       2.403583404648369E1    -4.340249891807207E1    -8.299486338813671E1    -4.347619489631992E1    -8.642587166635079E1    -2.072610202032605       1.499074711781016
 7.878887380950000E9    -2.184057537402162       2.384506225765668E1    -4.319185130282081E1    -8.318312905197492E1    -4.331976718672913E1    -8.757099353899223E1    -2.064724332009961       1.385332303830418
 7.878948034500000E9    -2.187530381548927       2.368074633876805E1    -4.294265366919704E1    -8.476884712225825E1    -4.306607274826574E1    -8.827658475609977E1    -2.067443287228567       1.224033029159473
 7.879008688050000E9    -2.183876649438151       2.350788378304211E1    -4.268112905609294E1    -8.558453934297935E1    -4.275175474874651E1    -8.896828897024893E1    -2.070770205632832       1.116282704229244
 7.879069341600000E9    -2.189083640845238       2.332734072111902E1    -4.236356507328583E1    -8.711598712794594E1    -4.256433522938888E1    -8.936685250438471E1    -2.064693114212661       9.442834075485429E-1
 7.879129995150000E9    -2.183757213248932       2.317492343199655E1    -4.219417469285923E1    -8.705694586594409E1    -4.220192093740592E1    -9.071452209343671E1    -2.069016981455764       8.166588699829385E-1
 7.879190648700000E9    -2.190967708128052       2.300662041331223E1    -4.181253241865950E1    -8.846599584715527E1    -4.204384588065863E1    -9.216203516060082E1    -2.066951607792227       6.677429121787818E-1
 7.879251302250000E9    -2.191311969413213       2.280891281568388E1    -4.156147447865784E1    -8.912556606445078E1    -4.173102607034703E1    -9.215862344205378E1    -2.070818613449926       4.998758046878698E-1
 7.879311955800000E9    -2.193807499506178       2.263958483762005E1    -4.131757688011639E1    -9.031756722607446E1    -4.143079604087013E1    -9.385316118690578E1    -2.079473831610299       3.489477351292664E-1
 7.879372609350000E9    -2.195078220195931       2.246057054561057E1    -4.097830918942132E1    -9.136534063996643E1    -4.123622795772901E1    -9.459867745065461E1    -2.076964807285302       1.736188269428570E-1
 7.879433262900000E9    -2.190789743548371       2.226373611594540E1    -4.075807279992102E1    -9.255720447632314E1    -4.091639759201997E1    -9.614405409009261E1    -2.074460050990226       4.686080493909034E-2
 7.879493916450000E9    -2.194910423907174       2.210574552793532E1    -4.034650131153553E1    -9.363486481623022E1    -4.056326143431609E1    -9.718197072300973E1    -2.077527969071815      -8.510384385739229E-2
 7.879554570000000E9    -2.201477630777816       2.192961987924927E1    -4.007963633735152E1    -9.491200714849248E1    -4.022161461779369E1    -9.876430115309547E1    -2.082003578925760      -2.383932389992601E-1
 7.879615223550000E9    -2.205966138007765       2.176556445773310E1    -3.977941065962134E1    -9.667937361547455E1    -3.989134607299740E1    -9.983748417933657E1    -2.084467038851367      -4.057019020558079E-1
 7.879675877100000E9    -2.206415352263638       2.159820983478558E1    -3.937870087942719E1    -9.844437766975432E1    -3.959721338219245E1    -1.016172800013502E2    -2.082593466338691      -5.327488228708692E-1
 7.879736530650000E9    -2.206944514197612       2.142846128490361E1    -3.900125561595695E1    -9.922258435529352E1    -3.923997869222709E1    -1.030466950557121E2    -2.090851150205299      -6.841841649374734E-1
 7.879797184200000E9    -2.216048599687712       2.122385433355289E1    -3.870946408226592E1    -1.016699739367283E2    -3.887184987361957E1    -1.052816672455771E2    -2.096577349981460      -8.345584560222481E-1
 7.879857837750000E9    -2.219947900928683       2.104678557826334E1    -3.824481197778455E1    -1.035180804143318E2    -3.851805890535272E1    -1.073330674440985E2    -2.101256165577652      -9.965880440226480E-1
 7.879918491300000E9    -2.224212121663952       2.088118777948021E1    -3.794306861135523E1    -1.058908157775139E2    -3.806022291442669E1    -1.092023192975205E2    -2.102612332997170      -1.154097716712014
 7.879979144850000E9    -2.234337764560526       2.072123068647490E1    -3.765087217691838E1    -1.078931404605448E2    -3.772325918175665E1    -1.113834660833923E2    -2.110850415492096      -1.288441212319501
 7.880039798400000E9    -2.241229733381291       2.054913253854223E1    -3.721858602157375E1    -1.104423838095916E2    -3.739320206198008E1    -1.135298726852532E2    -2.120381070407074      -1.451284697373330
 7.880100451950000E9    -2.250295634576526       2.042266990539510E1    -3.689546267847616E1    -1.132045246439297E2    -3.701568142893665E1    -1.162931498427588E2    -2.127908871630503      -1.618170207920285
 7.880161105500000E9    -2.256507846822598       2.021772069626677E1    -3.645593495403976E1    -1.158819748022807E2    -3.662702300825132E1    -1.190797595968544E2    -2.140780579615931      -1.727284179280049
 7.880221759050000E9    -2.270179754225618       2.010571304024888E1    -3.612200810395866E1    -1.192712626219574E2    -3.623995659286286E1    -1.226802630976826E2    -2.153695283590370      -1.826237439330531
