#  HZ   S   DB   R     50.00 
! Rohde & Schwarz Vector Network Analyzer 
! Rohde-Schwarz,ZNB20-2Port,1311601062101988,3.16
! Created: UTC 1/12/2023, 6:36:21 PM
! freq[Hz]                db:S11                  ang:S11                 db:S21                  ang:S21                 db:S12                  ang:S12                 db:S22                  ang:S22
 7.874680177000000E9    -2.237133876065555       3.544283256389698E1    -5.257809755562764E1    -5.993244359081304E1    -5.247449401059504E1    -6.169217718866936E1    -2.139092551582620       1.143353413162972E1
 7.874740830550000E9    -2.236918475411227       3.525440073952555E1    -5.253261213850769E1    -5.772237738007276E1    -5.258198321592367E1    -6.215730093552909E1    -2.138883514999801       1.124100014476746E1
 7.874801484100000E9    -2.232616584041542       3.510588271488443E1    -5.260786592978073E1    -6.108842816643466E1    -5.240043445115688E1    -6.339046692343555E1    -2.140064932113838       1.111048156613391E1
 7.874862137650000E9    -2.232897829298937       3.492209649246490E1    -5.263507949796981E1    -6.178262928932026E1    -5.226391404894606E1    -6.292766543084021E1    -2.138611746767709       1.092138485562526E1
 7.874922791200000E9    -2.233154461290659       3.475128639666367E1    -5.236396190934624E1    -5.797775997084951E1    -5.260344211874872E1    -6.306819124183902E1    -2.135401005533233       1.082185993798452E1
 7.874983444750000E9    -2.233121169830655       3.459793595472762E1    -5.206960791714182E1    -5.931994337868228E1    -5.231606964510042E1    -6.311475782775644E1    -2.125798368027312       1.069668670915342E1
 7.875044098300000E9    -2.230594145638461       3.443400651524790E1    -5.181476654684253E1    -5.935013289317279E1    -5.214117305807731E1    -6.294312887552223E1    -2.126004245854572       1.050875841336019E1
 7.875104751850000E9    -2.229807164782935       3.426440368470814E1    -5.187402089321731E1    -6.017728257541709E1    -5.196039981872992E1    -6.400054764307083E1    -2.126308689374671       1.036895674854464E1
 7.875165405400000E9    -2.225729872217862       3.409269392090752E1    -5.214927661569061E1    -6.107730005837441E1    -5.187961523619321E1    -6.320753945214961E1    -2.122836630927360       1.018815325022499E1
 7.875226058950000E9    -2.227233303398649       3.393429229951136E1    -5.199654143524263E1    -6.197350838691104E1    -5.192960723150396E1    -6.311148044154815E1    -2.124039259514831       1.009458638073052E1
 7.875286712500000E9    -2.224585837194950       3.375812015596556E1    -5.174537822290241E1    -6.174648113691669E1    -5.182220804265554E1    -6.373052371988786E1    -2.121862371285001       9.956373846442142
 7.875347366050000E9    -2.224095029961500       3.357404913495485E1    -5.166993102027749E1    -6.075237302719285E1    -5.147981313629207E1    -6.530476130956926E1    -2.126321946761938       9.837372025723068
 7.875408019600000E9    -2.224944571304162       3.343714578154302E1    -5.132967717683555E1    -6.091690970088577E1    -5.178358629512380E1    -6.629054975603249E1    -2.125389930978728       9.676497825850019
 7.875468673150000E9    -2.220846446119331       3.327097089053397E1    -5.146338639962928E1    -6.059650875116048E1    -5.144209505831277E1    -6.425347078334224E1    -2.114761167219564       9.527124804803359
 7.875529326700000E9    -2.221468350166564       3.309897296387351E1    -5.132770981454262E1    -6.162818042998724E1    -5.118901094608365E1    -6.421425290870869E1    -2.116948778767524       9.369043182293343
 7.875589980250000E9    -2.219352218630025       3.294222700197658E1    -5.119260813987334E1    -6.274631324850371E1    -5.124065365670131E1    -6.481894176706696E1    -2.115658711928996       9.204049494461922
 7.875650633800000E9    -2.220712251148406       3.276093678945423E1    -5.117037792028878E1    -6.367086657553769E1    -5.131105357385316E1    -6.658124855402505E1    -2.112679771321862       9.109669572211201
 7.875711287350000E9    -2.216555604498634       3.258893567144120E1    -5.114193077342030E1    -6.202027321395035E1    -5.114479543296543E1    -6.546160662109210E1    -2.102581114374308       8.919643383470993
 7.875771940900000E9    -2.216091625252957       3.242564673345330E1    -5.094041643365941E1    -6.516892969408008E1    -5.074919056364573E1    -6.524914606488086E1    -2.111885408358714       8.805080302955554
 7.875832594450000E9    -2.213179512515811       3.226327008326511E1    -5.066235430589876E1    -6.348289508088239E1    -5.099929363606681E1    -6.671502078928192E1    -2.105630336133905       8.668550228672085
 7.875893248000000E9    -2.211665398436486       3.210637927170960E1    -5.068463542199034E1    -6.331809927518773E1    -5.075749352361331E1    -6.632570439834269E1    -2.105053278561673       8.484025886244833
 7.875953901550000E9    -2.213626321462078       3.193456269600720E1    -5.049301167186775E1    -6.369810766626689E1    -5.052056894313314E1    -6.798868173684140E1    -2.105713684458371       8.370841012655694
 7.876014555100000E9    -2.212110301440254       3.176942286591949E1    -5.088375408743205E1    -6.507411470188764E1    -5.048794597515283E1    -6.735528941842286E1    -2.106057749220836       8.224554899360356
 7.876075208650000E9    -2.209437875576580       3.160581354270968E1    -5.043694111499257E1    -6.641993326633866E1    -5.061752169857832E1    -6.728604103264300E1    -2.099923961061050       8.071341137027101
 7.876135862200000E9    -2.210460023687067       3.145109432388996E1    -5.049774750951038E1    -6.513363742614290E1    -5.048837861841895E1    -6.840197751105887E1    -2.095824125798948       7.912178029668085
 7.876196515750000E9    -2.209369207191612       3.126453162045488E1    -5.022560590556161E1    -6.384522629431984E1    -5.035519710090909E1    -6.844957354092928E1    -2.099139152739229       7.784630111601805
 7.876257169300000E9    -2.210698834851354       3.110665072135851E1    -5.012080404624904E1    -6.548394829179436E1    -5.003636035423477E1    -6.860896497718943E1    -2.092696375058169       7.641717227246906
 7.876317822850000E9    -2.209193890109567       3.094294554857071E1    -5.016963522382884E1    -6.529815140331738E1    -5.015029917825711E1    -6.681014246664483E1    -2.089209302193633       7.523073419775186
 7.876378476400000E9    -2.205306518617313       3.080025247157836E1    -5.003487216675646E1    -6.572713876820804E1    -4.988851130130602E1    -6.953689211543698E1    -2.087966287156508       7.355337237322603
 7.876439129950000E9    -2.203043863193509       3.061250807495281E1    -4.962099065702997E1    -6.638668056523498E1    -5.000647665095843E1    -7.019737668799118E1    -2.092680377509470       7.242471519920261
 7.876499783500000E9    -2.205165254427677       3.042170620397681E1    -4.985906745195275E1    -6.631495836842433E1    -4.968681704600716E1    -7.017689760848268E1    -2.083721343464621       7.096588288351838
 7.876560437050000E9    -2.206188748886015       3.025982068230984E1    -4.951364412740037E1    -6.594709692787602E1    -4.955252513930240E1    -6.958219178225076E1    -2.085250829721793       6.972852293099219
 7.876621090600000E9    -2.204149055906926       3.009572028806449E1    -4.945223485800038E1    -6.640403757760899E1    -4.937247201328567E1    -6.945580389489895E1    -2.089989159180250       6.803234270002393
 7.876681744150000E9    -2.199372244643655       2.995297496138078E1    -4.927608819667610E1    -6.896278746560783E1    -4.926522130490265E1    -7.044669591637009E1    -2.083627065194507       6.648707734281445
 7.876742397700000E9    -2.203431955706932       2.976753858239991E1    -4.919276751319907E1    -6.784354964015003E1    -4.942745274796793E1    -7.087925202287354E1    -2.083105207857082       6.574692547766531
 7.876803051250000E9    -2.199869863261526       2.961076411259599E1    -4.894859584839048E1    -6.859917092584961E1    -4.888671253145361E1    -7.097677469654758E1    -2.073163744442432       6.359693236194194
 7.876863704800000E9    -2.199994448031928       2.944945216558404E1    -4.898727471977492E1    -6.743321285396624E1    -4.900731243513298E1    -7.198108850382506E1    -2.082869832629532       6.259282400273014
 7.876924358350000E9    -2.202156451115864       2.929210574971221E1    -4.891973760714713E1    -6.822460076941995E1    -4.901911302451492E1    -7.249391825126391E1    -2.074862435042171       6.096267295488101
 7.876985011900000E9    -2.199233274332951       2.912910770878043E1    -4.880825150862491E1    -6.975198561855453E1    -4.878782963366498E1    -7.151086378401394E1    -2.078989441636490       5.961626637063830
 7.877045665450000E9    -2.199684859484378       2.894759375180276E1    -4.863138022692007E1    -6.966589253817905E1    -4.862171952010128E1    -7.227021190256862E1    -2.075760121080455       5.822315580709168
 7.877106319000000E9    -2.197209922397080       2.876857199868162E1    -4.831613074616712E1    -6.951062178162096E1    -4.856683829558286E1    -7.255039840140475E1    -2.074273607856684       5.663767571000525
 7.877166972550000E9    -2.191961100022016       2.862481636873731E1    -4.831786332859637E1    -7.082492927148918E1    -4.842938400274168E1    -7.308002340807211E1    -2.072188498361757       5.533243949097076
 7.877227626100000E9    -2.191907824133656       2.847130024805072E1    -4.816677462918756E1    -6.929162833361413E1    -4.844467816683003E1    -7.438442880218018E1    -2.069604126058194       5.375937584650442
 7.877288279650000E9    -2.195691987128579       2.827670560280224E1    -4.817188826676098E1    -7.082963976376256E1    -4.807498476551997E1    -7.439586399675511E1    -2.068984522258513       5.239206044367450
 7.877348933200000E9    -2.190188011808242       2.813368315105875E1    -4.785476867998175E1    -7.179693257242904E1    -4.786296278053818E1    -7.505050469483781E1    -2.068937305117633       5.086346073576290
 7.877409586750000E9    -2.191672255563150       2.795887460156496E1    -4.787150994908746E1    -7.211576678955494E1    -4.770469060555061E1    -7.414080408529841E1    -2.074270288077864       4.956798940244243
 7.877470240300000E9    -2.193800755766175       2.781243438865750E1    -4.755074011542186E1    -7.288805119206688E1    -4.770351614184192E1    -7.565119226724529E1    -2.063474362515523       4.787885967201810
 7.877530893850000E9    -2.192131027062137       2.763372325327392E1    -4.749749742437813E1    -7.187590857023451E1    -4.744184154646603E1    -7.641397166199295E1    -2.064505904265669       4.648477632812667
 7.877591547400000E9    -2.192472548312214       2.744908559466937E1    -4.731597887271426E1    -7.267023563642339E1    -4.730352652683217E1    -7.687551296914040E1    -2.063388082564488       4.515152859486532
 7.877652200950000E9    -2.192377380759521       2.729146631127034E1    -4.710988656793842E1    -7.288970691884052E1    -4.723299133923788E1    -7.627911453178689E1    -2.063976780373464       4.372836237066700
 7.877712854500000E9    -2.190145095068269       2.710626054106178E1    -4.698476901204587E1    -7.357251898805167E1    -4.710019551753953E1    -7.626176661942442E1    -2.059185700992893       4.251099318890737
 7.877773508050000E9    -2.189615545482547       2.695147675720778E1    -4.676621103719607E1    -7.414186864940760E1    -4.694212339568796E1    -7.725468193676497E1    -2.063747265624477       4.111779528894052
 7.877834161600000E9    -2.187123243732337       2.677039813211320E1    -4.660670103382814E1    -7.385626714518607E1    -4.676865326442721E1    -7.756151760514291E1    -2.055754518778041       3.926911042021143
 7.877894815150000E9    -2.188698379743586       2.661775804116272E1    -4.631798128233179E1    -7.536274921696722E1    -4.653263265895527E1    -7.725979971919321E1    -2.060019993778164       3.786862847747770
 7.877955468700000E9    -2.189051506610513       2.644762603866252E1    -4.622422178618608E1    -7.539534677797006E1    -4.650253409996840E1    -7.837260247809799E1    -2.055074965577982       3.676596563353736
 7.878016122250000E9    -2.186460278456718       2.627654770129139E1    -4.617886606502015E1    -7.602015335759880E1    -4.624417544707644E1    -7.918585911725071E1    -2.050737584349073       3.536846559473649
 7.878076775800000E9    -2.187089273019068       2.611974483214053E1    -4.602186521288250E1    -7.687062567181805E1    -4.607316739020518E1    -7.912359074400477E1    -2.053805741485767       3.386411524842344
 7.878137429350000E9    -2.184986167448786       2.593564995727450E1    -4.571245983544675E1    -7.680278591273047E1    -4.578541105724747E1    -8.027654467681523E1    -2.059086281473665       3.252161668467788
 7.878198082900000E9    -2.187498068750359       2.574272450716952E1    -4.565131945864701E1    -7.713744243970078E1    -4.576685385110368E1    -8.102015859837967E1    -2.055411614114858       3.081745852603528
 7.878258736450000E9    -2.183775073616189       2.563748735960252E1    -4.528228789819128E1    -7.805721524349813E1    -4.543278074080027E1    -8.206541905316924E1    -2.049736244976729       2.961614268395544
 7.878319390000000E9    -2.185085564067156       2.541902044386724E1    -4.515822980575307E1    -7.877056795821805E1    -4.527362638282771E1    -8.177993445921626E1    -2.052850305372936       2.852251218216968
 7.878380043550000E9    -2.188993563590543       2.527818539994802E1    -4.504229796398577E1    -7.890698204317498E1    -4.507930657321972E1    -8.251697013445242E1    -2.052729685343442       2.682594576490437
 7.878440697100000E9    -2.184075323669102       2.509809357130238E1    -4.467631237046646E1    -7.952705696595845E1    -4.474377848868595E1    -8.259679039639548E1    -2.050365601774357       2.559151107415047
 7.878501350650000E9    -2.188035847870618       2.493778878416332E1    -4.452777034637221E1    -8.037263721434307E1    -4.465343347283259E1    -8.418779113317981E1    -2.051264853713052       2.383461393734729
 7.878562004200000E9    -2.186796435750173       2.475207270136307E1    -4.433931690873514E1    -8.118870470967759E1    -4.444145177046514E1    -8.384814813261036E1    -2.052543612096733       2.231007652582089
 7.878622657750000E9    -2.187373273037658       2.460783563087361E1    -4.414372882865801E1    -8.072973983978220E1    -4.416569993331034E1    -8.489872751433211E1    -2.047556098382135       2.086677140751058
 7.878683311300000E9    -2.184113584447434       2.442183758312486E1    -4.393402205063428E1    -8.247588349880900E1    -4.389746927273471E1    -8.528286141000194E1    -2.044610152368469       1.953366590516913
 7.878743964850000E9    -2.188959668729896       2.424808788854830E1    -4.367965619544032E1    -8.255626439655384E1    -4.370321332182222E1    -8.582241401589667E1    -2.053908917611370       1.786145572186256
 7.878804618400000E9    -2.187274032856799       2.408604879126437E1    -4.341359306183268E1    -8.387922795849357E1    -4.350575762472491E1    -8.656579783446126E1    -2.046930020498753       1.663001041598192
 7.878865271950000E9    -2.187549004605887       2.389409588692176E1    -4.315918155913761E1    -8.437548862715411E1    -4.331077544001276E1    -8.744575423998059E1    -2.044727419999059       1.502897600692983
 7.878925925500000E9    -2.186664945505002       2.372201788698801E1    -4.290259216176023E1    -8.463843382621280E1    -4.302752963206838E1    -8.823897102594765E1    -2.051184564112830       1.369764762108270
 7.878986579050000E9    -2.190010758895597       2.356361352665533E1    -4.271515128259598E1    -8.551624766694839E1    -4.291024065611276E1    -8.916389199234213E1    -2.047209613271225       1.162065634680421
 7.879047232600000E9    -2.189265182601019       2.338984439668364E1    -4.245211595101560E1    -8.625815954321925E1    -4.253199381642047E1    -8.974101223198473E1    -2.054885356480390       1.085491544694171
 7.879107886150000E9    -2.189109082793216       2.321610752010855E1    -4.214055840104368E1    -8.724582586096778E1    -4.233712364904833E1    -9.039844936754969E1    -2.052694754874342       9.311116338473285E-1
 7.879168539700000E9    -2.192019650947731       2.303570832695167E1    -4.185605817222864E1    -8.844793529675376E1    -4.203615424403039E1    -9.202921208335569E1    -2.046198820470819       7.737612864573313E-1
 7.879229193250000E9    -2.192945879354589       2.285839898576186E1    -4.170279728654555E1    -8.942158125091427E1    -4.174731475708698E1    -9.276108905291096E1    -2.050975956698605       6.117956750057849E-1
 7.879289846800000E9    -2.192923900259008       2.270335617542191E1    -4.133969520005135E1    -9.033675087743151E1    -4.150067482027139E1    -9.388558221967240E1    -2.054904037408067       4.660552887540430E-1
 7.879350500350000E9    -2.195788457690571       2.250799046753027E1    -4.101225301501731E1    -9.160587315932622E1    -4.121493689623564E1    -9.530741812379362E1    -2.050936956239273       3.371705968831648E-1
 7.879411153900000E9    -2.195595169469089       2.233337257878638E1    -4.075737137716837E1    -9.235799911319793E1    -4.091301274648441E1    -9.641547517346305E1    -2.061704052726649       1.651171493006701E-1
 7.879471807450000E9    -2.200034494528870       2.213597343944974E1    -4.033029706537552E1    -9.368741976331381E1    -4.056226020152664E1    -9.733009648119268E1    -2.058514487167158      -4.400589142635122E-3
 7.879532461000000E9    -2.203502424945135       2.198878449136440E1    -4.010488174660851E1    -9.537505506417315E1    -4.021454335971810E1    -9.948614732247169E1    -2.065083639779938      -1.384909765340794E-1
 7.879593114550000E9    -2.206501577188513       2.181995808695458E1    -3.977144765067644E1    -9.699482663050956E1    -3.995637504214559E1    -1.002854939160876E2    -2.068223255534484      -2.650003509603767E-1
 7.879653768100000E9    -2.212525416839961       2.163401106836639E1    -3.939187942304472E1    -9.848501123625935E1    -3.955146869069365E1    -1.020232907687074E2    -2.069984296158263      -4.679592315085092E-1
 7.879714421650000E9    -2.215735067333122       2.147458372321307E1    -3.907668861359698E1    -9.988982898297836E1    -3.921016400403248E1    -1.035698305332916E2    -2.069762415080784      -5.808728947942337E-1
 7.879775075200000E9    -2.221117166520792       2.131785222115059E1    -3.871721063794089E1    -1.018341477405850E2    -3.888894723736831E1    -1.053549885218509E2    -2.079155160257586      -7.307665775249753E-1
 7.879835728750000E9    -2.224439624999075       2.112227311458557E1    -3.833984524487900E1    -1.034615336357572E2    -3.853198514848542E1    -1.076560551682655E2    -2.083551850116321      -9.016561364406213E-1
 7.879896382300000E9    -2.228552835405190       2.095953472436036E1    -3.799194101971976E1    -1.061460929689530E2    -3.814933488083304E1    -1.091119814056100E2    -2.090126729803626      -1.080311350750699
 7.879957035850000E9    -2.236935277556404       2.079316464180843E1    -3.761124309763949E1    -1.085627742620777E2    -3.779349022457203E1    -1.117095563214350E2    -2.096820341354887      -1.185323172955593
 7.880017689400000E9    -2.242983480258187       2.062109372046188E1    -3.729695827903851E1    -1.106378594890003E2    -3.744085062224864E1    -1.143706121698011E2    -2.099472974596321      -1.365092347940071
 7.880078342950000E9    -2.251406656383379       2.043843258178553E1    -3.686367129357320E1    -1.135984272536100E2    -3.704129360390543E1    -1.168757934760995E2    -2.111169390303824      -1.486833239360640
 7.880138996500000E9    -2.262447864138263       2.030546777713536E1    -3.653235963128355E1    -1.162319188725000E2    -3.663713205341424E1    -1.194723721775239E2    -2.117514755653846      -1.619320115534857
 7.880199650050000E9    -2.272343465329024       2.015437896504259E1    -3.612308300519578E1    -1.193456663152267E2    -3.629302218631605E1    -1.228460903437351E2    -2.126807421897333      -1.802569314639300
