#  HZ   S   RI   R     50.00 
! Rohde & Schwarz Vector Network Analyzer 
! Rohde-Schwarz,ZNB20-2Port,1311601062101988,3.16
! Created: UTC 12/23/2023, 3:37:06 AM
! freq[Hz]                re:S11                  im:S11                  re:S21                  im:S21                  re:S12                  im:S12                  re:S22                  im:S22
 1.001060278300000E+10  -3.272148340929049E-1    4.018959955557096E-1   -2.525567820840073E-2   -1.384468199413313E-2   -2.358591718099943E-2   -1.452965317662885E-2   -1.431712431784302E-1    4.997093316281780E-1
 1.001061170225000E+10  -3.265898829463343E-1    4.027071346293546E-1   -2.547707677244244E-2   -1.368931624714971E-2   -2.369107362414450E-2   -1.458367497875926E-2   -1.427100073011328E-1    4.996650414036614E-1
 1.001062062150000E+10  -3.257870288009916E-1    4.031546873743372E-1   -2.557976050573701E-2   -1.375538159342977E-2   -2.382595087071298E-2   -1.460398721981822E-2   -1.420624780323972E-1    5.000821997508957E-1
 1.001062954075000E+10  -3.252223364994262E-1    4.036172821262872E-1   -2.574553448592557E-2   -1.365908562549625E-2   -2.392341793439727E-2   -1.452694015541004E-2   -1.414099519642997E-1    5.001051527410625E-1
 1.001063846000000E+10  -3.244814946603966E-1    4.043526969633666E-1   -2.572362569980632E-2   -1.366841027768651E-2   -2.413250303876212E-2   -1.451777946308236E-2   -1.409706680472675E-1    5.001722060609719E-1
 1.001064737925000E+10  -3.236376934079044E-1    4.047261120443346E-1   -2.597399199628335E-2   -1.375823202477183E-2   -2.427507206648245E-2   -1.449238757441491E-2   -1.403450009415931E-1    5.003970404727948E-1
 1.001065629850000E+10  -3.230400371960585E-1    4.053171574984639E-1   -2.611075812968400E-2   -1.377941271124705E-2   -2.435216340512151E-2   -1.465351328734026E-2   -1.395933357016616E-1    5.007083898421408E-1
 1.001066521775000E+10  -3.223395209749784E-1    4.059541221565469E-1   -2.616083345111962E-2   -1.387032749539444E-2   -2.450201312329177E-2   -1.464543126256691E-2   -1.391039974865914E-1    5.008436351248510E-1
 1.001067413700000E+10  -3.215720872592217E-1    4.064527873951982E-1   -2.636054548732708E-2   -1.377677220725709E-2   -2.461202029896743E-2   -1.469155273382968E-2   -1.385168798279751E-1    5.008582768127493E-1
 1.001068305625000E+10  -3.209425461319219E-1    4.071125718959352E-1   -2.654536092161627E-2   -1.379373358702899E-2   -2.467933165318683E-2   -1.477696473591092E-2   -1.380486449538579E-1    5.010840991955183E-1
 1.001069197550000E+10  -3.202294968045833E-1    4.076172409309818E-1   -2.653875473437224E-2   -1.387737328090362E-2   -2.489051810282954E-2   -1.484102867149967E-2   -1.374696181772612E-1    5.013336250278082E-1
 1.001070089475000E+10  -3.194167943888843E-1    4.083371573412131E-1   -2.679827281075568E-2   -1.387475972254583E-2   -2.490487492251411E-2   -1.497950660015047E-2   -1.369070463466597E-1    5.014900924643112E-1
 1.001070981400000E+10  -3.186095580641200E-1    4.088045250312762E-1   -2.682868889559353E-2   -1.388406407370922E-2   -2.500508475205951E-2   -1.480864448288722E-2   -1.361775915671449E-1    5.017052690355119E-1
 1.001071873325000E+10  -3.180292754127623E-1    4.093889863666735E-1   -2.696430308784406E-2   -1.393842394633668E-2   -2.517328513646343E-2   -1.474338682681035E-2   -1.355708336171241E-1    5.018270593935835E-1
 1.001072765250000E+10  -3.171514972465446E-1    4.099817691627720E-1   -2.720998323627735E-2   -1.404587810690060E-2   -2.532618979702534E-2   -1.486969895995708E-2   -1.349923175455514E-1    5.019252331619870E-1
 1.001073657175000E+10  -3.164531484638521E-1    4.105820870803916E-1   -2.726952432203638E-2   -1.406299603408615E-2   -2.551235847972567E-2   -1.470990605637599E-2   -1.343371422688056E-1    5.019997471682163E-1
 1.001074549100000E+10  -3.156946248271992E-1    4.112370532771104E-1   -2.735205678525263E-2   -1.410899042612519E-2   -2.564445074640147E-2   -1.482027626747948E-2   -1.338630339490407E-1    5.023063912780907E-1
 1.001075441025000E+10  -3.148839126098393E-1    4.116974196968779E-1   -2.743033223108985E-2   -1.408756213705480E-2   -2.582141079280277E-2   -1.480346913080963E-2   -1.332001603400844E-1    5.024481294856291E-1
 1.001076332950000E+10  -3.141211906567909E-1    4.123321173090065E-1   -2.758297873214197E-2   -1.405487387141684E-2   -2.590436105573524E-2   -1.486119265645820E-2   -1.325646066050481E-1    5.025009346815530E-1
 1.001077224875000E+10  -3.134105182933595E-1    4.127847603989790E-1   -2.781470946694025E-2   -1.421287615985040E-2   -2.610984116654748E-2   -1.490017341612011E-2   -1.320719077270412E-1    5.026532704808913E-1
 1.001078116800000E+10  -3.125393399287482E-1    4.136303354421009E-1   -2.802643548312858E-2   -1.421721289439842E-2   -2.626674189075857E-2   -1.497157389570500E-2   -1.313057294628252E-1    5.027841000732652E-1
 1.001079008725000E+10  -3.118796709878764E-1    4.139742762132324E-1   -2.805216102872559E-2   -1.417501283930964E-2   -2.637281803952270E-2   -1.517035153235827E-2   -1.309340294810037E-1    5.030733421994428E-1
 1.001079900650000E+10  -3.111287644306376E-1    4.146684219100606E-1   -2.824920974321547E-2   -1.433584125883575E-2   -2.644411070783591E-2   -1.503750572976154E-2   -1.301450712006049E-1    5.031625440978480E-1
 1.001080792575000E+10  -3.103067477917129E-1    4.151715906092979E-1   -2.850552907901917E-2   -1.418708550002315E-2   -2.671186776423923E-2   -1.505675365926860E-2   -1.295672618271172E-1    5.034783765811597E-1
 1.001081684500000E+10  -3.096174490083519E-1    4.159513028403231E-1   -2.855273507335978E-2   -1.409685005152818E-2   -2.688974645507199E-2   -1.501471094219022E-2   -1.289681356891115E-1    5.036531292124539E-1
 1.001082576425000E+10  -3.087241152123909E-1    4.163126181567968E-1   -2.890838634180931E-2   -1.416413952997389E-2   -2.692448941929390E-2   -1.509063162274339E-2   -1.284565505134937E-1    5.037258468986234E-1
 1.001083468350000E+10  -3.079223913249955E-1    4.170628012803539E-1   -2.899067598790131E-2   -1.425931583292045E-2   -2.712248379679218E-2   -1.490196993366903E-2   -1.277978580403583E-1    5.037155915194792E-1
 1.001084360275000E+10  -3.071097454862664E-1    4.176731819343659E-1   -2.918094533917365E-2   -1.419308238803862E-2   -2.734056666044348E-2   -1.502098782996616E-2   -1.272690086831989E-1    5.040849328535812E-1
 1.001085252200000E+10  -3.064363802829382E-1    4.181886903245833E-1   -2.919165884208608E-2   -1.425870347593747E-2   -2.739232957591786E-2   -1.510995362459461E-2   -1.265791554590294E-1    5.041434590055041E-1
 1.001086144125000E+10  -3.055284918467019E-1    4.188711045069598E-1   -2.940930090228265E-2   -1.417914398840863E-2   -2.763711556455912E-2   -1.520330242096523E-2   -1.260697140692840E-1    5.044477605171587E-1
 1.001087036050000E+10  -3.046820140154426E-1    4.194220886762516E-1   -2.955276153293891E-2   -1.433952826181011E-2   -2.770375937879878E-2   -1.529061359872257E-2   -1.253015248996053E-1    5.044432695012578E-1
 1.001087927975000E+10  -3.039939889392096E-1    4.197819482522934E-1   -2.984378740557052E-2   -1.446238440343332E-2   -2.783188571903021E-2   -1.517072160241364E-2   -1.246379721649609E-1    5.045760966806349E-1
 1.001088819900000E+10  -3.029477028614738E-1    4.206342807718169E-1   -2.986479034009341E-2   -1.446028799377780E-2   -2.805032864993710E-2   -1.520095621918399E-2   -1.242158899351879E-1    5.048461033123000E-1
 1.001089711825000E+10  -3.022263494972167E-1    4.211865096604732E-1   -3.015072669201560E-2   -1.436160267939857E-2   -2.840777730551940E-2   -1.535436079368852E-2   -1.236511247717018E-1    5.049142093096776E-1
 1.001090603750000E+10  -3.014243862309899E-1    4.216823735872665E-1   -3.031601605587202E-2   -1.454825191717974E-2   -2.842828605344373E-2   -1.536834508848066E-2   -1.230442850358514E-1    5.050757724330959E-1
 1.001091495675000E+10  -3.005791984410166E-1    4.222881635610018E-1   -3.055763626357839E-2   -1.453761740240229E-2   -2.870254613829202E-2   -1.521037673849017E-2   -1.223747447910365E-1    5.051972392967148E-1
 1.001092387600000E+10  -2.997513447835847E-1    4.229080486234296E-1   -3.059545647118450E-2   -1.439212945739564E-2   -2.889824750541960E-2   -1.538911390578574E-2   -1.218168930724029E-1    5.053513425648753E-1
 1.001093279525000E+10  -2.987595426779200E-1    4.234499227899658E-1   -3.087161058674761E-2   -1.438505765933941E-2   -2.898624462383519E-2   -1.532146601983131E-2   -1.209997580608601E-1    5.054409955338619E-1
 1.001094171450000E+10  -2.979899797296359E-1    4.240702989088456E-1   -3.113299833604481E-2   -1.431428785676623E-2   -2.912335950843148E-2   -1.533521037431386E-2   -1.205564610867219E-1    5.056348439206690E-1
 1.001095063375000E+10  -2.970341113938661E-1    4.247346477085909E-1   -3.142305948105607E-2   -1.439122425358017E-2   -2.931597883532464E-2   -1.546039840972762E-2   -1.199049494663827E-1    5.056575809982011E-1
 1.001095955300000E+10  -2.961024557816321E-1    4.252384675813952E-1   -3.143565598463292E-2   -1.445018052382408E-2   -2.943752003045531E-2   -1.552191335065352E-2   -1.192491830502900E-1    5.059486106547538E-1
 1.001096847225000E+10  -2.953470481004091E-1    4.259882352254168E-1   -3.156854666051213E-2   -1.451335366109768E-2   -2.973293385181865E-2   -1.550215880787150E-2   -1.186665806931888E-1    5.061435421669200E-1
 1.001097739150000E+10  -2.945283081976108E-1    4.265337664667985E-1   -3.196664801792425E-2   -1.443990806056800E-2   -2.988321844366359E-2   -1.568756484695974E-2   -1.179924355651979E-1    5.062611868442100E-1
 1.001098631075000E+10  -2.936947980372266E-1    4.271000852046614E-1   -3.211366968206750E-2   -1.455360975662369E-2   -3.022448929637084E-2   -1.543144657115846E-2   -1.174094334597278E-1    5.063030004810257E-1
 1.001099523000000E+10  -2.926570321844513E-1    4.276841298127121E-1   -3.221704338075181E-2   -1.453825806425003E-2   -3.020684207565643E-2   -1.552131287527800E-2   -1.168696186213610E-1    5.065211333435523E-1
 1.001100414925000E+10  -2.918252843293108E-1    4.283701545486853E-1   -3.239426302308766E-2   -1.465815301044348E-2   -3.052635041871232E-2   -1.551939380153912E-2   -1.161661041357690E-1    5.067287419680131E-1
 1.001101306850000E+10  -2.909548280277908E-1    4.288246999278079E-1   -3.254865314281124E-2   -1.471560731220070E-2   -3.070980917184479E-2   -1.546945918591967E-2   -1.156721259815093E-1    5.068958559404166E-1
 1.001102198775000E+10  -2.899818473423744E-1    4.293454208309941E-1   -3.280704204477741E-2   -1.460365478397919E-2   -3.097817717690739E-2   -1.573385615558819E-2   -1.150930927079992E-1    5.068939420772232E-1
 1.001103090700000E+10  -2.891409872850277E-1    4.300023405469403E-1   -3.300845410376362E-2   -1.458543313269774E-2   -3.107580668468087E-2   -1.569307169558082E-2   -1.142710438272427E-1    5.071290425725868E-1
 1.001103982625000E+10  -2.880627545675574E-1    4.306901066444327E-1   -3.328485051926353E-2   -1.478340949021371E-2   -3.128454726641972E-2   -1.580681907992129E-2   -1.137169063035822E-1    5.072007881344727E-1
 1.001104874550000E+10  -2.871565184357608E-1    4.312787114363575E-1   -3.356046553162049E-2   -1.472556887410834E-2   -3.140040161572476E-2   -1.585822724447483E-2   -1.130732023573657E-1    5.073573584816193E-1
 1.001105766475000E+10  -2.860910809221606E-1    4.320195866324837E-1   -3.376695565705249E-2   -1.470824245575228E-2   -3.159951948544017E-2   -1.584648681998854E-2   -1.124837354315286E-1    5.074100775171887E-1
 1.001106658400000E+10  -2.851651780984180E-1    4.327134827654704E-1   -3.385182601539313E-2   -1.473284644594486E-2   -3.201403024607680E-2   -1.584490994860514E-2   -1.118325219890168E-1    5.075719410462249E-1
 1.001107550325000E+10  -2.843931312003372E-1    4.332476326940816E-1   -3.421856889078168E-2   -1.476250818034960E-2   -3.208605163912923E-2   -1.579062949281335E-2   -1.111465765100954E-1    5.077537154246328E-1
 1.001108442250000E+10  -2.833587794816917E-1    4.338373002326349E-1   -3.446889216032391E-2   -1.465924598369701E-2   -3.241892705006943E-2   -1.571635566750943E-2   -1.104505997038606E-1    5.079454355725060E-1
 1.001109334175000E+10  -2.822036681926582E-1    4.344143440182293E-1   -3.471988212970251E-2   -1.467972040828914E-2   -3.252757279696549E-2   -1.577629892077261E-2   -1.099998628851734E-1    5.080554643376460E-1
 1.001110226100000E+10  -2.813333326271715E-1    4.349954187162736E-1   -3.481282548734373E-2   -1.465549608633574E-2   -3.281366628186864E-2   -1.579973460862166E-2   -1.092295000245776E-1    5.081271140262448E-1
 1.001111118025000E+10  -2.802471071874493E-1    4.356060050618445E-1   -3.503398174063110E-2   -1.480645418774423E-2   -3.288887109295906E-2   -1.584795396906955E-2   -1.086974740985941E-1    5.083822556527711E-1
 1.001112009950000E+10  -2.793748778286899E-1    4.362583416608551E-1   -3.530089927786656E-2   -1.491465166443034E-2   -3.320217624231268E-2   -1.594337813733282E-2   -1.080562611503218E-1    5.083878356416697E-1
 1.001112901875000E+10  -2.783387874542040E-1    4.369151702434132E-1   -3.548759045893808E-2   -1.485377751350137E-2   -3.339565938952080E-2   -1.603768401287771E-2   -1.073279832057720E-1    5.085353111050364E-1
 1.001113793800000E+10  -2.772399056301412E-1    4.375580987729248E-1   -3.579645435667593E-2   -1.500144395923838E-2   -3.365878171816889E-2   -1.591401964121630E-2   -1.067608629011373E-1    5.085730727173456E-1
 1.001114685725000E+10  -2.762107394628275E-1    4.380246886501243E-1   -3.594159844429844E-2   -1.496367579543847E-2   -3.380863475117577E-2   -1.607810465102726E-2   -1.060100281919464E-1    5.087553961462805E-1
 1.001115577650000E+10  -2.752067101383369E-1    4.387973224012400E-1   -3.627251086510753E-2   -1.490320642822973E-2   -3.410391707395620E-2   -1.603224214299058E-2   -1.054029834859020E-1    5.088635711595573E-1
 1.001116469575000E+10  -2.742130327702324E-1    4.393466955723474E-1   -3.646773340180730E-2   -1.481664898705900E-2   -3.440538124000345E-2   -1.617612049930493E-2   -1.049381765247013E-1    5.091426785966500E-1
 1.001117361500000E+10  -2.730795038165386E-1    4.399670552587510E-1   -3.693326677213981E-2   -1.482555042698330E-2   -3.482465024623237E-2   -1.612877312701757E-2   -1.040593367634380E-1    5.089714627413637E-1
 1.001118253425000E+10  -2.720310168134390E-1    4.407234280918561E-1   -3.714481816981997E-2   -1.480484780103292E-2   -3.493374887816336E-2   -1.609272941520520E-2   -1.034976484941808E-1    5.090645030024142E-1
 1.001119145350000E+10  -2.709147982419316E-1    4.411945995549119E-1   -3.737624280782966E-2   -1.481127355967245E-2   -3.525429328533038E-2   -1.617417172689849E-2   -1.029204051685507E-1    5.092635646021431E-1
 1.001120037275000E+10  -2.698422466531629E-1    4.418032323385441E-1   -3.764993217568909E-2   -1.481404813469262E-2   -3.541900517698870E-2   -1.613680569514096E-2   -1.022489238601888E-1    5.094632315642841E-1
 1.001120929200000E+10  -2.687115959219103E-1    4.425550036925947E-1   -3.789084576723582E-2   -1.477883192903562E-2   -3.572487723003644E-2   -1.608613049637709E-2   -1.015463079016329E-1    5.096046445565714E-1
 1.001121821125000E+10  -2.674976436287336E-1    4.432280353408326E-1   -3.830882254913404E-2   -1.495302872957991E-2   -3.600814613509280E-2   -1.631469450732610E-2   -1.009916433371206E-1    5.098095190105026E-1
 1.001122713050000E+10  -2.664743434175942E-1    4.437830706148280E-1   -3.851334656981239E-2   -1.480293889111047E-2   -3.636314957509817E-2   -1.626095415044124E-2   -1.004020410664965E-1    5.097943710665264E-1
 1.001123604975000E+10  -2.652345466960504E-1    4.444529047481253E-1   -3.890966855323590E-2   -1.483660400826346E-2   -3.652483723924871E-2   -1.623768538453286E-2   -9.964723430028806E-2    5.100706462011433E-1
 1.001124496900000E+10  -2.641887609544329E-1    4.450266909874528E-1   -3.908911934149120E-2   -1.510580173676401E-2   -3.683154736327123E-2   -1.627855733549159E-2   -9.903771170517289E-2    5.100489565702929E-1
 1.001125388825000E+10  -2.629414455710410E-1    4.456726079065529E-1   -3.940158779252587E-2   -1.513817250047230E-2   -3.727574974416210E-2   -1.627280817912881E-2   -9.835966229599492E-2    5.101370386717028E-1
 1.001126280750000E+10  -2.617194544724712E-1    4.463853239634198E-1   -3.967657799865589E-2   -1.514504105807922E-2   -3.735152315158783E-2   -1.645298807728043E-2   -9.757157308705311E-2    5.102291102155101E-1
 1.001127172675000E+10  -2.606430671522222E-1    4.469251898678053E-1   -3.995689995448266E-2   -1.505115163632399E-2   -3.759367933972232E-2   -1.656086614797908E-2   -9.686588439316174E-2    5.101603564139232E-1
 1.001128064600000E+10  -2.593011034293566E-1    4.476789031366636E-1   -4.037136136906745E-2   -1.506436402101126E-2   -3.788816525999554E-2   -1.649704654319747E-2   -9.644413938237525E-2    5.104344116150259E-1
 1.001128956525000E+10  -2.581335617371701E-1    4.482360207570056E-1   -4.065692947094201E-2   -1.508612418966774E-2   -3.830744840962426E-2   -1.655152476373886E-2   -9.567767400144414E-2    5.106723020520904E-1
 1.001129848450000E+10  -2.569421870632457E-1    4.489741552665847E-1   -4.083748436799479E-2   -1.500074038789628E-2   -3.851435574592478E-2   -1.651316232061802E-2   -9.501841138859332E-2    5.106842670988615E-1
 1.001130740375000E+10  -2.556968308449927E-1    4.495728922660973E-1   -4.122824611540201E-2   -1.493566285158232E-2   -3.894080732683067E-2   -1.647056957676963E-2   -9.443021570489903E-2    5.108709256727991E-1
 1.001131632300000E+10  -2.544924276800301E-1    4.501045376770892E-1   -4.168867154860646E-2   -1.510335192775621E-2   -3.918452726112574E-2   -1.648245486412224E-2   -9.372390559525180E-2    5.109171267875251E-1
 1.001132524225000E+10  -2.530448159899097E-1    4.507080399049259E-1   -4.190314603620211E-2   -1.488152311556887E-2   -3.955946497044293E-2   -1.642412991157084E-2   -9.309658761915361E-2    5.109039374339391E-1
 1.001133416150000E+10  -2.519342849408711E-1    4.514867895934426E-1   -4.236008654380965E-2   -1.487699359281246E-2   -3.983095513819815E-2   -1.636926362425028E-2   -9.240408965218629E-2    5.110748680225059E-1
 1.001134308075000E+10  -2.505179535600732E-1    4.522604904974477E-1   -4.273474338945368E-2   -1.498845920847851E-2   -4.015610667111837E-2   -1.644828233133983E-2   -9.162336015770604E-2    5.111842550256436E-1
 1.001135200000000E+10  -2.493553515452601E-1    4.529097154716162E-1   -4.303879880616625E-2   -1.491639847310479E-2   -4.045723003283024E-2   -1.652623255127461E-2   -9.099640362095351E-2    5.112995764064613E-1
 1.001136091925000E+10  -2.479492698894764E-1    4.534409858821248E-1   -4.340941344297500E-2   -1.495047706293785E-2   -4.090845257864538E-2   -1.655842613343374E-2   -9.029529503994392E-2    5.112747801997967E-1
 1.001136983850000E+10  -2.466491174420016E-1    4.540788546299707E-1   -4.362393154867228E-2   -1.505859524311517E-2   -4.129824159872742E-2   -1.669995234830941E-2   -8.971995800770320E-2    5.114217697491482E-1
 1.001137875775000E+10  -2.451837497973486E-1    4.547248804597261E-1   -4.402391262458313E-2   -1.507327713176453E-2   -4.154451037964931E-2   -1.662286111996589E-2   -8.893867309604270E-2    5.116460255428916E-1
 1.001138767700000E+10  -2.437416601118803E-1    4.555122929904578E-1   -4.431089792710462E-2   -1.517288057659146E-2   -4.195798717466389E-2   -1.674771243732305E-2   -8.832249218943589E-2    5.115278036248054E-1
 1.001139659625000E+10  -2.424443120273437E-1    4.560173789057143E-1   -4.483288982772381E-2   -1.514899519408973E-2   -4.235804309439662E-2   -1.658943685471633E-2   -8.750244802093510E-2    5.117008906030620E-1
 1.001140551550000E+10  -2.410202952454851E-1    4.568091645017303E-1   -4.515613963111118E-2   -1.512980513798378E-2   -4.264830724783520E-2   -1.672531677282119E-2   -8.692021432016744E-2    5.118823265766799E-1
