#  HZ   S   RI   R     50.00 
! Rohde & Schwarz Vector Network Analyzer 
! Rohde-Schwarz,ZNB20-2Port,1311601062101988,3.16
! Created: UTC 12/23/2023, 3:42:40 AM
! freq[Hz]                re:S11                  im:S11                  re:S21                  im:S21                  re:S12                  im:S12                  re:S22                  im:S22
 1.000994726000000E+10  -3.679631561520426E-1    3.619650084648363E-1   -1.955774332866019E-2   -1.307433721552213E-2   -1.824464870719353E-2   -1.344254129936126E-2   -1.846829563528684E-1    4.847071140798296E-1
 1.000995869592500E+10  -3.673631714506151E-1    3.627082515813842E-1   -1.975063148179240E-2   -1.296828432550270E-2   -1.825221417242884E-2   -1.355219227602487E-2   -1.839207286622481E-1    4.849141599065086E-1
 1.000997013185000E+10  -3.665850604368973E-1    3.633976774646910E-1   -1.974846557481585E-2   -1.309871466415713E-2   -1.837136277885959E-2   -1.357630954477982E-2   -1.832539559059905E-1    4.854024841939252E-1
 1.000998156777500E+10  -3.658069087438954E-1    3.641807006334183E-1   -1.977467961530902E-2   -1.296198753124760E-2   -1.848231781349383E-2   -1.364741468145804E-2   -1.825136312065327E-1    4.855901989445646E-1
 1.000999300370000E+10  -3.651804720173923E-1    3.646782559930043E-1   -1.992604699635388E-2   -1.319374325049462E-2   -1.851122045173275E-2   -1.359018661428305E-2   -1.818009570693979E-1    4.859535911299013E-1
 1.001000443962500E+10  -3.645446836678666E-1    3.655781595993867E-1   -2.004077111647310E-2   -1.303469673455064E-2   -1.858265630726685E-2   -1.353211497886618E-2   -1.811477592888186E-1    4.860975246654515E-1
 1.001001587555000E+10  -3.637577545261560E-1    3.662821782365853E-1   -2.021615051714966E-2   -1.304445796928078E-2   -1.878960514315824E-2   -1.358843973384474E-2   -1.804862467405207E-1    4.863844271379899E-1
 1.001002731147500E+10  -3.629287058398908E-1    3.669691804416683E-1   -2.037681797947092E-2   -1.308055707000787E-2   -1.887443871769973E-2   -1.359770318332331E-2   -1.796069390810419E-1    4.866337460982054E-1
 1.001003874740000E+10  -3.624152347595959E-1    3.676356875677912E-1   -2.038162932779012E-2   -1.308316753768677E-2   -1.885515017740442E-2   -1.365003021965466E-2   -1.789649383569484E-1    4.869805349439495E-1
 1.001005018332500E+10  -3.615628077424286E-1    3.683018686015901E-1   -2.042693712972901E-2   -1.316101007338042E-2   -1.911402587951914E-2   -1.358018841554476E-2   -1.781674282118661E-1    4.872633696890971E-1
 1.001006161925000E+10  -3.607790013959188E-1    3.691657612170495E-1   -2.059759739870459E-2   -1.314175192536849E-2   -1.923434566084781E-2   -1.360771420743990E-2   -1.775862712824229E-1    4.875831830944710E-1
 1.001007305517500E+10  -3.600716548304799E-1    3.697459662260847E-1   -2.062389890183270E-2   -1.310428919387483E-2   -1.924512818277099E-2   -1.362975423866676E-2   -1.769421158179284E-1    4.878005352165007E-1
 1.001008449110000E+10  -3.593503130013925E-1    3.703830449485720E-1   -2.082833780312424E-2   -1.322900594706024E-2   -1.933769679007254E-2   -1.378396598433028E-2   -1.760427720313678E-1    4.881150208107463E-1
 1.001009592702500E+10  -3.587494090618293E-1    3.712534384498054E-1   -2.091901364256944E-2   -1.325331697607397E-2   -1.938181952786233E-2   -1.366772007079813E-2   -1.753911255597245E-1    4.884137599373971E-1
 1.001010736295000E+10  -3.580140325975537E-1    3.720509478571227E-1   -2.092836875722546E-2   -1.316293200760214E-2   -1.967697247966621E-2   -1.374583211923312E-2   -1.747505766114170E-1    4.885549618593198E-1
 1.001011879887500E+10  -3.573093763403030E-1    3.725578156301640E-1   -2.115161238007657E-2   -1.323979210023427E-2   -1.972595851030240E-2   -1.388347302199602E-2   -1.739310693492274E-1    4.887374573143242E-1
 1.001013023480000E+10  -3.564441232228452E-1    3.733637436945069E-1   -2.125422675762851E-2   -1.322357457191621E-2   -1.979379261897981E-2   -1.377118703436247E-2   -1.733648898905838E-1    4.891744122537013E-1
 1.001014167072500E+10  -3.555802154790336E-1    3.739517988029026E-1   -2.130154227764613E-2   -1.333289573279363E-2   -1.989268447153915E-2   -1.381767605562450E-2   -1.723230140614380E-1    4.895107891289315E-1
 1.001015310665000E+10  -3.549817904034965E-1    3.748065629917494E-1   -2.150575703924266E-2   -1.333946040874010E-2   -1.995850800304023E-2   -1.373953143297082E-2   -1.718428130096705E-1    4.895754426432508E-1
 1.001016454257500E+10  -3.542031555643390E-1    3.754674396576010E-1   -2.165489383354269E-2   -1.340115863816184E-2   -2.025589480621477E-2   -1.366420598281677E-2   -1.711151300752154E-1    4.898023357356521E-1
 1.001017597850000E+10  -3.534994270179082E-1    3.762019589225080E-1   -2.171115425404531E-2   -1.339160169045562E-2   -2.028138016963271E-2   -1.382550187304776E-2   -1.703423454739907E-1    4.902244672830294E-1
 1.001018741442500E+10  -3.527308908486719E-1    3.768157420578571E-1   -2.180277586560030E-2   -1.347044180968188E-2   -2.039909896770218E-2   -1.391555846544681E-2   -1.697514203265444E-1    4.904795107264492E-1
 1.001019885035000E+10  -3.519677342902882E-1    3.776375295226682E-1   -2.202646468414703E-2   -1.330889235905512E-2   -2.057509139150858E-2   -1.393190532842680E-2   -1.688114783249506E-1    4.905931709098640E-1
 1.001021028627500E+10  -3.511495754555181E-1    3.783243048818456E-1   -2.212513782697447E-2   -1.343785819653712E-2   -2.047191587513696E-2   -1.394366584137340E-2   -1.682374142321610E-1    4.911525882408366E-1
 1.001022172220000E+10  -3.505467984858305E-1    3.791145258133820E-1   -2.215277838322971E-2   -1.344253740554021E-2   -2.072300265978027E-2   -1.398988700525797E-2   -1.674738691164483E-1    4.911467108164529E-1
 1.001023315812500E+10  -3.496843484574074E-1    3.798062203649998E-1   -2.236442788125163E-2   -1.335037678616164E-2   -2.090277778526031E-2   -1.397390896189517E-2   -1.667724576622684E-1    4.914802151067152E-1
 1.001024459405000E+10  -3.489351531219616E-1    3.803891528542270E-1   -2.250056310682984E-2   -1.344434193561077E-2   -2.091811468134369E-2   -1.408490471864060E-2   -1.659143433961881E-1    4.917957018201084E-1
 1.001025602997500E+10  -3.481497361227064E-1    3.811888914365798E-1   -2.264812343635484E-2   -1.340950907715311E-2   -2.116378091657458E-2   -1.389870573656373E-2   -1.652104959493904E-1    4.920388453759540E-1
 1.001026746590000E+10  -3.473230476644231E-1    3.818648704361406E-1   -2.275861221629179E-2   -1.342152504251948E-2   -2.117758607414071E-2   -1.401919654185043E-2   -1.645014394477230E-1    4.921191015908138E-1
 1.001027890182500E+10  -3.463936344285576E-1    3.826894453566720E-1   -2.280469457020610E-2   -1.354526823962359E-2   -2.139916769439641E-2   -1.407328480886424E-2   -1.638257612675953E-1    4.923908447710735E-1
 1.001029033775000E+10  -3.458358231774781E-1    3.834706277007929E-1   -2.294288822420128E-2   -1.356496923752791E-2   -2.155253013264202E-2   -1.390680229985739E-2   -1.630514037003133E-1    4.928580576190005E-1
 1.001030177367500E+10  -3.448165176905258E-1    3.840228073987288E-1   -2.312721541159161E-2   -1.359937010572735E-2   -2.157934067281280E-2   -1.404144471058976E-2   -1.624145220901847E-1    4.930906922966282E-1
 1.001031320960000E+10  -3.440556501143625E-1    3.846591196203020E-1   -2.323017044678248E-2   -1.361627352691592E-2   -2.177766505698561E-2   -1.415799387195575E-2   -1.615282959050997E-1    4.932301022394461E-1
 1.001032464552500E+10  -3.432603756041144E-1    3.854365723504697E-1   -2.334798809952643E-2   -1.359927882999068E-2   -2.181202858155890E-2   -1.421244399276268E-2   -1.609106042518950E-1    4.936127194022550E-1
 1.001033608145000E+10  -3.425764976922038E-1    3.862473287295203E-1   -2.344734724956866E-2   -1.366440008772471E-2   -2.210059801490871E-2   -1.423857081442425E-2   -1.601574154367710E-1    4.937847577769930E-1
 1.001034751737500E+10  -3.417143176336612E-1    3.870128334362463E-1   -2.368132019059560E-2   -1.364232165105063E-2   -2.220729747472013E-2   -1.422393202794575E-2   -1.594278913007523E-1    4.939630665187734E-1
 1.001035895330000E+10  -3.407990829165918E-1    3.877753967788411E-1   -2.384948241122759E-2   -1.365632132852978E-2   -2.227081693019018E-2   -1.424737880998271E-2   -1.586182574755479E-1    4.942607347058261E-1
 1.001037038922500E+10  -3.400752078164740E-1    3.884632981094844E-1   -2.395299371721413E-2   -1.360727388855724E-2   -2.243570795180781E-2   -1.418127644935059E-2   -1.578358530086067E-1    4.943102720068204E-1
 1.001038182515000E+10  -3.390977842338293E-1    3.890071854577747E-1   -2.408392560644020E-2   -1.362087075013980E-2   -2.270180543823002E-2   -1.424673095273467E-2   -1.571781580000245E-1    4.946730565108699E-1
 1.001039326107500E+10  -3.384309358149886E-1    3.898163119913849E-1   -2.432687141780754E-2   -1.369318249041887E-2   -2.261512039507926E-2   -1.416998946153073E-2   -1.564987339657057E-1    4.950311513934275E-1
 1.001040469700000E+10  -3.375467955368712E-1    3.905178613028008E-1   -2.442251534735446E-2   -1.352202398606056E-2   -2.271736865615779E-2   -1.419967617357937E-2   -1.558423146927452E-1    4.951572213784813E-1
 1.001041613292500E+10  -3.365276891299042E-1    3.913217001269229E-1   -2.461526845808693E-2   -1.361560963862310E-2   -2.314217856304337E-2   -1.435392621433112E-2   -1.549844494977719E-1    4.954533630306037E-1
 1.001042756885000E+10  -3.357166996548592E-1    3.919263382780523E-1   -2.466924427318152E-2   -1.388097554321532E-2   -2.306274118860024E-2   -1.440793354673875E-2   -1.544458713800157E-1    4.957053167537232E-1
 1.001043900477500E+10  -3.349450723602891E-1    3.927147516206603E-1   -2.486050301782534E-2   -1.364053383545397E-2   -2.321742033115296E-2   -1.436383899630940E-2   -1.536024158529759E-1    4.958881956844707E-1
 1.001045044070000E+10  -3.340403733737447E-1    3.933683438346597E-1   -2.496078728293695E-2   -1.377117494264789E-2   -2.350649127468098E-2   -1.442121874544582E-2   -1.528303474968624E-1    4.962144030506238E-1
 1.001046187662500E+10  -3.331180500407039E-1    3.941993290237473E-1   -2.511634204880418E-2   -1.387449399559246E-2   -2.362912044211368E-2   -1.440361631079090E-2   -1.519794409517745E-1    4.964344390055908E-1
 1.001047331255000E+10  -3.321980050672070E-1    3.949019858271152E-1   -2.536716191712223E-2   -1.381053242357213E-2   -2.386014146416673E-2   -1.445312451962432E-2   -1.512297040844655E-1    4.966904258358380E-1
 1.001048474847500E+10  -3.314985394793647E-1    3.956475909996542E-1   -2.555820617019362E-2   -1.379613839464052E-2   -2.388421862953627E-2   -1.438306739469657E-2   -1.504178526944075E-1    4.967972031924274E-1
 1.001049618440000E+10  -3.304280843042429E-1    3.963581612981017E-1   -2.574256047005153E-2   -1.379569434742855E-2   -2.401302385328891E-2   -1.443443409611312E-2   -1.498162497728725E-1    4.969551543580659E-1
 1.001050762032500E+10  -3.295632545525606E-1    3.969810554048383E-1   -2.580921544641352E-2   -1.371123902978928E-2   -2.415336007902540E-2   -1.445450064609140E-2   -1.490577518460272E-1    4.973356056127068E-1
 1.001051905625000E+10  -3.287069054972008E-1    3.977980939903432E-1   -2.624612476454552E-2   -1.389937196016322E-2   -2.435639758238163E-2   -1.440277824109250E-2   -1.483433426570668E-1    4.975920934613125E-1
 1.001053049217500E+10  -3.276819159512724E-1    3.985881571792668E-1   -2.630567904057483E-2   -1.368983103938161E-2   -2.450249972143579E-2   -1.447415381699963E-2   -1.475617315057027E-1    4.976083824264258E-1
 1.001054192810000E+10  -3.269202727922203E-1    3.992171555228373E-1   -2.640757277299889E-2   -1.380416132075880E-2   -2.480103646184164E-2   -1.457567914055098E-2   -1.466491652577899E-1    4.980437721814615E-1
 1.001055336402500E+10  -3.259163179690300E-1    3.999445136273481E-1   -2.657405645844740E-2   -1.383086941309707E-2   -2.484062740767742E-2   -1.462875501048785E-2   -1.459188004808779E-1    4.982482576626196E-1
 1.001056479995000E+10  -3.250286565479571E-1    4.007427482896913E-1   -2.688076215983383E-2   -1.384094832843396E-2   -2.500918015623813E-2   -1.464713246500631E-2   -1.452758704520930E-1    4.983807881533191E-1
 1.001057623587500E+10  -3.240088707818705E-1    4.015278189991464E-1   -2.699751042805571E-2   -1.370497405360892E-2   -2.526522934716311E-2   -1.469152220166386E-2   -1.444882852347441E-1    4.986320419256775E-1
 1.001058767180000E+10  -3.230725886892268E-1    4.022326437439564E-1   -2.712143386753171E-2   -1.392936085743226E-2   -2.549625226946552E-2   -1.467041293531442E-2   -1.438072735973281E-1    4.987435313939320E-1
 1.001059910772500E+10  -3.221493647947780E-1    4.027786388426119E-1   -2.748628118620842E-2   -1.394223861373053E-2   -2.558571561328241E-2   -1.463707745803195E-2   -1.430932001835960E-1    4.991347297059903E-1
 1.001061054365000E+10  -3.212801753434250E-1    4.036567367594408E-1   -2.747229115098836E-2   -1.398528906896258E-2   -2.584957373585148E-2   -1.468074660584784E-2   -1.422480873816929E-1    4.992745558243838E-1
 1.001062197957500E+10  -3.202563088024480E-1    4.043055659251054E-1   -2.768173685193514E-2   -1.390912897942619E-2   -2.599236642985137E-2   -1.458863418974246E-2   -1.413812224127347E-1    4.996090142458765E-1
 1.001063341550000E+10  -3.192470931288823E-1    4.050568830285876E-1   -2.788860973620841E-2   -1.398658829339715E-2   -2.615933355952253E-2   -1.473949798323204E-2   -1.407654567640479E-1    4.997833763919165E-1
 1.001064485142500E+10  -3.184117651021146E-1    4.058043335090002E-1   -2.819070568184894E-2   -1.402271887256982E-2   -2.642644419033719E-2   -1.477630915323830E-2   -1.400076414227583E-1    4.999094062465691E-1
 1.001065628735000E+10  -3.173350377921720E-1    4.066319347493584E-1   -2.827382251185792E-2   -1.403660838830332E-2   -2.649244839685890E-2   -1.478663762058385E-2   -1.391206374030010E-1    5.001692529324993E-1
 1.001066772327500E+10  -3.163103464117082E-1    4.072660397067784E-1   -2.850226674043346E-2   -1.407071833210620E-2   -2.671587086864798E-2   -1.480889305965885E-2   -1.383278298131650E-1    5.003752809685355E-1
 1.001067915920000E+10  -3.153525972152403E-1    4.079675134952884E-1   -2.869567833400710E-2   -1.402613813535317E-2   -2.690872970378048E-2   -1.484088471017253E-2   -1.375981914496531E-1    5.007588597857354E-1
 1.001069059512500E+10  -3.142817157106815E-1    4.086998356076671E-1   -2.886446415211795E-2   -1.396281118683795E-2   -2.710502233332150E-2   -1.493424158515807E-2   -1.369345611412311E-1    5.007867658554432E-1
 1.001070203105000E+10  -3.133162435685824E-1    4.094949938762031E-1   -2.923403210836901E-2   -1.395611453325192E-2   -2.735724415236081E-2   -1.497915632188869E-2   -1.361638502469916E-1    5.010909428152249E-1
 1.001071346697500E+10  -3.122173154007951E-1    4.102847232639120E-1   -2.941027621628902E-2   -1.400485384975598E-2   -2.763149109708678E-2   -1.475511546704405E-2   -1.353495166967393E-1    5.013046411311635E-1
 1.001072490290000E+10  -3.111654101338857E-1    4.109835712376326E-1   -2.959064161619548E-2   -1.402154495521283E-2   -2.793017173484792E-2   -1.487842023437181E-2   -1.345374742086031E-1    5.014092111837336E-1
 1.001073633882500E+10  -3.102021114731364E-1    4.117809307436716E-1   -2.986028243522213E-2   -1.405420803005894E-2   -2.800931812112150E-2   -1.485910422418123E-2   -1.338038606191638E-1    5.016743177483119E-1
 1.001074777475000E+10  -3.092057835663657E-1    4.125254972094760E-1   -3.018298130142296E-2   -1.403140197516525E-2   -2.824588177258590E-2   -1.490137007355940E-2   -1.329296420952435E-1    5.019587798729652E-1
 1.001075921067500E+10  -3.080061739468485E-1    4.133183443714152E-1   -3.018822206839216E-2   -1.405831056243497E-2   -2.855029444401609E-2   -1.494255398978199E-2   -1.322784531857211E-1    5.020885622219122E-1
 1.001077064660000E+10  -3.070326895493967E-1    4.139723546785957E-1   -3.041422154010368E-2   -1.408004224019477E-2   -2.856591136343107E-2   -1.507993917239554E-2   -1.314470031799638E-1    5.022323298047905E-1
 1.001078208252500E+10  -3.057698975439072E-1    4.147900946851188E-1   -3.065571729055856E-2   -1.434331267372111E-2   -2.893468107299724E-2   -1.504578658988327E-2   -1.308515826391002E-1    5.025432511706176E-1
 1.001079351845000E+10  -3.047263961947374E-1    4.154240211520427E-1   -3.093026831933145E-2   -1.434816648785627E-2   -2.922098201357771E-2   -1.515702787628044E-2   -1.300251650218024E-1    5.026829868434585E-1
 1.001080495437500E+10  -3.036080708278964E-1    4.161933737292370E-1   -3.115926431357764E-2   -1.426557286839245E-2   -2.935042515144587E-2   -1.509942209761603E-2   -1.291535411687208E-1    5.028721912945778E-1
 1.001081639030000E+10  -3.024853862112755E-1    4.168889273528010E-1   -3.147742769759929E-2   -1.432367732291304E-2   -2.960988790925172E-2   -1.507783154268432E-2   -1.284212816008471E-1    5.032949877087299E-1
 1.001082782622500E+10  -3.013491481712758E-1    4.177755666031745E-1   -3.169517562541316E-2   -1.418941797081961E-2   -2.992390261293776E-2   -1.516561339717249E-2   -1.276543107659664E-1    5.032296300336022E-1
 1.001083926215000E+10  -3.001187925457699E-1    4.183778051729338E-1   -3.187671513061083E-2   -1.393535968702595E-2   -3.016485315973001E-2   -1.505684659989811E-2   -1.268640583252314E-1    5.033706535371972E-1
 1.001085069807500E+10  -2.991889583419137E-1    4.193133157870791E-1   -3.227975597000218E-2   -1.408353424473069E-2   -3.033234775241924E-2   -1.517398893616923E-2   -1.259604675945203E-1    5.036073397855920E-1
 1.001086213400000E+10  -2.979391266470401E-1    4.200176466949230E-1   -3.259270442369847E-2   -1.411011090004636E-2   -3.061425351707490E-2   -1.511337835158786E-2   -1.252454807722991E-1    5.037488628213771E-1
 1.001087356992500E+10  -2.967441546106780E-1    4.206330720718779E-1   -3.271588475019000E-2   -1.416782393190478E-2   -3.085879339108064E-2   -1.525256020817820E-2   -1.244505577648945E-1    5.040135633849481E-1
 1.001088500585000E+10  -2.955293512899172E-1    4.215557742066937E-1   -3.311859952629731E-2   -1.408159682652460E-2   -3.103236106124868E-2   -1.527075151683434E-2   -1.235931673220960E-1    5.041118389976985E-1
 1.001089644177500E+10  -2.943897635289143E-1    4.221568176103864E-1   -3.342893757046334E-2   -1.422839592735496E-2   -3.137215327631648E-2   -1.540442950633413E-2   -1.227061032934394E-1    5.043885545245343E-1
 1.001090787770000E+10  -2.931796520126640E-1    4.231094250586962E-1   -3.358230263451806E-2   -1.422950834798538E-2   -3.161462576562296E-2   -1.540760783858634E-2   -1.219371924574543E-1    5.045632229553663E-1
 1.001091931362500E+10  -2.919803167687712E-1    4.236849817674644E-1   -3.389446205089488E-2   -1.423059263980818E-2   -3.199272801147803E-2   -1.528451506021690E-2   -1.211405285422354E-1    5.046775605466773E-1
 1.001093074955000E+10  -2.908637569470358E-1    4.244021191042623E-1   -3.416277941584608E-2   -1.427983014148158E-2   -3.221788242287978E-2   -1.531571108209889E-2   -1.203658847473602E-1    5.049080097494362E-1
 1.001094218547500E+10  -2.895426855121220E-1    4.251699739465808E-1   -3.443063937335369E-2   -1.439068119480032E-2   -3.242510239978116E-2   -1.527741310952071E-2   -1.194391396625012E-1    5.050126029593589E-1
 1.001095362140000E+10  -2.882860886731430E-1    4.260634504571524E-1   -3.478549277654608E-2   -1.435232295046593E-2   -3.256509687214212E-2   -1.530115063747737E-2   -1.188841000778510E-1    5.052822958217429E-1
 1.001096505732500E+10  -2.868613601052686E-1    4.268443814110078E-1   -3.507218401939111E-2   -1.432865451312282E-2   -3.292839248492815E-2   -1.529725933073511E-2   -1.179919848632848E-1    5.052937566753378E-1
 1.001097649325000E+10  -2.855278121137180E-1    4.275953168741282E-1   -3.536419770742708E-2   -1.430061369198399E-2   -3.334461849912517E-2   -1.540919085131536E-2   -1.173218642508401E-1    5.056622263698110E-1
