#  HZ   S   RI   R     50.00 
! Rohde & Schwarz Vector Network Analyzer 
! Rohde-Schwarz,ZNB20-2Port,1311601062101988,3.16
! Created: UTC 12/23/2023, 3:52:45 AM
! freq[Hz]                re:S11                  im:S11                  re:S21                  im:S21                  re:S12                  im:S12                  re:S22                  im:S22
 6.516885672000000E9    -2.309690780449086E-1   -1.922548819844779E-2    1.301763517221710E-2   -4.915362361317856E-3    1.299531465549648E-2   -4.522583651006031E-3    1.951764538816447E-1    5.120252553096946E-1
 6.516897903025000E9    -2.308789918518684E-1   -1.908624409889654E-2    1.296315714518147E-2   -5.090525148449308E-3    1.298915507310770E-2   -4.638236807147633E-3    1.961109743501985E-1    5.118111877140848E-1
 6.516910134050000E9    -2.307643599613178E-1   -1.878049144559828E-2    1.304657678893489E-2   -5.059699317441699E-3    1.314117028910177E-2   -4.571777275422676E-3    1.970485504999923E-1    5.115403653083817E-1
 6.516922365075000E9    -2.307296789398822E-1   -1.868824674305903E-2    1.306884765391905E-2   -5.117719401576002E-3    1.318251063123445E-2   -4.669449991203489E-3    1.979257709470346E-1    5.113011903072494E-1
 6.516934596100000E9    -2.305680213656962E-1   -1.848462885907110E-2    1.306291847943239E-2   -5.224420275150045E-3    1.326148771595323E-2   -4.649148677285386E-3    1.988054069548743E-1    5.108611200853361E-1
 6.516946827125000E9    -2.304098061823794E-1   -1.827958809768889E-2    1.306967937115428E-2   -5.331546084578448E-3    1.328628862003090E-2   -4.752072334547601E-3    1.997915543383235E-1    5.105195581351151E-1
 6.516959058150000E9    -2.303176415234110E-1   -1.808550650849524E-2    1.321968492365550E-2   -5.247981655184336E-3    1.319951914660424E-2   -4.818674280549833E-3    2.006154258536229E-1    5.100649381387481E-1
 6.516971289175000E9    -2.302581550607520E-1   -1.781876232213508E-2    1.322942356683647E-2   -5.424624263466521E-3    1.338813122486216E-2   -4.830036853806375E-3    2.015089586222628E-1    5.098353628491457E-1
 6.516983520200000E9    -2.300472225322431E-1   -1.762952855851991E-2    1.322307078156772E-2   -5.387769201627694E-3    1.343388933126110E-2   -4.992403966135530E-3    2.023955931363441E-1    5.095270084678721E-1
 6.516995751225000E9    -2.298680468882429E-1   -1.740276798757982E-2    1.334267521575688E-2   -5.449626356861166E-3    1.347366148186851E-2   -5.075748055495404E-3    2.033981009437308E-1    5.090866149759617E-1
 6.517007982250000E9    -2.299254142758620E-1   -1.723027877492957E-2    1.345253592157588E-2   -5.490491159768925E-3    1.359465704739764E-2   -5.010529220466228E-3    2.041202438044701E-1    5.087510961672990E-1
 6.517020213275000E9    -2.297698817222504E-1   -1.715906417769345E-2    1.355267328679487E-2   -5.595243361996786E-3    1.354994449358191E-2   -5.248955443753206E-3    2.050062533503508E-1    5.083789755480994E-1
 6.517032444300000E9    -2.296073209557364E-1   -1.692034230942565E-2    1.354617762618424E-2   -5.741910244653209E-3    1.365589182502777E-2   -5.138551415701136E-3    2.059555696270589E-1    5.081766915138534E-1
 6.517044675325000E9    -2.294537324754081E-1   -1.670081265200835E-2    1.364831933101606E-2   -5.714954474068669E-3    1.372058463547045E-2   -5.118068422240414E-3    2.068907998349158E-1    5.076804091021609E-1
 6.517056906350000E9    -2.294015959860049E-1   -1.654628761891372E-2    1.364842503320364E-2   -5.690515708576566E-3    1.382755121049406E-2   -5.279866661724366E-3    2.078901831327061E-1    5.072658584529260E-1
 6.517069137375000E9    -2.293060014730394E-1   -1.627733313706889E-2    1.360637812528238E-2   -5.866069312927903E-3    1.384672663195781E-2   -5.304154797744343E-3    2.087458378999337E-1    5.068906155920094E-1
 6.517081368400000E9    -2.290818049778197E-1   -1.612085800863517E-2    1.375481524017716E-2   -5.874988232590308E-3    1.382172806199964E-2   -5.453958850728635E-3    2.096775443474556E-1    5.065258255130138E-1
 6.517093599425000E9    -2.289281852313103E-1   -1.592447777164571E-2    1.380780560030524E-2   -5.852244511292026E-3    1.400884409293454E-2   -5.404370717531840E-3    2.105920454902181E-1    5.062813604136476E-1
 6.517105830450000E9    -2.288197436765962E-1   -1.574725778909243E-2    1.385839977665760E-2   -5.992677908736261E-3    1.400069428600650E-2   -5.458618003844110E-3    2.114987879145789E-1    5.059082802622945E-1
 6.517118061475000E9    -2.287696984913967E-1   -1.552802682707494E-2    1.392920484257337E-2   -6.047513677475939E-3    1.402630760875818E-2   -5.489225600126934E-3    2.124187875394808E-1    5.055582225447143E-1
 6.517130292500000E9    -2.285971094472726E-1   -1.537819181803227E-2    1.413435318509923E-2   -6.106605391280262E-3    1.415185448213625E-2   -5.541013272872095E-3    2.131967214062721E-1    5.049706818192258E-1
 6.517142523525000E9    -2.284569964428184E-1   -1.523353826817908E-2    1.404188749536044E-2   -6.088062589643302E-3    1.420987995469400E-2   -5.713006452468139E-3    2.140959856540892E-1    5.048025450402380E-1
 6.517154754550000E9    -2.283228571998102E-1   -1.503654553360576E-2    1.404720293695512E-2   -6.192847178590602E-3    1.424165186804695E-2   -5.683140507568756E-3    2.149275442667304E-1    5.044312245508931E-1
 6.517166985575000E9    -2.281682795096998E-1   -1.484916585994221E-2    1.424998932099428E-2   -6.278393229217605E-3    1.428369787523174E-2   -5.794299421657022E-3    2.160159104054268E-1    5.039833365932168E-1
 6.517179216600000E9    -2.280350999862614E-1   -1.459501468125434E-2    1.423403772310511E-2   -6.431863954415962E-3    1.437436075786041E-2   -5.808053801065087E-3    2.169493411623337E-1    5.035644523927459E-1
 6.517191447625000E9    -2.279827563978069E-1   -1.451017629811555E-2    1.423813686096045E-2   -6.452844085256041E-3    1.446576370587651E-2   -5.824891685685805E-3    2.178273201569725E-1    5.031075409616376E-1
 6.517203678650000E9    -2.278062285903065E-1   -1.447183147697917E-2    1.438153359605192E-2   -6.495738911421551E-3    1.453464223391911E-2   -6.031279011636389E-3    2.187802034498563E-1    5.028265350314669E-1
 6.517215909675000E9    -2.277239360791750E-1   -1.415582950052559E-2    1.443013361175481E-2   -6.431654821965005E-3    1.462652468539776E-2   -6.066047276409184E-3    2.195403872214301E-1    5.024175663675337E-1
 6.517228140700000E9    -2.274527186445863E-1   -1.396229305361692E-2    1.439896454178873E-2   -6.618961399059482E-3    1.463860679982817E-2   -6.126295233985360E-3    2.205301519529427E-1    5.020685791154399E-1
 6.517240371725000E9    -2.273834537603689E-1   -1.382515995904922E-2    1.462041888558505E-2   -6.628038749931058E-3    1.473651655345774E-2   -6.209716445294998E-3    2.213801982787889E-1    5.016552712856741E-1
 6.517252602750000E9    -2.273229880633242E-1   -1.359539533623131E-2    1.472090589390412E-2   -6.600171327564854E-3    1.485509981155939E-2   -6.215819167187494E-3    2.223362916015760E-1    5.012658968658886E-1
 6.517264833775000E9    -2.270578139212055E-1   -1.354800116496770E-2    1.467239951791313E-2   -6.734223820935369E-3    1.487602573671594E-2   -6.320335070031184E-3    2.232506360151414E-1    5.009294631023367E-1
 6.517277064800000E9    -2.270036305831785E-1   -1.326276240798959E-2    1.485950611216877E-2   -6.941994997739747E-3    1.492988650507297E-2   -6.324336024364319E-3    2.241191666997552E-1    5.006135495195354E-1
 6.517289295825000E9    -2.269051649446289E-1   -1.318690682475974E-2    1.484856006902439E-2   -6.922750321731094E-3    1.508097155375591E-2   -6.415992278231698E-3    2.249756573468308E-1    5.001101223897948E-1
 6.517301526850000E9    -2.266476505518446E-1   -1.295863937283410E-2    1.495527206506945E-2   -7.054693293359757E-3    1.510872262988563E-2   -6.507964951786148E-3    2.258672642532153E-1    4.997398667391600E-1
 6.517313757875000E9    -2.265181139787562E-1   -1.279651030356099E-2    1.498386155505204E-2   -7.084771540576936E-3    1.522876519012285E-2   -6.599625955761097E-3    2.268383777825972E-1    4.993346389014164E-1
 6.517325988900000E9    -2.263380236589491E-1   -1.261182780154857E-2    1.521156637837031E-2   -7.200088529674608E-3    1.517832083510895E-2   -6.540016942582498E-3    2.277584833779726E-1    4.988882665818696E-1
 6.517338219925000E9    -2.262754502050368E-1   -1.249444270158016E-2    1.514539848827833E-2   -7.116547123478707E-3    1.533149700406152E-2   -6.768794743068837E-3    2.286360952626659E-1    4.985294971573518E-1
 6.517350450950000E9    -2.260917788021198E-1   -1.231656551689657E-2    1.522590334804175E-2   -7.299059666673297E-3    1.543519998501084E-2   -6.828924034156674E-3    2.294348076215835E-1    4.980430654457459E-1
 6.517362681975000E9    -2.259211733216358E-1   -1.221085590901816E-2    1.536280132988244E-2   -7.487167615666961E-3    1.545806752035376E-2   -6.818858172932028E-3    2.304507307098196E-1    4.976551131220844E-1
 6.517374913000000E9    -2.257311211899219E-1   -1.189140751540623E-2    1.543485414356871E-2   -7.433909863338676E-3    1.558312529004354E-2   -6.952260060069375E-3    2.313336730283664E-1    4.972971068785163E-1
 6.517387144025000E9    -2.255865322388743E-1   -1.173519747857757E-2    1.556611387132090E-2   -7.467990304673145E-3    1.564526703473297E-2   -7.104545960138927E-3    2.321496180201033E-1    4.969555841341309E-1
 6.517399375050000E9    -2.255268863369145E-1   -1.157059911097636E-2    1.547811676882039E-2   -7.577416054630199E-3    1.571620220355189E-2   -7.139526067409294E-3    2.331076317316262E-1    4.965895239122413E-1
 6.517411606075000E9    -2.252976542139076E-1   -1.157507768054718E-2    1.547072641827970E-2   -7.805235171445330E-3    1.572950025435494E-2   -7.066695744980267E-3    2.341283891908564E-1    4.960864340183645E-1
 6.517423837100000E9    -2.251199592925179E-1   -1.124724655689056E-2    1.561150522748185E-2   -7.776850197322905E-3    1.592197626173214E-2   -7.331264356433827E-3    2.348968655306660E-1    4.956792489972434E-1
 6.517436068125000E9    -2.250540172712599E-1   -1.118611615324586E-2    1.569055225276739E-2   -7.858829126872607E-3    1.595252469090816E-2   -7.351454519198132E-3    2.359451274401830E-1    4.952801599860504E-1
 6.517448299150000E9    -2.249180722377258E-1   -1.102155649765778E-2    1.568502336451212E-2   -8.063672886860178E-3    1.604553687989173E-2   -7.497936032224697E-3    2.368895553845240E-1    4.947584680180144E-1
 6.517460530175000E9    -2.246726170682291E-1   -1.092244860690841E-2    1.595379087899723E-2   -8.140620382990569E-3    1.613638657077795E-2   -7.597371650986865E-3    2.376525094675643E-1    4.943934366948794E-1
 6.517472761200000E9    -2.246290920346692E-1   -1.069959460544398E-2    1.600337853825075E-2   -8.002603955447756E-3    1.613134550534774E-2   -7.559852794229765E-3    2.387110857854778E-1    4.937662624643394E-1
 6.517484992225000E9    -2.243567892972363E-1   -1.047882805745130E-2    1.601763400125159E-2   -8.243027340472185E-3    1.637358164556438E-2   -7.730242068384846E-3    2.395731884220348E-1    4.934453430311206E-1
 6.517497223250000E9    -2.240350775302422E-1   -1.031264858612388E-2    1.617557380815274E-2   -8.323093162829439E-3    1.637108924456277E-2   -7.812380583094982E-3    2.404497655689513E-1    4.931091178282982E-1
 6.517509454275000E9    -2.239980808708525E-1   -1.026514616249248E-2    1.635756479469718E-2   -8.398781225219832E-3    1.648021792723436E-2   -7.815762354823553E-3    2.413358161936265E-1    4.925944298434563E-1
 6.517521685300000E9    -2.237655665423569E-1   -1.009177621017983E-2    1.640471114751083E-2   -8.511127729630098E-3    1.662103380634905E-2   -7.961638255597696E-3    2.422244656274755E-1    4.920639342157511E-1
 6.517533916325000E9    -2.236855975210824E-1   -9.906898062539197E-3    1.643419800421756E-2   -8.518185895156483E-3    1.674754640213333E-2   -8.030225641440359E-3    2.430880928172458E-1    4.918571409654525E-1
 6.517546147350000E9    -2.235102122356362E-1   -9.844757440918596E-3    1.650536776510229E-2   -8.637436723073108E-3    1.666153544797023E-2   -8.170254583188387E-3    2.440016583938873E-1    4.912452747429367E-1
 6.517558378375000E9    -2.233372916439761E-1   -9.578702352726036E-3    1.663713004229224E-2   -8.808076054014381E-3    1.683744045453645E-2   -8.251911651393301E-3    2.448956004330190E-1    4.907198996430355E-1
 6.517570609400000E9    -2.232702309290364E-1   -9.409826837928624E-3    1.663855971069917E-2   -8.856445964895765E-3    1.683052928125959E-2   -8.373715477611619E-3    2.458461289286549E-1    4.902798827257039E-1
 6.517582840425000E9    -2.229305772912401E-1   -9.359823145250747E-3    1.678666178446910E-2   -8.992967916585238E-3    1.705711907310420E-2   -8.399390675152258E-3    2.468596343784795E-1    4.899502074775875E-1
 6.517595071450000E9    -2.228915606036423E-1   -9.240984419369372E-3    1.684294703138018E-2   -9.027268388232952E-3    1.720025472372422E-2   -8.517469056235450E-3    2.476825905895901E-1    4.894206271438464E-1
 6.517607302475000E9    -2.225476861701892E-1   -9.114996803224805E-3    1.689389586647187E-2   -9.333735204658385E-3    1.726097401930657E-2   -8.596564098016384E-3    2.485316110763005E-1    4.890645419411377E-1
 6.517619533500000E9    -2.223996841948812E-1   -8.971747294575656E-3    1.701896798737041E-2   -9.427567074447109E-3    1.738088782572744E-2   -8.779121415301048E-3    2.494842899928376E-1    4.883792720698953E-1
 6.517631764525000E9    -2.222509571451546E-1   -8.779641920725433E-3    1.724871409125768E-2   -9.353965242421856E-3    1.746930583422693E-2   -8.783357023686756E-3    2.503469399389302E-1    4.880773784789155E-1
 6.517643995550000E9    -2.221791951524500E-1   -8.641076679391941E-3    1.720093922849643E-2   -9.506413592801591E-3    1.743258992122800E-2   -8.917320475722959E-3    2.512815223937957E-1    4.874900470150094E-1
 6.517656226575000E9    -2.218254733796825E-1   -8.622332561718307E-3    1.730458385338217E-2   -9.656209527447392E-3    1.757251740262532E-2   -9.018776591766864E-3    2.521504202357131E-1    4.870832490212857E-1
 6.517668457600000E9    -2.217462042963185E-1   -8.561058751442120E-3    1.743301397163744E-2   -9.799231614248506E-3    1.770236884667286E-2   -9.154126623726836E-3    2.531382365057625E-1    4.865270429089140E-1
 6.517680688625000E9    -2.215641067991020E-1   -8.335498289562414E-3    1.745029469817612E-2   -9.938763335856995E-3    1.793900895851792E-2   -9.187765289635464E-3    2.539651787398411E-1    4.860159075619384E-1
 6.517692919650000E9    -2.214340769067903E-1   -8.275721691510645E-3    1.755167692868427E-2   -9.803103100241555E-3    1.786042760897924E-2   -9.442233412728450E-3    2.549423238568815E-1    4.857509342984214E-1
 6.517705150675000E9    -2.212557590643760E-1   -7.995700641638247E-3    1.771600268108947E-2   -1.012835992613493E-2    1.796195531243904E-2   -9.492616651681779E-3    2.559463888522699E-1    4.851732518051259E-1
 6.517717381700000E9    -2.208779615257030E-1   -7.902102625109568E-3    1.779874766996242E-2   -1.022192116747001E-2    1.817417176466436E-2   -9.635628570368204E-3    2.567015996537440E-1    4.845984247266399E-1
 6.517729612725000E9    -2.206586881749356E-1   -7.852628452504789E-3    1.799857330414343E-2   -1.023916001348018E-2    1.818620805046595E-2   -9.755065118882638E-3    2.577283725658700E-1    4.840711541366651E-1
 6.517741843750000E9    -2.204839534507124E-1   -7.751663398069626E-3    1.792859786135450E-2   -1.046677103934799E-2    1.828751820604203E-2   -9.876519826141321E-3    2.584752375465320E-1    4.837445622335441E-1
 6.517754074775000E9    -2.203521788311896E-1   -7.632717622640482E-3    1.808528755245372E-2   -1.051223939773221E-2    1.839977913625686E-2   -9.894217015631986E-3    2.595403909053791E-1    4.831387641894123E-1
 6.517766305800000E9    -2.201563239173147E-1   -7.471658434723822E-3    1.836530644252599E-2   -1.065454589556323E-2    1.858764637771667E-2   -1.012636630007492E-2    2.603085810367861E-1    4.827069633501727E-1
 6.517778536825000E9    -2.198769668054013E-1   -7.467786130929238E-3    1.840491561840715E-2   -1.075018927682761E-2    1.868634017096379E-2   -1.023120729767578E-2    2.613281165189363E-1    4.822337331231463E-1
 6.517790767850000E9    -2.198152588588417E-1   -7.280851913874284E-3    1.852576527455538E-2   -1.104822183219085E-2    1.882482227635629E-2   -1.033072795134975E-2    2.622034361880544E-1    4.817744276111781E-1
 6.517802998875000E9    -2.195893182413728E-1   -7.261466892380415E-3    1.863054767258819E-2   -1.097505221254815E-2    1.890453379937348E-2   -1.038002410327024E-2    2.632143220416076E-1    4.812356276686599E-1
 6.517815229900000E9    -2.193287509955033E-1   -7.111123200464992E-3    1.872251716403180E-2   -1.120744922715262E-2    1.897760425868172E-2   -1.052643660911126E-2    2.640695620999229E-1    4.806940429852649E-1
 6.517827460925000E9    -2.190799081629235E-1   -7.009569555682910E-3    1.881522188864869E-2   -1.136568213574504E-2    1.914981129530827E-2   -1.069388018564048E-2    2.649266585033413E-1    4.800946635312446E-1
 6.517839691950000E9    -2.189188594845577E-1   -6.915287999158632E-3    1.891926865058917E-2   -1.158635374656050E-2    1.926685794788919E-2   -1.085173327631437E-2    2.658730792974608E-1    4.795207944277854E-1
 6.517851922975000E9    -2.186768693208164E-1   -6.775763524434790E-3    1.905777315849393E-2   -1.165450988873049E-2    1.933470953570132E-2   -1.092315441957202E-2    2.666861423229549E-1    4.790543295702677E-1
 6.517864154000000E9    -2.184331840425619E-1   -6.659312517722426E-3    1.914665974869984E-2   -1.176634574458746E-2    1.941090582298703E-2   -1.111650632576560E-2    2.676679271693070E-1    4.786038240673472E-1
 6.517876385025000E9    -2.182914759096092E-1   -6.528700120659586E-3    1.938395772617853E-2   -1.196062008659515E-2    1.963090200587338E-2   -1.137204881130595E-2    2.685099069173638E-1    4.778819971414076E-1
 6.517888616050000E9    -2.180214488508636E-1   -6.598332936623207E-3    1.930612408893457E-2   -1.204314618924005E-2    1.974379822902221E-2   -1.146048479071897E-2    2.695478282195911E-1    4.773926611216270E-1
 6.517900847075000E9    -2.177557673540514E-1   -6.471386037436916E-3    1.952163176540857E-2   -1.215993013892618E-2    1.984805858456158E-2   -1.165592749890125E-2    2.703298921531712E-1    4.769065926980828E-1
 6.517913078100000E9    -2.175429909813017E-1   -6.364676716510971E-3    1.965383335355083E-2   -1.247252309069620E-2    1.999292149057329E-2   -1.186540224498081E-2    2.713517417368341E-1    4.765627667036959E-1
 6.517925309125000E9    -2.173346537270089E-1   -6.257124675809322E-3    1.973836566519305E-2   -1.246885801175465E-2    2.011744968032740E-2   -1.187149296772459E-2    2.722203633174851E-1    4.759751116667493E-1
 6.517937540150000E9    -2.171412233326598E-1   -6.210174454153290E-3    1.981137123615320E-2   -1.271585221967333E-2    2.024479757912729E-2   -1.202491338405271E-2    2.731074344826349E-1    4.753782069276120E-1
 6.517949771175000E9    -2.168522910198446E-1   -6.198608686224958E-3    1.993407830766384E-2   -1.293283450247204E-2    2.049751938318298E-2   -1.212958548109272E-2    2.741993964743999E-1    4.746301709484306E-1
 6.517962002200000E9    -2.166376732228636E-1   -6.033996095098772E-3    2.012206919316206E-2   -1.315432769421437E-2    2.054544708361264E-2   -1.241137477884918E-2    2.748586329033053E-1    4.741978204613871E-1
 6.517974233225000E9    -2.164624771068282E-1   -5.958014710565420E-3    2.028821449329913E-2   -1.313261053087982E-2    2.071892195737636E-2   -1.259532096416332E-2    2.759158651944051E-1    4.735830159424242E-1
 6.517986464250000E9    -2.162972726138546E-1   -5.948858302262613E-3    2.039101390419740E-2   -1.336540308688338E-2    2.078235629076097E-2   -1.270887196935070E-2    2.765960160194822E-1    4.730013612471439E-1
