#  HZ   S   RI   R     50.00 
! Rohde & Schwarz Vector Network Analyzer 
! Rohde-Schwarz,ZNB20-2Port,1311601062101988,3.16
! Created: UTC 12/23/2023, 3:53:28 AM
! freq[Hz]                re:S11                  im:S11                  re:S21                  im:S21                  re:S12                  im:S12                  re:S22                  im:S22
 6.516905107000000E9    -2.309322325150097E-1   -1.891759591991037E-2    1.291386269340049E-2   -5.046544138092412E-3    1.306304239148518E-2   -4.564379864132591E-3    1.966150915255978E-1    5.114961288308957E-1
 6.516917283075000E9    -2.308493059465140E-1   -1.863190190395652E-2    1.299044591603260E-2   -5.172212639131344E-3    1.304845198730442E-2   -4.651254463728440E-3    1.974101004739590E-1    5.113976011116349E-1
 6.516929459150000E9    -2.306746530668158E-1   -1.853436546822303E-2    1.305426728771238E-2   -5.105016570662423E-3    1.306281298268960E-2   -4.750712520604116E-3    1.983738424785348E-1    5.109582991939219E-1
 6.516941635225000E9    -2.305543828897433E-1   -1.828267959320545E-2    1.308516590491804E-2   -5.215502553548151E-3    1.313875361379737E-2   -4.800960221370688E-3    1.991728821212029E-1    5.106402871200172E-1
 6.516953811300000E9    -2.305004226568869E-1   -1.816400561502347E-2    1.316558585008725E-2   -5.337249693051999E-3    1.329992470665407E-2   -4.844361109212918E-3    2.001325220241365E-1    5.105246364548679E-1
 6.516965987375000E9    -2.303661059988671E-1   -1.784157441941612E-2    1.321209401559246E-2   -5.325852861580133E-3    1.335434955759222E-2   -4.954772344130419E-3    2.009187015284020E-1    5.099394454931585E-1
 6.516978163450000E9    -2.301808969440894E-1   -1.768646228234870E-2    1.312723956405373E-2   -5.440439748661764E-3    1.335833883702749E-2   -4.942478147856262E-3    2.019175407361555E-1    5.096515446742910E-1
 6.516990339525000E9    -2.300898845553387E-1   -1.754338597360162E-2    1.340192476452717E-2   -5.450687143662264E-3    1.334317422219778E-2   -4.957120242275216E-3    2.028491555242956E-1    5.093734315514223E-1
 6.517002515600000E9    -2.299447720445209E-1   -1.735675722703864E-2    1.323527890889638E-2   -5.357918849424953E-3    1.352791987193887E-2   -4.945678091329053E-3    2.036936198521740E-1    5.090007507335389E-1
 6.517014691675000E9    -2.298718300531140E-1   -1.709187024607219E-2    1.343507128647144E-2   -5.618851177166642E-3    1.349482743081783E-2   -5.077957528003258E-3    2.047485916450167E-1    5.085476110868180E-1
 6.517026867750000E9    -2.297419264680111E-1   -1.699255791053862E-2    1.338920924727721E-2   -5.533903664322741E-3    1.362407888869085E-2   -5.128203698905130E-3    2.053867470953784E-1    5.082344446011224E-1
 6.517039043825000E9    -2.296213023480920E-1   -1.672020210945869E-2    1.348978312610046E-2   -5.588074943944962E-3    1.360207251750423E-2   -5.132789760518618E-3    2.064349970424232E-1    5.078216271019269E-1
 6.517051219900000E9    -2.295992031839237E-1   -1.661606136403708E-2    1.356594280339777E-2   -5.733316141084414E-3    1.368785331707112E-2   -5.213116179613541E-3    2.073261004018947E-1    5.075783895188241E-1
 6.517063395975000E9    -2.293398547096729E-1   -1.633257349907450E-2    1.365681194960023E-2   -5.717029842197824E-3    1.382507531567181E-2   -5.253455738693624E-3    2.082580891751868E-1    5.072392564724716E-1
 6.517075572050000E9    -2.292183873595018E-1   -1.614086838617395E-2    1.367033365416450E-2   -5.786290131662541E-3    1.383169548801330E-2   -5.238943850669938E-3    2.090496296028767E-1    5.067302944211699E-1
 6.517087748125000E9    -2.289735637876884E-1   -1.603059781320331E-2    1.381692648499538E-2   -5.845388254137840E-3    1.385160775996476E-2   -5.494488484837840E-3    2.100140917069074E-1    5.064472421776453E-1
 6.517099924200000E9    -2.288628000329328E-1   -1.580826071089012E-2    1.374253856020862E-2   -5.855655650618818E-3    1.404223955181966E-2   -5.501348562173315E-3    2.108718000419256E-1    5.061712786119400E-1
 6.517112100275000E9    -2.288146037791742E-1   -1.563804700358580E-2    1.400482263046596E-2   -6.025020573969881E-3    1.404716990322566E-2   -5.455396270660079E-3    2.117595960743121E-1    5.058044077945224E-1
 6.517124276350000E9    -2.287476000635053E-1   -1.547421616635901E-2    1.396680093243409E-2   -6.076942777834364E-3    1.395342440624419E-2   -5.523536574892728E-3    2.127232463065562E-1    5.054317303524742E-1
 6.517136452425000E9    -2.286993008639447E-1   -1.523159420693335E-2    1.399549769680695E-2   -6.095715775128523E-3    1.404099927516874E-2   -5.634786784059986E-3    2.135212020685506E-1    5.048923642111054E-1
 6.517148628500000E9    -2.285305628615112E-1   -1.506459271611942E-2    1.401459115875779E-2   -6.012665134086133E-3    1.434961903297901E-2   -5.784450687246135E-3    2.145225831927215E-1    5.046754527645682E-1
 6.517160804575000E9    -2.283877858461342E-1   -1.496256738467264E-2    1.408177064270307E-2   -6.107901227953500E-3    1.425240372866641E-2   -5.696594166006474E-3    2.154634854576798E-1    5.043149046813576E-1
 6.517172980650000E9    -2.283757057399675E-1   -1.468689760170483E-2    1.425351822178774E-2   -6.345876874477012E-3    1.436928177329757E-2   -5.814291164559103E-3    2.163958254723130E-1    5.039446114609550E-1
 6.517185156725000E9    -2.279029680436209E-1   -1.451728175294521E-2    1.421835860243671E-2   -6.449314354851756E-3    1.442451677749263E-2   -5.882494794888132E-3    2.170659789052276E-1    5.035763847071960E-1
 6.517197332800000E9    -2.278863484718716E-1   -1.434795622234212E-2    1.430159878563038E-2   -6.367250590380711E-3    1.451059790586155E-2   -5.875661365871008E-3    2.181098759736332E-1    5.031484030601522E-1
 6.517209508875000E9    -2.278491267890916E-1   -1.409362712475038E-2    1.452604485305641E-2   -6.458107987044443E-3    1.455178436992127E-2   -5.895952058122022E-3    2.189213667616758E-1    5.029089251894174E-1
 6.517221684950000E9    -2.277847030175258E-1   -1.403962097758939E-2    1.435860598129431E-2   -6.480835933865718E-3    1.462582772107231E-2   -6.159843983591715E-3    2.198673560300182E-1    5.023050731169320E-1
 6.517233861025000E9    -2.275233567830326E-1   -1.386928623342773E-2    1.449526470159199E-2   -6.578194575600334E-3    1.463496610293434E-2   -6.116612695889073E-3    2.208760699156847E-1    5.020011726881831E-1
 6.517246037100000E9    -2.274350640494802E-1   -1.367410447217073E-2    1.460726222992309E-2   -6.641507307674572E-3    1.463958325478341E-2   -6.133215135926322E-3    2.217029179233428E-1    5.017321530764566E-1
 6.517258213175000E9    -2.273231226075665E-1   -1.344013969506878E-2    1.465711689944761E-2   -6.775176646564182E-3    1.481444651245690E-2   -6.265111044625486E-3    2.226104850036008E-1    5.012300116705098E-1
 6.517270389250000E9    -2.270849757658590E-1   -1.331674101159375E-2    1.480867220378313E-2   -6.755898407183558E-3    1.482502006890417E-2   -6.307265357422073E-3    2.235294384082639E-1    5.008669822825641E-1
 6.517282565325000E9    -2.269750086672642E-1   -1.310989046970288E-2    1.472901346099594E-2   -6.887297941115193E-3    1.503718173294686E-2   -6.240159915899546E-3    2.245604341041418E-1    5.003914806381083E-1
 6.517294741400000E9    -2.267772243202645E-1   -1.299159615332551E-2    1.486947506600978E-2   -7.021755717267975E-3    1.512281675919685E-2   -6.310324174939460E-3    2.253353293159457E-1    5.000034412591324E-1
 6.517306917475000E9    -2.266383547557397E-1   -1.289122170508991E-2    1.503003430970578E-2   -6.820516931415344E-3    1.515334272445115E-2   -6.569393528723215E-3    2.262802774937282E-1    4.996761616840605E-1
 6.517319093550000E9    -2.266063677669511E-1   -1.257635985719624E-2    1.495261139648548E-2   -7.023201645157339E-3    1.511438780883505E-2   -6.493302694113401E-3    2.271341147213648E-1    4.991701000816232E-1
 6.517331269625000E9    -2.263599161697863E-1   -1.258146898235445E-2    1.498614428769937E-2   -7.198462880754936E-3    1.521754323516617E-2   -6.591868494669701E-3    2.280848401267912E-1    4.988323597836304E-1
 6.517343445700000E9    -2.262849768264058E-1   -1.237773088238222E-2    1.513666068977304E-2   -7.193483420046417E-3    1.533636313479265E-2   -6.791073241767446E-3    2.288657794950457E-1    4.984464429378573E-1
 6.517355621775000E9    -2.261180311884114E-1   -1.214391748518099E-2    1.531422023682600E-2   -7.214876314962262E-3    1.537542351086019E-2   -6.810930060434000E-3    2.297396808869190E-1    4.980632629523959E-1
 6.517367797850000E9    -2.259215955243134E-1   -1.188514860704254E-2    1.532857979166918E-2   -7.327486762972951E-3    1.537875234849859E-2   -6.824228232775270E-3    2.307276537185162E-1    4.977241038388615E-1
 6.517379973925000E9    -2.257467817945131E-1   -1.178556847106654E-2    1.539519347589891E-2   -7.448874419037839E-3    1.549646116522004E-2   -6.900988344391174E-3    2.316298001293426E-1    4.973139562125706E-1
 6.517392150000000E9    -2.255449944908773E-1   -1.169280493872587E-2    1.555085329652713E-2   -7.583948002322043E-3    1.563689859264092E-2   -6.940064203355361E-3    2.326301593004932E-1    4.967472334173927E-1
 6.517404326075000E9    -2.254860413174583E-1   -1.145392485510432E-2    1.547614576048744E-2   -7.636340124447906E-3    1.563556624383025E-2   -7.086969235946150E-3    2.335566456049799E-1    4.963591121109110E-1
 6.517416502150000E9    -2.253630923317980E-1   -1.130844241642122E-2    1.561310911810439E-2   -7.702954412683890E-3    1.567762009859413E-2   -7.152229271247423E-3    2.343130576390456E-1    4.959185428919817E-1
 6.517428678225000E9    -2.250828601649284E-1   -1.114962115075167E-2    1.572408036387443E-2   -7.776276917531873E-3    1.582544218191633E-2   -7.278619660481329E-3    2.353025521548474E-1    4.954550807405819E-1
 6.517440854300000E9    -2.250224683719600E-1   -1.098121246237249E-2    1.571160580217900E-2   -7.838177840628371E-3    1.592108322433335E-2   -7.301308532062819E-3    2.361549988486351E-1    4.951526606397131E-1
 6.517453030375000E9    -2.248616939098719E-1   -1.088534012349639E-2    1.573563171924383E-2   -8.002186084746333E-3    1.608382481076142E-2   -7.502431073934399E-3    2.369543204006495E-1    4.947118418672713E-1
 6.517465206450000E9    -2.246783822674635E-1   -1.069692256554548E-2    1.583023854727908E-2   -8.018250962842493E-3    1.605595979224957E-2   -7.474059480456686E-3    2.380207312103482E-1    4.942534678026491E-1
 6.517477382525000E9    -2.245785293404854E-1   -1.047243695005796E-2    1.594059749058776E-2   -8.195447981800703E-3    1.622428947914047E-2   -7.583199865416805E-3    2.387750857912665E-1    4.938146019057367E-1
 6.517489558600000E9    -2.244745176655964E-1   -1.037248125118390E-2    1.589492086759616E-2   -8.332121284595375E-3    1.634882575544179E-2   -7.525026781650901E-3    2.398001081544517E-1    4.935126246608963E-1
 6.517501734675000E9    -2.242353271511290E-1   -1.023077755506981E-2    1.610766101701395E-2   -8.337890393427937E-3    1.628920773532156E-2   -7.714398874884598E-3    2.406118448119959E-1    4.929954609162557E-1
 6.517513910750000E9    -2.241061651294846E-1   -1.005013544528297E-2    1.617444334517266E-2   -8.420133654743020E-3    1.639511762404032E-2   -7.750084973410284E-3    2.414802619146804E-1    4.924747068682861E-1
 6.517526086825000E9    -2.239074624526467E-1   -1.005953131329142E-2    1.631381375006671E-2   -8.402963020938761E-3    1.652149082823727E-2   -7.844189942561738E-3    2.424727459074494E-1    4.920946638073549E-1
 6.517538262900000E9    -2.237242268317681E-1   -9.739040601950156E-3    1.630791618802103E-2   -8.440360380445155E-3    1.666434230360540E-2   -7.943328743124605E-3    2.434158012693366E-1    4.917342657514626E-1
 6.517550438975000E9    -2.236293120984827E-1   -9.697373596319578E-3    1.639593890973490E-2   -8.693224050973983E-3    1.667359002495544E-2   -8.122873086127832E-3    2.442811675599635E-1    4.912021684925055E-1
 6.517562615050000E9    -2.234098093880988E-1   -9.503961142678196E-3    1.659687638077993E-2   -8.766806195793861E-3    1.683578852177426E-2   -8.240734978972123E-3    2.450699647887937E-1    4.908474884238484E-1
 6.517574791125000E9    -2.232281856900462E-1   -9.385624616108685E-3    1.665743168044513E-2   -8.833466845809339E-3    1.685197206310874E-2   -8.282176715148573E-3    2.460611621533642E-1    4.902325073422978E-1
 6.517586967200000E9    -2.231011705398252E-1   -9.138728300629980E-3    1.659496135592359E-2   -9.014434627261781E-3    1.702146930534864E-2   -8.398904817313334E-3    2.469448318182221E-1    4.898309653271500E-1
 6.517599143275000E9    -2.227970830901744E-1   -9.092892881723940E-3    1.680595182780222E-2   -9.094997760064739E-3    1.714773343737434E-2   -8.492046555121676E-3    2.479089607460742E-1    4.894226556982421E-1
 6.517611319350000E9    -2.226927809342879E-1   -8.955808606211594E-3    1.688587797727488E-2   -9.184012860029246E-3    1.704602725281513E-2   -8.546893844604352E-3    2.488078106852650E-1    4.889150425485326E-1
 6.517623495425000E9    -2.225552710409834E-1   -8.772181156521071E-3    1.706041641822564E-2   -9.306647401007964E-3    1.727058635796114E-2   -8.669243579876647E-3    2.496286903158914E-1    4.884787172725490E-1
 6.517635671500000E9    -2.223306569501077E-1   -8.669377718725326E-3    1.710802305288137E-2   -9.357957189424273E-3    1.730229881815937E-2   -8.858634549035875E-3    2.505779611792453E-1    4.879350361118291E-1
 6.517647847575000E9    -2.221342552763148E-1   -8.572981264652243E-3    1.715833932035157E-2   -9.432340696881467E-3    1.740667716060402E-2   -8.926227774632938E-3    2.515816976894489E-1    4.875053053522859E-1
 6.517660023650000E9    -2.219284124088153E-1   -8.446069388624593E-3    1.725133724351023E-2   -9.583540377238580E-3    1.759264662054304E-2   -8.962602007428690E-3    2.523411322394435E-1    4.870339844838847E-1
 6.517672199725000E9    -2.217492174885442E-1   -8.239650378440063E-3    1.738368975293137E-2   -9.806165378969974E-3    1.771338393463398E-2   -9.113292463511788E-3    2.532565833530811E-1    4.865656924664373E-1
 6.517684375800000E9    -2.215486478388395E-1   -8.305611453094499E-3    1.757022335603488E-2   -9.792090880255656E-3    1.774667451878750E-2   -9.261219420657791E-3    2.540811741056588E-1    4.860849842899365E-1
 6.517696551875000E9    -2.213091697586090E-1   -8.000962803006325E-3    1.762405123330750E-2   -9.913234699195826E-3    1.791210476291572E-2   -9.315408045717111E-3    2.550580846235418E-1    4.856044105628507E-1
 6.517708727950000E9    -2.211854173636736E-1   -7.864487289533935E-3    1.771104480881555E-2   -1.003574641611085E-2    1.797114758017005E-2   -9.377859121582068E-3    2.558589617999190E-1    4.851267180184894E-1
 6.517720904025000E9    -2.209800451499559E-1   -7.794965891817324E-3    1.773209508726908E-2   -1.005778771694964E-2    1.812898283561264E-2   -9.607993436176458E-3    2.568494451657234E-1    4.847187318242856E-1
 6.517733080100000E9    -2.208975848160770E-1   -7.761210442076004E-3    1.774394017082232E-2   -1.031371477048056E-2    1.818202366334082E-2   -9.682634626381935E-3    2.578294185787793E-1    4.841857077052566E-1
 6.517745256175000E9    -2.206882611341708E-1   -7.646439552332593E-3    1.799841224570160E-2   -1.042773072242739E-2    1.833790503729700E-2   -9.664899872231647E-3    2.586925923537049E-1    4.836472391285076E-1
 6.517757432250000E9    -2.203118702944800E-1   -7.483338875632206E-3    1.822012060883031E-2   -1.034059132877023E-2    1.831352592029520E-2   -9.909981211751384E-3    2.595335443093125E-1    4.830935354595020E-1
 6.517769608325000E9    -2.202080891068876E-1   -7.371766701101597E-3    1.817133561937974E-2   -1.051257617900763E-2    1.845298453532881E-2   -1.009429765810884E-2    2.605094979849610E-1    4.825874594487476E-1
 6.517781784400000E9    -2.199734565685703E-1   -7.239471848896086E-3    1.826477890435582E-2   -1.082660150744825E-2    1.856221882345076E-2   -1.015239357563622E-2    2.614660088570094E-1    4.822474101794993E-1
 6.517793960475000E9    -2.197883763399705E-1   -7.072814636379751E-3    1.850212592211400E-2   -1.077844808523476E-2    1.875675513127097E-2   -1.024810227859899E-2    2.623845811214480E-1    4.817033464516557E-1
 6.517806136550000E9    -2.196341879150763E-1   -7.073562967617734E-3    1.843443298148779E-2   -1.088993623707895E-2    1.875551584853483E-2   -1.043312253095543E-2    2.631747430347572E-1    4.810992346525947E-1
 6.517818312625000E9    -2.194509245869913E-1   -6.934312974822518E-3    1.861134840758598E-2   -1.126530381704913E-2    1.901806976509595E-2   -1.049742963057535E-2    2.643036408097920E-1    4.805265564196154E-1
 6.517830488700000E9    -2.191487446267286E-1   -6.815236806856544E-3    1.864466825088611E-2   -1.135743130188414E-2    1.900152104229231E-2   -1.061846275979364E-2    2.650362749367245E-1    4.800514922024575E-1
 6.517842664775000E9    -2.188665409424786E-1   -6.738107666072238E-3    1.881243994714902E-2   -1.141029880314188E-2    1.919409450077983E-2   -1.087939308614685E-2    2.659908557587597E-1    4.795778033035774E-1
 6.517854840850000E9    -2.187461794027259E-1   -6.715608684640902E-3    1.887245683374146E-2   -1.156206027332563E-2    1.936189565191199E-2   -1.093190899815579E-2    2.668992685497760E-1    4.791549147039714E-1
 6.517867016925000E9    -2.186003753899085E-1   -6.556166874939482E-3    1.900710769128537E-2   -1.183876160229900E-2    1.937551906805745E-2   -1.109608750403307E-2    2.677365632333329E-1    4.785352340538903E-1
 6.517879193000000E9    -2.183993339901344E-1   -6.455964007447434E-3    1.931560300429857E-2   -1.184019178884128E-2    1.958059228842450E-2   -1.120786778970924E-2    2.686230824658068E-1    4.780902051454673E-1
 6.517891369075000E9    -2.181222054791544E-1   -6.399838928807085E-3    1.920014888402162E-2   -1.199546033549862E-2    1.973453676318929E-2   -1.140937632429355E-2    2.695463007631988E-1    4.774378583973310E-1
 6.517903545150000E9    -2.179077029621326E-1   -6.296187818937641E-3    1.949133588428429E-2   -1.216218793746715E-2    1.984770792552803E-2   -1.146798052158416E-2    2.704363239978632E-1    4.769362888736032E-1
 6.517915721225000E9    -2.177189347372391E-1   -6.298004007021379E-3    1.942130223732268E-2   -1.238804494722169E-2    2.005253122627465E-2   -1.174068795042477E-2    2.714221208527249E-1    4.765768438809846E-1
 6.517927897300000E9    -2.175414349841814E-1   -6.092461330619627E-3    1.966048109353044E-2   -1.245371095393815E-2    1.997251944025282E-2   -1.187572282641708E-2    2.722494737345764E-1    4.759951570358742E-1
 6.517940073375000E9    -2.171999461688936E-1   -6.003337179115943E-3    1.971698494178232E-2   -1.258737836875006E-2    2.008496356427302E-2   -1.208324861588444E-2    2.730640063913260E-1    4.751944938659615E-1
 6.517952249450000E9    -2.168781717854530E-1   -5.976708939013420E-3    2.003905950094706E-2   -1.283417052232541E-2    2.036358213462312E-2   -1.212441217224632E-2    2.740307216473669E-1    4.748451395317378E-1
 6.517964425525000E9    -2.167221229489104E-1   -5.830711215173274E-3    2.002023367669136E-2   -1.285740423740610E-2    2.059638089779914E-2   -1.240797613562170E-2    2.749725048096187E-1    4.742589224607720E-1
 6.517976601600000E9    -2.165088861608842E-1   -5.845896820183097E-3    2.014826330739002E-2   -1.311944127518682E-2    2.070238168801055E-2   -1.254052083497693E-2    2.758223170428023E-1    4.736970634109382E-1
 6.517988777675000E9    -2.162218733497029E-1   -5.770911632818307E-3    2.037758120767105E-2   -1.331810325206560E-2    2.074575136389738E-2   -1.264390490795037E-2    2.768831246171216E-1    4.730128152280649E-1
 6.518000953750000E9    -2.159917388420643E-1   -5.838183127199978E-3    2.054180764237712E-2   -1.347134326668276E-2    2.083650958275378E-2   -1.290201006976699E-2    2.778619401802316E-1    4.724895163883590E-1
