#  HZ   S   RI   R     50.00 
! Rohde & Schwarz Vector Network Analyzer 
! Rohde-Schwarz,ZNB20-2Port,1311601062101988,3.16
! Created: UTC 12/23/2023, 3:54:33 AM
! freq[Hz]                re:S11                  im:S11                  re:S21                  im:S21                  re:S12                  im:S12                  re:S22                  im:S22
 6.516929809000000E9    -2.307353543062123E-1   -1.840405596312732E-2    1.294528368540622E-2   -4.975044623468847E-3    1.321724212848800E-2   -4.627334865347589E-3    1.981864486041504E-1    5.110995193927944E-1
 6.516941929600000E9    -2.306018462994686E-1   -1.814756336307774E-2    1.295590499089566E-2   -5.095712263620124E-3    1.311332780425436E-2   -4.746446711138470E-3    1.991387346075779E-1    5.107623938165680E-1
 6.516954050200000E9    -2.305633719193069E-1   -1.787555274676936E-2    1.314617761160891E-2   -5.191963034805067E-3    1.322730725643097E-2   -4.710154790799705E-3    1.999080398814920E-1    5.102918491960886E-1
 6.516966170800000E9    -2.304705442941277E-1   -1.771567619638208E-2    1.313322307574561E-2   -5.277384338915933E-3    1.323918839013911E-2   -4.776149166748654E-3    2.008157141047485E-1    5.102683809860724E-1
 6.516978291400000E9    -2.303627949216235E-1   -1.751944874795562E-2    1.309416277145303E-2   -5.256425866586080E-3    1.316565692228686E-2   -4.820817180955467E-3    2.017400251711673E-1    5.097880314320243E-1
 6.516990412000000E9    -2.301396491879267E-1   -1.744389458122649E-2    1.313384769803235E-2   -5.295696023438954E-3    1.330108975894130E-2   -4.845805416038118E-3    2.026839529336491E-1    5.094364112178884E-1
 6.517002532600000E9    -2.300992452819264E-1   -1.720793021197370E-2    1.330226246412381E-2   -5.380380672450632E-3    1.336909421165358E-2   -4.913148214976662E-3    2.036345346444175E-1    5.091016715344849E-1
 6.517014653200000E9    -2.299790276689744E-1   -1.715036965234324E-2    1.340613702127657E-2   -5.420660118540603E-3    1.338884147395491E-2   -5.041229403129875E-3    2.045205417489150E-1    5.087767885080969E-1
 6.517026773800000E9    -2.299201017879623E-1   -1.676307017567041E-2    1.329484380026063E-2   -5.522282881962301E-3    1.353186286233317E-2   -4.973143637746019E-3    2.053290637380794E-1    5.082741074196088E-1
 6.517038894400000E9    -2.296582976283414E-1   -1.666726474824984E-2    1.353160765749911E-2   -5.598103772472832E-3    1.361822256292120E-2   -5.031924663537807E-3    2.063614749771377E-1    5.079125753479553E-1
 6.517051015000000E9    -2.296953455914006E-1   -1.644135458338528E-2    1.346897344430967E-2   -5.602412918416537E-3    1.365259954668059E-2   -5.189836982264053E-3    2.072225943132785E-1    5.075705293964790E-1
 6.517063135600000E9    -2.295836002793357E-1   -1.630416600642049E-2    1.359708176100406E-2   -5.730271706182190E-3    1.360012149262571E-2   -5.224614979393491E-3    2.080856430401558E-1    5.073645783549667E-1
 6.517075256200000E9    -2.293498309253592E-1   -1.610658727586850E-2    1.364407458215126E-2   -5.626815065197104E-3    1.380126776717561E-2   -5.163493122872088E-3    2.089427932538286E-1    5.070205296998149E-1
 6.517087376800000E9    -2.292639243112959E-1   -1.579559433859876E-2    1.368708607839583E-2   -5.721089515652719E-3    1.378276504850078E-2   -5.317575579553490E-3    2.099730288144418E-1    5.066556690689979E-1
 6.517099497400000E9    -2.291929335727727E-1   -1.566323104727980E-2    1.374399556188463E-2   -5.892789150169162E-3    1.384950482359128E-2   -5.331803391905564E-3    2.107691210172948E-1    5.061959390353994E-1
 6.517111618000000E9    -2.289764553898996E-1   -1.546214692224163E-2    1.378842641547646E-2   -5.925296123798875E-3    1.394790061329331E-2   -5.428901560012753E-3    2.116716361416994E-1    5.058595883157215E-1
 6.517123738600000E9    -2.288596442160502E-1   -1.522433111388383E-2    1.402870051301071E-2   -5.871187227218750E-3    1.405177225290414E-2   -5.540118025560072E-3    2.125942980558571E-1    5.054383893732850E-1
 6.517135859200000E9    -2.287230745823980E-1   -1.515992450263382E-2    1.379036940660374E-2   -6.072482759121222E-3    1.400565307926079E-2   -5.543853946231400E-3    2.134955456194776E-1    5.050997576850211E-1
 6.517147979800000E9    -2.286343197502289E-1   -1.496821622986651E-2    1.396303592877426E-2   -5.940105798556480E-3    1.406693551753011E-2   -5.690639770768657E-3    2.143657877868130E-1    5.047570326111033E-1
 6.517160100400000E9    -2.284556757907653E-1   -1.471770434859357E-2    1.389625507251693E-2   -6.177183959664360E-3    1.415537466976745E-2   -5.652475165705715E-3    2.151611714669037E-1    5.044750147079522E-1
 6.517172221000000E9    -2.283733770778012E-1   -1.459552062815305E-2    1.402415332096773E-2   -6.145149532801033E-3    1.417726469275586E-2   -5.707494318683361E-3    2.161419791778444E-1    5.040420331121265E-1
 6.517184341600000E9    -2.281804733153986E-1   -1.450730402845259E-2    1.416672925816350E-2   -6.363532617307036E-3    1.425561200735822E-2   -5.832069585629584E-3    2.169619361119258E-1    5.036596735568631E-1
 6.517196462200000E9    -2.281164086546208E-1   -1.420552237484327E-2    1.418309951882431E-2   -6.427521471552552E-3    1.432628022753743E-2   -5.859255677786937E-3    2.181150972651219E-1    5.032771641009137E-1
 6.517208582800000E9    -2.280137729504664E-1   -1.416771166923357E-2    1.424550815061399E-2   -6.409520882158203E-3    1.446436281065153E-2   -5.965944688683522E-3    2.188135837422014E-1    5.029377132714060E-1
 6.517220703400000E9    -2.278114450894407E-1   -1.387940030942137E-2    1.429903626801558E-2   -6.381946679493043E-3    1.448807370061004E-2   -6.034075266797140E-3    2.198353346153820E-1    5.023305578580251E-1
 6.517232824000000E9    -2.277374850094819E-1   -1.381939960123184E-2    1.444729779271245E-2   -6.490210959678017E-3    1.455785709328498E-2   -6.027796941794330E-3    2.206721593847954E-1    5.019725633243048E-1
 6.517244944600000E9    -2.275476911096786E-1   -1.363641790331811E-2    1.448049329948143E-2   -6.518995605503724E-3    1.462660015784953E-2   -6.103451188524107E-3    2.214239091885125E-1    5.016742755893988E-1
 6.517257065200000E9    -2.273785411599326E-1   -1.348375186573121E-2    1.458405998346283E-2   -6.627049234049766E-3    1.470044056651780E-2   -6.135780837943776E-3    2.224308183916343E-1    5.012179507048360E-1
 6.517269185800000E9    -2.272673413147565E-1   -1.326738197292540E-2    1.448803300944860E-2   -6.682040626345623E-3    1.479364409721250E-2   -6.170296273384618E-3    2.232327271721188E-1    5.009671675633245E-1
 6.517281306400000E9    -2.270074200832668E-1   -1.305408286686162E-2    1.482856261302458E-2   -6.777957733815124E-3    1.480814183299422E-2   -6.284878350995424E-3    2.240916374162837E-1    5.006975482183812E-1
 6.517293427000000E9    -2.270026607992605E-1   -1.282290339728898E-2    1.474983527375319E-2   -6.772129586802167E-3    1.488607735490700E-2   -6.301105050614624E-3    2.252773805801319E-1    5.002111985398701E-1
 6.517305547600000E9    -2.268595207436878E-1   -1.269802331687640E-2    1.482978960299557E-2   -7.026113463270992E-3    1.493867558311161E-2   -6.395454476914904E-3    2.259867458647973E-1    4.997707965839508E-1
 6.517317668200000E9    -2.267740303363662E-1   -1.254010781477207E-2    1.491208398128871E-2   -7.074465223221878E-3    1.504202656931555E-2   -6.550269656362810E-3    2.268568057559495E-1    4.994516586389749E-1
 6.517329788800000E9    -2.265686284568644E-1   -1.238891163289994E-2    1.491324777373152E-2   -7.188250550984267E-3    1.506910300986196E-2   -6.514674255177967E-3    2.277797833827534E-1    4.989876713466441E-1
 6.517341909400000E9    -2.264469585579464E-1   -1.222548343720667E-2    1.502212881717348E-2   -7.140994396978380E-3    1.518206108360298E-2   -6.635939072173679E-3    2.286183610376535E-1    4.984818776575628E-1
 6.517354030000000E9    -2.262745200178540E-1   -1.200794956287453E-2    1.505377268202580E-2   -7.254379624852972E-3    1.522303842350893E-2   -6.683804551944996E-3    2.295043155590571E-1    4.980659309938367E-1
 6.517366150600000E9    -2.261751613764327E-1   -1.183765087360079E-2    1.524862369544048E-2   -7.248787558145225E-3    1.542887011069896E-2   -6.839784454822657E-3    2.305160372737191E-1    4.979412370899210E-1
 6.517378271200000E9    -2.260374873411762E-1   -1.163778894985248E-2    1.524736067004043E-2   -7.449933901637232E-3    1.534673372591116E-2   -6.829332555702260E-3    2.312865638844975E-1    4.975164962447252E-1
 6.517390391800000E9    -2.258110674131959E-1   -1.160968512819632E-2    1.538224239347729E-2   -7.501353553806808E-3    1.549453783933192E-2   -6.967316563952180E-3    2.322460248068952E-1    4.970786785552232E-1
 6.517402512400000E9    -2.257867332840476E-1   -1.132686307546183E-2    1.534150271079094E-2   -7.556766325185941E-3    1.561513591080366E-2   -6.945313727740904E-3    2.330342609716088E-1    4.965114803083635E-1
 6.517414633000000E9    -2.255143457657007E-1   -1.114513191117939E-2    1.556794212097873E-2   -7.636915413781155E-3    1.562835369195599E-2   -7.104182514950789E-3    2.341162523160628E-1    4.962589450865384E-1
 6.517426753600000E9    -2.253155311102457E-1   -1.104636313061996E-2    1.557744404266510E-2   -7.779190592982357E-3    1.578258982724466E-2   -7.179515476045414E-3    2.350371318262192E-1    4.956700600866096E-1
 6.517438874200000E9    -2.251501492129937E-1   -1.085996141722671E-2    1.562533609186472E-2   -7.650391887535388E-3    1.582339715005449E-2   -7.259019864444618E-3    2.358018201760354E-1    4.953462432827790E-1
 6.517450994800000E9    -2.251168342809465E-1   -1.066958807165864E-2    1.560432024515658E-2   -7.954720169115173E-3    1.590734370209290E-2   -7.258750046695031E-3    2.368108986828393E-1    4.946758579040811E-1
 6.517463115400000E9    -2.248390718501689E-1   -1.060451698168028E-2    1.586755030851306E-2   -8.081312064093094E-3    1.589380144030415E-2   -7.399667532540421E-3    2.376335784773537E-1    4.945019130807746E-1
 6.517475236000000E9    -2.247473807624323E-1   -1.043917800425205E-2    1.583444944254316E-2   -8.142272081438213E-3    1.598817126993915E-2   -7.566989169887905E-3    2.385342721094163E-1    4.941579388704272E-1
 6.517487356600000E9    -2.246374199376023E-1   -1.034544505885925E-2    1.602965741144948E-2   -8.133022110261443E-3    1.621992193463896E-2   -7.601394721468107E-3    2.394322008332567E-1    4.936500819098871E-1
 6.517499477200000E9    -2.244425730792800E-1   -1.016677733886876E-2    1.618307206934894E-2   -8.150948724618218E-3    1.628628442140071E-2   -7.697419245151809E-3    2.403097511002071E-1    4.931024802979369E-1
 6.517511597800000E9    -2.242086311309545E-1   -9.917922098976446E-3    1.620483842798043E-2   -8.246538138869417E-3    1.622361412506447E-2   -7.581786864100212E-3    2.413364477531617E-1    4.927489717802150E-1
 6.517523718400000E9    -2.240509444435839E-1   -9.842935775921329E-3    1.616178598431369E-2   -8.314695360178731E-3    1.646709365925899E-2   -7.797419270791371E-3    2.421208907285733E-1    4.924781757785912E-1
 6.517535839000000E9    -2.239580061294824E-1   -9.711322490580435E-3    1.637302831411635E-2   -8.420175223505357E-3    1.646519720158312E-2   -7.870001699080609E-3    2.430873332033069E-1    4.919394812795456E-1
 6.517547959600000E9    -2.236680688935765E-1   -9.560433764737156E-3    1.636370275633338E-2   -8.547122046495732E-3    1.656640695309222E-2   -7.976494029468179E-3    2.438469597881497E-1    4.913046115725910E-1
 6.517560080200000E9    -2.236267122663390E-1   -9.437539665436768E-3    1.654940921853433E-2   -8.661954238511344E-3    1.662921930861422E-2   -8.097967427407956E-3    2.448656790561174E-1    4.909171696334806E-1
 6.517572200800000E9    -2.234334184697977E-1   -9.167804388538569E-3    1.654028165838764E-2   -8.742392747648504E-3    1.679797075349387E-2   -8.143701200369082E-3    2.456054808970294E-1    4.905664283413633E-1
 6.517584321400000E9    -2.231639466847511E-1   -9.143953192977949E-3    1.652642573123774E-2   -8.850243666479277E-3    1.678509316034592E-2   -8.222799632614308E-3    2.466055428806868E-1    4.900589260604568E-1
 6.517596442000000E9    -2.229738193987472E-1   -8.932190475327463E-3    1.664676764468697E-2   -8.850072139868936E-3    1.700381760886132E-2   -8.387747695773400E-3    2.475567331354427E-1    4.896216986045381E-1
 6.517608562600000E9    -2.229209084931298E-1   -8.829430896695901E-3    1.673986227723231E-2   -9.084711213591065E-3    1.713585910059194E-2   -8.512742907646281E-3    2.485889336434659E-1    4.892538931596300E-1
 6.517620683200000E9    -2.226127594962067E-1   -8.749252702215937E-3    1.685420098421864E-2   -9.114738387673059E-3    1.704602676703074E-2   -8.583648992572758E-3    2.492804446657833E-1    4.887912504833453E-1
 6.517632803800000E9    -2.225653753575177E-1   -8.581153449944076E-3    1.686860314157226E-2   -9.111886487929322E-3    1.720809443598991E-2   -8.670260888802775E-3    2.501840162425813E-1    4.883279719492879E-1
 6.517644924400000E9    -2.223561938884348E-1   -8.485721074724551E-3    1.698482000963651E-2   -9.260565804917196E-3    1.733240695862744E-2   -8.803775349217407E-3    2.510777455761171E-1    4.878048276034620E-1
 6.517657045000000E9    -2.220896109635464E-1   -8.319304345137508E-3    1.708062265729807E-2   -9.415875360343110E-3    1.740370614358640E-2   -8.904178569049551E-3    2.519047044194480E-1    4.872605963888492E-1
 6.517669165600000E9    -2.218614465768252E-1   -8.104203405767420E-3    1.719062011790540E-2   -9.558195353658044E-3    1.749938511183563E-2   -8.964097697164209E-3    2.528684169305547E-1    4.868652160828276E-1
 6.517681286200000E9    -2.218796723395449E-1   -7.992002928059646E-3    1.733380486284556E-2   -9.647175854113713E-3    1.767585520624278E-2   -9.048957013998507E-3    2.538091534978923E-1    4.864519912940465E-1
 6.517693406800000E9    -2.215567973538811E-1   -7.824335860309957E-3    1.743170614796504E-2   -9.872158140227443E-3    1.775102336397669E-2   -9.344532846781939E-3    2.546807617233148E-1    4.858925435861668E-1
 6.517705527400000E9    -2.214744787509620E-1   -7.730401655026180E-3    1.749855342437275E-2   -9.806110183676645E-3    1.789222472635977E-2   -9.328188102154437E-3    2.556936567979132E-1    4.854755836338492E-1
 6.517717648000000E9    -2.213272876031674E-1   -7.646718083683214E-3    1.760000666710285E-2   -1.008023644823141E-2    1.795437924034550E-2   -9.501865908951104E-3    2.566418179825786E-1    4.849677145260172E-1
 6.517729768600000E9    -2.210987257071967E-1   -7.555937226258051E-3    1.768833461512091E-2   -9.917447497017048E-3    1.798362136540562E-2   -9.535341183243878E-3    2.573271839808636E-1    4.843855065519598E-1
 6.517741889200000E9    -2.208362993695968E-1   -7.478935802805503E-3    1.781361045149130E-2   -1.021711974042488E-2    1.820706549450562E-2   -9.653112185851472E-3    2.583035404054873E-1    4.840448338488949E-1
 6.517754009800000E9    -2.206684127422061E-1   -7.323759388224911E-3    1.788139342160131E-2   -1.045788641293059E-2    1.829432697084728E-2   -9.717629656790433E-3    2.592373828657666E-1    4.834223011836469E-1
 6.517766130400000E9    -2.204005918859845E-1   -7.192396940223487E-3    1.818071360544590E-2   -1.058605404398189E-2    1.840286008071601E-2   -9.912035397663806E-3    2.601819785035220E-1    4.831315439604875E-1
 6.517778251000000E9    -2.202598298050428E-1   -7.107593973527117E-3    1.810104739530878E-2   -1.063485019019839E-2    1.851369711139174E-2   -9.920705924718620E-3    2.610802225685039E-1    4.825703937319832E-1
 6.517790371600000E9    -2.201549276077931E-1   -7.001820440977951E-3    1.826486320643473E-2   -1.058628495630868E-2    1.854375278090581E-2   -1.010045568220910E-2    2.619774501108246E-1    4.820455022505751E-1
 6.517802492200000E9    -2.198933855666960E-1   -6.883241281376681E-3    1.832673666817828E-2   -1.088909816189979E-2    1.861464182058820E-2   -1.022596558379791E-2    2.627274593628346E-1    4.814916342344619E-1
 6.517814612800000E9    -2.197402986601411E-1   -6.757857331996764E-3    1.848699694458903E-2   -1.105062961925515E-2    1.871176303521056E-2   -1.038354109702719E-2    2.637239099330699E-1    4.810357390849477E-1
 6.517826733400000E9    -2.194089866262598E-1   -6.576194215549796E-3    1.853701625803683E-2   -1.119811431813290E-2    1.896540326739189E-2   -1.051654022646160E-2    2.647023328569130E-1    4.804469577423134E-1
 6.517838854000000E9    -2.192035279576394E-1   -6.526058872337372E-3    1.868262974934343E-2   -1.133033323828370E-2    1.895682606546380E-2   -1.063071942144353E-2    2.654225790685484E-1    4.799817296181217E-1
 6.517850974600000E9    -2.190273031959720E-1   -6.407964094978124E-3    1.880857508820637E-2   -1.150737980051646E-2    1.905284349839385E-2   -1.070517401578268E-2    2.663664339971074E-1    4.794389504389116E-1
 6.517863095200000E9    -2.187835253293756E-1   -6.386524981085663E-3    1.903291366218295E-2   -1.148352579528989E-2    1.932666156717164E-2   -1.086262331423400E-2    2.673158359411220E-1    4.789310311487482E-1
 6.517875215800000E9    -2.186374632993782E-1   -6.294392438489761E-3    1.899199905164878E-2   -1.166860227579718E-2    1.943930051992924E-2   -1.109194445501849E-2    2.681727584923412E-1    4.785571184698719E-1
 6.517887336400000E9    -2.183891250327333E-1   -6.117910378296373E-3    1.918450715585067E-2   -1.185022646884478E-2    1.951261846151639E-2   -1.119155591501140E-2    2.690742585943787E-1    4.779289986232069E-1
 6.517899457000000E9    -2.182195231505226E-1   -6.052296533365368E-3    1.928491370735338E-2   -1.196845570497561E-2    1.957840090325352E-2   -1.134968694539530E-2    2.700730734999523E-1    4.773971858251429E-1
 6.517911577600000E9    -2.179363938365891E-1   -5.973489671702957E-3    1.932963086714987E-2   -1.202552170089750E-2    1.979714171833163E-2   -1.146596848415436E-2    2.708607198344730E-1    4.768201771292127E-1
 6.517923698200000E9    -2.176985177921373E-1   -5.975859819058142E-3    1.962482128654885E-2   -1.239088560463583E-2    1.981217288577546E-2   -1.163339445773414E-2    2.717373090819412E-1    4.762832633359239E-1
 6.517935818800000E9    -2.173925460762442E-1   -5.848668784751852E-3    1.963880722337442E-2   -1.243168329135723E-2    1.999590013316508E-2   -1.178212134597878E-2    2.727605836360104E-1    4.757771431009028E-1
 6.517947939400000E9    -2.173566935436169E-1   -5.845213604644317E-3    1.961662853648609E-2   -1.255722143086473E-2    2.015686732190909E-2   -1.199359246958233E-2    2.735657543784893E-1    4.751354694352592E-1
 6.517960060000000E9    -2.170392686963746E-1   -5.692948568664532E-3    1.988399254825325E-2   -1.284038118020463E-2    2.022601721598460E-2   -1.207518234953759E-2    2.744818381059135E-1    4.746008385676580E-1
 6.517972180600000E9    -2.166951385616724E-1   -5.687365016172876E-3    1.985868717001111E-2   -1.299975062212055E-2    2.045635870933619E-2   -1.219821080568189E-2    2.755425361511123E-1    4.740359404127211E-1
 6.517984301200000E9    -2.164554371311054E-1   -5.515793677428080E-3    2.015653649383521E-2   -1.302057554566030E-2    2.054948526410737E-2   -1.236862830377948E-2    2.765465222619437E-1    4.736140790436637E-1
 6.517996421800000E9    -2.163630861512431E-1   -5.385770131907526E-3    2.040321983135973E-2   -1.336371635240538E-2    2.080712247322955E-2   -1.260793811014365E-2    2.773792167875425E-1    4.729826378103411E-1
 6.518008542400000E9    -2.160444745161717E-1   -5.416838540768408E-3    2.033498123100434E-2   -1.341161417790061E-2    2.082161251252328E-2   -1.275624254236985E-2    2.780341147622328E-1    4.724346719412190E-1
 6.518020663000000E9    -2.157363170495089E-1   -5.464350455231261E-3    2.054949755335238E-2   -1.372779866048664E-2    2.099903953339927E-2   -1.300393424925959E-2    2.790876312880411E-1    4.718924514104000E-1
