#  HZ   S   RI   R     50.00 
! Rohde & Schwarz Vector Network Analyzer 
! Rohde-Schwarz,ZNB20-2Port,1311601062101988,3.16
! Created: UTC 12/23/2023, 3:56:16 AM
! freq[Hz]                re:S11                  im:S11                  re:S21                  im:S21                  re:S12                  im:S12                  re:S22                  im:S22
 6.516985167000000E9    -2.303097012734761E-1   -1.744685991154311E-2    1.314493886449739E-2   -5.197347492061664E-3    1.318364246326991E-2   -4.743379636269563E-3    2.021964153112650E-1    5.097720280565118E-1
 6.516997123150000E9    -2.302054659812721E-1   -1.725133115014243E-2    1.312418414040765E-2   -5.297157906244091E-3    1.327007852853323E-2   -4.859568063245511E-3    2.028988412824496E-1    5.092430068643709E-1
 6.517009079300000E9    -2.300825431312412E-1   -1.705838453100072E-2    1.330373668860032E-2   -5.370901374522266E-3    1.324705002635290E-2   -4.919963593191825E-3    2.040603542528922E-1    5.090160089711832E-1
 6.517021035450000E9    -2.300281243462620E-1   -1.686625737827729E-2    1.319364373992386E-2   -5.354077606291235E-3    1.344870301515640E-2   -4.893847351382343E-3    2.047532762231578E-1    5.086721922585633E-1
 6.517032991600000E9    -2.299359954664380E-1   -1.676763453974539E-2    1.334629459284596E-2   -5.505126035816890E-3    1.334589115745244E-2   -5.041162150191589E-3    2.057193462044607E-1    5.083604823724110E-1
 6.517044947750000E9    -2.297862980990710E-1   -1.649667974271642E-2    1.338760600235640E-2   -5.581030214249135E-3    1.344378676716440E-2   -4.955539438950845E-3    2.066559103765142E-1    5.078849703218907E-1
 6.517056903900000E9    -2.296944988750433E-1   -1.621256339565654E-2    1.348065017324539E-2   -5.629043214452452E-3    1.359307188633458E-2   -5.080627138206241E-3    2.075678840716852E-1    5.076144201076631E-1
 6.517068860050000E9    -2.295800556413830E-1   -1.612897824849832E-2    1.342109808953488E-2   -5.545027219902054E-3    1.360202536692446E-2   -5.214307080208801E-3    2.082561999078184E-1    5.073502959745432E-1
 6.517080816200000E9    -2.293355162095263E-1   -1.592719313414138E-2    1.368397341548567E-2   -5.703412292254777E-3    1.359184008597091E-2   -5.303285731427884E-3    2.092055992349735E-1    5.068197842910528E-1
 6.517092772350000E9    -2.292642544774445E-1   -1.579205680022236E-2    1.358553973110916E-2   -5.622174751809472E-3    1.375768374095822E-2   -5.216812883132371E-3    2.100171632286564E-1    5.065378608262304E-1
 6.517104728500000E9    -2.292040415798351E-1   -1.564045593418805E-2    1.350401069479792E-2   -5.763636761224715E-3    1.374977092439435E-2   -5.347598762092861E-3    2.111198446434860E-1    5.062141768229670E-1
 6.517116684650000E9    -2.289988350842785E-1   -1.539840682580541E-2    1.369728913523135E-2   -5.740140653631520E-3    1.388918019902931E-2   -5.379409249104718E-3    2.117253970562299E-1    5.058545533296721E-1
 6.517128640800000E9    -2.289405255701161E-1   -1.517086146057254E-2    1.373879931672321E-2   -5.901784175066745E-3    1.382898420140959E-2   -5.438719320973270E-3    2.127080438542918E-1    5.053938901785692E-1
 6.517140596950000E9    -2.286945411278284E-1   -1.493807507338465E-2    1.389629760491081E-2   -5.971862186515475E-3    1.403809456088801E-2   -5.389145516317796E-3    2.136442538817731E-1    5.052088639395269E-1
 6.517152553100000E9    -2.286967928315359E-1   -1.484470134346570E-2    1.390770142409892E-2   -6.042696864372217E-3    1.395827735934788E-2   -5.551650059475012E-3    2.144661225263993E-1    5.049090989074355E-1
 6.517164509250000E9    -2.284428314428154E-1   -1.468217594226588E-2    1.394891536250342E-2   -6.140836407149282E-3    1.399656261162198E-2   -5.542876257387503E-3    2.154568398445199E-1    5.044201849055819E-1
 6.517176465400000E9    -2.283134021027549E-1   -1.455807625523571E-2    1.390440547708369E-2   -6.105448672338100E-3    1.413141284943382E-2   -5.591409448158043E-3    2.162395302199771E-1    5.040627955768191E-1
 6.517188421550000E9    -2.283256668543587E-1   -1.430922573838322E-2    1.410496805051236E-2   -6.244496893276011E-3    1.417926659453816E-2   -5.658327277321475E-3    2.171692763453154E-1    5.037005662601466E-1
 6.517200377700000E9    -2.280936282953580E-1   -1.419207743017126E-2    1.411588025234996E-2   -6.355364218252791E-3    1.431685757314474E-2   -5.804823508049855E-3    2.180657819263679E-1    5.033380263858543E-1
 6.517212333850000E9    -2.279995828037874E-1   -1.397778613239492E-2    1.420568528229084E-2   -6.425304737394267E-3    1.423267313224105E-2   -5.883894849010716E-3    2.188987217034599E-1    5.029451575185716E-1
 6.517224290000000E9    -2.278877811390372E-1   -1.377037355289685E-2    1.418797780784217E-2   -6.439122812033983E-3    1.445224456720912E-2   -5.906311562366317E-3    2.197146252046861E-1    5.024953397213263E-1
 6.517236246150000E9    -2.277268830741856E-1   -1.355814105956752E-2    1.417773899866048E-2   -6.384412659381833E-3    1.443381846204512E-2   -5.987703511725757E-3    2.207349376307580E-1    5.021306917163920E-1
 6.517248202300000E9    -2.276784591760368E-1   -1.337224351039934E-2    1.447895553783740E-2   -6.559027784908162E-3    1.441066341170292E-2   -5.956184460031148E-3    2.214990915996059E-1    5.018576899377702E-1
 6.517260158450000E9    -2.274393577179912E-1   -1.328822177415698E-2    1.431726983740150E-2   -6.634728395166079E-3    1.457891647192107E-2   -6.109865514270387E-3    2.224112874540960E-1    5.013507979827838E-1
 6.517272114600000E9    -2.273490116597683E-1   -1.308179498660652E-2    1.441126700924051E-2   -6.683208232604873E-3    1.463196161277967E-2   -6.130977938955724E-3    2.232951111147797E-1    5.010286215010040E-1
 6.517284070750000E9    -2.270806505700801E-1   -1.287985366077292E-2    1.451226485773852E-2   -6.799535184867468E-3    1.480486014550889E-2   -6.200685094457504E-3    2.242259638594020E-1    5.005145810704528E-1
 6.517296026900000E9    -2.270792026998457E-1   -1.271212033933105E-2    1.462327157406014E-2   -6.720404826912394E-3    1.475235815196330E-2   -6.343849580902107E-3    2.249194157504424E-1    5.003294249905332E-1
 6.517307983050000E9    -2.269077405336097E-1   -1.267320793279438E-2    1.460149408439167E-2   -6.867807780214108E-3    1.486064879345751E-2   -6.345370443991387E-3    2.259481721968828E-1    4.999330816460056E-1
 6.517319939200000E9    -2.266555680660472E-1   -1.238442753492803E-2    1.475881695645837E-2   -6.951277441721406E-3    1.497497623691850E-2   -6.374933102450424E-3    2.268694894303676E-1    4.995701116135615E-1
 6.517331895350000E9    -2.266116295036609E-1   -1.220040333857863E-2    1.475871995392524E-2   -6.993694538734890E-3    1.490576522402062E-2   -6.456104622272406E-3    2.278095356377322E-1    4.991161166150233E-1
 6.517343851500000E9    -2.264949222212119E-1   -1.212156510014488E-2    1.490947363008527E-2   -7.116003230039713E-3    1.508812868722459E-2   -6.491800243761740E-3    2.285878915523976E-1    4.987462731570579E-1
 6.517355807650000E9    -2.263570585387822E-1   -1.200360644035167E-2    1.497643315762757E-2   -7.094751020994882E-3    1.516663727668434E-2   -6.499058402946013E-3    2.294193628026804E-1    4.983422443281608E-1
 6.517367763800000E9    -2.261261622576412E-1   -1.174150103860337E-2    1.502546808441131E-2   -7.249150318085505E-3    1.517147823984965E-2   -6.671277843045403E-3    2.303304909576380E-1    4.978773504043414E-1
 6.517379719950000E9    -2.260664028666556E-1   -1.161578600857629E-2    1.513133117114864E-2   -7.198053052705198E-3    1.529471021254165E-2   -6.829784063513633E-3    2.312582755750572E-1    4.975430805352722E-1
 6.517391676100000E9    -2.259329865926614E-1   -1.150257157705831E-2    1.509619631605581E-2   -7.309543440070385E-3    1.536598402349334E-2   -6.795225919986764E-3    2.320607604680765E-1    4.971426949856989E-1
 6.517403632250000E9    -2.258065232242254E-1   -1.128845600728246E-2    1.522824784899852E-2   -7.339120360763981E-3    1.547799463266709E-2   -6.914275307824432E-3    2.330772101680749E-1    4.967529973164815E-1
 6.517415588400000E9    -2.257517344319765E-1   -1.116421591902926E-2    1.530567054157391E-2   -7.497192849808969E-3    1.549286830970624E-2   -6.978384890585380E-3    2.339294917620018E-1    4.963284037411105E-1
 6.517427544550000E9    -2.254778143217153E-1   -1.096886782114783E-2    1.544419222232922E-2   -7.597707493423637E-3    1.567793240717182E-2   -6.982061073717676E-3    2.347834088957331E-1    4.959037964236688E-1
 6.517439500700000E9    -2.252890215660057E-1   -1.072872804777817E-2    1.554698636301285E-2   -7.622635352736384E-3    1.565227148688338E-2   -7.178346659625581E-3    2.356292971934174E-1    4.954049288450187E-1
 6.517451456850000E9    -2.250981415575020E-1   -1.056929685646180E-2    1.557072420985730E-2   -7.724027206848828E-3    1.569371855406969E-2   -7.304789939909108E-3    2.365075629141535E-1    4.951380681046312E-1
 6.517463413000000E9    -2.249694736947508E-1   -1.065961179180740E-2    1.557825930032999E-2   -7.761186532085390E-3    1.584937642939031E-2   -7.303387412604598E-3    2.374759719599121E-1    4.946084159888594E-1
 6.517475369150000E9    -2.246802158164386E-1   -1.039242567988242E-2    1.571881429905362E-2   -7.783907860653280E-3    1.594064735020559E-2   -7.376301338855334E-3    2.383680674978936E-1    4.942370616053515E-1
 6.517487325300000E9    -2.246866107119172E-1   -1.014754576905318E-2    1.575658109656412E-2   -8.000902698647379E-3    1.591303791587194E-2   -7.443435093219318E-3    2.392341566002562E-1    4.936370125072156E-1
 6.517499281450000E9    -2.244866133459176E-1   -1.009957886423066E-2    1.587909260497539E-2   -8.165379537124701E-3    1.606963422900093E-2   -7.475363927223984E-3    2.401361620161410E-1    4.934880971076517E-1
 6.517511237600000E9    -2.243987131836223E-1   -9.793242018822618E-3    1.591701586149715E-2   -8.038779300670562E-3    1.618957155178758E-2   -7.599392470139335E-3    2.409123826717554E-1    4.930030245722493E-1
 6.517523193750000E9    -2.241665248804746E-1   -9.745981424538176E-3    1.601253477353606E-2   -8.165274400462587E-3    1.613651598470377E-2   -7.632612142924895E-3    2.418587039342945E-1    4.924657474744498E-1
 6.517535149900000E9    -2.239239239830890E-1   -9.526741981346254E-3    1.612568806919016E-2   -8.477948461533926E-3    1.636099903360192E-2   -7.745207095627210E-3    2.427357545494822E-1    4.921125622649660E-1
 6.517547106050000E9    -2.238498302246485E-1   -9.442122048928447E-3    1.617303658309673E-2   -8.484239369711164E-3    1.640982809346317E-2   -7.793324104559105E-3    2.434996489078540E-1    4.916543640286613E-1
 6.517559062200000E9    -2.238370104582150E-1   -9.231769013970426E-3    1.621267203690971E-2   -8.420729576168200E-3    1.649895064930759E-2   -7.880393652885851E-3    2.444614776116160E-1    4.912348075061352E-1
 6.517571018350000E9    -2.234495938898750E-1   -9.150128082560376E-3    1.648957237614708E-2   -8.569111247060904E-3    1.654622481478060E-2   -7.994282478802066E-3    2.454035194056692E-1    4.907206087000474E-1
 6.517582974500000E9    -2.233442760446390E-1   -8.986065275696968E-3    1.633879332334039E-2   -8.747629713413594E-3    1.668849956484922E-2   -8.108803556282186E-3    2.463447578950055E-1    4.905421422148155E-1
 6.517594930650000E9    -2.232644376130802E-1   -8.795165802668471E-3    1.645648721422343E-2   -8.779473056312737E-3    1.679042116427496E-2   -8.225509108738661E-3    2.471833504115110E-1    4.898734910866663E-1
 6.517606886800000E9    -2.229774438465292E-1   -8.749909090634448E-3    1.662258884342758E-2   -8.794182398083617E-3    1.687369320729359E-2   -8.338376489404631E-3    2.479367935641001E-1    4.894571258082711E-1
 6.517618842950000E9    -2.229021278787521E-1   -8.637312521342930E-3    1.669959590885598E-2   -8.956837618970592E-3    1.691355946044809E-2   -8.421191040994680E-3    2.489163262284601E-1    4.890382230113196E-1
 6.517630799100000E9    -2.226070551807052E-1   -8.405226818389894E-3    1.689988007685734E-2   -8.908090486302081E-3    1.701521758031286E-2   -8.542644332942106E-3    2.498361073406621E-1    4.886242337784208E-1
 6.517642755250000E9    -2.225401638699053E-1   -8.283758744955317E-3    1.688933896942458E-2   -9.184379223949976E-3    1.710401610634011E-2   -8.699277237227434E-3    2.505320633112040E-1    4.881906192686050E-1
 6.517654711400000E9    -2.223923513055265E-1   -8.275708483265512E-3    1.690025445021113E-2   -9.182882197120153E-3    1.721075655815049E-2   -8.677585108366038E-3    2.514886950579916E-1    4.875973444930406E-1
 6.517666667550000E9    -2.221129964650018E-1   -7.973712880701145E-3    1.704809060417539E-2   -9.462910605941531E-3    1.739479489723073E-2   -8.832465716167819E-3    2.524137083695231E-1    4.871870120883219E-1
 6.517678623700000E9    -2.219400307147084E-1   -7.892953908886485E-3    1.695555684778983E-2   -9.433534342795811E-3    1.733616741446008E-2   -8.785951509092386E-3    2.532696178363615E-1    4.868414251461118E-1
 6.517690579850000E9    -2.217304219602956E-1   -7.732696213219601E-3    1.721035312173785E-2   -9.508523512027252E-3    1.746778762607141E-2   -9.018789633416169E-3    2.541740203218318E-1    4.863820128595100E-1
 6.517702536000000E9    -2.215274365693747E-1   -7.621876248634119E-3    1.733102321155948E-2   -9.649909381187698E-3    1.758896044835247E-2   -9.152733966259815E-3    2.550747374243255E-1    4.857924569254335E-1
 6.517714492150000E9    -2.213480117365877E-1   -7.577238593399709E-3    1.738831260973643E-2   -9.760904437163537E-3    1.771438968405165E-2   -9.214070933411403E-3    2.560941933239102E-1    4.853447491975643E-1
 6.517726448300000E9    -2.212274555453419E-1   -7.389068004894390E-3    1.750071986649576E-2   -1.001247608610015E-2    1.772116438389609E-2   -9.312071923817215E-3    2.569272712233319E-1    4.848276406232159E-1
 6.517738404450000E9    -2.211205452013725E-1   -7.272596876317549E-3    1.762400497655776E-2   -1.012781890032469E-2    1.791012703239073E-2   -9.359910750366277E-3    2.577577973933239E-1    4.843279224043320E-1
 6.517750360600000E9    -2.209798495588222E-1   -7.054170864986825E-3    1.770196772060588E-2   -1.007300888536306E-2    1.800523700183475E-2   -9.452798825338950E-3    2.586721202660670E-1    4.838632787714942E-1
 6.517762316750000E9    -2.206367204961796E-1   -7.094959957514731E-3    1.796563200315409E-2   -1.018244565291830E-2    1.808366786372148E-2   -9.693875850613059E-3    2.594390785857292E-1    4.833778882783806E-1
 6.517774272900000E9    -2.205336198419063E-1   -6.929304884326202E-3    1.784163368545929E-2   -1.025010504365238E-2    1.822261838561693E-2   -9.722926843715455E-3    2.605293129454142E-1    4.830716781793968E-1
 6.517786229050000E9    -2.201811866220394E-1   -6.784557226175431E-3    1.805529548942398E-2   -1.045086650003366E-2    1.838946645249899E-2   -9.858298554197545E-3    2.613851204439299E-1    4.824788118532339E-1
 6.517798185200000E9    -2.201399154685399E-1   -6.764531324149559E-3    1.815652146812793E-2   -1.057305105927265E-2    1.834644780912067E-2   -9.979196320718463E-3    2.621572789618413E-1    4.819358594494491E-1
 6.517810141350000E9    -2.199525647875295E-1   -6.457700556867334E-3    1.825305612501334E-2   -1.070968656237957E-2    1.853793915323491E-2   -1.014068195079254E-2    2.631230722904951E-1    4.814939603095051E-1
 6.517822097500000E9    -2.197906521411810E-1   -6.554174369475997E-3    1.827013138812519E-2   -1.095716074941264E-2    1.861056856405374E-2   -1.023367538788361E-2    2.638860683097641E-1    4.808172611545484E-1
 6.517834053650000E9    -2.194944852943022E-1   -6.490627195656303E-3    1.828443126356991E-2   -1.102378831806620E-2    1.872576448094841E-2   -1.042026698076442E-2    2.648102819763414E-1    4.804073429807214E-1
 6.517846009800000E9    -2.193775655565814E-1   -6.313147177400880E-3    1.844936109199009E-2   -1.109732194975594E-2    1.872367141996693E-2   -1.050714981671057E-2    2.658433732275119E-1    4.798822891427507E-1
 6.517857965950000E9    -2.190568560154010E-1   -6.133587643806154E-3    1.855305137279388E-2   -1.119220576472999E-2    1.901026703013625E-2   -1.047728738806478E-2    2.665642172730412E-1    4.794287149648200E-1
 6.517869922100000E9    -2.190053571411573E-1   -6.115453550241483E-3    1.872948783482543E-2   -1.148081657966676E-2    1.916150703817438E-2   -1.072340458510237E-2    2.674717805601093E-1    4.789501813682696E-1
 6.517881878250000E9    -2.186792447823267E-1   -5.947042785933171E-3    1.884889925480121E-2   -1.143769368763917E-2    1.927465703025433E-2   -1.091813959619932E-2    2.684422444764348E-1    4.784435628085035E-1
 6.517893834400000E9    -2.184952486155265E-1   -5.926644819288227E-3    1.892448750387387E-2   -1.161985846550766E-2    1.938633450454757E-2   -1.102025491881828E-2    2.693287336509658E-1    4.779276762215979E-1
 6.517905790550000E9    -2.182147674732195E-1   -5.785354542346316E-3    1.916300199588830E-2   -1.187925060614470E-2    1.950963795542561E-2   -1.103458468188387E-2    2.701359643355366E-1    4.772500310498350E-1
 6.517917746700000E9    -2.181425694860032E-1   -5.717037273943492E-3    1.917877256336993E-2   -1.191403650967703E-2    1.957547024465772E-2   -1.137637350534576E-2    2.710900448612654E-1    4.767892446431417E-1
 6.517929702850000E9    -2.178613277670234E-1   -5.584210380150365E-3    1.931144279144645E-2   -1.210179926835708E-2    1.969192074425287E-2   -1.144950631378105E-2    2.719749905967712E-1    4.764235175765156E-1
 6.517941659000000E9    -2.175995320270060E-1   -5.598659839362870E-3    1.949169901120809E-2   -1.225919839515086E-2    1.981694874977387E-2   -1.153401848651725E-2    2.727794558031084E-1    4.757978407183788E-1
 6.517953615150000E9    -2.173118449670898E-1   -5.598729902843196E-3    1.962537469836280E-2   -1.225582720465432E-2    1.992040484564686E-2   -1.180703990431241E-2    2.737511456395564E-1    4.752726828392801E-1
 6.517965571300000E9    -2.171281552999751E-1   -5.433157346208719E-3    1.960403821001694E-2   -1.248694067329064E-2    2.010174463773902E-2   -1.182665232615951E-2    2.747768750674175E-1    4.748169875317020E-1
 6.517977527450000E9    -2.168701688191222E-1   -5.330973994147186E-3    1.972579854336349E-2   -1.268190720916200E-2    2.021239912520299E-2   -1.201057172240212E-2    2.755776758668993E-1    4.741612650240695E-1
 6.517989483600000E9    -2.167508130247420E-1   -5.229704499586475E-3    1.993183070596892E-2   -1.294289263725772E-2    2.032885145996418E-2   -1.217915509859033E-2    2.763895187207140E-1    4.736489884976428E-1
 6.518001439750000E9    -2.164807088887846E-1   -5.231186603583398E-3    2.013640334654126E-2   -1.294232214201012E-2    2.044313103809783E-2   -1.226334416210006E-2    2.773936460425993E-1    4.729499298186005E-1
 6.518013395900000E9    -2.162055566212271E-1   -5.205630696575144E-3    2.028775406841158E-2   -1.311050357085856E-2    2.064259064358086E-2   -1.254565599769756E-2    2.782633040048291E-1    4.725350769994697E-1
 6.518025352050000E9    -2.160906691670316E-1   -5.088366912036197E-3    2.040564070978209E-2   -1.341094030474193E-2    2.065873694631302E-2   -1.270867177055028E-2    2.790090981907335E-1    4.718574106221031E-1
 6.518037308200000E9    -2.157449528667797E-1   -5.028669010743976E-3    2.056446150253754E-2   -1.352553282861949E-2    2.080286043634355E-2   -1.293277618221319E-2    2.802455284514999E-1    4.714020946252878E-1
 6.518049264350000E9    -2.154910559424436E-1   -4.962195252106681E-3    2.057705433964845E-2   -1.363298164415143E-2    2.109390209353038E-2   -1.306402825621476E-2    2.808792185036088E-1    4.707909357258787E-1
 6.518061220500000E9    -2.152949267791473E-1   -4.958469894693454E-3    2.059039358680071E-2   -1.382745871166336E-2    2.116220805529677E-2   -1.324124418326350E-2    2.819187839610747E-1    4.703224972144521E-1
