#  HZ   S   RI   R     50.00 
! Rohde & Schwarz Vector Network Analyzer 
! Rohde-Schwarz,ZNB20-2Port,1311601062101988,3.16
! Created: UTC 12/23/2023, 4:05:11 AM
! freq[Hz]                re:S11                  im:S11                  re:S21                  im:S21                  re:S12                  im:S12                  re:S22                  im:S22
 6.517250871000000E9    -2.288072686857247E-1   -1.157893302722989E-2    1.380162068267974E-2   -5.981084644199571E-3    1.392637882296599E-2   -5.568543531872873E-3    2.211212596997875E-1    5.021832474606184E-1
 6.517262032100000E9    -2.286526090478538E-1   -1.141589010549528E-2    1.387016104426538E-2   -6.143718178131506E-3    1.396685606801537E-2   -5.619152371588409E-3    2.219627462151980E-1    5.019161864163867E-1
 6.517273193200000E9    -2.285098061643730E-1   -1.125716670558542E-2    1.394942492326307E-2   -6.068746758991022E-3    1.407524889176782E-2   -5.672183295192430E-3    2.227220411066125E-1    5.015611973621856E-1
 6.517284354300000E9    -2.283770404917351E-1   -1.099472878494079E-2    1.391762233475898E-2   -6.201461175831779E-3    1.414825531598399E-2   -5.734862950255761E-3    2.235113186364273E-1    5.011523579715803E-1
 6.517295515400000E9    -2.281806362538935E-1   -1.089811073168952E-2    1.392588227373213E-2   -6.289149561057348E-3    1.423053244369992E-2   -5.835528890600688E-3    2.245696865699493E-1    5.007723233185286E-1
 6.517306676500000E9    -2.281566212371125E-1   -1.064977413040427E-2    1.403574123730204E-2   -6.363631094958314E-3    1.418686433587409E-2   -5.734380420123510E-3    2.252748643018116E-1    5.005173211481396E-1
 6.517317837600000E9    -2.281084459007413E-1   -1.060534453623613E-2    1.412259863156726E-2   -6.366493777734477E-3    1.421801807620429E-2   -5.923573682407627E-3    2.261546369808473E-1    5.000835629175934E-1
 6.517328998700000E9    -2.279345273905839E-1   -1.045177731687561E-2    1.430273783452599E-2   -6.436560161160707E-3    1.442422674535357E-2   -5.984065242170688E-3    2.267429097925615E-1    4.997809709918885E-1
 6.517340159800000E9    -2.276662806814527E-1   -1.030794397315708E-2    1.418807420306717E-2   -6.427947344675683E-3    1.441865169714223E-2   -5.915620584052184E-3    2.277516374723103E-1    4.992006858754807E-1
 6.517351320900000E9    -2.276143953170180E-1   -1.004513856208380E-2    1.428453619617697E-2   -6.552368601623562E-3    1.455059878465730E-2   -6.104683737016491E-3    2.284971424627494E-1    4.989388257835147E-1
 6.517362482000000E9    -2.274000593333050E-1   -9.960102664921214E-3    1.424954884642639E-2   -6.615471943965364E-3    1.453277654537136E-2   -6.178687127690898E-3    2.294041421147408E-1    4.985604531243145E-1
 6.517373643100000E9    -2.274510412841990E-1   -9.773143278261322E-3    1.440752741759645E-2   -6.685828715587491E-3    1.456964417269018E-2   -6.191731374217891E-3    2.301455862756146E-1    4.982362885729621E-1
 6.517384804200000E9    -2.273320949795098E-1   -9.677051879104981E-3    1.453217180705888E-2   -6.751550538231700E-3    1.469810781175239E-2   -6.187887444912126E-3    2.310769605503412E-1    4.978859068845060E-1
 6.517395965300000E9    -2.270426876312360E-1   -9.403553498335958E-3    1.458165058365086E-2   -6.729048394257671E-3    1.473973044443718E-2   -6.296800004759208E-3    2.318199488493200E-1    4.974989868996154E-1
 6.517407126400000E9    -2.271050816137232E-1   -9.347457952285690E-3    1.470648164953784E-2   -6.914133142817068E-3    1.487045205318744E-2   -6.415225823029427E-3    2.326566722714197E-1    4.971079210001946E-1
 6.517418287500000E9    -2.268513374838942E-1   -9.238248862864637E-3    1.467121480914322E-2   -6.942606564846634E-3    1.485194351547686E-2   -6.382280715824809E-3    2.335303635269843E-1    4.968277243446387E-1
 6.517429448600000E9    -2.266576081293182E-1   -9.049577991601620E-3    1.470335970566272E-2   -7.166847303827589E-3    1.495826466953528E-2   -6.471450575761823E-3    2.344010352345986E-1    4.963614425608199E-1
 6.517440609700000E9    -2.266105159211599E-1   -8.846579913551499E-3    1.477310099673929E-2   -7.077362672677967E-3    1.496972695141887E-2   -6.442838036491528E-3    2.351953800467068E-1    4.960531388741388E-1
 6.517451770800000E9    -2.265003545061985E-1   -8.668414631519334E-3    1.492254636849532E-2   -7.148970486127420E-3    1.496083462795642E-2   -6.601352761386715E-3    2.358857537487358E-1    4.955723817471565E-1
 6.517462931900000E9    -2.263222474485869E-1   -8.578215520162694E-3    1.500437522011760E-2   -7.154584065781211E-3    1.524110712490769E-2   -6.725336696405891E-3    2.367965239685214E-1    4.953122332645255E-1
 6.517474093000000E9    -2.261633868128008E-1   -8.420072948932589E-3    1.503164063802819E-2   -7.325379653970647E-3    1.511515722103556E-2   -6.686910162826709E-3    2.376071102724870E-1    4.948884922233416E-1
 6.517485254100000E9    -2.259439239260074E-1   -8.229124523787646E-3    1.500728846353259E-2   -7.289085983583919E-3    1.525248702376663E-2   -6.755318851043335E-3    2.384209752512506E-1    4.945868283001391E-1
 6.517496415200000E9    -2.258998885592507E-1   -8.166276273183254E-3    1.515683788972374E-2   -7.494615240201679E-3    1.524249607201716E-2   -6.850652971833191E-3    2.392292157868564E-1    4.941181226693954E-1
 6.517507576300000E9    -2.256732884278365E-1   -7.966219806569433E-3    1.525678171565662E-2   -7.389646456052786E-3    1.543631318238241E-2   -7.014305381625271E-3    2.400864765676238E-1    4.937544758701514E-1
 6.517518737400000E9    -2.256077871007506E-1   -7.802802773619173E-3    1.530898541396439E-2   -7.561960897642552E-3    1.547352092629038E-2   -7.033727749168319E-3    2.409099139096292E-1    4.931819024923420E-1
 6.517529898500000E9    -2.254780274704830E-1   -7.712961354717845E-3    1.548859347762557E-2   -7.556089652688164E-3    1.550854525699323E-2   -7.160319393859209E-3    2.416896749026477E-1    4.929291919776843E-1
 6.517541059600000E9    -2.253275396685859E-1   -7.422795654469167E-3    1.533405310498673E-2   -7.654353878655139E-3    1.560798395349371E-2   -7.171608412666783E-3    2.425171954123354E-1    4.926180166115117E-1
 6.517552220700000E9    -2.251867007194020E-1   -7.344539017215704E-3    1.534433717563124E-2   -7.735330025606365E-3    1.561748708752256E-2   -7.312520126222936E-3    2.432588866904887E-1    4.922937063032031E-1
 6.517563381800000E9    -2.251425585356336E-1   -7.208434833038351E-3    1.557016256713784E-2   -7.989324147588515E-3    1.570341998308965E-2   -7.322999418621356E-3    2.440541846725897E-1    4.917497557070661E-1
 6.517574542900000E9    -2.248520038584690E-1   -7.131402902336296E-3    1.558895679800737E-2   -7.969975511314684E-3    1.578583999191442E-2   -7.389832764191194E-3    2.449907303179366E-1    4.914587849303532E-1
 6.517585704000000E9    -2.246599180986142E-1   -6.846474688496643E-3    1.580467252563134E-2   -7.895728136270838E-3    1.587187271343809E-2   -7.465352300478656E-3    2.457986511678469E-1    4.909781894442398E-1
 6.517596865100000E9    -2.246000992108360E-1   -6.708791025375463E-3    1.578781135694524E-2   -7.958576468002481E-3    1.594654139141084E-2   -7.602695434895799E-3    2.464486877456580E-1    4.905160361403108E-1
 6.517608026200000E9    -2.243941743490402E-1   -6.574922842777590E-3    1.576657171148874E-2   -8.097401889422417E-3    1.611037329163744E-2   -7.578352710998107E-3    2.473407172424568E-1    4.901566127808544E-1
 6.517619187300000E9    -2.242329074670639E-1   -6.488288276188112E-3    1.585909113388484E-2   -8.184897689963225E-3    1.615280404405443E-2   -7.735246386359795E-3    2.480882065686829E-1    4.896965843546398E-1
 6.517630348400000E9    -2.241031585798339E-1   -6.248888482926959E-3    1.608314679914778E-2   -8.399404558276312E-3    1.615224128106525E-2   -7.677576264183252E-3    2.490708352259570E-1    4.895055995379162E-1
 6.517641509500000E9    -2.239521781672572E-1   -6.206787509588635E-3    1.602519357715871E-2   -8.336966592328004E-3    1.616842947483620E-2   -7.834227898813261E-3    2.498988484034079E-1    4.888682739379218E-1
 6.517652670600000E9    -2.238043340206268E-1   -5.978870159352397E-3    1.611290414577231E-2   -8.408907296659400E-3    1.635714043588573E-2   -7.937277426571958E-3    2.506388148056540E-1    4.886377618083189E-1
 6.517663831700000E9    -2.236416084766649E-1   -5.951274356031256E-3    1.629255242063788E-2   -8.518527416622007E-3    1.649763230457657E-2   -8.017187126629872E-3    2.515181327072958E-1    4.880250730944917E-1
 6.517674992800000E9    -2.235923547533747E-1   -5.750237928521437E-3    1.626986498463347E-2   -8.641304724350023E-3    1.650855078789614E-2   -8.030040214215687E-3    2.522623599554178E-1    4.875213457259970E-1
 6.517686153900000E9    -2.233712738395550E-1   -5.704388757630295E-3    1.634382586145833E-2   -8.575047378874809E-3    1.655777166297283E-2   -8.099469210700629E-3    2.532202278909296E-1    4.871786506361758E-1
 6.517697315000000E9    -2.231061754209671E-1   -5.569510844299657E-3    1.643202303612182E-2   -8.737992243694741E-3    1.665881601950417E-2   -8.261696466515051E-3    2.538626327972754E-1    4.868858006699912E-1
 6.517708476100000E9    -2.230761902856681E-1   -5.460886076878238E-3    1.665465898631110E-2   -8.996975976066983E-3    1.675814663886066E-2   -8.316145750715919E-3    2.547246356259757E-1    4.863997958562803E-1
 6.517719637200000E9    -2.229891860370162E-1   -5.180166381132078E-3    1.663381333051575E-2   -9.108697798782968E-3    1.693299773349953E-2   -8.479109245242509E-3    2.555516840579433E-1    4.859136427044193E-1
 6.517730798300000E9    -2.226489114784119E-1   -5.013469900814380E-3    1.677747250969101E-2   -9.117100528161155E-3    1.695940953603466E-2   -8.465343071257354E-3    2.564028097715456E-1    4.855870647148250E-1
 6.517741959400000E9    -2.225455101440423E-1   -5.012837471589929E-3    1.679332069073130E-2   -9.224210618422473E-3    1.702442135684739E-2   -8.488306568280141E-3    2.572311564577019E-1    4.852265412926107E-1
 6.517753120500000E9    -2.223915548139545E-1   -4.880797322662341E-3    1.683103526851195E-2   -9.321518154992960E-3    1.708828546481756E-2   -8.766600676568037E-3    2.580289231434429E-1    4.847409553047615E-1
 6.517764281600000E9    -2.221116462530504E-1   -4.766363360552746E-3    1.704017851884355E-2   -9.361178314499537E-3    1.722243919620574E-2   -8.808572183225413E-3    2.588372294183830E-1    4.842949416762020E-1
 6.517775442700000E9    -2.220208408910825E-1   -4.665709363238233E-3    1.709004323446472E-2   -9.397710587993517E-3    1.734002239627825E-2   -8.889526135038336E-3    2.595442017274257E-1    4.838455334911660E-1
 6.517786603800000E9    -2.218993371289357E-1   -4.536682506698596E-3    1.711148341110098E-2   -9.542026326113420E-3    1.737559454017329E-2   -8.989187788340106E-3    2.604530137687839E-1    4.834278804281105E-1
 6.517797764900000E9    -2.217659909963750E-1   -4.381696543348172E-3    1.730630458440987E-2   -9.561703380785812E-3    1.749846104706440E-2   -8.974526498491122E-3    2.612883313748392E-1    4.829817496228464E-1
 6.517808926000000E9    -2.215889165204880E-1   -4.333239913511982E-3    1.724486012154627E-2   -9.708650406316532E-3    1.754437333943657E-2   -9.279751668728284E-3    2.622576719730572E-1    4.823655094671685E-1
 6.517820087100000E9    -2.214146312284121E-1   -4.297200775601526E-3    1.738768007029360E-2   -9.842387063601384E-3    1.772499703821035E-2   -9.171582877521385E-3    2.630198121462019E-1    4.820496611544119E-1
 6.517831248200000E9    -2.211605435240653E-1   -3.942856761207639E-3    1.739866952302541E-2   -1.004134521334557E-2    1.772661816943329E-2   -9.424169010890231E-3    2.638130412452210E-1    4.815319165011947E-1
 6.517842409300000E9    -2.210386309873801E-1   -3.852276746308017E-3    1.756217119386257E-2   -1.013769104435877E-2    1.788807942675948E-2   -9.434960013333646E-3    2.646636341927216E-1    4.811645320221077E-1
 6.517853570400000E9    -2.207992510201875E-1   -3.802674828683942E-3    1.763782653388799E-2   -1.003441227346134E-2    1.786625135347169E-2   -9.529149693019811E-3    2.654473917631335E-1    4.805988415659662E-1
 6.517864731500000E9    -2.207134045732746E-1   -3.721983307231589E-3    1.773148539265252E-2   -1.040551353767006E-2    1.793063766400587E-2   -9.657670233324809E-3    2.663605953760673E-1    4.801751962212662E-1
 6.517875892600000E9    -2.204688454791669E-1   -3.667955447942634E-3    1.785937082102153E-2   -1.038519279519672E-2    1.816646040037911E-2   -9.794820447493956E-3    2.669443550464857E-1    4.797835624024738E-1
 6.517887053700000E9    -2.203501247174040E-1   -3.379836590589214E-3    1.796568030869952E-2   -1.040622589928866E-2    1.819844832779447E-2   -9.969467507087059E-3    2.679705736363441E-1    4.793619797169468E-1
 6.517898214800000E9    -2.201781480409358E-1   -3.391495927249684E-3    1.810868389844981E-2   -1.054125078692598E-2    1.837301390058343E-2   -1.001779492122043E-2    2.686375348221297E-1    4.787909412752482E-1
 6.517909375900000E9    -2.199695049908025E-1   -3.332703390734148E-3    1.809978897596014E-2   -1.073647334191447E-2    1.838259231248135E-2   -1.007299469087931E-2    2.695207534593436E-1    4.782827338417922E-1
 6.517920537000000E9    -2.198384547141381E-1   -3.153294274208778E-3    1.815584020735462E-2   -1.094020294613141E-2    1.864218164809302E-2   -1.025975163123299E-2    2.704933129600279E-1    4.777954231394739E-1
 6.517931698100000E9    -2.195027475355574E-1   -3.075201603432757E-3    1.821278091131654E-2   -1.093886547231880E-2    1.876866830039122E-2   -1.033852989637978E-2    2.713263879878654E-1    4.773024247308517E-1
 6.517942859200000E9    -2.193257998307085E-1   -3.053205826503929E-3    1.850038533306299E-2   -1.098552906482668E-2    1.879699410256371E-2   -1.053277156718774E-2    2.719221961069792E-1    4.768565425340162E-1
 6.517954020300000E9    -2.190323121935963E-1   -2.935804837334443E-3    1.865630636915201E-2   -1.115713224171035E-2    1.884267244034808E-2   -1.059551242504313E-2    2.728795933741565E-1    4.764645514518696E-1
 6.517965181400000E9    -2.188951435144537E-1   -2.833276077796225E-3    1.867522157998462E-2   -1.126048140685290E-2    1.905171971366037E-2   -1.073741517992233E-2    2.737781651015013E-1    4.758642866426452E-1
 6.517976342500000E9    -2.187413801584739E-1   -2.739715475476738E-3    1.873273436839230E-2   -1.135514493375682E-2    1.913315713950149E-2   -1.081043067937549E-2    2.745771161968048E-1    4.754152382541406E-1
 6.517987503600000E9    -2.185520000956612E-1   -2.615241130243202E-3    1.889389741021518E-2   -1.163651921789667E-2    1.918817450798484E-2   -1.095584239594413E-2    2.754314194836091E-1    4.750820135969889E-1
 6.517998664700000E9    -2.183599666638527E-1   -2.510305383187725E-3    1.892442752085859E-2   -1.166028257854038E-2    1.933509414348020E-2   -1.118436345126159E-2    2.761310485159477E-1    4.744424988984535E-1
 6.518009825800000E9    -2.182142885489196E-1   -2.498366727113290E-3    1.910897349017267E-2   -1.173756451394150E-2    1.946433772379687E-2   -1.123080811350940E-2    2.769148300572349E-1    4.739580784121202E-1
 6.518020986900000E9    -2.179101352433732E-1   -2.396102007960079E-3    1.922042614845461E-2   -1.199705227692170E-2    1.964938125530378E-2   -1.138231751679615E-2    2.778638007300429E-1    4.735905525811361E-1
 6.518032148000000E9    -2.177605755501953E-1   -2.301992688919287E-3    1.927975987048926E-2   -1.205046253650425E-2    1.964770649992906E-2   -1.148061850225137E-2    2.786462952404734E-1    4.729334340124582E-1
 6.518043309100000E9    -2.175027065773375E-1   -2.217628144206244E-3    1.937736912853317E-2   -1.220417423502160E-2    1.975509525123133E-2   -1.160395831339816E-2    2.794713610124326E-1    4.725676021967228E-1
 6.518054470200000E9    -2.172419732002414E-1   -2.141993638721677E-3    1.952239859323279E-2   -1.245205937203023E-2    1.989750747595874E-2   -1.179353169087138E-2    2.803128966505743E-1    4.720530619591554E-1
 6.518065631300000E9    -2.170073043698764E-1   -2.049773646881793E-3    1.965967699419218E-2   -1.242367496607186E-2    1.999393503382724E-2   -1.186648909547154E-2    2.810031176499816E-1    4.714556002073972E-1
 6.518076792400000E9    -2.169237778068512E-1   -2.048367511625769E-3    1.956339651732581E-2   -1.272879515408478E-2    2.011448024695609E-2   -1.212189466053322E-2    2.819450601954254E-1    4.709234810122426E-1
 6.518087953500000E9    -2.166634060634646E-1   -1.906371232439611E-3    1.992443262312095E-2   -1.287922203760054E-2    2.032739306525597E-2   -1.218542556724955E-2    2.827481379930763E-1    4.703515472722396E-1
 6.518099114600000E9    -2.164808494454156E-1   -1.776305172787667E-3    1.994363214539799E-2   -1.282196361706954E-2    2.033333198732287E-2   -1.235976685583380E-2    2.837234779763380E-1    4.698941095925195E-1
 6.518110275700000E9    -2.161659991925476E-1   -1.835598541052155E-3    2.011772798431198E-2   -1.307255213986810E-2    2.051880471835242E-2   -1.243129114956598E-2    2.845120250923877E-1    4.694821570052733E-1
 6.518121436800000E9    -2.160161249053641E-1   -1.739029645780724E-3    2.019655035968842E-2   -1.315127997599621E-2    2.062824906849121E-2   -1.256550404345886E-2    2.852931114546843E-1    4.689075481070016E-1
 6.518132597900000E9    -2.157789032830990E-1   -1.706314081022262E-3    2.028320658965549E-2   -1.334841599229124E-2    2.078530448931086E-2   -1.281677519815366E-2    2.861023651339630E-1    4.682806645023514E-1
 6.518143759000000E9    -2.154804363898513E-1   -1.616756524777639E-3    2.046482300746249E-2   -1.349142967718290E-2    2.084339823739758E-2   -1.292186514905260E-2    2.869304078401109E-1    4.678654298621058E-1
 6.518154920100000E9    -2.152248662201951E-1   -1.687073872931296E-3    2.059468045410179E-2   -1.364887553289719E-2    2.095334146562376E-2   -1.308738711709242E-2    2.877433349157360E-1    4.671426892116994E-1
 6.518166081200000E9    -2.149885728974452E-1   -1.603586632886008E-3    2.091653876669325E-2   -1.390448636644546E-2    2.105744134379021E-2   -1.326194337663090E-2    2.885611159415831E-1    4.666536131699422E-1
 6.518177242300000E9    -2.147116972788706E-1   -1.521157966445838E-3    2.076983402775475E-2   -1.408845675425125E-2    2.137276638670637E-2   -1.345804378202571E-2    2.894878206638021E-1    4.660688802971964E-1
 6.518188403400000E9    -2.145726931245508E-1   -1.372837191674340E-3    2.095772591661772E-2   -1.424778528228652E-2    2.140782918639327E-2   -1.352552779921160E-2    2.903001170697925E-1    4.655206723783142E-1
 6.518199564500000E9    -2.143791810029548E-1   -1.503240852877144E-3    2.105506971179734E-2   -1.434263226500119E-2    2.165407182363442E-2   -1.375340983127710E-2    2.909980936220959E-1    4.650210201338916E-1
 6.518210725600000E9    -2.140958030586040E-1   -1.335981915342763E-3    2.128657909727251E-2   -1.464322371397095E-2    2.166546362412259E-2   -1.393958524101714E-2    2.919169190215145E-1    4.645200787388555E-1
 6.518221886700000E9    -2.138754941162880E-1   -1.322253622314329E-3    2.130742722368602E-2   -1.473421295469322E-2    2.186907020795373E-2   -1.415121558059866E-2    2.928204058701658E-1    4.638743679560990E-1
 6.518233047800000E9    -2.136455856646259E-1   -1.381704052587035E-3    2.146136501231658E-2   -1.495337076445963E-2    2.209535252717274E-2   -1.433966235836714E-2    2.936322795359021E-1    4.632831787722354E-1
 6.518244208900000E9    -2.132501745194343E-1   -1.321151833067834E-3    2.172116504481493E-2   -1.526012008775798E-2    2.223846907639016E-2   -1.451691352407737E-2    2.944460614151987E-1    4.627960648477759E-1
 6.518255370000000E9    -2.129739585275306E-1   -1.281687281810142E-3    2.181701601408010E-2   -1.534949763108860E-2    2.228390753743152E-2   -1.464776492654773E-2    2.953983666580432E-1    4.621924534304588E-1
