#  HZ   S   RI   R     50.00 
! Rohde & Schwarz Vector Network Analyzer 
! Rohde-Schwarz,ZNB20-2Port,1311601062101988,3.16
! Created: UTC 12/23/2023, 3:38:14 AM
! freq[Hz]                re:S11                  im:S11                  re:S21                  im:S21                  re:S12                  im:S12                  re:S22                  im:S22
 6.517082433000000E9    -2.299819863410598E-1   -1.551957509164683E-2    1.343119703969429E-2   -5.602169458208086E-3    1.349139088943588E-2   -5.134450258049345E-3    2.097485161631198E-1    5.069198504383998E-1
 6.517093999150000E9    -2.300574076059244E-1   -1.534897315626772E-2    1.337034022603589E-2   -5.609594661446192E-3    1.350525177698297E-2   -5.192775938185676E-3    2.105815113230016E-1    5.067344225292235E-1
 6.517105565300000E9    -2.299066968553655E-1   -1.524365123493295E-2    1.359598430452153E-2   -5.765623518845915E-3    1.363020343937489E-2   -5.235076615397666E-3    2.114972102345781E-1    5.063640815531891E-1
 6.517117131450000E9    -2.296973063733907E-1   -1.511172619319221E-2    1.369939255693961E-2   -5.682924036030285E-3    1.373671633828689E-2   -5.334460782271878E-3    2.123475817893375E-1    5.060085380120388E-1
 6.517128697600000E9    -2.296124808294471E-1   -1.482947451069853E-2    1.355476759670702E-2   -5.884606084440428E-3    1.379394961753306E-2   -5.446446057626655E-3    2.132869048223047E-1    5.055327868118649E-1
 6.517140263750000E9    -2.295240310527328E-1   -1.471261243717180E-2    1.366627406461524E-2   -5.910586077449987E-3    1.379504609879164E-2   -5.369645963388658E-3    2.140766441416843E-1    5.052180165398542E-1
 6.517151829900000E9    -2.293832407554252E-1   -1.445046674725933E-2    1.377832994327622E-2   -5.814984525307484E-3    1.392276053845109E-2   -5.446643173067943E-3    2.147913665253061E-1    5.049028807045582E-1
 6.517163396050000E9    -2.292365401246777E-1   -1.436123165308525E-2    1.381881351906944E-2   -5.930207713566353E-3    1.392931031912666E-2   -5.503074622296916E-3    2.157196964382330E-1    5.045031953999368E-1
 6.517174962200000E9    -2.290664398077135E-1   -1.409207429985216E-2    1.391125383647141E-2   -6.011029819117287E-3    1.403056089321598E-2   -5.522895068107995E-3    2.164433274735084E-1    5.040791069107908E-1
 6.517186528350000E9    -2.289804740199513E-1   -1.398581073862901E-2    1.399821978385912E-2   -6.121736930799716E-3    1.412829399862481E-2   -5.598036334072267E-3    2.173300964029423E-1    5.038891218696983E-1
 6.517198094500000E9    -2.288258715776137E-1   -1.386281285206482E-2    1.403127867581768E-2   -6.057789076762054E-3    1.412339424990224E-2   -5.636443901708431E-3    2.182854892810905E-1    5.035174021300437E-1
 6.517209660650000E9    -2.285164843884002E-1   -1.371344527979790E-2    1.402032940471083E-2   -6.143011768967680E-3    1.408375479523190E-2   -5.777551913522302E-3    2.191916290960005E-1    5.031244524853785E-1
 6.517221226800000E9    -2.284331483079370E-1   -1.355656434874183E-2    1.407454425325021E-2   -6.373460140464439E-3    1.418984349765637E-2   -5.828424963023177E-3    2.200029136575666E-1    5.028916256111016E-1
 6.517232792950000E9    -2.285238816386836E-1   -1.331043364586107E-2    1.416571980521680E-2   -6.394838541070651E-3    1.438257001671385E-2   -5.863078833831463E-3    2.208329520605713E-1    5.024964922358633E-1
 6.517244359100000E9    -2.282843027928731E-1   -1.308732992412527E-2    1.419384161987499E-2   -6.324346656299424E-3    1.445450797284887E-2   -5.910622822806738E-3    2.215443905770495E-1    5.021139887775865E-1
 6.517255925250000E9    -2.281154028863707E-1   -1.300236205591915E-2    1.417933023993237E-2   -6.397172254903403E-3    1.443846634637531E-2   -5.907564857345175E-3    2.224795203773054E-1    5.016218275176586E-1
 6.517267491400000E9    -2.281046080803755E-1   -1.279388630629606E-2    1.434528207264970E-2   -6.550761203094634E-3    1.456801112280170E-2   -6.028751840777931E-3    2.234208545736658E-1    5.015265856565794E-1
 6.517279057550000E9    -2.279242667070377E-1   -1.270048767822982E-2    1.443085799231329E-2   -6.563652971141980E-3    1.455316690760568E-2   -6.058315074492061E-3    2.241242069824305E-1    5.009299368423027E-1
 6.517290623700000E9    -2.277945676054547E-1   -1.236812269372451E-2    1.435510111557400E-2   -6.614642427777651E-3    1.460555067452942E-2   -6.173039937725306E-3    2.250132615029211E-1    5.006035844053058E-1
 6.517302189850000E9    -2.276880164135945E-1   -1.228748928677029E-2    1.446355808764690E-2   -6.570595753922903E-3    1.467627384991180E-2   -6.194531466657783E-3    2.259927607452091E-1    5.001771761419918E-1
 6.517313756000000E9    -2.275218944667963E-1   -1.216443523529791E-2    1.461809760730554E-2   -6.833508211500436E-3    1.466781549854371E-2   -6.119883441248213E-3    2.267938030028619E-1    4.997309244642001E-1
 6.517325322150000E9    -2.274350744092341E-1   -1.206137696783726E-2    1.467902530362357E-2   -6.806810343450246E-3    1.478695973116013E-2   -6.412786623274514E-3    2.275648355750901E-1    4.993875608164452E-1
 6.517336888300000E9    -2.272443346764405E-1   -1.172162746409053E-2    1.482381242849166E-2   -6.826616235842022E-3    1.490821043929775E-2   -6.389153309072999E-3    2.285435667082503E-1    4.991134418876242E-1
 6.517348454450000E9    -2.270710626341175E-1   -1.167648343971716E-2    1.490315536516666E-2   -6.899687194983716E-3    1.492494713923000E-2   -6.509801950972889E-3    2.292063639521565E-1    4.986719999613448E-1
 6.517360020600000E9    -2.269276205708870E-1   -1.143601551876715E-2    1.480735852166219E-2   -7.088829058283129E-3    1.508908384877584E-2   -6.491866013520971E-3    2.302822026229845E-1    4.983836347858457E-1
 6.517371586750000E9    -2.269129860469077E-1   -1.120802702999299E-2    1.500220931037618E-2   -7.038069244835307E-3    1.502580419937781E-2   -6.619425911578515E-3    2.309132315978032E-1    4.978181371977586E-1
 6.517383152900000E9    -2.267418271511557E-1   -1.110442644855705E-2    1.495171981362531E-2   -7.141082008542621E-3    1.521035582770482E-2   -6.650326952171143E-3    2.319189588868041E-1    4.975049263365761E-1
 6.517394719050000E9    -2.265069426155784E-1   -1.098626976618630E-2    1.506150283283597E-2   -7.169061187723686E-3    1.525756263140321E-2   -6.699074012351345E-3    2.326593672460223E-1    4.970340666786983E-1
 6.517406285200000E9    -2.263762831537341E-1   -1.083330091990770E-2    1.508101192851492E-2   -7.249828903643707E-3    1.527484203203250E-2   -6.770055750315657E-3    2.337199748883993E-1    4.968660016631681E-1
 6.517417851350000E9    -2.262699464611378E-1   -1.056046505114943E-2    1.527069801255340E-2   -7.452953478667516E-3    1.541720190989259E-2   -6.799025993369188E-3    2.344821127850579E-1    4.964446340824499E-1
 6.517429417500000E9    -2.262965679607857E-1   -1.049910888181567E-2    1.519658952211925E-2   -7.503022470906076E-3    1.546607707165315E-2   -6.969050271787610E-3    2.353742136474138E-1    4.960150823346092E-1
 6.517440983650000E9    -2.260879315382518E-1   -1.038878999515974E-2    1.546636061090068E-2   -7.543832536609511E-3    1.561858082924650E-2   -6.984389734148832E-3    2.361069300947334E-1    4.954557325798984E-1
 6.517452549800000E9    -2.258417084976072E-1   -1.023017369286289E-2    1.545322135240589E-2   -7.600818350932879E-3    1.560383505061793E-2   -7.127686268366969E-3    2.371459561557881E-1    4.950145372236568E-1
 6.517464115950000E9    -2.256259971347384E-1   -1.001812323932711E-2    1.556874342888405E-2   -7.629893782375030E-3    1.564064301999250E-2   -7.138636418056500E-3    2.379478656213496E-1    4.946586061980757E-1
 6.517475682100000E9    -2.255777972762862E-1   -9.919557203233146E-3    1.554403550120362E-2   -7.675537105031916E-3    1.579152886486617E-2   -7.312998080333540E-3    2.388538513087772E-1    4.943694482821563E-1
 6.517487248250000E9    -2.254964173252379E-1   -9.981239642430693E-3    1.559833160659383E-2   -7.827070145862513E-3    1.587988900038606E-2   -7.355508770469776E-3    2.395198041573091E-1    4.940139268933411E-1
 6.517498814400000E9    -2.252442773016436E-1   -9.628427591921647E-3    1.558937214410267E-2   -7.917897877495536E-3    1.595039920980762E-2   -7.349884373198002E-3    2.403651464774714E-1    4.935804671522208E-1
 6.517510380550000E9    -2.250959538662995E-1   -9.381634423175723E-3    1.576408391895975E-2   -8.048863854996655E-3    1.591948118089400E-2   -7.469863671102017E-3    2.413301656343976E-1    4.931233575911779E-1
 6.517521946700000E9    -2.249069683942808E-1   -9.312472690180837E-3    1.595114835657203E-2   -8.068499871096172E-3    1.605324382354093E-2   -7.555825110557263E-3    2.422664806661973E-1    4.927179943033969E-1
 6.517533512850000E9    -2.247966747526167E-1   -9.154271451076994E-3    1.614047016629639E-2   -8.103934209665722E-3    1.612884353337783E-2   -7.580460893172464E-3    2.429917677177899E-1    4.923828213612656E-1
 6.517545079000000E9    -2.246699551889686E-1   -9.084678841523674E-3    1.602198968503193E-2   -8.225867259987826E-3    1.628266970627221E-2   -7.667623770893900E-3    2.439069224004769E-1    4.918364903289512E-1
 6.517556645150000E9    -2.244628653982131E-1   -8.915675938764965E-3    1.609062614142792E-2   -8.292868262728069E-3    1.630260592112660E-2   -7.744054309911851E-3    2.447962765661891E-1    4.914350211632553E-1
 6.517568211300000E9    -2.243696591733556E-1   -8.817737760446935E-3    1.616804364835287E-2   -8.443005313036985E-3    1.634231381734328E-2   -7.875077189155038E-3    2.454926228080532E-1    4.910940240873085E-1
 6.517579777450000E9    -2.240952279713993E-1   -8.513730834903374E-3    1.613358670687812E-2   -8.443412775538499E-3    1.646698556175607E-2   -7.963225584254168E-3    2.464523259171879E-1    4.907189353685567E-1
 6.517591343600000E9    -2.240249582598980E-1   -8.441838961252715E-3    1.641665920249712E-2   -8.522163352151932E-3    1.659595717907237E-2   -7.992923067981153E-3    2.472105673082829E-1    4.901313974767005E-1
 6.517602909750000E9    -2.239278106139602E-1   -8.389589055048717E-3    1.649259728123394E-2   -8.719347773422204E-3    1.663017899188096E-2   -8.034852904480312E-3    2.480748246698997E-1    4.897330788438355E-1
 6.517614475900000E9    -2.236594545345394E-1   -8.093363192343835E-3    1.667762023694580E-2   -8.882463334203880E-3    1.674105656719291E-2   -8.273305345288570E-3    2.489661885959863E-1    4.893279031609488E-1
 6.517626042050000E9    -2.234377902032700E-1   -8.092626314970174E-3    1.657568150707954E-2   -8.874332315054486E-3    1.681248926940961E-2   -8.309077860654357E-3    2.499011965738206E-1    4.890226588907934E-1
 6.517637608200000E9    -2.233797572883111E-1   -7.957384362252296E-3    1.665263057858931E-2   -8.915085251419702E-3    1.691292073119560E-2   -8.392412388305239E-3    2.506844263869850E-1    4.884887365586268E-1
 6.517649174350000E9    -2.231515286738037E-1   -7.798795390672471E-3    1.680688465063714E-2   -9.041188561390665E-3    1.708304013899137E-2   -8.498156954537190E-3    2.515636964405624E-1    4.880426151172981E-1
 6.517660740500000E9    -2.230183850879197E-1   -7.644953468169816E-3    1.685235170711516E-2   -9.126940723114178E-3    1.719003415584567E-2   -8.516919187928497E-3    2.524771277407644E-1    4.875306606228476E-1
 6.517672306650000E9    -2.228965346996085E-1   -7.443504485117707E-3    1.691407056651100E-2   -9.120231716237314E-3    1.723308805254027E-2   -8.626745357330358E-3    2.532969686148148E-1    4.871050752436096E-1
 6.517683872800000E9    -2.226601812531175E-1   -7.357165643732171E-3    1.703307796259934E-2   -9.304404272683978E-3    1.723614946213159E-2   -8.754688912776197E-3    2.540572395729701E-1    4.866601630423227E-1
 6.517695438950000E9    -2.225708139298704E-1   -7.327076073272686E-3    1.706674995539772E-2   -9.515427554481929E-3    1.738639809802705E-2   -8.928942256860558E-3    2.549951789060792E-1    4.860505722723276E-1
 6.517707005100000E9    -2.224022631207444E-1   -7.221255308311652E-3    1.721254978559170E-2   -9.423094766399990E-3    1.740260669231148E-2   -8.953640699992682E-3    2.557551785263999E-1    4.857557677009813E-1
 6.517718571250000E9    -2.220529364949984E-1   -7.044342308516497E-3    1.721269784470266E-2   -9.529288742175955E-3    1.749141034820056E-2   -9.110565563069509E-3    2.566498808610607E-1    4.853292640099469E-1
 6.517730137400000E9    -2.219562159372112E-1   -6.927691838821255E-3    1.744923152121030E-2   -9.650814948830857E-3    1.770679284775336E-2   -9.162741041636457E-3    2.575048465120630E-1    4.848240661353204E-1
 6.517741703550000E9    -2.218498050873742E-1   -6.739836524511583E-3    1.747619903791077E-2   -9.908636468783531E-3    1.774780078425273E-2   -9.158048579706205E-3    2.584402742164262E-1    4.843265982225857E-1
 6.517753269700000E9    -2.215612340901068E-1   -6.558554494410642E-3    1.758154102498350E-2   -1.004512204781436E-2    1.787438435508690E-2   -9.300931671466190E-3    2.592456201460644E-1    4.839764799336704E-1
 6.517764835850000E9    -2.214517395070814E-1   -6.557701551579804E-3    1.765110596714298E-2   -9.896839162028572E-3    1.787766941931376E-2   -9.423616031161755E-3    2.602347026671701E-1    4.832939214353079E-1
 6.517776402000000E9    -2.212435639285298E-1   -6.439890106248915E-3    1.776471574523906E-2   -1.011765598538006E-2    1.807618784241033E-2   -9.515470389408285E-3    2.609227380378479E-1    4.829292529124979E-1
 6.517787968150000E9    -2.210465372117825E-1   -6.363582995949398E-3    1.791272223301664E-2   -1.023479375418812E-2    1.817468350303401E-2   -9.676292429477915E-3    2.618486150832187E-1    4.825479112138037E-1
 6.517799534300000E9    -2.209685941140219E-1   -6.218896984544805E-3    1.788744975057576E-2   -1.037077699110744E-2    1.834555036522224E-2   -9.760099803813498E-3    2.626864427150982E-1    4.821402569004376E-1
 6.517811100450000E9    -2.206357705072082E-1   -6.021571367244745E-3    1.808292406906205E-2   -1.038861080990111E-2    1.824777419679345E-2   -9.876229511934100E-3    2.635315571773387E-1    4.815831396574409E-1
 6.517822666600000E9    -2.204983288024467E-1   -5.986214296359114E-3    1.809130340307703E-2   -1.054912046340066E-2    1.855850428946027E-2   -1.006675029491846E-2    2.643513276408494E-1    4.810596566610920E-1
 6.517834232750000E9    -2.202829835869643E-1   -5.797900127696388E-3    1.830310074711528E-2   -1.067633069525277E-2    1.865083670252227E-2   -1.013830814120086E-2    2.652514442168334E-1    4.805865114896489E-1
 6.517845798900000E9    -2.201219490463570E-1   -5.735504598904620E-3    1.833239199383759E-2   -1.077802197146281E-2    1.867373328924717E-2   -1.032922331419801E-2    2.661867196052317E-1    4.800184825724943E-1
 6.517857365050000E9    -2.199277775364331E-1   -5.648677523390025E-3    1.844724035642868E-2   -1.098178701559892E-2    1.877804316271659E-2   -1.032238530828164E-2    2.669973757971734E-1    4.797467561138556E-1
 6.517868931200000E9    -2.197367691147124E-1   -5.614524663885394E-3    1.875174890403760E-2   -1.113377864746613E-2    1.890682934365277E-2   -1.055065511502873E-2    2.678569116676519E-1    4.791193082109321E-1
 6.517880497350000E9    -2.195805333792133E-1   -5.442990136146770E-3    1.866356056283778E-2   -1.123389194599917E-2    1.896093165532358E-2   -1.055793690900820E-2    2.686618425918883E-1    4.787136834903314E-1
 6.517892063500000E9    -2.193483911950743E-1   -5.456498051326752E-3    1.883238010278040E-2   -1.136665625908946E-2    1.910559050975835E-2   -1.080353202867539E-2    2.695919516836910E-1    4.783043345303979E-1
 6.517903629650000E9    -2.190249064643328E-1   -5.360546821285638E-3    1.880966292203295E-2   -1.150738779839811E-2    1.925821111698187E-2   -1.089697607195683E-2    2.703123157170096E-1    4.776312946279432E-1
 6.517915195800000E9    -2.189589878026695E-1   -5.255468485255066E-3    1.916289679532002E-2   -1.163204399501319E-2    1.925613544564716E-2   -1.108574821078227E-2    2.712305526637689E-1    4.771778095719742E-1
 6.517926761950000E9    -2.186926702285626E-1   -5.054370452550082E-3    1.917059887377292E-2   -1.178704267374149E-2    1.946834998268412E-2   -1.111351246411431E-2    2.722191648716656E-1    4.767586224173127E-1
 6.517938328100000E9    -2.184109669163794E-1   -5.016329085978049E-3    1.915884284720699E-2   -1.189483675904385E-2    1.957981477435255E-2   -1.128658989137017E-2    2.729354188838607E-1    4.760567849498935E-1
 6.517949894250000E9    -2.182743754747488E-1   -4.935834667311339E-3    1.935603374918051E-2   -1.202439398987291E-2    1.972748331463373E-2   -1.148392039348174E-2    2.739053465022872E-1    4.755804884975567E-1
 6.517961460400000E9    -2.179813241620417E-1   -4.980208047911041E-3    1.953845647824791E-2   -1.219540088236952E-2    1.979843518306554E-2   -1.152650483817062E-2    2.747241779493330E-1    4.750127915838123E-1
 6.517973026550000E9    -2.178521158975601E-1   -4.798161412677385E-3    1.952368022183426E-2   -1.240381519098540E-2    1.994476300846667E-2   -1.171425051986341E-2    2.755616127232696E-1    4.746400854849584E-1
 6.517984592700000E9    -2.176733587024300E-1   -4.757730344043727E-3    1.972415849367975E-2   -1.249617212403271E-2    2.006196448547291E-2   -1.190408336139528E-2    2.765754645963776E-1    4.739911190647370E-1
 6.517996158850000E9    -2.173059758279269E-1   -4.686330852336572E-3    1.977670389247481E-2   -1.252898968148944E-2    2.021869022660706E-2   -1.217213854535222E-2    2.772978915597284E-1    4.735296655988132E-1
 6.518007725000000E9    -2.171081139689245E-1   -4.709413836738728E-3    1.990986710923123E-2   -1.272821273818742E-2    2.029482749797307E-2   -1.215900916128686E-2    2.781776887404472E-1    4.730743496459335E-1
 6.518019291150000E9    -2.169156456278947E-1   -4.469220590568712E-3    2.010520913356241E-2   -1.291148769448444E-2    2.042734595640258E-2   -1.229311681860825E-2    2.789857476910137E-1    4.723694863151578E-1
 6.518030857300000E9    -2.167685097639421E-1   -4.351321694880844E-3    2.020467651734911E-2   -1.303870983809624E-2    2.060187086539089E-2   -1.252458354574228E-2    2.799454930307468E-1    4.719458006740033E-1
 6.518042423450000E9    -2.165378987161097E-1   -4.320194450284741E-3    2.025329873205376E-2   -1.332674718615646E-2    2.074238086013160E-2   -1.260969198224844E-2    2.808719860968855E-1    4.714877915694587E-1
 6.518053989600000E9    -2.163307899240443E-1   -4.318953930963166E-3    2.039499975483830E-2   -1.349058094991168E-2    2.084772231791479E-2   -1.270795507065134E-2    2.815983673961755E-1    4.709806207702547E-1
 6.518065555750000E9    -2.159932449759731E-1   -4.224344700379797E-3    2.061822444687739E-2   -1.366222117675973E-2    2.099425098693990E-2   -1.282242262859306E-2    2.824728276789196E-1    4.702497345669004E-1
 6.518077121900000E9    -2.157674803462653E-1   -4.264448744330134E-3    2.063887826185747E-2   -1.382339684948339E-2    2.121302093165867E-2   -1.311202057248031E-2    2.834187385950034E-1    4.697879214643718E-1
 6.518088688050000E9    -2.156655457568409E-1   -4.214582405840966E-3    2.080484008213100E-2   -1.398744290571389E-2    2.137785058594335E-2   -1.336562936977971E-2    2.842525602279775E-1    4.691698725942254E-1
 6.518100254200000E9    -2.153240125820947E-1   -4.206762720762225E-3    2.094222749088159E-2   -1.426394917656827E-2    2.136468593094731E-2   -1.340139239655470E-2    2.851395883745040E-1    4.686026978492556E-1
 6.518111820350000E9    -2.150169275349194E-1   -4.207804198851376E-3    2.092589438251140E-2   -1.435591194727213E-2    2.173284956285252E-2   -1.376853482322886E-2    2.859105294774379E-1    4.681804100753102E-1
 6.518123386500000E9    -2.148622097031998E-1   -4.093573448600099E-3    2.131214684066726E-2   -1.445237240208671E-2    2.175860491908623E-2   -1.383015702398678E-2    2.868140065746492E-1    4.675470620152221E-1
