#  HZ   S   RI   R     50.00 
! Rohde & Schwarz Vector Network Analyzer 
! Rohde-Schwarz,ZNB20-2Port,1311601062101988,3.16
! Created: UTC 12/23/2023, 3:34:50 AM
! freq[Hz]                re:S11                  im:S11                  re:S21                  im:S21                  re:S12                  im:S12                  re:S22                  im:S22
 6.517137729000000E9    -2.299837969132996E-1   -1.410793282702415E-2    1.372046376170335E-2   -5.777241236993171E-3    1.367970537502571E-2   -5.364316348306056E-3    2.140047109225125E-1    5.053728105771141E-1
 6.517149097800000E9    -2.297380031235796E-1   -1.384416749578143E-2    1.374769706191905E-2   -5.909963258249265E-3    1.375393465283653E-2   -5.331637386160368E-3    2.148391940495238E-1    5.048533691495642E-1
 6.517160466600000E9    -2.297098580348005E-1   -1.376846034095885E-2    1.354649309857340E-2   -5.914399968344209E-3    1.383347121616802E-2   -5.361283377736566E-3    2.157327430131929E-1    5.046344977581380E-1
 6.517171835400000E9    -2.295254935919248E-1   -1.353385831209073E-2    1.365918158829406E-2   -6.074489220739073E-3    1.388072421339541E-2   -5.440064283415423E-3    2.164598692377666E-1    5.043057105754066E-1
 6.517183204200000E9    -2.294737436708829E-1   -1.334181866580266E-2    1.381697090380844E-2   -5.949375279088265E-3    1.389472944228193E-2   -5.507160635219776E-3    2.173144314949919E-1    5.039550027839947E-1
 6.517194573000000E9    -2.293250491240840E-1   -1.310140264430822E-2    1.383463916441824E-2   -6.112445407278212E-3    1.400592973293077E-2   -5.477966274322307E-3    2.181348205917811E-1    5.035783529883956E-1
 6.517205941800000E9    -2.291549772396413E-1   -1.288432276239168E-2    1.392322682057488E-2   -6.079386035344542E-3    1.411388995148309E-2   -5.739811966326269E-3    2.189983245378346E-1    5.033045608518629E-1
 6.517217310600000E9    -2.291266368659768E-1   -1.280580168434582E-2    1.404090810842218E-2   -6.113836142531888E-3    1.399278577472272E-2   -5.650272503212276E-3    2.197745555131276E-1    5.028673602227229E-1
 6.517228679400000E9    -2.289040920075746E-1   -1.262894959153498E-2    1.403958078465738E-2   -6.107104850031045E-3    1.425708831311893E-2   -5.689433828290851E-3    2.206988876690954E-1    5.025730835453236E-1
 6.517240048200000E9    -2.288384184298026E-1   -1.252746851191444E-2    1.410486854326492E-2   -6.337038573723428E-3    1.424213535192605E-2   -5.861188619446059E-3    2.214292732192661E-1    5.022226046443811E-1
 6.517251417000000E9    -2.287291332576959E-1   -1.232277855709369E-2    1.416185751152463E-2   -6.431450060544023E-3    1.423514736286812E-2   -5.839332852398836E-3    2.225182410517507E-1    5.017861855903946E-1
 6.517262785800000E9    -2.285980372724632E-1   -1.218558959371912E-2    1.420801528161354E-2   -6.471538608612890E-3    1.440602463718751E-2   -5.896688920236656E-3    2.232847136136586E-1    5.014646686729035E-1
 6.517274154600000E9    -2.284450702522640E-1   -1.201054179748930E-2    1.425493700292315E-2   -6.433555345216705E-3    1.446232470982040E-2   -6.046913700590470E-3    2.239934220033211E-1    5.011142972572404E-1
 6.517285523400000E9    -2.283539547056387E-1   -1.187117614270984E-2    1.428942042240164E-2   -6.451402538411380E-3    1.446431149444058E-2   -6.035475193972360E-3    2.249335250706714E-1    5.006448497075654E-1
 6.517296892200000E9    -2.281553392283396E-1   -1.163954110817429E-2    1.440529238592638E-2   -6.502545916026448E-3    1.454109045654250E-2   -6.043107554741961E-3    2.258043818378310E-1    5.002685300161677E-1
 6.517308261000000E9    -2.281389258795084E-1   -1.142096677328740E-2    1.444142386539055E-2   -6.756727196066897E-3    1.464561539746459E-2   -6.181728592626076E-3    2.264579309218216E-1    5.000409346717234E-1
 6.517319629800000E9    -2.279092777564902E-1   -1.138366712072120E-2    1.462647164073140E-2   -6.774738602456708E-3    1.466499504525781E-2   -6.208707025377135E-3    2.273439151419314E-1    4.995604690165386E-1
 6.517330998600000E9    -2.278554733202408E-1   -1.115895277113531E-2    1.465198685218528E-2   -6.747724285351797E-3    1.473342386697858E-2   -6.306244308817136E-3    2.283598663610064E-1    4.992616295618392E-1
 6.517342367400000E9    -2.276473105829683E-1   -1.101306466377634E-2    1.471488946913316E-2   -6.816509642057440E-3    1.482337730481959E-2   -6.210424144151450E-3    2.291735471430655E-1    4.988931816016531E-1
 6.517353736200000E9    -2.276314418441246E-1   -1.076683176296637E-2    1.459853204170171E-2   -6.897607867615603E-3    1.481636545628806E-2   -6.427337961867280E-3    2.299445743012863E-1    4.985066802603832E-1
 6.517365105000000E9    -2.274472122170869E-1   -1.064602800506466E-2    1.482766552336526E-2   -7.005148779417308E-3    1.494524052628624E-2   -6.373664073224250E-3    2.307880089524411E-1    4.980694059449050E-1
 6.517376473800000E9    -2.271976510278527E-1   -1.058993429533967E-2    1.481956101407201E-2   -7.085025992326094E-3    1.504884204691432E-2   -6.520222203554049E-3    2.315945352696754E-1    4.976685593603435E-1
 6.517387842600000E9    -2.271292066533827E-1   -1.040894113154106E-2    1.493190448260823E-2   -7.088805769890078E-3    1.500268048996483E-2   -6.623673585145062E-3    2.324893554507134E-1    4.973461430774478E-1
 6.517399211400000E9    -2.270667694606207E-1   -1.026790442560663E-2    1.503750506065667E-2   -7.145067464986297E-3    1.511401268630692E-2   -6.633007824908868E-3    2.333734591959005E-1    4.970541689543603E-1
 6.517410580200000E9    -2.267748542873189E-1   -1.010616172956470E-2    1.502671457146643E-2   -7.244856976312586E-3    1.522908575591910E-2   -6.723593936353323E-3    2.339948092869861E-1    4.966910729864678E-1
 6.517421949000000E9    -2.266360321149687E-1   -9.926076716571813E-3    1.510685525368930E-2   -7.324580849725395E-3    1.531162707515676E-2   -6.823439635385351E-3    2.348771462527245E-1    4.962098625867447E-1
 6.517433317800000E9    -2.266175637078002E-1   -9.832926861499586E-3    1.520146943981746E-2   -7.421553284474381E-3    1.529494302090415E-2   -6.851846216704483E-3    2.357298138919006E-1    4.958123236357857E-1
 6.517444686600000E9    -2.264130609969461E-1   -9.652364151312884E-3    1.522122958685776E-2   -7.413137395823314E-3    1.545723371591317E-2   -6.968858361056269E-3    2.366992752995764E-1    4.955478929181091E-1
 6.517456055400000E9    -2.263099599265914E-1   -9.400907317924520E-3    1.540412947840853E-2   -7.554093161202557E-3    1.549383174703381E-2   -6.964676415595807E-3    2.373739747058013E-1    4.950268600807694E-1
 6.517467424200000E9    -2.261712516839904E-1   -9.217665547824641E-3    1.545436086403663E-2   -7.697099221374265E-3    1.559624478287389E-2   -7.072746548821562E-3    2.382726120364851E-1    4.945933862464412E-1
 6.517478793000000E9    -2.259595516595481E-1   -9.168442888824992E-3    1.548420235626052E-2   -7.674054263866755E-3    1.559701093381683E-2   -7.117849882340379E-3    2.392149554390650E-1    4.942894081356324E-1
 6.517490161800000E9    -2.259510622767219E-1   -8.973420729347552E-3    1.556298027867386E-2   -7.791448857484271E-3    1.571425874059978E-2   -7.220993754792694E-3    2.398851235723198E-1    4.940240475840779E-1
 6.517501530600000E9    -2.257704350984103E-1   -8.974291373872146E-3    1.560615430371379E-2   -7.750753898541925E-3    1.583673925413662E-2   -7.337955049047975E-3    2.407216379399242E-1    4.934155765715310E-1
 6.517512899400000E9    -2.256247256770239E-1   -8.688734600816534E-3    1.567669805279705E-2   -7.861414224704410E-3    1.587773389854248E-2   -7.326843569642006E-3    2.416399955629364E-1    4.930607207404228E-1
 6.517524268200000E9    -2.253376903216080E-1   -8.583063128621888E-3    1.575926195374942E-2   -8.115845592093739E-3    1.592760637476336E-2   -7.441751554434290E-3    2.424398257659105E-1    4.925652710721711E-1
 6.517535637000000E9    -2.252112993918896E-1   -8.543202721106147E-3    1.594070982651883E-2   -7.955768034154745E-3    1.605955885944865E-2   -7.508946224026954E-3    2.432184526257931E-1    4.922205471651595E-1
 6.517547005800000E9    -2.251432061098209E-1   -8.323952523706418E-3    1.588268837477725E-2   -8.210540837480343E-3    1.622520774357112E-2   -7.597094194088012E-3    2.442167168848927E-1    4.917489404782496E-1
 6.517558374600000E9    -2.249040731364885E-1   -8.071439451948617E-3    1.601732639378715E-2   -8.245475746904192E-3    1.625226947329200E-2   -7.666049582246160E-3    2.450024866067938E-1    4.913362357193311E-1
 6.517569743400000E9    -2.247865881505287E-1   -7.985006666678306E-3    1.612549277244560E-2   -8.459136058522091E-3    1.636572158709402E-2   -7.775985261688777E-3    2.457446764185239E-1    4.909415910694517E-1
 6.517581112200000E9    -2.246522051362592E-1   -7.950968227759824E-3    1.605043417395086E-2   -8.378922802633967E-3    1.633266843785045E-2   -7.787447681529733E-3    2.467525267714058E-1    4.905143374910214E-1
 6.517592481000000E9    -2.244769798211853E-1   -7.731233489169799E-3    1.609249683199303E-2   -8.401992354038858E-3    1.652437858235017E-2   -7.859285340528847E-3    2.475306419970031E-1    4.901731740923454E-1
 6.517603849800000E9    -2.243911272897351E-1   -7.589904803181546E-3    1.637930626560616E-2   -8.556624498365110E-3    1.650955314939445E-2   -7.975019903663977E-3    2.482573947675530E-1    4.897416077157223E-1
 6.517615218600000E9    -2.241558644866151E-1   -7.432280292885340E-3    1.631634085012207E-2   -8.595727108357423E-3    1.659441574668098E-2   -8.100293362385436E-3    2.490922755874593E-1    4.893661262391265E-1
 6.517626587400000E9    -2.240313759271779E-1   -7.400037851577668E-3    1.643859025506600E-2   -8.782960618207410E-3    1.674127255488062E-2   -8.244226910752082E-3    2.500826442294961E-1    4.888116132590259E-1
 6.517637956200000E9    -2.238347501228775E-1   -7.126993547541697E-3    1.653938618947476E-2   -8.708461014000579E-3    1.691608961821504E-2   -8.291298434274385E-3    2.507241155295071E-1    4.884955999992467E-1
 6.517649325000000E9    -2.236200333336325E-1   -7.013249794543832E-3    1.674664342425497E-2   -8.959826193050241E-3    1.687888677809845E-2   -8.400059783987564E-3    2.516551763924938E-1    4.879250729202466E-1
 6.517660693800000E9    -2.235902208080327E-1   -6.914316457471415E-3    1.681658757055019E-2   -9.063600819347668E-3    1.696809133632697E-2   -8.406342252130321E-3    2.524766559607596E-1    4.877646316785550E-1
 6.517672062600000E9    -2.233396936452888E-1   -6.763059043258299E-3    1.679120874730643E-2   -9.034356082565248E-3    1.696691374644881E-2   -8.604921145991557E-3    2.532363746903795E-1    4.871408242934166E-1
 6.517683431400000E9    -2.231190058535887E-1   -6.716958489069577E-3    1.687336135693509E-2   -9.119381484136036E-3    1.715720727155350E-2   -8.653276953482600E-3    2.542524608792867E-1    4.868484644071936E-1
 6.517694800200000E9    -2.230166146318074E-1   -6.521058181764001E-3    1.694937656924856E-2   -9.379534764788502E-3    1.722942308167640E-2   -8.793861255505060E-3    2.549937547436649E-1    4.862961352448047E-1
 6.517706169000000E9    -2.228677349986269E-1   -6.328654979887653E-3    1.704990342886437E-2   -9.448788882905512E-3    1.740628413844772E-2   -8.829977519596932E-3    2.559830767401166E-1    4.858331370451821E-1
 6.517717537800000E9    -2.226416233318236E-1   -6.262085763932599E-3    1.719020879051691E-2   -9.552545971042123E-3    1.738130507126225E-2   -8.910617997777889E-3    2.567397275703359E-1    4.854718971275526E-1
 6.517728906600000E9    -2.226173150269846E-1   -6.148737703731300E-3    1.718716026511051E-2   -9.630883109649834E-3    1.753604921825430E-2   -9.019992626865387E-3    2.575977635478918E-1    4.848871149564239E-1
 6.517740275400000E9    -2.223460719130217E-1   -5.987165531009917E-3    1.716933870493932E-2   -9.729642108901823E-3    1.752617365318939E-2   -9.201633795912779E-3    2.584852725933563E-1    4.846368602385525E-1
 6.517751644200000E9    -2.221819002340352E-1   -5.896779807058108E-3    1.741585741582316E-2   -9.910880288786677E-3    1.768081077567321E-2   -9.224326332135284E-3    2.593259605903313E-1    4.839686859213497E-1
 6.517763013000000E9    -2.220328073808295E-1   -5.870517027625259E-3    1.751774565135690E-2   -9.812946176569319E-3    1.777978685117228E-2   -9.430159039373782E-3    2.601782089971747E-1    4.834909657847781E-1
 6.517774381800000E9    -2.218702606739482E-1   -5.732199527726738E-3    1.757443770182827E-2   -1.000506216121955E-2    1.795091436625406E-2   -9.490576389947280E-3    2.609741486310740E-1    4.832941536396493E-1
 6.517785750600000E9    -2.215909470785195E-1   -5.500996999808787E-3    1.767705480688052E-2   -9.952025931172762E-3    1.799747088243926E-2   -9.566590293919148E-3    2.618644076651807E-1    4.827448516568937E-1
 6.517797119400000E9    -2.214297271217776E-1   -5.511104228811128E-3    1.774753724479603E-2   -1.013153150395328E-2    1.807955244244151E-2   -9.657934020228385E-3    2.625815720392095E-1    4.821995166735717E-1
 6.517808488200000E9    -2.213453583500711E-1   -5.440942715190106E-3    1.787827168029031E-2   -1.030409835171014E-2    1.811772480538493E-2   -9.719041680013777E-3    2.634781231083850E-1    4.818194907756483E-1
 6.517819857000000E9    -2.210081027645662E-1   -5.132925643517498E-3    1.799133782632627E-2   -1.048026704837238E-2    1.832051844843001E-2   -9.787961539556699E-3    2.643436400617457E-1    4.812913892162469E-1
 6.517831225800000E9    -2.209071732306749E-1   -5.155589107268259E-3    1.815678293184027E-2   -1.051788743699427E-2    1.843190309567132E-2   -9.899549755664450E-3    2.652583052277220E-1    4.807807942016816E-1
 6.517842594600000E9    -2.205828196362242E-1   -4.934779301120412E-3    1.818740618538005E-2   -1.066455973374275E-2    1.851200889241223E-2   -1.010198337345820E-2    2.659176342559350E-1    4.803002811397973E-1
 6.517853963400000E9    -2.204596195452724E-1   -4.912643765319141E-3    1.821597340713227E-2   -1.077546228831291E-2    1.865772890052733E-2   -1.024248529305408E-2    2.668413257343811E-1    4.798988888624302E-1
 6.517865332200000E9    -2.203538318939565E-1   -4.896486280353230E-3    1.838757903188915E-2   -1.089745907623652E-2    1.875588850851621E-2   -1.031559352635010E-2    2.676798822562891E-1    4.793369527717966E-1
 6.517876701000000E9    -2.200380922260110E-1   -4.761713568195327E-3    1.852868083844678E-2   -1.107649376447761E-2    1.880585708681590E-2   -1.042208584219833E-2    2.685964845268343E-1    4.789528938990354E-1
 6.517888069800000E9    -2.200235240627296E-1   -4.633041768737967E-3    1.855626606090446E-2   -1.118113186080501E-2    1.891089007974751E-2   -1.061232421443608E-2    2.692879805537533E-1    4.783461274012796E-1
 6.517899438600000E9    -2.197211473794642E-1   -4.533711336379071E-3    1.878624759513358E-2   -1.132831539144662E-2    1.897991878873282E-2   -1.063584876689228E-2    2.702179216596490E-1    4.779594076334395E-1
 6.517910807400000E9    -2.194665502969226E-1   -4.406610038450959E-3    1.866929065560271E-2   -1.144515066451851E-2    1.907483794519293E-2   -1.075711441786069E-2    2.711417147659425E-1    4.773734402848640E-1
 6.517922176200000E9    -2.193502207165626E-1   -4.322111939581673E-3    1.891476997499691E-2   -1.144744927905102E-2    1.921620983668730E-2   -1.093582867924875E-2    2.719255258007992E-1    4.769935341213780E-1
 6.517933545000000E9    -2.191274118994640E-1   -4.268970525589867E-3    1.899455771993804E-2   -1.168037501809796E-2    1.939874332904230E-2   -1.101404843282232E-2    2.726917336971582E-1    4.763721098719798E-1
 6.517944913800000E9    -2.188297610879286E-1   -4.061763457285547E-3    1.928274297631669E-2   -1.181014828375663E-2    1.952117710013330E-2   -1.124106585582911E-2    2.736874052523988E-1    4.757662337125206E-1
 6.517956282600000E9    -2.187520700567042E-1   -4.098601756667186E-3    1.935343315238476E-2   -1.197325273120916E-2    1.954057606888949E-2   -1.134983491774536E-2    2.744485710549373E-1    4.754426056812779E-1
 6.517967651400000E9    -2.184506671354743E-1   -3.998020498600044E-3    1.932846575110265E-2   -1.216764105317778E-2    1.974933847840711E-2   -1.141547817930161E-2    2.752580526658938E-1    4.750015782938010E-1
 6.517979020200000E9    -2.182207351987597E-1   -3.928629734273105E-3    1.946770422106521E-2   -1.222519291292135E-2    1.985963800729784E-2   -1.161291280542456E-2    2.760851478192327E-1    4.744353235315744E-1
 6.517990389000000E9    -2.181093945905140E-1   -3.840610439846200E-3    1.964675037541608E-2   -1.244755484579206E-2    1.996143513068003E-2   -1.169400319988916E-2    2.771197304344708E-1    4.739252149756165E-1
 6.518001757800000E9    -2.178280764849926E-1   -3.805039790136527E-3    1.971487767294572E-2   -1.241543950540653E-2    2.016661368541116E-2   -1.183988180214512E-2    2.777459515471303E-1    4.733815866820905E-1
 6.518013126600000E9    -2.176474114584908E-1   -3.741803636779519E-3    1.979922982668579E-2   -1.260842961241346E-2    2.028129370111771E-2   -1.198914355113355E-2    2.786810677815848E-1    4.729309969552241E-1
 6.518024495400000E9    -2.174016698129877E-1   -3.634653671483374E-3    1.999164073763855E-2   -1.282120416711339E-2    2.035539780548054E-2   -1.218690969510117E-2    2.795387468179293E-1    4.723829437508398E-1
 6.518035864200000E9    -2.171680163810714E-1   -3.591598643036037E-3    2.015609917468475E-2   -1.313492878769239E-2    2.045661332482722E-2   -1.224559911325178E-2    2.803309517817921E-1    4.717672489456708E-1
 6.518047233000000E9    -2.170230454808757E-1   -3.486094430966318E-3    2.012004453335220E-2   -1.321838616547422E-2    2.069967649228246E-2   -1.240657795342325E-2    2.812012968379021E-1    4.712864315493522E-1
 6.518058601800000E9    -2.166676477584018E-1   -3.453003763542964E-3    2.027104521500317E-2   -1.322913257764110E-2    2.076045461497848E-2   -1.257222572484721E-2    2.820242001459241E-1    4.707144714352671E-1
 6.518069970600000E9    -2.164692051610322E-1   -3.446883040546956E-3    2.044119994904512E-2   -1.346439203877783E-2    2.080287641203418E-2   -1.288730081042073E-2    2.829674053038816E-1    4.703108085750786E-1
 6.518081339400000E9    -2.162219722707548E-1   -3.371220202315205E-3    2.054134843455534E-2   -1.347681419990988E-2    2.111652214356204E-2   -1.295211917077586E-2    2.838227985102885E-1    4.696119677826551E-1
 6.518092708200000E9    -2.159789430219876E-1   -3.263629035905987E-3    2.077216323609666E-2   -1.391173136521741E-2    2.122413748271512E-2   -1.318727641982866E-2    2.846691773617597E-1    4.691207321204994E-1
 6.518104077000000E9    -2.157970581277300E-1   -3.176239312874192E-3    2.079671404239555E-2   -1.384270520120477E-2    2.126775978452884E-2   -1.327725407267014E-2    2.854281256771556E-1    4.687034479283427E-1
 6.518115445800000E9    -2.155734800118558E-1   -3.238897368837048E-3    2.105232563292412E-2   -1.404622109894441E-2    2.143229434866711E-2   -1.350273025261630E-2    2.864424342407036E-1    4.680579249977407E-1
 6.518126814600000E9    -2.154128785604145E-1   -3.110821918018386E-3    2.111109697427440E-2   -1.435163209430859E-2    2.155489960039135E-2   -1.365711391172920E-2    2.872167244114245E-1    4.673227247973559E-1
 6.518138183400000E9    -2.150016267846437E-1   -3.142219817766713E-3    2.134667988812495E-2   -1.451891898413425E-2    2.163273020280802E-2   -1.377197883461802E-2    2.879421660522865E-1    4.670336648219659E-1
 6.518149552200000E9    -2.148162106082627E-1   -3.039980684805202E-3    2.142567495444244E-2   -1.463462535798131E-2    2.183356567910958E-2   -1.397975348767148E-2    2.888449404190375E-1    4.663884044425564E-1
 6.518160921000000E9    -2.146044822484932E-1   -3.063682823391433E-3    2.146076847720486E-2   -1.478810796981951E-2    2.206911629156574E-2   -1.419666625883910E-2    2.897782867913935E-1    4.656857865892731E-1
