#  HZ   S   RI   R     50.00 
! Rohde & Schwarz Vector Network Analyzer 
! Rohde-Schwarz,ZNB20-2Port,1311601062101988,3.16
! Created: UTC 12/23/2023, 3:39:11 AM
! freq[Hz]                re:S11                  im:S11                  re:S21                  im:S21                  re:S12                  im:S12                  re:S22                  im:S22
 6.517055510000000E9    -2.302778101836924E-1   -1.607880105416250E-2    1.326875179287470E-2   -5.415289486551314E-3    1.353876650660527E-2   -5.032130342965385E-3    2.075825161861494E-1    5.077370450546578E-1
 6.517067177300000E9    -2.300119061421154E-1   -1.599806624362764E-2    1.330333839795099E-2   -5.552767577064441E-3    1.355349598535998E-2   -5.067465267272549E-3    2.086133093575607E-1    5.074113839662114E-1
 6.517078844600000E9    -2.299207003699273E-1   -1.583650235335521E-2    1.341265105510177E-2   -5.539197513563824E-3    1.353025631377304E-2   -5.152709924671466E-3    2.094431577968228E-1    5.069892088914535E-1
 6.517090511900000E9    -2.298474898353269E-1   -1.558872432288982E-2    1.342403264193097E-2   -5.651217263352788E-3    1.351745554214021E-2   -5.238803141900600E-3    2.103534810173649E-1    5.066272631065600E-1
 6.517102179200000E9    -2.298336287271315E-1   -1.546618717013200E-2    1.353956064479600E-2   -5.763286572916277E-3    1.371777368664737E-2   -5.260094468207074E-3    2.112391869057682E-1    5.063809804989041E-1
 6.517113846500000E9    -2.295672135680054E-1   -1.522777678575272E-2    1.362127567703407E-2   -5.812909774378633E-3    1.377702224706184E-2   -5.331710977526294E-3    2.120111497973751E-1    5.059521739779840E-1
 6.517125513800000E9    -2.294782436960559E-1   -1.498913488042741E-2    1.373756342443130E-2   -5.852829271785066E-3    1.379932914963697E-2   -5.388268188299960E-3    2.129914895443783E-1    5.055630787129347E-1
 6.517137181100000E9    -2.294641670602325E-1   -1.497993645275262E-2    1.376695958557483E-2   -5.860266997850445E-3    1.382596109005243E-2   -5.395266435966971E-3    2.137593672412098E-1    5.052229073338693E-1
 6.517148848400000E9    -2.293120198022330E-1   -1.467401035923149E-2    1.378937278904890E-2   -5.956126881685282E-3    1.397520033072969E-2   -5.465216151061418E-3    2.146298479737027E-1    5.048646066990216E-1
 6.517160515700000E9    -2.291494999696140E-1   -1.456657697781567E-2    1.387457732493255E-2   -5.935662421505540E-3    1.396773634918303E-2   -5.527005259011163E-3    2.155461299330471E-1    5.045289336839570E-1
 6.517172183000000E9    -2.290637131390151E-1   -1.438138449730979E-2    1.394243143401649E-2   -6.046100884640158E-3    1.405009593969620E-2   -5.574799134961074E-3    2.164805154502109E-1    5.042743793194917E-1
 6.517183850300000E9    -2.289377303277825E-1   -1.412220393842753E-2    1.392260126425277E-2   -6.024758362071953E-3    1.409715004433944E-2   -5.678469969321629E-3    2.173442086521853E-1    5.039124376874466E-1
 6.517195517600000E9    -2.287317814509827E-1   -1.399641791267255E-2    1.411134535302213E-2   -6.250800196538067E-3    1.413193345160836E-2   -5.744468197287448E-3    2.180590572402654E-1    5.035086973252032E-1
 6.517207184900000E9    -2.286146836605787E-1   -1.383315461523120E-2    1.409348528217962E-2   -6.172194338714648E-3    1.428328763354698E-2   -5.786901902930436E-3    2.189523078265302E-1    5.031509477347855E-1
 6.517218852200000E9    -2.285934411415383E-1   -1.366548017243290E-2    1.413766371199663E-2   -6.267572129872197E-3    1.423105944110194E-2   -5.736742193389863E-3    2.197589214017230E-1    5.027808626229472E-1
 6.517230519500000E9    -2.283158814508502E-1   -1.354525805238119E-2    1.425185450612436E-2   -6.354929508697179E-3    1.432432690311892E-2   -5.848812637494425E-3    2.208338674385077E-1    5.025039441983223E-1
 6.517242186800000E9    -2.282322564450046E-1   -1.341192161282205E-2    1.424320950140503E-2   -6.378299066190987E-3    1.435987325799852E-2   -5.971774382873116E-3    2.215111266677214E-1    5.020232278757130E-1
 6.517253854100000E9    -2.281574543415969E-1   -1.315273618031839E-2    1.428569030340575E-2   -6.453259546641166E-3    1.449283429814905E-2   -6.069809654617688E-3    2.223817270805688E-1    5.016671106590230E-1
 6.517265521400000E9    -2.280006460895036E-1   -1.305814325352475E-2    1.450660550025188E-2   -6.491199022946250E-3    1.462118208993400E-2   -6.001249675614876E-3    2.232979214806949E-1    5.014402638424522E-1
 6.517277188700000E9    -2.278844458055983E-1   -1.280306047705563E-2    1.445943762024131E-2   -6.587092923135674E-3    1.459300333743452E-2   -6.210952257101521E-3    2.241681119720546E-1    5.008295448525310E-1
 6.517288856000000E9    -2.277819945640627E-1   -1.269951135002723E-2    1.437316857982113E-2   -6.683985890036546E-3    1.465720581983506E-2   -6.183677023435357E-3    2.250577688793442E-1    5.005369311348984E-1
 6.517300523300000E9    -2.276130759868580E-1   -1.233592647003918E-2    1.462395100526637E-2   -6.638195292801108E-3    1.473459087485940E-2   -6.173013602337241E-3    2.258093370353960E-1    5.001816866315234E-1
 6.517312190600000E9    -2.274532883561954E-1   -1.230669402473644E-2    1.449846001195255E-2   -6.658662565297253E-3    1.490199019313335E-2   -6.268079848044956E-3    2.266989042791651E-1    4.999546078017022E-1
 6.517323857900000E9    -2.272424281773747E-1   -1.217441538853126E-2    1.474100559054258E-2   -6.878483072180828E-3    1.492543260911960E-2   -6.411954126894179E-3    2.275217071751328E-1    4.995045984105033E-1
 6.517335525200000E9    -2.272179643106199E-1   -1.205675022687179E-2    1.479181103621565E-2   -6.775773707613927E-3    1.501135572523499E-2   -6.443154411517774E-3    2.285038245967151E-1    4.990048108005694E-1
 6.517347192500000E9    -2.270324372716318E-1   -1.181905977405448E-2    1.486480498691618E-2   -7.079825939009902E-3    1.495402667016993E-2   -6.460548940521351E-3    2.292904301571115E-1    4.986967083482019E-1
 6.517358859800000E9    -2.268916987237609E-1   -1.162364071838184E-2    1.493091493859870E-2   -7.039552805946236E-3    1.504542508506696E-2   -6.556668400716990E-3    2.299535395535763E-1    4.982765805258823E-1
 6.517370527100000E9    -2.266711999437662E-1   -1.146913670469186E-2    1.488486239263707E-2   -7.129524970506790E-3    1.512692142298878E-2   -6.633531003249489E-3    2.310897143230916E-1    4.978967607480138E-1
 6.517382194400000E9    -2.265548350621255E-1   -1.130617996598621E-2    1.497166207025981E-2   -7.061624287425246E-3    1.528496724390780E-2   -6.616535932173432E-3    2.318956241728044E-1    4.976056261057001E-1
 6.517393861700000E9    -2.263924486439356E-1   -1.117279699036902E-2    1.521270020834547E-2   -7.289030520941295E-3    1.532236394466813E-2   -6.802039746279228E-3    2.327319152768543E-1    4.972024486845532E-1
 6.517405529000000E9    -2.263839121899373E-1   -1.103903312465520E-2    1.525274740158887E-2   -7.294886215632485E-3    1.537938523652102E-2   -6.801666088687688E-3    2.336697822252698E-1    4.967019054694696E-1
 6.517417196300000E9    -2.261905739599277E-1   -1.075915965963258E-2    1.522538152237988E-2   -7.296933760529804E-3    1.533385602524996E-2   -6.792034371928864E-3    2.344266700043624E-1    4.962061326601708E-1
 6.517428863600000E9    -2.260938525355212E-1   -1.074297817622233E-2    1.536692033752787E-2   -7.560393605983655E-3    1.542498402537954E-2   -6.877449080666189E-3    2.352816112562857E-1    4.959829001839173E-1
 6.517440530900000E9    -2.259219461317092E-1   -1.059609259454376E-2    1.534065065996252E-2   -7.491188732680672E-3    1.558300807462096E-2   -6.989300179707672E-3    2.362457011796721E-1    4.954776442192866E-1
 6.517452198200000E9    -2.256414842811341E-1   -1.034463145346343E-2    1.558209932662781E-2   -7.546339203623457E-3    1.566336751449903E-2   -7.151128381887966E-3    2.370911511935714E-1    4.951201264737830E-1
 6.517463865500000E9    -2.256234715375798E-1   -1.022296897443114E-2    1.542833315489343E-2   -7.689796609882511E-3    1.564043417084673E-2   -7.333589116943231E-3    2.378567096215808E-1    4.947126578734103E-1
 6.517475532800000E9    -2.254664248605929E-1   -1.007631975083967E-2    1.561184131729462E-2   -7.768494629628290E-3    1.585610481967884E-2   -7.347244382026936E-3    2.387109758704223E-1    4.942481058985909E-1
 6.517487200100000E9    -2.252185254270311E-1   -9.870760455480247E-3    1.569927667228966E-2   -7.885607340920076E-3    1.580778186237836E-2   -7.340428026011736E-3    2.395656419673595E-1    4.937595932610777E-1
 6.517498867400000E9    -2.251448660312916E-1   -9.817347142585812E-3    1.570725551912305E-2   -8.025343954414310E-3    1.597092993033991E-2   -7.456227148871283E-3    2.404351500969152E-1    4.934263646737065E-1
 6.517510534700000E9    -2.249310590949247E-1   -9.489945859630724E-3    1.579381941197982E-2   -8.151231851815054E-3    1.608482115333922E-2   -7.563902174142932E-3    2.412490829775874E-1    4.931713583773226E-1
 6.517522202000000E9    -2.248543669744027E-1   -9.481238847438253E-3    1.595479810868742E-2   -8.132684091884551E-3    1.615280816140520E-2   -7.641028192574992E-3    2.422337546705646E-1    4.927308464191044E-1
 6.517533869300000E9    -2.246541530402453E-1   -9.312976633543225E-3    1.604120036449368E-2   -8.219656656354336E-3    1.615198139148661E-2   -7.653835931564421E-3    2.430330241097597E-1    4.921658608755778E-1
 6.517545536600000E9    -2.244828361876036E-1   -9.244268087153935E-3    1.609597435204501E-2   -8.291998751771706E-3    1.630540900982425E-2   -7.746545425698517E-3    2.439410177404875E-1    4.918017016244497E-1
 6.517557203900000E9    -2.243588374244586E-1   -9.060531583091029E-3    1.624371334868519E-2   -8.285350857623934E-3    1.639805918055530E-2   -7.839805029104282E-3    2.447959070686933E-1    4.913736032868979E-1
 6.517568871200000E9    -2.241764265725524E-1   -8.851490564953808E-3    1.620953828225779E-2   -8.490195458206293E-3    1.650120870747173E-2   -7.959642006429042E-3    2.458823587754415E-1    4.908612715404352E-1
 6.517580538500000E9    -2.239987408549875E-1   -8.754076955290985E-3    1.640428860674869E-2   -8.503504740674630E-3    1.653048268486405E-2   -8.027181123129822E-3    2.464661850446185E-1    4.905847524269608E-1
 6.517592205800000E9    -2.239160154822150E-1   -8.527733614079496E-3    1.638710417390076E-2   -8.603226129888914E-3    1.661174566314653E-2   -7.991337083370818E-3    2.474414542119744E-1    4.900228273898607E-1
 6.517603873100000E9    -2.235743493813922E-1   -8.587864955571749E-3    1.645649020144031E-2   -8.685891347643603E-3    1.668943945697815E-2   -8.208658591909260E-3    2.483118681845167E-1    4.896648092985250E-1
 6.517615540400000E9    -2.235251059407567E-1   -8.364388865514284E-3    1.644638572338997E-2   -8.867225731087834E-3    1.685523504256753E-2   -8.268272742714820E-3    2.490655770478842E-1    4.892759630461526E-1
 6.517627207700000E9    -2.233512409349221E-1   -8.165876945675780E-3    1.662837308102575E-2   -8.941495836964002E-3    1.685258084937032E-2   -8.388335249071380E-3    2.497869435650034E-1    4.887636534207636E-1
 6.517638875000000E9    -2.232521890010277E-1   -8.186831357000993E-3    1.672545669287883E-2   -8.994264864992552E-3    1.698643280936400E-2   -8.426141833021115E-3    2.509015090565694E-1    4.885051258335640E-1
 6.517650542300000E9    -2.230095881707812E-1   -7.983460298694315E-3    1.677289437739584E-2   -8.992597550732135E-3    1.704859851065327E-2   -8.539185973216987E-3    2.516407827601019E-1    4.878599314009706E-1
 6.517662209600000E9    -2.228222243730865E-1   -7.879183246855728E-3    1.699770714449338E-2   -9.231002036432307E-3    1.717844516931077E-2   -8.613460296160919E-3    2.525628116121343E-1    4.873723370820463E-1
 6.517673876900000E9    -2.226559876331962E-1   -7.659499017489969E-3    1.697670878144438E-2   -9.323563079002482E-3    1.731908564180912E-2   -8.657435433695503E-3    2.533514068837140E-1    4.869931682810331E-1
 6.517685544200000E9    -2.225258481577382E-1   -7.601282060346139E-3    1.699213613108109E-2   -9.415949583756673E-3    1.734216091659882E-2   -8.829813223174412E-3    2.543023945568684E-1    4.864971292815496E-1
 6.517697211500000E9    -2.224528534465948E-1   -7.540210891068116E-3    1.720436725916408E-2   -9.474750371129430E-3    1.748422828011490E-2   -8.966832426043105E-3    2.550910625558261E-1    4.859920086440987E-1
 6.517708878800000E9    -2.222053748814624E-1   -7.307478872725984E-3    1.721926120243582E-2   -9.590436463592131E-3    1.750503551924109E-2   -8.995196695576904E-3    2.558696302396845E-1    4.856312432852012E-1
 6.517720546100000E9    -2.220574142809234E-1   -7.079135298213199E-3    1.721903575854325E-2   -9.650282986297018E-3    1.762750582893689E-2   -9.154408938241015E-3    2.567687451407574E-1    4.852870755950450E-1
 6.517732213400000E9    -2.217554466108206E-1   -7.032772018087121E-3    1.734759614895702E-2   -9.743734972939204E-3    1.773412211388874E-2   -9.232120135416289E-3    2.577401426164403E-1    4.847666412601334E-1
 6.517743880700000E9    -2.216708610503604E-1   -6.920151786032428E-3    1.745642902916194E-2   -9.891891434853405E-3    1.784103360466967E-2   -9.389408173929688E-3    2.586227360086717E-1    4.841926684075433E-1
 6.517755548000000E9    -2.214801211428095E-1   -6.819289780793351E-3    1.757501796973248E-2   -1.001210009410448E-2    1.798836958991355E-2   -9.498577957157051E-3    2.594280970958735E-1    4.838220429813387E-1
 6.517767215300000E9    -2.212441039134410E-1   -6.710943474594338E-3    1.778853519465445E-2   -1.023207605199030E-2    1.801380483311262E-2   -9.537059289972316E-3    2.602426188812924E-1    4.832795476977796E-1
 6.517778882600000E9    -2.211573687723090E-1   -6.627004799677653E-3    1.781070851393716E-2   -1.023806447991218E-2    1.814000484844696E-2   -9.551733703022276E-3    2.612315852179904E-1    4.828918359536745E-1
 6.517790549900000E9    -2.209590261185907E-1   -6.532418217279174E-3    1.791606199116806E-2   -1.037261857706668E-2    1.821827525306524E-2   -9.756319912063952E-3    2.620787676448348E-1    4.822525927372628E-1
 6.517802217200000E9    -2.205596151706193E-1   -6.459693418904305E-3    1.797660256792947E-2   -1.049965989420502E-2    1.846939739967733E-2   -9.816974004092953E-3    2.629851535699372E-1    4.818486276617553E-1
 6.517813884500000E9    -2.203493163235528E-1   -6.349587870738515E-3    1.812059984118977E-2   -1.055386647441591E-2    1.854560452258561E-2   -1.002359365156810E-2    2.638973502831983E-1    4.813972153640099E-1
 6.517825551800000E9    -2.203478399967943E-1   -6.187603166512551E-3    1.819632122792300E-2   -1.076712710593783E-2    1.854998562474829E-2   -1.012084180949189E-2    2.645742391868290E-1    4.809113417019301E-1
 6.517837219100000E9    -2.201802240466976E-1   -6.058853872811756E-3    1.830500202734800E-2   -1.076607469518070E-2    1.868082899318421E-2   -1.022636787204669E-2    2.654657864961666E-1    4.804737095459875E-1
 6.517848886400000E9    -2.199865965698676E-1   -5.931705123721117E-3    1.834729548331337E-2   -1.086109859164568E-2    1.871212630247194E-2   -1.041095637971058E-2    2.663665493405638E-1    4.798669205473455E-1
 6.517860553700000E9    -2.196926784257727E-1   -5.985275006775323E-3    1.848409826119047E-2   -1.124315183143216E-2    1.889437596411089E-2   -1.047687521982588E-2    2.673714356684447E-1    4.795644928832301E-1
 6.517872221000000E9    -2.195627379247317E-1   -5.774748880012445E-3    1.859500349457579E-2   -1.124042859828911E-2    1.901224778330833E-2   -1.058454573270111E-2    2.680290367343421E-1    4.789337041888933E-1
 6.517883888300000E9    -2.192934077807108E-1   -5.649743139053877E-3    1.870328026937050E-2   -1.132744153790006E-2    1.916551407981567E-2   -1.068640627704623E-2    2.688438390755939E-1    4.783600300210111E-1
 6.517895555600000E9    -2.191190634687366E-1   -5.625752390720048E-3    1.878124321981624E-2   -1.145060269058795E-2    1.923889797054057E-2   -1.098474259933698E-2    2.698617108559475E-1    4.778622168616986E-1
 6.517907222900000E9    -2.189475988887335E-1   -5.428745940390749E-3    1.888637695414244E-2   -1.168140220283394E-2    1.931841172006058E-2   -1.107066844669966E-2    2.706508416761040E-1    4.774432879193533E-1
 6.517918890200000E9    -2.186721029357216E-1   -5.359308845283045E-3    1.919324097965605E-2   -1.177098523399868E-2    1.946802742258875E-2   -1.121321900975854E-2    2.715156961021106E-1    4.769926212138131E-1
 6.517930557500000E9    -2.184787032337134E-1   -5.207081437409037E-3    1.911102536916976E-2   -1.203639416262021E-2    1.951233326014093E-2   -1.132371459359961E-2    2.723711150142820E-1    4.762818982488470E-1
 6.517942224800000E9    -2.182531692292037E-1   -5.340435072924353E-3    1.941083684867622E-2   -1.213027970101091E-2    1.970906593349858E-2   -1.138502464222198E-2    2.732972629113856E-1    4.758077356107434E-1
 6.517953892100000E9    -2.179880148123270E-1   -5.115901566564869E-3    1.939797200187245E-2   -1.214619580580923E-2    1.980498658129915E-2   -1.164536469615313E-2    2.741917086037827E-1    4.753454507164712E-1
 6.517965559400000E9    -2.178402254100446E-1   -5.010264756070959E-3    1.950770733224795E-2   -1.240404676153809E-2    1.984443948066684E-2   -1.174701526731018E-2    2.749983070399982E-1    4.749151899228671E-1
 6.517977226700000E9    -2.176977839199327E-1   -4.930294947550862E-3    1.964903903157299E-2   -1.246938150298353E-2    2.013664032651819E-2   -1.195034402618673E-2    2.758782506808750E-1    4.743361203924906E-1
 6.517988894000000E9    -2.174931203816987E-1   -4.890400377811173E-3    1.974950739903177E-2   -1.269640518031410E-2    2.015437836276927E-2   -1.191339852259941E-2    2.768392869526043E-1    4.737928343702786E-1
 6.518000561300000E9    -2.172015504849748E-1   -4.827419381765373E-3    1.996684657261208E-2   -1.282149879828744E-2    2.039558777924082E-2   -1.212609786732161E-2    2.775370452215365E-1    4.732464395160491E-1
 6.518012228600000E9    -2.169373016502206E-1   -4.808460420596817E-3    2.003667332277567E-2   -1.285213310918822E-2    2.054261839965205E-2   -1.243367886567952E-2    2.785302242689817E-1    4.726604353540693E-1
 6.518023895900000E9    -2.167565655404419E-1   -4.651943417290087E-3    2.013215511237378E-2   -1.310141563943026E-2    2.060196450619570E-2   -1.257305157262814E-2    2.792872829502941E-1    4.722547064437319E-1
 6.518035563200000E9    -2.165710114687307E-1   -4.606371245386971E-3    2.030808348324798E-2   -1.324494651807296E-2    2.081181174589367E-2   -1.264323502222475E-2    2.803506320140093E-1    4.716626682577930E-1
 6.518047230500000E9    -2.161925309165816E-1   -4.597885485759568E-3    2.061385424859552E-2   -1.345865470508831E-2    2.081956736866824E-2   -1.283310245231798E-2    2.811323670824074E-1    4.708666531294174E-1
 6.518058897800000E9    -2.159879140549221E-1   -4.486984056962846E-3    2.052366424085836E-2   -1.383432850655229E-2    2.099176456157273E-2   -1.293678356338293E-2    2.819828773861047E-1    4.705518028159672E-1
 6.518070565100000E9    -2.158986019707411E-1   -4.514282324512548E-3    2.059770655360802E-2   -1.371247944035736E-2    2.118457535838471E-2   -1.309004904718499E-2    2.830485441279676E-1    4.699314515782257E-1
 6.518082232400000E9    -2.155068485789483E-1   -4.413684186434381E-3    2.091096005312160E-2   -1.400009558352671E-2    2.130362473096757E-2   -1.326228397903567E-2    2.838193615518431E-1    4.692910436013332E-1
 6.518093899700000E9    -2.153369950342839E-1   -4.347076521875846E-3    2.089294634717685E-2   -1.411593078944699E-2    2.134445498217253E-2   -1.347142947669389E-2    2.846443309861710E-1    4.685191772729201E-1
 6.518105567000000E9    -2.150076714253793E-1   -4.262341601632528E-3    2.110442885942255E-2   -1.434509872824573E-2    2.162340219010693E-2   -1.361107745402309E-2    2.855553895106182E-1    4.682806242061053E-1
