#  HZ   S   RI   R     50.00 
! Rohde & Schwarz Vector Network Analyzer 
! Rohde-Schwarz,ZNB20-2Port,1311601062101988,3.16
! Created: UTC 12/23/2023, 3:43:39 AM
! freq[Hz]                re:S11                  im:S11                  re:S21                  im:S21                  re:S12                  im:S12                  re:S22                  im:S22
 6.516963611000000E9    -2.307706665902483E-1   -1.794282281750472E-2    1.305429475217238E-2   -5.245948689937445E-3    1.318692950109280E-2   -4.644812908301563E-3    2.009919913345617E-1    5.102711854959195E-1
 6.516975573875000E9    -2.307291641157212E-1   -1.791730351157900E-2    1.299781658408897E-2   -5.188289538256665E-3    1.329930897962305E-2   -4.817581473052347E-3    2.017782700322697E-1    5.099591448579267E-1
 6.516987536750000E9    -2.305116789323512E-1   -1.761210992116853E-2    1.312046230239275E-2   -5.288380706835589E-3    1.336350012971389E-2   -4.938055328362920E-3    2.027433949736576E-1    5.093896177291458E-1
 6.516999499625000E9    -2.304672711427455E-1   -1.742845236504340E-2    1.317274461770814E-2   -5.377724245214091E-3    1.336815804911450E-2   -4.857419752425000E-3    2.035576571538843E-1    5.091623103987005E-1
 6.517011462500000E9    -2.303061341926674E-1   -1.724228581109859E-2    1.332965466827783E-2   -5.372243577671549E-3    1.344023971446525E-2   -4.849241339353817E-3    2.044947545922925E-1    5.088620106932122E-1
 6.517023425375000E9    -2.302330461830093E-1   -1.703854820537216E-2    1.339705259961449E-2   -5.457459677272973E-3    1.343745411028450E-2   -4.956901050943367E-3    2.053102090884726E-1    5.084371670380672E-1
 6.517035388250000E9    -2.301239647602579E-1   -1.680524148947035E-2    1.350337248307744E-2   -5.440589193524175E-3    1.351597482429377E-2   -5.078146556184384E-3    2.062797165755622E-1    5.082070786439576E-1
 6.517047351125000E9    -2.300402832273649E-1   -1.671761320110172E-2    1.334901182470033E-2   -5.635537325155105E-3    1.354673262662684E-2   -5.205450818081455E-3    2.070281565695900E-1    5.077014407515498E-1
 6.517059314000000E9    -2.298165916535716E-1   -1.650737654486409E-2    1.356344050875152E-2   -5.622823647277975E-3    1.364254512987071E-2   -5.152108740944752E-3    2.078990050729149E-1    5.074032094664644E-1
 6.517071276875000E9    -2.297517686751674E-1   -1.626813756072271E-2    1.354822952150674E-2   -5.660969003352578E-3    1.378801687311136E-2   -5.228893308363870E-3    2.087300335110133E-1    5.071122676827277E-1
 6.517083239750000E9    -2.296318891560606E-1   -1.607738897919203E-2    1.369842424117378E-2   -5.749782569724036E-3    1.371965729002527E-2   -5.374303864664459E-3    2.097240849539120E-1    5.067426212548641E-1
 6.517095202625000E9    -2.294843608476527E-1   -1.596271390377692E-2    1.363114065451615E-2   -5.813687388918582E-3    1.392436193269348E-2   -5.261070028541946E-3    2.105188409065013E-1    5.062953891526712E-1
 6.517107165500000E9    -2.292951048393389E-1   -1.580000532034089E-2    1.373633230962847E-2   -5.859952161914180E-3    1.386976759014594E-2   -5.418228397720826E-3    2.114807608353963E-1    5.059732484051164E-1
 6.517119128375000E9    -2.291103818086127E-1   -1.555663361258723E-2    1.375231617315234E-2   -5.911628080192114E-3    1.397324817609715E-2   -5.395388895498700E-3    2.123208904850190E-1    5.057052600424177E-1
 6.517131091250000E9    -2.290777124800831E-1   -1.529869620828478E-2    1.389027674055703E-2   -6.072715871068514E-3    1.389620452696558E-2   -5.570847458572937E-3    2.132668132659435E-1    5.053427599057236E-1
 6.517143054125000E9    -2.290088188797686E-1   -1.517635074416499E-2    1.397590967029624E-2   -6.063992923232150E-3    1.403170541169950E-2   -5.485667414611431E-3    2.140842772316333E-1    5.049612764410024E-1
 6.517155017000000E9    -2.287890467457815E-1   -1.502013256887623E-2    1.384856189164498E-2   -6.083670122197868E-3    1.415982145649041E-2   -5.677705931706533E-3    2.151337164749072E-1    5.045531787328197E-1
 6.517166979875000E9    -2.286634542588890E-1   -1.480752188680940E-2    1.404063199562462E-2   -6.147473540941884E-3    1.422339643391250E-2   -5.647811965641274E-3    2.158937412813277E-1    5.042710521279197E-1
 6.517178942750000E9    -2.285563249998060E-1   -1.467653347551531E-2    1.408043963057905E-2   -6.172457507893067E-3    1.435967131824624E-2   -5.658468644227936E-3    2.169020334742929E-1    5.037996935304326E-1
 6.517190905625000E9    -2.282973924493557E-1   -1.451420598920204E-2    1.433719129878887E-2   -6.147575141999389E-3    1.434920512492287E-2   -5.704987128958845E-3    2.175985326655258E-1    5.034726711428018E-1
 6.517202868500000E9    -2.283127531173287E-1   -1.428697241248926E-2    1.421058236680595E-2   -6.350408626128214E-3    1.437296053157993E-2   -5.909931693470671E-3    2.185855396046855E-1    5.031997645527546E-1
 6.517214831375000E9    -2.281943100466063E-1   -1.411576776524935E-2    1.418421254590225E-2   -6.446601298497177E-3    1.446232648652587E-2   -5.891420652916573E-3    2.194528005351802E-1    5.028096630969077E-1
 6.517226794250000E9    -2.280331431199674E-1   -1.388425656673296E-2    1.438716110148218E-2   -6.404563762276336E-3    1.456711979769729E-2   -6.017561105667728E-3    2.201889263921805E-1    5.024733408788039E-1
 6.517238757125000E9    -2.279361735065165E-1   -1.376818699914254E-2    1.454861724277721E-2   -6.438368439072425E-3    1.459664934736153E-2   -5.919173805674621E-3    2.213230040843151E-1    5.019600775015740E-1
 6.517250720000000E9    -2.278638603870453E-1   -1.357148120689846E-2    1.447443529485313E-2   -6.635507959223664E-3    1.467904442818273E-2   -6.155952245272053E-3    2.222124398929895E-1    5.017906818924772E-1
 6.517262682875000E9    -2.276460403661063E-1   -1.336234416422785E-2    1.441225853878123E-2   -6.609746486046692E-3    1.472952298828608E-2   -6.177516259223299E-3    2.230240649198490E-1    5.012212881278152E-1
 6.517274645750000E9    -2.274558864864905E-1   -1.326836264962989E-2    1.472257598022508E-2   -6.698164225416913E-3    1.479469059112520E-2   -6.224519991761807E-3    2.239607016082619E-1    5.009407980469305E-1
 6.517286608625000E9    -2.273274255524171E-1   -1.307458848564266E-2    1.472788322761237E-2   -6.775682408607903E-3    1.479557861830777E-2   -6.246614749014644E-3    2.248681385927786E-1    5.006058650077477E-1
 6.517298571500000E9    -2.272083485675335E-1   -1.295638029131127E-2    1.482636341143601E-2   -6.787847111318978E-3    1.495126688245436E-2   -6.402106360022131E-3    2.256816268783936E-1    5.002065877459919E-1
 6.517310534375000E9    -2.270488014351974E-1   -1.295439029946172E-2    1.478086744279074E-2   -6.922773593020394E-3    1.502532303908036E-2   -6.373695475322496E-3    2.266258877715629E-1    4.995561969551812E-1
 6.517322497250000E9    -2.269281068593048E-1   -1.252803797206403E-2    1.487948431395774E-2   -6.959881116403529E-3    1.507861477020440E-2   -6.580549266522018E-3    2.274314398691260E-1    4.992693614953569E-1
 6.517334460125000E9    -2.267982675897752E-1   -1.248464941251630E-2    1.505715299548533E-2   -7.190232823996447E-3    1.514333753685883E-2   -6.581052380964079E-3    2.282171103261461E-1    4.988722991128630E-1
 6.517346423000000E9    -2.266261484974497E-1   -1.237979822428540E-2    1.509240858592350E-2   -7.169556680980472E-3    1.523465657391472E-2   -6.630404672426307E-3    2.291403979310743E-1    4.985305105739279E-1
 6.517358385875000E9    -2.265770362026419E-1   -1.210913498056065E-2    1.522158757992526E-2   -7.276086005665972E-3    1.520869167067022E-2   -6.781298408932241E-3    2.300430963462397E-1    4.981587919652167E-1
 6.517370348750000E9    -2.264098991170037E-1   -1.188999182270175E-2    1.510123205333270E-2   -7.363681285184697E-3    1.537589870149321E-2   -6.829011406889757E-3    2.309698034182816E-1    4.977060368618874E-1
 6.517382311625000E9    -2.261679753233945E-1   -1.177011883726497E-2    1.534688944319798E-2   -7.365017209749146E-3    1.542060971869121E-2   -6.929165192625350E-3    2.319003961607793E-1    4.971114306934709E-1
 6.517394274500000E9    -2.260200022779873E-1   -1.160117972882630E-2    1.541908485642284E-2   -7.395573256787751E-3    1.552387275406361E-2   -7.030598699816246E-3    2.325711062019681E-1    4.967167759893823E-1
 6.517406237375000E9    -2.259604814834008E-1   -1.140441963425366E-2    1.527180888859817E-2   -7.453005756239037E-3    1.555190080094221E-2   -6.999523660252145E-3    2.335304459346431E-1    4.964626004789534E-1
 6.517418200250000E9    -2.257126215519106E-1   -1.129348734882044E-2    1.551269733067080E-2   -7.587693442700181E-3    1.567598168455706E-2   -7.111498017957441E-3    2.344807959377025E-1    4.960558068486114E-1
 6.517430163125000E9    -2.255433368328368E-1   -1.115286714124978E-2    1.554621494679546E-2   -7.651755469458973E-3    1.568254411148831E-2   -7.200368955357180E-3    2.353780595867800E-1    4.957323115899526E-1
 6.517442126000000E9    -2.254583165085952E-1   -1.098263199758812E-2    1.554283841796821E-2   -7.667239586802566E-3    1.587725702976217E-2   -7.215369439595751E-3    2.362840707745548E-1    4.952369362826330E-1
 6.517454088875000E9    -2.253339937397153E-1   -1.087278308239193E-2    1.574572879032856E-2   -7.945384243601129E-3    1.591835549027860E-2   -7.274727541135080E-3    2.371796716335135E-1    4.948592011418364E-1
 6.517466051750000E9    -2.251016827823023E-1   -1.067001475616043E-2    1.581973310085268E-2   -7.954108332059433E-3    1.594094084182167E-2   -7.368930345452079E-3    2.380507289497473E-1    4.943662478677399E-1
 6.517478014625000E9    -2.249963177321673E-1   -1.058583199959180E-2    1.594394688106043E-2   -8.005143088714112E-3    1.611814954833067E-2   -7.490441713578147E-3    2.390214844814835E-1    4.940961021160126E-1
 6.517489977500000E9    -2.248010637724542E-1   -1.040444951814617E-2    1.585896611333654E-2   -7.956881305135919E-3    1.611894434598139E-2   -7.593377017351505E-3    2.398959804177763E-1    4.935739735965468E-1
 6.517501940375000E9    -2.246506135232403E-1   -1.013578022834173E-2    1.605460546350100E-2   -8.245231947921339E-3    1.617870377699899E-2   -7.680718249153473E-3    2.406626178703734E-1    4.931740504891649E-1
 6.517513903250000E9    -2.244421050526464E-1   -1.003613469384200E-2    1.618049961994357E-2   -8.249710877767925E-3    1.632616252611357E-2   -7.790990511255514E-3    2.416574753597143E-1    4.927094256159553E-1
 6.517525866125000E9    -2.243108945982774E-1   -9.945290299880219E-3    1.617710456668428E-2   -8.284248603997353E-3    1.630819162010834E-2   -7.802059790905766E-3    2.424221747915810E-1    4.923599246619375E-1
 6.517537829000000E9    -2.242388363275291E-1   -9.776925452655913E-3    1.622644897642081E-2   -8.274831667791513E-3    1.643110806116858E-2   -7.925994664899483E-3    2.432862628437540E-1    4.919217186598845E-1
 6.517549791875000E9    -2.240950303602631E-1   -9.646223452039041E-3    1.645418993743130E-2   -8.493958953373766E-3    1.658063105245931E-2   -7.962553351408235E-3    2.441498089773415E-1    4.914162390763944E-1
 6.517561754750000E9    -2.238192384298840E-1   -9.461876796764373E-3    1.640290085564815E-2   -8.814226267952065E-3    1.674911450076396E-2   -8.089707698445530E-3    2.451388193577590E-1    4.909992569374481E-1
 6.517573717625000E9    -2.236689349273861E-1   -9.421185130275593E-3    1.657539054162746E-2   -8.822183265372614E-3    1.668640845604991E-2   -8.232027799821302E-3    2.458492422940931E-1    4.906822542868139E-1
 6.517585680500000E9    -2.234795249729310E-1   -9.128077640987275E-3    1.657967387184433E-2   -8.875489067522738E-3    1.677540082878923E-2   -8.273156826942294E-3    2.469539150622468E-1    4.900109639203591E-1
 6.517597643375000E9    -2.232929221000150E-1   -9.022049541343103E-3    1.669299804712312E-2   -8.841187708114411E-3    1.695403748964526E-2   -8.318003943084334E-3    2.478241365742009E-1    4.896633086828383E-1
 6.517609606250000E9    -2.231211946240892E-1   -8.883669311800544E-3    1.679707192517470E-2   -9.102917304017842E-3    1.697977066987637E-2   -8.390674619294148E-3    2.485894075275512E-1    4.891282201216248E-1
 6.517621569125000E9    -2.230445250309799E-1   -8.773862765379946E-3    1.683718815436071E-2   -9.196261967190903E-3    1.715974612856918E-2   -8.548601393352220E-3    2.495400959868168E-1    4.888317396033953E-1
 6.517633532000000E9    -2.228453061957323E-1   -8.640270841363356E-3    1.693785876853487E-2   -9.338330683537448E-3    1.724329774222398E-2   -8.625513821364891E-3    2.503663840002400E-1    4.882565227979081E-1
 6.517645494875000E9    -2.225935893751160E-1   -8.515961816064914E-3    1.694895564533035E-2   -9.364213221078136E-3    1.730403627089978E-2   -8.752771903598786E-3    2.512546237240687E-1    4.878620781059652E-1
 6.517657457750000E9    -2.225704891867742E-1   -8.394881029327656E-3    1.712926600701294E-2   -9.393620786524174E-3    1.746863558242936E-2   -8.849116468033639E-3    2.522205299598125E-1    4.874522962051531E-1
 6.517669420625000E9    -2.222591597137696E-1   -8.383013046412967E-3    1.736018431783568E-2   -9.516379525347504E-3    1.753686684122621E-2   -8.858863573431510E-3    2.532130296761633E-1    4.869166253602066E-1
 6.517681383500000E9    -2.221807048242785E-1   -8.107118959499601E-3    1.720564151071272E-2   -9.631190595246586E-3    1.769434683100406E-2   -9.066347734989096E-3    2.540346819402461E-1    4.863797253164578E-1
 6.517693346375000E9    -2.219497242639235E-1   -8.114638173961625E-3    1.750653931839852E-2   -9.640414310652571E-3    1.777684032091746E-2   -9.250416470411388E-3    2.549224693778608E-1    4.859566670528945E-1
 6.517705309250000E9    -2.217555096196419E-1   -7.940126633843024E-3    1.749304564431360E-2   -9.822396674995888E-3    1.783377280165637E-2   -9.243878323472619E-3    2.556545952925093E-1    4.855796750310368E-1
 6.517717272125000E9    -2.215862960866135E-1   -7.804869578122031E-3    1.770826081109268E-2   -1.005486337188566E-2    1.795488848202494E-2   -9.337217005272987E-3    2.565575744053495E-1    4.851075674158751E-1
 6.517729235000000E9    -2.212608314322574E-1   -7.742653847151415E-3    1.767112111920732E-2   -1.010188179964168E-2    1.808115310891390E-2   -9.503132937875374E-3    2.575111912015630E-1    4.845431572061746E-1
 6.517741197875000E9    -2.211570650653448E-1   -7.578256539984936E-3    1.770733271274257E-2   -1.011931481597797E-2    1.819190147261686E-2   -9.618593257865822E-3    2.584412782856988E-1    4.841326183692252E-1
 6.517753160750000E9    -2.209970649775579E-1   -7.439028574068545E-3    1.798106804028420E-2   -1.037370764452348E-2    1.823999575479538E-2   -9.745786107411102E-3    2.592172102308834E-1    4.835673279127884E-1
 6.517765123625000E9    -2.207617655909016E-1   -7.309668936961684E-3    1.807678812564629E-2   -1.048960642825103E-2    1.835982787576139E-2   -9.781536148520490E-3    2.602190202129070E-1    4.831476634494122E-1
 6.517777086500000E9    -2.206270690060377E-1   -7.229352168038895E-3    1.809634605700742E-2   -1.056849975499602E-2    1.840961049303866E-2   -1.005171526831615E-2    2.610136496778788E-1    4.827274212739514E-1
 6.517789049375000E9    -2.204246414301044E-1   -7.054216524107820E-3    1.815366269371569E-2   -1.068734922034672E-2    1.849212678244723E-2   -9.903999037168177E-3    2.619296677489476E-1    4.819742931084980E-1
 6.517801012250000E9    -2.201583432514993E-1   -7.057950533292725E-3    1.853079938334666E-2   -1.071280888441339E-2    1.865799184665909E-2   -1.025255788640499E-2    2.628575929216002E-1    4.816448244214077E-1
 6.517812975125000E9    -2.199548389150894E-1   -6.853073336836767E-3    1.834819300956677E-2   -1.098348738782525E-2    1.873151501611323E-2   -1.021072015125920E-2    2.638588218179290E-1    4.812154815306909E-1
 6.517824938000000E9    -2.197475919974070E-1   -6.793757801747408E-3    1.852882965873451E-2   -1.102240802167481E-2    1.881144568465565E-2   -1.051320195856682E-2    2.647949400804996E-1    4.806323294324705E-1
 6.517836900875000E9    -2.196309784923391E-1   -6.660996542192016E-3    1.864227005873405E-2   -1.106474383073483E-2    1.900255493479660E-2   -1.060794771975606E-2    2.654577491192958E-1    4.802279624712879E-1
 6.517848863750000E9    -2.193104107481048E-1   -6.571885039365804E-3    1.888801650167514E-2   -1.127808455596007E-2    1.913723771170989E-2   -1.068912334334673E-2    2.664027612830766E-1    4.796115584685888E-1
 6.517860826625000E9    -2.191895305682602E-1   -6.490359448771153E-3    1.882121418654653E-2   -1.142213363188586E-2    1.924477286086958E-2   -1.085344456769879E-2    2.673093652545828E-1    4.790585599683997E-1
 6.517872789500000E9    -2.190043250242147E-1   -6.397577616964667E-3    1.899034235151553E-2   -1.156342610523861E-2    1.929421179198548E-2   -1.095458119579582E-2    2.681655282908019E-1    4.784983932593670E-1
 6.517884752375000E9    -2.188124700259639E-1   -6.270595720116029E-3    1.916881065727343E-2   -1.181912169195578E-2    1.953017521892588E-2   -1.112224215114125E-2    2.690708580191610E-1    4.781089591863846E-1
 6.517896715250000E9    -2.185222798103114E-1   -6.251614218673291E-3    1.927040478575361E-2   -1.194138032789206E-2    1.957828297512636E-2   -1.126021845195526E-2    2.700592503671475E-1    4.776049595754399E-1
 6.517908678125000E9    -2.183567147586445E-1   -6.092310896153113E-3    1.938730218777974E-2   -1.194578007378484E-2    1.971496159897828E-2   -1.136721538273222E-2    2.708832352711975E-1    4.769080102923079E-1
 6.517920641000000E9    -2.180668432629273E-1   -6.088377019911814E-3    1.956530645171396E-2   -1.221808094323019E-2    1.984388175606851E-2   -1.151464009340775E-2    2.717244899803134E-1    4.765415899857110E-1
 6.517932603875000E9    -2.178760886370891E-1   -5.886804256648124E-3    1.967484237755897E-2   -1.221816165461315E-2    1.997862110684783E-2   -1.169797542200522E-2    2.725714298912566E-1    4.758946262238007E-1
 6.517944566750000E9    -2.176965598655768E-1   -5.914650878566365E-3    1.969673231225020E-2   -1.248437288565315E-2    1.998861095777248E-2   -1.198100752036403E-2    2.736214872964874E-1    4.755051007149365E-1
 6.517956529625000E9    -2.174539797545099E-1   -5.911101116137686E-3    1.981109105314003E-2   -1.262085645684455E-2    2.023437767565380E-2   -1.198234174024958E-2    2.744917517949503E-1    4.749642917509473E-1
 6.517968492500000E9    -2.171385938640103E-1   -5.698997481789959E-3    1.985624461994073E-2   -1.276448216533533E-2    2.040951726698773E-2   -1.205203417234367E-2    2.753643010715757E-1    4.743274846145756E-1
 6.517980455375000E9    -2.170043609478728E-1   -5.604982759257994E-3    2.008293319072800E-2   -1.291979461332823E-2    2.049307407612178E-2   -1.231626456963864E-2    2.762245572951679E-1    4.738328401863396E-1
 6.517992418250000E9    -2.167214210057268E-1   -5.566660916236465E-3    2.027009309391731E-2   -1.316710146009910E-2    2.058536032250447E-2   -1.248269184490322E-2    2.771081070246092E-1    4.731695979463464E-1
 6.518004381125000E9    -2.164557553923576E-1   -5.540772826112454E-3    2.036729239207300E-2   -1.336308874138858E-2    2.065885596396387E-2   -1.273235979704105E-2    2.781595754263486E-1    4.726893632797400E-1
 6.518016344000000E9    -2.162873079597145E-1   -5.512233294031436E-3    2.040894754099458E-2   -1.350909265341147E-2    2.083810765372340E-2   -1.281944549606369E-2    2.790661959801491E-1    4.719836521636121E-1
 6.518028306875000E9    -2.159905345066479E-1   -5.438664374116655E-3    2.045635517020347E-2   -1.380122935061857E-2    2.112786314816266E-2   -1.302989802273994E-2    2.798642011370551E-1    4.715419188447973E-1
 6.518040269750000E9    -2.157576786375487E-1   -5.378108403696537E-3    2.063766752981450E-2   -1.373743610801119E-2    2.127503024931322E-2   -1.311555636550383E-2    2.806677786090829E-1    4.708329087715983E-1
