#  HZ   S   RI   R     50.00 
! Rohde & Schwarz Vector Network Analyzer 
! Rohde-Schwarz,ZNB20-2Port,1311601062101988,3.16
! Created: UTC 3/20/2024, 10:56:36 PM
! freq[Hz]                re:S11                  im:S11                  re:S21                  im:S21                  re:S12                  im:S12                  re:S22                  im:S22
 9.937502997000000E9     4.672958659429479E-1   -1.194343264158539E-1   -1.310373622265326E-3   -1.444117176862831E-3   -1.314714638980071E-3   -1.441378235343288E-3    3.732181994040530E-1   -3.265027664754304E-1
 9.937504470225000E9     4.674252183702614E-1   -1.196951584814789E-1   -1.284661684722856E-3   -1.508154838121297E-3   -1.337613870182096E-3   -1.462816247203702E-3    3.729923735277901E-1   -3.264453498142700E-1
 9.937505943450001E9     4.674656545962391E-1   -1.197624165351848E-1   -1.321475222232542E-3   -1.496358286752651E-3   -1.366333815342254E-3   -1.505970013237601E-3    3.728461859249652E-1   -3.267325703139974E-1
 9.937507416674999E9     4.672725031246568E-1   -1.197980282860896E-1   -1.353919065312721E-3   -1.538101157197115E-3   -1.333528268700370E-3   -1.492691212721950E-3    3.728165256259243E-1   -3.269040952821981E-1
 9.937508889900000E9     4.673370695611371E-1   -1.198974306607198E-1   -1.357302456607782E-3   -1.582669090649298E-3   -1.400010771811587E-3   -1.559367321541944E-3    3.724317858159237E-1   -3.268246675005146E-1
 9.937510363125000E9     4.673378701193582E-1   -1.201250407719088E-1   -1.381846637907641E-3   -1.567845664220262E-3   -1.398617694159126E-3   -1.523484850462742E-3    3.722332351263016E-1   -3.270880563881114E-1
 9.937511836350000E9     4.671009618901422E-1   -1.201438255321575E-1   -1.350563303724285E-3   -1.536923818619964E-3   -1.432178028544418E-3   -1.542937440377282E-3    3.720401687970067E-1   -3.273437655520221E-1
 9.937513309575001E9     4.672635965734158E-1   -1.201970913780610E-1   -1.370444241771359E-3   -1.572288113751718E-3   -1.429903811542397E-3   -1.570426508304273E-3    3.718278721743405E-1   -3.273835091170268E-1
 9.937514782799999E9     4.671203624651873E-1   -1.202429455621052E-1   -1.396281945021815E-3   -1.578372878778426E-3   -1.459840823621823E-3   -1.576816147868341E-3    3.715469874677454E-1   -3.275864087020576E-1
 9.937516256025000E9     4.671778764125191E-1   -1.203694240677156E-1   -1.438525770137779E-3   -1.602101331570696E-3   -1.461692962840903E-3   -1.570553431483826E-3    3.713857684706534E-1   -3.278597926187956E-1
 9.937517729250000E9     4.671720866137554E-1   -1.205291320244778E-1   -1.428931933650799E-3   -1.620979527788350E-3   -1.455804956001353E-3   -1.598790385277292E-3    3.713485075245734E-1   -3.279763635157414E-1
 9.937519202475000E9     4.669967865613763E-1   -1.206091874234869E-1   -1.437321209149829E-3   -1.612377288844589E-3   -1.457055572917246E-3   -1.628105695085771E-3    3.710772245116285E-1   -3.282256594994594E-1
 9.937520675700001E9     4.670361136809896E-1   -1.207139046235885E-1   -1.479635191011638E-3   -1.583235224736144E-3   -1.519049637797252E-3   -1.662443934923385E-3    3.708733528506868E-1   -3.283337930036346E-1
 9.937522148924999E9     4.669887092066822E-1   -1.207622832051788E-1   -1.461109564445590E-3   -1.668519752447971E-3   -1.485350181609161E-3   -1.626266851023218E-3    3.704979165470520E-1   -3.283930948058870E-1
 9.937523622150000E9     4.669565449236929E-1   -1.210218540491313E-1   -1.488723581008871E-3   -1.687816689447694E-3   -1.556081030782905E-3   -1.678394713739354E-3    3.704814721522059E-1   -3.287442167378687E-1
 9.937525095375000E9     4.670295009284439E-1   -1.210358031542194E-1   -1.503846615319582E-3   -1.697687276258249E-3   -1.534886522581704E-3   -1.656991409184593E-3    3.701539724198018E-1   -3.287858885865010E-1
 9.937526568600000E9     4.670281693810060E-1   -1.211579089397852E-1   -1.515655324874966E-3   -1.681778647585378E-3   -1.555497279559948E-3   -1.691613170341079E-3    3.698906476275233E-1   -3.288744864051001E-1
 9.937528041825001E9     4.668744163833638E-1   -1.212070788444520E-1   -1.548606232050618E-3   -1.708575519424819E-3   -1.597868067776829E-3   -1.714657977678103E-3    3.697387374317646E-1   -3.291765308034146E-1
 9.937529515049999E9     4.668483162102884E-1   -1.213525420353737E-1   -1.552893021641819E-3   -1.749245225262125E-3   -1.598792784661881E-3   -1.722602476891516E-3    3.694438164299632E-1   -3.294289050089595E-1
 9.937530988275000E9     4.667719970663576E-1   -1.214546686479732E-1   -1.559309223737225E-3   -1.756955842425907E-3   -1.614695254600311E-3   -1.759541064136604E-3    3.693490354483598E-1   -3.294090050331832E-1
 9.937532461500000E9     4.668232630081099E-1   -1.214256336104045E-1   -1.542541838826807E-3   -1.751403795756771E-3   -1.629492686057799E-3   -1.756589907515099E-3    3.689905630352191E-1   -3.295043215582087E-1
 9.937533934725000E9     4.667909168167612E-1   -1.216978032338394E-1   -1.599211874937275E-3   -1.756565818446575E-3   -1.665338364784827E-3   -1.758737984820517E-3    3.688966533656140E-1   -3.297726693690691E-1
 9.937535407950001E9     4.666363687195889E-1   -1.217038929646472E-1   -1.576815668234946E-3   -1.774504585952151E-3   -1.668055360086791E-3   -1.758698107782328E-3    3.685396500241112E-1   -3.297812336383843E-1
 9.937536881174999E9     4.666664260637854E-1   -1.217887481823717E-1   -1.617058048725707E-3   -1.782941223162340E-3   -1.662313758842687E-3   -1.805092365834431E-3    3.686704425929270E-1   -3.301840211317722E-1
 9.937538354400000E9     4.667324282769774E-1   -1.219083662279613E-1   -1.627259061192863E-3   -1.815728100010153E-3   -1.682497015262217E-3   -1.821249081147626E-3    3.681256195740235E-1   -3.303335542936975E-1
 9.937539827625000E9     4.665973002404548E-1   -1.220574181091742E-1   -1.656078217133283E-3   -1.844033499873425E-3   -1.693094740804184E-3   -1.815017448292725E-3    3.681069074225894E-1   -3.304321877496489E-1
 9.937541300850000E9     4.665115771412729E-1   -1.221335309203780E-1   -1.673095987326194E-3   -1.821382037147075E-3   -1.722940418350832E-3   -1.836697136662538E-3    3.677915118365299E-1   -3.306943293127146E-1
 9.937542774075001E9     4.664814157314016E-1   -1.223374435449705E-1   -1.723478612061151E-3   -1.849470312948393E-3   -1.761962629295061E-3   -1.854876540877299E-3    3.677634661983369E-1   -3.310091113436945E-1
 9.937544247299999E9     4.664369775111851E-1   -1.223670213540347E-1   -1.705687110657425E-3   -1.864458839567281E-3   -1.753178286074197E-3   -1.889417464757996E-3    3.673753289610338E-1   -3.312004167439870E-1
 9.937545720525000E9     4.664295503699775E-1   -1.225816650581566E-1   -1.734654912057426E-3   -1.871054157607204E-3   -1.783950346130684E-3   -1.927941085200548E-3    3.672063920530672E-1   -3.311773975125802E-1
 9.937547193750000E9     4.663395362529312E-1   -1.225981455906540E-1   -1.800027866267243E-3   -1.964581139459524E-3   -1.811862816523216E-3   -1.939521530642428E-3    3.668079958559006E-1   -3.314001580184053E-1
 9.937548666975000E9     4.663293806360497E-1   -1.226424247251893E-1   -1.817638481006962E-3   -1.914319048801484E-3   -1.822097194550042E-3   -1.920411530177629E-3    3.668333146263759E-1   -3.316119742976833E-1
 9.937550140200001E9     4.663124775901056E-1   -1.226663146745017E-1   -1.770357814912998E-3   -1.928350192531050E-3   -1.816660101409375E-3   -1.911805552145498E-3    3.666259207753457E-1   -3.317028977729841E-1
 9.937551613424999E9     4.663511226584502E-1   -1.229193471711490E-1   -1.753455855172441E-3   -1.917477611601691E-3   -1.846158867122110E-3   -1.947540178564969E-3    3.660311235413738E-1   -3.317902971757764E-1
 9.937553086650000E9     4.663005968189931E-1   -1.228778129748499E-1   -1.832087734511144E-3   -2.000887137475031E-3   -1.877207146846408E-3   -1.996149844623001E-3    3.658529235799802E-1   -3.320916842037506E-1
 9.937554559875000E9     4.664183696098469E-1   -1.229895919085024E-1   -1.855847300088644E-3   -1.992949336564233E-3   -1.885068132888249E-3   -1.973628937022937E-3    3.657844161959730E-1   -3.324655824825875E-1
 9.937556033100000E9     4.662329004530582E-1   -1.230858541530250E-1   -1.821606606300915E-3   -2.006278974105464E-3   -1.936185619943678E-3   -2.009709021695540E-3    3.652981203307524E-1   -3.325336023295521E-1
 9.937557506325001E9     4.661647853723131E-1   -1.232470905000813E-1   -1.882492530035491E-3   -1.998618259058785E-3   -1.963544846019045E-3   -2.050259784362039E-3    3.651167222260893E-1   -3.325358812270425E-1
 9.937558979549999E9     4.662014931614295E-1   -1.234058676131192E-1   -1.907590365524146E-3   -2.065543766257878E-3   -1.976780352262484E-3   -2.050838109915790E-3    3.647795243627257E-1   -3.329647830854583E-1
 9.937560452775000E9     4.663251317711519E-1   -1.234264479409191E-1   -1.915107378217825E-3   -2.085730004259762E-3   -2.011068559282471E-3   -2.040591530179122E-3    3.645703000687473E-1   -3.330859403844039E-1
 9.937561926000000E9     4.661550066133961E-1   -1.234733815921769E-1   -1.981953693685527E-3   -2.077277587079727E-3   -2.034338372992935E-3   -2.106061413682305E-3    3.644557123865762E-1   -3.330534102439227E-1
 9.937563399225000E9     4.660459575328295E-1   -1.236306460082859E-1   -1.972754011198816E-3   -2.106654226963295E-3   -2.012812100147757E-3   -2.091027734154660E-3    3.640200751100354E-1   -3.334696810513323E-1
 9.937564872450001E9     4.661217565247338E-1   -1.238140587558242E-1   -1.970561454440059E-3   -2.142897644783257E-3   -2.062210650499421E-3   -2.134621561454489E-3    3.639777972632764E-1   -3.336681754606751E-1
 9.937566345674999E9     4.659664153750544E-1   -1.239130644423323E-1   -2.032146146826612E-3   -2.143893139923567E-3   -2.118414224469824E-3   -2.140114376477721E-3    3.634868074315261E-1   -3.338711469120552E-1
 9.937567818900000E9     4.659454831089442E-1   -1.239974426437162E-1   -2.047960181570815E-3   -2.157526550468991E-3   -2.114287536995932E-3   -2.166774585884541E-3    3.632873084854877E-1   -3.340692516964437E-1
 9.937569292125000E9     4.659283834662071E-1   -1.241371238987243E-1   -2.047058441388597E-3   -2.201705953861411E-3   -2.152763743893350E-3   -2.186005036781360E-3    3.629204546434238E-1   -3.345379140125682E-1
 9.937570765350000E9     4.657838615467582E-1   -1.241263393124813E-1   -2.068439620002385E-3   -2.182821528647927E-3   -2.131888129137076E-3   -2.231915165382911E-3    3.627713444077602E-1   -3.345869322441508E-1
 9.937572238575001E9     4.658712937801296E-1   -1.242059093995301E-1   -2.140581844193773E-3   -2.222878681244230E-3   -2.169303707788424E-3   -2.234763094569428E-3    3.624924941699837E-1   -3.345447978402912E-1
 9.937573711799999E9     4.659427391596572E-1   -1.244092190180529E-1   -2.134874775546360E-3   -2.238693070918747E-3   -2.203423934638934E-3   -2.230612210323603E-3    3.621836160008545E-1   -3.349304003617298E-1
 9.937575185025000E9     4.658465584333570E-1   -1.243793137288487E-1   -2.147373170723115E-3   -2.253705371314189E-3   -2.237694509103513E-3   -2.272454989484446E-3    3.617308636655429E-1   -3.349378739256353E-1
 9.937576658250000E9     4.657751031914583E-1   -1.245605087451690E-1   -2.184562570603418E-3   -2.251923944303849E-3   -2.264753851298729E-3   -2.296808001459860E-3    3.613694860157682E-1   -3.352864646340259E-1
 9.937578131475000E9     4.657467140790961E-1   -1.246095487090041E-1   -2.225415540306652E-3   -2.325742877433084E-3   -2.314721510692246E-3   -2.302724137470081E-3    3.612600719873534E-1   -3.355993545164508E-1
 9.937579604700001E9     4.657995790496169E-1   -1.247381041527914E-1   -2.238998925352222E-3   -2.350402085740406E-3   -2.327416793949268E-3   -2.363930837702647E-3    3.609092480653476E-1   -3.356401761383713E-1
 9.937581077924999E9     4.657401509782815E-1   -1.248486870065336E-1   -2.266235532194783E-3   -2.383212503184151E-3   -2.342916612137818E-3   -2.345400230033035E-3    3.604022230349067E-1   -3.356837694345631E-1
 9.937582551150000E9     4.655229464477255E-1   -1.250372559073576E-1   -2.298018417094426E-3   -2.330523470529522E-3   -2.364683245283767E-3   -2.365176354535055E-3    3.602559661780739E-1   -3.360599597023913E-1
 9.937584024375000E9     4.656625453066403E-1   -1.250423681812748E-1   -2.314982006448649E-3   -2.390108798825816E-3   -2.378837812383728E-3   -2.389366161565912E-3    3.598793776584941E-1   -3.363733340703305E-1
 9.937585497600000E9     4.655419458226709E-1   -1.251774703057664E-1   -2.371643859422634E-3   -2.407032257554140E-3   -2.442872041946468E-3   -2.419518541591303E-3    3.597760310051050E-1   -3.365559114161339E-1
 9.937586970825001E9     4.655845274220828E-1   -1.252472630204668E-1   -2.375335516068705E-3   -2.442876012955825E-3   -2.431409283604302E-3   -2.436899529720539E-3    3.594154243149217E-1   -3.365917241362520E-1
 9.937588444049999E9     4.654568316948376E-1   -1.254802643272311E-1   -2.416065131267156E-3   -2.486020705797749E-3   -2.477260124066769E-3   -2.469736459486666E-3    3.591026228440917E-1   -3.370327155553434E-1
 9.937589917275000E9     4.655722186689693E-1   -1.255427374118439E-1   -2.454858293948162E-3   -2.486632192081376E-3   -2.529939513758812E-3   -2.500788670604896E-3    3.587641224912236E-1   -3.371816005375828E-1
 9.937591390500000E9     4.654244319444077E-1   -1.255020718464241E-1   -2.451119391631605E-3   -2.516371003174577E-3   -2.562864271383959E-3   -2.490092506331870E-3    3.583149495518346E-1   -3.374720897616452E-1
 9.937592863725000E9     4.653816687824570E-1   -1.256447840887920E-1   -2.511861358972791E-3   -2.539124864585649E-3   -2.581492839938830E-3   -2.536777405027338E-3    3.580176545659941E-1   -3.377086005442205E-1
 9.937594336950001E9     4.654948412052754E-1   -1.258095927199047E-1   -2.529746334387505E-3   -2.555314402132613E-3   -2.622607855893328E-3   -2.554578110127114E-3    3.576755771979515E-1   -3.378649186775954E-1
 9.937595810174999E9     4.652339643581352E-1   -1.258713863796283E-1   -2.546774870421277E-3   -2.587479314477083E-3   -2.650220340337676E-3   -2.575760118148685E-3    3.573898360409722E-1   -3.381965697979530E-1
 9.937597283400000E9     4.652354609313826E-1   -1.259290747121528E-1   -2.545479271046050E-3   -2.569969562818135E-3   -2.659529380230105E-3   -2.616368872899047E-3    3.568511342680401E-1   -3.382621254949356E-1
 9.937598756625000E9     4.651841441201221E-1   -1.260984161917932E-1   -2.608360085563266E-3   -2.598799273209901E-3   -2.699041676428907E-3   -2.656252675413949E-3    3.565356190756470E-1   -3.386000281304279E-1
 9.937600229850000E9     4.651388610680949E-1   -1.262075300076374E-1   -2.647105068496461E-3   -2.691802601929139E-3   -2.732305953363685E-3   -2.688920946039283E-3    3.562254040451054E-1   -3.387067692330644E-1
 9.937601703075001E9     4.652517459508114E-1   -1.263598541888232E-1   -2.687949866817737E-3   -2.710362072571590E-3   -2.771985354123870E-3   -2.662729110901456E-3    3.558009340246092E-1   -3.390211464558397E-1
 9.937603176299999E9     4.652313432567144E-1   -1.263018941105271E-1   -2.698298329314795E-3   -2.739640492823692E-3   -2.802629938377991E-3   -2.700363841989804E-3    3.553973697691072E-1   -3.392772892579428E-1
 9.937604649525000E9     4.652233351294334E-1   -1.264683671520550E-1   -2.768401176481436E-3   -2.726223031992011E-3   -2.844239071023403E-3   -2.728330325401294E-3    3.550119624696819E-1   -3.396078780584505E-1
 9.937606122750000E9     4.651575603095911E-1   -1.265509152103760E-1   -2.755036601677517E-3   -2.748816290658491E-3   -2.861103275947929E-3   -2.762105149702038E-3    3.547716833879555E-1   -3.396322062136983E-1
 9.937607595975000E9     4.648974111268689E-1   -1.266012287701649E-1   -2.830092571957546E-3   -2.778553617120635E-3   -2.913561466632796E-3   -2.784713930639807E-3    3.541558617589827E-1   -3.398794757957651E-1
 9.937609069200001E9     4.649879035810122E-1   -1.267466499706257E-1   -2.822919563538226E-3   -2.773909893951907E-3   -2.930864598482183E-3   -2.796874900168373E-3    3.538804748341354E-1   -3.400757767150853E-1
 9.937610542424999E9     4.650118378348655E-1   -1.268896948123318E-1   -2.875618374900830E-3   -2.829018271206919E-3   -2.976932157683384E-3   -2.854342404564883E-3    3.534533873626781E-1   -3.404969706417778E-1
 9.937612015650000E9     4.649206952130705E-1   -1.269686091263617E-1   -2.915674775507564E-3   -2.872193075293161E-3   -3.045019892260590E-3   -2.850190680790824E-3    3.530312726413953E-1   -3.407009156258657E-1
 9.937613488875000E9     4.647954441707160E-1   -1.270083655495658E-1   -2.975361094898876E-3   -2.905929516068087E-3   -3.042686834964093E-3   -2.888576611205400E-3    3.528392191259783E-1   -3.409848570453180E-1
 9.937614962100000E9     4.649009826255794E-1   -1.271216681755924E-1   -2.996840343086568E-3   -2.936838830981802E-3   -3.110105993507793E-3   -2.932334457424464E-3    3.522061146598233E-1   -3.412737743746074E-1
 9.937616435325001E9     4.648461240989685E-1   -1.273331195231548E-1   -3.039876533417060E-3   -2.954167982320171E-3   -3.153194806955353E-3   -2.953685995696161E-3    3.518951689211910E-1   -3.414863646375330E-1
 9.937617908549999E9     4.646976666735639E-1   -1.273840091170892E-1   -3.064509768415946E-3   -3.004331139762026E-3   -3.187922727270975E-3   -2.957139661844680E-3    3.513159979493800E-1   -3.419028536784292E-1
 9.937619381775000E9     4.647191625478491E-1   -1.274088263514348E-1   -3.153277487603421E-3   -3.025259183388917E-3   -3.221036261110055E-3   -3.034834811626878E-3    3.510323288368503E-1   -3.420079479409708E-1
 9.937620855000000E9     4.645382667364291E-1   -1.277501963748160E-1   -3.163351131357413E-3   -3.048200096088073E-3   -3.267001068307223E-3   -3.034693861449164E-3    3.505006494456001E-1   -3.422562320575893E-1
 9.937622328225000E9     4.646605805649338E-1   -1.275883231447736E-1   -3.239613169981426E-3   -3.093778787885016E-3   -3.304358565008511E-3   -3.088955710923225E-3    3.501366407544697E-1   -3.426421930265293E-1
 9.937623801450001E9     4.645423264917895E-1   -1.278213495494463E-1   -3.277517301871494E-3   -3.111794687785432E-3   -3.357422204316284E-3   -3.135490723455805E-3    3.496897682376184E-1   -3.426771792202246E-1
 9.937625274674999E9     4.645553479815128E-1   -1.279030355800278E-1   -3.313834135668449E-3   -3.136326526205163E-3   -3.403588298930643E-3   -3.157256560447291E-3    3.491730321828801E-1   -3.429372177714824E-1
 9.937626747900000E9     4.645236067558244E-1   -1.280443018836684E-1   -3.323349312719888E-3   -3.166643081029423E-3   -3.476612187601623E-3   -3.171837606251314E-3    3.486537002864791E-1   -3.433285242272032E-1
 9.937628221125000E9     4.644193050074130E-1   -1.280310854778411E-1   -3.365234298928401E-3   -3.197402978577168E-3   -3.500108319583638E-3   -3.182769573016045E-3    3.484302953055278E-1   -3.435504732477491E-1
 9.937629694350000E9     4.644461758888178E-1   -1.281348475801034E-1   -3.429260643147549E-3   -3.231632656219107E-3   -3.540930565452070E-3   -3.195641706769716E-3    3.476614781331776E-1   -3.439106669523165E-1
 9.937631167575001E9     4.644633208836791E-1   -1.282881228153640E-1   -3.449555420358270E-3   -3.248889022973859E-3   -3.568294919836181E-3   -3.284042989175638E-3    3.472276600247922E-1   -3.441173881527941E-1
 9.937632640799999E9     4.644558974306859E-1   -1.284453835031549E-1   -3.532417485238458E-3   -3.296860813216957E-3   -3.656017835736347E-3   -3.280425793742139E-3    3.466012369716245E-1   -3.443610520725038E-1
 9.937634114025000E9     4.644455138127302E-1   -1.283905613699424E-1   -3.590617125041651E-3   -3.357939891260159E-3   -3.702506085097072E-3   -3.308073888028013E-3    3.460774105193393E-1   -3.444855313206779E-1
 9.937635587250000E9     4.643493377061447E-1   -1.285244562855059E-1   -3.631353684650368E-3   -3.345273686446599E-3   -3.730393512564165E-3   -3.358464872862753E-3    3.457601223617042E-1   -3.449063605039164E-1
