#  HZ   S   RI   R     50.00 
! Rohde & Schwarz Vector Network Analyzer 
! Rohde-Schwarz,ZNB20-2Port,1311601062101988,3.16
! Created: UTC 3/20/2024, 10:56:39 PM
! freq[Hz]                re:S11                  im:S11                  re:S21                  im:S21                  re:S12                  im:S12                  re:S22                  im:S22
 9.937499634000000E9     4.674321426028443E-1   -1.192054942497613E-1   -1.251608291289256E-3   -1.436968832109135E-3   -1.307979599276847E-3   -1.449775803993165E-3    3.735270122076375E-1   -3.257250914423026E-1
 9.937501108549999E9     4.676033612374455E-1   -1.193305913510665E-1   -1.275302185188428E-3   -1.461145573378731E-3   -1.331368996800430E-3   -1.468293750825710E-3    3.733562946147144E-1   -3.261632258692042E-1
 9.937502583100000E9     4.675055757319572E-1   -1.195206359788479E-1   -1.264247715581121E-3   -1.459534709527260E-3   -1.298929584829940E-3   -1.461882458725297E-3    3.731929723298434E-1   -3.262998110153767E-1
 9.937504057650000E9     4.675119408284698E-1   -1.196526285942081E-1   -1.309224673120044E-3   -1.503094958297624E-3   -1.334714838976220E-3   -1.503826670501328E-3    3.728294253157520E-1   -3.264186863205158E-1
 9.937505532200001E9     4.673518662808840E-1   -1.197659380081759E-1   -1.299981251645112E-3   -1.516127799728541E-3   -1.353628713452603E-3   -1.515986793613992E-3    3.728068813084432E-1   -3.268810880917219E-1
 9.937507006750000E9     4.673016623263369E-1   -1.198366803070288E-1   -1.346886405889702E-3   -1.517904700168472E-3   -1.385931428140852E-3   -1.519878671212746E-3    3.724639550824853E-1   -3.269026338324670E-1
 9.937508481299999E9     4.673391320301370E-1   -1.199522282879761E-1   -1.355792808167244E-3   -1.531232996991159E-3   -1.424806767769732E-3   -1.527787975418453E-3    3.724102673397292E-1   -3.270224471169868E-1
 9.937509955850000E9     4.673850720355477E-1   -1.201157157905892E-1   -1.378637079149469E-3   -1.519121167752511E-3   -1.415670371425677E-3   -1.533637339933573E-3    3.722777705812491E-1   -3.270096830915137E-1
 9.937511430400000E9     4.673611179370034E-1   -1.202857263132571E-1   -1.365195548309077E-3   -1.537167926363471E-3   -1.415457649520828E-3   -1.559875203646343E-3    3.718895930984796E-1   -3.272105928372855E-1
 9.937512904950001E9     4.672310113169138E-1   -1.202195792042333E-1   -1.397667532781748E-3   -1.533030535778188E-3   -1.447348201009367E-3   -1.541886808113787E-3    3.718462094570841E-1   -3.274758444829411E-1
 9.937514379500000E9     4.673239661404187E-1   -1.202587681977330E-1   -1.369725538202163E-3   -1.574314694450412E-3   -1.450118840987272E-3   -1.582328509617066E-3    3.714107173685338E-1   -3.277491117298707E-1
 9.937515854049999E9     4.671301157147104E-1   -1.203309107950463E-1   -1.393968115326489E-3   -1.582757893423048E-3   -1.482588826274804E-3   -1.599287587922347E-3    3.715237252164993E-1   -3.277873928877693E-1
 9.937517328600000E9     4.671331344792701E-1   -1.205433732142819E-1   -1.405213424142990E-3   -1.609165297879643E-3   -1.478527026488951E-3   -1.604077503783359E-3    3.712460204460220E-1   -3.279075639213298E-1
 9.937518803150000E9     4.670051671647266E-1   -1.205143390270980E-1   -1.439325663315100E-3   -1.600844106254297E-3   -1.496028401878636E-3   -1.618664541555103E-3    3.709685232061478E-1   -3.281858440142459E-1
 9.937520277700001E9     4.671038632183561E-1   -1.207902041035794E-1   -1.475143894652596E-3   -1.634843246109581E-3   -1.528841318701660E-3   -1.624662992509448E-3    3.708098675753757E-1   -3.282411303731942E-1
 9.937521752250000E9     4.669674742472079E-1   -1.207749815832682E-1   -1.486463812167025E-3   -1.697874110079030E-3   -1.524852304826579E-3   -1.651640344115020E-3    3.706710905639685E-1   -3.283681865716929E-1
 9.937523226799999E9     4.670540225755418E-1   -1.209034501852490E-1   -1.467960364934025E-3   -1.660330220853430E-3   -1.531633562256225E-3   -1.690524914069220E-3    3.703940637645343E-1   -3.286040132910910E-1
 9.937524701350000E9     4.670537570237456E-1   -1.209737182092213E-1   -1.543658817520970E-3   -1.672086103531998E-3   -1.591696011151180E-3   -1.672037635329102E-3    3.701629821601261E-1   -3.288159658595377E-1
 9.937526175900000E9     4.669901221500434E-1   -1.211864362753262E-1   -1.523596219660640E-3   -1.704932744398425E-3   -1.561638015958038E-3   -1.683513411816590E-3    3.697963733453675E-1   -3.290303678279863E-1
 9.937527650450001E9     4.669330213493406E-1   -1.211135078186904E-1   -1.554711513769187E-3   -1.712364459881092E-3   -1.615728324897109E-3   -1.722841740216120E-3    3.695830691518051E-1   -3.292425794107517E-1
 9.937529125000000E9     4.668812101986000E-1   -1.213585807841371E-1   -1.560546881421574E-3   -1.731859715668204E-3   -1.605463658150847E-3   -1.717965583469618E-3    3.696070118210766E-1   -3.294587009750928E-1
 9.937530599549999E9     4.667103288179671E-1   -1.214180227801915E-1   -1.523566359107922E-3   -1.747292568548346E-3   -1.663359167608094E-3   -1.754844094591326E-3    3.693489008614086E-1   -3.295072943966693E-1
 9.937532074100000E9     4.668529819201490E-1   -1.215256429458476E-1   -1.608324570743796E-3   -1.726613323533129E-3   -1.643884232370515E-3   -1.753075024930707E-3    3.689028855814317E-1   -3.296096521388258E-1
 9.937533548650000E9     4.667979669149043E-1   -1.216323903672653E-1   -1.639194854264124E-3   -1.808667131952056E-3   -1.680159385280096E-3   -1.756587671546513E-3    3.689030882948554E-1   -3.298295598974738E-1
 9.937535023200001E9     4.667021799930977E-1   -1.217108040327556E-1   -1.640273020991163E-3   -1.816081046080949E-3   -1.697367608149444E-3   -1.790556536677337E-3    3.685478629158099E-1   -3.299133927384533E-1
 9.937536497750000E9     4.666562212253298E-1   -1.218526074238343E-1   -1.654226947482448E-3   -1.794055104149259E-3   -1.716233114069360E-3   -1.795516937247177E-3    3.683085385179733E-1   -3.302550327975130E-1
 9.937537972299999E9     4.666806716243150E-1   -1.218542352631845E-1   -1.661796237415842E-3   -1.818902387614901E-3   -1.744747752613296E-3   -1.817774344555995E-3    3.682993943341895E-1   -3.306438171907163E-1
 9.937539446850000E9     4.667551154694895E-1   -1.219742943165797E-1   -1.695013854676384E-3   -1.870969848716240E-3   -1.754615028160874E-3   -1.856795356614818E-3    3.679541061467193E-1   -3.304793314173720E-1
 9.937540921400000E9     4.665020335367489E-1   -1.220265187160378E-1   -1.702031155913381E-3   -1.877850772765372E-3   -1.748831164978439E-3   -1.884059842711034E-3    3.676842112398636E-1   -3.308969815582485E-1
 9.937542395950001E9     4.665035865707897E-1   -1.222809718754555E-1   -1.690029502813607E-3   -1.899733200415474E-3   -1.782256611413808E-3   -1.856316382651836E-3    3.676259474383643E-1   -3.311337188809494E-1
 9.937543870500000E9     4.666833901025615E-1   -1.222786852464594E-1   -1.739441378952120E-3   -1.909319560884948E-3   -1.813109122646158E-3   -1.906981242149530E-3    3.672337018421246E-1   -3.310952948456448E-1
 9.937545345049999E9     4.665220944633816E-1   -1.223146554783235E-1   -1.719112869730147E-3   -1.909310512206030E-3   -1.850495429544069E-3   -1.918774297224629E-3    3.667473415909327E-1   -3.311950396457086E-1
 9.937546819600000E9     4.664610141612252E-1   -1.224878476199867E-1   -1.785612886419210E-3   -1.948071328295994E-3   -1.833691832330989E-3   -1.916241701972627E-3    3.666114770444514E-1   -3.315039739585096E-1
 9.937548294150000E9     4.663487601667382E-1   -1.226606436674251E-1   -1.806485551612475E-3   -1.944067831125350E-3   -1.846880434302179E-3   -1.939484464881617E-3    3.663481453639370E-1   -3.316080579818754E-1
 9.937549768700001E9     4.664431524578945E-1   -1.225977635914010E-1   -1.815559136045276E-3   -1.964808367907328E-3   -1.868219140979431E-3   -1.980755698863756E-3    3.662641389730614E-1   -3.319456714742858E-1
 9.937551243250000E9     4.663340281806688E-1   -1.228869313953293E-1   -1.846537578082347E-3   -2.011858958486584E-3   -1.887651772457582E-3   -1.988607094920227E-3    3.659489108477197E-1   -3.319850664632196E-1
 9.937552717799999E9     4.662814465966135E-1   -1.227847783130889E-1   -1.841699252289059E-3   -1.989727818105347E-3   -1.919598978449794E-3   -1.993556189979000E-3    3.657800351633672E-1   -3.323930909162493E-1
 9.937554192350000E9     4.664550860289172E-1   -1.228732112776892E-1   -1.865373709591452E-3   -2.036954220507946E-3   -1.933835433995922E-3   -1.988510184873252E-3    3.653105729449436E-1   -3.323878141290122E-1
 9.937555666900000E9     4.661079245485542E-1   -1.231273793575796E-1   -1.927797486708771E-3   -2.034097216620430E-3   -1.954673416507383E-3   -2.038905451258307E-3    3.650237530263757E-1   -3.326252074359394E-1
 9.937557141450001E9     4.661903070703699E-1   -1.232286863736299E-1   -1.928299702901926E-3   -2.055008689632527E-3   -1.955642153525962E-3   -2.052817446150858E-3    3.648481445975628E-1   -3.325681849713273E-1
 9.937558616000000E9     4.662500786611663E-1   -1.232859349129341E-1   -1.953170456000904E-3   -2.062630259005811E-3   -1.975252006585210E-3   -2.065609836128399E-3    3.647481887668390E-1   -3.328948165902649E-1
 9.937560090549999E9     4.660908506477749E-1   -1.233823856433020E-1   -1.958026609543403E-3   -2.090241677098220E-3   -2.028102305776502E-3   -2.108497108846308E-3    3.643922774831352E-1   -3.331891163804805E-1
 9.937561565100000E9     4.660832399592615E-1   -1.237323298078864E-1   -1.989413900127858E-3   -2.095707462502740E-3   -2.059266799088938E-3   -2.126847561363558E-3    3.641982753160873E-1   -3.333893978672278E-1
 9.937563039650000E9     4.660248868038491E-1   -1.236102720529706E-1   -2.014090661448467E-3   -2.105036440725224E-3   -2.086747634892725E-3   -2.122918350748906E-3    3.637139343714199E-1   -3.335812164535233E-1
 9.937564514200001E9     4.660511068984646E-1   -1.236264311480202E-1   -2.027969269974025E-3   -2.148821186008984E-3   -2.085227302225753E-3   -2.162308356620367E-3    3.634638383695487E-1   -3.338541918742803E-1
 9.937565988750000E9     4.660510196512010E-1   -1.238877687444303E-1   -2.063003868120277E-3   -2.160116709534069E-3   -2.105514734574986E-3   -2.181523066488395E-3    3.631891690067940E-1   -3.338332848753506E-1
 9.937567463299999E9     4.659462665542051E-1   -1.239253175956203E-1   -2.074609322323454E-3   -2.186275958989685E-3   -2.151300923468908E-3   -2.189530695187534E-3    3.631388620041626E-1   -3.341749254345799E-1
 9.937568937850000E9     4.659831591693373E-1   -1.241273034465512E-1   -2.096995916069123E-3   -2.229600419568827E-3   -2.193714022194927E-3   -2.221164148016691E-3    3.627181669293812E-1   -3.344149305798751E-1
 9.937570412400000E9     4.659450733705746E-1   -1.240906682343920E-1   -2.136635464066314E-3   -2.251078072925423E-3   -2.197528066723518E-3   -2.206971967852979E-3    3.624242239552225E-1   -3.345608384474718E-1
 9.937571886950001E9     4.657927767657977E-1   -1.242581866273419E-1   -2.162645023611180E-3   -2.265255202557455E-3   -2.238861764393850E-3   -2.270167579727020E-3    3.620717772395005E-1   -3.347316628036187E-1
 9.937573361500000E9     4.658665407850329E-1   -1.244548807383476E-1   -2.186910245727081E-3   -2.308731766685846E-3   -2.237531072648154E-3   -2.247972733635787E-3    3.616371732197265E-1   -3.350807003787671E-1
 9.937574836049999E9     4.656870323123479E-1   -1.245140031083018E-1   -2.181204100208326E-3   -2.261949811006458E-3   -2.248068794690973E-3   -2.310140920030250E-3    3.616224505146000E-1   -3.352430773044924E-1
 9.937576310600000E9     4.658504791811672E-1   -1.246666700029042E-1   -2.233595054951117E-3   -2.325766159325179E-3   -2.276595918715720E-3   -2.313973347385197E-3    3.612024358479158E-1   -3.353482065254066E-1
 9.937577785150000E9     4.657642163662772E-1   -1.245716662895533E-1   -2.218474247665692E-3   -2.312106674770493E-3   -2.322956027105020E-3   -2.380494352453084E-3    3.609756915551949E-1   -3.355859665880102E-1
 9.937579259700001E9     4.656866043038535E-1   -1.247169853213681E-1   -2.256728848590389E-3   -2.386551244130204E-3   -2.321765907209338E-3   -2.341908167748122E-3    3.604027672873696E-1   -3.359192197046981E-1
 9.937580734250000E9     4.656193338501446E-1   -1.248110735580504E-1   -2.294990975855142E-3   -2.408247785048588E-3   -2.332731429919782E-3   -2.369634794106886E-3    3.602921372882150E-1   -3.362454283602482E-1
 9.937582208799999E9     4.654728095634394E-1   -1.249355492479795E-1   -2.351047534441748E-3   -2.370157738641532E-3   -2.401748076416678E-3   -2.410154880813535E-3    3.598304749216135E-1   -3.362092895279182E-1
 9.937583683350000E9     4.655677299591344E-1   -1.250543311787921E-1   -2.376186008842784E-3   -2.415490766813124E-3   -2.427088080556433E-3   -2.439906194960226E-3    3.597018481616824E-1   -3.365997492898125E-1
 9.937585157900000E9     4.656231764407457E-1   -1.251253021492689E-1   -2.381612659215059E-3   -2.452797688447455E-3   -2.473631616741409E-3   -2.421941981341689E-3    3.593062743910315E-1   -3.365133296106939E-1
 9.937586632450001E9     4.655490441958708E-1   -1.252391241240293E-1   -2.434544788734912E-3   -2.461449790310295E-3   -2.476021249157293E-3   -2.463416905783708E-3    3.590135618920222E-1   -3.369901951399666E-1
 9.937588107000000E9     4.654032884616810E-1   -1.253618704412611E-1   -2.462994092903666E-3   -2.520507849004576E-3   -2.521716147898246E-3   -2.520072373396529E-3    3.586134172906109E-1   -3.373050928830192E-1
 9.937589581549999E9     4.655039881256400E-1   -1.254933290790580E-1   -2.479837894567326E-3   -2.481750458601978E-3   -2.575289816945195E-3   -2.492173731337041E-3    3.583421148436437E-1   -3.373371581000577E-1
 9.937591056100000E9     4.655066171534422E-1   -1.256425708170511E-1   -2.498956175102381E-3   -2.549249979045350E-3   -2.622692892465913E-3   -2.547150719336044E-3    3.580524598577378E-1   -3.374050095823869E-1
 9.937592530650000E9     4.652981868087361E-1   -1.257609148484540E-1   -2.529848128740094E-3   -2.560917440902210E-3   -2.629817981943748E-3   -2.506997063833554E-3    3.576093086192463E-1   -3.377791528818085E-1
 9.937594005200001E9     4.653574558062343E-1   -1.256939804383756E-1   -2.556676491437946E-3   -2.599449813136913E-3   -2.660051880064361E-3   -2.592411233313253E-3    3.573678985434479E-1   -3.380855744457477E-1
 9.937595479750000E9     4.652486301424126E-1   -1.258718202070738E-1   -2.624486043802741E-3   -2.602999998153620E-3   -2.693072880108903E-3   -2.600934082638803E-3    3.568930210072666E-1   -3.384112589397149E-1
 9.937596954299999E9     4.653080338421336E-1   -1.260273781103717E-1   -2.641775008675856E-3   -2.592197346005928E-3   -2.704411593118601E-3   -2.647316065158827E-3    3.564571554446735E-1   -3.384182569186380E-1
 9.937598428850000E9     4.651811031730874E-1   -1.260152509137609E-1   -2.655794798414684E-3   -2.646538099524471E-3   -2.755757891211531E-3   -2.661073520712559E-3    3.562594773179524E-1   -3.386752914945972E-1
 9.937599903400000E9     4.652093933617695E-1   -1.260467993301155E-1   -2.707154671656207E-3   -2.675521333037419E-3   -2.783544595556907E-3   -2.698565308808674E-3    3.557982032313257E-1   -3.389305680331881E-1
 9.937601377950001E9     4.651362478231664E-1   -1.262297380929233E-1   -2.715495652766229E-3   -2.722804868489903E-3   -2.812764709499062E-3   -2.722385604544763E-3    3.554417303869361E-1   -3.392006010372052E-1
 9.937602852500000E9     4.650608965135870E-1   -1.263617124834935E-1   -2.756933681531717E-3   -2.775999705621694E-3   -2.823595300045818E-3   -2.722511729332934E-3    3.549369901299933E-1   -3.394314904312722E-1
 9.937604327049999E9     4.651171342063655E-1   -1.263779664585795E-1   -2.812319325527417E-3   -2.765440724421266E-3   -2.847291977117968E-3   -2.746442433775118E-3    3.547183823142821E-1   -3.399395838422923E-1
 9.937605801600000E9     4.650765825954304E-1   -1.265557752787745E-1   -2.825165951617347E-3   -2.785930488483127E-3   -2.907161084971191E-3   -2.766048470645116E-3    3.542817855100450E-1   -3.398793982674949E-1
 9.937607276150000E9     4.650851471957185E-1   -1.267188702839881E-1   -2.912409112099232E-3   -2.821914984554330E-3   -2.937891532092949E-3   -2.786732779392131E-3    3.537342122469680E-1   -3.402734229582114E-1
 9.937608750700001E9     4.651018598947543E-1   -1.266843438798109E-1   -2.924299434595061E-3   -2.855706476469111E-3   -2.983778160199400E-3   -2.842963626221294E-3    3.536447479076290E-1   -3.403005841982534E-1
 9.937610225250000E9     4.650401031273528E-1   -1.268756304235199E-1   -2.943824774448647E-3   -2.868926907935308E-3   -3.063715465474390E-3   -2.883436920639740E-3    3.531992245024572E-1   -3.406501714073342E-1
 9.937611699799999E9     4.648079204939640E-1   -1.268716432004695E-1   -2.988418129094688E-3   -2.913744206214015E-3   -3.080926363031569E-3   -2.890097268787339E-3    3.524902940201891E-1   -3.407652680077706E-1
 9.937613174350000E9     4.649153055072129E-1   -1.271283990309602E-1   -3.021988277380450E-3   -2.922802245640924E-3   -3.096619210479229E-3   -2.931907823058841E-3    3.522810319708025E-1   -3.411058562043105E-1
 9.937614648900000E9     4.647993359788289E-1   -1.270462647894853E-1   -3.080191064711301E-3   -2.949027926446196E-3   -3.141763434144612E-3   -2.991964801845473E-3    3.516464526090199E-1   -3.412773185700153E-1
 9.937616123450001E9     4.647546377081177E-1   -1.272352832086416E-1   -3.120392450366345E-3   -3.001007662267881E-3   -3.176852811630729E-3   -2.988122443437875E-3    3.514099018459087E-1   -3.415902039064455E-1
 9.937617598000000E9     4.647350187858621E-1   -1.274003406248021E-1   -3.110562257115406E-3   -3.040775947423602E-3   -3.263003917170650E-3   -3.001049642441483E-3    3.507452484312862E-1   -3.418254538467965E-1
 9.937619072549999E9     4.647194626402981E-1   -1.274284982694020E-1   -3.207064241342945E-3   -3.049246804143017E-3   -3.285742642744698E-3   -3.060751840878112E-3    3.504808857460985E-1   -3.423213856796106E-1
 9.937620547100000E9     4.646941785541629E-1   -1.275664960092074E-1   -3.219510912488401E-3   -3.109677901792163E-3   -3.334430361271853E-3   -3.058291154905655E-3    3.500899675784719E-1   -3.422564786839090E-1
 9.937622021650000E9     4.645835096913700E-1   -1.275326568818855E-1   -3.264452763540625E-3   -3.100026727973247E-3   -3.367437257518274E-3   -3.097216395541405E-3    3.496227261229263E-1   -3.425839063436940E-1
 9.937623496200001E9     4.645361792615312E-1   -1.278058548700378E-1   -3.320150001765691E-3   -3.117136853750208E-3   -3.418710962919692E-3   -3.134148556307999E-3    3.490443148274205E-1   -3.427946546029051E-1
 9.937624970750000E9     4.645590922124652E-1   -1.278565686778058E-1   -3.341053543354794E-3   -3.173663410849075E-3   -3.473064395990835E-3   -3.145406815145206E-3    3.487209722364044E-1   -3.432044653918205E-1
 9.937626445299999E9     4.645599918435062E-1   -1.280118944196138E-1   -3.406203181588352E-3   -3.188799714282486E-3   -3.510122006109149E-3   -3.210178916272831E-3    3.480505759870225E-1   -3.436318691786718E-1
 9.937627919850000E9     4.644891618086343E-1   -1.279614536918031E-1   -3.481620540151086E-3   -3.202962823366285E-3   -3.553481177333338E-3   -3.261275558182157E-3    3.477123369502277E-1   -3.436804604957189E-1
 9.937629394400000E9     4.644254540019264E-1   -1.281452726669364E-1   -3.497134222537379E-3   -3.232451904495068E-3   -3.635762696778004E-3   -3.261288379932659E-3    3.470813325744585E-1   -3.439212129291878E-1
 9.937630868950001E9     4.644754202570814E-1   -1.282735046336073E-1   -3.545523647852017E-3   -3.304317734331254E-3   -3.665951135165555E-3   -3.290762655407332E-3    3.466370941662810E-1   -3.441652034731334E-1
 9.937632343500000E9     4.644281948323673E-1   -1.283029744963913E-1   -3.603363448006048E-3   -3.332004898875734E-3   -3.724589826407235E-3   -3.336116558751460E-3    3.461399803334025E-1   -3.445546317565702E-1
