#  HZ   S   RI   R     50.00 
! Rohde & Schwarz Vector Network Analyzer 
! Rohde-Schwarz,ZNB20-2Port,1311601062101988,3.16
! Created: UTC 3/20/2024, 10:56:41 PM
! freq[Hz]                re:S11                  im:S11                  re:S21                  im:S21                  re:S12                  im:S12                  re:S22                  im:S22
 9.937491810000000E9     4.677424954248282E-1   -1.186396296450579E-1   -1.227562763408228E-3   -1.366196289319883E-3   -1.254464898539647E-3   -1.392959909368857E-3    3.745627736189364E-1   -3.250917555123665E-1
 9.937493313075001E9     4.676692270432088E-1   -1.188353427747527E-1   -1.206905022793431E-3   -1.414901784650420E-3   -1.273331314945447E-3   -1.412870094366486E-3    3.742043855455388E-1   -3.252593930965559E-1
 9.937494816150000E9     4.676488399490863E-1   -1.189179898313082E-1   -1.246262684817921E-3   -1.424014668213591E-3   -1.279419032624590E-3   -1.399961611042954E-3    3.740472373878865E-1   -3.254350713770671E-1
 9.937496319225000E9     4.675450569016912E-1   -1.190268235865943E-1   -1.268995273284298E-3   -1.433013651841644E-3   -1.298342888534689E-3   -1.436160560081233E-3    3.740065853611838E-1   -3.257859366979959E-1
 9.937497822299999E9     4.675811898198807E-1   -1.192367090719706E-1   -1.293469088986888E-3   -1.468364498963449E-3   -1.279128501775741E-3   -1.448403762669913E-3    3.737215437128805E-1   -3.259066417855483E-1
 9.937499325375000E9     4.676324975858398E-1   -1.191897732308711E-1   -1.305957391757471E-3   -1.461687231229899E-3   -1.327038504182797E-3   -1.452053874155620E-3    3.735857193805422E-1   -3.259616461897820E-1
 9.937500828450001E9     4.675163482863467E-1   -1.193372263601109E-1   -1.265116619736798E-3   -1.457314368923956E-3   -1.336942809380456E-3   -1.467017040905928E-3    3.731588521421904E-1   -3.263763004275391E-1
 9.937502331525000E9     4.673802501682476E-1   -1.195173329463073E-1   -1.331023060029969E-3   -1.478588159801281E-3   -1.322867430924267E-3   -1.492271432013506E-3    3.730793343123264E-1   -3.263221008703565E-1
 9.937503834600000E9     4.673971489083276E-1   -1.195092349913142E-1   -1.298512167484110E-3   -1.500158308479133E-3   -1.346966014398503E-3   -1.475281498391226E-3    3.730725384261548E-1   -3.266302627989153E-1
 9.937505337674999E9     4.674048843056794E-1   -1.197767943531233E-1   -1.348007709344564E-3   -1.519660779535065E-3   -1.374291786151265E-3   -1.502742714994614E-3    3.729347037298257E-1   -3.266274940655589E-1
 9.937506840750000E9     4.674755228868844E-1   -1.197461906726452E-1   -1.341034466732478E-3   -1.496487311418538E-3   -1.387352426357570E-3   -1.518360310084965E-3    3.727076852663618E-1   -3.268643678865684E-1
 9.937508343825001E9     4.672331706237313E-1   -1.198684594531523E-1   -1.366351745362549E-3   -1.533423483963560E-3   -1.375290631393218E-3   -1.522850934304668E-3    3.722668011503755E-1   -3.271667472588469E-1
 9.937509846900000E9     4.674136296293918E-1   -1.198812697879865E-1   -1.359394770064181E-3   -1.544683430389669E-3   -1.404777210771807E-3   -1.549838970588870E-3    3.721574144608190E-1   -3.271607545960140E-1
 9.937511349975000E9     4.672382970264962E-1   -1.200877037421541E-1   -1.363099986763340E-3   -1.559427636669658E-3   -1.425937424648289E-3   -1.569334314513990E-3    3.719813436285549E-1   -3.273534829195766E-1
 9.937512853049999E9     4.672275648611784E-1   -1.202660668793072E-1   -1.385794376069884E-3   -1.581039141486411E-3   -1.437069313319395E-3   -1.618859242399834E-3    3.718565349500735E-1   -3.275025664922315E-1
 9.937514356125000E9     4.672787264310246E-1   -1.204994318519105E-1   -1.381266154916776E-3   -1.574068266931505E-3   -1.474047763651282E-3   -1.595681350661164E-3    3.714903248542999E-1   -3.278405614679057E-1
 9.937515859200001E9     4.671857191173739E-1   -1.203693120147259E-1   -1.468601524973268E-3   -1.595547934240749E-3   -1.479775419174860E-3   -1.619187600171794E-3    3.713874966843227E-1   -3.279818257636429E-1
 9.937517362275000E9     4.671140053882313E-1   -1.204896197869390E-1   -1.460589545936005E-3   -1.613026833567138E-3   -1.510743817614030E-3   -1.636802221479089E-3    3.710783734427433E-1   -3.280802240885671E-1
 9.937518865350000E9     4.671699242468939E-1   -1.207247523612708E-1   -1.461325560254081E-3   -1.645199632633655E-3   -1.476494044944384E-3   -1.643936140900063E-3    3.709219222283317E-1   -3.281547528301513E-1
 9.937520368424999E9     4.670979490813273E-1   -1.207970378348905E-1   -1.486481248329537E-3   -1.679899729022723E-3   -1.495969504767071E-3   -1.634600884625345E-3    3.707885383327493E-1   -3.281582616201582E-1
 9.937521871500000E9     4.670816067588685E-1   -1.208878092330592E-1   -1.503785983667929E-3   -1.652799131924895E-3   -1.539420672676674E-3   -1.649922891454307E-3    3.704564504360177E-1   -3.286923554771984E-1
 9.937523374575001E9     4.671386680494155E-1   -1.208950368702337E-1   -1.540440633405364E-3   -1.704792792220175E-3   -1.566045559329946E-3   -1.681293963899952E-3    3.700913996012114E-1   -3.287416197065360E-1
 9.937524877650000E9     4.669062421534728E-1   -1.211434253991770E-1   -1.506837923284197E-3   -1.710550973880175E-3   -1.574286573852042E-3   -1.694887939478042E-3    3.700400497049649E-1   -3.288668294804609E-1
 9.937526380725000E9     4.668274256112135E-1   -1.210628287315390E-1   -1.539874048838368E-3   -1.706082052122679E-3   -1.605060394133300E-3   -1.732126154022194E-3    3.696931706341056E-1   -3.293173692205006E-1
 9.937527883799999E9     4.669219761617168E-1   -1.212808584606428E-1   -1.562652010529689E-3   -1.746534428025519E-3   -1.644706350487900E-3   -1.720525069517938E-3    3.694211832616107E-1   -3.292888457910627E-1
 9.937529386875000E9     4.668704009904699E-1   -1.212151479071262E-1   -1.593503801459339E-3   -1.752364307472704E-3   -1.615876164509356E-3   -1.730171889985866E-3    3.694630461779187E-1   -3.295106500454925E-1
 9.937530889950001E9     4.668395973764959E-1   -1.214577793224009E-1   -1.555213727050571E-3   -1.756663026100806E-3   -1.633742710851895E-3   -1.700892779761626E-3    3.690859115419010E-1   -3.295145072737068E-1
 9.937532393025000E9     4.668319229373983E-1   -1.215976162590830E-1   -1.633823974963960E-3   -1.769102393834330E-3   -1.658568258125314E-3   -1.770225392904432E-3    3.687795812362705E-1   -3.299060752779227E-1
 9.937533896100000E9     4.668597445683229E-1   -1.216289147632586E-1   -1.611677070173537E-3   -1.784667607437253E-3   -1.621635637642504E-3   -1.809335303527399E-3    3.687098327464818E-1   -3.298142753355953E-1
 9.937535399174999E9     4.667700527726763E-1   -1.216921712667736E-1   -1.654185649353527E-3   -1.793747029008749E-3   -1.682123853469124E-3   -1.764276466230424E-3    3.684938326404004E-1   -3.300816739606215E-1
 9.937536902250000E9     4.667902525927938E-1   -1.218922458057533E-1   -1.691784454485878E-3   -1.818474707752067E-3   -1.733640567126313E-3   -1.860080059062877E-3    3.681880107656475E-1   -3.303644608760440E-1
 9.937538405325001E9     4.667290503407132E-1   -1.219719334488268E-1   -1.695443817090630E-3   -1.833412333986297E-3   -1.733303610305857E-3   -1.861592391739833E-3    3.678660822975302E-1   -3.304525190207190E-1
 9.937539908400000E9     4.665892723417507E-1   -1.220232307278954E-1   -1.706413913463372E-3   -1.890622189644822E-3   -1.760379085110226E-3   -1.852724727650304E-3    3.676529278830573E-1   -3.307608957041328E-1
 9.937541411475000E9     4.666262523035233E-1   -1.221110721974221E-1   -1.740899484427823E-3   -1.880301591146340E-3   -1.823215011117994E-3   -1.868884822411851E-3    3.673161974182370E-1   -3.308141450875836E-1
 9.937542914549999E9     4.667198609854405E-1   -1.221355736281230E-1   -1.728981132321326E-3   -1.934352629961579E-3   -1.796056505310173E-3   -1.882294143763702E-3    3.672966096557281E-1   -3.308696559284172E-1
 9.937544417625000E9     4.664651255949430E-1   -1.225187186753896E-1   -1.733597548592482E-3   -1.911931246348921E-3   -1.807100341214142E-3   -1.915368091204480E-3    3.667740138020315E-1   -3.311307863303283E-1
 9.937545920700001E9     4.665351254213080E-1   -1.224434213719018E-1   -1.801979112015489E-3   -1.906648461004545E-3   -1.833842091763370E-3   -1.931982321489669E-3    3.666978244139311E-1   -3.314399161883330E-1
 9.937547423775000E9     4.664917142473038E-1   -1.226034933479437E-1   -1.790075869444311E-3   -1.941394552204674E-3   -1.870909816667440E-3   -1.937154087219654E-3    3.663873539342523E-1   -3.315559732691509E-1
 9.937548926850000E9     4.663898668036093E-1   -1.226219436897165E-1   -1.811825610110335E-3   -1.975936793073420E-3   -1.871802215614931E-3   -1.944833657916414E-3    3.662033249886557E-1   -3.318776130069633E-1
 9.937550429924999E9     4.664128455555709E-1   -1.227980316001527E-1   -1.859264018779993E-3   -1.970603039553936E-3   -1.930436131169739E-3   -1.971552584890025E-3    3.659663834907583E-1   -3.320290908024199E-1
 9.937551933000000E9     4.663091581798663E-1   -1.228354529330679E-1   -1.858279169307705E-3   -2.003515720783018E-3   -1.942392210573633E-3   -1.997227881006074E-3    3.656149830912602E-1   -3.321143829161107E-1
 9.937553436075001E9     4.662875286911157E-1   -1.229493802496769E-1   -1.915925362290229E-3   -1.990291724295414E-3   -1.932134577334276E-3   -2.007988563498327E-3    3.654829728383590E-1   -3.324495545235723E-1
 9.937554939150000E9     4.662809412434641E-1   -1.230477624794400E-1   -1.933095792256029E-3   -2.029175759338794E-3   -1.991769566875521E-3   -2.062826422263702E-3    3.651868608906830E-1   -3.326138822606300E-1
 9.937556442225000E9     4.662279614452144E-1   -1.231436069069620E-1   -1.931991902220893E-3   -2.037966794599156E-3   -1.979574800450054E-3   -2.035407443670565E-3    3.649294523222216E-1   -3.328505753820009E-1
 9.937557945299999E9     4.661080542954968E-1   -1.232985255078649E-1   -1.975059241557814E-3   -2.085471526237134E-3   -2.009389255666856E-3   -2.044422631287106E-3    3.646417835260107E-1   -3.332399538617936E-1
 9.937559448375000E9     4.660800227963894E-1   -1.234532959007215E-1   -1.951035717911873E-3   -2.096142338811525E-3   -2.043866388129105E-3   -2.101603817653058E-3    3.642454226018231E-1   -3.331724671047133E-1
 9.937560951450001E9     4.661523177267462E-1   -1.234340690991733E-1   -2.013832968565452E-3   -2.098151602653954E-3   -2.084509669147029E-3   -2.120795188684561E-3    3.639394193727694E-1   -3.333967727771451E-1
 9.937562454525000E9     4.660782304424566E-1   -1.236401614126398E-1   -2.027596379581355E-3   -2.140284865768711E-3   -2.090518633576245E-3   -2.141511888324065E-3    3.637882639937000E-1   -3.335070133361651E-1
 9.937563957600000E9     4.660280382072814E-1   -1.237198272011377E-1   -2.046216174510644E-3   -2.128035642319803E-3   -2.122815800555693E-3   -2.189494137317576E-3    3.636434428851096E-1   -3.338890585772574E-1
 9.937565460674999E9     4.660144985601120E-1   -1.239218881595622E-1   -2.070781254478824E-3   -2.158869322054933E-3   -2.137717609009917E-3   -2.171734203053630E-3    3.631644081497061E-1   -3.339327688567752E-1
 9.937566963750000E9     4.660311998364505E-1   -1.239417335139488E-1   -2.088370226578584E-3   -2.170486522350989E-3   -2.136290922865038E-3   -2.195016328044964E-3    3.631459118560186E-1   -3.342144965462164E-1
 9.937568466825001E9     4.659960372799481E-1   -1.240108292037868E-1   -2.117395209080823E-3   -2.209388652006795E-3   -2.199744099125362E-3   -2.222805530793612E-3    3.626496587106479E-1   -3.343691716144739E-1
 9.937569969900000E9     4.660100698192260E-1   -1.241218893938787E-1   -2.146447766049471E-3   -2.194553570523867E-3   -2.212831231633685E-3   -2.217105953300309E-3    3.622338440314755E-1   -3.346351740759380E-1
 9.937571472975000E9     4.657984055350733E-1   -1.241118714811408E-1   -2.143423161307411E-3   -2.246645668353072E-3   -2.230750952354758E-3   -2.256114409548229E-3    3.621597066040119E-1   -3.349160073301030E-1
 9.937572976049999E9     4.658233240559428E-1   -1.242921303746488E-1   -2.202488304792966E-3   -2.304096374259804E-3   -2.246116794568369E-3   -2.317171378884500E-3    3.617162956397694E-1   -3.351287943983058E-1
 9.937574479125000E9     4.658575988915750E-1   -1.244279027676470E-1   -2.205958928445108E-3   -2.313590028729636E-3   -2.260088688856691E-3   -2.289407006939924E-3    3.614154260442192E-1   -3.351789779802805E-1
 9.937575982200001E9     4.657886047734114E-1   -1.243695724134874E-1   -2.214931258939439E-3   -2.344895825568733E-3   -2.305701278421665E-3   -2.325586020230932E-3    3.611033521462958E-1   -3.354430183715277E-1
 9.937577485275000E9     4.657863472600847E-1   -1.247218602416720E-1   -2.274972740729028E-3   -2.340837834642240E-3   -2.320296461579102E-3   -2.317853358651936E-3    3.607795697109606E-1   -3.357624373479810E-1
 9.937578988350000E9     4.658525274353524E-1   -1.247298979997517E-1   -2.312941193488792E-3   -2.382494416508764E-3   -2.369008259126273E-3   -2.387817853940948E-3    3.604804384501683E-1   -3.358792840513464E-1
 9.937580491424999E9     4.656397290636792E-1   -1.248436039967678E-1   -2.320471052407126E-3   -2.366733413699798E-3   -2.381672845145903E-3   -2.387853248442212E-3    3.601666794067556E-1   -3.361240088186658E-1
 9.937581994500000E9     4.656337296891993E-1   -1.248932486904297E-1   -2.333000282392681E-3   -2.400854196784750E-3   -2.410023281091111E-3   -2.399930991921775E-3    3.597822627758522E-1   -3.362062741175917E-1
 9.937583497575001E9     4.656108015907543E-1   -1.251044272993435E-1   -2.379880813753788E-3   -2.441664563258803E-3   -2.437707570933055E-3   -2.417584348661025E-3    3.596254415796050E-1   -3.366353932252899E-1
 9.937585000650000E9     4.656348200358043E-1   -1.251509627643543E-1   -2.403818850838614E-3   -2.437935548365295E-3   -2.480776539700822E-3   -2.477957383603761E-3    3.590767040950505E-1   -3.366311866371656E-1
 9.937586503725000E9     4.655828753561434E-1   -1.252724695589268E-1   -2.410475326825887E-3   -2.480209153160531E-3   -2.490123391543904E-3   -2.454940153686579E-3    3.589288608489222E-1   -3.370207228648168E-1
 9.937588006799999E9     4.653954353643799E-1   -1.253604686691981E-1   -2.484326956907243E-3   -2.487559900729954E-3   -2.576992373848646E-3   -2.520902284830519E-3    3.582563396999711E-1   -3.371664467302843E-1
 9.937589509875000E9     4.656183051673595E-1   -1.254804923181219E-1   -2.475436269761544E-3   -2.524717802488296E-3   -2.610703010779604E-3   -2.502004276603542E-3    3.581490501765754E-1   -3.374100045271427E-1
 9.937591012950001E9     4.654257237208150E-1   -1.255004895176393E-1   -2.547318294745946E-3   -2.545178392490712E-3   -2.603389040379283E-3   -2.522719320925188E-3    3.577557996194869E-1   -3.376910184403277E-1
 9.937592516025000E9     4.654136053072509E-1   -1.256808527529486E-1   -2.568532570858364E-3   -2.601813974190388E-3   -2.658238022825766E-3   -2.585776620516013E-3    3.574237636137020E-1   -3.377430033914589E-1
 9.937594019100000E9     4.652203589740650E-1   -1.256248275783897E-1   -2.600202823224317E-3   -2.589542431800221E-3   -2.700055237450570E-3   -2.592240094517811E-3    3.569158386481616E-1   -3.382864975862231E-1
 9.937595522174999E9     4.652875798817122E-1   -1.258874330973770E-1   -2.601163386323164E-3   -2.615916149276648E-3   -2.714694319177223E-3   -2.647158362835040E-3    3.567968785038411E-1   -3.382570832192550E-1
 9.937597025250000E9     4.652986864563965E-1   -1.260353059591981E-1   -2.672506839856858E-3   -2.672881807540642E-3   -2.734046191433923E-3   -2.653835505474737E-3    3.560848926849430E-1   -3.386274057937279E-1
 9.937598528325001E9     4.653514006598142E-1   -1.260440339430452E-1   -2.705943540700567E-3   -2.693115327276955E-3   -2.781026924819034E-3   -2.659757382472575E-3    3.559771637375507E-1   -3.388498728482064E-1
 9.937600031400000E9     4.652459993264905E-1   -1.263161423413475E-1   -2.697860478879491E-3   -2.706132515383227E-3   -2.811644797817885E-3   -2.725010397775456E-3    3.553808460204194E-1   -3.391462933832942E-1
 9.937601534475000E9     4.651600155651310E-1   -1.263674984667691E-1   -2.755801222971451E-3   -2.737630285517849E-3   -2.834962408551813E-3   -2.730170131683574E-3    3.550638017111642E-1   -3.392523760890157E-1
 9.937603037549999E9     4.651354907633041E-1   -1.264294357778288E-1   -2.758418632827226E-3   -2.781846995511572E-3   -2.909767023509231E-3   -2.786175792694842E-3    3.547121218637385E-1   -3.396751381201823E-1
 9.937604540625000E9     4.650524463483756E-1   -1.264597375429911E-1   -2.801595531259584E-3   -2.806418064245161E-3   -2.925951370616594E-3   -2.776291346484612E-3    3.544998444186040E-1   -3.399768176261994E-1
 9.937606043700001E9     4.649964552602562E-1   -1.264783895950476E-1   -2.888042324862864E-3   -2.821348528290439E-3   -2.965159184573341E-3   -2.798798303009471E-3    3.539142689036527E-1   -3.400363545524561E-1
 9.937607546775000E9     4.650908883393940E-1   -1.267396069281632E-1   -2.937370023989687E-3   -2.803728540482637E-3   -3.009237198521904E-3   -2.834159040962274E-3    3.535218489747168E-1   -3.402951038233624E-1
 9.937609049850000E9     4.649390470604329E-1   -1.267857215529697E-1   -2.937943447392573E-3   -2.863493807882327E-3   -3.049084183475435E-3   -2.875226670073617E-3    3.532516417982319E-1   -3.405771548747321E-1
 9.937610552924999E9     4.648321349648531E-1   -1.269739793435514E-1   -2.984903189247428E-3   -2.897520962250722E-3   -3.093290246283582E-3   -2.897396965426327E-3    3.527429893529971E-1   -3.406763620300256E-1
 9.937612056000000E9     4.648687094602499E-1   -1.270512026413204E-1   -3.039054540610995E-3   -2.947238467132265E-3   -3.102459408746963E-3   -2.930482858991669E-3    3.523350092577182E-1   -3.412625736996048E-1
 9.937613559075001E9     4.649138066118811E-1   -1.271300791085803E-1   -3.043828087554267E-3   -2.957248053964668E-3   -3.170324610658136E-3   -2.956889665672953E-3    3.519323855752988E-1   -3.412254210119762E-1
 9.937615062150000E9     4.647987649978295E-1   -1.271488066535170E-1   -3.107762232009425E-3   -2.971657585544935E-3   -3.191578087054515E-3   -2.980661037580824E-3    3.515199609073816E-1   -3.416424929389116E-1
 9.937616565225000E9     4.646729204280637E-1   -1.272118952769239E-1   -3.179399529632322E-3   -3.023723557245973E-3   -3.252481292788281E-3   -3.017321260277022E-3    3.509808397380776E-1   -3.418374259897015E-1
 9.937618068299999E9     4.646939232564386E-1   -1.274786631090657E-1   -3.202314886299130E-3   -3.022964746097893E-3   -3.315759282780492E-3   -3.038828811600074E-3    3.503247086171011E-1   -3.419842590626815E-1
 9.937619571375000E9     4.646749313788774E-1   -1.274448179554760E-1   -3.254270941661281E-3   -3.098153818088489E-3   -3.339408552484177E-3   -3.067548092424759E-3    3.498568417171154E-1   -3.423980063124585E-1
 9.937621074450001E9     4.646448181672300E-1   -1.275559223825048E-1   -3.280558077570734E-3   -3.099835510916162E-3   -3.401935674160354E-3   -3.120376258235487E-3    3.494126579243395E-1   -3.425390574329862E-1
 9.937622577525000E9     4.646698535181494E-1   -1.278109010330388E-1   -3.319038209641858E-3   -3.123252043529932E-3   -3.438309498005588E-3   -3.128242719124397E-3    3.493120670050683E-1   -3.428774765748823E-1
 9.937624080600000E9     4.646800870721608E-1   -1.277415009396192E-1   -3.344270465418635E-3   -3.181729739679116E-3   -3.497334135405353E-3   -3.175426849094873E-3    3.486708242570085E-1   -3.431209233429521E-1
 9.937625583674999E9     4.646779061626204E-1   -1.278560379031426E-1   -3.440209824008972E-3   -3.208144669822760E-3   -3.535732825186739E-3   -3.196542548549177E-3    3.479768169737675E-1   -3.434288877007932E-1
 9.937627086750000E9     4.645247946400413E-1   -1.280742702225711E-1   -3.426741746386690E-3   -3.225237902720457E-3   -3.571028303355147E-3   -3.244202761588724E-3    3.477774007096466E-1   -3.437670253981361E-1
