#  HZ   S   RI   R     50.00 
! Rohde & Schwarz Vector Network Analyzer 
! Rohde-Schwarz,ZNB20-2Port,1311601062101988,3.16
! Created: UTC 3/20/2024, 10:56:46 PM
! freq[Hz]                re:S11                  im:S11                  re:S21                  im:S21                  re:S12                  im:S12                  re:S22                  im:S22
 9.937489815000000E9     4.677899092078323E-1   -1.185848357226052E-1   -1.228927488841172E-3   -1.363922084659458E-3   -1.267493167428917E-3   -1.390398595400441E-3    3.745194842609298E-1   -3.251211117670326E-1
 9.937491316125000E9     4.677320891882576E-1   -1.187744897681258E-1   -1.219148378840300E-3   -1.420205111810099E-3   -1.238105310533769E-3   -1.419759772687796E-3    3.743125556405945E-1   -3.253541532569987E-1
 9.937492817250000E9     4.677964703559723E-1   -1.188032794226234E-1   -1.222028217879582E-3   -1.371019349461096E-3   -1.275404187362730E-3   -1.433049673531755E-3    3.740989618769804E-1   -3.255614575605082E-1
 9.937494318375000E9     4.675964168769571E-1   -1.189776318714512E-1   -1.285746301262378E-3   -1.445434733939844E-3   -1.283856209566014E-3   -1.444965205471800E-3    3.739619371959957E-1   -3.255603708254344E-1
 9.937495819500000E9     4.676720571079183E-1   -1.189876856511918E-1   -1.270956586706469E-3   -1.446156014007723E-3   -1.326745833196681E-3   -1.433602983701438E-3    3.736717639932755E-1   -3.258145741215946E-1
 9.937497320625000E9     4.676501046520957E-1   -1.191647639158396E-1   -1.280019575005789E-3   -1.454328811867318E-3   -1.327543728180906E-3   -1.481258738619583E-3    3.736730841563198E-1   -3.258307079501133E-1
 9.937498821750000E9     4.676969157818016E-1   -1.193407445033952E-1   -1.283351946944270E-3   -1.446025513225879E-3   -1.345609184022879E-3   -1.489335104339575E-3    3.734192490200602E-1   -3.260525408746116E-1
 9.937500322875000E9     4.674600002217175E-1   -1.192917598101446E-1   -1.294149354215609E-3   -1.471687887329632E-3   -1.363269219091660E-3   -1.507990551283019E-3    3.732501538014199E-1   -3.263362896748239E-1
 9.937501824000000E9     4.674564112294045E-1   -1.195481461160850E-1   -1.314179781015739E-3   -1.503132082504381E-3   -1.335047550197351E-3   -1.513897407688393E-3    3.730605314223477E-1   -3.264590236792685E-1
 9.937503325125000E9     4.673679561053335E-1   -1.195823407041653E-1   -1.348747836368719E-3   -1.534023159046484E-3   -1.373862175412034E-3   -1.566684781363772E-3    3.729385240908800E-1   -3.265454713559486E-1
 9.937504826250000E9     4.673889408652885E-1   -1.196648585704625E-1   -1.348197859084205E-3   -1.517864060324105E-3   -1.394998937798031E-3   -1.507706342506107E-3    3.726384957672510E-1   -3.267890310870024E-1
 9.937506327375000E9     4.673932643888226E-1   -1.197500567240836E-1   -1.353366732969842E-3   -1.536161923900594E-3   -1.368695150354315E-3   -1.535114353872916E-3    3.723039598601038E-1   -3.269762842123492E-1
 9.937507828500000E9     4.672774443877797E-1   -1.199154913719706E-1   -1.382611203977903E-3   -1.578672841293249E-3   -1.376604904155287E-3   -1.552926888536907E-3    3.723901440726819E-1   -3.271398207694062E-1
 9.937509329625000E9     4.673991730011923E-1   -1.201140707333566E-1   -1.396201639195925E-3   -1.576599555204519E-3   -1.445087254944588E-3   -1.564087427077699E-3    3.719828486043777E-1   -3.272767911857398E-1
 9.937510830750000E9     4.672505427059420E-1   -1.200063285032183E-1   -1.416530682587080E-3   -1.551484408363679E-3   -1.458507746401898E-3   -1.575095623087029E-3    3.717404804080891E-1   -3.271786834002082E-1
 9.937512331875000E9     4.671381011093598E-1   -1.202595294027413E-1   -1.424122125223543E-3   -1.597761112084150E-3   -1.457556072945234E-3   -1.593228299392673E-3    3.714600769052793E-1   -3.274525875637562E-1
 9.937513833000000E9     4.671432343369973E-1   -1.202661552701017E-1   -1.433213410846608E-3   -1.618880288210168E-3   -1.471426571167856E-3   -1.596775181201233E-3    3.714304161948145E-1   -3.277978606058738E-1
 9.937515334125000E9     4.672259661459734E-1   -1.205310082900973E-1   -1.442402086323524E-3   -1.605696827760705E-3   -1.520667299817662E-3   -1.616908517060434E-3    3.712967124879325E-1   -3.277006910910444E-1
 9.937516835250000E9     4.672020571831584E-1   -1.205122419622926E-1   -1.465514696631690E-3   -1.623318476210414E-3   -1.509338623384416E-3   -1.618522243958421E-3    3.709121672487928E-1   -3.282524313895065E-1
 9.937518336375000E9     4.669747854315445E-1   -1.205754130406380E-1   -1.488211670682156E-3   -1.675934828125262E-3   -1.511271414885652E-3   -1.649924485957033E-3    3.707586865855653E-1   -3.283601156682724E-1
 9.937519837500000E9     4.671398492140090E-1   -1.206635533358707E-1   -1.492809096541545E-3   -1.681038458717680E-3   -1.594615263046085E-3   -1.667206221402536E-3    3.706337227108137E-1   -3.284427741014973E-1
 9.937521338625000E9     4.671694689967807E-1   -1.208179352538861E-1   -1.496872558766176E-3   -1.656739480743350E-3   -1.558531390568661E-3   -1.667307869109720E-3    3.703201605559014E-1   -3.286356434049068E-1
 9.937522839750000E9     4.669596157276465E-1   -1.208980103546553E-1   -1.532090010613834E-3   -1.668422750883489E-3   -1.572817557014501E-3   -1.704387743678139E-3    3.700922381033392E-1   -3.288856565286545E-1
 9.937524340875000E9     4.669825288535652E-1   -1.210735698414187E-1   -1.534194202958014E-3   -1.722350840872335E-3   -1.596276319148559E-3   -1.725292002782834E-3    3.698627997333029E-1   -3.288146215832902E-1
 9.937525842000000E9     4.670244490172585E-1   -1.210907267674435E-1   -1.546191171135599E-3   -1.697936955199435E-3   -1.597297312872683E-3   -1.742420785701081E-3    3.694856569616007E-1   -3.291574543473527E-1
 9.937527343125000E9     4.669588504099265E-1   -1.211992288037787E-1   -1.576176801623320E-3   -1.728480385639150E-3   -1.619840000238285E-3   -1.758841342934484E-3    3.693980748756046E-1   -3.292235046668621E-1
 9.937528844250000E9     4.669439267790085E-1   -1.212579367752223E-1   -1.628770192371559E-3   -1.757848018964732E-3   -1.697885491750451E-3   -1.751448122620316E-3    3.692210302070211E-1   -3.295999642268566E-1
 9.937530345375000E9     4.668198905255747E-1   -1.214039122958443E-1   -1.609828809340580E-3   -1.753556647373437E-3   -1.662290956755196E-3   -1.789339389963966E-3    3.688789214581816E-1   -3.298299955636613E-1
 9.937531846500000E9     4.666844426750090E-1   -1.214897152312100E-1   -1.618597353180115E-3   -1.787352784069318E-3   -1.674190193342773E-3   -1.805044974084790E-3    3.687658325466930E-1   -3.299587662402645E-1
 9.937533347625000E9     4.667792125156499E-1   -1.215999418610809E-1   -1.630982851365551E-3   -1.795526959831545E-3   -1.722711199294787E-3   -1.809493855901338E-3    3.684776155508581E-1   -3.300142715431587E-1
 9.937534848750000E9     4.666497018419054E-1   -1.217272901892996E-1   -1.675768597282763E-3   -1.829796966228434E-3   -1.719871132498340E-3   -1.838720392003707E-3    3.683014387477048E-1   -3.301464293049889E-1
 9.937536349875000E9     4.667105667079445E-1   -1.218770493110467E-1   -1.705239491667611E-3   -1.839167381598440E-3   -1.743161310433434E-3   -1.836510298800594E-3    3.680307065205008E-1   -3.305384590343519E-1
 9.937537851000000E9     4.666855643737946E-1   -1.219672164117679E-1   -1.702055736928747E-3   -1.849862273606562E-3   -1.750036165051684E-3   -1.869436023270383E-3    3.677532561309283E-1   -3.306564709975730E-1
 9.937539352125000E9     4.667131647240201E-1   -1.220310461724405E-1   -1.703192666589001E-3   -1.900551976504831E-3   -1.766598103604662E-3   -1.886368694628251E-3    3.675538268084123E-1   -3.306826360460335E-1
 9.937540853250000E9     4.665838339780225E-1   -1.219964006697282E-1   -1.761910689682328E-3   -1.869789010948462E-3   -1.802965145424487E-3   -1.882252109682081E-3    3.673197927323774E-1   -3.309290370828454E-1
 9.937542354375000E9     4.665113280593464E-1   -1.222904586853422E-1   -1.762242100723293E-3   -1.905320208607116E-3   -1.845537209596515E-3   -1.935615743977094E-3    3.669830190120521E-1   -3.309111501778050E-1
 9.937543855500000E9     4.665426228831151E-1   -1.222842688911749E-1   -1.798082291070619E-3   -1.950485409941353E-3   -1.845429163370592E-3   -1.929620278543177E-3    3.666769535365830E-1   -3.313941668586509E-1
 9.937545356625000E9     4.664265927865514E-1   -1.224359016760730E-1   -1.809007451078267E-3   -1.923415647938698E-3   -1.872421434670439E-3   -1.958337676599654E-3    3.665526362263501E-1   -3.314265666304645E-1
 9.937546857750000E9     4.664060777602921E-1   -1.226097071393833E-1   -1.829453120147767E-3   -1.948840495895013E-3   -1.913997169589859E-3   -1.950641248429837E-3    3.662153574855397E-1   -3.317956617603358E-1
 9.937548358875000E9     4.665309166981783E-1   -1.226699493237524E-1   -1.852319694684632E-3   -1.980107262335419E-3   -1.911583220529858E-3   -1.965636419212143E-3    3.659939237174485E-1   -3.320415441073874E-1
 9.937549860000000E9     4.664699550888203E-1   -1.228382895963042E-1   -1.856515642962285E-3   -2.008992066434084E-3   -1.943436344904105E-3   -1.993370076385993E-3    3.657532241495235E-1   -3.320998988048474E-1
 9.937551361125000E9     4.663677693086220E-1   -1.229131541057186E-1   -1.892566369929417E-3   -2.026995540014735E-3   -1.946109592070816E-3   -2.018981907468605E-3    3.653335928368086E-1   -3.321571973434935E-1
 9.937552862250000E9     4.661250415694891E-1   -1.228732390157914E-1   -1.929383773851874E-3   -2.084992714821129E-3   -1.959412539833312E-3   -2.060419011814311E-3    3.652992769724565E-1   -3.323842665591095E-1
 9.937554363375000E9     4.664551103945317E-1   -1.229708093990751E-1   -1.944611536428500E-3   -2.030904023428715E-3   -2.008871982509270E-3   -2.063038115420095E-3    3.649342876135384E-1   -3.327253990564968E-1
 9.937555864500000E9     4.662192755204388E-1   -1.230987790123131E-1   -2.004236660549047E-3   -2.108818944037770E-3   -2.010554634022402E-3   -2.061812929763141E-3    3.645987938357161E-1   -3.328767077975313E-1
 9.937557365625000E9     4.662211386061073E-1   -1.231316972174204E-1   -1.965356051654566E-3   -2.086761779475101E-3   -2.044927271420328E-3   -2.067195722678686E-3    3.645649925436119E-1   -3.329860619068042E-1
 9.937558866750000E9     4.659510366382648E-1   -1.232983060697332E-1   -2.025263735088672E-3   -2.100735066144335E-3   -2.092723908877415E-3   -2.118674070204540E-3    3.640427371591550E-1   -3.332243812829481E-1
 9.937560367875000E9     4.661389113014265E-1   -1.233791811064548E-1   -2.036152908419842E-3   -2.137220090880471E-3   -2.070248638197790E-3   -2.138197226748899E-3    3.638968764669727E-1   -3.334346888988176E-1
 9.937561869000000E9     4.660595908533802E-1   -1.235669409552654E-1   -2.035341600907878E-3   -2.162104677486051E-3   -2.107165333420302E-3   -2.163300052892030E-3    3.636137028307909E-1   -3.336769101734239E-1
 9.937563370125000E9     4.660674860933475E-1   -1.235968851605643E-1   -2.062652559116413E-3   -2.157236753362441E-3   -2.142076233900222E-3   -2.176714697383783E-3    3.633803857792201E-1   -3.338435444978515E-1
 9.937564871250000E9     4.661237478310210E-1   -1.238409438684388E-1   -2.093730097411179E-3   -2.171196454144641E-3   -2.162725940134558E-3   -2.191336940685427E-3    3.630182668213523E-1   -3.340075695674985E-1
 9.937566372375000E9     4.659820105234281E-1   -1.238569349279722E-1   -2.118166651329825E-3   -2.181176599767050E-3   -2.190797634772981E-3   -2.189562751548021E-3    3.627109597285135E-1   -3.342679528115438E-1
 9.937567873500000E9     4.659496697711888E-1   -1.240206560265307E-1   -2.124452582754808E-3   -2.257836350479859E-3   -2.215380802537775E-3   -2.231690730955544E-3    3.624016400045466E-1   -3.347370521916211E-1
 9.937569374625000E9     4.659094972382093E-1   -1.240690601729657E-1   -2.158485909820774E-3   -2.236956887733794E-3   -2.234151573011797E-3   -2.234600443593168E-3    3.619821928254169E-1   -3.347193310179131E-1
 9.937570875750000E9     4.658211864772821E-1   -1.241263819371285E-1   -2.180047211835777E-3   -2.299202944974161E-3   -2.271173535558566E-3   -2.270607664908860E-3    3.618897754612686E-1   -3.351120982444500E-1
 9.937572376875000E9     4.658676318728637E-1   -1.243732955397520E-1   -2.241849428708264E-3   -2.284068531522917E-3   -2.243723632485070E-3   -2.315149248991249E-3    3.614898042873412E-1   -3.350533135750597E-1
 9.937573878000000E9     4.657511929286233E-1   -1.243066566505405E-1   -2.249920327941902E-3   -2.322307829587509E-3   -2.320890128244939E-3   -2.332035125262360E-3    3.611870459443464E-1   -3.354162365091125E-1
 9.937575379125000E9     4.657842214997916E-1   -1.244538749529095E-1   -2.269276498540136E-3   -2.366835186479540E-3   -2.342527379403805E-3   -2.330542357885415E-3    3.609350897511739E-1   -3.355913667184252E-1
 9.937576880250000E9     4.657212199277521E-1   -1.245291063609048E-1   -2.313081119840508E-3   -2.348792795969721E-3   -2.386181349293774E-3   -2.330595332398552E-3    3.605091327830151E-1   -3.357774373635819E-1
 9.937578381375000E9     4.656700683105521E-1   -1.246130624732674E-1   -2.316660489483517E-3   -2.405223839656209E-3   -2.402193931899317E-3   -2.422175631372470E-3    3.602289952004021E-1   -3.361060204932153E-1
 9.937579882500000E9     4.655694169205665E-1   -1.247670581700964E-1   -2.361977758268853E-3   -2.419910875727198E-3   -2.434311755741858E-3   -2.384906185906024E-3    3.597678847020500E-1   -3.362997208149597E-1
 9.937581383625000E9     4.656231899478223E-1   -1.249570812655286E-1   -2.398791762776262E-3   -2.431764609411159E-3   -2.458811159498604E-3   -2.404152968196331E-3    3.594157673829392E-1   -3.364984684580780E-1
 9.937582884750000E9     4.656714306969544E-1   -1.251229919122792E-1   -2.406085258611018E-3   -2.445413513522961E-3   -2.498516706461427E-3   -2.461022247636141E-3    3.593097645286735E-1   -3.365775267029401E-1
 9.937584385875000E9     4.656142406699774E-1   -1.251648000471621E-1   -2.443403043768500E-3   -2.490372168885651E-3   -2.511446671987845E-3   -2.485930001628899E-3    3.587441655327800E-1   -3.368233747055661E-1
 9.937585887000000E9     4.656447985139265E-1   -1.252935595580079E-1   -2.459419957846067E-3   -2.518369400621045E-3   -2.556688485187526E-3   -2.484180086675186E-3    3.584843441919174E-1   -3.370420523111356E-1
 9.937587388125000E9     4.655831141108824E-1   -1.254060352920269E-1   -2.494831612598093E-3   -2.547193618013932E-3   -2.591580370376886E-3   -2.515150089161904E-3    3.582531209364522E-1   -3.374678688778757E-1
 9.937588889250000E9     4.653920976861903E-1   -1.254025929268419E-1   -2.530503187647977E-3   -2.537874827074071E-3   -2.639364512295262E-3   -2.561803822613172E-3    3.579103028149721E-1   -3.374837745282677E-1
 9.937590390375000E9     4.654226872933158E-1   -1.255633175087100E-1   -2.568886842811448E-3   -2.582799979610114E-3   -2.642826794675563E-3   -2.575843162339967E-3    3.573410133970785E-1   -3.377856357521351E-1
 9.937591891500000E9     4.653483161985243E-1   -1.255368414769233E-1   -2.591716678724866E-3   -2.583764847521337E-3   -2.669948498027634E-3   -2.647295007975156E-3    3.571559477269030E-1   -3.379553145054366E-1
 9.937593392625000E9     4.653677526928398E-1   -1.255622197105520E-1   -2.597023678433039E-3   -2.632854662096706E-3   -2.714682536554168E-3   -2.610076356594058E-3    3.567204174222249E-1   -3.382256207362425E-1
 9.937594893750000E9     4.655267625358806E-1   -1.259113519510313E-1   -2.634144843701687E-3   -2.667966583356720E-3   -2.731873009768202E-3   -2.628896939603498E-3    3.565190751499151E-1   -3.385254256578950E-1
 9.937596394875000E9     4.651995010484565E-1   -1.259528744837290E-1   -2.676053443863024E-3   -2.666942218309789E-3   -2.770108545442229E-3   -2.676730828524775E-3    3.559639326625491E-1   -3.387258893085133E-1
 9.937597896000000E9     4.651630546711751E-1   -1.260761701414784E-1   -2.711095073357771E-3   -2.690107456367820E-3   -2.808619921789351E-3   -2.708273332621696E-3    3.555775791437468E-1   -3.391407294986725E-1
 9.937599397125000E9     4.652047790961913E-1   -1.261377664480706E-1   -2.767148727360640E-3   -2.741170551568337E-3   -2.861841559594742E-3   -2.729055367630438E-3    3.553316427533297E-1   -3.393037505995897E-1
 9.937600898250000E9     4.651824971816273E-1   -1.262401517579372E-1   -2.794201872416149E-3   -2.722938897528223E-3   -2.898216863322628E-3   -2.759921778165352E-3    3.547774364135469E-1   -3.392960735388644E-1
 9.937602399375000E9     4.651681393437907E-1   -1.262311364986378E-1   -2.849398775073556E-3   -2.787367641133013E-3   -2.908015561788802E-3   -2.770073389135458E-3    3.544306281454233E-1   -3.396033578007282E-1
 9.937603900500000E9     4.650415808043548E-1   -1.263813964275253E-1   -2.872987454408871E-3   -2.829900197997166E-3   -2.982168587408980E-3   -2.784868513154432E-3    3.540653032111704E-1   -3.397951694333475E-1
 9.937605401625000E9     4.652044357426645E-1   -1.266517373146870E-1   -2.934635681339460E-3   -2.843913184315351E-3   -3.014296058636378E-3   -2.803347187888469E-3    3.534999456373369E-1   -3.401185088876684E-1
 9.937606902750000E9     4.649210292880325E-1   -1.265614178212257E-1   -2.937207631609534E-3   -2.902921191491110E-3   -3.040609821214069E-3   -2.846539274134017E-3    3.532581621071296E-1   -3.404519346169502E-1
 9.937608403875000E9     4.649537477482682E-1   -1.268255435267938E-1   -3.012174135265794E-3   -2.892780047302095E-3   -3.118544406596874E-3   -2.872893990347900E-3    3.526564444600011E-1   -3.406212520499040E-1
 9.937609905000000E9     4.649245508968776E-1   -1.268583074331925E-1   -3.031778774746035E-3   -2.888357496241560E-3   -3.128906303324535E-3   -2.931777546056061E-3    3.524783412605796E-1   -3.408439574935958E-1
 9.937611406125000E9     4.649431623448883E-1   -1.269403740727072E-1   -3.077978168014141E-3   -2.956826452978517E-3   -3.169637601348250E-3   -2.960356471562864E-3    3.518100941432152E-1   -3.411555244962554E-1
 9.937612907250000E9     4.649595968567737E-1   -1.269897059956914E-1   -3.119488054336923E-3   -2.990971701018657E-3   -3.189700697726874E-3   -2.958462487057842E-3    3.513537416323609E-1   -3.413856717794750E-1
 9.937614408375000E9     4.646752988987506E-1   -1.271994215059034E-1   -3.164053994843964E-3   -3.033536451925690E-3   -3.242590266762295E-3   -2.987179890420097E-3    3.512158728709319E-1   -3.414958290507004E-1
 9.937615909500000E9     4.648667578852190E-1   -1.273382397919828E-1   -3.174115897175798E-3   -3.060286186624795E-3   -3.320734165106207E-3   -3.050174737210243E-3    3.506197641369718E-1   -3.418259266166584E-1
 9.937617410625000E9     4.647518263995298E-1   -1.273591875071394E-1   -3.206249877971276E-3   -3.071597791988954E-3   -3.362337177383223E-3   -3.091469459358130E-3    3.499801519535367E-1   -3.422939744769168E-1
 9.937618911750000E9     4.646253079860560E-1   -1.274720794975842E-1   -3.309535451356175E-3   -3.113540528324344E-3   -3.387139882456119E-3   -3.113318795227081E-3    3.497137576285741E-1   -3.424158691084094E-1
 9.937620412875000E9     4.646952243784639E-1   -1.275688349162167E-1   -3.329669323080675E-3   -3.140135323194329E-3   -3.446188902417963E-3   -3.144160929458315E-3    3.492067812856067E-1   -3.428215654323018E-1
 9.937621914000000E9     4.645372817074409E-1   -1.276794539578054E-1   -3.385130139455266E-3   -3.158348422541905E-3   -3.505424471736980E-3   -3.177852906423969E-3    3.487302152607585E-1   -3.429056336771977E-1
 9.937623415125000E9     4.646365474519845E-1   -1.276555111846245E-1   -3.441016492214226E-3   -3.157937262095950E-3   -3.561624756141115E-3   -3.191454111680352E-3    3.480363427496684E-1   -3.431602804128989E-1
 9.937624916250000E9     4.646382837994974E-1   -1.278721798444891E-1   -3.431631432803199E-3   -3.237499047069526E-3   -3.562796823029470E-3   -3.209181494170493E-3    3.476582959772149E-1   -3.436279829042536E-1
