#  HZ   S   RI   R     50.00 
! Rohde & Schwarz Vector Network Analyzer 
! Rohde-Schwarz,ZNB20-2Port,1311601062101988,3.16
! Created: UTC 3/20/2024, 10:56:58 PM
! freq[Hz]                re:S11                  im:S11                  re:S21                  im:S21                  re:S12                  im:S12                  re:S22                  im:S22
 9.937473476000000E9     4.680889963733709E-1   -1.175611239088736E-1   -1.115076658325412E-3   -1.341817084115751E-3   -1.156890505799940E-3   -1.289577814404135E-3    3.761182846182167E-1   -3.237131614354558E-1
 9.937475032125000E9     4.681901120203008E-1   -1.176580904144107E-1   -1.139309369650288E-3   -1.338108109218955E-3   -1.185678245714955E-3   -1.293556751354313E-3    3.758852980830245E-1   -3.238992011896268E-1
 9.937476588250000E9     4.680279847926500E-1   -1.177686868219956E-1   -1.124698672619752E-3   -1.292007398377439E-3   -1.188261540867121E-3   -1.337133178958517E-3    3.757043662220628E-1   -3.240504259196000E-1
 9.937478144375000E9     4.679504570819575E-1   -1.179065640601890E-1   -1.191208693544784E-3   -1.352582706388658E-3   -1.218402803403534E-3   -1.310752145538249E-3    3.754914552198179E-1   -3.240993555872544E-1
 9.937479700500000E9     4.680532150307893E-1   -1.180713944802850E-1   -1.234212134471505E-3   -1.362065811294581E-3   -1.205265252676343E-3   -1.349384292345007E-3    3.752935007788757E-1   -3.244452805140752E-1
 9.937481256625000E9     4.679589422562713E-1   -1.180768210491325E-1   -1.193533251187511E-3   -1.347080221281042E-3   -1.216977640782202E-3   -1.385850451371502E-3    3.751219553908271E-1   -3.245717510155240E-1
 9.937482812750000E9     4.678805297586660E-1   -1.182690658550165E-1   -1.193354247805395E-3   -1.422323775637409E-3   -1.280646247285025E-3   -1.368502407274026E-3    3.748647217743088E-1   -3.246591045640303E-1
 9.937484368875000E9     4.677320688437055E-1   -1.183229094023391E-1   -1.232186170303205E-3   -1.383804365657441E-3   -1.263324805913676E-3   -1.411438863951490E-3    3.747745142892949E-1   -3.248432004411129E-1
 9.937485925000000E9     4.678271227910979E-1   -1.184370706488863E-1   -1.238260624095316E-3   -1.411442730386624E-3   -1.267996738219083E-3   -1.401769533741134E-3    3.745768146456899E-1   -3.250607308629938E-1
 9.937487481125000E9     4.679033881613594E-1   -1.184618631878163E-1   -1.237592742362133E-3   -1.402272053866253E-3   -1.295824726478988E-3   -1.411864661401239E-3    3.742944320479026E-1   -3.252064775147364E-1
 9.937489037250000E9     4.677193694006821E-1   -1.187525630073244E-1   -1.255464583703089E-3   -1.427155354228451E-3   -1.298935663103988E-3   -1.442092334865596E-3    3.742265866835226E-1   -3.251530466347933E-1
 9.937490593375000E9     4.677497266542584E-1   -1.188029488470675E-1   -1.280913080496891E-3   -1.447151579347893E-3   -1.310787107686305E-3   -1.420607909005773E-3    3.740802868360621E-1   -3.255621123100577E-1
 9.937492149500000E9     4.678634866992020E-1   -1.189802990904418E-1   -1.304029195627360E-3   -1.438048861467317E-3   -1.361209750306914E-3   -1.457241862886685E-3    3.737083113914250E-1   -3.255469838974682E-1
 9.937493705625000E9     4.676046416441190E-1   -1.189014946594126E-1   -1.285878687608673E-3   -1.475526040938059E-3   -1.359587742021496E-3   -1.474907341901319E-3    3.735640001182921E-1   -3.257724856965872E-1
 9.937495261750000E9     4.675686775088119E-1   -1.191867901674956E-1   -1.337197010954422E-3   -1.479918913596014E-3   -1.347140101365596E-3   -1.484477751104699E-3    3.734535102822521E-1   -3.259500145961151E-1
 9.937496817875000E9     4.676857101217640E-1   -1.192145198372293E-1   -1.337370835585408E-3   -1.503886452472624E-3   -1.365207248024556E-3   -1.487950040011657E-3    3.729854459623274E-1   -3.261451765893401E-1
 9.937498374000000E9     4.675005476450236E-1   -1.193669146069762E-1   -1.330256137673449E-3   -1.488084897179698E-3   -1.398395501360634E-3   -1.501882990229234E-3    3.727986570759390E-1   -3.263865892462862E-1
 9.937499930125000E9     4.675037234655147E-1   -1.194180717668939E-1   -1.374677163669368E-3   -1.528222071310642E-3   -1.386543257057373E-3   -1.523072891762537E-3    3.725214503022155E-1   -3.266158105206075E-1
 9.937501486250000E9     4.674924076478127E-1   -1.195127359036769E-1   -1.339149009021688E-3   -1.592125992856969E-3   -1.419681980567250E-3   -1.541342709616576E-3    3.725422569144993E-1   -3.267226645994806E-1
 9.937503042375000E9     4.675019629573756E-1   -1.195001193771596E-1   -1.381118896811562E-3   -1.533843583918380E-3   -1.452432090357045E-3   -1.541279801953628E-3    3.721316358157535E-1   -3.268505566739682E-1
 9.937504598500000E9     4.674057459746800E-1   -1.197846453614723E-1   -1.416975182080002E-3   -1.559585629997943E-3   -1.452137943393210E-3   -1.556521680567128E-3    3.719765211045157E-1   -3.269964275673994E-1
 9.937506154625000E9     4.673367316867405E-1   -1.197672638836424E-1   -1.412421187726693E-3   -1.614708710170926E-3   -1.433549097132327E-3   -1.590901994762901E-3    3.716693257374143E-1   -3.273989971656074E-1
 9.937507710750000E9     4.673300076264405E-1   -1.199152498464890E-1   -1.468036472183371E-3   -1.623244626193555E-3   -1.475958151579189E-3   -1.594575883779756E-3    3.715064899048315E-1   -3.274630159640859E-1
 9.937509266875000E9     4.674495504779760E-1   -1.199621111597061E-1   -1.449331960545347E-3   -1.648645570596775E-3   -1.506495236038489E-3   -1.620095107089996E-3    3.713299948349299E-1   -3.274837301039200E-1
 9.937510823000000E9     4.672900499057026E-1   -1.200965394071388E-1   -1.457972754424625E-3   -1.592954493081562E-3   -1.547120278721687E-3   -1.598139945743103E-3    3.711155588216299E-1   -3.277265414924869E-1
 9.937512379125000E9     4.670763601596136E-1   -1.201204854517018E-1   -1.487023626500420E-3   -1.642772246318022E-3   -1.542311803444502E-3   -1.628406915205002E-3    3.709138338862501E-1   -3.280435927756952E-1
 9.937513935250000E9     4.673093781216294E-1   -1.203142279071115E-1   -1.493794367899519E-3   -1.697748538538411E-3   -1.527109028249210E-3   -1.646846466667405E-3    3.707738599406402E-1   -3.280593067739729E-1
 9.937515491375000E9     4.671305618539678E-1   -1.204118484096629E-1   -1.517324739622080E-3   -1.671850606598567E-3   -1.554866178673543E-3   -1.674691332209339E-3    3.704925540501516E-1   -3.280735734371609E-1
 9.937517047500000E9     4.671689697408343E-1   -1.204816898814311E-1   -1.556958482003675E-3   -1.683797143086549E-3   -1.564119046827773E-3   -1.672498027507846E-3    3.703400120177050E-1   -3.282638681588267E-1
 9.937518603625000E9     4.671477699322527E-1   -1.206905353413302E-1   -1.571672170752139E-3   -1.712182276606503E-3   -1.592008371216121E-3   -1.714353953952894E-3    3.700614053422985E-1   -3.285241983741242E-1
 9.937520159750000E9     4.670591286205110E-1   -1.207142732003974E-1   -1.604242916328089E-3   -1.706260678030087E-3   -1.584336002849811E-3   -1.726645569183680E-3    3.698600193865255E-1   -3.287854942600191E-1
 9.937521715875000E9     4.669632076883561E-1   -1.208930268292114E-1   -1.591963227409558E-3   -1.709913592585458E-3   -1.657131659156631E-3   -1.722262847901231E-3    3.696080291137149E-1   -3.289713332144062E-1
 9.937523272000000E9     4.669753441899283E-1   -1.209538960306732E-1   -1.601877339134364E-3   -1.738327409370268E-3   -1.660452508381223E-3   -1.707108653467887E-3    3.694090122787769E-1   -3.291411538557391E-1
 9.937524828125000E9     4.670227036400744E-1   -1.209996156503524E-1   -1.632567546842376E-3   -1.783327616021185E-3   -1.667238535220236E-3   -1.769388190494987E-3    3.691020789269527E-1   -3.292018106648714E-1
 9.937526384250000E9     4.668929376251262E-1   -1.211788769924072E-1   -1.646211984284009E-3   -1.795299967498668E-3   -1.687625409024758E-3   -1.777454081970702E-3    3.688281243383136E-1   -3.294044236785846E-1
 9.937527940375000E9     4.669039736676962E-1   -1.214772863152772E-1   -1.686283514273269E-3   -1.768884261006498E-3   -1.750475260718286E-3   -1.801754880465064E-3    3.686344372991132E-1   -3.297879634513796E-1
 9.937529496500000E9     4.669663795071831E-1   -1.215359035877887E-1   -1.699314325582227E-3   -1.820122864436611E-3   -1.749352397496364E-3   -1.822349647258625E-3    3.683252911233740E-1   -3.298901591516655E-1
 9.937531052625000E9     4.670842856504880E-1   -1.213861162595584E-1   -1.714455967805390E-3   -1.830280707949272E-3   -1.768843245415523E-3   -1.856839333635667E-3    3.682374570457023E-1   -3.301403893660367E-1
 9.937532608750000E9     4.668114584392056E-1   -1.215574921080469E-1   -1.700716243816856E-3   -1.869549525141218E-3   -1.754595327680422E-3   -1.886189730579123E-3    3.679281759884317E-1   -3.304069372830515E-1
 9.937534164875000E9     4.668245226753579E-1   -1.216723817691845E-1   -1.746491118820889E-3   -1.862099035009925E-3   -1.812888279842886E-3   -1.874082553599148E-3    3.675328137070092E-1   -3.305714454442638E-1
 9.937535721000000E9     4.666495057540551E-1   -1.219939843961382E-1   -1.770014764147238E-3   -1.880468562195699E-3   -1.790618219409430E-3   -1.871828789357615E-3    3.673542543510630E-1   -3.305028194233026E-1
 9.937537277125000E9     4.666824023370068E-1   -1.220139931777560E-1   -1.807015823317120E-3   -1.922727169897618E-3   -1.823254563103929E-3   -1.918400554585911E-3    3.670822805234850E-1   -3.308758859686207E-1
 9.937538833250000E9     4.666080037968571E-1   -1.221663334222482E-1   -1.804350207972502E-3   -1.928554113272385E-3   -1.860151753679526E-3   -1.929993212562031E-3    3.668891800467328E-1   -3.310956411367045E-1
 9.937540389375000E9     4.665430839439605E-1   -1.222123254912491E-1   -1.801359340923956E-3   -1.960068197129424E-3   -1.858667173482354E-3   -1.942368718011111E-3    3.664148122217483E-1   -3.312933556051349E-1
 9.937541945500000E9     4.665557119035371E-1   -1.222565024933696E-1   -1.816836451668953E-3   -1.949366077710967E-3   -1.876035520624278E-3   -1.935497995838260E-3    3.665062033531529E-1   -3.313352476132883E-1
 9.937543501625000E9     4.665637902263836E-1   -1.223671943114883E-1   -1.885806345672713E-3   -1.976919502650615E-3   -1.895029260561688E-3   -1.970334685406934E-3    3.659597068831878E-1   -3.315347091943389E-1
 9.937545057750000E9     4.665612517953034E-1   -1.224534725600996E-1   -1.898188833870107E-3   -2.001391861869400E-3   -1.941894265299469E-3   -1.998769515650420E-3    3.656890850983368E-1   -3.318819621470425E-1
 9.937546613875000E9     4.664668133899071E-1   -1.226455317418719E-1   -1.943286219861165E-3   -2.003355973778447E-3   -2.005657813672383E-3   -2.036202434774833E-3    3.654875902622757E-1   -3.320093635657195E-1
 9.937548170000000E9     4.664941637462428E-1   -1.226123199768986E-1   -1.964522856819537E-3   -2.061801463447965E-3   -1.979213036595163E-3   -2.030651110129936E-3    3.651503692957054E-1   -3.322356677089565E-1
 9.937549726125000E9     4.663868348025571E-1   -1.227941001056493E-1   -1.973361789444482E-3   -2.068515043157714E-3   -1.988509448094164E-3   -2.063442879180779E-3    3.648965746966095E-1   -3.324275919961382E-1
 9.937551282250000E9     4.664369888426650E-1   -1.228170653319498E-1   -1.973059002427301E-3   -2.061483366420034E-3   -2.039782715485409E-3   -2.035360984499298E-3    3.647031498179197E-1   -3.326995761846440E-1
 9.937552838375000E9     4.663571811008226E-1   -1.229181795922329E-1   -1.981922709245936E-3   -2.090950183509320E-3   -2.042458762724229E-3   -2.079104760206443E-3    3.643914996676514E-1   -3.328504569119609E-1
 9.937554394500000E9     4.661789982308268E-1   -1.229323438970320E-1   -2.030300554773711E-3   -2.107032780080341E-3   -2.085545232804074E-3   -2.124718693756807E-3    3.640319374899626E-1   -3.329829695593146E-1
 9.937555950625000E9     4.662434249147318E-1   -1.233113187720872E-1   -2.053871254473462E-3   -2.172564306103424E-3   -2.110824675595971E-3   -2.133923175166852E-3    3.638158479853377E-1   -3.331811124012390E-1
 9.937557506750000E9     4.662450239263123E-1   -1.232212394319641E-1   -2.073294194958254E-3   -2.154351817282669E-3   -2.128635031644662E-3   -2.184107242742753E-3    3.635157168367958E-1   -3.335849504555826E-1
 9.937559062875000E9     4.661899099840900E-1   -1.233734178051494E-1   -2.105499117171380E-3   -2.202440326864519E-3   -2.162589622951845E-3   -2.177738687305981E-3    3.631075886905899E-1   -3.336384901820016E-1
 9.937560619000000E9     4.660747593769419E-1   -1.234218426704940E-1   -2.115475183608240E-3   -2.198325114453305E-3   -2.197886294259395E-3   -2.204231821570124E-3    3.627815347960410E-1   -3.337600620648064E-1
 9.937562175125000E9     4.660892257905488E-1   -1.235740153529289E-1   -2.137255121098961E-3   -2.234125786841236E-3   -2.205635087606704E-3   -2.222036362920541E-3    3.624993782023749E-1   -3.339510080408429E-1
 9.937563731250000E9     4.659468202238667E-1   -1.236429147534627E-1   -2.163790389420118E-3   -2.267797845607455E-3   -2.259079346747437E-3   -2.240139402507323E-3    3.620576660806892E-1   -3.344359445630340E-1
 9.937565287375000E9     4.661417074441396E-1   -1.239075479708260E-1   -2.206805318300053E-3   -2.290883238163803E-3   -2.275968282046064E-3   -2.282811333786172E-3    3.618934881643958E-1   -3.343711318379033E-1
 9.937566843500000E9     4.659251898172264E-1   -1.238616649061436E-1   -2.244974789193855E-3   -2.290163424807551E-3   -2.318867416392881E-3   -2.294598619278233E-3    3.616929413945736E-1   -3.345893231349966E-1
 9.937568399625000E9     4.660263112608436E-1   -1.241142598276332E-1   -2.293618255870790E-3   -2.344514245082465E-3   -2.323088552466614E-3   -2.321366778709954E-3    3.611426669009466E-1   -3.349281991265382E-1
 9.937569955750000E9     4.659669751547031E-1   -1.241570186229228E-1   -2.273715809727700E-3   -2.328779259091118E-3   -2.338746137076717E-3   -2.345344269520113E-3    3.608865959704198E-1   -3.351733154001327E-1
 9.937571511875000E9     4.658804470923877E-1   -1.243380137723171E-1   -2.325491910369593E-3   -2.354569204307863E-3   -2.371611561456643E-3   -2.370386456959649E-3    3.606040868661559E-1   -3.353562686946448E-1
 9.937573068000000E9     4.659037831335325E-1   -1.242851571443760E-1   -2.349665622172994E-3   -2.379657092280889E-3   -2.403529599323852E-3   -2.367171848325208E-3    3.601577183915023E-1   -3.356371028501768E-1
 9.937574624125000E9     4.657464549958720E-1   -1.244585016875991E-1   -2.390614534225707E-3   -2.390588827146579E-3   -2.455108285396566E-3   -2.412171744778125E-3    3.599465528642939E-1   -3.360216388188316E-1
 9.937576180250000E9     4.656234438012098E-1   -1.245903773881197E-1   -2.404683871236851E-3   -2.426974121922904E-3   -2.470701109874418E-3   -2.448209622940494E-3    3.595104357164498E-1   -3.362278059455375E-1
 9.937577736375000E9     4.657545653492533E-1   -1.246325330454505E-1   -2.422604963709236E-3   -2.468947274977433E-3   -2.516337317903765E-3   -2.463404568541880E-3    3.592778521590145E-1   -3.362027685386935E-1
 9.937579292500000E9     4.656672850749168E-1   -1.247036631925811E-1   -2.474613671276312E-3   -2.448388902673155E-3   -2.548290749527617E-3   -2.431645873082029E-3    3.589033984308121E-1   -3.365338835964494E-1
 9.937580848625000E9     4.655702677521771E-1   -1.247335787178819E-1   -2.516143612370055E-3   -2.492297524957720E-3   -2.581873395002253E-3   -2.502622092153287E-3    3.585056834203477E-1   -3.368164122618916E-1
 9.937582404750000E9     4.656375508358380E-1   -1.250148981155721E-1   -2.557125171510338E-3   -2.543988515248322E-3   -2.592657466074489E-3   -2.515402856743128E-3    3.582741267315990E-1   -3.368867469360478E-1
 9.937583960875000E9     4.656736465698810E-1   -1.251299731843219E-1   -2.550244591762873E-3   -2.547315260092949E-3   -2.644481149748100E-3   -2.534978058734743E-3    3.579211077204583E-1   -3.371866567505026E-1
 9.937585517000000E9     4.655884339147915E-1   -1.253313637823422E-1   -2.602430157704506E-3   -2.574235319912786E-3   -2.667357232932903E-3   -2.613643186533521E-3    3.573335650525772E-1   -3.376850851129138E-1
 9.937587073125000E9     4.654928673046372E-1   -1.252301899069312E-1   -2.621016762629853E-3   -2.615942445733451E-3   -2.697413454224429E-3   -2.593864561941959E-3    3.570953593733266E-1   -3.376450256109789E-1
 9.937588629250000E9     4.654136411426326E-1   -1.253175437649252E-1   -2.675099650676482E-3   -2.603530502951107E-3   -2.740915671357521E-3   -2.628888735046519E-3    3.565894511218815E-1   -3.380080988859374E-1
 9.937590185375000E9     4.653871399911736E-1   -1.255100898189226E-1   -2.716458607569767E-3   -2.655026966494689E-3   -2.759284843354722E-3   -2.650336121903635E-3    3.563326160548908E-1   -3.382792971322094E-1
 9.937591741500000E9     4.654807200806479E-1   -1.257118342161045E-1   -2.725260065164841E-3   -2.650452735588633E-3   -2.825621283186302E-3   -2.677320444418882E-3    3.558560404093495E-1   -3.384050809808641E-1
 9.937593297625000E9     4.653533520091698E-1   -1.257187106433665E-1   -2.761168023633741E-3   -2.707839939217176E-3   -2.834206632864766E-3   -2.694404747184036E-3    3.554720203424547E-1   -3.386163918885623E-1
 9.937594853750000E9     4.653929938282020E-1   -1.258859340576276E-1   -2.797198918179174E-3   -2.708379982759611E-3   -2.867413942209128E-3   -2.732163387178465E-3    3.550720148927096E-1   -3.388321589713437E-1
 9.937596409875000E9     4.653783684466620E-1   -1.259908347905724E-1   -2.822008371206054E-3   -2.730012269362510E-3   -2.956755549131059E-3   -2.773944267069347E-3    3.546462914340712E-1   -3.391449499992285E-1
 9.937597966000000E9     4.653149608140695E-1   -1.260366550520293E-1   -2.888255139862645E-3   -2.782700396927229E-3   -2.974919789490849E-3   -2.770973005858768E-3    3.543947384443487E-1   -3.396215288392063E-1
 9.937599522125000E9     4.653103585719399E-1   -1.262394023444127E-1   -2.924595863325389E-3   -2.832807764610959E-3   -3.044802706424151E-3   -2.800234838164983E-3    3.538855431275957E-1   -3.398061049462030E-1
 9.937601078250000E9     4.651827222814894E-1   -1.263081561665151E-1   -2.993359265700028E-3   -2.837149100498440E-3   -3.088337784675258E-3   -2.819807095602620E-3    3.532380690127147E-1   -3.399457096380723E-1
 9.937602634375000E9     4.651221706259812E-1   -1.262863779833251E-1   -2.981226950854079E-3   -2.887882926316033E-3   -3.093433617250310E-3   -2.885690228359679E-3    3.530456023718676E-1   -3.400158583995596E-1
 9.937604190500000E9     4.651880673760365E-1   -1.264879799027724E-1   -3.058279271661263E-3   -2.907623050871199E-3   -3.102819019326299E-3   -2.901343271158628E-3    3.525421694879472E-1   -3.404867345345673E-1
 9.937605746625000E9     4.651582305838256E-1   -1.266233743892100E-1   -3.103526727686272E-3   -2.944783819599245E-3   -3.173573926758611E-3   -2.919838192658147E-3    3.521839724684009E-1   -3.405791014444690E-1
 9.937607302750000E9     4.650859528783563E-1   -1.267445189990054E-1   -3.124274533142985E-3   -2.975688085730493E-3   -3.221810893384709E-3   -2.961621363459980E-3    3.518302059806727E-1   -3.410157908442122E-1
 9.937608858875000E9     4.649363297817726E-1   -1.268692337410643E-1   -3.146695516552762E-3   -3.002680746834011E-3   -3.249548218361474E-3   -2.979666397704792E-3    3.509707323452231E-1   -3.410989624874425E-1
 9.937610415000000E9     4.650682897465718E-1   -1.269240635873489E-1   -3.203814506691983E-3   -3.029727682793678E-3   -3.293581515911937E-3   -3.028621542292496E-3    3.504721440983523E-1   -3.412675359606485E-1
 9.937611971125000E9     4.649064559525273E-1   -1.270714471678870E-1   -3.286198451486792E-3   -3.085229239647784E-3   -3.334204771750118E-3   -3.072699335418304E-3    3.504187264839701E-1   -3.417441317100042E-1
 9.937613527250000E9     4.648217425005386E-1   -1.269968464672331E-1   -3.332822107502719E-3   -3.110513581541629E-3   -3.412739980119786E-3   -3.088289684763625E-3    3.496638628791325E-1   -3.420161302864118E-1
