#  HZ   S   RI   R     50.00 
! Rohde & Schwarz Vector Network Analyzer 
! Rohde-Schwarz,ZNB20-2Port,1311601062101988,3.16
! Created: UTC 3/20/2024, 10:57:00 PM
! freq[Hz]                re:S11                  im:S11                  re:S21                  im:S21                  re:S12                  im:S12                  re:S22                  im:S22
 9.937471041000000E9     4.681853704896412E-1   -1.173967285422994E-1   -1.104786037754632E-3   -1.262934016217362E-3   -1.156242530788961E-3   -1.298859204741825E-3    3.761950480508943E-1   -3.234334390362947E-1
 9.937472601850000E9     4.681085636066405E-1   -1.176359256628851E-1   -1.098813953590777E-3   -1.318887626899983E-3   -1.158018463593355E-3   -1.317050935985189E-3    3.760790026646794E-1   -3.236266344670020E-1
 9.937474162700001E9     4.681668123058224E-1   -1.175896705227650E-1   -1.125459335416134E-3   -1.303156448604434E-3   -1.179425585148194E-3   -1.291960756604162E-3    3.759254142837603E-1   -3.237294361549131E-1
 9.937475723549999E9     4.681422352982736E-1   -1.177092096346180E-1   -1.152554054717468E-3   -1.326476080708796E-3   -1.196968032391253E-3   -1.333728485986708E-3    3.756745945529882E-1   -3.237716494901523E-1
 9.937477284400000E9     4.680533071008384E-1   -1.178316184067681E-1   -1.194394520066740E-3   -1.320023426551608E-3   -1.225979154682944E-3   -1.320861642202892E-3    3.754589521973480E-1   -3.241312943950949E-1
 9.937478845250000E9     4.679704772418823E-1   -1.179359029292485E-1   -1.164555919054277E-3   -1.355628863617353E-3   -1.188475939385769E-3   -1.335503042138391E-3    3.752736615730441E-1   -3.243249462027732E-1
 9.937480406100000E9     4.679857796561005E-1   -1.180301123785509E-1   -1.191124367396037E-3   -1.355183727449391E-3   -1.207305930665887E-3   -1.377380433365473E-3    3.751126879450312E-1   -3.246119433760466E-1
 9.937481966950001E9     4.679950179732802E-1   -1.181238390063389E-1   -1.173940915575822E-3   -1.397639521703235E-3   -1.264085238432324E-3   -1.405896157716194E-3    3.750214641516373E-1   -3.244653580459881E-1
 9.937483527799999E9     4.678424694115980E-1   -1.183006820569661E-1   -1.234395628812587E-3   -1.418477686897306E-3   -1.277473895629966E-3   -1.369422290577737E-3    3.748773679592210E-1   -3.249000111045056E-1
 9.937485088650000E9     4.677480321478160E-1   -1.182724581413417E-1   -1.217921567681188E-3   -1.421668770154606E-3   -1.288021700078008E-3   -1.416697751347247E-3    3.745890500645443E-1   -3.248865773575187E-1
 9.937486649500000E9     4.678249924418329E-1   -1.184864296946671E-1   -1.265417818072192E-3   -1.417237815902199E-3   -1.269152410141818E-3   -1.432667985079823E-3    3.742707681872233E-1   -3.249585996426627E-1
 9.937488210350000E9     4.678215248818588E-1   -1.185565270742249E-1   -1.295935704480265E-3   -1.451768452541273E-3   -1.299391407177232E-3   -1.440043472028912E-3    3.740636769523376E-1   -3.252352602282103E-1
 9.937489771200001E9     4.678262941592262E-1   -1.186663754722261E-1   -1.329837889249566E-3   -1.445631091529868E-3   -1.304043973246868E-3   -1.458005349376160E-3    3.740538854992523E-1   -3.256361774506510E-1
 9.937491332049999E9     4.677537407823675E-1   -1.188313722345422E-1   -1.289125789189540E-3   -1.462261665500234E-3   -1.303458295802632E-3   -1.482058643882218E-3    3.735616818682271E-1   -3.255913186012492E-1
 9.937492892900000E9     4.675797606772644E-1   -1.189783898809858E-1   -1.279965608195971E-3   -1.457262919605384E-3   -1.348637547194453E-3   -1.467069455594640E-3    3.736075842724702E-1   -3.257278454326985E-1
 9.937494453750000E9     4.676856538467022E-1   -1.190038640163130E-1   -1.302995752239843E-3   -1.505902947480862E-3   -1.367304588322942E-3   -1.491293466334474E-3    3.734665187143368E-1   -3.257993892549867E-1
 9.937496014600000E9     4.675906457467700E-1   -1.192473413202645E-1   -1.329367145803640E-3   -1.530444765831513E-3   -1.352491242925572E-3   -1.520332329151264E-3    3.731611587617712E-1   -3.261780437360577E-1
 9.937497575450001E9     4.675836906168607E-1   -1.190808364251227E-1   -1.351224722123974E-3   -1.476758673480939E-3   -1.361160045822329E-3   -1.511760250951825E-3    3.728257256278035E-1   -3.262641706806282E-1
 9.937499136299999E9     4.676482159043907E-1   -1.192803409002249E-1   -1.335687845896698E-3   -1.509088078947043E-3   -1.399477774254329E-3   -1.546065963711205E-3    3.727191903882673E-1   -3.264118815851235E-1
 9.937500697150000E9     4.675447496107315E-1   -1.195111283429586E-1   -1.417573560421517E-3   -1.555465515369588E-3   -1.429731170669484E-3   -1.549498768944975E-3    3.725104040662918E-1   -3.267804175676494E-1
 9.937502258000000E9     4.673916605751914E-1   -1.195691026423672E-1   -1.425404510230043E-3   -1.547759762022891E-3   -1.462162068650689E-3   -1.527120210370206E-3    3.723058484856517E-1   -3.267616689522974E-1
 9.937503818850000E9     4.674628336193528E-1   -1.196042690353672E-1   -1.424822639901550E-3   -1.563494758196987E-3   -1.467558437199881E-3   -1.539847803483158E-3    3.722210610217503E-1   -3.270747533754743E-1
 9.937505379700001E9     4.674217532622775E-1   -1.197043142697151E-1   -1.432173107919254E-3   -1.563577251477154E-3   -1.471773205606392E-3   -1.591144271527663E-3    3.718569322389491E-1   -3.272002992054326E-1
 9.937506940549999E9     4.673940919326625E-1   -1.197727147147865E-1   -1.450148550291314E-3   -1.595351174616974E-3   -1.488053351778037E-3   -1.623594113755517E-3    3.714772436921548E-1   -3.273581652164611E-1
 9.937508501400000E9     4.673346815839877E-1   -1.200111621608944E-1   -1.445125256277598E-3   -1.633845461867973E-3   -1.518937014504714E-3   -1.614411074884686E-3    3.716011487594328E-1   -3.275140691105618E-1
 9.937510062250000E9     4.672470817840145E-1   -1.199545168326580E-1   -1.473493127482529E-3   -1.651335434425156E-3   -1.532635050937464E-3   -1.605070146462990E-3    3.710103271118969E-1   -3.276399694543672E-1
 9.937511623100000E9     4.672933584993411E-1   -1.201708886851525E-1   -1.506932712710535E-3   -1.627635120819751E-3   -1.530858786172609E-3   -1.628518216786879E-3    3.710502179923167E-1   -3.279512935786018E-1
 9.937513183950001E9     4.671404950307990E-1   -1.202249659542849E-1   -1.481356221062860E-3   -1.665856376651009E-3   -1.562455127161165E-3   -1.676490400641200E-3    3.705059117461346E-1   -3.280287744716765E-1
 9.937514744799999E9     4.671605149360170E-1   -1.204244307532511E-1   -1.501559482919381E-3   -1.688812728489838E-3   -1.558994359600617E-3   -1.674431238973757E-3    3.704518308073610E-1   -3.282340296363772E-1
 9.937516305650000E9     4.672667730056971E-1   -1.205454085883205E-1   -1.536113726812060E-3   -1.694968516085578E-3   -1.609240306656487E-3   -1.687323680185403E-3    3.701831003385210E-1   -3.283458617689151E-1
 9.937517866500000E9     4.672211914773742E-1   -1.205316600828887E-1   -1.518921835523917E-3   -1.735835153617028E-3   -1.592904010303973E-3   -1.688443244590354E-3    3.698815345238924E-1   -3.285689454559996E-1
 9.937519427350000E9     4.670463575344869E-1   -1.206191014182544E-1   -1.597848300072196E-3   -1.699572612995448E-3   -1.618616439397672E-3   -1.739280424661453E-3    3.696378477203239E-1   -3.287274955209487E-1
 9.937520988200001E9     4.671930474280670E-1   -1.208118713429403E-1   -1.574873803562054E-3   -1.753761742345498E-3   -1.649270824764369E-3   -1.734718957804481E-3    3.695897473919518E-1   -3.289888149813027E-1
 9.937522549049999E9     4.669130018325957E-1   -1.207080570858209E-1   -1.632147548237322E-3   -1.754781711393092E-3   -1.650276998782517E-3   -1.769216466583647E-3    3.695015910438026E-1   -3.291836522452581E-1
 9.937524109900000E9     4.669947476884178E-1   -1.211369465610200E-1   -1.630392498677047E-3   -1.776394283072364E-3   -1.685952055396026E-3   -1.756102777415520E-3    3.689963725003054E-1   -3.294009127002208E-1
 9.937525670750000E9     4.668777027154545E-1   -1.210824644938670E-1   -1.645466998117998E-3   -1.785579678399880E-3   -1.734442826178781E-3   -1.767930296063254E-3    3.687369276489977E-1   -3.295487380042911E-1
 9.937527231600000E9     4.669097728425156E-1   -1.212078382248140E-1   -1.691654605055392E-3   -1.784434894514948E-3   -1.732577352998572E-3   -1.810702412161612E-3    3.685027398335275E-1   -3.296863112499634E-1
 9.937528792450001E9     4.669172924416721E-1   -1.213852996618482E-1   -1.688964764183486E-3   -1.812929868839634E-3   -1.747221841266044E-3   -1.827647806031633E-3    3.682741220325289E-1   -3.296967142345698E-1
 9.937530353299999E9     4.668028439101608E-1   -1.214443504043559E-1   -1.713175636680690E-3   -1.840761816307185E-3   -1.756776286005877E-3   -1.867456741920307E-3    3.680485420721689E-1   -3.299038410930846E-1
 9.937531914150000E9     4.667415350667781E-1   -1.216167029666263E-1   -1.701488253600426E-3   -1.884777593282077E-3   -1.798565556094681E-3   -1.850930421198948E-3    3.680101230367995E-1   -3.303760204302827E-1
 9.937533475000000E9     4.666922530548348E-1   -1.217161569362919E-1   -1.756311360485208E-3   -1.876592234619881E-3   -1.796647116008906E-3   -1.908346731448911E-3    3.673972113091326E-1   -3.305398794862587E-1
 9.937535035850000E9     4.668230778265356E-1   -1.217903990831572E-1   -1.790591584605411E-3   -1.875095061964577E-3   -1.837612126832554E-3   -1.903190637301925E-3    3.673751265167245E-1   -3.306992288603168E-1
 9.937536596700001E9     4.667579074763296E-1   -1.217762452992703E-1   -1.815700764561859E-3   -1.899100863981575E-3   -1.837133812634722E-3   -1.937072347507891E-3    3.672944049727948E-1   -3.309263551353472E-1
 9.937538157549999E9     4.667648887447720E-1   -1.220462147381476E-1   -1.805870979469217E-3   -1.912865694437441E-3   -1.847450253352299E-3   -1.935182132902396E-3    3.669225168635605E-1   -3.310702787364423E-1
 9.937539718400000E9     4.665172832583596E-1   -1.221550171450537E-1   -1.801265203064551E-3   -1.948895803573471E-3   -1.892566461781106E-3   -1.930240452112526E-3    3.667236730403623E-1   -3.312631725784761E-1
 9.937541279250000E9     4.665751584555339E-1   -1.222234443490401E-1   -1.859225088363426E-3   -1.979956815859217E-3   -1.905297009518531E-3   -1.962865881987197E-3    3.663757435216335E-1   -3.314605335550835E-1
 9.937542840100000E9     4.665029292581190E-1   -1.222697837697825E-1   -1.874367218668840E-3   -1.977765734927127E-3   -1.954543440285158E-3   -1.980523389873807E-3    3.659973455959101E-1   -3.315004875013383E-1
 9.937544400950001E9     4.664513895042676E-1   -1.224065815776597E-1   -1.877318481927281E-3   -2.030527172910846E-3   -1.953196753687834E-3   -1.991478642041347E-3    3.657199256733903E-1   -3.317975483147690E-1
 9.937545961799999E9     4.665480140688157E-1   -1.225292151675923E-1   -1.931180565832813E-3   -2.023295005814205E-3   -1.957748186306779E-3   -2.030911709990306E-3    3.652212709250498E-1   -3.319207900664333E-1
 9.937547522650000E9     4.665340265306663E-1   -1.227240660160239E-1   -1.959596954754752E-3   -2.058972079566482E-3   -2.014685952924405E-3   -2.054936784944709E-3    3.651954905449045E-1   -3.321404837227434E-1
 9.937549083500000E9     4.663007737400022E-1   -1.227249195556016E-1   -1.943700493646237E-3   -2.038386289231054E-3   -2.007920200023115E-3   -2.101982453575408E-3    3.647972884574912E-1   -3.322960483139256E-1
 9.937550644350000E9     4.664938813167067E-1   -1.226861647746607E-1   -2.000800638261081E-3   -2.076027467459764E-3   -2.028977378839872E-3   -2.069253606046925E-3    3.646987824637707E-1   -3.326367252881789E-1
 9.937552205200001E9     4.662658266651806E-1   -1.229575026597324E-1   -2.006181711092579E-3   -2.083058257519458E-3   -2.106358882271292E-3   -2.098807367470465E-3    3.643636597844127E-1   -3.328527951140073E-1
 9.937553766049999E9     4.663992938317497E-1   -1.230016655072859E-1   -2.032099648391150E-3   -2.129853570903934E-3   -2.105333627800139E-3   -2.137563207130685E-3    3.638878554946550E-1   -3.329327449262821E-1
 9.937555326900000E9     4.662454657944781E-1   -1.233185250962448E-1   -2.041761149576286E-3   -2.124615247312598E-3   -2.087197558142846E-3   -2.156058621504513E-3    3.636803200713363E-1   -3.331919200441804E-1
 9.937556887750000E9     4.663036178993029E-1   -1.231927382171902E-1   -2.081731952013091E-3   -2.136616917739669E-3   -2.151751089349293E-3   -2.143581303503670E-3    3.634197240262421E-1   -3.334463257334546E-1
 9.937558448600000E9     4.661372232424463E-1   -1.233811144654200E-1   -2.099581644664442E-3   -2.185366941289327E-3   -2.182217900379953E-3   -2.189499119231683E-3    3.630701294054754E-1   -3.336218552443407E-1
 9.937560009450001E9     4.661981092580887E-1   -1.235382581832385E-1   -2.148891956876810E-3   -2.243620939932551E-3   -2.185794222506477E-3   -2.204089124143957E-3    3.628571251198329E-1   -3.338134822248834E-1
 9.937561570299999E9     4.662168240111939E-1   -1.236223661220684E-1   -2.158106451750175E-3   -2.203568643014877E-3   -2.231031039151373E-3   -2.239094460040658E-3    3.625526907439337E-1   -3.341332695918153E-1
 9.937563131150000E9     4.661119448958787E-1   -1.236653571695311E-1   -2.216745169827653E-3   -2.243378056930808E-3   -2.246485041847046E-3   -2.239171595881526E-3    3.622929735709443E-1   -3.343084672381328E-1
 9.937564692000000E9     4.659970022474314E-1   -1.237337542418353E-1   -2.195988771555858E-3   -2.292161809634197E-3   -2.260830715740427E-3   -2.287870326456912E-3    3.618417715147121E-1   -3.348740677662432E-1
 9.937566252850000E9     4.660048029425561E-1   -1.238662413571989E-1   -2.262604776936213E-3   -2.284870838825042E-3   -2.303796199161069E-3   -2.298512470817448E-3    3.616087686267564E-1   -3.348664482097445E-1
 9.937567813700001E9     4.660165513304477E-1   -1.240948508419986E-1   -2.262592283237320E-3   -2.307679229654531E-3   -2.308025102397260E-3   -2.314529978232458E-3    3.613275360047301E-1   -3.349811765231326E-1
 9.937569374549999E9     4.658786017084157E-1   -1.241078284068757E-1   -2.319889415478768E-3   -2.336112728751865E-3   -2.371852646389840E-3   -2.317790827225441E-3    3.608671917434700E-1   -3.350865544599680E-1
 9.937570935400000E9     4.658303565559555E-1   -1.241730628260413E-1   -2.317041076041605E-3   -2.353403145357677E-3   -2.392585552737735E-3   -2.364653046738683E-3    3.604595548314724E-1   -3.354011957549863E-1
 9.937572496250000E9     4.657878820035205E-1   -1.242040528947562E-1   -2.368824261420014E-3   -2.369883413166925E-3   -2.421507773366054E-3   -2.385183577704759E-3    3.601905797024811E-1   -3.355628300674948E-1
 9.937574057100000E9     4.658127180916283E-1   -1.245023173239336E-1   -2.363688057770392E-3   -2.395914937180310E-3   -2.468187049064310E-3   -2.401679346867000E-3    3.599080298709039E-1   -3.359259321876328E-1
 9.937575617950001E9     4.657645836531859E-1   -1.245442152874367E-1   -2.412541866677546E-3   -2.438866064278187E-3   -2.514708268151602E-3   -2.445275828088829E-3    3.595118976643806E-1   -3.361123232873763E-1
 9.937577178799999E9     4.656550138268273E-1   -1.246994115550574E-1   -2.458778544796479E-3   -2.456291135682770E-3   -2.513950799292343E-3   -2.444220788709125E-3    3.592410560835611E-1   -3.362733927544099E-1
 9.937578739650000E9     4.656196249253057E-1   -1.247451249686485E-1   -2.445444530092932E-3   -2.452669305616580E-3   -2.541802473755438E-3   -2.482634709500566E-3    3.588492208415903E-1   -3.365778574831315E-1
 9.937580300500000E9     4.656219529015349E-1   -1.248439014671821E-1   -2.500997487887821E-3   -2.505434872938490E-3   -2.588551414888762E-3   -2.502301494775889E-3    3.584470674175254E-1   -3.368169482644415E-1
 9.937581861350000E9     4.656669803089051E-1   -1.250447627988704E-1   -2.536513903324650E-3   -2.538462411533363E-3   -2.610525787195703E-3   -2.536589328116563E-3    3.580766132298049E-1   -3.370610591645241E-1
 9.937583422200001E9     4.655916489589000E-1   -1.248932230135780E-1   -2.561716507925298E-3   -2.559417575217387E-3   -2.664176180288925E-3   -2.545567363329373E-3    3.577562161399249E-1   -3.372935707459830E-1
 9.937584983049999E9     4.655007065404159E-1   -1.251237253424468E-1   -2.619871965018311E-3   -2.567974169259934E-3   -2.697164521505814E-3   -2.574602683720446E-3    3.574774144354723E-1   -3.374373920681946E-1
 9.937586543900000E9     4.655777089649240E-1   -1.253266786243294E-1   -2.649964544267891E-3   -2.615857242853592E-3   -2.703463652389906E-3   -2.585524134777153E-3    3.571414673934061E-1   -3.377547076893345E-1
 9.937588104750000E9     4.654436999763253E-1   -1.253932832727470E-1   -2.682463205503648E-3   -2.646017556269667E-3   -2.751944570836964E-3   -2.619329704608361E-3    3.565390534318442E-1   -3.380221938720895E-1
 9.937589665600000E9     4.654562337464229E-1   -1.255269195417400E-1   -2.686609195265089E-3   -2.635361725174627E-3   -2.785783316463228E-3   -2.618354091703755E-3    3.561589172540032E-1   -3.381129393356903E-1
 9.937591226450001E9     4.654070156238050E-1   -1.254486096460447E-1   -2.748177519202188E-3   -2.689623065483828E-3   -2.832288150267560E-3   -2.660407640595676E-3    3.556641122610865E-1   -3.383808234750684E-1
 9.937592787299999E9     4.653464845433525E-1   -1.257282176696677E-1   -2.788788000883491E-3   -2.724348974106232E-3   -2.864437195650656E-3   -2.720165110687325E-3    3.553125735512006E-1   -3.387490831359362E-1
 9.937594348150000E9     4.653958477548174E-1   -1.259418754159666E-1   -2.823520684023543E-3   -2.746226435208380E-3   -2.901427076060829E-3   -2.713826020987578E-3    3.549764368520738E-1   -3.389948674182372E-1
 9.937595909000000E9     4.653903058738164E-1   -1.260401342587926E-1   -2.823488813809121E-3   -2.750074524457221E-3   -2.927224474623617E-3   -2.786105960416146E-3    3.547210613010898E-1   -3.390845818292559E-1
 9.937597469850000E9     4.653491155111181E-1   -1.260697857039885E-1   -2.882594471106808E-3   -2.822233682714302E-3   -2.977567464704112E-3   -2.813470024454231E-3    3.540606286750538E-1   -3.395900023078326E-1
 9.937599030700001E9     4.652897677202113E-1   -1.262857025777296E-1   -2.935807538244040E-3   -2.824786993589332E-3   -3.016381517895804E-3   -2.809533368195376E-3    3.536719466961437E-1   -3.397568769777549E-1
 9.937600591549999E9     4.651247797954739E-1   -1.263161597599557E-1   -2.995600813064805E-3   -2.876737670319952E-3   -3.062039688270611E-3   -2.873722030663522E-3    3.533015159192794E-1   -3.399341574078172E-1
 9.937602152400000E9     4.652376146075062E-1   -1.263135586229019E-1   -3.005431820183890E-3   -2.882329714705560E-3   -3.086160801163125E-3   -2.879247669589522E-3    3.529652611965919E-1   -3.401914949265625E-1
 9.937603713250000E9     4.651061660966209E-1   -1.264234362052711E-1   -3.046358234264398E-3   -2.947847918897533E-3   -3.164066705368824E-3   -2.942013292100174E-3    3.524535853649077E-1   -3.404679923512337E-1
 9.937605274100000E9     4.648739185506670E-1   -1.266114589647888E-1   -3.089179745277691E-3   -2.933004988972818E-3   -3.195036247321595E-3   -2.952872972560370E-3    3.518203502690597E-1   -3.407658224278035E-1
 9.937606834950001E9     4.650471826043771E-1   -1.267549881741111E-1   -3.119899199498263E-3   -2.990533172607311E-3   -3.269576992617713E-3   -2.956360159898310E-3    3.513755227729530E-1   -3.411006420785483E-1
 9.937608395799999E9     4.651121484451892E-1   -1.268757516351527E-1   -3.193820437782262E-3   -2.994735833162807E-3   -3.279449452935827E-3   -2.998827115709810E-3    3.509019283355917E-1   -3.412424715687283E-1
 9.937609956650000E9     4.650216538836980E-1   -1.268593872398014E-1   -3.253087831412511E-3   -3.030760682582031E-3   -3.320430404361668E-3   -3.023133011192282E-3    3.506939621304217E-1   -3.415706452215650E-1
 9.937611517500000E9     4.649767850625854E-1   -1.270272893416761E-1   -3.273921999205831E-3   -3.046336781707099E-3   -3.375806811149114E-3   -3.063052042837923E-3    3.501720327090279E-1   -3.418306586253815E-1
