#  HZ   S   RI   R     50.00 
! Rohde & Schwarz Vector Network Analyzer 
! Rohde-Schwarz,ZNB20-2Port,1311601062101988,3.16
! Created: UTC 3/20/2024, 10:57:03 PM
! freq[Hz]                re:S11                  im:S11                  re:S21                  im:S21                  re:S12                  im:S12                  re:S22                  im:S22
 9.937469939000000E9     4.683650804236893E-1   -1.172911738975490E-1   -1.104160159112580E-3   -1.291066422479599E-3   -1.155695337023551E-3   -1.314632777350011E-3    3.762996804927894E-1   -3.234498317986411E-1
 9.937471502150000E9     4.681919033071744E-1   -1.174016694920768E-1   -1.155392076679593E-3   -1.303440204262359E-3   -1.150465459213600E-3   -1.320103867121535E-3    3.763160371454921E-1   -3.234929295033162E-1
 9.937473065299999E9     4.682417267229805E-1   -1.176510806142523E-1   -1.144017980442339E-3   -1.286599207945677E-3   -1.173178689305175E-3   -1.297618176878687E-3    3.759700926047911E-1   -3.238484381809804E-1
 9.937474628450001E9     4.681091771446005E-1   -1.177185979814922E-1   -1.158414971387294E-3   -1.317748579227622E-3   -1.233096071177374E-3   -1.321058535066214E-3    3.757940596826621E-1   -3.237347667614345E-1
 9.937476191600000E9     4.681487984034194E-1   -1.176967155103736E-1   -1.185173495982947E-3   -1.332935363698845E-3   -1.231399652804300E-3   -1.376149260570814E-3    3.756686082694046E-1   -3.241193191745072E-1
 9.937477754750000E9     4.679125700034444E-1   -1.178953632660946E-1   -1.188625807684596E-3   -1.305794753447083E-3   -1.223402955689177E-3   -1.329848263948015E-3    3.754332503156908E-1   -3.242369346753443E-1
 9.937479317900000E9     4.680109344151961E-1   -1.180445302271287E-1   -1.204896135033929E-3   -1.378603100065764E-3   -1.232307594375839E-3   -1.341631878226760E-3    3.753170144372504E-1   -3.242990827801767E-1
 9.937480881049999E9     4.680444644776502E-1   -1.180963484442179E-1   -1.232613001468515E-3   -1.403535054309847E-3   -1.245006526534258E-3   -1.393459641991422E-3    3.752390582238361E-1   -3.245207831892587E-1
 9.937482444200001E9     4.678637528412169E-1   -1.181430096206786E-1   -1.234679317323318E-3   -1.390339988353233E-3   -1.249792753386162E-3   -1.388721525262803E-3    3.748747389213019E-1   -3.247705378014817E-1
 9.937484007350000E9     4.678421904497209E-1   -1.182999762194123E-1   -1.226703529994974E-3   -1.373818289527652E-3   -1.269444235350732E-3   -1.386182580290784E-3    3.745145925407012E-1   -3.249809562140702E-1
 9.937485570500000E9     4.678685046128647E-1   -1.185511524076281E-1   -1.258749951396180E-3   -1.434455082164974E-3   -1.275829037743950E-3   -1.414721518055186E-3    3.743840879815122E-1   -3.251404100100763E-1
 9.937487133650000E9     4.677633601010182E-1   -1.185707783788751E-1   -1.236368120684636E-3   -1.451247227278124E-3   -1.273517831305669E-3   -1.437623511263113E-3    3.742751941569267E-1   -3.252949213377769E-1
 9.937488696799999E9     4.677478897970410E-1   -1.185766372814638E-1   -1.280243984802581E-3   -1.425511136172026E-3   -1.352545067543013E-3   -1.460374635422683E-3    3.740100915762007E-1   -3.255712263996644E-1
 9.937490259950001E9     4.677333700902543E-1   -1.187384911018147E-1   -1.283843073114961E-3   -1.476524676789848E-3   -1.333438844703874E-3   -1.476946115453506E-3    3.739461527842205E-1   -3.255442861303970E-1
 9.937491823100000E9     4.677080835243440E-1   -1.189743195603020E-1   -1.331968349132964E-3   -1.478986444236836E-3   -1.346195558374371E-3   -1.473833116323631E-3    3.735206448312331E-1   -3.256107060152790E-1
 9.937493386250000E9     4.676008298535299E-1   -1.190561602870499E-1   -1.305156822662211E-3   -1.504496658346287E-3   -1.331879960746209E-3   -1.496449851650320E-3    3.734653885121508E-1   -3.260703526805388E-1
 9.937494949400000E9     4.676295122164785E-1   -1.190993829394209E-1   -1.331203445380418E-3   -1.489388991479715E-3   -1.366256043412244E-3   -1.508948232425491E-3    3.731949813684262E-1   -3.261490228710938E-1
 9.937496512549999E9     4.676158578388830E-1   -1.192480214910636E-1   -1.368674751135150E-3   -1.502151389113246E-3   -1.369525136376481E-3   -1.485836655479398E-3    3.726976674109791E-1   -3.263164054799130E-1
 9.937498075700001E9     4.674806411591750E-1   -1.193165681832823E-1   -1.380036463899018E-3   -1.544482648350971E-3   -1.397744050896902E-3   -1.516880620434468E-3    3.727690837033339E-1   -3.264456424830817E-1
 9.937499638850000E9     4.676657473449956E-1   -1.195180590203754E-1   -1.385245842907846E-3   -1.496216329828327E-3   -1.395400634304138E-3   -1.523230335583885E-3    3.725289721240685E-1   -3.264821964636531E-1
 9.937501202000000E9     4.674761987216821E-1   -1.193530308292021E-1   -1.392415390139433E-3   -1.541558634776255E-3   -1.456524257327971E-3   -1.565780227255722E-3    3.723126097014330E-1   -3.267421595320536E-1
 9.937502765150000E9     4.675193681394113E-1   -1.197492372197632E-1   -1.451278551680281E-3   -1.561342107876184E-3   -1.446750838422683E-3   -1.573295353407104E-3    3.720205260773938E-1   -3.269031109999707E-1
 9.937504328299999E9     4.674436475539447E-1   -1.196792425640550E-1   -1.442900372196954E-3   -1.596350410228121E-3   -1.468085716121949E-3   -1.599432337037773E-3    3.719140597074840E-1   -3.272711859684915E-1
 9.937505891450001E9     4.673521196508845E-1   -1.197185397646521E-1   -1.460845565872991E-3   -1.606011799486793E-3   -1.464160491134247E-3   -1.606497256295172E-3    3.718605244323596E-1   -3.272866478265290E-1
 9.937507454600000E9     4.673852244234266E-1   -1.199295314835934E-1   -1.475465303715646E-3   -1.609200595068503E-3   -1.508743065718252E-3   -1.623522545154865E-3    3.716755965832088E-1   -3.274453783572183E-1
 9.937509017750000E9     4.672907040803421E-1   -1.199603884750596E-1   -1.477113748375622E-3   -1.640045238803053E-3   -1.497889699426408E-3   -1.650222962793144E-3    3.714254630590229E-1   -3.275075592503772E-1
 9.937510580900000E9     4.673164138677103E-1   -1.200908429434034E-1   -1.471874511840992E-3   -1.652683571621307E-3   -1.520062652490191E-3   -1.662341753271304E-3    3.709488194912551E-1   -3.277072218036021E-1
 9.937512144049999E9     4.672049696173782E-1   -1.202008777968442E-1   -1.533953419653230E-3   -1.645139372578912E-3   -1.562898590039281E-3   -1.624342703337917E-3    3.708020091485246E-1   -3.280931177527059E-1
 9.937513707200001E9     4.672751483658397E-1   -1.202278131080536E-1   -1.503334754684310E-3   -1.662082178402126E-3   -1.570414146740281E-3   -1.670750149156555E-3    3.705248686090648E-1   -3.283303898473228E-1
 9.937515270350000E9     4.673443190134585E-1   -1.204263403888340E-1   -1.559232102585795E-3   -1.681986965943164E-3   -1.584835477833115E-3   -1.709861481803477E-3    3.703438173522038E-1   -3.284973099940972E-1
 9.937516833500000E9     4.673198538824839E-1   -1.204198926794442E-1   -1.575955357524278E-3   -1.682987970924623E-3   -1.603357775434180E-3   -1.723100004295938E-3    3.701983962339332E-1   -3.287474205643025E-1
 9.937518396650000E9     4.670591544024400E-1   -1.207389200350606E-1   -1.590905881424306E-3   -1.715842754709418E-3   -1.588660953613057E-3   -1.735872726675083E-3    3.698840776375715E-1   -3.287930486293796E-1
 9.937519959799999E9     4.670133013036386E-1   -1.205582041721076E-1   -1.616415587521506E-3   -1.719298032515156E-3   -1.632499342142355E-3   -1.732793267223599E-3    3.696723671579971E-1   -3.289327358601251E-1
 9.937521522950001E9     4.670300763164801E-1   -1.209114212368349E-1   -1.582544227027633E-3   -1.748313425082230E-3   -1.643592613967324E-3   -1.766101249351287E-3    3.692005391712497E-1   -3.292146320783603E-1
 9.937523086100000E9     4.669731842394907E-1   -1.209804030981127E-1   -1.627103635656592E-3   -1.775515699461572E-3   -1.691029827177877E-3   -1.746984928757478E-3    3.693594116270564E-1   -3.292453555281839E-1
 9.937524649250000E9     4.669356345580015E-1   -1.210119987314850E-1   -1.665885792979471E-3   -1.776376734355258E-3   -1.697468361564250E-3   -1.750877347257087E-3    3.689723755012354E-1   -3.293977185780406E-1
 9.937526212400000E9     4.666857996405688E-1   -1.211277017159641E-1   -1.668579237993821E-3   -1.819888930904302E-3   -1.728422486816055E-3   -1.800154601252427E-3    3.687284857883964E-1   -3.297462569773340E-1
 9.937527775549999E9     4.669748085824478E-1   -1.212766460518349E-1   -1.659922145753438E-3   -1.829638816369482E-3   -1.738568019757847E-3   -1.817729845494628E-3    3.684873451261269E-1   -3.296911946831235E-1
 9.937529338700001E9     4.668092894752699E-1   -1.214254624577290E-1   -1.715801685246133E-3   -1.835053043457401E-3   -1.751821680614621E-3   -1.852045251105688E-3    3.681960270666521E-1   -3.301377678975810E-1
 9.937530901850000E9     4.667001130255318E-1   -1.215174145247908E-1   -1.702960886007686E-3   -1.837967949047653E-3   -1.768554761235448E-3   -1.877152396989311E-3    3.679278616007094E-1   -3.302109997279502E-1
 9.937532465000000E9     4.667527310642405E-1   -1.216756998626549E-1   -1.741071308570616E-3   -1.865714544921272E-3   -1.811561933372234E-3   -1.870376478594773E-3    3.676897748893651E-1   -3.304246858938424E-1
 9.937534028150000E9     4.666455151449627E-1   -1.217843502165523E-1   -1.802401464207433E-3   -1.867556131140598E-3   -1.807018773912867E-3   -1.899840793412446E-3    3.674150730521441E-1   -3.306006481483285E-1
 9.937535591299999E9     4.667324621521098E-1   -1.218166269651971E-1   -1.788125300842724E-3   -1.930662149660389E-3   -1.835040549432744E-3   -1.904919018858787E-3    3.671842025453885E-1   -3.307849861546906E-1
 9.937537154450001E9     4.666316637529733E-1   -1.218448291855994E-1   -1.799054811908122E-3   -1.923428880451566E-3   -1.851668288144010E-3   -1.940337981871781E-3    3.668677116610284E-1   -3.311545360185442E-1
 9.937538717600000E9     4.666805691599938E-1   -1.220744555881461E-1   -1.801930747787794E-3   -1.932619835446292E-3   -1.895959411690638E-3   -1.939387418755985E-3    3.664189093293749E-1   -3.311059120975560E-1
 9.937540280750000E9     4.666057112995424E-1   -1.221985233787287E-1   -1.865376364635784E-3   -2.005519933490595E-3   -1.926027201273958E-3   -1.950917513252561E-3    3.664580717678664E-1   -3.312407729551030E-1
 9.937541843900000E9     4.664716415260891E-1   -1.221586028948239E-1   -1.886984590278521E-3   -1.993678730977463E-3   -1.904772425876515E-3   -1.956357021224883E-3    3.659814980392531E-1   -3.316825602248612E-1
 9.937543407049999E9     4.665772406601553E-1   -1.222512282208215E-1   -1.892537779764225E-3   -2.016994944878754E-3   -1.930763179069331E-3   -2.027810722628942E-3    3.656080626073578E-1   -3.318357382027006E-1
 9.937544970200001E9     4.663360407148159E-1   -1.225566891024029E-1   -1.924657084349350E-3   -2.045042715654399E-3   -1.965655342224574E-3   -2.029672148122482E-3    3.654903131238773E-1   -3.320477919324888E-1
 9.937546533350000E9     4.665058324876740E-1   -1.226844933970007E-1   -1.958621092321953E-3   -2.058382107542367E-3   -1.977430228263793E-3   -2.045777831414436E-3    3.651673525508956E-1   -3.323333263526214E-1
 9.937548096500000E9     4.662807079413196E-1   -1.226952993309769E-1   -1.954396511816198E-3   -2.051571362277950E-3   -2.049309826802374E-3   -2.052124022659529E-3    3.647920390143993E-1   -3.324448473954004E-1
 9.937549659650000E9     4.664229892942958E-1   -1.227174808046050E-1   -2.015477718556623E-3   -2.101676274029905E-3   -2.045510629580762E-3   -2.090575971640147E-3    3.648134997738944E-1   -3.326070324325505E-1
 9.937551222799999E9     4.664087392201755E-1   -1.229108082468851E-1   -2.001917067901058E-3   -2.081297135842331E-3   -2.069431159891315E-3   -2.108529263002602E-3    3.642871680913234E-1   -3.327484492897776E-1
 9.937552785950001E9     4.662867522638792E-1   -1.230844477774396E-1   -2.066371258273397E-3   -2.163578103823666E-3   -2.113586324123870E-3   -2.117724780639102E-3    3.641628297140589E-1   -3.330708825221034E-1
 9.937554349100000E9     4.662306344505332E-1   -1.231964023874751E-1   -2.052865979992451E-3   -2.130514975165075E-3   -2.116486577450742E-3   -2.147093011140827E-3    3.638111768732484E-1   -3.332120124765023E-1
 9.937555912250000E9     4.662681904533039E-1   -1.231315065639268E-1   -2.061889847824920E-3   -2.140822097456857E-3   -2.172920310246767E-3   -2.183142841964840E-3    3.635371966192505E-1   -3.333336871307323E-1
 9.937557475400000E9     4.661015999629350E-1   -1.232466568852215E-1   -2.094414780856058E-3   -2.197932046040863E-3   -2.185278230727897E-3   -2.195241369248428E-3    3.631389809963400E-1   -3.336267738410320E-1
 9.937559038549999E9     4.661855483293745E-1   -1.234665551636441E-1   -2.153350250948942E-3   -2.222409820329520E-3   -2.228462990381082E-3   -2.213966365518501E-3    3.627373806444261E-1   -3.337898149374058E-1
 9.937560601700001E9     4.661675412634817E-1   -1.235219422126761E-1   -2.120820144251339E-3   -2.232913346756952E-3   -2.211261616226849E-3   -2.225380080785670E-3    3.627176621293907E-1   -3.341060592979030E-1
 9.937562164850000E9     4.661466066457227E-1   -1.235547796389068E-1   -2.190423517946672E-3   -2.251986237369845E-3   -2.240420562450881E-3   -2.263501748437330E-3    3.621490994814697E-1   -3.342774817999706E-1
 9.937563728000000E9     4.661708262689035E-1   -1.237556847305073E-1   -2.227467887721521E-3   -2.288070787144154E-3   -2.271817424381127E-3   -2.272582029940943E-3    3.619881150964983E-1   -3.343419623875725E-1
 9.937565291150000E9     4.660721360104869E-1   -1.238666513600685E-1   -2.227300713716203E-3   -2.300368814137753E-3   -2.322871065139529E-3   -2.302502307227931E-3    3.616084766056886E-1   -3.348833517941694E-1
 9.937566854299999E9     4.661226017198818E-1   -1.239380037738401E-1   -2.260313760178849E-3   -2.306656178992140E-3   -2.328750382856599E-3   -2.348688005130938E-3    3.615039019100850E-1   -3.348431457409698E-1
 9.937568417450001E9     4.660658196419326E-1   -1.240253502997796E-1   -2.327737375134805E-3   -2.309481740856896E-3   -2.345383999658139E-3   -2.360049882851751E-3    3.609084910193696E-1   -3.352733047488870E-1
 9.937569980600000E9     4.659365954766649E-1   -1.242457502479948E-1   -2.337606878439736E-3   -2.381320969001173E-3   -2.404643326315277E-3   -2.353853934995224E-3    3.605560539202771E-1   -3.354749196868399E-1
 9.937571543750000E9     4.658627602238187E-1   -1.242799638147076E-1   -2.355857110355512E-3   -2.371240851688023E-3   -2.421346562937002E-3   -2.376088482066972E-3    3.602975685401638E-1   -3.357196184554496E-1
 9.937573106900000E9     4.657872461604244E-1   -1.242977823285629E-1   -2.395547667535592E-3   -2.411405878381940E-3   -2.479721932738025E-3   -2.405788303247493E-3    3.597810105241513E-1   -3.357991669041143E-1
 9.937574670049999E9     4.658165025317391E-1   -1.244778330168663E-1   -2.405396366842643E-3   -2.433339492204692E-3   -2.507981419418368E-3   -2.401821144057957E-3    3.594838673452146E-1   -3.359037588578514E-1
 9.937576233200001E9     4.658539299887505E-1   -1.245361492355809E-1   -2.429657800701519E-3   -2.456127351795954E-3   -2.526098495963902E-3   -2.436353862570667E-3    3.593003370271356E-1   -3.360931875690361E-1
 9.937577796350000E9     4.657725822569956E-1   -1.247522579636388E-1   -2.480872996651643E-3   -2.493948529113544E-3   -2.527617046681817E-3   -2.466193173760538E-3    3.587802217572668E-1   -3.365969507233619E-1
 9.937579359500000E9     4.657817458371843E-1   -1.247246688936521E-1   -2.495385707013424E-3   -2.510002429386809E-3   -2.581619129803995E-3   -2.517828804337998E-3    3.584523062527241E-1   -3.366698853071562E-1
 9.937580922650000E9     4.658131824735136E-1   -1.249584959455453E-1   -2.549488347183433E-3   -2.537797579923539E-3   -2.613847203883340E-3   -2.516626858645852E-3    3.581869097029345E-1   -3.371170417085107E-1
 9.937582485799999E9     4.657310287726267E-1   -1.249566565984780E-1   -2.584776687420716E-3   -2.542880068080425E-3   -2.652702915845063E-3   -2.583444130383584E-3    3.578185443084362E-1   -3.372401914991025E-1
 9.937584048950001E9     4.655593096807100E-1   -1.252031985137148E-1   -2.618550657663460E-3   -2.589307758589578E-3   -2.684512318787183E-3   -2.574142929866010E-3    3.573849240851049E-1   -3.372912162927919E-1
 9.937585612100000E9     4.654941340595347E-1   -1.251583609816549E-1   -2.636460155325138E-3   -2.599787135546557E-3   -2.727073996320848E-3   -2.623354601170998E-3    3.570120615840487E-1   -3.376890091307063E-1
 9.937587175250000E9     4.655196057156125E-1   -1.254354720084828E-1   -2.697417144476971E-3   -2.632440998816119E-3   -2.768450672956661E-3   -2.641189095511433E-3    3.565551044543451E-1   -3.378914485761249E-1
 9.937588738400000E9     4.654505203887724E-1   -1.253624519484052E-1   -2.696710731212699E-3   -2.646197759346977E-3   -2.806990767221801E-3   -2.665943814867051E-3    3.561126305067095E-1   -3.382607716957185E-1
 9.937590301549999E9     4.654581734090841E-1   -1.255962561313092E-1   -2.735758474549723E-3   -2.683809261367775E-3   -2.823122170430490E-3   -2.660524409534052E-3    3.557806746293657E-1   -3.383669762970241E-1
 9.937591864700001E9     4.654148615342386E-1   -1.256270083694464E-1   -2.772911938325747E-3   -2.719619984403301E-3   -2.891522725630382E-3   -2.717925539621221E-3    3.553920831936055E-1   -3.386275213195058E-1
 9.937593427850000E9     4.653518161491156E-1   -1.256108920525984E-1   -2.820565366030521E-3   -2.762559720057102E-3   -2.916030170237880E-3   -2.742698280431762E-3    3.551020236299979E-1   -3.389702336756880E-1
 9.937594991000000E9     4.652724837341907E-1   -1.258436487927076E-1   -2.872996984793788E-3   -2.790070169969638E-3   -2.956271126156253E-3   -2.761446941998784E-3    3.547574615702004E-1   -3.391310899354628E-1
 9.937596554150000E9     4.652058138213302E-1   -1.259665478129554E-1   -2.916995530495334E-3   -2.800089366913965E-3   -2.995455755870502E-3   -2.807656438385286E-3    3.542602320524488E-1   -3.395708417578672E-1
 9.937598117299999E9     4.651627589652493E-1   -1.261830733628720E-1   -2.929547113198876E-3   -2.834123480509070E-3   -3.018542366189057E-3   -2.845661013926136E-3    3.536143811855696E-1   -3.395727467213533E-1
 9.937599680450001E9     4.652929608450079E-1   -1.263392849489194E-1   -2.989602015522064E-3   -2.861144261229354E-3   -3.074472376066752E-3   -2.862444614632570E-3    3.534349593323008E-1   -3.399055888712374E-1
 9.937601243600000E9     4.650992037863710E-1   -1.262282749167502E-1   -3.012560685058382E-3   -2.866814551308770E-3   -3.133209056268436E-3   -2.875072682830274E-3    3.527820995661511E-1   -3.400069187377316E-1
 9.937602806750000E9     4.651461038246152E-1   -1.264492302034460E-1   -3.062305847241474E-3   -2.905476391665054E-3   -3.162957402808367E-3   -2.928898333702090E-3    3.524589217631638E-1   -3.405363233798984E-1
 9.937604369900000E9     4.651048107363562E-1   -1.265050923347578E-1   -3.107925812917928E-3   -2.963896417023373E-3   -3.209423233928298E-3   -2.927746980405383E-3    3.520345298582676E-1   -3.406217988467763E-1
 9.937605933049999E9     4.649539324874969E-1   -1.266541639838288E-1   -3.159222623061519E-3   -2.972291704290734E-3   -3.226999603626751E-3   -2.993605436749504E-3    3.514240395537381E-1   -3.409288280770059E-1
 9.937607496200001E9     4.649738524575379E-1   -1.268563318904354E-1   -3.217540452001420E-3   -3.033204692764418E-3   -3.280993555767762E-3   -3.023036277333983E-3    3.508984043700671E-1   -3.412722039085196E-1
 9.937609059350000E9     4.649710539862018E-1   -1.268867033316169E-1   -3.212341391068184E-3   -3.033346571971586E-3   -3.327194161179244E-3   -3.036032673039128E-3    3.506440735077344E-1   -3.413731431608604E-1
 9.937610622500000E9     4.648686502139757E-1   -1.269562332405272E-1   -3.307092537801844E-3   -3.032583187653195E-3   -3.363478019757657E-3   -3.061160634966683E-3    3.500343730821938E-1   -3.417716599832580E-1
