#  HZ   S   RI   R     50.00 
! Rohde & Schwarz Vector Network Analyzer 
! Rohde-Schwarz,ZNB20-2Port,1311601062101988,3.16
! Created: UTC 3/20/2024, 10:57:05 PM
! freq[Hz]                re:S11                  im:S11                  re:S21                  im:S21                  re:S12                  im:S12                  re:S22                  im:S22
 9.937470306000000E9     4.682975620556991E-1   -1.173426901451937E-1   -1.119143267424754E-3   -1.289795946116901E-3   -1.162456373143653E-3   -1.316552734668361E-3    3.760476607956774E-1   -3.236323919130912E-1
 9.937471862225000E9     4.682505717448195E-1   -1.173832294651841E-1   -1.161204233625664E-3   -1.329500089648632E-3   -1.183455064228901E-3   -1.341824801831589E-3    3.761268712545651E-1   -3.236533882656783E-1
 9.937473418450001E9     4.682231681219612E-1   -1.177624101805384E-1   -1.171503802290749E-3   -1.345351167062093E-3   -1.201631666034811E-3   -1.326426376233648E-3    3.757293180631966E-1   -3.238006991722920E-1
 9.937474974674999E9     4.679954295194693E-1   -1.177116995046700E-1   -1.168758259503295E-3   -1.342547297826659E-3   -1.230837536745196E-3   -1.354930340980458E-3    3.756157464304250E-1   -3.240548296482442E-1
 9.937476530900000E9     4.679703537122162E-1   -1.176565874785703E-1   -1.162682760398917E-3   -1.309654447430709E-3   -1.202803768822030E-3   -1.318845989850107E-3    3.754252881083755E-1   -3.243302364326775E-1
 9.937478087125000E9     4.680906464728574E-1   -1.179890936179966E-1   -1.237138737472605E-3   -1.362055149810252E-3   -1.248739828129028E-3   -1.358472879523635E-3    3.752600160135445E-1   -3.243139279201288E-1
 9.937479643350000E9     4.680443831532814E-1   -1.180509908127012E-1   -1.214989734460985E-3   -1.358941084427967E-3   -1.271897073936421E-3   -1.369139280216476E-3    3.749910325810355E-1   -3.244288175680705E-1
 9.937481199575001E9     4.679166413177596E-1   -1.181450841292577E-1   -1.248587487238972E-3   -1.375214288301050E-3   -1.276475981106434E-3   -1.401720862831907E-3    3.750488628945291E-1   -3.248062904890123E-1
 9.937482755799999E9     4.680647634247496E-1   -1.181872489645462E-1   -1.255760888493031E-3   -1.408060845173598E-3   -1.309249027069024E-3   -1.380380955445638E-3    3.746854920874069E-1   -3.248853351350077E-1
 9.937484312025000E9     4.677953158415558E-1   -1.183860147103888E-1   -1.235395945631832E-3   -1.462488655739477E-3   -1.276925463003644E-3   -1.425353264262687E-3    3.744517301623300E-1   -3.250145076245629E-1
 9.937485868250000E9     4.678388459870058E-1   -1.184343017598378E-1   -1.242446854687052E-3   -1.431064678582007E-3   -1.294811609199938E-3   -1.417554531196473E-3    3.744721621490562E-1   -3.251005585896408E-1
 9.937487424475000E9     4.677828167227874E-1   -1.185179443674984E-1   -1.261256424008379E-3   -1.466362510503310E-3   -1.310815147760542E-3   -1.441949119774068E-3    3.740565457158411E-1   -3.253733497229522E-1
 9.937488980700001E9     4.678575040921695E-1   -1.186290156538293E-1   -1.262842166851469E-3   -1.483917615440698E-3   -1.317800324210197E-3   -1.456873171284978E-3    3.740254716614718E-1   -3.254009153247778E-1
 9.937490536924999E9     4.677411565390492E-1   -1.187565458306903E-1   -1.310246053686474E-3   -1.489472776930813E-3   -1.329663838642808E-3   -1.459626023075936E-3    3.738320230462811E-1   -3.257615049993376E-1
 9.937492093150000E9     4.677587965251820E-1   -1.188318466527977E-1   -1.332915449539286E-3   -1.472882938259610E-3   -1.350670026717759E-3   -1.488387200349701E-3    3.735152427402663E-1   -3.257630049058123E-1
 9.937493649375000E9     4.675626634342656E-1   -1.189521743242221E-1   -1.347161415949909E-3   -1.512951952279956E-3   -1.368837931731065E-3   -1.478610159069352E-3    3.733331715709269E-1   -3.260771465692063E-1
 9.937495205600000E9     4.676421335701552E-1   -1.191478690907170E-1   -1.354894747835958E-3   -1.514456444338500E-3   -1.368367119553977E-3   -1.525698572091319E-3    3.732015173269823E-1   -3.261918866881321E-1
 9.937496761825001E9     4.675702243540914E-1   -1.192686559844048E-1   -1.365032981556873E-3   -1.534288865790370E-3   -1.424669660228874E-3   -1.517803462975098E-3    3.728620285970553E-1   -3.263877288522755E-1
 9.937498318049999E9     4.676111290479845E-1   -1.192892901916807E-1   -1.368530521601090E-3   -1.550509178324543E-3   -1.413574531002390E-3   -1.524082618874768E-3    3.726508422897815E-1   -3.265065870899155E-1
 9.937499874275000E9     4.674239077518243E-1   -1.192286141458759E-1   -1.382388011110504E-3   -1.555880745529075E-3   -1.464830183979555E-3   -1.558138046506332E-3    3.723556733518448E-1   -3.268438475567174E-1
 9.937501430500000E9     4.675505674346960E-1   -1.195527618225465E-1   -1.418303209442720E-3   -1.584497047832658E-3   -1.450646110456787E-3   -1.589825588659270E-3    3.720396098066468E-1   -3.268649718722187E-1
 9.937502986725000E9     4.675356608661284E-1   -1.195279145750827E-1   -1.425545157833755E-3   -1.567586481977308E-3   -1.469005966082688E-3   -1.588435326669303E-3    3.719917171888075E-1   -3.269035035546891E-1
 9.937504542950001E9     4.674256080201813E-1   -1.196740476346991E-1   -1.410975044001060E-3   -1.599587158709635E-3   -1.495987394571026E-3   -1.588645253127702E-3    3.718536847787076E-1   -3.269285085343406E-1
 9.937506099174999E9     4.674732738187644E-1   -1.198505562139735E-1   -1.465158474510960E-3   -1.599100440305281E-3   -1.505261953851943E-3   -1.625596202674608E-3    3.716200686430558E-1   -3.273048137618148E-1
 9.937507655400000E9     4.674011753796532E-1   -1.198513650938090E-1   -1.471830023150345E-3   -1.652451851257355E-3   -1.540210400655607E-3   -1.638042456565682E-3    3.711931395702905E-1   -3.275525721280152E-1
 9.937509211625000E9     4.674971011465877E-1   -1.200153407650788E-1   -1.478764714712066E-3   -1.636432045834125E-3   -1.524151597353482E-3   -1.638698537593250E-3    3.710601107538411E-1   -3.275622124172125E-1
 9.937510767850000E9     4.674052349852170E-1   -1.200922949398471E-1   -1.525009106613969E-3   -1.657552275540162E-3   -1.543399326307362E-3   -1.681818653851282E-3    3.708232055785440E-1   -3.277204891386857E-1
 9.937512324075001E9     4.671593169293362E-1   -1.202772545085492E-1   -1.532294949406152E-3   -1.669677847654802E-3   -1.586330581324248E-3   -1.662507298627525E-3    3.704769252723006E-1   -3.279201391755531E-1
 9.937513880299999E9     4.671717171702847E-1   -1.204859373966691E-1   -1.532203852691939E-3   -1.693369169708636E-3   -1.600010250808478E-3   -1.676455757542160E-3    3.704141211433007E-1   -3.282543627412712E-1
 9.937515436525000E9     4.671398148973753E-1   -1.204023030260820E-1   -1.558629810545122E-3   -1.734311167206662E-3   -1.595780275556429E-3   -1.726155422837023E-3    3.701500612205453E-1   -3.284074288303519E-1
 9.937516992750000E9     4.669566580009731E-1   -1.204187767377408E-1   -1.572526575930793E-3   -1.732327665083392E-3   -1.589544741118603E-3   -1.716447578544956E-3    3.699974653109007E-1   -3.286975025440364E-1
 9.937518548975000E9     4.671655704068348E-1   -1.206667675588529E-1   -1.583533924825743E-3   -1.709423198266798E-3   -1.619672349539031E-3   -1.737944879228182E-3    3.696851489604754E-1   -3.287681489355054E-1
 9.937520105200001E9     4.670931779776725E-1   -1.208467991524786E-1   -1.667381779866552E-3   -1.754379476077767E-3   -1.653188636005873E-3   -1.748110272102314E-3    3.695881331899891E-1   -3.289301759842899E-1
 9.937521661424999E9     4.669172479823390E-1   -1.209652495550682E-1   -1.629895431767431E-3   -1.771683210714825E-3   -1.684227233014030E-3   -1.766297473401210E-3    3.693841217475192E-1   -3.291230552930089E-1
 9.937523217650000E9     4.668530683130477E-1   -1.209230568811724E-1   -1.618047137295585E-3   -1.779209285653174E-3   -1.682338908349843E-3   -1.801892369662102E-3    3.691155967972581E-1   -3.293712622383032E-1
 9.937524773875000E9     4.669586293214946E-1   -1.211328184420385E-1   -1.659874900514700E-3   -1.786068490706846E-3   -1.722140377085036E-3   -1.800759272626283E-3    3.688576112198227E-1   -3.294479190461325E-1
 9.937526330100000E9     4.668597514450850E-1   -1.211933488418959E-1   -1.698954592905304E-3   -1.810470011232937E-3   -1.749139139822702E-3   -1.805042784733066E-3    3.686243854373750E-1   -3.297336025461546E-1
 9.937527886325001E9     4.669056084626302E-1   -1.211955817873782E-1   -1.736320081732104E-3   -1.875453303240614E-3   -1.744131071738350E-3   -1.825113824771408E-3    3.683265063774382E-1   -3.299600049918877E-1
 9.937529442549999E9     4.667619422789739E-1   -1.214116514655126E-1   -1.726459345598423E-3   -1.850347172568676E-3   -1.806323692877273E-3   -1.867112291467926E-3    3.678824508868589E-1   -3.301189953265867E-1
 9.937530998775000E9     4.667547936080239E-1   -1.214914576101198E-1   -1.769903244401833E-3   -1.880500260677266E-3   -1.783415184810656E-3   -1.873602262693716E-3    3.676103889732462E-1   -3.301628787296550E-1
 9.937532555000000E9     4.667103117769815E-1   -1.215644912105941E-1   -1.789544999607819E-3   -1.885157877975916E-3   -1.820167268822748E-3   -1.887744928737023E-3    3.675586437533205E-1   -3.304448782302311E-1
 9.937534111225000E9     4.666868496144171E-1   -1.218159750278043E-1   -1.792927846952431E-3   -1.922111582474807E-3   -1.843508008342085E-3   -1.915497186405696E-3    3.674379239877964E-1   -3.306362798460807E-1
 9.937535667450001E9     4.667991624849349E-1   -1.218121734574602E-1   -1.817703734624642E-3   -1.867614756999977E-3   -1.871667814320503E-3   -1.951442283165380E-3    3.670627393386605E-1   -3.307031267330917E-1
 9.937537223674999E9     4.667349001139253E-1   -1.219653515943292E-1   -1.830184736386085E-3   -1.925515799824736E-3   -1.858040016861194E-3   -1.926419547351561E-3    3.665899868265124E-1   -3.310923708591472E-1
 9.937538779900000E9     4.666828065036728E-1   -1.219677155379934E-1   -1.841839504294821E-3   -1.978316568060731E-3   -1.909903389565699E-3   -1.986643591091682E-3    3.665675925260928E-1   -3.311573432594634E-1
 9.937540336125000E9     4.665299741373695E-1   -1.220912238029818E-1   -1.879784555251206E-3   -1.960229753989509E-3   -1.937062185763247E-3   -1.968567091131580E-3    3.661462960955026E-1   -3.313817149901500E-1
 9.937541892350000E9     4.665256057110154E-1   -1.222520851334578E-1   -1.858659443311494E-3   -2.002515567473063E-3   -1.946339053072913E-3   -1.997034445186372E-3    3.659661594775429E-1   -3.316838220665659E-1
 9.937543448575001E9     4.665841357179250E-1   -1.224251778203977E-1   -1.886038123663769E-3   -1.990113176355047E-3   -1.950417527500750E-3   -2.043053486545507E-3    3.655637265973020E-1   -3.319190327833352E-1
 9.937545004799999E9     4.664711791264379E-1   -1.224241445687401E-1   -1.923431736102120E-3   -2.039444713773276E-3   -1.998357233411687E-3   -2.025366340895382E-3    3.653665006195463E-1   -3.319619647120120E-1
 9.937546561025000E9     4.664865235250733E-1   -1.225659915816724E-1   -1.959291807582629E-3   -2.074009469974506E-3   -1.983358222381265E-3   -2.034993115114320E-3    3.650482954955294E-1   -3.322361118885944E-1
 9.937548117250000E9     4.664093945688670E-1   -1.227220931878630E-1   -1.949523394740063E-3   -2.088554658110284E-3   -2.021890027493115E-3   -2.108866948340583E-3    3.648252848280852E-1   -3.323773961747670E-1
 9.937549673475000E9     4.664715639101684E-1   -1.227873019420329E-1   -1.979288615894591E-3   -2.087922888105360E-3   -2.079547794926908E-3   -2.101087003964327E-3    3.646213365555699E-1   -3.325083445693570E-1
 9.937551229700001E9     4.664025645596141E-1   -1.229207582647072E-1   -2.061993709107115E-3   -2.082021169615447E-3   -2.105041748655136E-3   -2.150015511166751E-3    3.643015168027975E-1   -3.329899211873847E-1
 9.937552785924999E9     4.662149700026252E-1   -1.230883997248369E-1   -2.039869331017768E-3   -2.137290853892408E-3   -2.102915686278643E-3   -2.136149958130338E-3    3.639344934063500E-1   -3.331033213231200E-1
 9.937554342150000E9     4.662510808397050E-1   -1.231506236475496E-1   -2.069879895777186E-3   -2.135120086558339E-3   -2.170310871312513E-3   -2.165235214295655E-3    3.636863416466513E-1   -3.333356443070699E-1
 9.937555898375000E9     4.662740584321412E-1   -1.231265782578634E-1   -2.115779983765440E-3   -2.178429507385738E-3   -2.160296229037134E-3   -2.169461468816736E-3    3.631965691876042E-1   -3.333077799460993E-1
 9.937557454600000E9     4.662355078185222E-1   -1.233153198145687E-1   -2.129766733107890E-3   -2.195522758168322E-3   -2.210100718162931E-3   -2.205580448352896E-3    3.630430922486283E-1   -3.336681123267630E-1
 9.937559010825001E9     4.661360688310395E-1   -1.232986445921090E-1   -2.134349459848794E-3   -2.218557145640752E-3   -2.238890751186886E-3   -2.228229295787576E-3    3.626976689667399E-1   -3.338156208016053E-1
 9.937560567049999E9     4.660780687103002E-1   -1.236632766580285E-1   -2.181515287032043E-3   -2.248642510258364E-3   -2.249852104241188E-3   -2.253755481170130E-3    3.624043066823210E-1   -3.340916107830077E-1
 9.937562123275000E9     4.660256796660819E-1   -1.235290939175761E-1   -2.191422529662296E-3   -2.271079075985544E-3   -2.265541993798049E-3   -2.245863484200963E-3    3.620505514337537E-1   -3.344344926510991E-1
 9.937563679500000E9     4.660471668143917E-1   -1.237620246998664E-1   -2.234557618120294E-3   -2.283581747681731E-3   -2.296594655530351E-3   -2.283793150243042E-3    3.616759372056210E-1   -3.344566949125039E-1
 9.937565235725000E9     4.661814932567166E-1   -1.237585194357105E-1   -2.258170359851737E-3   -2.309886661850796E-3   -2.360061201061906E-3   -2.311461459360594E-3    3.616267611179963E-1   -3.348879770111715E-1
 9.937566791950001E9     4.660822019180418E-1   -1.240713195070976E-1   -2.294644522198813E-3   -2.342479554647214E-3   -2.367513311644112E-3   -2.321532496997385E-3    3.609436724135203E-1   -3.348658920951208E-1
 9.937568348174999E9     4.658976028306219E-1   -1.240830311204900E-1   -2.319720832431531E-3   -2.370842218928615E-3   -2.393834345937182E-3   -2.357100261338313E-3    3.608433627424165E-1   -3.352416328799179E-1
 9.937569904400000E9     4.658921612179591E-1   -1.243140897280744E-1   -2.360253016146680E-3   -2.355760082669703E-3   -2.411549832887138E-3   -2.359631895986323E-3    3.603584834622275E-1   -3.354066537374540E-1
 9.937571460625000E9     4.659114486152411E-1   -1.243469988518153E-1   -2.371840852149300E-3   -2.412470354357271E-3   -2.416825877409580E-3   -2.405040438339270E-3    3.602653113623945E-1   -3.356036701275873E-1
 9.937573016850000E9     4.659019548474311E-1   -1.244419197901540E-1   -2.396036046788088E-3   -2.400733274941806E-3   -2.476860458342244E-3   -2.436173947986964E-3    3.595475447302848E-1   -3.358319022831809E-1
 9.937574573075001E9     4.656610000779664E-1   -1.245640822079709E-1   -2.405115501326528E-3   -2.429776572564148E-3   -2.506675395465370E-3   -2.447426944881955E-3    3.594199057564368E-1   -3.362359422985034E-1
 9.937576129299999E9     4.656487561865469E-1   -1.245939613988371E-1   -2.452173560275183E-3   -2.479783109245309E-3   -2.559086180570181E-3   -2.473468110320091E-3    3.589848005012887E-1   -3.362597263279837E-1
 9.937577685525000E9     4.657025625845796E-1   -1.247425816429041E-1   -2.463366170593175E-3   -2.488008522067823E-3   -2.598417317639423E-3   -2.488882308072440E-3    3.587433916505633E-1   -3.365779485457387E-1
 9.937579241750000E9     4.657580351230611E-1   -1.248966731200111E-1   -2.525447995901832E-3   -2.535263038180487E-3   -2.593594235234022E-3   -2.524858447726696E-3    3.584185712357428E-1   -3.367223441180172E-1
 9.937580797975000E9     4.656883025635482E-1   -1.248475139695412E-1   -2.590107144601571E-3   -2.536261921902793E-3   -2.667513632154470E-3   -2.543757880309715E-3    3.578673841186589E-1   -3.369948142211072E-1
 9.937582354200001E9     4.656741209735921E-1   -1.249929017392043E-1   -2.599234835688773E-3   -2.506619180448181E-3   -2.690770090139882E-3   -2.563309749245183E-3    3.576526345054232E-1   -3.370833454436634E-1
 9.937583910424999E9     4.656053994983068E-1   -1.250838168190268E-1   -2.636331157568954E-3   -2.602624862659360E-3   -2.705453108332929E-3   -2.598367588574658E-3    3.572685611980700E-1   -3.375286462392931E-1
 9.937585466650000E9     4.654802635002186E-1   -1.252952160741428E-1   -2.720013652738144E-3   -2.632421498719703E-3   -2.750534600797425E-3   -2.622740408505795E-3    3.566658932822535E-1   -3.375806534926997E-1
 9.937587022875000E9     4.654833198641932E-1   -1.253960066286200E-1   -2.723702131126520E-3   -2.614796048018368E-3   -2.779028088984160E-3   -2.669632058045897E-3    3.565801554936754E-1   -3.381534496139988E-1
 9.937588579100000E9     4.655322093248546E-1   -1.253842606934197E-1   -2.704616883293132E-3   -2.659263116761256E-3   -2.852784362112660E-3   -2.664102563967939E-3    3.562377416171867E-1   -3.384316977113404E-1
 9.937590135325001E9     4.653954730216317E-1   -1.256081008341171E-1   -2.792062326192809E-3   -2.697025178801440E-3   -2.846174868098083E-3   -2.711055654665668E-3    3.556167711171659E-1   -3.384096834667206E-1
 9.937591691549999E9     4.654329281815321E-1   -1.256355326180631E-1   -2.816415335967390E-3   -2.735216229771817E-3   -2.928739717894668E-3   -2.751719118019681E-3    3.553801415762221E-1   -3.387000114864703E-1
 9.937593247775000E9     4.653448957536838E-1   -1.256460975708880E-1   -2.827743824078881E-3   -2.758774203023613E-3   -2.945762576373120E-3   -2.743539882031971E-3    3.549522491583061E-1   -3.388837189273077E-1
 9.937594804000000E9     4.652494767729693E-1   -1.258412046851453E-1   -2.899248713580782E-3   -2.768547910041445E-3   -2.995081566485699E-3   -2.770782914958372E-3    3.544916829127752E-1   -3.391906458082887E-1
 9.937596360225000E9     4.653864380210331E-1   -1.259609422842718E-1   -2.928684565700041E-3   -2.822319145319442E-3   -3.016384742967516E-3   -2.840467595258509E-3    3.540642703294803E-1   -3.394480729625656E-1
 9.937597916450001E9     4.651521715450575E-1   -1.260577015284859E-1   -2.954383538996250E-3   -2.857044975670785E-3   -3.034502868564617E-3   -2.839667583797053E-3    3.536191906768468E-1   -3.396706471749338E-1
 9.937599472674999E9     4.652910213080139E-1   -1.262894690936947E-1   -3.021711798119783E-3   -2.855755137592178E-3   -3.102755340311099E-3   -2.839546473200582E-3    3.531153913168881E-1   -3.401280205397801E-1
 9.937601028900000E9     4.652509849712403E-1   -1.261664158470811E-1   -3.069054278043405E-3   -2.910066891745285E-3   -3.154311356656310E-3   -2.875860714023378E-3    3.525009674031873E-1   -3.402720049222597E-1
 9.937602585125000E9     4.650106666778435E-1   -1.264019965206490E-1   -3.081894985840506E-3   -2.918904537385988E-3   -3.199452539478383E-3   -2.925768814749132E-3    3.522035817791015E-1   -3.405124563270913E-1
 9.937604141350000E9     4.652792739192098E-1   -1.264640716547912E-1   -3.134768214464795E-3   -2.922877500518719E-3   -3.247480001381470E-3   -2.943516113750899E-3    3.519190221245011E-1   -3.408207936207825E-1
 9.937605697575001E9     4.650794714946740E-1   -1.266479223519057E-1   -3.196829178826664E-3   -2.968272024146405E-3   -3.319858417624760E-3   -2.991246289774399E-3    3.513556682297296E-1   -3.410515705219035E-1
 9.937607253799999E9     4.649531107360725E-1   -1.266947365551370E-1   -3.247985478802311E-3   -3.040327834691510E-3   -3.341493862847453E-3   -3.022825559471440E-3    3.507784629843896E-1   -3.413502679722213E-1
 9.937608810025000E9     4.650318744545331E-1   -1.268619678011519E-1   -3.260788083069098E-3   -3.047526104836113E-3   -3.394641745413212E-3   -3.050906013612932E-3    3.502116923474282E-1   -3.415760764298487E-1
 9.937610366250000E9     4.650328610231897E-1   -1.269144820955921E-1   -3.312811388064479E-3   -3.094502878780511E-3   -3.395638887553266E-3   -3.027130861685658E-3    3.499928381129802E-1   -3.418345546319547E-1
