#  HZ   S   RI   R     50.00 
! Rohde & Schwarz Vector Network Analyzer 
! Rohde-Schwarz,ZNB20-2Port,1311601062101988,3.16
! Created: UTC 3/20/2024, 10:57:48 PM
! freq[Hz]                re:S11                  im:S11                  re:S21                  im:S21                  re:S12                  im:S12                  re:S22                  im:S22
 9.937429597000000E9     4.690598982085032E-1   -1.148633456879699E-1   -9.993049165469042E-4   -1.132587407457559E-3   -1.007579549255949E-3   -1.133516397745185E-3    3.795013159302925E-1   -3.203192822088433E-1
 9.937431267275000E9     4.689785844851215E-1   -1.149189738546934E-1   -9.897171765537907E-4   -1.127553184618355E-3   -1.057737034369421E-3   -1.122738169242848E-3    3.793794585180424E-1   -3.202635911894158E-1
 9.937432937549999E9     4.688911833632150E-1   -1.149401861628384E-1   -9.865888836935175E-4   -1.148833370487473E-3   -1.043777577619244E-3   -1.151769834717296E-3    3.790570246409404E-1   -3.205801826940382E-1
 9.937434607825001E9     4.689414757228881E-1   -1.152219819772514E-1   -1.041020353991389E-3   -1.181418197280433E-3   -1.067947563505078E-3   -1.138364248257147E-3    3.790237653606869E-1   -3.207849150912562E-1
 9.937436278100000E9     4.688426690629403E-1   -1.152049149731046E-1   -1.040006129071068E-3   -1.194121700784217E-3   -1.056748657644650E-3   -1.178880736623298E-3    3.789321874902112E-1   -3.207943987198073E-1
 9.937437948375000E9     4.688892832020927E-1   -1.153886056726302E-1   -1.070904710972906E-3   -1.205536605818634E-3   -1.081882058716103E-3   -1.167125853362324E-3    3.785532621657390E-1   -3.212499647159103E-1
 9.937439618650000E9     4.688095271491484E-1   -1.154996627649875E-1   -1.073132047986918E-3   -1.165672483233081E-3   -1.084981046511182E-3   -1.210721577774907E-3    3.782964715689343E-1   -3.213154413594309E-1
 9.937441288924999E9     4.688417097961356E-1   -1.156164585586731E-1   -1.049313480918730E-3   -1.194494362685452E-3   -1.102636369210701E-3   -1.207777386582582E-3    3.780478849365781E-1   -3.214300334098721E-1
 9.937442959200001E9     4.687398726749170E-1   -1.158592122553234E-1   -1.077567798032515E-3   -1.209867681286135E-3   -1.136937597747483E-3   -1.235741341160559E-3    3.780551980862404E-1   -3.214425699944117E-1
 9.937444629475000E9     4.687998797557594E-1   -1.157382180041792E-1   -1.094537952933930E-3   -1.214914687146475E-3   -1.111462454148786E-3   -1.228673493691698E-3    3.778086543687685E-1   -3.216352782777691E-1
 9.937446299750000E9     4.686553655657119E-1   -1.160900223370438E-1   -1.148317609513510E-3   -1.246507469612793E-3   -1.135049526348006E-3   -1.251102861945298E-3    3.776973716834991E-1   -3.221733244336915E-1
 9.937447970025000E9     4.686198907051774E-1   -1.160779212611829E-1   -1.120823058566858E-3   -1.265994075795266E-3   -1.134804846192511E-3   -1.269425469238127E-3    3.776271878963601E-1   -3.221153881330777E-1
 9.937449640299999E9     4.686705147409539E-1   -1.161982297511029E-1   -1.122127600112788E-3   -1.262274236240726E-3   -1.191265554951899E-3   -1.281270246349960E-3    3.773144418087416E-1   -3.222192525388161E-1
 9.937451310575001E9     4.685570391455287E-1   -1.162962785863393E-1   -1.110242683879362E-3   -1.302344386871876E-3   -1.166746529843289E-3   -1.264826643455664E-3    3.771079023557659E-1   -3.224194672507330E-1
 9.937452980850000E9     4.685663777452564E-1   -1.163873360600542E-1   -1.142937438667158E-3   -1.246251127868818E-3   -1.202470932917540E-3   -1.303772435146484E-3    3.767737493027103E-1   -3.226658327895904E-1
 9.937454651125000E9     4.685258572728470E-1   -1.163810678540841E-1   -1.183408343058007E-3   -1.292577325172720E-3   -1.212227005686331E-3   -1.294429440849356E-3    3.766129505149882E-1   -3.227544135248095E-1
 9.937456321400000E9     4.684608234838119E-1   -1.165441613621934E-1   -1.154300212581747E-3   -1.342016603806828E-3   -1.210244476172210E-3   -1.303481119559851E-3    3.763568432492323E-1   -3.228688937054704E-1
 9.937457991674999E9     4.684400307330401E-1   -1.167160217793640E-1   -1.203758056014994E-3   -1.342887858193412E-3   -1.222070138916882E-3   -1.360569141558670E-3    3.763141444745598E-1   -3.230471320386455E-1
 9.937459661950001E9     4.682980878112107E-1   -1.167562854369112E-1   -1.184801006275609E-3   -1.365050768514662E-3   -1.276627219797247E-3   -1.344075706625263E-3    3.760789620726428E-1   -3.232217377412936E-1
 9.937461332225000E9     4.682071257263464E-1   -1.168828242325320E-1   -1.223123035150292E-3   -1.362746364206307E-3   -1.249191233859754E-3   -1.358079084452630E-3    3.757374085146279E-1   -3.234895680937352E-1
 9.937463002500000E9     4.681924269976827E-1   -1.170801879115773E-1   -1.270033207720426E-3   -1.352747601850025E-3   -1.248243320348452E-3   -1.361332992691562E-3    3.754341723827223E-1   -3.236735174263016E-1
 9.937464672775000E9     4.682893807383120E-1   -1.173032102576973E-1   -1.265847581438253E-3   -1.387272558862705E-3   -1.262236843284493E-3   -1.371936578656821E-3    3.753970013004563E-1   -3.238372694891865E-1
 9.937466343049999E9     4.682231190716820E-1   -1.172773164844191E-1   -1.244973048978937E-3   -1.388681106217908E-3   -1.328379595001090E-3   -1.392164798810650E-3    3.752912498901622E-1   -3.239487508062086E-1
 9.937468013325001E9     4.682470847930728E-1   -1.174028329466289E-1   -1.289284153962914E-3   -1.391704891613621E-3   -1.318024874094341E-3   -1.381444124470340E-3    3.749470988634975E-1   -3.242677752236554E-1
 9.937469683600000E9     4.681884658090815E-1   -1.175242679265402E-1   -1.326569410766379E-3   -1.385984725415492E-3   -1.329500364265375E-3   -1.425776803029502E-3    3.747226616646059E-1   -3.243370764022597E-1
 9.937471353875000E9     4.680542228001941E-1   -1.177522577515553E-1   -1.348317895058229E-3   -1.431910786232408E-3   -1.325171689893615E-3   -1.464635368972816E-3    3.745031933268754E-1   -3.243357876637425E-1
 9.937473024150000E9     4.681278057899521E-1   -1.176425298217528E-1   -1.328691978642427E-3   -1.453471958211970E-3   -1.361588669000314E-3   -1.483659589170812E-3    3.743023929775335E-1   -3.247509543518159E-1
 9.937474694424999E9     4.680345782624843E-1   -1.179002592176089E-1   -1.353193925482630E-3   -1.459742962109594E-3   -1.370325845032189E-3   -1.444347615384381E-3    3.738689242887377E-1   -3.248954876753817E-1
 9.937476364700001E9     4.679296620625783E-1   -1.179918751145455E-1   -1.367981934398321E-3   -1.497018106798319E-3   -1.407030915189484E-3   -1.482720378398802E-3    3.737574484931296E-1   -3.251201901067104E-1
 9.937478034975000E9     4.679410746246283E-1   -1.181847377964008E-1   -1.382705528534296E-3   -1.464044947885748E-3   -1.403004281888120E-3   -1.464894528418565E-3    3.736306037457149E-1   -3.250746665220908E-1
 9.937479705250000E9     4.679038456670930E-1   -1.180602767238439E-1   -1.371117193404144E-3   -1.529222388849568E-3   -1.448506714456672E-3   -1.490309746544580E-3    3.734255320457289E-1   -3.254304384626405E-1
 9.937481375525000E9     4.678182661213038E-1   -1.182787264792457E-1   -1.417442681253386E-3   -1.539865120798923E-3   -1.433349922907123E-3   -1.530993865831356E-3    3.732551343225563E-1   -3.255338895975332E-1
 9.937483045799999E9     4.679092909524645E-1   -1.182831704263086E-1   -1.404061751666423E-3   -1.521360827459718E-3   -1.469599893442106E-3   -1.556470759326935E-3    3.730593258396216E-1   -3.255956654631611E-1
 9.937484716075001E9     4.679378658384661E-1   -1.185572930742687E-1   -1.417425735452326E-3   -1.569750657143040E-3   -1.478841621308600E-3   -1.552866718564683E-3    3.727160248349296E-1   -3.260527351730738E-1
 9.937486386350000E9     4.678693555960187E-1   -1.185682035504110E-1   -1.422221002576341E-3   -1.576745404419051E-3   -1.494977913498872E-3   -1.580537402216219E-3    3.725770023970601E-1   -3.261530272159002E-1
 9.937488056625000E9     4.676647434805574E-1   -1.187128821458012E-1   -1.484607145878493E-3   -1.589501398110839E-3   -1.524345519923886E-3   -1.608461088508077E-3    3.722074561646415E-1   -3.262647124918009E-1
 9.937489726900000E9     4.676763690670661E-1   -1.188528476690348E-1   -1.498860311437297E-3   -1.591411393612216E-3   -1.534756303359423E-3   -1.624165919279715E-3    3.718619142547027E-1   -3.263980882575970E-1
 9.937491397174999E9     4.675827276873813E-1   -1.189732475885294E-1   -1.522405151594978E-3   -1.638583273021862E-3   -1.550238947267053E-3   -1.640829467647927E-3    3.716103888921722E-1   -3.266930259879078E-1
 9.937493067450001E9     4.675368256654894E-1   -1.190984107938734E-1   -1.553280796939872E-3   -1.644679982601831E-3   -1.580975585414042E-3   -1.634520641647224E-3    3.716411011656202E-1   -3.269204350756736E-1
 9.937494737725000E9     4.674851376825481E-1   -1.193303312379771E-1   -1.515497270819333E-3   -1.650444370341807E-3   -1.565856867391279E-3   -1.654040539299819E-3    3.712638512973778E-1   -3.271841986272784E-1
 9.937496408000000E9     4.674945509923792E-1   -1.194158704622423E-1   -1.544953827413662E-3   -1.693839571970638E-3   -1.607384334207415E-3   -1.658925072786122E-3    3.710676272408179E-1   -3.272976141112274E-1
 9.937498078275000E9     4.675041473084964E-1   -1.193609730210601E-1   -1.622519379218303E-3   -1.663886042830870E-3   -1.651359171949385E-3   -1.707481523879424E-3    3.707395994615245E-1   -3.274541599132621E-1
 9.937499748549999E9     4.675285670428315E-1   -1.194368775371758E-1   -1.640746901855988E-3   -1.695582706080799E-3   -1.642537372951052E-3   -1.699473766777634E-3    3.705037497498092E-1   -3.277020974133817E-1
 9.937501418825001E9     4.674302524349556E-1   -1.196047142514003E-1   -1.627168388216284E-3   -1.718024030975432E-3   -1.716546932715900E-3   -1.717944270160827E-3    3.703276668263256E-1   -3.279897810740146E-1
 9.937503089100000E9     4.674073171426952E-1   -1.197698678294171E-1   -1.670156381518824E-3   -1.751163248839584E-3   -1.671494050550919E-3   -1.768637929307701E-3    3.700928963830734E-1   -3.280600833479163E-1
 9.937504759375000E9     4.674459856268464E-1   -1.198673537876574E-1   -1.672459267872946E-3   -1.788203579869543E-3   -1.710115887652457E-3   -1.757589640062295E-3    3.697570125978519E-1   -3.280647661159673E-1
 9.937506429650000E9     4.672340730961436E-1   -1.200263011718901E-1   -1.697766571003788E-3   -1.791407077745499E-3   -1.711171579566874E-3   -1.765826069034749E-3    3.695699809422379E-1   -3.285114542462585E-1
 9.937508099924999E9     4.671514426655043E-1   -1.200253842426157E-1   -1.726651026159627E-3   -1.804059395199313E-3   -1.770256828479514E-3   -1.782358664790544E-3    3.689758854455550E-1   -3.287930314634532E-1
 9.937509770200001E9     4.673101570212265E-1   -1.202351892026870E-1   -1.720559504326155E-3   -1.817227527548655E-3   -1.764070630365141E-3   -1.829190265823062E-3    3.691206932985789E-1   -3.287728588122957E-1
 9.937511440475000E9     4.672780240854433E-1   -1.204530757850495E-1   -1.758656847964623E-3   -1.837000196826362E-3   -1.788984084753521E-3   -1.833302563594024E-3    3.687222885095640E-1   -3.289991195479056E-1
 9.937513110750000E9     4.671786869004427E-1   -1.203748142157144E-1   -1.769467099081295E-3   -1.850283029929840E-3   -1.825680382377633E-3   -1.842113455565115E-3    3.683892972532561E-1   -3.291888861871698E-1
 9.937514781025000E9     4.671433489227155E-1   -1.204974280879298E-1   -1.809741935042557E-3   -1.871009034670942E-3   -1.839314461085461E-3   -1.851020499255159E-3    3.680464960587715E-1   -3.293536037702844E-1
 9.937516451299999E9     4.670496816677976E-1   -1.207214512911496E-1   -1.790988412408753E-3   -1.909963684075114E-3   -1.882978559112857E-3   -1.886635420308177E-3    3.678788959921984E-1   -3.296615503431726E-1
 9.937518121575001E9     4.670580269775781E-1   -1.208010161940847E-1   -1.823422126951918E-3   -1.903196002746576E-3   -1.877591510550861E-3   -1.914368197781126E-3    3.675215289985906E-1   -3.298697946621218E-1
 9.937519791850000E9     4.669581745008901E-1   -1.209511993474567E-1   -1.857192688031264E-3   -1.916939533781650E-3   -1.931386739502104E-3   -1.920106968521390E-3    3.672072259389828E-1   -3.301762666693764E-1
 9.937521462125000E9     4.668189032783688E-1   -1.210110161970634E-1   -1.871052269438307E-3   -1.943600710831724E-3   -1.939547388083862E-3   -1.932348156058737E-3    3.668885000961589E-1   -3.302066154052544E-1
 9.937523132400000E9     4.668648220912323E-1   -1.211911991013865E-1   -1.917768582050750E-3   -1.955024226183226E-3   -1.955880378751408E-3   -1.959574775165569E-3    3.666160233025242E-1   -3.303849937547463E-1
 9.937524802674999E9     4.669226786365266E-1   -1.212848895944806E-1   -1.920028533779437E-3   -1.969586528875500E-3   -2.006606207611205E-3   -1.978455545387106E-3    3.663290506786068E-1   -3.310000962890784E-1
 9.937526472950001E9     4.668895164569877E-1   -1.212868744882825E-1   -1.953942758393834E-3   -2.014230399388028E-3   -1.990944061090206E-3   -2.037366844297302E-3    3.662341198267188E-1   -3.307844236966707E-1
 9.937528143225000E9     4.668723557285153E-1   -1.214444165095326E-1   -1.973439755619399E-3   -2.013943946454558E-3   -2.056647803746807E-3   -2.056223035005620E-3    3.657798263526201E-1   -3.310927711228805E-1
 9.937529813500000E9     4.668761184307841E-1   -1.214917435622324E-1   -2.002672045158217E-3   -2.077732750897382E-3   -2.020561520609681E-3   -2.023266077020012E-3    3.655656150582925E-1   -3.313250645939885E-1
 9.937531483775000E9     4.666821751550549E-1   -1.218069812048404E-1   -2.041036565744473E-3   -2.072759950887391E-3   -2.097246349122731E-3   -2.071593877445107E-3    3.650080669378803E-1   -3.315385609002385E-1
 9.937533154049999E9     4.667609370787559E-1   -1.217513118607929E-1   -2.092857167561035E-3   -2.059611315293175E-3   -2.094883502823612E-3   -2.108627851157097E-3    3.646655395425682E-1   -3.316245469664304E-1
 9.937534824325001E9     4.666108644162791E-1   -1.219664480266952E-1   -2.070897270663018E-3   -2.112888001568684E-3   -2.125305386959900E-3   -2.099566884399239E-3    3.646938886791088E-1   -3.319903652578345E-1
 9.937536494600000E9     4.665808849413923E-1   -1.221953332274954E-1   -2.124131372693952E-3   -2.132880739641907E-3   -2.174761219401797E-3   -2.152755854975894E-3    3.640897889693138E-1   -3.321671557833639E-1
 9.937538164875000E9     4.665660324692223E-1   -1.222084629112999E-1   -2.104738805733340E-3   -2.114597035154840E-3   -2.213618285002840E-3   -2.108526756674999E-3    3.639002864580385E-1   -3.325000163766776E-1
 9.937539835150000E9     4.665640112495009E-1   -1.222587615281058E-1   -2.123942036352835E-3   -2.178936185583153E-3   -2.223714168240733E-3   -2.194754164823771E-3    3.635191323239661E-1   -3.325665149703567E-1
 9.937541505424999E9     4.665425135400101E-1   -1.224222393069698E-1   -2.171360156758450E-3   -2.231809145519839E-3   -2.262628322982900E-3   -2.160804569080988E-3    3.630683805835520E-1   -3.327483102765341E-1
 9.937543175700001E9     4.664241627386952E-1   -1.226537872712322E-1   -2.239849177489250E-3   -2.205655374477389E-3   -2.276656055773971E-3   -2.218827645366663E-3    3.628695663401386E-1   -3.331857235809659E-1
 9.937544845975000E9     4.664212476878144E-1   -1.225911999379783E-1   -2.262254390597358E-3   -2.256033123003232E-3   -2.309588606693179E-3   -2.256730183086419E-3    3.625201933680119E-1   -3.333653499095636E-1
 9.937546516250000E9     4.663367103037815E-1   -1.227629801499694E-1   -2.310158430659980E-3   -2.234024846109054E-3   -2.360705257823921E-3   -2.238051778115474E-3    3.621535578397006E-1   -3.335277838145747E-1
 9.937548186525000E9     4.664148379164109E-1   -1.229128637808314E-1   -2.340887554299584E-3   -2.273152014171363E-3   -2.370415560202803E-3   -2.313044500041338E-3    3.618314492866978E-1   -3.338038373809890E-1
 9.937549856799999E9     4.663599719959207E-1   -1.230288656014334E-1   -2.342245516153365E-3   -2.290313978443551E-3   -2.403566962634080E-3   -2.304419970282912E-3    3.615431533119097E-1   -3.338576755158537E-1
 9.937551527075001E9     4.662598627952218E-1   -1.231592222253299E-1   -2.352559887950199E-3   -2.352336535220125E-3   -2.443430211176522E-3   -2.316999267579035E-3    3.610717046016186E-1   -3.342187414837649E-1
 9.937553197350000E9     4.662026656301672E-1   -1.232025320525196E-1   -2.384139493080521E-3   -2.384897981947481E-3   -2.478431547893780E-3   -2.350367816320153E-3    3.609775650252561E-1   -3.345853969169750E-1
 9.937554867625000E9     4.661833496830541E-1   -1.233890345006243E-1   -2.435860952436082E-3   -2.371832960650986E-3   -2.505688837148560E-3   -2.375203297369440E-3    3.604491107496519E-1   -3.347145273369931E-1
 9.937556537900000E9     4.662574868891261E-1   -1.232667564463472E-1   -2.448847147547620E-3   -2.414198517409331E-3   -2.544702312511339E-3   -2.414985387435826E-3    3.599750980121252E-1   -3.348431943599287E-1
 9.937558208174999E9     4.661857894967999E-1   -1.235185609211937E-1   -2.514212392640343E-3   -2.428510839921771E-3   -2.588142468861634E-3   -2.425963307455069E-3    3.594255131738231E-1   -3.350316234593211E-1
 9.937559878450001E9     4.661566001931480E-1   -1.235821546952229E-1   -2.556303127468457E-3   -2.486298273084102E-3   -2.621828615282016E-3   -2.471030003465660E-3    3.593257212439975E-1   -3.352873893724823E-1
 9.937561548725000E9     4.661363211355087E-1   -1.237473106427794E-1   -2.572750532359844E-3   -2.441955805283081E-3   -2.639220227534759E-3   -2.511743441997606E-3    3.587604718863033E-1   -3.357233120042221E-1
 9.937563219000000E9     4.659984227474718E-1   -1.238764485861123E-1   -2.629678637304884E-3   -2.505753618890929E-3   -2.700932235765609E-3   -2.500110202328650E-3    3.583602626735760E-1   -3.358281803685235E-1
 9.937564889275000E9     4.658953721650977E-1   -1.239726500524858E-1   -2.603583502783468E-3   -2.540612407756706E-3   -2.723134829779803E-3   -2.527477564279304E-3    3.581687522628225E-1   -3.360388869593406E-1
 9.937566559549999E9     4.659537414176314E-1   -1.240342607037187E-1   -2.682543429360031E-3   -2.551003583346261E-3   -2.757071140862385E-3   -2.566752610365083E-3    3.575540548805434E-1   -3.362313549864109E-1
 9.937568229825001E9     4.658043004295387E-1   -1.243855443457047E-1   -2.700646043676567E-3   -2.603138715258504E-3   -2.815634262960911E-3   -2.580376421474761E-3    3.571121093044525E-1   -3.367013666315359E-1
 9.937569900100000E9     4.658443231575211E-1   -1.244083175812565E-1   -2.742676076572945E-3   -2.626214515436947E-3   -2.833470879418900E-3   -2.586007299935574E-3    3.567704881824378E-1   -3.367314520145051E-1
 9.937571570375000E9     4.657206303668525E-1   -1.245114075997605E-1   -2.815639433115447E-3   -2.652908807178674E-3   -2.900893188095432E-3   -2.636361876217754E-3    3.564319473221999E-1   -3.370880475724435E-1
 9.937573240650000E9     4.657645730321244E-1   -1.245229957546627E-1   -2.862003729231269E-3   -2.652577100662557E-3   -2.891638559870326E-3   -2.674603775289641E-3    3.557944739213795E-1   -3.374081538761393E-1
 9.937574910924999E9     4.658448659567068E-1   -1.246540412024580E-1   -2.860583701561106E-3   -2.685972589743026E-3   -2.992523552083187E-3   -2.734945492127898E-3    3.555275658143933E-1   -3.377461082849724E-1
 9.937576581200001E9     4.657290520120227E-1   -1.246794254066787E-1   -2.916857003575126E-3   -2.755258902056589E-3   -3.011345620178416E-3   -2.730166184939604E-3    3.549560425942399E-1   -3.377295643248409E-1
 9.937578251475000E9     4.656685442377902E-1   -1.249105928087644E-1   -2.971480797538465E-3   -2.742570936082527E-3   -3.072417124714747E-3   -2.762382496309671E-3    3.547055005064334E-1   -3.382343824770374E-1
 9.937579921750000E9     4.655582654871637E-1   -1.249395693423215E-1   -3.009265945152377E-3   -2.793602133298441E-3   -3.087257140501969E-3   -2.834157042243415E-3    3.541347278706256E-1   -3.384336798679020E-1
