#  HZ   S   RI   R     50.00 
! Rohde & Schwarz Vector Network Analyzer 
! Rohde-Schwarz,ZNB20-2Port,1311601062101988,3.16
! Created: UTC 3/20/2024, 10:58:09 PM
! freq[Hz]                re:S11                  im:S11                  re:S21                  im:S21                  re:S12                  im:S12                  re:S22                  im:S22
 9.937404909000000E9     4.695975555802981E-1   -1.131849236157875E-1   -9.001107805683924E-4   -1.024909860869910E-3   -9.509690928054469E-4   -1.013749794415584E-3    3.815443844153908E-1   -3.183738529578748E-1
 9.937406656975000E9     4.695035041781926E-1   -1.132609684692708E-1   -8.991496723236714E-4   -1.029856702135068E-3   -9.222414155410524E-4   -1.046417489256143E-3    3.812603343542674E-1   -3.184030750395916E-1
 9.937408404950001E9     4.693914812818808E-1   -1.134933599049747E-1   -9.145202492209924E-4   -1.021872342395028E-3   -9.662211955112690E-4   -1.057180705942567E-3    3.811409154539587E-1   -3.187166362841208E-1
 9.937410152924999E9     4.695449649451312E-1   -1.135577985588724E-1   -9.665995567403256E-4   -1.029113409847807E-3   -9.509895298112871E-4   -1.053354179002292E-3    3.807714736316319E-1   -3.189884314876281E-1
 9.937411900900000E9     4.693460382225946E-1   -1.135398970708029E-1   -9.126632271088917E-4   -1.050348357843430E-3   -9.588257394189430E-4   -1.065146208493409E-3    3.808845736787919E-1   -3.189636424834502E-1
 9.937413648875000E9     4.693649971141920E-1   -1.138443818160731E-1   -9.504721369643172E-4   -1.059048231983725E-3   -9.676426752469723E-4   -1.080245265003140E-3    3.807276781451990E-1   -3.191980792170316E-1
 9.937415396850000E9     4.693023005825515E-1   -1.139315637586029E-1   -9.696038519835349E-4   -1.050210956767149E-3   -1.002010009367692E-3   -1.086202466013622E-3    3.804316276616973E-1   -3.191175348637676E-1
 9.937417144825001E9     4.693254809053120E-1   -1.140292639693583E-1   -9.464835086633720E-4   -1.093220582067323E-3   -9.957779099197602E-4   -1.124917190014291E-3    3.802061796881022E-1   -3.195278437317922E-1
 9.937418892799999E9     4.691418540737383E-1   -1.140420750561362E-1   -9.681398380209894E-4   -1.101091521538486E-3   -1.006133742736310E-3   -1.087332858950554E-3    3.800915206350378E-1   -3.195395188788422E-1
 9.937420640775000E9     4.690716910377943E-1   -1.143499885694008E-1   -1.003594323199409E-3   -1.134476381949369E-3   -1.050557242393714E-3   -1.118413298613161E-3    3.800069263351225E-1   -3.199487904920921E-1
 9.937422388750000E9     4.692039484432040E-1   -1.144942237410911E-1   -1.000612408449829E-3   -1.122267182317400E-3   -1.016953907043743E-3   -1.133674351313410E-3    3.797935638036121E-1   -3.200332443845775E-1
 9.937424136725000E9     4.690849145646186E-1   -1.145211832056856E-1   -1.012147210642916E-3   -1.164246354683097E-3   -1.024059004240046E-3   -1.144477642412445E-3    3.794171159098879E-1   -3.200089031097859E-1
 9.937425884700001E9     4.690622558772026E-1   -1.146216896663305E-1   -1.050973981426720E-3   -1.200365993758990E-3   -1.051105600076583E-3   -1.147363360151554E-3    3.793867212454893E-1   -3.204298557139807E-1
 9.937427632674999E9     4.690866085597334E-1   -1.148069335941494E-1   -1.026262015581561E-3   -1.191293271409282E-3   -1.047538856284269E-3   -1.163600038646143E-3    3.792113981368363E-1   -3.206686074121349E-1
 9.937429380650000E9     4.690648329353977E-1   -1.147927869602312E-1   -1.067504967161248E-3   -1.175285093239726E-3   -1.081112650887483E-3   -1.200665183478427E-3    3.789230129155657E-1   -3.206065167053830E-1
 9.937431128625000E9     4.689407034031279E-1   -1.149606524310511E-1   -1.057782670702252E-3   -1.194160490507520E-3   -1.098930903018510E-3   -1.222008644421214E-3    3.786510124996482E-1   -3.209282706285864E-1
 9.937432876600000E9     4.689674574276653E-1   -1.149918788395688E-1   -1.058781196032704E-3   -1.218676614305278E-3   -1.117534194550642E-3   -1.208135053034145E-3    3.784971437855068E-1   -3.209108217490258E-1
 9.937434624575001E9     4.689015049383276E-1   -1.151871746592183E-1   -1.096519529102091E-3   -1.214471018165529E-3   -1.113195948482910E-3   -1.185015257382593E-3    3.782330678414070E-1   -3.212013046832744E-1
 9.937436372549999E9     4.689043436466947E-1   -1.152361661968672E-1   -1.108351308759641E-3   -1.245895169674769E-3   -1.127528642847874E-3   -1.228155623532399E-3    3.781588321395495E-1   -3.214570306972257E-1
 9.937438120525000E9     4.688413359378781E-1   -1.154784824255277E-1   -1.103847411627225E-3   -1.243117018971505E-3   -1.149017240304658E-3   -1.210629786093635E-3    3.780169577409624E-1   -3.214860973113255E-1
 9.937439868500000E9     4.687662298547814E-1   -1.155155024193232E-1   -1.148231678222320E-3   -1.276414344933337E-3   -1.173761427186172E-3   -1.296310776837344E-3    3.775898870915628E-1   -3.216257025112710E-1
 9.937441616475000E9     4.687670850634221E-1   -1.158257301849164E-1   -1.161226843186256E-3   -1.268551411011931E-3   -1.174308395678070E-3   -1.270422207718163E-3    3.774433170214482E-1   -3.216841165462820E-1
 9.937443364450001E9     4.687343407976529E-1   -1.159340515165483E-1   -1.153990922055816E-3   -1.282423727149129E-3   -1.186949412458673E-3   -1.292296584528350E-3    3.773104942907072E-1   -3.221323815814994E-1
 9.937445112424999E9     4.687008334265526E-1   -1.159957677892358E-1   -1.169509499987005E-3   -1.265994061309462E-3   -1.222114497726181E-3   -1.314435572907263E-3    3.769963845156439E-1   -3.220975725184054E-1
 9.937446860400000E9     4.685433217779167E-1   -1.161081706493732E-1   -1.181900174894442E-3   -1.316057827856688E-3   -1.219275791508724E-3   -1.282941205489360E-3    3.769605799657991E-1   -3.223855561404813E-1
 9.937448608375000E9     4.685495620629983E-1   -1.163037594944966E-1   -1.216310832915077E-3   -1.338220991334521E-3   -1.268303232650249E-3   -1.310748584777592E-3    3.766794730254274E-1   -3.225675428910939E-1
 9.937450356350000E9     4.685137881040274E-1   -1.162665537360618E-1   -1.223315981988776E-3   -1.347471343068408E-3   -1.249098822214194E-3   -1.318644643834928E-3    3.762477539447233E-1   -3.227629484586884E-1
 9.937452104325001E9     4.684793448587384E-1   -1.163901724796050E-1   -1.227777703898110E-3   -1.329850701029943E-3   -1.244468466814094E-3   -1.372311390598046E-3    3.763174473108064E-1   -3.228327120326221E-1
 9.937453852299999E9     4.684651881871352E-1   -1.165782969519436E-1   -1.246954744821873E-3   -1.368929477247167E-3   -1.300598908131420E-3   -1.363023920461187E-3    3.760182409770383E-1   -3.229407660005782E-1
 9.937455600275000E9     4.684098505993916E-1   -1.166672526440069E-1   -1.304003267744597E-3   -1.395910994516930E-3   -1.290868400208776E-3   -1.386652512088829E-3    3.756395680191192E-1   -3.233152866082912E-1
 9.937457348250000E9     4.683860810394874E-1   -1.168497469280646E-1   -1.280792402259530E-3   -1.392096549590207E-3   -1.328725714354637E-3   -1.395470071559026E-3    3.756241367706597E-1   -3.234731662086261E-1
 9.937459096225000E9     4.683389371513904E-1   -1.169110302591808E-1   -1.311768363761771E-3   -1.395601562870218E-3   -1.347398878053791E-3   -1.430274293398032E-3    3.752487656992516E-1   -3.234286153053912E-1
 9.937460844200001E9     4.682643913223566E-1   -1.170463783841306E-1   -1.304273415389848E-3   -1.456328905436650E-3   -1.345879132432438E-3   -1.412949676573121E-3    3.751214323396227E-1   -3.238332574962313E-1
 9.937462592174999E9     4.682503119662738E-1   -1.169911247967585E-1   -1.290392850027919E-3   -1.472119795630535E-3   -1.386249252641349E-3   -1.426613992629296E-3    3.746668195270022E-1   -3.240221486487572E-1
 9.937464340150000E9     4.683558721869517E-1   -1.173244440590696E-1   -1.328314044637513E-3   -1.428575339705306E-3   -1.380503842806689E-3   -1.454813997872295E-3    3.746486844733953E-1   -3.241995224766815E-1
 9.937466088125000E9     4.681136347384885E-1   -1.172765363900015E-1   -1.343329385282771E-3   -1.465823238253631E-3   -1.392086810181465E-3   -1.473239672820675E-3    3.743636953328643E-1   -3.244652749956528E-1
 9.937467836100000E9     4.681834115857113E-1   -1.175154304173394E-1   -1.351686670657224E-3   -1.523790890815552E-3   -1.434925946602668E-3   -1.460034182769866E-3    3.740653702615677E-1   -3.245802154220248E-1
 9.937469584075001E9     4.680675045661485E-1   -1.177129804421734E-1   -1.401438722408996E-3   -1.483682470665252E-3   -1.403775173972014E-3   -1.489559554729246E-3    3.739910481486592E-1   -3.247215707647214E-1
 9.937471332049999E9     4.680270159096029E-1   -1.178384722411248E-1   -1.436878705522895E-3   -1.547415503522577E-3   -1.476887945567827E-3   -1.521867645370770E-3    3.735305104430279E-1   -3.250237287464443E-1
 9.937473080025000E9     4.681224032138591E-1   -1.177633122236390E-1   -1.450867043715774E-3   -1.528560555735223E-3   -1.458373267778545E-3   -1.536266719255275E-3    3.733779360902030E-1   -3.251973816557884E-1
 9.937474828000000E9     4.680831964351854E-1   -1.179338207150402E-1   -1.443697507465956E-3   -1.543066913767664E-3   -1.489658647016940E-3   -1.523914018646663E-3    3.732080776942102E-1   -3.253360397585138E-1
 9.937476575975000E9     4.681447290527696E-1   -1.180400076538293E-1   -1.486670961263852E-3   -1.532038126063882E-3   -1.507619352474632E-3   -1.578088883209792E-3    3.729665842008792E-1   -3.255463505034867E-1
 9.937478323950001E9     4.679368291757583E-1   -1.181455183985046E-1   -1.478450236996281E-3   -1.571693379729782E-3   -1.480960112702810E-3   -1.581748269819154E-3    3.726357287110340E-1   -3.257566780295786E-1
 9.937480071924999E9     4.678897282412324E-1   -1.183623190536826E-1   -1.476263556542943E-3   -1.587715056403839E-3   -1.543828170308037E-3   -1.578862619776457E-3    3.722465005346055E-1   -3.259935131132332E-1
 9.937481819900000E9     4.678805517541018E-1   -1.184980938002364E-1   -1.561939874693118E-3   -1.662731025937075E-3   -1.560393189350485E-3   -1.614397737175613E-3    3.721450098736327E-1   -3.261867403001523E-1
 9.937483567875000E9     4.677920746557501E-1   -1.184658909238388E-1   -1.539592453179824E-3   -1.627933892653809E-3   -1.581497410221920E-3   -1.653574822118901E-3    3.719473015730820E-1   -3.263666276557579E-1
 9.937485315850000E9     4.679306706705170E-1   -1.188113563528551E-1   -1.521468735566159E-3   -1.629840710134788E-3   -1.618520236621843E-3   -1.657025990028975E-3    3.717478867803845E-1   -3.266166155514484E-1
 9.937487063825001E9     4.677462679454547E-1   -1.188233854077367E-1   -1.586492234426118E-3   -1.643812130935310E-3   -1.601738504404831E-3   -1.650710292373043E-3    3.715857856960113E-1   -3.267000880906316E-1
 9.937488811799999E9     4.677649856549585E-1   -1.189768776539619E-1   -1.585456308761862E-3   -1.671647446169596E-3   -1.648246003120486E-3   -1.680595487444641E-3    3.712082920287884E-1   -3.269839270485296E-1
 9.937490559775000E9     4.676675559036309E-1   -1.189197040853844E-1   -1.613993245075478E-3   -1.689530685374709E-3   -1.664210152276856E-3   -1.699150658718866E-3    3.709166018913471E-1   -3.269587822948534E-1
 9.937492307750000E9     4.674650392696527E-1   -1.191460369807077E-1   -1.644188153811488E-3   -1.713596052739280E-3   -1.686029121945331E-3   -1.708211777810173E-3    3.705451419894996E-1   -3.271501774248347E-1
 9.937494055725000E9     4.676045835699257E-1   -1.192172835399403E-1   -1.637929755810316E-3   -1.765304605633013E-3   -1.700587159197106E-3   -1.786938870177427E-3    3.703289172550911E-1   -3.274967363851920E-1
 9.937495803700001E9     4.676123279396546E-1   -1.193535590538565E-1   -1.687682019306208E-3   -1.745973324323562E-3   -1.726940399685190E-3   -1.780452828417137E-3    3.700441094216302E-1   -3.277254605092729E-1
 9.937497551674999E9     4.674943624940962E-1   -1.194116318178646E-1   -1.736664118334281E-3   -1.758722648583508E-3   -1.736484439781337E-3   -1.774682963810437E-3    3.696337885614396E-1   -3.280549601597245E-1
 9.937499299650000E9     4.674824875966964E-1   -1.195991810947690E-1   -1.715493334947935E-3   -1.784520291809201E-3   -1.770073036745988E-3   -1.794097663934660E-3    3.696608810817172E-1   -3.282399501468239E-1
 9.937501047625000E9     4.672514463576133E-1   -1.196933468109615E-1   -1.724610756596281E-3   -1.835313063270832E-3   -1.804694145874505E-3   -1.790351991949584E-3    3.692330884088157E-1   -3.282877374583817E-1
 9.937502795600000E9     4.674379551595093E-1   -1.198451046798612E-1   -1.778042988423956E-3   -1.818378308648034E-3   -1.825169398892372E-3   -1.835865156231486E-3    3.690089043995541E-1   -3.284907891157307E-1
 9.937504543575001E9     4.673478808763489E-1   -1.199482519368063E-1   -1.789946792727688E-3   -1.842528760380474E-3   -1.836722011612860E-3   -1.830742933519027E-3    3.686661690526705E-1   -3.286031194147790E-1
 9.937506291549999E9     4.672730429410424E-1   -1.201052132869330E-1   -1.785517532035204E-3   -1.851942085600693E-3   -1.841478293913735E-3   -1.846209524679169E-3    3.683284057839235E-1   -3.288248706209072E-1
 9.937508039525000E9     4.673197768447040E-1   -1.201372286737408E-1   -1.842548769666617E-3   -1.869556321073764E-3   -1.888940797887138E-3   -1.913877365607824E-3    3.680180056098216E-1   -3.289451263370742E-1
 9.937509787500000E9     4.673505552341839E-1   -1.203268413875440E-1   -1.849135708601959E-3   -1.887209243032800E-3   -1.900936709941555E-3   -1.863944807272115E-3    3.676440029098842E-1   -3.292902870434724E-1
 9.937511535475000E9     4.671058762588168E-1   -1.205097427778416E-1   -1.896024855786105E-3   -1.899957785980403E-3   -1.962166324591933E-3   -1.930811677456712E-3    3.676847635826842E-1   -3.297440984364454E-1
 9.937513283450001E9     4.670530997919482E-1   -1.206178796798993E-1   -1.890934454640568E-3   -1.943295832652888E-3   -1.969668420651891E-3   -1.951275434992525E-3    3.669971837021348E-1   -3.298272901859123E-1
 9.937515031424999E9     4.670879014147707E-1   -1.207865289953561E-1   -1.977627368090793E-3   -1.971758328340509E-3   -2.020195954861987E-3   -1.965254357630798E-3    3.668213747153483E-1   -3.299816998089937E-1
 9.937516779400000E9     4.669991049723589E-1   -1.208280846923574E-1   -1.978942275081129E-3   -1.977814315729706E-3   -2.029284162094674E-3   -2.014254130713026E-3    3.664101990093335E-1   -3.301821319134671E-1
 9.937518527375000E9     4.669426690557987E-1   -1.208443905522341E-1   -1.991320530775348E-3   -2.014392355785022E-3   -2.056443378163813E-3   -2.008007203241821E-3    3.661817092475483E-1   -3.305626935807244E-1
 9.937520275350000E9     4.670107257905399E-1   -1.210327483279546E-1   -2.002237399617303E-3   -2.025222635245181E-3   -2.062854541100743E-3   -2.016067097129792E-3    3.659191624097698E-1   -3.307463597103435E-1
 9.937522023325001E9     4.669045860031983E-1   -1.212040370367890E-1   -2.014485772379384E-3   -2.033206743186296E-3   -2.081706099862233E-3   -2.099206333676558E-3    3.655086364659422E-1   -3.308622816456977E-1
 9.937523771299999E9     4.669914043494546E-1   -1.212338748002501E-1   -2.065981053059468E-3   -2.048744926367903E-3   -2.127794582345954E-3   -2.078302916856130E-3    3.650599100320608E-1   -3.311470173772015E-1
 9.937525519275000E9     4.668450690831052E-1   -1.214826213333485E-1   -2.072015156221535E-3   -2.092570895343062E-3   -2.173666063422756E-3   -2.118309297249025E-3    3.647188753989235E-1   -3.313959921351485E-1
 9.937527267250000E9     4.667827867942758E-1   -1.213756878400655E-1   -2.133327482366115E-3   -2.129512929275322E-3   -2.191712308920356E-3   -2.102753753122334E-3    3.645303403473432E-1   -3.314084833927561E-1
 9.937529015225000E9     4.669129685033539E-1   -1.217201588730393E-1   -2.173101722083138E-3   -2.159354489657153E-3   -2.234437304945871E-3   -2.152543494534065E-3    3.642224190908874E-1   -3.319757516580454E-1
 9.937530763200001E9     4.668967098234206E-1   -1.217046465275611E-1   -2.196390554196056E-3   -2.174663528563854E-3   -2.241251127889819E-3   -2.155952518995711E-3    3.638716203626447E-1   -3.320189781771909E-1
 9.937532511174999E9     4.667458806960568E-1   -1.219645410522414E-1   -2.207597836800184E-3   -2.190259830294135E-3   -2.272796550594754E-3   -2.182532827706350E-3    3.634964717917071E-1   -3.322162272980543E-1
 9.937534259150000E9     4.666086596032777E-1   -1.220154680785296E-1   -2.250184611619111E-3   -2.232826158393741E-3   -2.319658674856097E-3   -2.196145284899040E-3    3.631588468577637E-1   -3.325221866634253E-1
 9.937536007125000E9     4.665437812945833E-1   -1.219029573348647E-1   -2.295201596000690E-3   -2.174121793174777E-3   -2.327977513780889E-3   -2.258376130021408E-3    3.628697551567097E-1   -3.328803969657268E-1
 9.937537755100000E9     4.665425098442004E-1   -1.221936785292171E-1   -2.316104519598627E-3   -2.228835982595796E-3   -2.386988232908172E-3   -2.252422540460939E-3    3.623218362181237E-1   -3.328743154349291E-1
 9.937539503075001E9     4.666131921025206E-1   -1.223090859443614E-1   -2.309248867664288E-3   -2.299145970887796E-3   -2.428391479356766E-3   -2.285489183951854E-3    3.620481090472804E-1   -3.333587724938256E-1
 9.937541251049999E9     4.664965377905115E-1   -1.226105653485643E-1   -2.334458781065695E-3   -2.318617868027916E-3   -2.437541929168744E-3   -2.306361052924694E-3    3.616575901835811E-1   -3.334386946190767E-1
 9.937542999025000E9     4.665514218672031E-1   -1.225768577455302E-1   -2.380994268615805E-3   -2.308969307684310E-3   -2.450408318991299E-3   -2.355349227708072E-3    3.612155204139555E-1   -3.335503131650903E-1
 9.937544747000000E9     4.664557595485943E-1   -1.226008511323242E-1   -2.409190114850478E-3   -2.407044321327190E-3   -2.498637758398676E-3   -2.360246315583509E-3    3.607793382019094E-1   -3.337846693813998E-1
 9.937546494975000E9     4.662305066699282E-1   -1.229636651366891E-1   -2.461472799982782E-3   -2.379108915941179E-3   -2.554934518364964E-3   -2.357962655745966E-3    3.604948190288980E-1   -3.341345417936036E-1
 9.937548242950001E9     4.664602323367518E-1   -1.230486164863588E-1   -2.519550457491187E-3   -2.438485660125857E-3   -2.590181263071397E-3   -2.409044321355545E-3    3.602046422929093E-1   -3.343205240186872E-1
 9.937549990924999E9     4.662351397031794E-1   -1.230147379472904E-1   -2.557689564630942E-3   -2.428623206530618E-3   -2.611125384232083E-3   -2.414902187930760E-3    3.595773417134524E-1   -3.346734193485705E-1
 9.937551738900000E9     4.661722383053977E-1   -1.231254573813247E-1   -2.591500573076836E-3   -2.452053915553610E-3   -2.669771679095017E-3   -2.456648825955525E-3    3.591737292232524E-1   -3.349978452630731E-1
 9.937553486875000E9     4.661773537778334E-1   -1.232606628695906E-1   -2.619325082865422E-3   -2.494846723353662E-3   -2.706144181250373E-3   -2.495071441640303E-3    3.589525746659702E-1   -3.351725409263778E-1
 9.937555234850000E9     4.661481112347096E-1   -1.232994005627035E-1   -2.640976148401530E-3   -2.551185291244119E-3   -2.761937813422464E-3   -2.518635270575260E-3    3.584202374999710E-1   -3.354556211067007E-1
 9.937556982825001E9     4.660778950096631E-1   -1.235210711672296E-1   -2.694609833989712E-3   -2.524681662645265E-3   -2.761203477682940E-3   -2.530971284481983E-3    3.578798245904518E-1   -3.358871998617711E-1
 9.937558730799999E9     4.660432959283871E-1   -1.236153067338977E-1   -2.739706976430763E-3   -2.553140470436526E-3   -2.830971048696979E-3   -2.561555832051258E-3    3.575064549154143E-1   -3.359819939200042E-1
 9.937560478775000E9     4.660909061635353E-1   -1.237176980079745E-1   -2.796317046989951E-3   -2.592593368393045E-3   -2.834198277984732E-3   -2.585831689547676E-3    3.571953726714713E-1   -3.363827085075392E-1
 9.937562226750000E9     4.660688933507764E-1   -1.238938353036688E-1   -2.808355524656060E-3   -2.626545111165145E-3   -2.895103297706216E-3   -2.612186913573524E-3    3.567522828898560E-1   -3.366574676138773E-1
