#  HZ   S   RI   R     50.00 
! Rohde & Schwarz Vector Network Analyzer 
! Rohde-Schwarz,ZNB20-2Port,1311601062101988,3.16
! Created: UTC 3/20/2024, 10:58:12 PM
! freq[Hz]                re:S11                  im:S11                  re:S21                  im:S21                  re:S12                  im:S12                  re:S22                  im:S22
 9.937408509000000E9     4.694267454443234E-1   -1.134361439045503E-1   -8.969908389348419E-4   -1.041436773461326E-3   -9.434702049992893E-4   -1.051049841219196E-3    3.810216796070255E-1   -3.186324791873884E-1
 9.937410234950001E9     4.694653505926989E-1   -1.134848719392584E-1   -9.437950281277894E-4   -1.054888465894233E-3   -9.843768667289539E-4   -1.058496066334734E-3    3.807870667727113E-1   -3.186023959958030E-1
 9.937411960900000E9     4.694152290799818E-1   -1.137188366926298E-1   -9.746251876257380E-4   -1.090539109320779E-3   -9.719763856961752E-4   -1.068646804068252E-3    3.807196036547837E-1   -3.190813208903434E-1
 9.937413686850000E9     4.693469253354209E-1   -1.136312574739693E-1   -9.316683478951095E-4   -1.078964999279167E-3   -9.845482860417313E-4   -1.049242661606954E-3    3.805733684293000E-1   -3.192144131437835E-1
 9.937415412799999E9     4.694031082818843E-1   -1.138425143294449E-1   -9.537673719815909E-4   -1.070790953379368E-3   -9.797756805442618E-4   -1.081088940253472E-3    3.805026764515999E-1   -3.193693647615035E-1
 9.937417138750000E9     4.692920929784882E-1   -1.139366619303761E-1   -9.653414567909008E-4   -1.105023952028394E-3   -1.002539421158342E-3   -1.109459708138853E-3    3.800360116336674E-1   -3.194392033527417E-1
 9.937418864700001E9     4.693162210990064E-1   -1.141476125057292E-1   -1.002069626351710E-3   -1.127441281037815E-3   -1.017904504690731E-3   -1.136389781224253E-3    3.799773180886745E-1   -3.196165576134660E-1
 9.937420590650000E9     4.690946260686243E-1   -1.143061337200308E-1   -1.011139101905807E-3   -1.142852358444568E-3   -1.030640808065932E-3   -1.152516306451306E-3    3.797364391705402E-1   -3.196917797464602E-1
 9.937422316600000E9     4.690842489250493E-1   -1.144349937375844E-1   -1.010669663077997E-3   -1.131858658807269E-3   -1.063256936673341E-3   -1.117825092545393E-3    3.795632242282126E-1   -3.199575837421674E-1
 9.937424042549999E9     4.691492623542877E-1   -1.145808566258662E-1   -9.984308447951104E-4   -1.142604821478329E-3   -1.064784064778710E-3   -1.154167706319185E-3    3.792608239994956E-1   -3.201469557146716E-1
 9.937425768500000E9     4.691243698266278E-1   -1.145505850599494E-1   -1.026087270654972E-3   -1.163744321460752E-3   -1.043339478469073E-3   -1.144540712238384E-3    3.792524665782517E-1   -3.203930401164054E-1
 9.937427494450001E9     4.689597222128443E-1   -1.148001888590602E-1   -1.057263256085614E-3   -1.171851879324043E-3   -1.066177307375895E-3   -1.189750653949311E-3    3.790684185157162E-1   -3.203807695226484E-1
 9.937429220400000E9     4.689378414256609E-1   -1.147793056183054E-1   -1.068458243429833E-3   -1.201429131694817E-3   -1.085773834606582E-3   -1.183309296083894E-3    3.787796508534040E-1   -3.205694906827150E-1
 9.937430946350000E9     4.690444504551228E-1   -1.151115911014099E-1   -1.065041163033825E-3   -1.175467260614487E-3   -1.114811761138199E-3   -1.210164473187743E-3    3.787143075125239E-1   -3.210241109392216E-1
 9.937432672299999E9     4.689783213188706E-1   -1.150894605418036E-1   -1.081667707642541E-3   -1.226043045917098E-3   -1.121279572626584E-3   -1.217690028415324E-3    3.784130168505652E-1   -3.209461117147009E-1
 9.937434398250000E9     4.687855363697334E-1   -1.152008797152361E-1   -1.105142447869487E-3   -1.207528687694380E-3   -1.163681009801421E-3   -1.217333987451623E-3    3.782358189340683E-1   -3.210281601019060E-1
 9.937436124200001E9     4.687903551086088E-1   -1.153346232380036E-1   -1.107904096495378E-3   -1.231597677126340E-3   -1.135044800725771E-3   -1.258424160717119E-3    3.781653172710794E-1   -3.214643580107230E-1
 9.937437850150000E9     4.688467227302940E-1   -1.154268788703035E-1   -1.145683175395237E-3   -1.254189563200813E-3   -1.183467255908361E-3   -1.270932814919334E-3    3.776871486773455E-1   -3.216321433104931E-1
 9.937439576100000E9     4.688502716735562E-1   -1.156329308540948E-1   -1.128265194343651E-3   -1.245089065676442E-3   -1.148337933128775E-3   -1.232298325991597E-3    3.777297246524388E-1   -3.217103897265907E-1
 9.937441302049999E9     4.688683638255357E-1   -1.156373606268120E-1   -1.178140879449637E-3   -1.292404502665794E-3   -1.162383783546740E-3   -1.260964291617763E-3    3.774524339908907E-1   -3.218244830239287E-1
 9.937443028000000E9     4.686917430424567E-1   -1.157699109419347E-1   -1.186674256329184E-3   -1.286684556652236E-3   -1.214379225532425E-3   -1.296087433525483E-3    3.773237919556370E-1   -3.220923934721903E-1
 9.937444753950001E9     4.686236638396910E-1   -1.159219100429564E-1   -1.170107208700542E-3   -1.277964965516694E-3   -1.192504832767247E-3   -1.318208503015251E-3    3.770697189994475E-1   -3.220387412233220E-1
 9.937446479900000E9     4.685948716626279E-1   -1.158961780300860E-1   -1.202543511134446E-3   -1.315451868086447E-3   -1.216682210671771E-3   -1.342083523051038E-3    3.768057820564056E-1   -3.222595012539488E-1
 9.937448205850000E9     4.685744236164879E-1   -1.160524898139671E-1   -1.189442711944962E-3   -1.368307515243458E-3   -1.228310329092262E-3   -1.307096105073739E-3    3.765724496743311E-1   -3.225111797549604E-1
 9.937449931799999E9     4.683927273483428E-1   -1.162548175397594E-1   -1.233010936937151E-3   -1.343617710451490E-3   -1.226890605865506E-3   -1.343109516344551E-3    3.763395383973956E-1   -3.226719537671430E-1
 9.937451657750000E9     4.684140380807820E-1   -1.163608678241140E-1   -1.221884294121810E-3   -1.350557007187430E-3   -1.273912816530054E-3   -1.325533898913855E-3    3.761808890720849E-1   -3.227354205733932E-1
 9.937453383700001E9     4.684665722765102E-1   -1.164628071075877E-1   -1.253282254404052E-3   -1.346248235668032E-3   -1.289378924068593E-3   -1.392656052263154E-3    3.757502730087133E-1   -3.231500827454402E-1
 9.937455109650000E9     4.685561650777288E-1   -1.165099143965412E-1   -1.253397041581651E-3   -1.374547163825899E-3   -1.265757123404218E-3   -1.365722358461714E-3    3.757623794783196E-1   -3.232630388267280E-1
 9.937456835600000E9     4.685345058242798E-1   -1.166892275615044E-1   -1.300909243570281E-3   -1.396655607104234E-3   -1.305016096570898E-3   -1.398648819278941E-3    3.754382651805530E-1   -3.233305202692201E-1
 9.937458561549999E9     4.683921516783150E-1   -1.168297233601214E-1   -1.304748531103746E-3   -1.397345835275102E-3   -1.336418539358977E-3   -1.417043777003297E-3    3.752283198991168E-1   -3.235762679871391E-1
 9.937460287500000E9     4.683846695960878E-1   -1.170083997844885E-1   -1.309097293167880E-3   -1.407668227978323E-3   -1.339953004993625E-3   -1.432500720902645E-3    3.750816933669228E-1   -3.237672755547473E-1
 9.937462013450001E9     4.684662699486862E-1   -1.170183392971252E-1   -1.357775269722350E-3   -1.444405906926617E-3   -1.371758144475003E-3   -1.441761401210939E-3    3.749730353150415E-1   -3.239531645701749E-1
 9.937463739400000E9     4.682664554593666E-1   -1.171821301906358E-1   -1.345473943776467E-3   -1.459150610202654E-3   -1.404295030963773E-3   -1.454227713382540E-3    3.745170882103189E-1   -3.242253437376299E-1
 9.937465465350000E9     4.683282005833140E-1   -1.173877644442689E-1   -1.363794392221581E-3   -1.498824266811727E-3   -1.433142507272632E-3   -1.470844962783321E-3    3.744291559911823E-1   -3.243028501560251E-1
 9.937467191299999E9     4.681616278408283E-1   -1.173288785691696E-1   -1.395982842711647E-3   -1.490346517191256E-3   -1.404887971879895E-3   -1.516399805042399E-3    3.741878042783505E-1   -3.246880158753506E-1
 9.937468917250000E9     4.681033616766934E-1   -1.174818924411184E-1   -1.382906143452188E-3   -1.487681886810433E-3   -1.436048554061999E-3   -1.506204649012068E-3    3.737459033350203E-1   -3.248347524434636E-1
 9.937470643200001E9     4.680047430384783E-1   -1.176967264812756E-1   -1.395059590507224E-3   -1.512492866812223E-3   -1.433421012887754E-3   -1.538914268600738E-3    3.736476859027107E-1   -3.249827534168345E-1
 9.937472369150000E9     4.679826884266178E-1   -1.178846074278967E-1   -1.416151154109361E-3   -1.521573151064533E-3   -1.502670268529782E-3   -1.548795517919509E-3    3.734416991927204E-1   -3.252737112310693E-1
 9.937474095100000E9     4.680773431549023E-1   -1.179660034890772E-1   -1.428243321149671E-3   -1.575515041115893E-3   -1.499296190895077E-3   -1.548639682804923E-3    3.731684831032975E-1   -3.252771689756777E-1
 9.937475821049999E9     4.681266419057277E-1   -1.179269680919589E-1   -1.447164830366390E-3   -1.528006667139787E-3   -1.526600770111523E-3   -1.552720490404537E-3    3.730225027833652E-1   -3.256303462636684E-1
 9.937477547000000E9     4.679415228797345E-1   -1.181053377875356E-1   -1.483795439498096E-3   -1.598052215067374E-3   -1.560393436304385E-3   -1.564034232263356E-3    3.727574279978228E-1   -3.254369130610127E-1
 9.937479272950001E9     4.678059298109190E-1   -1.181917799986686E-1   -1.504694293751474E-3   -1.582289583621572E-3   -1.555621940307060E-3   -1.589471488330653E-3    3.722667757953271E-1   -3.259893306612102E-1
 9.937480998900000E9     4.680257755167044E-1   -1.184459592611418E-1   -1.521747420381380E-3   -1.609165664474500E-3   -1.549918807616756E-3   -1.617194749074657E-3    3.722651761866221E-1   -3.260302106550576E-1
 9.937482724850000E9     4.678315540982017E-1   -1.185001518699225E-1   -1.529945738477878E-3   -1.637938865194022E-3   -1.583430374292525E-3   -1.607486975739736E-3    3.718903420727446E-1   -3.262858874148474E-1
 9.937484450799999E9     4.677836998560762E-1   -1.187021262879689E-1   -1.565480520346576E-3   -1.650971048414961E-3   -1.598974906024816E-3   -1.647213690755362E-3    3.716740332900939E-1   -3.262928620133705E-1
 9.937486176750000E9     4.678061574899106E-1   -1.187593564239823E-1   -1.572752225097932E-3   -1.658050623782889E-3   -1.624182313200700E-3   -1.644534510979981E-3    3.714589480695811E-1   -3.265213111026501E-1
 9.937487902700001E9     4.677782182270114E-1   -1.188809266399876E-1   -1.587254334979730E-3   -1.680388673365622E-3   -1.664360577440320E-3   -1.684301978084014E-3    3.710809336520656E-1   -3.267727356602904E-1
 9.937489628650000E9     4.677532610260187E-1   -1.187961887385653E-1   -1.650321483337352E-3   -1.699703410583570E-3   -1.673857206383332E-3   -1.712355576940530E-3    3.708704264137959E-1   -3.269895670600111E-1
 9.937491354600000E9     4.676159226250607E-1   -1.191382047179224E-1   -1.633209308366713E-3   -1.736854724948849E-3   -1.681714963024579E-3   -1.714431492562880E-3    3.703242195378166E-1   -3.271465608038649E-1
 9.937493080549999E9     4.675961462508539E-1   -1.192135810587812E-1   -1.677477275839260E-3   -1.745587243641182E-3   -1.734879616219692E-3   -1.722290017118234E-3    3.704310278133824E-1   -3.274948539319951E-1
 9.937494806500000E9     4.675100865919016E-1   -1.193541991935109E-1   -1.684196384101192E-3   -1.784347341227716E-3   -1.754081817537477E-3   -1.769772818722384E-3    3.700542786098046E-1   -3.276746270319182E-1
 9.937496532450001E9     4.675671981378897E-1   -1.194449637950977E-1   -1.700291619945803E-3   -1.747735509103562E-3   -1.730433232761391E-3   -1.758372496539031E-3    3.696940337905592E-1   -3.277154820754623E-1
 9.937498258400000E9     4.675682956972640E-1   -1.195782551918862E-1   -1.712700156779302E-3   -1.783216963728072E-3   -1.765069106329951E-3   -1.794039370628786E-3    3.694563393754915E-1   -3.280821342062054E-1
 9.937499984350000E9     4.675069092184744E-1   -1.197580741258665E-1   -1.734795988561594E-3   -1.837987984565690E-3   -1.799738476836554E-3   -1.807176146749481E-3    3.691882233966371E-1   -3.282071617190542E-1
 9.937501710299999E9     4.674012849027402E-1   -1.198243322839302E-1   -1.760850349792684E-3   -1.818492914856189E-3   -1.814871149333399E-3   -1.830713658464948E-3    3.689301879152724E-1   -3.285889993132597E-1
 9.937503436250000E9     4.674490601441719E-1   -1.199190014012095E-1   -1.815068004087147E-3   -1.825657310402658E-3   -1.867943116886640E-3   -1.844386832612176E-3    3.687120849987979E-1   -3.286115398103468E-1
 9.937505162200001E9     4.672176910862346E-1   -1.200780688016320E-1   -1.811872873054616E-3   -1.867426383053435E-3   -1.867704453900960E-3   -1.835564919230444E-3    3.685449272488417E-1   -3.287752809896838E-1
 9.937506888150000E9     4.671973044112730E-1   -1.200151595900157E-1   -1.816065439440741E-3   -1.896263556915886E-3   -1.872644290671811E-3   -1.887945469864670E-3    3.683601192097888E-1   -3.292414735952353E-1
 9.937508614100000E9     4.672601091962436E-1   -1.201919684075008E-1   -1.857480328325959E-3   -1.882637546888108E-3   -1.903941446099514E-3   -1.892117889395618E-3    3.678834162900653E-1   -3.292060104519696E-1
 9.937510340049999E9     4.671992139382000E-1   -1.203398565777552E-1   -1.845680659379127E-3   -1.906282258051895E-3   -1.955503689836887E-3   -1.908653689250021E-3    3.675393795056890E-1   -3.294866749613330E-1
 9.937512066000000E9     4.671924452997427E-1   -1.204324766355819E-1   -1.906394010169600E-3   -1.914876251234994E-3   -1.920584727426126E-3   -1.962710256213305E-3    3.671547473593642E-1   -3.295331951766226E-1
 9.937513791950001E9     4.671396035320419E-1   -1.205771633668124E-1   -1.919088577293998E-3   -1.960739211400131E-3   -1.971891002250907E-3   -1.926920552930965E-3    3.669588056883835E-1   -3.299388686834577E-1
 9.937515517900000E9     4.671469235410298E-1   -1.206948370608159E-1   -1.953864793184757E-3   -1.968410757429231E-3   -2.015272409137998E-3   -1.981047392135784E-3    3.665821726533169E-1   -3.300403453617897E-1
 9.937517243850000E9     4.670440473086526E-1   -1.207711678663718E-1   -1.994683177890836E-3   -2.027077326736524E-3   -2.038860799932957E-3   -2.009097306875083E-3    3.663945560140490E-1   -3.303716231966430E-1
 9.937518969799999E9     4.670016818760026E-1   -1.209852015954290E-1   -2.039054122261551E-3   -2.015100234889012E-3   -2.037883672496551E-3   -2.032557985321096E-3    3.659951429111929E-1   -3.306303331615055E-1
 9.937520695750000E9     4.670225686403384E-1   -1.210910544682071E-1   -2.009714393003631E-3   -2.002250677998833E-3   -2.090632852682114E-3   -2.045626922098296E-3    3.656323293842715E-1   -3.308152884587900E-1
 9.937522421700001E9     4.668551325494776E-1   -1.210936229667910E-1   -2.071608553727172E-3   -2.055055315559386E-3   -2.116089469108063E-3   -2.054980385565602E-3    3.653623036553067E-1   -3.311454396637876E-1
 9.937524147650000E9     4.669894766776262E-1   -1.213730526611353E-1   -2.093116748047290E-3   -2.092252209404029E-3   -2.163129558029856E-3   -2.086787021870190E-3    3.649851916438007E-1   -3.314544533446566E-1
 9.937525873600000E9     4.668773510624220E-1   -1.213336285119762E-1   -2.119072464770724E-3   -2.112119841229298E-3   -2.191218653414863E-3   -2.125969987476095E-3    3.646543192016153E-1   -3.315932769204987E-1
 9.937527599549999E9     4.669206861307998E-1   -1.214259977787937E-1   -2.134815830175942E-3   -2.110942592516328E-3   -2.214973835511485E-3   -2.156044793000264E-3    3.643841896197595E-1   -3.315916379204445E-1
 9.937529325500000E9     4.667786805244114E-1   -1.217206417437529E-1   -2.156162499452818E-3   -2.167640546791413E-3   -2.237503708056905E-3   -2.167375923574744E-3    3.640608026200942E-1   -3.318438887608843E-1
 9.937531051450001E9     4.668227024805727E-1   -1.217839266911760E-1   -2.214757347343295E-3   -2.183276546987812E-3   -2.260176127807007E-3   -2.180716886399449E-3    3.635376012213705E-1   -3.320784849349053E-1
 9.937532777400000E9     4.666502085072041E-1   -1.219216745337044E-1   -2.247505889790983E-3   -2.217061644788739E-3   -2.295216408360900E-3   -2.160944514969884E-3    3.631533440062149E-1   -3.324273918535696E-1
 9.937534503350000E9     4.666858776359188E-1   -1.218963871059318E-1   -2.234350658986222E-3   -2.221211434142004E-3   -2.325138956237382E-3   -2.203658458637302E-3    3.630063435182889E-1   -3.327773778499900E-1
 9.937536229299999E9     4.666608712871120E-1   -1.220115246695611E-1   -2.326269059869083E-3   -2.259642149022103E-3   -2.342621548620890E-3   -2.260029436231908E-3    3.625346919054508E-1   -3.327118806763224E-1
 9.937537955250000E9     4.666417853210321E-1   -1.223270698700215E-1   -2.309704371210686E-3   -2.251961362309288E-3   -2.364557197675540E-3   -2.272921193197705E-3    3.621802478157741E-1   -3.330049603459641E-1
 9.937539681200001E9     4.666322716053469E-1   -1.223199217290413E-1   -2.358647328193581E-3   -2.324842596026160E-3   -2.435294027673745E-3   -2.297238223801055E-3    3.618516910310025E-1   -3.333584719920545E-1
 9.937541407150000E9     4.665160245552970E-1   -1.224380825126638E-1   -2.403402983751826E-3   -2.324838388676501E-3   -2.459236586451741E-3   -2.342063937500751E-3    3.616293660328213E-1   -3.335984989991565E-1
 9.937543133100000E9     4.665017512416710E-1   -1.225644892251767E-1   -2.415852571297790E-3   -2.326864133746402E-3   -2.494792576585914E-3   -2.371284909797413E-3    3.611335766761997E-1   -3.336561520511397E-1
 9.937544859049999E9     4.664162596816502E-1   -1.227018333425699E-1   -2.485758334464995E-3   -2.366900014330247E-3   -2.532073305048576E-3   -2.378366522889084E-3    3.605725069639431E-1   -3.339949325703989E-1
 9.937546585000000E9     4.664520323585188E-1   -1.227358764728627E-1   -2.477030500573575E-3   -2.379312888099243E-3   -2.553066794843205E-3   -2.416489629121435E-3    3.604075347114122E-1   -3.343398484414464E-1
 9.937548310950001E9     4.662879519534214E-1   -1.228795777194213E-1   -2.538931992237941E-3   -2.447924311189909E-3   -2.614116911061681E-3   -2.421666137403112E-3    3.599244218686594E-1   -3.345151972389607E-1
 9.937550036900000E9     4.662860059759976E-1   -1.230948202115408E-1   -2.551404798391611E-3   -2.429636384704372E-3   -2.649627561565331E-3   -2.444214225818070E-3    3.595046872067715E-1   -3.347718233769675E-1
 9.937551762850000E9     4.662546887762462E-1   -1.232794898215903E-1   -2.599291047542678E-3   -2.490176909970597E-3   -2.677490075354616E-3   -2.490781002039736E-3    3.594094341956462E-1   -3.350160955632560E-1
 9.937553488799999E9     4.662971179047551E-1   -1.232419199582409E-1   -2.639303978996281E-3   -2.489663052298320E-3   -2.749380637015824E-3   -2.476551708075013E-3    3.586002720525303E-1   -3.352757894585995E-1
 9.937555214750000E9     4.662221841913978E-1   -1.234276943793648E-1   -2.656710283851010E-3   -2.510154198575377E-3   -2.784003101068121E-3   -2.520727685609960E-3    3.583945535490252E-1   -3.354489484638029E-1
 9.937556940700001E9     4.661088862770886E-1   -1.236271242052606E-1   -2.736832552408296E-3   -2.542854312600660E-3   -2.806666362992643E-3   -2.551096117987255E-3    3.578977213449372E-1   -3.356852536021502E-1
 9.937558666650000E9     4.660935863801291E-1   -1.236827596976327E-1   -2.732964960847066E-3   -2.569323333608309E-3   -2.844198827874367E-3   -2.568397185893703E-3    3.576434850510150E-1   -3.361708574528711E-1
 9.937560392600000E9     4.663314032115853E-1   -1.237019286863176E-1   -2.795555524151601E-3   -2.624674261783214E-3   -2.914170842149423E-3   -2.630460918385677E-3    3.568890049198023E-1   -3.361882618619157E-1
 9.937562118549999E9     4.659508798812461E-1   -1.239712776527357E-1   -2.865815563049445E-3   -2.656031958663273E-3   -2.916824641857348E-3   -2.621668120670395E-3    3.563166053892964E-1   -3.363427908841356E-1
 9.937563844500000E9     4.659883836563662E-1   -1.239129280093342E-1   -2.908254153574166E-3   -2.672094896237537E-3   -2.977995529634475E-3   -2.674773670167280E-3    3.560095238317389E-1   -3.367237314884499E-1
