#  HZ   S   RI   R     50.00 
! Rohde & Schwarz Vector Network Analyzer 
! Rohde-Schwarz,ZNB20-2Port,1311601062101988,3.16
! Created: UTC 3/20/2024, 10:58:19 PM
! freq[Hz]                re:S11                  im:S11                  re:S21                  im:S21                  re:S12                  im:S12                  re:S22                  im:S22
 9.937399617000000E9     4.696973731463334E-1   -1.128344916854107E-1   -8.970882467554530E-4   -1.004118653074573E-3   -8.950217968554492E-4   -1.016850347232818E-3    3.817566234242021E-1   -3.179481246519992E-1
 9.937401371250000E9     4.698491513670250E-1   -1.130157647918572E-1   -8.746674233513412E-4   -1.014084101055550E-3   -9.093286960788251E-4   -1.019469784489746E-3    3.817221048958817E-1   -3.180963969595993E-1
 9.937403125500000E9     4.696532653429519E-1   -1.131890178810724E-1   -9.387714257767474E-4   -1.004932305243064E-3   -9.674114867304924E-4   -1.040246740697110E-3    3.815358032715024E-1   -3.183608448223041E-1
 9.937404879750000E9     4.695390420407086E-1   -1.132784118640579E-1   -9.320299565785987E-4   -1.031629498353377E-3   -9.268372750195342E-4   -1.039335564619096E-3    3.812114816377935E-1   -3.183186750667150E-1
 9.937406634000000E9     4.694576562289379E-1   -1.133050986405768E-1   -9.071726366222075E-4   -1.047032557477036E-3   -9.728608241280632E-4   -1.059694217187708E-3    3.810499018385441E-1   -3.187150707304077E-1
 9.937408388250000E9     4.694405148978741E-1   -1.133447132547108E-1   -9.240225441552769E-4   -1.060501707755001E-3   -9.404899913724482E-4   -1.070210159769625E-3    3.808961315398348E-1   -3.186964191250378E-1
 9.937410142500000E9     4.694580761019317E-1   -1.135176511197957E-1   -9.384563032043013E-4   -1.047173428906456E-3   -9.740823041449754E-4   -1.057192799394578E-3    3.807877717487260E-1   -3.189638087580678E-1
 9.937411896750000E9     4.693796482619029E-1   -1.137022220966175E-1   -9.805946457806841E-4   -1.094029125290811E-3   -9.823805121146642E-4   -1.090230527742031E-3    3.805099952789357E-1   -3.190450717342208E-1
 9.937413651000000E9     4.693675844637618E-1   -1.139005354752617E-1   -9.800550299944081E-4   -1.096502402561661E-3   -1.002308644622578E-3   -1.091049332232282E-3    3.802075954262943E-1   -3.193881646053656E-1
 9.937415405250000E9     4.694450612254942E-1   -1.139400082985327E-1   -1.017866645148573E-3   -1.132912898757268E-3   -1.008004737482375E-3   -1.098642209160371E-3    3.801129597264492E-1   -3.192942104405222E-1
 9.937417159500000E9     4.692207308761848E-1   -1.141042635256512E-1   -9.957699205159762E-4   -1.105292621278597E-3   -1.009418566907323E-3   -1.112796565269269E-3    3.800101711865428E-1   -3.196382470990084E-1
 9.937418913750000E9     4.691614190758389E-1   -1.141491573291099E-1   -1.006443999775912E-3   -1.152891231246612E-3   -1.033270086819398E-3   -1.140895955653346E-3    3.799896949631378E-1   -3.197733779202011E-1
 9.937420668000000E9     4.691952480500026E-1   -1.143579932171491E-1   -1.015201423927762E-3   -1.134806798419714E-3   -1.050887362229796E-3   -1.130123933674845E-3    3.797952004332840E-1   -3.199755829182124E-1
 9.937422422250000E9     4.690609858856901E-1   -1.144800136644079E-1   -9.895869894247854E-4   -1.179343243200417E-3   -1.059296545579137E-3   -1.159936778493425E-3    3.794606106441407E-1   -3.199182552779734E-1
 9.937424176500000E9     4.691776736829910E-1   -1.145099891985261E-1   -1.052017366376012E-3   -1.164883441458701E-3   -1.079638154734419E-3   -1.147238222629102E-3    3.793147361041834E-1   -3.202909263108767E-1
 9.937425930750000E9     4.691368066998132E-1   -1.147283463261241E-1   -1.046761438971049E-3   -1.163278649315056E-3   -1.067011816590787E-3   -1.191623538762167E-3    3.790470670299639E-1   -3.203375369776434E-1
 9.937427685000000E9     4.690081456872975E-1   -1.146719254963061E-1   -1.049090008820862E-3   -1.213285766454661E-3   -1.104275955419881E-3   -1.170741694214641E-3    3.788025410492368E-1   -3.205518216584129E-1
 9.937429439250000E9     4.689498768092375E-1   -1.149492519082739E-1   -1.087617111292209E-3   -1.206206667037283E-3   -1.130923525743502E-3   -1.203982301692462E-3    3.787050757984028E-1   -3.208219559851323E-1
 9.937431193500000E9     4.690175683016590E-1   -1.150573208644795E-1   -1.085564099842616E-3   -1.218827558939528E-3   -1.126333498693866E-3   -1.212891651919474E-3    3.783811417819082E-1   -3.209489152658247E-1
 9.937432947750000E9     4.688998115906856E-1   -1.152129040486752E-1   -1.143606071014002E-3   -1.240023878763193E-3   -1.171855289507776E-3   -1.237440273023304E-3    3.784103351320620E-1   -3.210682327507681E-1
 9.937434702000000E9     4.688209484405604E-1   -1.152688812258640E-1   -1.121324054307128E-3   -1.274517126847247E-3   -1.176256983441016E-3   -1.252069214990823E-3    3.779182483773434E-1   -3.214676186231058E-1
 9.937436456250000E9     4.688917272750850E-1   -1.153701616374235E-1   -1.138515294968887E-3   -1.253013621565637E-3   -1.182108141281237E-3   -1.227897441373402E-3    3.776997249865543E-1   -3.213416605732733E-1
 9.937438210500000E9     4.688565930124022E-1   -1.155339842686974E-1   -1.194285410535409E-3   -1.282972739956333E-3   -1.210152056386752E-3   -1.282789527229173E-3    3.775238690155974E-1   -3.215716301708429E-1
 9.937439964750000E9     4.686912106991164E-1   -1.156372199670762E-1   -1.148599605462506E-3   -1.292722043868021E-3   -1.214101148324174E-3   -1.276341686691889E-3    3.773412172098573E-1   -3.218735385877107E-1
 9.937441719000000E9     4.687740459163393E-1   -1.156622677677404E-1   -1.205562615797861E-3   -1.280980533724027E-3   -1.203924467719552E-3   -1.306524375004354E-3    3.771248685475946E-1   -3.219535849903805E-1
 9.937443473250000E9     4.688408236721398E-1   -1.158598017180252E-1   -1.188092561297483E-3   -1.306988837391593E-3   -1.223079024100047E-3   -1.312232513672244E-3    3.768021499829775E-1   -3.222099162631551E-1
 9.937445227500000E9     4.687957675562628E-1   -1.158863020391603E-1   -1.205954917735509E-3   -1.345969161855416E-3   -1.248422642286213E-3   -1.339507176691468E-3    3.767451488683328E-1   -3.222212476822518E-1
 9.937446981750000E9     4.686306856013900E-1   -1.162778621555048E-1   -1.224605526011150E-3   -1.347088415597081E-3   -1.256361120108025E-3   -1.342785790539862E-3    3.764509451244477E-1   -3.224172253472747E-1
 9.937448736000000E9     4.686184775146126E-1   -1.161283045235003E-1   -1.261897898651108E-3   -1.353284648028739E-3   -1.317283034215288E-3   -1.381839146814028E-3    3.762600377166016E-1   -3.228933499015669E-1
 9.937450490250000E9     4.686448638773469E-1   -1.162577354231017E-1   -1.252486857496852E-3   -1.372937649054608E-3   -1.318553957051980E-3   -1.348722490707245E-3    3.759745900462815E-1   -3.229188304659034E-1
 9.937452244500000E9     4.685103075904649E-1   -1.164851267903779E-1   -1.275319494866229E-3   -1.375324285883788E-3   -1.310588615044690E-3   -1.386826665160311E-3    3.757648827319983E-1   -3.230047703229418E-1
 9.937453998750000E9     4.684540115969167E-1   -1.166267025827254E-1   -1.288695475237011E-3   -1.409216977647176E-3   -1.358479488163778E-3   -1.396137928048178E-3    3.755751086562363E-1   -3.231965008698082E-1
 9.937455753000000E9     4.684261498433162E-1   -1.167202743694147E-1   -1.306437810013454E-3   -1.415521239010328E-3   -1.350015114321548E-3   -1.392656506442947E-3    3.752810016052320E-1   -3.235363307630599E-1
 9.937457507250000E9     4.683979891414920E-1   -1.167526754813897E-1   -1.313739127183355E-3   -1.414649683845711E-3   -1.321885857168666E-3   -1.435594226761676E-3    3.752056404847866E-1   -3.236611985450611E-1
 9.937459261500000E9     4.682518324422976E-1   -1.169700337539089E-1   -1.352727633521348E-3   -1.434716846892807E-3   -1.374160875426363E-3   -1.417757123417772E-3    3.748135455688770E-1   -3.237401515029577E-1
 9.937461015750000E9     4.681383258047096E-1   -1.169313746413799E-1   -1.329336635050043E-3   -1.409848662169136E-3   -1.384251657782156E-3   -1.440124754252766E-3    3.746597116145797E-1   -3.238560979812113E-1
 9.937462770000000E9     4.681129644228701E-1   -1.172135151632526E-1   -1.401284906963093E-3   -1.469637743731963E-3   -1.440380537113855E-3   -1.470555364023608E-3    3.744414866000274E-1   -3.242389908875072E-1
 9.937464524250000E9     4.682364151190450E-1   -1.171614642691442E-1   -1.380321730286407E-3   -1.518692673187423E-3   -1.421936349246586E-3   -1.479901178658928E-3    3.740246197485697E-1   -3.242663630292330E-1
 9.937466278500000E9     4.681678720033500E-1   -1.173676767959142E-1   -1.378559752931072E-3   -1.476588291686802E-3   -1.457371904423256E-3   -1.515132474708261E-3    3.741743009248599E-1   -3.244446084189230E-1
 9.937468032750000E9     4.682340272014009E-1   -1.176279613139960E-1   -1.433465326423954E-3   -1.495595891863959E-3   -1.450730337221897E-3   -1.544715535308818E-3    3.735683659657477E-1   -3.247352990623359E-1
 9.937469787000000E9     4.680499246083650E-1   -1.176595938273435E-1   -1.445937506692810E-3   -1.540841748521880E-3   -1.492662432815531E-3   -1.538519090750547E-3    3.733603763496910E-1   -3.249983287700341E-1
 9.937471541250000E9     4.680210845893149E-1   -1.177191959681587E-1   -1.459170056912776E-3   -1.544583082730448E-3   -1.512935046912430E-3   -1.569151821036096E-3    3.732702410277413E-1   -3.252272460519811E-1
 9.937473295500000E9     4.681277582474614E-1   -1.178728641697283E-1   -1.460513866260669E-3   -1.563938308014036E-3   -1.516939601573336E-3   -1.576456880511302E-3    3.730054216292401E-1   -3.252483353668069E-1
 9.937475049750000E9     4.679865331371429E-1   -1.178443718895845E-1   -1.492973166725042E-3   -1.587852980905541E-3   -1.570713934967745E-3   -1.569155846101051E-3    3.728239363097838E-1   -3.253048205849566E-1
 9.937476804000000E9     4.678313486828715E-1   -1.181812614011567E-1   -1.521448064068074E-3   -1.627431607344983E-3   -1.592524056280735E-3   -1.604493264835231E-3    3.725694050534885E-1   -3.257432784570075E-1
 9.937478558250000E9     4.679032337589553E-1   -1.181861575322527E-1   -1.575633291484737E-3   -1.595139174175350E-3   -1.577080626315256E-3   -1.593200828461794E-3    3.722819585814894E-1   -3.258384166403208E-1
 9.937480312500000E9     4.678665355660994E-1   -1.183147999257419E-1   -1.554645825127846E-3   -1.612739370861618E-3   -1.594219595715524E-3   -1.618050135460895E-3    3.718755580382844E-1   -3.259569104947322E-1
 9.937482066750000E9     4.678633604843896E-1   -1.185338953172428E-1   -1.572714727893498E-3   -1.660993787774676E-3   -1.612806221694969E-3   -1.649749998872073E-3    3.716813118632045E-1   -3.263872118880136E-1
 9.937483821000000E9     4.678913677125737E-1   -1.186042209946291E-1   -1.592670909050279E-3   -1.678620543837566E-3   -1.635768567354744E-3   -1.691113596309932E-3    3.715532867929537E-1   -3.263135045085374E-1
 9.937485575250000E9     4.676696533637208E-1   -1.186888647478313E-1   -1.578937239050803E-3   -1.709805038360126E-3   -1.677302660096447E-3   -1.669799407704227E-3    3.710388437427000E-1   -3.267319085431475E-1
 9.937487329500000E9     4.676513469037502E-1   -1.188061946720708E-1   -1.623658017499419E-3   -1.698781965050449E-3   -1.673022891011333E-3   -1.710727943234357E-3    3.709767134810947E-1   -3.268574780393272E-1
 9.937489083750000E9     4.676899901972035E-1   -1.189970758047047E-1   -1.652179244904765E-3   -1.699368424958134E-3   -1.682897403555752E-3   -1.713554998189862E-3    3.707100006745316E-1   -3.271331555714103E-1
 9.937490838000000E9     4.675478381154332E-1   -1.191042355636511E-1   -1.649641245283539E-3   -1.750423550111303E-3   -1.736053347965484E-3   -1.705264147109155E-3    3.705525318923841E-1   -3.273054546209624E-1
 9.937492592250000E9     4.677341640695667E-1   -1.191511034179448E-1   -1.665919858805924E-3   -1.754047884212337E-3   -1.740588624730490E-3   -1.732024785398077E-3    3.701081623389627E-1   -3.274240536251675E-1
 9.937494346500000E9     4.675894715976516E-1   -1.192274554139825E-1   -1.721636768355106E-3   -1.809122574316341E-3   -1.737998069814176E-3   -1.790147574837351E-3    3.698960404388793E-1   -3.276990258563058E-1
 9.937496100750000E9     4.675796512650074E-1   -1.194295295036251E-1   -1.758226720683680E-3   -1.800865240698940E-3   -1.810803004143460E-3   -1.777989426803175E-3    3.696405906484806E-1   -3.279796159395601E-1
 9.937497855000000E9     4.675241377970675E-1   -1.195751333317675E-1   -1.746889844756852E-3   -1.810976076480710E-3   -1.824754162433253E-3   -1.825850717276136E-3    3.692421673032439E-1   -3.281173630332319E-1
 9.937499609250000E9     4.675569950058029E-1   -1.197503751905155E-1   -1.771047483229819E-3   -1.822723317541857E-3   -1.855129712755888E-3   -1.816651931004811E-3    3.691039230564191E-1   -3.284032296363836E-1
 9.937501363500000E9     4.674847575944956E-1   -1.197452692027369E-1   -1.815729876986956E-3   -1.866849970544634E-3   -1.852475623760389E-3   -1.849245389909566E-3    3.687041096241104E-1   -3.286830304369321E-1
 9.937503117750000E9     4.674589435800395E-1   -1.199958996119377E-1   -1.833470512815195E-3   -1.850479663105827E-3   -1.886591337553047E-3   -1.863470341310456E-3    3.683599464504592E-1   -3.287511044268167E-1
 9.937504872000000E9     4.674410020024732E-1   -1.200209440077482E-1   -1.847813090281146E-3   -1.873277779359910E-3   -1.883017110701506E-3   -1.889872072573050E-3    3.681531176915041E-1   -3.289757052897791E-1
 9.937506626250000E9     4.672772363378761E-1   -1.201364733834612E-1   -1.875082375492134E-3   -1.892508022988688E-3   -1.912777914385548E-3   -1.897475886026719E-3    3.678908827926358E-1   -3.291948685086940E-1
 9.937508380500000E9     4.671440137208311E-1   -1.202623283799079E-1   -1.879217863011726E-3   -1.917050396797162E-3   -1.958834851543612E-3   -1.894536071255649E-3    3.674513628652104E-1   -3.294992766528648E-1
 9.937510134750000E9     4.671543650831591E-1   -1.203667129122756E-1   -1.934894451405292E-3   -1.973367174435860E-3   -1.980717652945045E-3   -1.961586597184083E-3    3.672781321513982E-1   -3.297470917741954E-1
 9.937511889000000E9     4.672915616611265E-1   -1.203852005730803E-1   -1.938592091878407E-3   -1.980235204999698E-3   -1.991814128335558E-3   -1.974198385444618E-3    3.667743269503351E-1   -3.297048547833733E-1
 9.937513643250000E9     4.670449717688142E-1   -1.206309548516100E-1   -1.990558565744885E-3   -1.994318699671494E-3   -2.061319918125453E-3   -1.980661143213022E-3    3.665275238144173E-1   -3.301403094288042E-1
 9.937515397500000E9     4.669640976630946E-1   -1.207911798369889E-1   -1.968336151594981E-3   -2.024137735874178E-3   -2.067925860876070E-3   -2.019665279760278E-3    3.663460317248924E-1   -3.301926081547776E-1
 9.937517151750000E9     4.670392002678259E-1   -1.209353622023558E-1   -2.033604626008589E-3   -1.989976337883871E-3   -2.147398338583303E-3   -1.994779514921368E-3    3.659241291682441E-1   -3.305901320821615E-1
 9.937518906000000E9     4.671105346225318E-1   -1.207717101635599E-1   -2.069252571503417E-3   -2.075350519755484E-3   -2.148129052171073E-3   -2.062066359976106E-3    3.654904296604218E-1   -3.306717944909960E-1
 9.937520660250000E9     4.671079111141826E-1   -1.211359575935105E-1   -2.085333322132966E-3   -2.067017678713403E-3   -2.152388362046926E-3   -2.080309070531573E-3    3.651746489837570E-1   -3.308490014209925E-1
 9.937522414500000E9     4.669457787780174E-1   -1.212073729003845E-1   -2.131141163506170E-3   -2.090059786180673E-3   -2.175048956232986E-3   -2.100369721901956E-3    3.649837162481641E-1   -3.311858965379785E-1
 9.937524168750000E9     4.668677369767001E-1   -1.213403532798605E-1   -2.154455758504709E-3   -2.116758320506498E-3   -2.202808984478854E-3   -2.108389427624553E-3    3.647642502962770E-1   -3.313369948872841E-1
 9.937525923000000E9     4.668382209339588E-1   -1.214395070526205E-1   -2.140651470652600E-3   -2.123627147088099E-3   -2.237500353614139E-3   -2.166722261142753E-3    3.641806576894047E-1   -3.317647701839599E-1
 9.937527677250000E9     4.667314627527774E-1   -1.215393044076654E-1   -2.228581880037436E-3   -2.166199602906945E-3   -2.263352408002716E-3   -2.169188069862719E-3    3.639261008508349E-1   -3.318957718358441E-1
 9.937529431500000E9     4.666865192543602E-1   -1.216336694651463E-1   -2.259118503827965E-3   -2.231513760667799E-3   -2.287874377761149E-3   -2.177602370566725E-3    3.634848556195968E-1   -3.320912853660678E-1
 9.937531185750000E9     4.668563645832478E-1   -1.217595803082731E-1   -2.231464583558879E-3   -2.228884448307229E-3   -2.329047669033578E-3   -2.213066820634226E-3    3.634359776318297E-1   -3.323408635156332E-1
 9.937532940000000E9     4.667455150501527E-1   -1.219041694528370E-1   -2.305766051076103E-3   -2.252494396368637E-3   -2.357377386398708E-3   -2.267158940598675E-3    3.627382949224730E-1   -3.325074995551633E-1
 9.937534694250000E9     4.666624045644366E-1   -1.218890474137441E-1   -2.324045743346512E-3   -2.277426821092497E-3   -2.371884965754388E-3   -2.275178827519297E-3    3.623633325451807E-1   -3.328139764373295E-1
 9.937536448500000E9     4.665762380123388E-1   -1.221126002810905E-1   -2.369370721127771E-3   -2.305535598334793E-3   -2.464052734684593E-3   -2.296816501320926E-3    3.620829852182211E-1   -3.330385321783844E-1
 9.937538202750000E9     4.666493010468982E-1   -1.223565986920244E-1   -2.406071846032437E-3   -2.300599374431289E-3   -2.480071560897932E-3   -2.317276294626399E-3    3.616784818355332E-1   -3.330761292830308E-1
 9.937539957000000E9     4.664413475576469E-1   -1.223737019503349E-1   -2.426973822479623E-3   -2.349643780038478E-3   -2.475553000443897E-3   -2.326941629716201E-3    3.612667893974105E-1   -3.336000848195760E-1
 9.937541711250000E9     4.664885818856846E-1   -1.225596931291089E-1   -2.484041412918376E-3   -2.368946974916145E-3   -2.516131830509612E-3   -2.387577677757559E-3    3.608665438132885E-1   -3.337317184173298E-1
 9.937543465500000E9     4.663470504539122E-1   -1.226292550968428E-1   -2.524111168597267E-3   -2.373119464046633E-3   -2.590959448344662E-3   -2.374013686327453E-3    3.605435542735375E-1   -3.341789381938732E-1
 9.937545219750000E9     4.663409969815515E-1   -1.228133075196926E-1   -2.512944575653305E-3   -2.394380450807476E-3   -2.592919626125686E-3   -2.415621514427057E-3    3.601700471955108E-1   -3.343212840935907E-1
 9.937546974000000E9     4.663416667205067E-1   -1.228196375591964E-1   -2.586747307870401E-3   -2.421833090244711E-3   -2.636393483367915E-3   -2.471156037925321E-3    3.599391367292502E-1   -3.344820714329876E-1
 9.937548728250000E9     4.664251522281073E-1   -1.230654342138963E-1   -2.607843321044967E-3   -2.436624754916396E-3   -2.660737353726290E-3   -2.495504566147863E-3    3.594021260865061E-1   -3.348150587471602E-1
 9.937550482500000E9     4.663408560611740E-1   -1.232336332447570E-1   -2.641850843211752E-3   -2.497165532049416E-3   -2.716082979660153E-3   -2.462054874453970E-3    3.587388219177505E-1   -3.349690135152482E-1
 9.937552236750000E9     4.662130098534565E-1   -1.232856207923267E-1   -2.690431781759574E-3   -2.481741783598510E-3   -2.745373004472330E-3   -2.521736184355166E-3    3.583675934601760E-1   -3.353045392894361E-1
 9.937553991000000E9     4.662617584743501E-1   -1.232954457138283E-1   -2.740150190005306E-3   -2.558880772029124E-3   -2.811584318843614E-3   -2.550583072823415E-3    3.580800676717031E-1   -3.354990349580674E-1
 9.937555745250000E9     4.660930773238667E-1   -1.234429128107643E-1   -2.727521934542828E-3   -2.545466259647560E-3   -2.833392878129845E-3   -2.567951725312826E-3    3.573946318472357E-1   -3.358443237136464E-1
 9.937557499500000E9     4.660177682798745E-1   -1.235428057449134E-1   -2.824417068790990E-3   -2.610394434236570E-3   -2.883989693316168E-3   -2.622952095640520E-3    3.571459085427797E-1   -3.359068681176210E-1
