#  HZ   S   RI   R     50.00 
! Rohde & Schwarz Vector Network Analyzer 
! Rohde-Schwarz,ZNB20-2Port,1311601062101988,3.16
! Created: UTC 3/20/2024, 10:58:34 PM
! freq[Hz]                re:S11                  im:S11                  re:S21                  im:S21                  re:S12                  im:S12                  re:S22                  im:S22
 9.937391693000000E9     4.697420553211922E-1   -1.124479625059496E-1   -8.794765003586495E-4   -9.898811865032995E-4   -9.069011676663581E-4   -9.793664368128940E-4    3.822292567511857E-1   -3.172808485718955E-1
 9.937393468450001E9     4.698554044716677E-1   -1.124662382095084E-1   -8.767327008379632E-4   -1.041495704072115E-3   -9.035034944720316E-4   -1.014055964979422E-3    3.821751070199496E-1   -3.177583643634366E-1
 9.937395243900000E9     4.698574323468607E-1   -1.126246021977429E-1   -8.619427371629773E-4   -1.004139052994408E-3   -9.250608562067728E-4   -1.005110414785861E-3    3.820447207662694E-1   -3.177747612251625E-1
 9.937397019350000E9     4.696524161440099E-1   -1.128744899081563E-1   -8.936676802740877E-4   -1.004648035474927E-3   -9.457407680830833E-4   -1.055411767395814E-3    3.816415137234543E-1   -3.179685994335274E-1
 9.937398794799999E9     4.697287987934262E-1   -1.129158627700061E-1   -9.107322584167004E-4   -1.048351760622956E-3   -9.537043696339165E-4   -1.025240735427256E-3    3.815112524839393E-1   -3.181873447130211E-1
 9.937400570250000E9     4.696012574605535E-1   -1.129325196715057E-1   -9.020103626011274E-4   -1.025087508013106E-3   -9.511297767698676E-4   -1.060375155940596E-3    3.812210753437409E-1   -3.181173790272795E-1
 9.937402345700001E9     4.695755457162274E-1   -1.130484587688134E-1   -9.397998677917450E-4   -1.059144197895280E-3   -9.551963684928328E-4   -1.049624782904079E-3    3.811201494553038E-1   -3.184064643661011E-1
 9.937404121150000E9     4.694990543635715E-1   -1.132616193812132E-1   -9.679902445404515E-4   -1.067556582830434E-3   -9.519616859831068E-4   -1.056083226833671E-3    3.808776197405545E-1   -3.184686529835134E-1
 9.937405896600000E9     4.694480957527931E-1   -1.133202546460770E-1   -9.657753199479711E-4   -1.120423512444724E-3   -9.959463451416004E-4   -1.076919185416340E-3    3.808146035193045E-1   -3.186763662892190E-1
 9.937407672049999E9     4.694532369419526E-1   -1.135472483511575E-1   -9.718924498329335E-4   -1.088033903611613E-3   -1.006060415819712E-3   -1.085743358486188E-3    3.806048712968627E-1   -3.189169963567738E-1
 9.937409447500000E9     4.693621824439487E-1   -1.136120160557109E-1   -1.010146198207466E-3   -1.125281389706780E-3   -1.022787565116272E-3   -1.089861821973691E-3    3.805363679416311E-1   -3.191509237030785E-1
 9.937411222950001E9     4.692990501193649E-1   -1.136488129985817E-1   -1.020385027080802E-3   -1.108861810061406E-3   -1.033734709259310E-3   -1.119878735347840E-3    3.800892249506890E-1   -3.192208472197974E-1
 9.937412998400000E9     4.693016179493127E-1   -1.139372648024041E-1   -9.977465741122685E-4   -1.113797060502334E-3   -1.030810103794512E-3   -1.156740255041107E-3    3.800012157047999E-1   -3.193942517139587E-1
 9.937414773850000E9     4.693560510079234E-1   -1.139734264217448E-1   -1.009101542863580E-3   -1.148376334779622E-3   -1.044978351946950E-3   -1.141539636027475E-3    3.797991570831941E-1   -3.195554755030023E-1
 9.937416549299999E9     4.693109649071022E-1   -1.139947798130249E-1   -1.043303342526548E-3   -1.112993458345209E-3   -1.071229976136245E-3   -1.156512456069459E-3    3.796331644286209E-1   -3.196977728154035E-1
 9.937418324750000E9     4.692053056934181E-1   -1.141417479619539E-1   -1.050965104431135E-3   -1.143733671301556E-3   -1.113076694364808E-3   -1.167254178169458E-3    3.792894242228401E-1   -3.199649702825991E-1
 9.937420100200001E9     4.691455098863901E-1   -1.141148248869434E-1   -1.038869745204073E-3   -1.165622394738325E-3   -1.063375975365584E-3   -1.190542322039684E-3    3.793976548536500E-1   -3.200840450821559E-1
 9.937421875650000E9     4.693718054617979E-1   -1.144243328660300E-1   -1.082600872068657E-3   -1.187006487096244E-3   -1.117210493831496E-3   -1.192314106098441E-3    3.791455913200065E-1   -3.202534432566576E-1
 9.937423651100000E9     4.691024157908962E-1   -1.146046947658329E-1   -1.095283376808743E-3   -1.193053719112766E-3   -1.096008767829940E-3   -1.205371532886635E-3    3.786661444407208E-1   -3.203659300605378E-1
 9.937425426549999E9     4.690535798958091E-1   -1.147226369170283E-1   -1.072006229810822E-3   -1.192524996974374E-3   -1.124780162536049E-3   -1.216727159613026E-3    3.786163554334159E-1   -3.205634775850251E-1
 9.937427202000000E9     4.690698698216322E-1   -1.148697943863122E-1   -1.143598738468119E-3   -1.230231660668526E-3   -1.167568984116026E-3   -1.217377027397879E-3    3.783930616582431E-1   -3.205390000800216E-1
 9.937428977450001E9     4.690710877649494E-1   -1.149359597254570E-1   -1.133421613354605E-3   -1.241624595172868E-3   -1.152271447796622E-3   -1.227665321043001E-3    3.782821722781599E-1   -3.210552006983927E-1
 9.937430752900000E9     4.689234480996129E-1   -1.149433029984364E-1   -1.174445139167472E-3   -1.267369426472372E-3   -1.156758651233129E-3   -1.226999573333710E-3    3.780801695723884E-1   -3.210433265034222E-1
 9.937432528350000E9     4.688052044270702E-1   -1.150959352760416E-1   -1.136226848959192E-3   -1.284569730783846E-3   -1.184486814018935E-3   -1.276846823023631E-3    3.777661531929669E-1   -3.211742324884252E-1
 9.937434303799999E9     4.688093644476151E-1   -1.153398264312693E-1   -1.171590045440560E-3   -1.290957248846591E-3   -1.187724828690540E-3   -1.297349693789528E-3    3.776296589847382E-1   -3.214588277438078E-1
 9.937436079250000E9     4.689101664544903E-1   -1.154287316797764E-1   -1.185912764395179E-3   -1.279947712487559E-3   -1.225230543476033E-3   -1.304843953986578E-3    3.771986328361771E-1   -3.215352958998194E-1
 9.937437854700001E9     4.689063300305056E-1   -1.154579768091738E-1   -1.229471159584706E-3   -1.328478088993887E-3   -1.255150921838622E-3   -1.274054937515325E-3    3.770749363121909E-1   -3.218030709373933E-1
 9.937439630150000E9     4.687204235782492E-1   -1.156714846412008E-1   -1.258807192746764E-3   -1.315574436829234E-3   -1.268446238937531E-3   -1.335683483592768E-3    3.769106498580388E-1   -3.220091731727011E-1
 9.937441405600000E9     4.688134677201868E-1   -1.157367759054978E-1   -1.230484604924229E-3   -1.340347952820354E-3   -1.264337584110162E-3   -1.307326751420165E-3    3.765905267342333E-1   -3.220816486653716E-1
 9.937443181049999E9     4.687097811961139E-1   -1.160212001575030E-1   -1.244733421036235E-3   -1.383474767590527E-3   -1.281958519866083E-3   -1.334335732464792E-3    3.765060654879808E-1   -3.225348759210764E-1
 9.937444956500000E9     4.686351263245069E-1   -1.159342629915844E-1   -1.250404530220667E-3   -1.368924534814930E-3   -1.304653881889940E-3   -1.353407902843769E-3    3.761490943521469E-1   -3.225123464615047E-1
 9.937446731950001E9     4.685763168243257E-1   -1.160138085202319E-1   -1.248438138244130E-3   -1.410001282097123E-3   -1.325113543752071E-3   -1.369462174432035E-3    3.759818483973630E-1   -3.226641048771924E-1
 9.937448507400000E9     4.686751081087814E-1   -1.162120693881712E-1   -1.294861297302780E-3   -1.372279998293721E-3   -1.315397254435680E-3   -1.397993837142268E-3    3.758216510084751E-1   -3.230136763141581E-1
 9.937450282850000E9     4.684898616192552E-1   -1.163012817666958E-1   -1.307103683885082E-3   -1.437696008158522E-3   -1.366366583580863E-3   -1.415442111037002E-3    3.756178233485628E-1   -3.232420714870858E-1
 9.937452058299999E9     4.685332069475190E-1   -1.164353432175758E-1   -1.336567107225439E-3   -1.441185619909539E-3   -1.352765286777947E-3   -1.403719079700732E-3    3.751006377414021E-1   -3.231726559955457E-1
 9.937453833750000E9     4.684593229985397E-1   -1.165130332062095E-1   -1.365176072396001E-3   -1.440957449032599E-3   -1.401599095953635E-3   -1.435644618738411E-3    3.752127791024744E-1   -3.233745615809067E-1
 9.937455609200001E9     4.684343613970131E-1   -1.167348035036749E-1   -1.374950702275139E-3   -1.447155332547015E-3   -1.390120662924889E-3   -1.457129733522222E-3    3.748587329212865E-1   -3.236789457829194E-1
 9.937457384650000E9     4.684205827920325E-1   -1.168891306801796E-1   -1.410854925772257E-3   -1.474294965090767E-3   -1.426009117423711E-3   -1.470603461822363E-3    3.746820183191341E-1   -3.238032300717392E-1
 9.937459160100000E9     4.683125789714525E-1   -1.169921497723057E-1   -1.349916561712875E-3   -1.465219868347699E-3   -1.413245011693375E-3   -1.452430897106050E-3    3.742622467604916E-1   -3.242346530119086E-1
 9.937460935549999E9     4.683657168938438E-1   -1.170885186399253E-1   -1.376091794548243E-3   -1.499821548090347E-3   -1.457434626411299E-3   -1.514392359238436E-3    3.740275403695618E-1   -3.243669257805222E-1
 9.937462711000000E9     4.682434923920267E-1   -1.171691689436155E-1   -1.403146006636642E-3   -1.556512835687837E-3   -1.469528088639752E-3   -1.494270751249347E-3    3.738118944883612E-1   -3.244736364860503E-1
 9.937464486450001E9     4.682069262366134E-1   -1.172626944231132E-1   -1.441341987364500E-3   -1.534761815404273E-3   -1.476333945002219E-3   -1.533867095566211E-3    3.735481158629186E-1   -3.245346573230737E-1
 9.937466261900000E9     4.681992197853622E-1   -1.175744787982193E-1   -1.472690775716793E-3   -1.544919405927726E-3   -1.502632029361466E-3   -1.573382670725832E-3    3.735454505001032E-1   -3.247672417233401E-1
 9.937468037350000E9     4.680982654789526E-1   -1.175191180882509E-1   -1.497400414360139E-3   -1.568650884337928E-3   -1.510818320971460E-3   -1.593797520826777E-3    3.730884886932000E-1   -3.249534838266033E-1
 9.937469812799999E9     4.682418407449647E-1   -1.174988568208721E-1   -1.494771797019199E-3   -1.588189496330240E-3   -1.561743711892638E-3   -1.566445768105388E-3    3.729043712025069E-1   -3.252483932427949E-1
 9.937471588250000E9     4.681022657573312E-1   -1.178148460318190E-1   -1.512882822370175E-3   -1.614719489188128E-3   -1.570347740097344E-3   -1.601190319345497E-3    3.726146642659052E-1   -3.253782495359611E-1
 9.937473363700001E9     4.679951275832218E-1   -1.177467161216957E-1   -1.565046107607476E-3   -1.597755353424892E-3   -1.608535259296887E-3   -1.564936766916042E-3    3.723035933082747E-1   -3.256111116840681E-1
 9.937475139150000E9     4.680115940867898E-1   -1.180696208797083E-1   -1.583374419546787E-3   -1.638149876172354E-3   -1.605919326835068E-3   -1.595532817870173E-3    3.721111334731993E-1   -3.259450232165014E-1
 9.937476914600000E9     4.679807082322691E-1   -1.181485306176509E-1   -1.586169639419923E-3   -1.648120468960111E-3   -1.607670468998230E-3   -1.669913754499380E-3    3.717791562735083E-1   -3.259627334730222E-1
 9.937478690049999E9     4.678959343246888E-1   -1.182185184922632E-1   -1.584534819911564E-3   -1.659842190290084E-3   -1.673606248327556E-3   -1.649029947471161E-3    3.714947394764221E-1   -3.260915723561891E-1
 9.937480465500000E9     4.677799645598801E-1   -1.185287355273059E-1   -1.579386723254170E-3   -1.676470306059177E-3   -1.649092832341540E-3   -1.684082605893436E-3    3.713592977267826E-1   -3.263942127784420E-1
 9.937482240950001E9     4.678445347081637E-1   -1.185840452270603E-1   -1.605676615292968E-3   -1.703314791479895E-3   -1.685844431520047E-3   -1.718921045004599E-3    3.711058312006441E-1   -3.266692615543949E-1
 9.937484016400000E9     4.677316433105860E-1   -1.186155757205000E-1   -1.672506546928422E-3   -1.741170027058916E-3   -1.680182811332741E-3   -1.710562153663984E-3    3.708642517020114E-1   -3.268752869271194E-1
 9.937485791850000E9     4.677007853604198E-1   -1.187764589256950E-1   -1.682706215572234E-3   -1.753686823841756E-3   -1.746686797991464E-3   -1.715651470613284E-3    3.707442474842259E-1   -3.270025551043141E-1
 9.937487567299999E9     4.676163457674767E-1   -1.188324958578531E-1   -1.723188430207789E-3   -1.771189070398342E-3   -1.753022864840764E-3   -1.771711349549574E-3    3.701592794428692E-1   -3.271845616715028E-1
 9.937489342750000E9     4.675872030807476E-1   -1.190487302431046E-1   -1.746771859645905E-3   -1.765570852508285E-3   -1.777701489312348E-3   -1.771742707771359E-3    3.699971682472677E-1   -3.274452727521942E-1
 9.937491118200001E9     4.677082189133609E-1   -1.192052047305014E-1   -1.752521121903509E-3   -1.792340396135293E-3   -1.818777586121396E-3   -1.776922512516250E-3    3.697598939318391E-1   -3.276501336890129E-1
 9.937492893650000E9     4.674341168009933E-1   -1.191664522001217E-1   -1.773016293738011E-3   -1.834860370851189E-3   -1.820106488465853E-3   -1.810449858412997E-3    3.693691992751498E-1   -3.279737721755518E-1
 9.937494669100000E9     4.675969124758702E-1   -1.193289397276770E-1   -1.804360823548586E-3   -1.834970349218452E-3   -1.820597926518471E-3   -1.825609478848827E-3    3.690539901340986E-1   -3.279535222419395E-1
 9.937496444549999E9     4.674944761962389E-1   -1.194919291969663E-1   -1.852668218284321E-3   -1.836042834795963E-3   -1.881620406383709E-3   -1.827046713383738E-3    3.687926878706396E-1   -3.283297000135253E-1
 9.937498220000000E9     4.675150923083168E-1   -1.195914681277173E-1   -1.823706540965107E-3   -1.907980835860106E-3   -1.894027493935669E-3   -1.890430200292766E-3    3.683880107161043E-1   -3.284172193804509E-1
 9.937499995450001E9     4.675134984740640E-1   -1.196334502642042E-1   -1.824635032344903E-3   -1.898755022447851E-3   -1.942919384594695E-3   -1.893261766653953E-3    3.679846640283896E-1   -3.288320208871598E-1
 9.937501770900000E9     4.673392264016140E-1   -1.199463144848079E-1   -1.879564373439214E-3   -1.923783448338131E-3   -1.993839577483272E-3   -1.917337083536782E-3    3.678125166186019E-1   -3.289100451832168E-1
 9.937503546350000E9     4.673791642857738E-1   -1.199260290696824E-1   -1.919165706264691E-3   -1.932829501154919E-3   -1.968675107136506E-3   -1.924665598159195E-3    3.676377472346933E-1   -3.288916913934208E-1
 9.937505321799999E9     4.673497754621975E-1   -1.200349684011768E-1   -1.978639342311831E-3   -1.943238599956725E-3   -2.011813894350894E-3   -1.927858850733648E-3    3.673821301815811E-1   -3.292752436130422E-1
 9.937507097250000E9     4.672267188939725E-1   -1.201132058955590E-1   -1.960533976435534E-3   -1.973731601673417E-3   -2.018087494170323E-3   -2.009992485343053E-3    3.666912807889623E-1   -3.295208942688059E-1
 9.937508872700001E9     4.671879981333775E-1   -1.203760182182815E-1   -2.002949193718146E-3   -2.011767742206523E-3   -2.046707148036537E-3   -2.008343218541818E-3    3.663578656179853E-1   -3.299217805439392E-1
 9.937510648150000E9     4.670529136304676E-1   -1.203326755027719E-1   -2.023939489274153E-3   -2.016290249278814E-3   -2.088087750556846E-3   -1.998683585665098E-3    3.662752494099344E-1   -3.299505087688500E-1
 9.937512423600000E9     4.672851046945418E-1   -1.205388220434102E-1   -2.039285344291865E-3   -2.008523017400323E-3   -2.107192379546062E-3   -2.059363664522454E-3    3.658408817102214E-1   -3.302653664063316E-1
 9.937514199049999E9     4.671830402188860E-1   -1.207367359045060E-1   -2.082099148942242E-3   -2.064483881294897E-3   -2.110141330239230E-3   -2.057592063928727E-3    3.655536533944644E-1   -3.303080514947229E-1
 9.937515974500000E9     4.669799370242277E-1   -1.207292787697195E-1   -2.100289415779820E-3   -2.061394799388494E-3   -2.154592076612378E-3   -2.066827103279085E-3    3.652225062055691E-1   -3.305787908210448E-1
 9.937517749950001E9     4.670146015075815E-1   -1.209084977383285E-1   -2.136663685256335E-3   -2.108581481566504E-3   -2.211258646130255E-3   -2.115098627079786E-3    3.649531523591722E-1   -3.308521100425216E-1
 9.937519525400000E9     4.669794321968835E-1   -1.210080889608773E-1   -2.159626494994402E-3   -2.145193047368939E-3   -2.233782011191326E-3   -2.116395390715083E-3    3.644683242408686E-1   -3.310298796903471E-1
 9.937521300850000E9     4.668897610729497E-1   -1.212471069653161E-1   -2.219654843966967E-3   -2.174337375563544E-3   -2.274996590696764E-3   -2.129888288654935E-3    3.641909390315033E-1   -3.315620617174382E-1
 9.937523076299999E9     4.667665511238294E-1   -1.212836679747242E-1   -2.213838375839147E-3   -2.191496290381208E-3   -2.298195582681422E-3   -2.165011807039123E-3    3.638023631059644E-1   -3.316441595831572E-1
 9.937524851750000E9     4.668353332904372E-1   -1.215326625152649E-1   -2.276099951580706E-3   -2.207953063046404E-3   -2.301693742572132E-3   -2.200305480588064E-3    3.634086391573468E-1   -3.318759177899877E-1
 9.937526627200001E9     4.667728145205398E-1   -1.214093825840737E-1   -2.291073785608545E-3   -2.227593099404998E-3   -2.352778490492024E-3   -2.201485764729250E-3    3.630550084565054E-1   -3.321094022075206E-1
 9.937528402650000E9     4.666605174676143E-1   -1.216280772634071E-1   -2.298458027654123E-3   -2.228653151199087E-3   -2.406347239750187E-3   -2.280692393820449E-3    3.628050048231342E-1   -3.324323511864123E-1
 9.937530178100000E9     4.665930562244038E-1   -1.216543265509032E-1   -2.353935136976730E-3   -2.247730901258264E-3   -2.420046340143314E-3   -2.254865152698992E-3    3.624486591824146E-1   -3.324302246671628E-1
 9.937531953549999E9     4.668266380613248E-1   -1.218291214226268E-1   -2.360659617609377E-3   -2.266128852017737E-3   -2.453900471396553E-3   -2.307354909270124E-3    3.619516404680213E-1   -3.328649951117090E-1
 9.937533729000000E9     4.665232321494308E-1   -1.220602579734730E-1   -2.425557990024631E-3   -2.335288938328403E-3   -2.503550327500693E-3   -2.307626717132456E-3    3.615492132509213E-1   -3.330060436486891E-1
 9.937535504450001E9     4.665170723557630E-1   -1.220515732122138E-1   -2.444218775991124E-3   -2.324700675113240E-3   -2.538907266611245E-3   -2.360529473552949E-3    3.610705788840567E-1   -3.333742717954623E-1
 9.937537279900000E9     4.666021163525709E-1   -1.223490563636481E-1   -2.497516200014997E-3   -2.389554301977122E-3   -2.566499045384997E-3   -2.357730656676149E-3    3.608045354777188E-1   -3.334841383561573E-1
 9.937539055350000E9     4.665673684999953E-1   -1.223555962057219E-1   -2.553060905898004E-3   -2.359879149863074E-3   -2.649367774355240E-3   -2.398075275513912E-3    3.603631533139198E-1   -3.337851934459417E-1
 9.937540830799999E9     4.665591153303359E-1   -1.224097779693809E-1   -2.548799293768092E-3   -2.433805805824394E-3   -2.679635122332254E-3   -2.459723106089411E-3    3.602409402322921E-1   -3.341619369495731E-1
 9.937542606250000E9     4.663423657215681E-1   -1.226543163524565E-1   -2.579765049839297E-3   -2.467199884648268E-3   -2.712528542217164E-3   -2.457204848275597E-3    3.596299111199129E-1   -3.343511080139988E-1
 9.937544381700001E9     4.663164584215873E-1   -1.228719909269455E-1   -2.656763131787120E-3   -2.488283667809419E-3   -2.704581455153620E-3   -2.477717266146733E-3    3.591547994867091E-1   -3.347708132690836E-1
 9.937546157150000E9     4.663538034149353E-1   -1.227832270005488E-1   -2.640416158438792E-3   -2.525490688575923E-3   -2.756454106987547E-3   -2.483325193180753E-3    3.586224608992977E-1   -3.348369259206036E-1
 9.937547932600000E9     4.664334516939519E-1   -1.230236139777321E-1   -2.738967786746643E-3   -2.543652148366090E-3   -2.779646227481078E-3   -2.535484435105137E-3    3.581776100978513E-1   -3.350761958263987E-1
 9.937549708049999E9     4.663641726053807E-1   -1.229936417256912E-1   -2.738925189727648E-3   -2.578586748709039E-3   -2.797094157177130E-3   -2.542580173546707E-3    3.579612245041143E-1   -3.352497960682827E-1
 9.937551483500000E9     4.660792943758137E-1   -1.231130582372630E-1   -2.820595414905445E-3   -2.550609197995007E-3   -2.900303502518307E-3   -2.582750725002032E-3    3.573422335182329E-1   -3.354198949923743E-1
