#  HZ   S   RI   R     50.00 
! Rohde & Schwarz Vector Network Analyzer 
! Rohde-Schwarz,ZNB20-2Port,1311601062101988,3.16
! Created: UTC 3/20/2024, 10:52:43 PM
! freq[Hz]                re:S11                  im:S11                  re:S21                  im:S21                  re:S12                  im:S12                  re:S22                  im:S22
 9.937728987000000E9     4.625103575227538E-1   -1.338065888935287E-1   -2.513864460252929E-3   -2.875165825022939E-3   -2.569936240153116E-3   -2.807788020132376E-3    3.517099619337463E-1   -3.461547838934413E-1
 9.937729950900000E9     4.625016033796003E-1   -1.336532223681527E-1   -2.516155337166094E-3   -2.860270652232860E-3   -2.597124512441218E-3   -2.828866877504728E-3    3.514911387258926E-1   -3.464116433802524E-1
 9.937730914799999E9     4.625455724748571E-1   -1.339038423600903E-1   -2.534459683663602E-3   -2.854259742291704E-3   -2.597562681626275E-3   -2.858680568558990E-3    3.512334594838531E-1   -3.466343236818969E-1
 9.937731878700001E9     4.625390517339532E-1   -1.340379173144056E-1   -2.540122867426805E-3   -2.867782805453217E-3   -2.641700644278511E-3   -2.884372804787528E-3    3.511306002142668E-1   -3.468968971509983E-1
 9.937732842600000E9     4.623576999122324E-1   -1.341754263634572E-1   -2.556518856318674E-3   -2.904059128428090E-3   -2.651645989351147E-3   -2.890146132004963E-3    3.506663415715874E-1   -3.467245122752585E-1
 9.937733806500000E9     4.623009404903644E-1   -1.340292129566876E-1   -2.591537842792925E-3   -2.909636533788798E-3   -2.629361286747306E-3   -2.907643808833638E-3    3.503681808304490E-1   -3.468713313060189E-1
 9.937734770400000E9     4.624985074574044E-1   -1.341552753143370E-1   -2.605758713612936E-3   -2.965024605260767E-3   -2.673258407793351E-3   -2.949374183606397E-3    3.502396794281984E-1   -3.472302960408872E-1
 9.937735734299999E9     4.623433973451611E-1   -1.342257793642815E-1   -2.610893199886139E-3   -2.948096099326519E-3   -2.707935909832246E-3   -2.966392381110517E-3    3.499839071821486E-1   -3.472597878636378E-1
 9.937736698200001E9     4.623480708853357E-1   -1.342749294642845E-1   -2.658962785367559E-3   -2.966731320139309E-3   -2.700700442081022E-3   -2.974571206015175E-3    3.498258382135363E-1   -3.475659815753636E-1
 9.937737662100000E9     4.623147480972028E-1   -1.343202728994226E-1   -2.664944586427030E-3   -2.996723385255929E-3   -2.751644023143628E-3   -3.029941619183381E-3    3.495693549370490E-1   -3.477687263488939E-1
 9.937738626000000E9     4.623082306220739E-1   -1.343955860843295E-1   -2.677528495633014E-3   -3.018293328949520E-3   -2.732801012538533E-3   -3.032540101310335E-3    3.492803488808534E-1   -3.480433205291503E-1
 9.937739589900000E9     4.623118446471198E-1   -1.344647383761003E-1   -2.703997451354662E-3   -3.023316831975039E-3   -2.797950630466992E-3   -3.008380129800143E-3    3.488991025135666E-1   -3.482418381098286E-1
 9.937740553799999E9     4.621230530771678E-1   -1.346177023856024E-1   -2.761119887824534E-3   -3.026507289737097E-3   -2.793561595974010E-3   -3.098978956146084E-3    3.486616964605803E-1   -3.482201341609933E-1
 9.937741517700001E9     4.622225042954663E-1   -1.345663200608123E-1   -2.766920049859610E-3   -3.076318421564384E-3   -2.843396483714705E-3   -3.112636598079619E-3    3.484957893916258E-1   -3.483582725949586E-1
 9.937742481600000E9     4.622922266954838E-1   -1.346224408702757E-1   -2.833222711890091E-3   -3.156662354227958E-3   -2.848195954603673E-3   -3.098909777437014E-3    3.483666945357133E-1   -3.485812547926319E-1
 9.937743445500000E9     4.619833145166891E-1   -1.347568994266269E-1   -2.757904405639284E-3   -3.086415397582162E-3   -2.867876405839004E-3   -3.117568992267961E-3    3.481090784691829E-1   -3.487028196372501E-1
 9.937744409400000E9     4.621360449871780E-1   -1.348140470670798E-1   -2.859859642701962E-3   -3.153336025708993E-3   -2.907749927266186E-3   -3.114847655155710E-3    3.478792267870239E-1   -3.490095891205827E-1
 9.937745373299999E9     4.621180767008364E-1   -1.348239579033226E-1   -2.839502470853135E-3   -3.151874902748463E-3   -2.939211502336414E-3   -3.152328997150652E-3    3.473644198746269E-1   -3.491205777708554E-1
 9.937746337200001E9     4.620856119141190E-1   -1.349476170154508E-1   -2.886578528264726E-3   -3.170066811358581E-3   -2.976867960010635E-3   -3.184430890544268E-3    3.471537577906929E-1   -3.494548829306561E-1
 9.937747301100000E9     4.619315357918169E-1   -1.350187188045286E-1   -2.939858649785567E-3   -3.178043528297752E-3   -2.995438417681313E-3   -3.193420744334959E-3    3.470309167467216E-1   -3.495336824790359E-1
 9.937748265000000E9     4.619932311471094E-1   -1.351599323527144E-1   -2.967859928174141E-3   -3.234984692652239E-3   -2.998441876807232E-3   -3.220415452478164E-3    3.465977961759250E-1   -3.496869632143870E-1
 9.937749228900000E9     4.620389740091195E-1   -1.350743551638371E-1   -2.945180975265260E-3   -3.270847199453849E-3   -3.074857487783074E-3   -3.217939383026156E-3    3.466648051142276E-1   -3.498640905232814E-1
 9.937750192799999E9     4.620662335800919E-1   -1.351889744202498E-1   -3.017846307503560E-3   -3.255978415501088E-3   -3.043793420684394E-3   -3.277514493842967E-3    3.462013149521219E-1   -3.500436763113294E-1
 9.937751156700001E9     4.618945375831049E-1   -1.352016182908156E-1   -3.030602138595903E-3   -3.314227049640511E-3   -3.100319893220751E-3   -3.289553868707000E-3    3.458828817179851E-1   -3.501608601177020E-1
 9.937752120600000E9     4.619579632808292E-1   -1.353345240006442E-1   -3.027890501058439E-3   -3.325440964068828E-3   -3.088619118004459E-3   -3.336194039428445E-3    3.456365841597380E-1   -3.505600502875267E-1
 9.937753084500000E9     4.618628276672821E-1   -1.353243857647436E-1   -3.070979509121783E-3   -3.325636598969210E-3   -3.145378031354497E-3   -3.358952368719102E-3    3.451283129249661E-1   -3.506498488395263E-1
 9.937754048400000E9     4.618355010660659E-1   -1.354605722883898E-1   -3.104906586642914E-3   -3.397680070043119E-3   -3.167914529833863E-3   -3.369359610502948E-3    3.449689113301344E-1   -3.508435254488427E-1
 9.937755012299999E9     4.619422331337938E-1   -1.354489350995074E-1   -3.099091804005842E-3   -3.385121859629800E-3   -3.222589425978688E-3   -3.421923178199158E-3    3.447784419690473E-1   -3.511634322610989E-1
 9.937755976200001E9     4.617273214910130E-1   -1.357738923588201E-1   -3.169874792552569E-3   -3.401636095952155E-3   -3.244212445425530E-3   -3.429585423349282E-3    3.443895280370846E-1   -3.513238959879489E-1
 9.937756940100000E9     4.618252608036208E-1   -1.355375229020953E-1   -3.153023149952180E-3   -3.441732877031953E-3   -3.271355445959094E-3   -3.455304527814230E-3    3.440538185247426E-1   -3.514366199519416E-1
 9.937757904000000E9     4.616911530250878E-1   -1.357902362272503E-1   -3.187662114665892E-3   -3.440584058741672E-3   -3.272682682603140E-3   -3.485531888507672E-3    3.438654653702918E-1   -3.516295986474944E-1
 9.937758867900000E9     4.616562971699617E-1   -1.358615740554351E-1   -3.226887408419272E-3   -3.468582088248979E-3   -3.300286377725989E-3   -3.480301562466860E-3    3.435321080194823E-1   -3.520089795374798E-1
 9.937759831799999E9     4.615547422058546E-1   -1.358977255327262E-1   -3.241379803772759E-3   -3.542207722809611E-3   -3.346054331135199E-3   -3.511781337820600E-3    3.433374116379111E-1   -3.521864878886932E-1
 9.937760795700001E9     4.615483975352060E-1   -1.359755244100896E-1   -3.288644048685426E-3   -3.533732252415356E-3   -3.389514821462100E-3   -3.515338496426794E-3    3.427519038290738E-1   -3.522821630403442E-1
 9.937761759600000E9     4.616604268661116E-1   -1.359769835682184E-1   -3.313232162242021E-3   -3.553140123277405E-3   -3.395397609315009E-3   -3.556536410430003E-3    3.424845166309905E-1   -3.526081235620493E-1
 9.937762723500000E9     4.615072507813617E-1   -1.361187884450906E-1   -3.354717563083400E-3   -3.585398277828914E-3   -3.449329572972998E-3   -3.590975962853487E-3    3.423418914265985E-1   -3.528025270824814E-1
 9.937763687400000E9     4.615484435426481E-1   -1.361025189246411E-1   -3.369869032700782E-3   -3.601412498036434E-3   -3.491770891926365E-3   -3.595784743485485E-3    3.421016387572045E-1   -3.529827948981900E-1
 9.937764651299999E9     4.616198728324072E-1   -1.363527518632356E-1   -3.416674616973387E-3   -3.651469200475255E-3   -3.502557435089702E-3   -3.641152084176265E-3    3.416580745703710E-1   -3.531606892585735E-1
 9.937765615200001E9     4.614416637163696E-1   -1.363253679728634E-1   -3.439528498107766E-3   -3.668660683549480E-3   -3.527154524310231E-3   -3.655008390421139E-3    3.412658917434196E-1   -3.533230321133678E-1
 9.937766579100000E9     4.615648193572459E-1   -1.364261660288499E-1   -3.449584433551129E-3   -3.695140939365021E-3   -3.589104340118839E-3   -3.678267972891857E-3    3.408359342068538E-1   -3.536771240982815E-1
 9.937767543000000E9     4.615218989831216E-1   -1.364298363979268E-1   -3.478524102864217E-3   -3.714339136228524E-3   -3.585932547949658E-3   -3.748967270141566E-3    3.405637993338060E-1   -3.537382959293791E-1
 9.937768506900000E9     4.614489134389319E-1   -1.365552494111032E-1   -3.528492903345719E-3   -3.754768395533030E-3   -3.647202787255925E-3   -3.728039489751485E-3    3.402167845589865E-1   -3.541603134651650E-1
 9.937769470799999E9     4.613630607185301E-1   -1.365248985498754E-1   -3.598287346713927E-3   -3.763928175418492E-3   -3.674833734856945E-3   -3.769679216879274E-3    3.399538581825790E-1   -3.542955719710166E-1
 9.937770434700001E9     4.614409396209699E-1   -1.366667149149835E-1   -3.554892383847715E-3   -3.785456592256059E-3   -3.742346903690845E-3   -3.761598114295998E-3    3.395542820485440E-1   -3.544524818348702E-1
 9.937771398600000E9     4.614525168670434E-1   -1.366493386059766E-1   -3.631192789045627E-3   -3.852987129904172E-3   -3.752143568876703E-3   -3.806294189003016E-3    3.392076579834464E-1   -3.545406503516796E-1
 9.937772362500000E9     4.613233317940831E-1   -1.366783677393090E-1   -3.671161162543254E-3   -3.834612486235043E-3   -3.772057251541803E-3   -3.858225245379964E-3    3.389166934441803E-1   -3.548952000921912E-1
 9.937773326400000E9     4.613517347744756E-1   -1.367262088078075E-1   -3.721656856448124E-3   -3.907310909403677E-3   -3.809334495156442E-3   -3.905901128258194E-3    3.383832583476851E-1   -3.550722978083090E-1
 9.937774290299999E9     4.613344032569231E-1   -1.369970380163987E-1   -3.748186586696604E-3   -3.915547709356636E-3   -3.839868333993058E-3   -3.936394116710119E-3    3.381246910943319E-1   -3.555133223688283E-1
 9.937775254200001E9     4.612554766970698E-1   -1.370376706841317E-1   -3.786191419123506E-3   -3.959925190348474E-3   -3.864411779056753E-3   -3.975885265635097E-3    3.377290253630234E-1   -3.556854711710085E-1
 9.937776218100000E9     4.612153070480222E-1   -1.370094289555335E-1   -3.819910611519370E-3   -3.996871204037133E-3   -3.940094004182352E-3   -4.003978476376300E-3    3.374448498441524E-1   -3.558566858785416E-1
 9.937777182000000E9     4.611480377827874E-1   -1.371208390739326E-1   -3.832785397679484E-3   -3.987850934103296E-3   -3.944164064691068E-3   -3.987797555852037E-3    3.370687824883616E-1   -3.560712604191626E-1
 9.937778145900000E9     4.611656153006354E-1   -1.373079245156750E-1   -3.885886193721826E-3   -4.036089725057351E-3   -3.983441204751265E-3   -4.052886326353611E-3    3.366058733762810E-1   -3.562312032300048E-1
 9.937779109799999E9     4.610783836691466E-1   -1.372285577310842E-1   -3.892953228740668E-3   -4.084732644834028E-3   -4.049994877523137E-3   -4.070197852776895E-3    3.362290464155770E-1   -3.566596135171650E-1
 9.937780073700001E9     4.611656264643212E-1   -1.372283649623141E-1   -3.985011877170478E-3   -4.101862618336173E-3   -4.104545689644934E-3   -4.097753915143458E-3    3.357976345921240E-1   -3.566356518569854E-1
 9.937781037600000E9     4.610288025273520E-1   -1.373946631284658E-1   -4.016341008668964E-3   -4.117964185218912E-3   -4.111247118480658E-3   -4.124100692654079E-3    3.354247119360265E-1   -3.572701447990427E-1
 9.937782001500000E9     4.610450134194356E-1   -1.374634289456828E-1   -4.036081706736050E-3   -4.163256105115276E-3   -4.166755256303340E-3   -4.171179715921260E-3    3.350442619434607E-1   -3.574315982169029E-1
 9.937782965400000E9     4.610563706155903E-1   -1.374670616290002E-1   -4.063954145168410E-3   -4.185987000798378E-3   -4.198465217686265E-3   -4.209699491189575E-3    3.347440195292288E-1   -3.575055253036530E-1
 9.937783929299999E9     4.609310423161731E-1   -1.378056705131250E-1   -4.111503426063879E-3   -4.241341845087642E-3   -4.242427945596983E-3   -4.239865819777147E-3    3.340377008178697E-1   -3.576816898358000E-1
 9.937784893200001E9     4.611239070806306E-1   -1.375677453241437E-1   -4.151946106466685E-3   -4.248305627500212E-3   -4.290362552412537E-3   -4.256293050026642E-3    3.339208283850262E-1   -3.579904140870936E-1
 9.937785857100000E9     4.609993494137281E-1   -1.377564491918152E-1   -4.183043048707492E-3   -4.255106417377914E-3   -4.348254437241885E-3   -4.288925573063929E-3    3.333147599036568E-1   -3.583233720843212E-1
 9.937786821000000E9     4.609434183860708E-1   -1.379931298857415E-1   -4.265922288334842E-3   -4.342645010982235E-3   -4.356960366725723E-3   -4.316338239147460E-3    3.328679699858724E-1   -3.586652422065436E-1
 9.937787784900000E9     4.609047595338654E-1   -1.377795009228294E-1   -4.320385796724425E-3   -4.330629357296497E-3   -4.417998303298875E-3   -4.327282019904867E-3    3.324176606925049E-1   -3.587875385232546E-1
 9.937788748799999E9     4.608688301770739E-1   -1.378192292708304E-1   -4.345282407589527E-3   -4.392440556172028E-3   -4.457280441836802E-3   -4.409167208681284E-3    3.320482791295869E-1   -3.589553948560927E-1
 9.937789712700001E9     4.607915843149217E-1   -1.380933309994828E-1   -4.394142008952807E-3   -4.419868430502824E-3   -4.527332435718899E-3   -4.436705574011930E-3    3.317567816247783E-1   -3.594318587727675E-1
 9.937790676600000E9     4.607788439631293E-1   -1.380784381946362E-1   -4.407845050614601E-3   -4.507292611165555E-3   -4.602955112573944E-3   -4.473215002993347E-3    3.312709752133135E-1   -3.596111739325431E-1
 9.937791640500000E9     4.607159770380773E-1   -1.381317472615410E-1   -4.485704288301562E-3   -4.482475517607248E-3   -4.594803818335805E-3   -4.470987875810680E-3    3.307338697886894E-1   -3.598436122224831E-1
 9.937792604400000E9     4.607507851722226E-1   -1.383101520095450E-1   -4.501579386237001E-3   -4.522172405525860E-3   -4.657790135532774E-3   -4.525832187537590E-3    3.301931586105710E-1   -3.602005691416318E-1
 9.937793568299999E9     4.607773101478965E-1   -1.383516290013161E-1   -4.534141428300099E-3   -4.568624151021335E-3   -4.705039559653177E-3   -4.608270296702360E-3    3.297884947288948E-1   -3.605595729158395E-1
 9.937794532200001E9     4.606218017396667E-1   -1.383307777216720E-1   -4.607514386805501E-3   -4.611507344551702E-3   -4.760844352068097E-3   -4.598047713772603E-3    3.291892711333767E-1   -3.607493748644586E-1
 9.937795496100000E9     4.606292338588412E-1   -1.383278606545972E-1   -4.672203720109386E-3   -4.630901036375119E-3   -4.796957612823643E-3   -4.639192070330008E-3    3.287056459411076E-1   -3.608374211097320E-1
 9.937796460000000E9     4.605930653247530E-1   -1.385034801856107E-1   -4.707350603280681E-3   -4.683691809314443E-3   -4.853169844433763E-3   -4.674977673858873E-3    3.283128689542953E-1   -3.611521030681696E-1
 9.937797423900000E9     4.606604346844124E-1   -1.386042548372269E-1   -4.761612125990520E-3   -4.700351092515643E-3   -4.897273436567567E-3   -4.728068653408923E-3    3.277597716321449E-1   -3.615936045153968E-1
 9.937798387799999E9     4.605263925244912E-1   -1.387116210337089E-1   -4.842351205486236E-3   -4.743702095836078E-3   -4.964427035748165E-3   -4.759401694123887E-3    3.272842753189452E-1   -3.618854321095353E-1
 9.937799351700001E9     4.606475070795693E-1   -1.386612505252459E-1   -4.919930843653048E-3   -4.824160564246213E-3   -4.967060377856416E-3   -4.788988075870865E-3    3.269275120766649E-1   -3.619444440970301E-1
 9.937800315600000E9     4.604291448763680E-1   -1.387437113408643E-1   -4.912706420054635E-3   -4.818034904681027E-3   -5.071571887806379E-3   -4.838506319788897E-3    3.262631657249914E-1   -3.623424112944857E-1
 9.937801279500000E9     4.605239536893223E-1   -1.388545603783433E-1   -4.955558260108005E-3   -4.844013043817788E-3   -5.126314260968319E-3   -4.892479275769108E-3    3.255447115915496E-1   -3.626809417202144E-1
 9.937802243400000E9     4.604715626474900E-1   -1.389309887944646E-1   -5.020813109625434E-3   -4.936691407073241E-3   -5.140345319715218E-3   -4.924051338244736E-3    3.251695636600772E-1   -3.629832779231926E-1
 9.937803207299999E9     4.605554262044758E-1   -1.390306502364204E-1   -5.072707566956045E-3   -4.975283859383538E-3   -5.236573986288081E-3   -4.948262501338241E-3    3.247497587228770E-1   -3.632776149332093E-1
 9.937804171200001E9     4.604829473593871E-1   -1.390666437850462E-1   -5.144180226281253E-3   -5.002755977918977E-3   -5.288179875328183E-3   -5.005941120095180E-3    3.238374167275189E-1   -3.635411660780320E-1
 9.937805135100000E9     4.603689458750918E-1   -1.391293952775932E-1   -5.184135965144696E-3   -5.054878959341152E-3   -5.366227513491283E-3   -5.054292444975260E-3    3.234389783739569E-1   -3.637399898231287E-1
 9.937806099000000E9     4.602995938592818E-1   -1.391430438838463E-1   -5.241548583083233E-3   -5.098889767539981E-3   -5.416687119396034E-3   -5.093464163822895E-3    3.228218438928664E-1   -3.640683010763813E-1
 9.937807062900000E9     4.604481561504754E-1   -1.391708577317112E-1   -5.340057760378582E-3   -5.133535427597984E-3   -5.505196404534119E-3   -5.159575606328463E-3    3.223583212515341E-1   -3.644065002443057E-1
 9.937808026799999E9     4.603818929446064E-1   -1.392846524783857E-1   -5.402243252494436E-3   -5.223586169926077E-3   -5.545601484120924E-3   -5.176758276602807E-3    3.215248022849709E-1   -3.648327780302101E-1
 9.937808990700001E9     4.602256465808093E-1   -1.394938235754457E-1   -5.431053162747316E-3   -5.188237804496620E-3   -5.596399346055980E-3   -5.212267427928555E-3    3.209796871410946E-1   -3.650020972347713E-1
 9.937809954600000E9     4.602511166855403E-1   -1.395573489296068E-1   -5.527431803910150E-3   -5.254292260616668E-3   -5.647474234025032E-3   -5.262659391485374E-3    3.204298746627427E-1   -3.653401208911742E-1
 9.937810918500000E9     4.601227020922062E-1   -1.395849240000458E-1   -5.566716259853970E-3   -5.299649551063519E-3   -5.738101400697477E-3   -5.285293258046629E-3    3.199718091295213E-1   -3.655521780802676E-1
 9.937811882400000E9     4.601419479900847E-1   -1.396145062029618E-1   -5.662196264705893E-3   -5.336125877487156E-3   -5.823578814123698E-3   -5.343137886326264E-3    3.191655779352917E-1   -3.661338928775849E-1
 9.937812846299999E9     4.601051842082042E-1   -1.395110281567903E-1   -5.728843227096373E-3   -5.396363176115814E-3   -5.887355584927717E-3   -5.381446892521542E-3    3.185706435831487E-1   -3.663380803407491E-1
 9.937813810200001E9     4.600428393272413E-1   -1.396855729714146E-1   -5.773234124830352E-3   -5.460826455330271E-3   -5.930625766410827E-3   -5.456797437249128E-3    3.180138783699809E-1   -3.667703485454106E-1
 9.937814774100000E9     4.601010102903069E-1   -1.398235035162083E-1   -5.849449126364447E-3   -5.475844280907920E-3   -6.022829069152022E-3   -5.490475738504400E-3    3.171964294857308E-1   -3.670646448000694E-1
 9.937815738000000E9     4.601368003366194E-1   -1.398477087352825E-1   -5.918681299742392E-3   -5.529535152481168E-3   -6.103710222987817E-3   -5.551629334433488E-3    3.164878419124036E-1   -3.672896423542709E-1
