#  HZ   S   RI   R     50.00 
! Rohde & Schwarz Vector Network Analyzer 
! Rohde-Schwarz,ZNB20-2Port,1311601062101988,3.16
! Created: UTC 3/20/2024, 10:59:01 PM
! freq[Hz]                re:S11                  im:S11                  re:S21                  im:S21                  re:S12                  im:S12                  re:S22                  im:S22
 9.937363840000000E9     4.703426628266152E-1   -1.105510909859796E-1   -7.928226689227086E-4   -8.856497393661933E-4   -8.155489747349663E-4   -9.036422378094506E-4    3.843964102228045E-1   -3.153766078094640E-1
 9.937365690250000E9     4.703840120097720E-1   -1.105977091897900E-1   -7.987460640710046E-4   -8.941122782462239E-4   -8.291008103156064E-4   -8.996573540264233E-4    3.840235047382829E-1   -3.154812498931454E-1
 9.937367540500000E9     4.701369051352144E-1   -1.107591209511505E-1   -8.229848554739694E-4   -9.162100971085473E-4   -8.378335823990481E-4   -9.162863837353098E-4    3.838251505411817E-1   -3.155840329950064E-1
 9.937369390750000E9     4.702859479770600E-1   -1.109693323057676E-1   -8.140095659521772E-4   -9.008884718650692E-4   -8.588596100579121E-4   -9.218581633748628E-4    3.838127327477506E-1   -3.158076201413167E-1
 9.937371241000000E9     4.701588640889454E-1   -1.110841675445525E-1   -8.735039143725975E-4   -9.408616846113392E-4   -8.568531338210390E-4   -9.403186923562233E-4    3.837312252333489E-1   -3.160031293085571E-1
 9.937373091250000E9     4.701210443262617E-1   -1.111828402356359E-1   -8.687671763393225E-4   -9.495156504585350E-4   -8.521803564773305E-4   -9.688911976336959E-4    3.836060032823973E-1   -3.162169282120759E-1
 9.937374941500000E9     4.701065733736076E-1   -1.114235778932549E-1   -8.629626496713872E-4   -9.442984165872755E-4   -8.707061374791035E-4   -9.523988508946243E-4    3.833490992018573E-1   -3.163093639982722E-1
 9.937376791750000E9     4.700418183248093E-1   -1.114330112492427E-1   -8.639551793359469E-4   -9.553191473396733E-4   -8.832212326983308E-4   -9.331080325165887E-4    3.830207988009046E-1   -3.164599106328342E-1
 9.937378642000000E9     4.700055428468528E-1   -1.115746949486714E-1   -8.920116509421609E-4   -9.704980975560702E-4   -8.773145465904732E-4   -1.003820306945659E-3    3.827756730674964E-1   -3.165302501619689E-1
 9.937380492250000E9     4.700521059048529E-1   -1.116132885249887E-1   -8.753218368467651E-4   -9.973471193980093E-4   -8.767776376860766E-4   -9.868995239326567E-4    3.828173559726643E-1   -3.168956925250839E-1
 9.937382342500000E9     4.699362261285671E-1   -1.118266986466391E-1   -9.012324646202785E-4   -1.004017100895931E-3   -8.911332284817880E-4   -1.002972663238148E-3    3.824409804261960E-1   -3.168350421176190E-1
 9.937384192750000E9     4.699789088365021E-1   -1.119615865307802E-1   -9.116575186053913E-4   -1.004685277686707E-3   -9.459642110351244E-4   -9.985773989455958E-4    3.822111137646783E-1   -3.172375995624919E-1
 9.937386043000000E9     4.698952806755254E-1   -1.119878055231719E-1   -9.207981003351293E-4   -1.040615380312919E-3   -9.375620460651575E-4   -1.009641917723390E-3    3.821400707474868E-1   -3.172677313089918E-1
 9.937387893250000E9     4.697955230344763E-1   -1.121949723041034E-1   -9.505743115237837E-4   -1.039377489239747E-3   -9.773364025830896E-4   -1.011612693675458E-3    3.818661797346997E-1   -3.176182676994703E-1
 9.937389743500000E9     4.698639169400459E-1   -1.123378445168209E-1   -9.620896503727048E-4   -1.060618015887768E-3   -9.559887555903267E-4   -1.019461543801744E-3    3.816527615948844E-1   -3.176804890726526E-1
 9.937391593750000E9     4.698443850644011E-1   -1.123574052985687E-1   -9.397693523653875E-4   -1.073865094962668E-3   -9.807098681317290E-4   -1.063136927955119E-3    3.815655000111330E-1   -3.176922772547708E-1
 9.937393444000000E9     4.697128894594790E-1   -1.125311579240305E-1   -9.544724687381563E-4   -1.079426326670197E-3   -1.014621671952727E-3   -1.042733338549762E-3    3.814570159375575E-1   -3.179360487477241E-1
 9.937395294250000E9     4.697493482836995E-1   -1.127424710047118E-1   -9.784958507097299E-4   -1.068911495950088E-3   -1.022468180443715E-3   -1.049081097082139E-3    3.810628152396804E-1   -3.182924509974596E-1
 9.937397144500000E9     4.695234298584450E-1   -1.127773229857724E-1   -9.880891061106001E-4   -1.109123796827590E-3   -9.774176526666412E-4   -1.084867901682898E-3    3.810608483476228E-1   -3.182593719150349E-1
 9.937398994750000E9     4.695668913840222E-1   -1.130038558377609E-1   -1.030720928332814E-3   -1.113253595713779E-3   -1.020854207662728E-3   -1.095289253530101E-3    3.806243614237121E-1   -3.185350033060074E-1
 9.937400845000000E9     4.695136475179900E-1   -1.130095336496361E-1   -1.026520849122834E-3   -1.102516394180618E-3   -1.065514705440287E-3   -1.106455993987286E-3    3.804894774222287E-1   -3.186298426189310E-1
 9.937402695250000E9     4.694599819509823E-1   -1.131833712909443E-1   -1.020264889116389E-3   -1.151447158395174E-3   -1.054685412184406E-3   -1.130857662534080E-3    3.804032779449170E-1   -3.188182393709291E-1
 9.937404545500000E9     4.695675908073583E-1   -1.133240619613133E-1   -1.022796345479229E-3   -1.161543942216178E-3   -1.067039808681827E-3   -1.120518596694914E-3    3.801733212032400E-1   -3.189674667015357E-1
 9.937406395750000E9     4.694327200927902E-1   -1.133605088527268E-1   -1.029469280387431E-3   -1.152829679876706E-3   -1.081243071050658E-3   -1.130715468813616E-3    3.797478124079338E-1   -3.191896945836294E-1
 9.937408246000000E9     4.693119748079532E-1   -1.135378974842188E-1   -1.036532422848222E-3   -1.172700004891477E-3   -1.090952132316497E-3   -1.183955306981061E-3    3.800102380507892E-1   -3.191844378815355E-1
 9.937410096250000E9     4.694282760161270E-1   -1.137483917598908E-1   -1.055149208111943E-3   -1.216549772983451E-3   -1.113977555447205E-3   -1.188215289305732E-3    3.795237851654719E-1   -3.195003526801177E-1
 9.937411946500000E9     4.693425326130956E-1   -1.138127057117769E-1   -1.095636374799272E-3   -1.165465216486792E-3   -1.132986443984798E-3   -1.178183921889271E-3    3.792281805166317E-1   -3.195740649399939E-1
 9.937413796750000E9     4.692987273771652E-1   -1.140508726893736E-1   -1.088721311115871E-3   -1.226242812511116E-3   -1.164161757764635E-3   -1.202358210403888E-3    3.791487271426367E-1   -3.200315662754308E-1
 9.937415647000000E9     4.692317953874592E-1   -1.140693928630147E-1   -1.128066147898594E-3   -1.226846797092976E-3   -1.143445204166827E-3   -1.213683115193015E-3    3.788400582522310E-1   -3.201320813526818E-1
 9.937417497250000E9     4.691140444436941E-1   -1.143211541336570E-1   -1.150163285788127E-3   -1.224751217873466E-3   -1.136426711602190E-3   -1.225875184060371E-3    3.786888568823908E-1   -3.202349077905272E-1
 9.937419347500000E9     4.691520630320754E-1   -1.143355556912887E-1   -1.126484915109213E-3   -1.254401991284147E-3   -1.170128619266392E-3   -1.275431445726628E-3    3.784469449858030E-1   -3.204912276706715E-1
 9.937421197750000E9     4.691632818700471E-1   -1.145695470346082E-1   -1.163202475754201E-3   -1.236586442441843E-3   -1.231967546235298E-3   -1.272698228954979E-3    3.780823707697309E-1   -3.207397050448439E-1
 9.937423048000000E9     4.691099724763659E-1   -1.145842592293848E-1   -1.191512280911221E-3   -1.304456142305355E-3   -1.193328268081457E-3   -1.269519553609345E-3    3.779829769183899E-1   -3.206627118293838E-1
 9.937424898250000E9     4.690509480702016E-1   -1.147396054594910E-1   -1.157806722219171E-3   -1.275395519826184E-3   -1.265675971104995E-3   -1.282754391995266E-3    3.776601856534301E-1   -3.211436192180855E-1
 9.937426748500000E9     4.690603627230509E-1   -1.148249923157479E-1   -1.224824472937356E-3   -1.304837757854157E-3   -1.257034648059647E-3   -1.304504965545295E-3    3.774563704090340E-1   -3.212047547804512E-1
 9.937428598750000E9     4.689735383354933E-1   -1.149460311788462E-1   -1.251031542802365E-3   -1.315996822356262E-3   -1.271414375479943E-3   -1.317693096389556E-3    3.773226223518561E-1   -3.212543059476838E-1
 9.937430449000000E9     4.689523670309757E-1   -1.151324374864934E-1   -1.211444546079728E-3   -1.325655163819099E-3   -1.275347575766890E-3   -1.343441521979872E-3    3.769628272054045E-1   -3.213086704595869E-1
 9.937432299250000E9     4.689105277740208E-1   -1.151884050386029E-1   -1.258143847029568E-3   -1.352439437398590E-3   -1.306397152417123E-3   -1.343485702326940E-3    3.768993325979418E-1   -3.215080586440109E-1
 9.937434149500000E9     4.689484878196267E-1   -1.152968458150227E-1   -1.306040598010245E-3   -1.374959125561316E-3   -1.317076593864217E-3   -1.363585072463863E-3    3.765966463489543E-1   -3.220177933625260E-1
 9.937435999750000E9     4.688556649015971E-1   -1.154282068103605E-1   -1.279122867145268E-3   -1.410778101818796E-3   -1.301516628744412E-3   -1.383653069451658E-3    3.763516797712949E-1   -3.220771925864984E-1
 9.937437850000000E9     4.687475952480266E-1   -1.156770846713675E-1   -1.321492032359576E-3   -1.403225060262720E-3   -1.362516679029149E-3   -1.403811740509385E-3    3.760909126659153E-1   -3.222779055288829E-1
 9.937439700250000E9     4.687070493333593E-1   -1.156242118645954E-1   -1.300088060751297E-3   -1.404281392136677E-3   -1.329556251891086E-3   -1.392404472744237E-3    3.758920896631938E-1   -3.224577681208275E-1
 9.937441550500000E9     4.687236621024939E-1   -1.158006347561005E-1   -1.343644287168566E-3   -1.425924545906379E-3   -1.361967751661175E-3   -1.396814063291136E-3    3.756855894760306E-1   -3.227622093026696E-1
 9.937443400750000E9     4.685959877838730E-1   -1.159705732920338E-1   -1.373296802526599E-3   -1.425479011162134E-3   -1.382678835146074E-3   -1.411014146678078E-3    3.753883812982601E-1   -3.229064696035809E-1
 9.937445251000000E9     4.687261942891737E-1   -1.160444432695456E-1   -1.362111054526854E-3   -1.413403287578886E-3   -1.403980564949172E-3   -1.445418404935027E-3    3.752033335830684E-1   -3.231355060892742E-1
 9.937447101250000E9     4.685681481772611E-1   -1.161047660124118E-1   -1.421039501868727E-3   -1.479345682059760E-3   -1.451249345716799E-3   -1.459021272826982E-3    3.748394018407351E-1   -3.230777719899540E-1
 9.937448951500000E9     4.685185038986979E-1   -1.163257995533074E-1   -1.413335331096070E-3   -1.495678700287988E-3   -1.472226572097456E-3   -1.466413472491234E-3    3.748894108809579E-1   -3.235628894304938E-1
 9.937450801750000E9     4.685644175503076E-1   -1.164445339669097E-1   -1.420139605145861E-3   -1.526806067868237E-3   -1.463491149829955E-3   -1.505753541677461E-3    3.743430554650539E-1   -3.238667538058077E-1
 9.937452652000000E9     4.685161445316436E-1   -1.166067839695539E-1   -1.445661798729550E-3   -1.528893550803419E-3   -1.477145259390647E-3   -1.502458766506492E-3    3.740599247115599E-1   -3.239543321655677E-1
 9.937454502250000E9     4.683504272655695E-1   -1.168425007657637E-1   -1.475456365542325E-3   -1.538947424910240E-3   -1.517090050657113E-3   -1.509399580218826E-3    3.737429528163136E-1   -3.241353554212916E-1
 9.937456352500000E9     4.684005360009777E-1   -1.168988416038545E-1   -1.494557867670049E-3   -1.546349717274314E-3   -1.547140640427306E-3   -1.613530887040422E-3    3.735321124768069E-1   -3.243227096634865E-1
 9.937458202750000E9     4.683418684028916E-1   -1.169864779698561E-1   -1.514496729042261E-3   -1.563147356219972E-3   -1.549275800112765E-3   -1.544702711494993E-3    3.734571261008222E-1   -3.244828168201915E-1
 9.937460053000000E9     4.682592144568505E-1   -1.171956065003296E-1   -1.511914309181626E-3   -1.572563904780788E-3   -1.586103446895983E-3   -1.590540293299105E-3    3.730752883501729E-1   -3.245885836268254E-1
 9.937461903250000E9     4.681815148351569E-1   -1.171367933159038E-1   -1.539047909056731E-3   -1.629299097707882E-3   -1.600587826999190E-3   -1.598287797769236E-3    3.728894296487575E-1   -3.248927781450651E-1
 9.937463753500000E9     4.682505835545126E-1   -1.174220521850452E-1   -1.582716692725635E-3   -1.647078701143690E-3   -1.622091865674908E-3   -1.584389210166159E-3    3.725721601881917E-1   -3.251951922797990E-1
 9.937465603750000E9     4.682181479796921E-1   -1.174452807975297E-1   -1.616217179665509E-3   -1.653537987730062E-3   -1.629036775309140E-3   -1.646080464501282E-3    3.721291013555655E-1   -3.252940368608176E-1
 9.937467454000000E9     4.682180543062925E-1   -1.176137206250147E-1   -1.608880231169255E-3   -1.655115585740625E-3   -1.633545069158324E-3   -1.651261717402093E-3    3.721927625100982E-1   -3.254009117474048E-1
 9.937469304250000E9     4.680572355954737E-1   -1.177039458698093E-1   -1.638758143314368E-3   -1.669496627524204E-3   -1.700365760667035E-3   -1.644426907083692E-3    3.716701137445213E-1   -3.257994973089850E-1
 9.937471154500000E9     4.681643053991644E-1   -1.177727315871436E-1   -1.670078743575858E-3   -1.699009446610749E-3   -1.712004645959508E-3   -1.662180778315905E-3    3.715765625600760E-1   -3.259860975648864E-1
 9.937473004750000E9     4.681434782205034E-1   -1.178600065635185E-1   -1.686191967195414E-3   -1.698302921493627E-3   -1.755457781940172E-3   -1.717717077367992E-3    3.713154288733276E-1   -3.262586302884003E-1
 9.937474855000000E9     4.678895877581860E-1   -1.182378064412548E-1   -1.670540720271688E-3   -1.702152889211979E-3   -1.750542563656379E-3   -1.745488671380220E-3    3.708549979609626E-1   -3.263913556211578E-1
 9.937476705250000E9     4.679758145517772E-1   -1.181830841869928E-1   -1.753695034393218E-3   -1.735583628110771E-3   -1.764561654336720E-3   -1.725521894996860E-3    3.706488983433631E-1   -3.266992739751668E-1
 9.937478555500000E9     4.679817250227526E-1   -1.183493653030385E-1   -1.747041489677735E-3   -1.772649153234562E-3   -1.827714736502379E-3   -1.761722352310165E-3    3.702687967208866E-1   -3.267957640474495E-1
 9.937480405750000E9     4.679310214250924E-1   -1.183286239424162E-1   -1.746701273054748E-3   -1.786986702866619E-3   -1.821600981134113E-3   -1.797963444672209E-3    3.700071017624018E-1   -3.269902413459124E-1
 9.937482256000000E9     4.678035331859581E-1   -1.185350063098758E-1   -1.781961189002396E-3   -1.806384403958893E-3   -1.843845885618912E-3   -1.818599935694427E-3    3.695792131605823E-1   -3.270351056396165E-1
 9.937484106250000E9     4.678495108766293E-1   -1.187735658021603E-1   -1.824325612681470E-3   -1.797975394849343E-3   -1.891126470233367E-3   -1.794179931279248E-3    3.691941442016301E-1   -3.273061617242294E-1
 9.937485956500000E9     4.678291986531667E-1   -1.188573418078691E-1   -1.816680748680492E-3   -1.837824897891179E-3   -1.892548122474449E-3   -1.803199563519813E-3    3.690978643761160E-1   -3.276806418272625E-1
 9.937487806750000E9     4.677318569181969E-1   -1.189425765987944E-1   -1.878308666222035E-3   -1.858066187027819E-3   -1.925353342728487E-3   -1.852014317375853E-3    3.687131836399130E-1   -3.279176804440441E-1
 9.937489657000000E9     4.675256239871470E-1   -1.190938152960941E-1   -1.908590031793767E-3   -1.871098473689249E-3   -1.959548137208438E-3   -1.905846787963027E-3    3.683551327077126E-1   -3.281418624836557E-1
 9.937491507250000E9     4.674989276903111E-1   -1.192628736561437E-1   -1.902739011786355E-3   -1.896357030036933E-3   -1.958382121477834E-3   -1.919742914119480E-3    3.681236416187190E-1   -3.283164252992604E-1
 9.937493357500000E9     4.675723612910764E-1   -1.194167807759365E-1   -1.967047448062179E-3   -1.959687506651704E-3   -2.023533230746781E-3   -1.938313998381990E-3    3.676519763925707E-1   -3.285114504383442E-1
 9.937495207750000E9     4.675076073420939E-1   -1.194368607328123E-1   -1.974369971083849E-3   -1.923966319933286E-3   -2.038708037954618E-3   -1.965743255544100E-3    3.672645468856412E-1   -3.287359489442587E-1
 9.937497058000000E9     4.674359806872467E-1   -1.195380888083203E-1   -2.013637831231028E-3   -1.965963877683109E-3   -2.092410695205910E-3   -1.978508140657574E-3    3.671854292115121E-1   -3.289495968720221E-1
 9.937498908250000E9     4.674353086950843E-1   -1.196442777891148E-1   -2.040192149780470E-3   -1.963080949587731E-3   -2.086155374219960E-3   -2.011844902270003E-3    3.667915706898695E-1   -3.294054165123483E-1
 9.937500758500000E9     4.674960404661034E-1   -1.198484907611718E-1   -2.053017704778780E-3   -2.042647738828546E-3   -2.124912928656741E-3   -2.037896348869301E-3    3.663395715588229E-1   -3.296151802657432E-1
 9.937502608750000E9     4.673397959395764E-1   -1.200595704709706E-1   -2.070263401878174E-3   -2.051535827402896E-3   -2.155104174141855E-3   -2.018393048787838E-3    3.659681585756153E-1   -3.297632195607330E-1
 9.937504459000000E9     4.674096440482526E-1   -1.200604878196502E-1   -2.111252058206435E-3   -2.057674139561868E-3   -2.207129969675307E-3   -2.074265963923963E-3    3.655569823765963E-1   -3.298357426240736E-1
 9.937506309250000E9     4.672548043982495E-1   -1.200842243074288E-1   -2.137317481502732E-3   -2.088707752746096E-3   -2.230735729469122E-3   -2.077883565501945E-3    3.655251088748137E-1   -3.302133632982846E-1
 9.937508159500000E9     4.672049761193953E-1   -1.204734350635037E-1   -2.180285707125843E-3   -2.107402618558410E-3   -2.244838476233281E-3   -2.109376017101405E-3    3.648975026454623E-1   -3.302432411987956E-1
 9.937510009750000E9     4.672299140385953E-1   -1.203982276298159E-1   -2.238719990543147E-3   -2.125618553130153E-3   -2.279462102424298E-3   -2.095348804941342E-3    3.646542137817803E-1   -3.305057944566489E-1
 9.937511860000000E9     4.670575460192853E-1   -1.206810822652952E-1   -2.233455970786064E-3   -2.134931397591529E-3   -2.310016777674887E-3   -2.168633979363167E-3    3.642052671565801E-1   -3.308858833145256E-1
 9.937513710250000E9     4.671072790091796E-1   -1.207106306114630E-1   -2.264260693473597E-3   -2.191160622478426E-3   -2.382955686653423E-3   -2.163698501272362E-3    3.639342916656652E-1   -3.310202570879606E-1
 9.937515560500000E9     4.671288095190714E-1   -1.208521569789400E-1   -2.307609248303958E-3   -2.204153763464427E-3   -2.385179796197918E-3   -2.213975886213212E-3    3.633008732504778E-1   -3.314806877895391E-1
 9.937517410750000E9     4.669929943269469E-1   -1.209507450330050E-1   -2.357964995562171E-3   -2.208600918944085E-3   -2.411309531839788E-3   -2.254944871907022E-3    3.631265585539330E-1   -3.314052702006362E-1
 9.937519261000000E9     4.670342409142398E-1   -1.211401521175375E-1   -2.373625350098039E-3   -2.248019936078826E-3   -2.462091448450985E-3   -2.236625153972138E-3    3.625683593499238E-1   -3.319667052076822E-1
 9.937521111250000E9     4.669976843718215E-1   -1.210511118001160E-1   -2.431191873979619E-3   -2.263356445265771E-3   -2.472829940899043E-3   -2.301932410839598E-3    3.623029903695795E-1   -3.320540647148725E-1
 9.937522961500000E9     4.670031832919683E-1   -1.212855376787429E-1   -2.466291101671553E-3   -2.324863768883181E-3   -2.511590396277587E-3   -2.290439795931733E-3    3.619715725121911E-1   -3.325513381752374E-1
 9.937524811750000E9     4.666357547203261E-1   -1.215006629955941E-1   -2.478502172563905E-3   -2.327964051929280E-3   -2.566611422079265E-3   -2.348889477814762E-3    3.615242419357045E-1   -3.325497300688435E-1
 9.937526662000000E9     4.667469617605611E-1   -1.216457888224648E-1   -2.559405234223806E-3   -2.352725159150741E-3   -2.576331745967790E-3   -2.350246318474980E-3    3.609077021053866E-1   -3.328645270369232E-1
 9.937528512250000E9     4.667175496410358E-1   -1.217162272923097E-1   -2.530129489974406E-3   -2.408681769085052E-3   -2.657551507920420E-3   -2.374938225167631E-3    3.606379651200718E-1   -3.331983119171815E-1
 9.937530362500000E9     4.666601608805679E-1   -1.217821951828178E-1   -2.584308005614310E-3   -2.389449825594143E-3   -2.673088233924026E-3   -2.395713433667319E-3    3.602007657508924E-1   -3.333792179810869E-1
