#  HZ   S   RI   R     50.00 
! Rohde & Schwarz Vector Network Analyzer 
! Rohde-Schwarz,ZNB20-2Port,1311601062101988,3.16
! Created: UTC 3/20/2024, 10:59:16 PM
! freq[Hz]                re:S11                  im:S11                  re:S21                  im:S21                  re:S12                  im:S12                  re:S22                  im:S22
 9.937353130000000E9     4.705076826880502E-1   -1.100636732352975E-1   -7.746597315350721E-4   -8.283399438029239E-4   -8.127655197096606E-4   -8.616728950188972E-4    3.851165380139412E-1   -3.145328720444346E-1
 9.937355010650000E9     4.704954036672110E-1   -1.100721483963519E-1   -7.576550305015696E-4   -8.574199032041874E-4   -7.988349786459062E-4   -8.716014643455460E-4    3.849252070418776E-1   -3.147085706894119E-1
 9.937356891299999E9     4.705385381068057E-1   -1.100786302505610E-1   -7.672167262543027E-4   -8.815911500719024E-4   -8.159433100190891E-4   -8.746716540364197E-4    3.847347916629228E-1   -3.148417938324782E-1
 9.937358771950001E9     4.703619453241631E-1   -1.103072443189843E-1   -7.822603718277855E-4   -9.008904215699546E-4   -8.154975043172028E-4   -9.133907843259240E-4    3.846695448859884E-1   -3.150203149836301E-1
 9.937360652600000E9     4.702919782424044E-1   -1.103622524574144E-1   -8.281952188370280E-4   -8.981144426355224E-4   -8.127600684577124E-4   -9.004408474006210E-4    3.842190597349636E-1   -3.150605360614840E-1
 9.937362533250000E9     4.703725362489650E-1   -1.104989720327230E-1   -7.989692309359661E-4   -9.324597811222846E-4   -8.344769769513503E-4   -8.952937706864307E-4    3.841282725510079E-1   -3.151390423106636E-1
 9.937364413900000E9     4.704602508126471E-1   -1.106080965007536E-1   -8.396696801863738E-4   -8.921061464166312E-4   -8.446377012347161E-4   -9.066704452809127E-4    3.841103119882723E-1   -3.154018442048069E-1
 9.937366294549999E9     4.703739592605140E-1   -1.107296286660076E-1   -8.519432665858337E-4   -9.453146159844872E-4   -8.487973427308370E-4   -9.285713115948104E-4    3.838196479911822E-1   -3.156242323553548E-1
 9.937368175200001E9     4.702669730261206E-1   -1.109015534808696E-1   -8.312670834440937E-4   -9.251202991173630E-4   -8.772768986077888E-4   -9.140884749445678E-4    3.836794645281497E-1   -3.158355425924852E-1
 9.937370055850000E9     4.701320194904719E-1   -1.109495359212149E-1   -8.431985823776232E-4   -9.524334735736705E-4   -8.724318745677802E-4   -9.417012537089505E-4    3.836132909786156E-1   -3.161131569205667E-1
 9.937371936500000E9     4.701590867754847E-1   -1.110912766509728E-1   -8.235070217885898E-4   -9.557227432829585E-4   -9.075271749809764E-4   -9.486901349970198E-4    3.833630491996715E-1   -3.159700310383572E-1
 9.937373817150000E9     4.701142775350589E-1   -1.113713830290176E-1   -8.421166178752264E-4   -9.840036229459585E-4   -9.051770912445607E-4   -9.560048386523625E-4    3.829600910471733E-1   -3.163041097539550E-1
 9.937375697799999E9     4.701672287300706E-1   -1.113858135581954E-1   -8.900006926002770E-4   -9.681777565470376E-4   -9.031465575489283E-4   -9.904746562607470E-4    3.829281494183105E-1   -3.164949168592373E-1
 9.937377578450001E9     4.701180510273756E-1   -1.115931534545408E-1   -8.963502134238695E-4   -9.663652915689699E-4   -9.395708283589145E-4   -9.944729253566658E-4    3.826667916925295E-1   -3.164957167704851E-1
 9.937379459100000E9     4.700080697654598E-1   -1.116441888264498E-1   -8.900312224633573E-4   -1.032277133921008E-3   -9.384028827236258E-4   -1.019196403483421E-3    3.825421182042972E-1   -3.167559536279315E-1
 9.937381339750000E9     4.700369395072816E-1   -1.118055549357534E-1   -9.139539250009717E-4   -1.021282178519375E-3   -9.473247472834618E-4   -1.002876260948343E-3    3.824093561015469E-1   -3.170675731115075E-1
 9.937383220400000E9     4.699395492212734E-1   -1.119040338028649E-1   -9.433671295766391E-4   -1.001685135997425E-3   -9.539474930373521E-4   -1.018543268158743E-3    3.820547475326179E-1   -3.170564646085828E-1
 9.937385101049999E9     4.699280564723793E-1   -1.121043789155381E-1   -9.407633307076701E-4   -1.049204266913373E-3   -9.624234805923599E-4   -1.050067479060499E-3    3.820212178989307E-1   -3.175175580948461E-1
 9.937386981700001E9     4.697973862460090E-1   -1.122112864651562E-1   -9.569154780393064E-4   -1.027660149955444E-3   -9.670676227435739E-4   -1.053505458802391E-3    3.815589975655571E-1   -3.175644976544559E-1
 9.937388862350000E9     4.697380785824298E-1   -1.122746710782532E-1   -9.628144592767442E-4   -1.053639957482001E-3   -1.001853630855136E-3   -1.072162675953443E-3    3.816046923121458E-1   -3.176084199663217E-1
 9.937390743000000E9     4.696395267032922E-1   -1.123618426790006E-1   -9.691183041114223E-4   -1.089267961700989E-3   -1.027602267082100E-3   -1.056149682851412E-3    3.812692352886991E-1   -3.178200506311695E-1
 9.937392623650000E9     4.697475986684618E-1   -1.126223527071736E-1   -9.769201938452732E-4   -1.083364623360566E-3   -1.005779796072076E-3   -1.102663661345720E-3    3.811829052408040E-1   -3.180524955902342E-1
 9.937394504299999E9     4.696052752930466E-1   -1.126319380411108E-1   -1.013247769036990E-3   -1.083022662183240E-3   -1.013896659242097E-3   -1.098418319000467E-3    3.808828975161032E-1   -3.181950537267720E-1
 9.937396384950001E9     4.695847184942958E-1   -1.128111470259620E-1   -1.004576648138430E-3   -1.120028519449633E-3   -1.066623194585220E-3   -1.119522666479984E-3    3.808148649108736E-1   -3.184195085658439E-1
 9.937398265600000E9     4.695062403330271E-1   -1.130692857028245E-1   -1.029733775839411E-3   -1.105223399690653E-3   -1.073583208167380E-3   -1.106546513865423E-3    3.804842509713534E-1   -3.186014428223720E-1
 9.937400146250000E9     4.696886811351263E-1   -1.131760006168019E-1   -1.061341054667359E-3   -1.126704770395251E-3   -1.058576560429961E-3   -1.110476431301886E-3    3.802307680712850E-1   -3.186905780611941E-1
 9.937402026900000E9     4.696264390187811E-1   -1.130225406328594E-1   -1.018967599338645E-3   -1.159647749390099E-3   -1.068069568196467E-3   -1.133929791941904E-3    3.800990446701422E-1   -3.190736229958154E-1
 9.937403907549999E9     4.694071861752915E-1   -1.133361719402625E-1   -1.084991581488390E-3   -1.146930957828542E-3   -1.112121556568259E-3   -1.162843123966195E-3    3.799649392200483E-1   -3.189151075733103E-1
 9.937405788200001E9     4.694104050625236E-1   -1.134617581546153E-1   -1.097376390196947E-3   -1.177232809508165E-3   -1.128527790424398E-3   -1.168547196759903E-3    3.797354195218169E-1   -3.193958178065132E-1
 9.937407668850000E9     4.694866544731205E-1   -1.137134962463272E-1   -1.109212550460951E-3   -1.199749446513594E-3   -1.132982124632005E-3   -1.216755890091407E-3    3.794406816911499E-1   -3.194432431333229E-1
 9.937409549500000E9     4.693656955428259E-1   -1.138075178172464E-1   -1.116911611218685E-3   -1.205847273101445E-3   -1.130462813482091E-3   -1.199596349071002E-3    3.793918305409841E-1   -3.196500255704022E-1
 9.937411430150000E9     4.694368957068230E-1   -1.139391588738770E-1   -1.156940443448474E-3   -1.207002969971562E-3   -1.188109712952185E-3   -1.233449963527610E-3    3.787949309301075E-1   -3.197874861377680E-1
 9.937413310799999E9     4.692129541517305E-1   -1.139660901592767E-1   -1.168885290858397E-3   -1.227678218726587E-3   -1.174675049678434E-3   -1.226275140789916E-3    3.786967283421362E-1   -3.198987632335613E-1
 9.937415191450001E9     4.692379474927480E-1   -1.142405451848858E-1   -1.145246906926552E-3   -1.214155025825818E-3   -1.242916464198092E-3   -1.234516131282639E-3    3.786374916989257E-1   -3.202771376508135E-1
 9.937417072100000E9     4.692610149196135E-1   -1.141414898734274E-1   -1.174361685084419E-3   -1.215628341271919E-3   -1.207385560685355E-3   -1.253042863407431E-3    3.783314801042780E-1   -3.204597791376580E-1
 9.937418952750000E9     4.691656564988253E-1   -1.143697774779284E-1   -1.155991186960525E-3   -1.294423812187563E-3   -1.231620504790636E-3   -1.265067659283469E-3    3.781365734736336E-1   -3.204650156270140E-1
 9.937420833400000E9     4.691535839198442E-1   -1.145299920875015E-1   -1.178669141757326E-3   -1.300982163173649E-3   -1.245349143863354E-3   -1.297213864718128E-3    3.778781124977480E-1   -3.206939646283089E-1
 9.937422714049999E9     4.691696552885478E-1   -1.146168624613637E-1   -1.265546564562935E-3   -1.309608018019917E-3   -1.275599220758029E-3   -1.307780819411670E-3    3.776973293040238E-1   -3.209337736646088E-1
 9.937424594700001E9     4.691185760693554E-1   -1.146402294062714E-1   -1.253992459371775E-3   -1.301988360603413E-3   -1.260394623960261E-3   -1.296943652064554E-3    3.773408116161605E-1   -3.212434073303184E-1
 9.937426475350000E9     4.690145804801949E-1   -1.149532197273018E-1   -1.253304401539629E-3   -1.316547036563329E-3   -1.288992644812494E-3   -1.329734220678593E-3    3.772903826208438E-1   -3.215433687773399E-1
 9.937428356000000E9     4.689318651525813E-1   -1.149733193899015E-1   -1.287860587380455E-3   -1.358859831094236E-3   -1.293389162143924E-3   -1.342748729915538E-3    3.768788537833347E-1   -3.215802081644905E-1
 9.937430236650000E9     4.689680451764649E-1   -1.151789014668562E-1   -1.266845669500935E-3   -1.361007699711212E-3   -1.320987659175392E-3   -1.365084781823980E-3    3.767251918181847E-1   -3.217229325836273E-1
 9.937432117299999E9     4.689764281351199E-1   -1.153381502544549E-1   -1.338684916923555E-3   -1.350393577830516E-3   -1.343553738254701E-3   -1.388451159825640E-3    3.765465609655470E-1   -3.220216139955133E-1
 9.937433997950001E9     4.689321872147078E-1   -1.153415414088758E-1   -1.350603628856276E-3   -1.423496128596154E-3   -1.341118014657144E-3   -1.418404838439417E-3    3.762997053148378E-1   -3.221981450107753E-1
 9.937435878600000E9     4.689111581916522E-1   -1.154552475044951E-1   -1.373738372208038E-3   -1.387876583525578E-3   -1.410347025378967E-3   -1.403504727946741E-3    3.761454066869498E-1   -3.224032367747369E-1
 9.937437759250000E9     4.686816304522138E-1   -1.155527216751133E-1   -1.345238118802291E-3   -1.405919711220243E-3   -1.384243778533630E-3   -1.409787046640608E-3    3.756665958807044E-1   -3.224119021588763E-1
 9.937439639900000E9     4.687933801221448E-1   -1.157820787858649E-1   -1.380561973205303E-3   -1.438885277162832E-3   -1.391037301923034E-3   -1.416640187735011E-3    3.755935193581458E-1   -3.227754286505577E-1
 9.937441520549999E9     4.686758417348789E-1   -1.158566828416454E-1   -1.385560443726316E-3   -1.479054137786328E-3   -1.441105334249428E-3   -1.440780279316350E-3    3.754010225738367E-1   -3.229261777784286E-1
 9.937443401200001E9     4.686174206061045E-1   -1.160298885892423E-1   -1.400972158376903E-3   -1.466478443410482E-3   -1.455259970388278E-3   -1.473134537706231E-3    3.751069611629932E-1   -3.230382514055534E-1
 9.937445281850000E9     4.685560700519522E-1   -1.161503203076659E-1   -1.427450193589828E-3   -1.479611962842120E-3   -1.467162996821891E-3   -1.475606904755388E-3    3.746053003753493E-1   -3.232142862342006E-1
 9.937447162500000E9     4.685926711570866E-1   -1.162249865028962E-1   -1.445334249027349E-3   -1.510394923991430E-3   -1.487952484933399E-3   -1.498619702542044E-3    3.744855517959054E-1   -3.234132065003543E-1
 9.937449043150000E9     4.686135537902602E-1   -1.164377843749678E-1   -1.452008483208440E-3   -1.508067297258414E-3   -1.499458009516496E-3   -1.520760718329029E-3    3.742211264880348E-1   -3.237577223182821E-1
 9.937450923799999E9     4.685076133938204E-1   -1.165603974684835E-1   -1.491413154243540E-3   -1.515291239680398E-3   -1.502121099837318E-3   -1.540302641416891E-3    3.740040217871700E-1   -3.239653753475392E-1
 9.937452804450001E9     4.683813430548939E-1   -1.167328822496389E-1   -1.501237661754383E-3   -1.577243009926357E-3   -1.557027329712881E-3   -1.574980351028381E-3    3.737262509821773E-1   -3.239629820547622E-1
 9.937454685100000E9     4.683458053513953E-1   -1.168597839587853E-1   -1.532866328016828E-3   -1.573200215290409E-3   -1.591905255782160E-3   -1.580303887731834E-3    3.733084765055644E-1   -3.243233030917801E-1
 9.937456565750000E9     4.684431373526692E-1   -1.169428299542855E-1   -1.525360936101025E-3   -1.562117166737318E-3   -1.568616692472301E-3   -1.563516680130862E-3    3.728770579259317E-1   -3.245121165340872E-1
 9.937458446400000E9     4.682982545192725E-1   -1.170439060894006E-1   -1.552923891690507E-3   -1.569659954061462E-3   -1.620328964112879E-3   -1.603135215628761E-3    3.728213565366632E-1   -3.246551354665391E-1
 9.937460327049999E9     4.682654428259600E-1   -1.173038124953825E-1   -1.587621599681477E-3   -1.647447798203003E-3   -1.619606806726346E-3   -1.645967237811713E-3    3.724929216059709E-1   -3.249596945089500E-1
 9.937462207700001E9     4.682951074143707E-1   -1.172970741268600E-1   -1.601205450685177E-3   -1.652625104262559E-3   -1.672469237181390E-3   -1.639881216070006E-3    3.723171741555320E-1   -3.252513816495390E-1
 9.937464088350000E9     4.682442245843914E-1   -1.174154182314989E-1   -1.605168853681621E-3   -1.650050917486426E-3   -1.668722860996411E-3   -1.673853685422833E-3    3.719999291891842E-1   -3.251392098125261E-1
 9.937465969000000E9     4.681692838017918E-1   -1.177382946049651E-1   -1.656010695845904E-3   -1.705987618958457E-3   -1.687435354513895E-3   -1.685258322279715E-3    3.717054237065638E-1   -3.254928592237109E-1
 9.937467849650000E9     4.680418567480402E-1   -1.176316545691353E-1   -1.662052045581462E-3   -1.699757408407250E-3   -1.722400663393740E-3   -1.669506619665006E-3    3.714007078270072E-1   -3.255938601889289E-1
 9.937469730299999E9     4.681383462318818E-1   -1.177896736678948E-1   -1.690144735427537E-3   -1.747243948012421E-3   -1.726374658154871E-3   -1.716679706631077E-3    3.711632573387088E-1   -3.258799925030837E-1
 9.937471610950001E9     4.680140625447193E-1   -1.178419926471570E-1   -1.729637885520348E-3   -1.722545801190676E-3   -1.751737168858587E-3   -1.733601540428464E-3    3.706968741932669E-1   -3.262439441968232E-1
 9.937473491600000E9     4.678327941650471E-1   -1.180395944265217E-1   -1.733389382514776E-3   -1.766770384831339E-3   -1.789863584779023E-3   -1.757286845420629E-3    3.703962620158464E-1   -3.264257877183466E-1
 9.937475372250000E9     4.678725131128529E-1   -1.181948924580321E-1   -1.786414919642478E-3   -1.763157100236503E-3   -1.834665455043030E-3   -1.767170945456449E-3    3.700104261147674E-1   -3.266293581158521E-1
 9.937477252900000E9     4.679969399597147E-1   -1.182055948319683E-1   -1.832468225981837E-3   -1.787612287868778E-3   -1.849026147827552E-3   -1.791552767432175E-3    3.698991650284333E-1   -3.267935392021880E-1
 9.937479133549999E9     4.678580101149569E-1   -1.184302666705244E-1   -1.818773845137558E-3   -1.842657906080459E-3   -1.876348485512063E-3   -1.814987463689817E-3    3.696696996710185E-1   -3.270524281795121E-1
 9.937481014200001E9     4.679282344788568E-1   -1.186243162837614E-1   -1.908646473341192E-3   -1.834730438801373E-3   -1.918009743190965E-3   -1.822889972577136E-3    3.691666217375612E-1   -3.272769202486993E-1
 9.937482894850000E9     4.676832003863307E-1   -1.187504912273299E-1   -1.872288999051385E-3   -1.838260640134523E-3   -1.947301727206625E-3   -1.835915936113826E-3    3.689369632402987E-1   -3.274298469211585E-1
 9.937484775500000E9     4.678183446048566E-1   -1.188640951972270E-1   -1.864870730625979E-3   -1.869681409474568E-3   -1.976187179095854E-3   -1.865252180010459E-3    3.685409763143624E-1   -3.278127199295849E-1
 9.937486656150000E9     4.677476701820847E-1   -1.189637067124858E-1   -1.915240949905012E-3   -1.894143636594212E-3   -1.974465461469190E-3   -1.889303303181396E-3    3.682444813354164E-1   -3.277963309777932E-1
 9.937488536799999E9     4.675641611078281E-1   -1.191455587113639E-1   -1.940230927870255E-3   -1.938832062830882E-3   -2.003788992676956E-3   -1.907464851202170E-3    3.679533126649617E-1   -3.281870678118538E-1
 9.937490417450001E9     4.675285621560127E-1   -1.192769747510600E-1   -1.996648465077956E-3   -1.953975122483687E-3   -2.056740075665713E-3   -1.946403895312133E-3    3.675481443284072E-1   -3.286585133656689E-1
 9.937492298100000E9     4.675267594973375E-1   -1.193606946815752E-1   -2.034785484244405E-3   -1.986655012945922E-3   -2.036190317201253E-3   -1.940870482414000E-3    3.672949591784336E-1   -3.288133936401931E-1
 9.937494178750000E9     4.674641404084008E-1   -1.194803298098565E-1   -2.018954557442153E-3   -1.977973344417777E-3   -2.083931593155377E-3   -1.951200523396960E-3    3.668653155748599E-1   -3.288370526482879E-1
 9.937496059400000E9     4.674828975653580E-1   -1.194999754309019E-1   -2.077607861229654E-3   -2.006260106509938E-3   -2.103979655070532E-3   -2.008263118207089E-3    3.666550981858828E-1   -3.292079558954317E-1
 9.937497940049999E9     4.673987736447536E-1   -1.196278069758068E-1   -2.089428189379393E-3   -2.072577835716867E-3   -2.160182568235619E-3   -2.025139766023705E-3    3.660475200602470E-1   -3.293107758440612E-1
 9.937499820700001E9     4.674462697958034E-1   -1.199680936339385E-1   -2.129137202774249E-3   -2.064231777231200E-3   -2.222257527347343E-3   -2.065458768167537E-3    3.659012144517211E-1   -3.295742087616913E-1
 9.937501701350000E9     4.672614450421445E-1   -1.198760670666831E-1   -2.166341672032768E-3   -2.081014015469986E-3   -2.223897032744840E-3   -2.077471173434927E-3    3.655527403171931E-1   -3.298342400049610E-1
 9.937503582000000E9     4.672341511846895E-1   -1.201225914600574E-1   -2.212914719614695E-3   -2.118670428244041E-3   -2.251562419944982E-3   -2.095526757242721E-3    3.650855282637948E-1   -3.300448252578353E-1
 9.937505462650000E9     4.672102673343658E-1   -1.202942379072797E-1   -2.235041098769328E-3   -2.108739017988351E-3   -2.260210187404786E-3   -2.114028153562141E-3    3.648446979625630E-1   -3.303102554037426E-1
 9.937507343299999E9     4.672024765143994E-1   -1.203845561778576E-1   -2.265598100796793E-3   -2.160071929013547E-3   -2.323279517404231E-3   -2.127253236908859E-3    3.643044032820242E-1   -3.306217878581755E-1
 9.937509223950001E9     4.671111554212886E-1   -1.204990992303361E-1   -2.292168629598229E-3   -2.162588447448921E-3   -2.343363653730811E-3   -2.164552603562844E-3    3.639338037285366E-1   -3.306796199361864E-1
 9.937511104600000E9     4.672001660672840E-1   -1.205851301742661E-1   -2.304229837016011E-3   -2.197715687559535E-3   -2.378488436586272E-3   -2.204349794747316E-3    3.635039445579109E-1   -3.309572936200713E-1
 9.937512985250000E9     4.671376418356116E-1   -1.207546208687248E-1   -2.396280269261278E-3   -2.243744491204290E-3   -2.410459949496632E-3   -2.231875564109247E-3    3.632671558102071E-1   -3.313053370627664E-1
 9.937514865900000E9     4.669943354174078E-1   -1.209126196974768E-1   -2.391908784843550E-3   -2.240209804131329E-3   -2.462010578596012E-3   -2.236267793523163E-3    3.627323037119324E-1   -3.314470595863988E-1
 9.937516746549999E9     4.669692592780130E-1   -1.210322278426765E-1   -2.416835319008328E-3   -2.256467890464491E-3   -2.478795311220841E-3   -2.283621359070817E-3    3.623271340841056E-1   -3.317626926317350E-1
 9.937518627200001E9     4.669252413917057E-1   -1.209068567856447E-1   -2.456037468664913E-3   -2.281690822728696E-3   -2.516432972202702E-3   -2.324493579945111E-3    3.618189676102327E-1   -3.321384999707923E-1
 9.937520507850000E9     4.669544023986784E-1   -1.212704097506227E-1   -2.480615258591551E-3   -2.307159132031080E-3   -2.561950728124965E-3   -2.326531568556377E-3    3.615999350971482E-1   -3.322762512041378E-1
 9.937522388500000E9     4.667866432528497E-1   -1.214531322516959E-1   -2.523340458911406E-3   -2.331798631935247E-3   -2.592993524268532E-3   -2.331010711338332E-3    3.610574635536260E-1   -3.325690042162024E-1
