#  HZ   S   RI   R     50.00 
! Rohde & Schwarz Vector Network Analyzer 
! Rohde-Schwarz,ZNB20-2Port,1311601062101988,3.16
! Created: UTC 3/20/2024, 10:59:23 PM
! freq[Hz]                re:S11                  im:S11                  re:S21                  im:S21                  re:S12                  im:S12                  re:S22                  im:S22
 9.937342814000000E9     4.708870219458957E-1   -1.092982129636089E-1   -7.104674162779458E-4   -8.158630474073250E-4   -7.245816144612800E-4   -7.995737177328788E-4    3.858545398079413E-1   -3.137667512884157E-1
 9.937344733025000E9     4.707533506872618E-1   -1.092461635391791E-1   -7.352178611629932E-4   -8.134685485900436E-4   -7.381076611196379E-4   -8.308816306288133E-4    3.856735297537722E-1   -3.137979644682379E-1
 9.937346652049999E9     4.708944419840856E-1   -1.094312780606486E-1   -7.468804868017012E-4   -8.210525731518196E-4   -7.681433500930085E-4   -8.285638656415256E-4    3.854670087846878E-1   -3.139259800743566E-1
 9.937348571075001E9     4.706663027270327E-1   -1.095950180862535E-1   -7.522699606477443E-4   -8.256212126272041E-4   -7.791564790503237E-4   -8.456813380125880E-4    3.854434421511991E-1   -3.141239427404687E-1
 9.937350490100000E9     4.705582184262206E-1   -1.097888272957076E-1   -7.548137001822102E-4   -8.700293531713609E-4   -8.016364934889923E-4   -8.554026752492001E-4    3.852452332253598E-1   -3.143332467574134E-1
 9.937352409125000E9     4.706002271013096E-1   -1.099491869933745E-1   -7.734437825763267E-4   -8.327097941232308E-4   -7.763916420441085E-4   -8.632031707826858E-4    3.850092732572128E-1   -3.142502003200786E-1
 9.937354328150000E9     4.706205016242093E-1   -1.098617544146140E-1   -7.886763604145064E-4   -8.763767729687153E-4   -7.733020853709648E-4   -8.601682963239975E-4    3.849435848360767E-1   -3.146228721024277E-1
 9.937356247174999E9     4.705538174740408E-1   -1.101098045713143E-1   -7.836548292365635E-4   -8.711409306056205E-4   -8.144135664345627E-4   -9.173118612744286E-4    3.846135400583253E-1   -3.149036645845371E-1
 9.937358166200001E9     4.706100587102691E-1   -1.101589312377687E-1   -7.914944876967028E-4   -9.173800836655889E-4   -8.448676362993059E-4   -8.994919120956467E-4    3.843943834884818E-1   -3.149331995441021E-1
 9.937360085225000E9     4.704249578411915E-1   -1.103082753235060E-1   -7.957711540853197E-4   -9.015473912769289E-4   -8.258420779351785E-4   -9.021120283147226E-4    3.843500225773094E-1   -3.151564970548020E-1
 9.937362004250000E9     4.703943065191125E-1   -1.104635713993995E-1   -8.364159223081328E-4   -9.008515413317248E-4   -8.191648622112152E-4   -8.915450333313892E-4    3.840325202811671E-1   -3.151570181343430E-1
 9.937363923275000E9     4.704144905807301E-1   -1.104880291078303E-1   -8.402928460747845E-4   -9.469953341692145E-4   -8.645611907637503E-4   -9.095515857548360E-4    3.839194107732527E-1   -3.156185924301890E-1
 9.937365842299999E9     4.703802125771637E-1   -1.107701563886930E-1   -8.327485991302475E-4   -9.575877765019214E-4   -8.743638469081186E-4   -9.355657234972452E-4    3.837680049490204E-1   -3.155759701563843E-1
 9.937367761325001E9     4.702453425405320E-1   -1.108931353293157E-1   -8.501099246998577E-4   -9.549422854991591E-4   -8.924752309811677E-4   -9.693791936107944E-4    3.835470638135699E-1   -3.158230818118708E-1
 9.937369680350000E9     4.701860493472800E-1   -1.111233108796816E-1   -8.931321562529680E-4   -9.765834067024164E-4   -8.806122034662420E-4   -9.677355344836886E-4    3.833693340877650E-1   -3.159721751192090E-1
 9.937371599375000E9     4.701663781271211E-1   -1.111342240917022E-1   -8.933134530525173E-4   -9.645623903630708E-4   -9.038235302543129E-4   -9.547470167613893E-4    3.832359735788232E-1   -3.161600597577645E-1
 9.937373518400000E9     4.701783637509399E-1   -1.112610310172736E-1   -8.879902556030647E-4   -1.023765406541565E-3   -9.400329759945999E-4   -9.827202106924096E-4    3.827187474296526E-1   -3.163378731891492E-1
 9.937375437424999E9     4.701282517776370E-1   -1.114051792707378E-1   -9.295369003504067E-4   -1.030518101810408E-3   -9.461729384255699E-4   -9.763132013677596E-4    3.828041164652902E-1   -3.165773037657167E-1
 9.937377356450001E9     4.700946727244750E-1   -1.115658119671947E-1   -9.571097276336694E-4   -1.020986980721573E-3   -9.211501633709144E-4   -9.975349996718880E-4    3.824075352773595E-1   -3.168175531360948E-1
 9.937379275475000E9     4.700369391936108E-1   -1.116616377047949E-1   -9.215164223731654E-4   -1.021192401758366E-3   -9.501044620632430E-4   -1.022557813698789E-3    3.823305439222492E-1   -3.169486462470784E-1
 9.937381194500000E9     4.700238321503818E-1   -1.119315355621139E-1   -9.473052491139741E-4   -1.054540165891972E-3   -9.378080031381588E-4   -1.009197704537309E-3    3.822580247359478E-1   -3.171170026729035E-1
 9.937383113525000E9     4.700360788300926E-1   -1.119001424473834E-1   -9.319368853445988E-4   -1.080061775856494E-3   -9.827781640991634E-4   -1.040688867220596E-3    3.818423040419082E-1   -3.171367784432634E-1
 9.937385032549999E9     4.699601155839181E-1   -1.122540688223194E-1   -9.365865852344188E-4   -1.045646650516195E-3   -9.932911392683858E-4   -1.032941189762606E-3    3.817207050600714E-1   -3.173653988659789E-1
 9.937386951575001E9     4.697617787148586E-1   -1.121659576933107E-1   -1.004753002248328E-3   -1.079345682102479E-3   -1.011554787608515E-3   -1.073084962956038E-3    3.816616854468797E-1   -3.175450660773215E-1
 9.937388870600000E9     4.698030292681941E-1   -1.124265189380809E-1   -9.922906999939049E-4   -1.079107959193054E-3   -9.974597648763999E-4   -1.076125553557843E-3    3.813257897764853E-1   -3.177583357755626E-1
 9.937390789625000E9     4.697780451048914E-1   -1.124632690344511E-1   -1.029819089676752E-3   -1.097960593778477E-3   -1.031080541807851E-3   -1.099093463397538E-3    3.810051522261424E-1   -3.178456427555981E-1
 9.937392708650000E9     4.697738753809075E-1   -1.126471006439254E-1   -1.014209066140179E-3   -1.126664965017359E-3   -1.049939712297342E-3   -1.087913016027995E-3    3.810145736203144E-1   -3.180567520227945E-1
 9.937394627674999E9     4.697208065515902E-1   -1.127393701527918E-1   -1.032101618945503E-3   -1.114299382491523E-3   -1.055645928523602E-3   -1.081650160448611E-3    3.804844989985611E-1   -3.182435574173339E-1
 9.937396546700001E9     4.697214490445263E-1   -1.128322133045490E-1   -1.043891031419021E-3   -1.154703727429870E-3   -1.116343437823023E-3   -1.105491322635459E-3    3.804938904160561E-1   -3.185172530340282E-1
 9.937398465725000E9     4.696241609667834E-1   -1.130695119365841E-1   -1.060521635048120E-3   -1.158970878654275E-3   -1.092806694663977E-3   -1.142275026702594E-3    3.804685035135779E-1   -3.186505822491388E-1
 9.937400384750000E9     4.696099354694733E-1   -1.130261859751627E-1   -1.065974996168064E-3   -1.127615001662917E-3   -1.125306958020806E-3   -1.147604383434654E-3    3.799445097264380E-1   -3.190240882815552E-1
 9.937402303775000E9     4.694855713096293E-1   -1.133060360854515E-1   -1.064158292865496E-3   -1.153168223058323E-3   -1.124488128914658E-3   -1.165712329397896E-3    3.799280252475038E-1   -3.190745867400515E-1
 9.937404222799999E9     4.696108561982621E-1   -1.133920220987134E-1   -1.124834405214437E-3   -1.208592502980050E-3   -1.113368606759302E-3   -1.199343563384540E-3    3.795572443470800E-1   -3.191047092726360E-1
 9.937406141825001E9     4.694955035836084E-1   -1.136627701119616E-1   -1.119314232058017E-3   -1.207791701189566E-3   -1.153770955285138E-3   -1.222476112692099E-3    3.792871658078565E-1   -3.193519605622187E-1
 9.937408060850000E9     4.693871119034939E-1   -1.136925002144760E-1   -1.143904266898968E-3   -1.209199441795189E-3   -1.153680500880007E-3   -1.174049841384540E-3    3.792133846968200E-1   -3.194378857709854E-1
 9.937409979875000E9     4.693502093693609E-1   -1.136429751807018E-1   -1.151700639676875E-3   -1.218024501320084E-3   -1.177623461578516E-3   -1.209933189406141E-3    3.789308670870971E-1   -3.196468301915510E-1
 9.937411898900000E9     4.692554925776313E-1   -1.139269128473401E-1   -1.181033948880592E-3   -1.254351965452707E-3   -1.183258448858650E-3   -1.254382263838579E-3    3.787784184981923E-1   -3.200209077471969E-1
 9.937413817924999E9     4.693568505146654E-1   -1.141845970419113E-1   -1.179504852084618E-3   -1.245047667542816E-3   -1.220319439880118E-3   -1.280214699961143E-3    3.785598214160008E-1   -3.202015193190523E-1
 9.937415736950001E9     4.692899328664409E-1   -1.140910633067869E-1   -1.191379358794678E-3   -1.292019857960502E-3   -1.267879468624973E-3   -1.260065403674639E-3    3.782092746265104E-1   -3.203193786866688E-1
 9.937417655975000E9     4.691585611879858E-1   -1.142422742255945E-1   -1.167818242580682E-3   -1.245594017928399E-3   -1.258310843779006E-3   -1.264309224355197E-3    3.780258499468634E-1   -3.205947494625962E-1
 9.937419575000000E9     4.691344278796037E-1   -1.145140278984327E-1   -1.207907504837821E-3   -1.311552576105420E-3   -1.276555581249254E-3   -1.292364258017103E-3    3.777806143121454E-1   -3.205892913415484E-1
 9.937421494025000E9     4.691129583379477E-1   -1.146256904944357E-1   -1.248639475922022E-3   -1.299466119032594E-3   -1.263756926717843E-3   -1.317351050042095E-3    3.777343415383665E-1   -3.207879194045999E-1
 9.937423413049999E9     4.691676313019157E-1   -1.145950514978186E-1   -1.228429482660974E-3   -1.351704706125440E-3   -1.284674762986421E-3   -1.316187169513266E-3    3.773918204861353E-1   -3.210498454545594E-1
 9.937425332075001E9     4.690680578398415E-1   -1.148602202770398E-1   -1.257502696769297E-3   -1.352267332367052E-3   -1.293566395174723E-3   -1.333101688718067E-3    3.772074243916299E-1   -3.213286370468078E-1
 9.937427251100000E9     4.690419164768841E-1   -1.148897899105714E-1   -1.265218431439383E-3   -1.357028843010424E-3   -1.314579122944469E-3   -1.346250317574118E-3    3.768540239824207E-1   -3.214961124875996E-1
 9.937429170125000E9     4.689931266978336E-1   -1.150481251943739E-1   -1.290378629446614E-3   -1.362131548530186E-3   -1.343718912594018E-3   -1.408811829000445E-3    3.765510931717746E-1   -3.217013191663486E-1
 9.937431089150000E9     4.688617345671691E-1   -1.151858446947961E-1   -1.314823244581280E-3   -1.370449162588534E-3   -1.363776085468281E-3   -1.403643956503406E-3    3.764740075877320E-1   -3.220726095163432E-1
 9.937433008174999E9     4.689367389234427E-1   -1.153233197233427E-1   -1.343046981966368E-3   -1.415033850482702E-3   -1.391860392370269E-3   -1.408689924889099E-3    3.760971339514760E-1   -3.221832130769284E-1
 9.937434927200001E9     4.688748109621883E-1   -1.155128778939135E-1   -1.351501138393129E-3   -1.429263192249745E-3   -1.378253840158651E-3   -1.425560500823477E-3    3.756886640955657E-1   -3.224263112941633E-1
 9.937436846225000E9     4.688158472281615E-1   -1.154277554127165E-1   -1.390889129774787E-3   -1.410545364502098E-3   -1.404447866287177E-3   -1.444298156931958E-3    3.755880559887653E-1   -3.226942707643987E-1
 9.937438765250000E9     4.687152380400355E-1   -1.157281181242872E-1   -1.427204308141105E-3   -1.440263011854008E-3   -1.399669106674520E-3   -1.432433429417571E-3    3.751543748994970E-1   -3.226769228060417E-1
 9.937440684275000E9     4.688750404732774E-1   -1.158012696400821E-1   -1.416331440328309E-3   -1.460447619681643E-3   -1.460106492240286E-3   -1.482595717229182E-3    3.750932009272488E-1   -3.229919461465828E-1
 9.937442603299999E9     4.686609676159199E-1   -1.159989316378818E-1   -1.417928184912646E-3   -1.477483923030238E-3   -1.483383072203559E-3   -1.461460890601230E-3    3.746175313882719E-1   -3.230381885148312E-1
 9.937444522325001E9     4.686530525195007E-1   -1.161924116904389E-1   -1.469553401718461E-3   -1.499431986477330E-3   -1.489044216238164E-3   -1.490103692050183E-3    3.744274577998415E-1   -3.234012157179162E-1
 9.937446441350000E9     4.685745327478871E-1   -1.162175459302240E-1   -1.465105921466528E-3   -1.533917758849451E-3   -1.509767742456439E-3   -1.527900644374940E-3    3.742577139998883E-1   -3.235269654946302E-1
 9.937448360375000E9     4.685049967127944E-1   -1.163117241302585E-1   -1.495393894294806E-3   -1.534496853613824E-3   -1.511557491258472E-3   -1.501165155100043E-3    3.739766272524841E-1   -3.239363644419121E-1
 9.937450279400000E9     4.685088525997788E-1   -1.165144982795157E-1   -1.525018666758874E-3   -1.516302711403327E-3   -1.558202772297085E-3   -1.535882405766158E-3    3.736471397148740E-1   -3.237826968141670E-1
 9.937452198424999E9     4.684373958013765E-1   -1.167077664835348E-1   -1.546919439169400E-3   -1.574988258579209E-3   -1.580416472165341E-3   -1.569482688487166E-3    3.734612405115406E-1   -3.240636065672322E-1
 9.937454117450001E9     4.683188534113468E-1   -1.167438059845792E-1   -1.545478568542426E-3   -1.621862026618651E-3   -1.585794264751041E-3   -1.593844941299415E-3    3.733623354908479E-1   -3.243236585910456E-1
 9.937456036475000E9     4.684915918966187E-1   -1.169146054554677E-1   -1.571370123567502E-3   -1.595285275626223E-3   -1.614837671661411E-3   -1.607485231301088E-3    3.729919996755884E-1   -3.245487938228578E-1
 9.937457955500000E9     4.683249686204674E-1   -1.169150150065723E-1   -1.596660164841001E-3   -1.620747477804507E-3   -1.633590494149772E-3   -1.593490005077056E-3    3.724710570244116E-1   -3.247312585903952E-1
 9.937459874525000E9     4.682900387323584E-1   -1.172395036474604E-1   -1.615293511271480E-3   -1.689582133970801E-3   -1.689709473155547E-3   -1.623289552597736E-3    3.722876798390019E-1   -3.251575284290718E-1
 9.937461793549999E9     4.683218121602711E-1   -1.172593325127977E-1   -1.661803162031983E-3   -1.649751914252889E-3   -1.695016155092705E-3   -1.691985659394678E-3    3.720734824082245E-1   -3.251570290176178E-1
 9.937463712575001E9     4.682005293132657E-1   -1.173385015593635E-1   -1.685003472515736E-3   -1.655340334021608E-3   -1.702056128568949E-3   -1.685586274993576E-3    3.717843083189091E-1   -3.254283043749648E-1
 9.937465631600000E9     4.681276648781889E-1   -1.176326996688319E-1   -1.669827027641446E-3   -1.683559603737964E-3   -1.729609987687457E-3   -1.686320522379153E-3    3.713007449344147E-1   -3.257565724098544E-1
 9.937467550625000E9     4.681671669115451E-1   -1.176503014852482E-1   -1.710790331649920E-3   -1.716799142673403E-3   -1.762305275843622E-3   -1.683638771683279E-3    3.709599566854752E-1   -3.259533381864827E-1
 9.937469469650000E9     4.681343980131764E-1   -1.177402262641279E-1   -1.732919827172192E-3   -1.746153719611882E-3   -1.802184033796600E-3   -1.726224296908964E-3    3.707363453747375E-1   -3.259597707730374E-1
 9.937471388674999E9     4.678675446546114E-1   -1.178481804734118E-1   -1.779299787802217E-3   -1.754703482399920E-3   -1.792993620646357E-3   -1.765239749556663E-3    3.706036895185869E-1   -3.262622188260159E-1
 9.937473307700001E9     4.680485193671901E-1   -1.180180172897105E-1   -1.813806764058929E-3   -1.791981000842827E-3   -1.826030397351222E-3   -1.763844522612592E-3    3.702111322001101E-1   -3.265253281637481E-1
 9.937475226725000E9     4.680012282715001E-1   -1.181604292411147E-1   -1.792671552498334E-3   -1.842338241740266E-3   -1.853999468977535E-3   -1.802602369820488E-3    3.700223854749113E-1   -3.267927088868712E-1
 9.937477145750000E9     4.678729926904261E-1   -1.183244444181790E-1   -1.811777609077088E-3   -1.815349126248371E-3   -1.883310361036302E-3   -1.792084017258303E-3    3.695892023921871E-1   -3.272259027042674E-1
 9.937479064775000E9     4.677329857606814E-1   -1.184550195663342E-1   -1.832835406496076E-3   -1.840265349259433E-3   -1.905806858657444E-3   -1.875095101977070E-3    3.691310161619950E-1   -3.269864391191722E-1
 9.937480983799999E9     4.679096202870882E-1   -1.185181439057304E-1   -1.888031384268894E-3   -1.823016666087177E-3   -1.953360944943207E-3   -1.849391885929217E-3    3.688831877853044E-1   -3.275699687094379E-1
 9.937482902825001E9     4.678722931360438E-1   -1.188138729194721E-1   -1.925459441689198E-3   -1.885136937094875E-3   -1.963437442466187E-3   -1.884093699100909E-3    3.685879226570262E-1   -3.277474796159942E-1
 9.937484821850000E9     4.678043926876732E-1   -1.189019328974054E-1   -1.916408853466701E-3   -1.939752034770000E-3   -2.012418105890342E-3   -1.918896897244875E-3    3.679810816795803E-1   -3.277793104670542E-1
 9.937486740875000E9     4.675710564552855E-1   -1.189199444944310E-1   -1.958323234758435E-3   -1.951823293492833E-3   -2.028775642945329E-3   -1.912326023782451E-3    3.678514678230446E-1   -3.280580814818441E-1
 9.937488659900000E9     4.676427571240118E-1   -1.190937679901369E-1   -1.988671740104219E-3   -1.985606403432898E-3   -2.053682642986900E-3   -1.898032729768804E-3    3.675790903211248E-1   -3.283011098312811E-1
 9.937490578924999E9     4.676666454343426E-1   -1.193025782589655E-1   -2.032786652109399E-3   -1.973472872607376E-3   -2.059364641276104E-3   -1.980562004299019E-3    3.672312891961217E-1   -3.286709513220486E-1
 9.937492497950001E9     4.676934702915156E-1   -1.194505473992618E-1   -2.067776952883604E-3   -2.029679639849978E-3   -2.116439302421960E-3   -1.989716214952046E-3    3.668666602816725E-1   -3.290850574118201E-1
 9.937494416975000E9     4.674267574967483E-1   -1.194826587730190E-1   -2.077161272528041E-3   -2.013735496891184E-3   -2.165539079201874E-3   -2.023598118920274E-3    3.663307555430620E-1   -3.289639736994389E-1
 9.937496336000000E9     4.674435824404402E-1   -1.195531985805558E-1   -2.111906928907478E-3   -2.039984056287595E-3   -2.207094110769608E-3   -2.030451950203164E-3    3.663857843255917E-1   -3.292764846738140E-1
 9.937498255025000E9     4.673904797219151E-1   -1.197848254769398E-1   -2.157261748676679E-3   -2.046742127360533E-3   -2.191366655695790E-3   -2.060575201799433E-3    3.657678732829448E-1   -3.294645014546912E-1
 9.937500174049999E9     4.673990785698625E-1   -1.199194172793518E-1   -2.216125427216075E-3   -2.099416670229782E-3   -2.277809749755094E-3   -2.114123143660144E-3    3.653440333201431E-1   -3.299244818481206E-1
 9.937502093075001E9     4.673266293005329E-1   -1.200674258894822E-1   -2.187665298957097E-3   -2.137273686265124E-3   -2.275014906175230E-3   -2.149239763068239E-3    3.651415607115608E-1   -3.301488426444109E-1
 9.937504012100000E9     4.674008435016526E-1   -1.201646332175221E-1   -2.252282903898996E-3   -2.123606199605646E-3   -2.304284928030905E-3   -2.130423792847039E-3    3.646443330939854E-1   -3.302306485472041E-1
 9.937505931125000E9     4.674199385722164E-1   -1.202224539359866E-1   -2.274952236150728E-3   -2.162841915099603E-3   -2.335665089946414E-3   -2.150912380728360E-3    3.642878966923790E-1   -3.304970448426587E-1
 9.937507850150000E9     4.672420424915959E-1   -1.203859836489886E-1   -2.308262024443720E-3   -2.191602276559349E-3   -2.405015747624866E-3   -2.193938417273927E-3    3.636576832048654E-1   -3.307394736483702E-1
 9.937509769174999E9     4.672498756742039E-1   -1.205188863330570E-1   -2.366452150739525E-3   -2.201043345205702E-3   -2.427463234318795E-3   -2.232819296881909E-3    3.635202034509438E-1   -3.308838214582804E-1
 9.937511688200001E9     4.671222915664683E-1   -1.206847485890422E-1   -2.364366053504809E-3   -2.242816828945589E-3   -2.449814676199581E-3   -2.222381289934332E-3    3.629134987331613E-1   -3.313045340278060E-1
 9.937513607225000E9     4.670093452233707E-1   -1.207762885947484E-1   -2.420710471184989E-3   -2.252382160678713E-3   -2.482386924785304E-3   -2.260271540633622E-3    3.625459333372276E-1   -3.316058808657504E-1
 9.937515526250000E9     4.670238530140655E-1   -1.209051986202107E-1   -2.462464550066593E-3   -2.298541596404002E-3   -2.533918624539790E-3   -2.273588437722423E-3    3.622635637963709E-1   -3.319907569702331E-1
