#  HZ   S   RI   R     50.00 
! Rohde & Schwarz Vector Network Analyzer 
! Rohde-Schwarz,ZNB20-2Port,1311601062101988,3.16
! Created: UTC 3/20/2024, 10:59:36 PM
! freq[Hz]                re:S11                  im:S11                  re:S21                  im:S21                  re:S12                  im:S12                  re:S22                  im:S22
 9.937335436000000E9     4.710113223259486E-1   -1.087537594364314E-1   -6.987837949450644E-4   -7.974053280542000E-4   -7.389180941693824E-4   -7.929264532089326E-4    3.863841934866754E-1   -3.131273398753106E-1
 9.937337379350000E9     4.709440073358811E-1   -1.088838363331716E-1   -7.459646211056494E-4   -7.818450113310070E-4   -7.239360213404224E-4   -7.965299917412098E-4    3.860284186524683E-1   -3.131823379281967E-1
 9.937339322700001E9     4.709122181023522E-1   -1.089959472585454E-1   -7.071290956830506E-4   -8.125289027133243E-4   -7.342295349728569E-4   -8.118720501592403E-4    3.860271612412276E-1   -3.133875811890510E-1
 9.937341266049999E9     4.707936866825105E-1   -1.091006680427589E-1   -7.311883308805796E-4   -8.205527704597498E-4   -7.546179718954322E-4   -8.278287879041595E-4    3.858187506661122E-1   -3.136492002003006E-1
 9.937343209400000E9     4.707740257549247E-1   -1.092912290469145E-1   -7.614231073034945E-4   -8.099660146101080E-4   -7.641788418585087E-4   -8.375090251419971E-4    3.856149098970896E-1   -3.137309091338905E-1
 9.937345152750000E9     4.708003080608225E-1   -1.094508571677703E-1   -7.504996460416748E-4   -8.601664664163193E-4   -8.053689802706274E-4   -8.533107334989598E-4    3.853129855372144E-1   -3.139923451378094E-1
 9.937347096100000E9     4.707430203374889E-1   -1.096482615077456E-1   -7.771962784631811E-4   -8.205596892272741E-4   -8.016914411999858E-4   -8.867816052012237E-4    3.852659750347460E-1   -3.142430718050024E-1
 9.937349039450001E9     4.706161314411022E-1   -1.098648123886365E-1   -7.634458997412771E-4   -8.528208835691067E-4   -8.051520821595321E-4   -8.638794588666197E-4    3.851054461722229E-1   -3.142863938515270E-1
 9.937350982799999E9     4.706148443538453E-1   -1.098913224909404E-1   -7.884990994219230E-4   -8.592893118250205E-4   -7.808228574458390E-4   -8.726456191316867E-4    3.849598779854880E-1   -3.145217180518315E-1
 9.937352926150000E9     4.705797957470113E-1   -1.098983514257156E-1   -7.822102489251525E-4   -9.019543396334801E-4   -8.321676244816536E-4   -8.908431176800792E-4    3.847246890631253E-1   -3.147678708832756E-1
 9.937354869500000E9     4.704694462601757E-1   -1.101684022272061E-1   -7.762824672264894E-4   -8.989270562627871E-4   -8.308985334668976E-4   -9.145478652559961E-4    3.845168790383643E-1   -3.147531990763857E-1
 9.937356812850000E9     4.705514125658750E-1   -1.100706690373887E-1   -8.256715119055830E-4   -9.002909559488100E-4   -8.565843312828385E-4   -9.037887525786912E-4    3.843134314982871E-1   -3.148405752370357E-1
 9.937358756200001E9     4.703908237619734E-1   -1.102844678718754E-1   -8.445832555542254E-4   -9.295993180608549E-4   -8.279576903300231E-4   -9.112333965375285E-4    3.843059897375512E-1   -3.152925145488751E-1
 9.937360699549999E9     4.704487544791410E-1   -1.106067461744464E-1   -8.397646279945025E-4   -9.487622566617100E-4   -8.641361511725780E-4   -9.387642934950367E-4    3.839709615331968E-1   -3.152534591532582E-1
 9.937362642900000E9     4.703291005521208E-1   -1.105952328253244E-1   -8.536383267686016E-4   -9.449598660309821E-4   -8.664743708404181E-4   -9.167769650671037E-4    3.838170938091660E-1   -3.154324363940446E-1
 9.937364586250000E9     4.702125917424241E-1   -1.107439964006525E-1   -8.750148912440547E-4   -9.522153238766145E-4   -8.769244703882363E-4   -9.601060473500407E-4    3.835647887376653E-1   -3.155971415606021E-1
 9.937366529600000E9     4.702296211077350E-1   -1.108795492166409E-1   -8.309669734166181E-4   -9.940185642794161E-4   -9.179408841278402E-4   -9.647097226632542E-4    3.833061418354983E-1   -3.157359165397904E-1
 9.937368472950001E9     4.702694987486119E-1   -1.108929862330511E-1   -9.028014449180331E-4   -9.818029210691178E-4   -9.130391846286662E-4   -9.687297763790603E-4    3.832530469691095E-1   -3.160066590552634E-1
 9.937370416299999E9     4.701418099126939E-1   -1.111486327383723E-1   -8.746165763607798E-4   -1.005641945148184E-3   -9.369817234837683E-4   -1.019334944114727E-3    3.830064708416850E-1   -3.160957598878556E-1
 9.937372359650000E9     4.702251356151726E-1   -1.113608494986169E-1   -9.051081502051513E-4   -1.026051048778896E-3   -9.334996470758900E-4   -9.999653194952664E-4    3.827359842504914E-1   -3.164078808453615E-1
 9.937374303000000E9     4.701716740029113E-1   -1.114085302982155E-1   -9.454745481051769E-4   -9.929936948323635E-4   -9.395943831494058E-4   -9.976329994298117E-4    3.825888908942774E-1   -3.166680704304900E-1
 9.937376246350000E9     4.699591674147854E-1   -1.115585279324175E-1   -9.350507250117505E-4   -1.016664188226455E-3   -9.780229292680694E-4   -1.018217297452404E-3    3.822159915229434E-1   -3.168269474769804E-1
 9.937378189700001E9     4.699746562670516E-1   -1.117420419363565E-1   -9.280797076151060E-4   -1.080813720245513E-3   -9.832071595287403E-4   -1.030123699496628E-3    3.820601862579709E-1   -3.170649515286694E-1
 9.937380133049999E9     4.700462867382520E-1   -1.119151668809535E-1   -9.634967785714067E-4   -1.068811108185725E-3   -9.816603597222751E-4   -1.067921902073801E-3    3.820974336323106E-1   -3.173105328939222E-1
 9.937382076400000E9     4.699605000663181E-1   -1.119531779853885E-1   -1.006684029812093E-3   -1.072053997742257E-3   -1.016579330055804E-3   -1.035459275602422E-3    3.816841338648405E-1   -3.173693190983181E-1
 9.937384019750000E9     4.699415208712512E-1   -1.121376601228748E-1   -9.858985437836395E-4   -1.046880589769025E-3   -1.014225575095437E-3   -1.091857817984704E-3    3.814576200682794E-1   -3.172950909005769E-1
 9.937385963100000E9     4.698449627316407E-1   -1.123211478210565E-1   -1.031173662920389E-3   -1.091034546686834E-3   -1.073315945308377E-3   -1.087702199760368E-3    3.813604310365106E-1   -3.175933650453475E-1
 9.937387906450001E9     4.697998711264414E-1   -1.122777284937017E-1   -1.002051247231639E-3   -1.081158027256570E-3   -1.049806826611260E-3   -1.089218289570585E-3    3.810903390891372E-1   -3.178639842249306E-1
 9.937389849799999E9     4.697101147633609E-1   -1.124162929071588E-1   -1.010331014353324E-3   -1.124566474623415E-3   -1.057573491609818E-3   -1.130049722635204E-3    3.808876720965205E-1   -3.180562818895519E-1
 9.937391793150000E9     4.697926758645280E-1   -1.126573095786579E-1   -1.046980685458053E-3   -1.094486349303685E-3   -1.109852973241345E-3   -1.131983947478014E-3    3.806075009663605E-1   -3.181259288793614E-1
 9.937393736500000E9     4.697460435945344E-1   -1.127137224673445E-1   -1.031075533678891E-3   -1.153489412438800E-3   -1.083518478705476E-3   -1.141588732218803E-3    3.803789846271469E-1   -3.183514063272354E-1
 9.937395679850000E9     4.697276547909083E-1   -1.127552595630342E-1   -1.074212392314788E-3   -1.158545812465493E-3   -1.114319822837635E-3   -1.123232900469492E-3    3.802245283016460E-1   -3.186073652009764E-1
 9.937397623200001E9     4.696074944990403E-1   -1.129230393294208E-1   -1.081846278664144E-3   -1.148305912168897E-3   -1.120256889645683E-3   -1.140277583008362E-3    3.798716383380643E-1   -3.186730713050406E-1
 9.937399566549999E9     4.694152137062307E-1   -1.131662473163050E-1   -1.083607105495840E-3   -1.184516051891913E-3   -1.117512076914562E-3   -1.187111639086973E-3    3.796867112472277E-1   -3.190689677577003E-1
 9.937401509900000E9     4.697028058195561E-1   -1.133681176862600E-1   -1.129607087394647E-3   -1.212701141298498E-3   -1.157660296929684E-3   -1.178559537907453E-3    3.793297663830724E-1   -3.190844854245276E-1
 9.937403453250000E9     4.695082322293567E-1   -1.134175355039728E-1   -1.148497741660792E-3   -1.235098594971456E-3   -1.196217160190643E-3   -1.188670100817168E-3    3.793424153861496E-1   -3.193837579819500E-1
 9.937405396600000E9     4.695511062565317E-1   -1.135169614918044E-1   -1.114657796122715E-3   -1.215072573705190E-3   -1.171660106156881E-3   -1.217080547406072E-3    3.792132598647255E-1   -3.195599685854701E-1
 9.937407339950001E9     4.693288370528151E-1   -1.137819772775199E-1   -1.181566037410874E-3   -1.242182061199235E-3   -1.197632579323453E-3   -1.242236352512910E-3    3.788664330396918E-1   -3.197215029688397E-1
 9.937409283299999E9     4.693663102603901E-1   -1.137922377111848E-1   -1.179033931867277E-3   -1.226237798425927E-3   -1.237190153048732E-3   -1.229952822669097E-3    3.785900700163682E-1   -3.197729882468769E-1
 9.937411226650000E9     4.693591107203023E-1   -1.139531986342534E-1   -1.193291242628004E-3   -1.255329069128239E-3   -1.200834608706211E-3   -1.269689783925111E-3    3.782725124198341E-1   -3.199908517991359E-1
 9.937413170000000E9     4.692923919477345E-1   -1.141038184120370E-1   -1.171366600204280E-3   -1.301630639760212E-3   -1.229916295724850E-3   -1.276813200652488E-3    3.781064108275615E-1   -3.202783119019762E-1
 9.937415113350000E9     4.692204348161695E-1   -1.141637283875615E-1   -1.253852153112646E-3   -1.276512391006777E-3   -1.258391013859167E-3   -1.305032182092519E-3    3.779632972773251E-1   -3.204274453585498E-1
 9.937417056700001E9     4.691452574870950E-1   -1.144066446252923E-1   -1.211426210304996E-3   -1.326430448490159E-3   -1.270355430383225E-3   -1.297044765818883E-3    3.777570898491447E-1   -3.205972886936366E-1
 9.937419000049999E9     4.690608240474445E-1   -1.145252909560267E-1   -1.254250022597803E-3   -1.298547177632441E-3   -1.326201515244209E-3   -1.324291600661905E-3    3.774881796768153E-1   -3.205952922897247E-1
 9.937420943400000E9     4.690418687216810E-1   -1.145363496932420E-1   -1.280773332549896E-3   -1.338844811104644E-3   -1.291022859980388E-3   -1.336522206251510E-3    3.771729469140967E-1   -3.208978408647022E-1
 9.937422886750000E9     4.689662166077802E-1   -1.147027153825663E-1   -1.287110382416513E-3   -1.380340368913110E-3   -1.345119602792068E-3   -1.354977131002768E-3    3.769034243161489E-1   -3.211737919437574E-1
 9.937424830100000E9     4.689691104455408E-1   -1.148660663385292E-1   -1.314644339637146E-3   -1.389935476840306E-3   -1.340500454476164E-3   -1.396289331345541E-3    3.768711020152583E-1   -3.214989107418617E-1
 9.937426773450001E9     4.689225904679136E-1   -1.150296590483786E-1   -1.353460972749514E-3   -1.397782160600960E-3   -1.362138045191335E-3   -1.379543854813584E-3    3.765137775793636E-1   -3.216286353229278E-1
 9.937428716799999E9     4.689816519243545E-1   -1.152075219741534E-1   -1.356772783472247E-3   -1.412429140515629E-3   -1.378940445695711E-3   -1.381756134719663E-3    3.761065530165135E-1   -3.218777505911908E-1
 9.937430660150000E9     4.688607807034857E-1   -1.152002752485838E-1   -1.369055638977120E-3   -1.427266786529254E-3   -1.400980012304918E-3   -1.393916964461316E-3    3.759862509928085E-1   -3.220299459808108E-1
 9.937432603500000E9     4.688255209123733E-1   -1.154168892550936E-1   -1.383917672385005E-3   -1.452409722844768E-3   -1.443009685949130E-3   -1.436325568195478E-3    3.756196109612400E-1   -3.224203888834546E-1
 9.937434546850000E9     4.687509717492743E-1   -1.154970003483097E-1   -1.411562493268592E-3   -1.473615380272645E-3   -1.433817555130904E-3   -1.466686233309834E-3    3.753694984086129E-1   -3.224526593008424E-1
 9.937436490200001E9     4.688448139507612E-1   -1.156231620451714E-1   -1.462892037302699E-3   -1.465265819723712E-3   -1.483273375784206E-3   -1.484077428708609E-3    3.751402282619893E-1   -3.226046427150640E-1
 9.937438433549999E9     4.686404938718686E-1   -1.157859111463863E-1   -1.447349722793293E-3   -1.491668312489194E-3   -1.487935551808435E-3   -1.455664315593677E-3    3.749495592039429E-1   -3.227177086044601E-1
 9.937440376900000E9     4.687003741331053E-1   -1.158712170418476E-1   -1.465951263839965E-3   -1.508695560822635E-3   -1.505485901381551E-3   -1.501571710117874E-3    3.746414110640225E-1   -3.231331337868940E-1
 9.937442320250000E9     4.685370069100628E-1   -1.160756420043466E-1   -1.498752522333424E-3   -1.488956982637038E-3   -1.495160489513565E-3   -1.523094915938364E-3    3.740188143306148E-1   -3.233341724190359E-1
 9.937444263600000E9     4.685528263349275E-1   -1.161775428340263E-1   -1.518785330918343E-3   -1.516344955170823E-3   -1.561360706825858E-3   -1.549911304844740E-3    3.741533881706152E-1   -3.234529773415005E-1
 9.937446206950001E9     4.685520752791731E-1   -1.163642264829416E-1   -1.507686011034701E-3   -1.565619197806802E-3   -1.566792920672813E-3   -1.548780057784878E-3    3.738300115273037E-1   -3.236958430248207E-1
 9.937448150299999E9     4.685311095279812E-1   -1.162614353714149E-1   -1.543377239355713E-3   -1.595706469738188E-3   -1.611670446826711E-3   -1.554733426948813E-3    3.736432170937282E-1   -3.238731217251738E-1
 9.937450093650000E9     4.684757214065581E-1   -1.167639405948623E-1   -1.562062780814882E-3   -1.611710634785712E-3   -1.608077878423925E-3   -1.587853133597418E-3    3.729817092518324E-1   -3.241991916817131E-1
 9.937452037000000E9     4.684032942010702E-1   -1.166547877060431E-1   -1.597453952033420E-3   -1.586420657233320E-3   -1.650548408999491E-3   -1.591168320828280E-3    3.730068248080143E-1   -3.243594215374137E-1
 9.937453980350000E9     4.684048780493614E-1   -1.169231047016774E-1   -1.634659112641125E-3   -1.650606983160111E-3   -1.636987859292080E-3   -1.634177154764475E-3    3.724565856410573E-1   -3.246998420365791E-1
 9.937455923700001E9     4.682440923348800E-1   -1.168202980677202E-1   -1.627991044325691E-3   -1.623056676895719E-3   -1.678626666796161E-3   -1.651815828331484E-3    3.722827250203624E-1   -3.245332322401004E-1
 9.937457867049999E9     4.682453735549377E-1   -1.169713049846757E-1   -1.663030769463624E-3   -1.627821977884415E-3   -1.736137749690148E-3   -1.687309926753344E-3    3.719205632477695E-1   -3.248644938800460E-1
 9.937459810400000E9     4.681948908519028E-1   -1.173069836739857E-1   -1.684127922726477E-3   -1.682542045347535E-3   -1.747052612813310E-3   -1.666776838222857E-3    3.716902407836388E-1   -3.252530838575922E-1
 9.937461753750000E9     4.682157165380969E-1   -1.173544843915238E-1   -1.724674813575167E-3   -1.704512868378837E-3   -1.731398214504299E-3   -1.694386236753320E-3    3.714600296265803E-1   -3.254807274271864E-1
 9.937463697100000E9     4.682068255749483E-1   -1.174387807421885E-1   -1.724451975344282E-3   -1.722193521582486E-3   -1.788038532925420E-3   -1.739085066468016E-3    3.710741100823365E-1   -3.255731617348481E-1
 9.937465640450001E9     4.682796953173678E-1   -1.175873605535887E-1   -1.738155056103324E-3   -1.721038920159245E-3   -1.796471020933238E-3   -1.719670872344009E-3    3.707869170355455E-1   -3.259227158626788E-1
 9.937467583799999E9     4.681527636401704E-1   -1.175844687255137E-1   -1.772460824720197E-3   -1.731667787417619E-3   -1.834880775429538E-3   -1.755233298642522E-3    3.705411091171580E-1   -3.262232611188524E-1
 9.937469527150000E9     4.679991944492450E-1   -1.179113051658748E-1   -1.795636573425151E-3   -1.806865464066026E-3   -1.847710192213832E-3   -1.777970438418154E-3    3.701651610204392E-1   -3.261977503259441E-1
 9.937471470500000E9     4.678775458967647E-1   -1.180340983818378E-1   -1.835123406217117E-3   -1.796630921128334E-3   -1.855392843976414E-3   -1.775004514849366E-3    3.698115453797060E-1   -3.264144902367626E-1
 9.937473413850000E9     4.679794737095678E-1   -1.181292946801718E-1   -1.848428533337572E-3   -1.843019766238460E-3   -1.891268256565099E-3   -1.802222093915032E-3    3.695243150492710E-1   -3.268700503881747E-1
 9.937475357200001E9     4.679707732699797E-1   -1.182441087626335E-1   -1.891770329672032E-3   -1.845303526865130E-3   -1.947932794716788E-3   -1.826877423634790E-3    3.693293077181111E-1   -3.269870679022646E-1
 9.937477300549999E9     4.678556280801320E-1   -1.183154735889038E-1   -1.887774926023641E-3   -1.861460369590024E-3   -1.972031347054698E-3   -1.864248382123917E-3    3.688678744330465E-1   -3.271971283400069E-1
 9.937479243900000E9     4.678945682302026E-1   -1.184761379684441E-1   -1.928619011911514E-3   -1.878870805572356E-3   -1.978105010782527E-3   -1.927755601533390E-3    3.686387047744600E-1   -3.274113844247361E-1
 9.937481187250000E9     4.676946896469438E-1   -1.186550826159139E-1   -1.939256804720965E-3   -1.908954865962331E-3   -2.033077025129929E-3   -1.879149022061847E-3    3.681811601937863E-1   -3.276752451393871E-1
 9.937483130600000E9     4.678502357411877E-1   -1.188261682387462E-1   -1.974427214089303E-3   -1.934781508386412E-3   -2.042842470829650E-3   -1.933809285126990E-3    3.678776150213004E-1   -3.279303416992708E-1
 9.937485073950001E9     4.676445679135547E-1   -1.187936868170575E-1   -2.068232827798954E-3   -1.907238715559262E-3   -2.096742140737073E-3   -1.948071189624866E-3    3.676752909311229E-1   -3.279885383136890E-1
 9.937487017299999E9     4.677098713030608E-1   -1.191522224788015E-1   -2.025460979351326E-3   -1.986587146886020E-3   -2.091210050298347E-3   -1.997966511913786E-3    3.671504153702559E-1   -3.285916955865829E-1
 9.937488960650000E9     4.676575753704494E-1   -1.191908996689308E-1   -2.090770999094232E-3   -2.021521108589831E-3   -2.145655006362799E-3   -1.994183758301562E-3    3.666362833289557E-1   -3.286707922740209E-1
 9.937490904000000E9     4.676044925634968E-1   -1.194116803341216E-1   -2.113807279160820E-3   -2.020303389611846E-3   -2.161695634671983E-3   -2.033207263887622E-3    3.664224348224240E-1   -3.288442257421043E-1
 9.937492847350000E9     4.674736574948388E-1   -1.194571651528337E-1   -2.129506645490397E-3   -2.060955558712814E-3   -2.218611346130408E-3   -2.040630172766957E-3    3.661149318555096E-1   -3.293952439195425E-1
 9.937494790700001E9     4.673895623877214E-1   -1.195491245135669E-1   -2.191879949458243E-3   -2.039743034050180E-3   -2.287160997839818E-3   -2.039084299236845E-3    3.657345698026375E-1   -3.294592230677143E-1
 9.937496734049999E9     4.675347271019188E-1   -1.194576085011530E-1   -2.202842236055614E-3   -2.071939981639248E-3   -2.261931661641068E-3   -2.125227556131669E-3    3.650894586954646E-1   -3.295068974258758E-1
 9.937498677400000E9     4.673554188019943E-1   -1.197177982209369E-1   -2.231917866090013E-3   -2.105679878362761E-3   -2.297491085407247E-3   -2.130423053692998E-3    3.648178116479323E-1   -3.297943616477251E-1
 9.937500620750000E9     4.673390439151835E-1   -1.199796298004780E-1   -2.257829181867081E-3   -2.179130897720542E-3   -2.348197262756417E-3   -2.132201453007021E-3    3.644160696590124E-1   -3.300146947078410E-1
 9.937502564100000E9     4.673432610989903E-1   -1.201660493921922E-1   -2.310351989565189E-3   -2.187605083953621E-3   -2.383038880738410E-3   -2.165509791472567E-3    3.639981140542265E-1   -3.302904734145488E-1
 9.937504507450001E9     4.672384323991677E-1   -1.203112473059367E-1   -2.348620608155499E-3   -2.184142516255326E-3   -2.416775906246075E-3   -2.197732633968074E-3    3.636332658979674E-1   -3.305757660642574E-1
 9.937506450799999E9     4.672676413114134E-1   -1.203040994503435E-1   -2.373238373648836E-3   -2.196565671478357E-3   -2.443895255829937E-3   -2.224682083055094E-3    3.633861865919490E-1   -3.309220732373157E-1
 9.937508394150000E9     4.672806884330410E-1   -1.205199496320400E-1   -2.433871278785090E-3   -2.246223955607058E-3   -2.454476228051073E-3   -2.266599715484648E-3    3.628040131479823E-1   -3.311016053996457E-1
 9.937510337500000E9     4.670164612676636E-1   -1.205931242485327E-1   -2.466603304488329E-3   -2.261214025129215E-3   -2.532699030360065E-3   -2.263021403375070E-3    3.622859739225107E-1   -3.311771300771117E-1
