#  HZ   S   RI   R     50.00 
! Rohde & Schwarz Vector Network Analyzer 
! Rohde-Schwarz,ZNB20-2Port,1311601062101988,3.16
! Created: UTC 3/20/2024, 10:59:43 PM
! freq[Hz]                re:S11                  im:S11                  re:S21                  im:S21                  re:S12                  im:S12                  re:S22                  im:S22
 9.937333083000000E9     4.709202307647372E-1   -1.085966199788624E-1   -7.065940112493316E-4   -8.276916719648392E-4   -7.244297045050638E-4   -7.876260813038386E-4    3.863137748231873E-1   -3.130357521440702E-1
 9.937335011799999E9     4.708452037828973E-1   -1.086462798427682E-1   -7.439648178400375E-4   -8.214213603628599E-4   -7.689956453239127E-4   -8.058496598536699E-4    3.862940499393886E-1   -3.132342208483603E-1
 9.937336940600000E9     4.708719303607085E-1   -1.088557004513117E-1   -7.527049060303111E-4   -8.242200130665510E-4   -7.641506035092033E-4   -8.182861549192663E-4    3.860755384247911E-1   -3.132089114991363E-1
 9.937338869400000E9     4.707772516822717E-1   -1.090467101210135E-1   -7.547003294650256E-4   -8.416268997688362E-4   -7.625421947650719E-4   -7.959401774815985E-4    3.857909687332992E-1   -3.134189737713277E-1
 9.937340798200001E9     4.707406074176004E-1   -1.091694866745117E-1   -7.634809207029530E-4   -8.460129529860209E-4   -7.869259399173690E-4   -8.098057458393269E-4    3.856659676766462E-1   -3.136924462496837E-1
 9.937342727000000E9     4.707058070790103E-1   -1.093184284180297E-1   -7.671563226258749E-4   -8.740054468430864E-4   -7.988539460388196E-4   -8.627531380552882E-4    3.854261439791476E-1   -3.137807977781230E-1
 9.937344655799999E9     4.707176225198999E-1   -1.092744661174189E-1   -7.527702178824606E-4   -9.026458461942949E-4   -8.182357210861715E-4   -8.553176224972105E-4    3.852353059290195E-1   -3.140845305469227E-1
 9.937346584600000E9     4.706334834606489E-1   -1.096045953430757E-1   -7.898572240455418E-4   -8.494580198800122E-4   -8.140849079283564E-4   -8.683687075424656E-4    3.852588330429013E-1   -3.144409104980631E-1
 9.937348513400000E9     4.706347577910079E-1   -1.096145471064556E-1   -7.720367007946692E-4   -8.708815135816329E-4   -8.053458230170115E-4   -8.593813245732631E-4    3.850316934530718E-1   -3.142534954851922E-1
 9.937350442200001E9     4.706610852851582E-1   -1.098105100633531E-1   -8.261760097970717E-4   -9.078224620918547E-4   -8.507051456776688E-4   -8.980346301276684E-4    3.846473645099962E-1   -3.144392730721995E-1
 9.937352371000000E9     4.705829008633768E-1   -1.098772234378715E-1   -7.873473025159926E-4   -9.023841311775780E-4   -8.465948937999797E-4   -8.951251545869518E-4    3.845498052378230E-1   -3.147511687266748E-1
 9.937354299799999E9     4.703320931208592E-1   -1.101155852359228E-1   -8.487475693426925E-4   -9.050444802155820E-4   -8.405464534209617E-4   -9.207150873516293E-4    3.841924456386955E-1   -3.149810520083903E-1
 9.937356228600000E9     4.704868322949346E-1   -1.101452998919909E-1   -8.237624884939307E-4   -9.272479062267058E-4   -8.617546926943858E-4   -9.178030581065811E-4    3.841478326881481E-1   -3.150688157251251E-1
 9.937358157400000E9     4.703663703689878E-1   -1.101880592128369E-1   -8.592171808683550E-4   -9.344503562494556E-4   -8.730639218991065E-4   -9.448671735816748E-4    3.841119432807993E-1   -3.151905071461664E-1
 9.937360086200001E9     4.704650786483853E-1   -1.105617363779366E-1   -8.724603762056399E-4   -9.543861573844401E-4   -8.662241804214812E-4   -9.582020908426666E-4    3.838156938383322E-1   -3.154310993360647E-1
 9.937362015000000E9     4.704275311554326E-1   -1.105329450401919E-1   -8.827784132090540E-4   -9.534480924464757E-4   -8.718475407760532E-4   -9.507041125646816E-4    3.836619353672963E-1   -3.155592920940420E-1
 9.937363943799999E9     4.703812052001606E-1   -1.105182567624064E-1   -8.870399063878302E-4   -9.533655867773279E-4   -9.108312204220031E-4   -9.692764451320599E-4    3.834102239037536E-1   -3.156822506089795E-1
 9.937365872600000E9     4.701318249329864E-1   -1.108440295612212E-1   -9.153471408946708E-4   -9.870849991013171E-4   -9.094780153811644E-4   -9.703185837852368E-4    3.832271649587760E-1   -3.158080213321686E-1
 9.937367801400000E9     4.701993250008587E-1   -1.110153575658420E-1   -9.116854831506749E-4   -9.738137399197820E-4   -9.499066071784241E-4   -1.005439984876468E-3    3.831709903934372E-1   -3.162090152418402E-1
 9.937369730200001E9     4.701305426112749E-1   -1.111054506537062E-1   -9.387940441742535E-4   -1.037484511666389E-3   -9.443008878591585E-4   -9.966393664616829E-4    3.830347031446697E-1   -3.161311778473381E-1
 9.937371659000000E9     4.700654805113733E-1   -1.111561606138860E-1   -9.318784174891494E-4   -1.017487072584517E-3   -9.708743796508071E-4   -1.019721704935490E-3    3.827735232214278E-1   -3.164090498829001E-1
 9.937373587799999E9     4.701345145375448E-1   -1.113000718585197E-1   -9.455555341168978E-4   -1.055861401645050E-3   -9.663376614652190E-4   -1.013623104764069E-3    3.824191790855453E-1   -3.166118469018283E-1
 9.937375516600000E9     4.700357662974456E-1   -1.115611540481705E-1   -9.753657128163169E-4   -1.027764114168501E-3   -9.650479776302199E-4   -1.053458053707536E-3    3.820475008372407E-1   -3.166877897620729E-1
 9.937377445400000E9     4.700365045136497E-1   -1.116754091162339E-1   -9.708264096677673E-4   -1.056343302400098E-3   -1.014171428711756E-3   -1.055878301829576E-3    3.820605682413576E-1   -3.168728309527803E-1
 9.937379374200001E9     4.699226270898799E-1   -1.119380979007902E-1   -9.781494182925649E-4   -1.064586708864676E-3   -1.006744839391102E-3   -1.096703415389310E-3    3.818373227153302E-1   -3.173604510301944E-1
 9.937381303000000E9     4.698505449308719E-1   -1.118854407799409E-1   -1.003171703577160E-3   -1.096515062716025E-3   -1.037328525991384E-3   -1.076047042580482E-3    3.815553162244916E-1   -3.173320432748483E-1
 9.937383231799999E9     4.700615646878724E-1   -1.120530382462164E-1   -9.890594455179897E-4   -1.079750176294079E-3   -1.043841418878204E-3   -1.097856442470829E-3    3.812339294142525E-1   -3.175715595880022E-1
 9.937385160600000E9     4.699538824271210E-1   -1.121774782157368E-1   -1.043393883407689E-3   -1.060552093538739E-3   -1.046395184251438E-3   -1.092517764079386E-3    3.811811799330417E-1   -3.176204345359420E-1
 9.937387089400000E9     4.697689247506934E-1   -1.123670700676627E-1   -1.064336519293044E-3   -1.118137843050362E-3   -1.073224408567354E-3   -1.142082618444515E-3    3.809539075374090E-1   -3.179859602625615E-1
 9.937389018200001E9     4.698432585115563E-1   -1.123929792438951E-1   -1.014054423675981E-3   -1.130579199072733E-3   -1.089071731680513E-3   -1.144404454945411E-3    3.807059998087802E-1   -3.180217470709189E-1
 9.937390947000000E9     4.698129808280658E-1   -1.126501873946263E-1   -1.024561142935534E-3   -1.145538337435247E-3   -1.121300101416286E-3   -1.142535162974296E-3    3.806381849863421E-1   -3.182005474252776E-1
 9.937392875799999E9     4.696926152408525E-1   -1.126995182420680E-1   -1.096134982839466E-3   -1.149180114174316E-3   -1.117087771431838E-3   -1.133800681956071E-3    3.802595659564648E-1   -3.184356387868701E-1
 9.937394804600000E9     4.697111650654211E-1   -1.128378099428756E-1   -1.108117279431706E-3   -1.189721070909179E-3   -1.115692479909126E-3   -1.157046748305634E-3    3.799394798686008E-1   -3.184999126374885E-1
 9.937396733400000E9     4.696188092651928E-1   -1.129001725766401E-1   -1.138389658298309E-3   -1.183046501649496E-3   -1.154691631540687E-3   -1.184716292140478E-3    3.797957490516919E-1   -3.186990737143888E-1
 9.937398662200001E9     4.695558499828402E-1   -1.131021196587193E-1   -1.113656956577280E-3   -1.200242789665693E-3   -1.153941559624037E-3   -1.189450559845764E-3    3.794858575170844E-1   -3.191026345349791E-1
 9.937400591000000E9     4.695316776896231E-1   -1.131806418563682E-1   -1.117089708535158E-3   -1.230248280586100E-3   -1.159336555290341E-3   -1.186214022342382E-3    3.793489703631852E-1   -3.191597060580354E-1
 9.937402519799999E9     4.694577240821803E-1   -1.132650408229004E-1   -1.151590320073358E-3   -1.225552177736554E-3   -1.190663127936101E-3   -1.244950172872157E-3    3.794046909397161E-1   -3.192558902389362E-1
 9.937404448600000E9     4.695229361475237E-1   -1.134357511739030E-1   -1.134568616811196E-3   -1.253556793891346E-3   -1.212180110043506E-3   -1.193314400878073E-3    3.790360959947547E-1   -3.194655794092703E-1
 9.937406377400000E9     4.693434458018901E-1   -1.135659156934604E-1   -1.227382064580425E-3   -1.267566866523041E-3   -1.228839335165607E-3   -1.209614607258718E-3    3.787991973143652E-1   -3.198467408037052E-1
 9.937408306200001E9     4.694474570192901E-1   -1.136445613141521E-1   -1.190189595487319E-3   -1.276408591148146E-3   -1.239078615330314E-3   -1.262199402323226E-3    3.785554515909799E-1   -3.198246364950124E-1
 9.937410235000000E9     4.693080469598276E-1   -1.139483429558506E-1   -1.185437485306626E-3   -1.274986410158893E-3   -1.276364205112704E-3   -1.298445044025590E-3    3.782563106088923E-1   -3.201874041268207E-1
 9.937412163799999E9     4.692963590876538E-1   -1.139235142626151E-1   -1.253961302931703E-3   -1.295814964361415E-3   -1.292415111726864E-3   -1.305638629157384E-3    3.778584409803601E-1   -3.203989585221442E-1
 9.937414092600000E9     4.691289420771043E-1   -1.141572063627210E-1   -1.234500141128838E-3   -1.320914328409859E-3   -1.256360254991176E-3   -1.299291046618148E-3    3.777662116809846E-1   -3.203021503516776E-1
 9.937416021400000E9     4.693280772697197E-1   -1.142888967651150E-1   -1.296293497180867E-3   -1.299134300283973E-3   -1.296309335118545E-3   -1.338417915086652E-3    3.775246284717393E-1   -3.207386144455543E-1
 9.937417950200001E9     4.691957177251311E-1   -1.142471230681551E-1   -1.266813207533994E-3   -1.332486380115325E-3   -1.312100743059602E-3   -1.359786856739988E-3    3.772740903459263E-1   -3.208755042525067E-1
 9.937419879000000E9     4.691825634384613E-1   -1.145494340992354E-1   -1.305494111250838E-3   -1.358354228987443E-3   -1.351669438450259E-3   -1.336528168986902E-3    3.770680337133721E-1   -3.208112852570547E-1
 9.937421807799999E9     4.691737345727767E-1   -1.146470720429380E-1   -1.288565709305031E-3   -1.381768098125455E-3   -1.390552120301117E-3   -1.350024195503758E-3    3.768086123208420E-1   -3.213864765720718E-1
 9.937423736600000E9     4.689457860915622E-1   -1.146296448429882E-1   -1.368826771310549E-3   -1.385018463906707E-3   -1.395730882205783E-3   -1.358492521650773E-3    3.765622821107511E-1   -3.215623543317642E-1
 9.937425665400000E9     4.689390988571597E-1   -1.150563264422706E-1   -1.344845056264472E-3   -1.383062911941671E-3   -1.381882361229465E-3   -1.361279204988172E-3    3.763090473989316E-1   -3.214463239894049E-1
 9.937427594200001E9     4.689171784604224E-1   -1.150321921919711E-1   -1.340806610930202E-3   -1.404468727466445E-3   -1.427226553577748E-3   -1.404684056210981E-3    3.760243107158041E-1   -3.218711997580110E-1
 9.937429523000000E9     4.689669661063625E-1   -1.152319503678649E-1   -1.389101532651795E-3   -1.431437115020532E-3   -1.441080377756278E-3   -1.460060636842502E-3    3.756599110766120E-1   -3.221267457403362E-1
 9.937431451799999E9     4.688350256671251E-1   -1.153333070836381E-1   -1.388386619490459E-3   -1.452634371070830E-3   -1.439881318988189E-3   -1.448229462762787E-3    3.753070293935319E-1   -3.222190723596066E-1
 9.937433380600000E9     4.689420352841001E-1   -1.155348506355080E-1   -1.426711300387017E-3   -1.486532071484276E-3   -1.470008811014594E-3   -1.447479760208183E-3    3.752446105745539E-1   -3.224713399784516E-1
 9.937435309400000E9     4.688348247920743E-1   -1.155843851514592E-1   -1.418879674206623E-3   -1.476394125684444E-3   -1.479435416772254E-3   -1.476934507295688E-3    3.749277044828979E-1   -3.225794046532376E-1
 9.937437238200001E9     4.687733990012831E-1   -1.156532648925683E-1   -1.447303007245310E-3   -1.513228768485822E-3   -1.497613718338381E-3   -1.474288453070095E-3    3.746981334780741E-1   -3.228398122187320E-1
 9.937439167000000E9     4.687303485220937E-1   -1.159035863531663E-1   -1.497373071979379E-3   -1.509007255815825E-3   -1.556442361554479E-3   -1.498727764358844E-3    3.744196571647897E-1   -3.231632898214858E-1
 9.937441095799999E9     4.686131064025796E-1   -1.158884978553559E-1   -1.499427963520150E-3   -1.535490101966946E-3   -1.549464632791105E-3   -1.519856222751197E-3    3.741962870753093E-1   -3.234160487174481E-1
 9.937443024600000E9     4.686401036835464E-1   -1.159510870554450E-1   -1.548189839557365E-3   -1.556741247378981E-3   -1.591080957907483E-3   -1.558728584787691E-3    3.738431056048949E-1   -3.235232750169431E-1
 9.937444953400000E9     4.685958903061608E-1   -1.161524044079855E-1   -1.536810389689507E-3   -1.526832613869649E-3   -1.582778507240375E-3   -1.564875312562070E-3    3.736828327961207E-1   -3.237535032154824E-1
 9.937446882200001E9     4.686043947205145E-1   -1.162899460463942E-1   -1.553796520201515E-3   -1.592366961323830E-3   -1.631853003063002E-3   -1.542400832749193E-3    3.734196743734881E-1   -3.237675878981416E-1
 9.937448811000000E9     4.684209059734617E-1   -1.165254551637627E-1   -1.587017778453892E-3   -1.613082385058226E-3   -1.632004087669082E-3   -1.612678540812775E-3    3.729963642095953E-1   -3.241203528423782E-1
 9.937450739799999E9     4.683903004934856E-1   -1.166088471886760E-1   -1.636521751815457E-3   -1.630588961408291E-3   -1.683384649706830E-3   -1.615799819144144E-3    3.728772714455292E-1   -3.242245247127781E-1
 9.937452668600000E9     4.685758765209829E-1   -1.167516827103214E-1   -1.645149306327120E-3   -1.643098450134899E-3   -1.692106826930096E-3   -1.655017793124861E-3    3.725518259292558E-1   -3.247841749827737E-1
 9.937454597400000E9     4.683776332236202E-1   -1.167685153635975E-1   -1.630603863729835E-3   -1.666830720846449E-3   -1.729381835081873E-3   -1.699340043382374E-3    3.720691486796073E-1   -3.247853860346426E-1
 9.937456526200001E9     4.683064825356041E-1   -1.168890379383075E-1   -1.715678896355460E-3   -1.656830148498633E-3   -1.722927702042256E-3   -1.649660169811327E-3    3.718408768115914E-1   -3.250527453535824E-1
 9.937458455000000E9     4.682977233849449E-1   -1.170737795632875E-1   -1.697985900579741E-3   -1.744488516035528E-3   -1.713265231350652E-3   -1.742258805500332E-3    3.716001332071621E-1   -3.251418322222679E-1
 9.937460383799999E9     4.680798727858965E-1   -1.172668765447970E-1   -1.710127337992877E-3   -1.730659909843385E-3   -1.779579734330346E-3   -1.705088358557292E-3    3.713149433565140E-1   -3.253089931867694E-1
 9.937462312600000E9     4.682250715584380E-1   -1.172636117703043E-1   -1.763595104386238E-3   -1.765642148893332E-3   -1.829080433226238E-3   -1.738552397044217E-3    3.708985649186099E-1   -3.256398592323687E-1
 9.937464241400000E9     4.682551634000931E-1   -1.173059841282726E-1   -1.778548397473112E-3   -1.764745399093901E-3   -1.829991495288999E-3   -1.769378142421012E-3    3.706869509154137E-1   -3.259097869559469E-1
 9.937466170200001E9     4.681326873592752E-1   -1.174965622632509E-1   -1.780515279876605E-3   -1.780018274530330E-3   -1.806308635696478E-3   -1.786212073114636E-3    3.703392756467443E-1   -3.262839249323570E-1
 9.937468099000000E9     4.680508870224850E-1   -1.177464266754441E-1   -1.797596110433967E-3   -1.779383896510621E-3   -1.889504078089894E-3   -1.798300494608124E-3    3.698969126331003E-1   -3.263459177832844E-1
 9.937470027799999E9     4.679916723014362E-1   -1.179447330215604E-1   -1.867882988865359E-3   -1.797743313671141E-3   -1.916960021048715E-3   -1.834021468895467E-3    3.696527743420723E-1   -3.267023352750584E-1
 9.937471956600000E9     4.679743851869025E-1   -1.179036874033807E-1   -1.882946648343928E-3   -1.840418986577424E-3   -1.941640593731427E-3   -1.842688676755230E-3    3.695060600211525E-1   -3.267519719514539E-1
 9.937473885400000E9     4.679954600162257E-1   -1.180851841330306E-1   -1.892605728253237E-3   -1.849385684552919E-3   -1.970564939892590E-3   -1.859836223401617E-3    3.692516801139528E-1   -3.269950540143147E-1
 9.937475814200001E9     4.678511636091227E-1   -1.181463080612101E-1   -1.939422686621741E-3   -1.892026065022916E-3   -1.969073157303047E-3   -1.892149329096384E-3    3.685752513845840E-1   -3.271790178487388E-1
 9.937477743000000E9     4.679303452039040E-1   -1.184257421546952E-1   -2.001225387860152E-3   -1.888606574062211E-3   -2.043529985374221E-3   -1.899064603805228E-3    3.685669161830414E-1   -3.275300848498106E-1
 9.937479671799999E9     4.678528519249205E-1   -1.184844652891359E-1   -2.011820040497534E-3   -1.908576283214070E-3   -2.070419402710448E-3   -1.926531375675845E-3    3.679758705766505E-1   -3.277178912624928E-1
 9.937481600600000E9     4.678666733910059E-1   -1.186737291072108E-1   -2.047909413127532E-3   -1.931359883586066E-3   -2.086430871525529E-3   -1.934990173783673E-3    3.676999894784474E-1   -3.279416948849117E-1
 9.937483529400000E9     4.676484103170214E-1   -1.187455651873097E-1   -2.039317976638895E-3   -1.961904663804622E-3   -2.096236973002640E-3   -1.941371321251855E-3    3.672324450253552E-1   -3.281649511504482E-1
 9.937485458200001E9     4.677999078133515E-1   -1.189735272224065E-1   -2.071775756337148E-3   -1.985746079629049E-3   -2.170318651287539E-3   -1.986783891703211E-3    3.667756306615378E-1   -3.284989115598314E-1
 9.937487387000000E9     4.676887165010395E-1   -1.190182084453271E-1   -2.108197429451721E-3   -2.020747974267428E-3   -2.147522352320219E-3   -2.022521734287639E-3    3.665341253322353E-1   -3.287316540518662E-1
 9.937489315799999E9     4.675593578439993E-1   -1.191419989484419E-1   -2.130748584748452E-3   -1.997522807554515E-3   -2.198551085712989E-3   -2.019259764894607E-3    3.662365322541842E-1   -3.288409484870105E-1
 9.937491244600000E9     4.675632923747587E-1   -1.193007281876851E-1   -2.197912325320317E-3   -2.046635372491394E-3   -2.255279800200312E-3   -2.056494539212313E-3    3.657214174876003E-1   -3.290290926410683E-1
 9.937493173400000E9     4.675746597325755E-1   -1.195143279677660E-1   -2.215626026569706E-3   -2.087462890516253E-3   -2.297259608622491E-3   -2.081901160502423E-3    3.653815197780584E-1   -3.291988505817814E-1
 9.937495102200001E9     4.675591297201510E-1   -1.194798922081321E-1   -2.220753396327072E-3   -2.092949054204179E-3   -2.307441125440709E-3   -2.106242433034889E-3    3.651030810920614E-1   -3.295946941078145E-1
 9.937497031000000E9     4.674921718325270E-1   -1.196481545335012E-1   -2.286146000981935E-3   -2.144972389037584E-3   -2.343370456293797E-3   -2.145006993673797E-3    3.647441043494085E-1   -3.298318678191751E-1
 9.937498959799999E9     4.674082226308732E-1   -1.198284095556180E-1   -2.287912171178093E-3   -2.161078802724034E-3   -2.407078209529764E-3   -2.163090950754309E-3    3.641805983135131E-1   -3.301559347066311E-1
 9.937500888600000E9     4.673599398337867E-1   -1.201284293475409E-1   -2.349117795681671E-3   -2.222344075320051E-3   -2.401414158652234E-3   -2.173901233727334E-3    3.637938446168164E-1   -3.305715703069386E-1
 9.937502817400000E9     4.672262717389207E-1   -1.200743490124580E-1   -2.361483864868614E-3   -2.229301034778567E-3   -2.454703055975391E-3   -2.188163201826764E-3    3.635504230856468E-1   -3.304228949035879E-1
 9.937504746200001E9     4.672357604242969E-1   -1.203069304632531E-1   -2.437440407985342E-3   -2.232319419634626E-3   -2.473404395791429E-3   -2.204739598707076E-3    3.631978374229424E-1   -3.306559336473143E-1
 9.937506675000000E9     4.672217599870609E-1   -1.204185087527429E-1   -2.450789612145245E-3   -2.261806067106015E-3   -2.533459204190548E-3   -2.262991608287545E-3    3.627433556856251E-1   -3.312807922901786E-1
