#  HZ   S   RI   R     50.00 
! Rohde & Schwarz Vector Network Analyzer 
! Rohde-Schwarz,ZNB20-2Port,1311601062101988,3.16
! Created: UTC 3/20/2024, 10:59:46 PM
! freq[Hz]                re:S11                  im:S11                  re:S21                  im:S21                  re:S12                  im:S12                  re:S22                  im:S22
 9.937324723000000E9     4.711679322673354E-1   -1.082375575535279E-1   -6.809418937019493E-4   -7.689217110459552E-4   -6.884675442223135E-4   -7.700427521099122E-4    3.872238336336737E-1   -3.124214018349536E-1
 9.937326688924999E9     4.711429923149829E-1   -1.081766332094793E-1   -6.679989027197188E-4   -7.597011405460051E-4   -6.881779414032470E-4   -7.839753666651920E-4    3.870510332125935E-1   -3.125139890204648E-1
 9.937328654850000E9     4.710923028292172E-1   -1.082622458295128E-1   -6.930319848315006E-4   -7.728453473031576E-4   -7.105445912508906E-4   -7.614259711306322E-4    3.866815475964008E-1   -3.126723500672459E-1
 9.937330620775000E9     4.708555462238253E-1   -1.084420452119096E-1   -7.180003372150210E-4   -7.854594049352432E-4   -7.344165650168221E-4   -8.069643450317730E-4    3.867323649984942E-1   -3.128162743537345E-1
 9.937332586700001E9     4.710238968544022E-1   -1.087096152225441E-1   -7.289801347905425E-4   -7.837999632650563E-4   -7.366391269361701E-4   -8.249826035944260E-4    3.864671582176732E-1   -3.130688371641905E-1
 9.937334552625000E9     4.708933787705783E-1   -1.087851577268449E-1   -7.180219990253638E-4   -7.960558893015265E-4   -7.647677662627377E-4   -7.840317809901766E-4    3.861849594273171E-1   -3.130954632508350E-1
 9.937336518549999E9     4.709083505189640E-1   -1.088941718271058E-1   -7.582347253985325E-4   -8.201388076330054E-4   -7.632262024706554E-4   -8.234835467171161E-4    3.859811595433061E-1   -3.132378424291481E-1
 9.937338484475000E9     4.707940777659422E-1   -1.089436036687671E-1   -7.589761192987642E-4   -8.241689118000352E-4   -7.768343468320041E-4   -8.450713427603240E-4    3.857240487494155E-1   -3.133858779417799E-1
 9.937340450400000E9     4.709038938410971E-1   -1.091017994700397E-1   -7.834238675157848E-4   -8.249039680726145E-4   -7.505044506289651E-4   -8.294397941888177E-4    3.858360109902391E-1   -3.136695020116176E-1
 9.937342416325001E9     4.707501884030628E-1   -1.093332378400140E-1   -7.496102102884614E-4   -8.442177165172833E-4   -7.763488611249391E-4   -8.369165572328902E-4    3.855100058405513E-1   -3.137568574133855E-1
 9.937344382250000E9     4.706511066932232E-1   -1.093316717198551E-1   -7.651515349688350E-4   -8.637563458823373E-4   -8.112232255276254E-4   -8.557470531986267E-4    3.854495866893100E-1   -3.140366896483037E-1
 9.937346348174999E9     4.707100282803225E-1   -1.095260826852475E-1   -7.593014651612670E-4   -8.559097547049280E-4   -8.055717363769855E-4   -8.828686063390922E-4    3.849835229563117E-1   -3.143778865330480E-1
 9.937348314100000E9     4.706085304717846E-1   -1.096352583749804E-1   -7.939023816046181E-4   -8.855095933792702E-4   -8.219731043350904E-4   -8.898988683272930E-4    3.849568591561403E-1   -3.142923757312420E-1
 9.937350280025000E9     4.707405226584810E-1   -1.097510887338156E-1   -7.908322091573887E-4   -8.897990025035559E-4   -8.490497239358752E-4   -8.948476171063294E-4    3.846810567628611E-1   -3.145605523589790E-1
 9.937352245950001E9     4.705589603946809E-1   -1.099011283283403E-1   -8.422620377289932E-4   -9.104392268620824E-4   -8.522262261562004E-4   -9.089831263641043E-4    3.844702961974649E-1   -3.147168203678435E-1
 9.937354211875000E9     4.705688659441910E-1   -1.101593269487669E-1   -8.563688960036335E-4   -9.238989899976010E-4   -8.485925375285993E-4   -9.439371073522039E-4    3.844788384202515E-1   -3.150113128179516E-1
 9.937356177799999E9     4.706232296929315E-1   -1.102964586381783E-1   -8.219990803519962E-4   -9.330958961706714E-4   -8.231923011246923E-4   -9.424003610831083E-4    3.841371995854202E-1   -3.150813368221368E-1
 9.937358143725000E9     4.704831767692277E-1   -1.102619387673185E-1   -8.966816822940131E-4   -9.448585658361649E-4   -8.924716902395965E-4   -9.189405529575949E-4    3.838926313881972E-1   -3.154034387797685E-1
 9.937360109650000E9     4.702984384205825E-1   -1.104477381094508E-1   -8.699089272047231E-4   -9.663684758962377E-4   -8.945114910364599E-4   -9.414512822059811E-4    3.837462681071807E-1   -3.154245317872189E-1
 9.937362075575001E9     4.703849290017971E-1   -1.105993735543058E-1   -8.714715090211172E-4   -9.491477302771762E-4   -8.924840258469613E-4   -9.420302967646408E-4    3.835061566229827E-1   -3.155713259183382E-1
 9.937364041500000E9     4.703784259514505E-1   -1.107604477089041E-1   -9.003674248045113E-4   -9.825205536400431E-4   -9.163849693631738E-4   -9.632239796819479E-4    3.833142973341828E-1   -3.157025961711178E-1
 9.937366007424999E9     4.702855220239414E-1   -1.107829616904800E-1   -8.742935367863006E-4   -9.694131594114246E-4   -9.324206685481717E-4   -9.889382034862790E-4    3.830874208551215E-1   -3.160108086255392E-1
 9.937367973350000E9     4.701778206350963E-1   -1.110426842967056E-1   -9.409245955277271E-4   -9.901637291333664E-4   -9.756293378076588E-4   -9.964557250355768E-4    3.828722605716544E-1   -3.161502606575305E-1
 9.937369939275000E9     4.701392252786612E-1   -1.112147814355050E-1   -9.138869455507447E-4   -1.036094825736291E-3   -9.616580070756595E-4   -1.003841781994549E-3    3.826912357156856E-1   -3.164043476446937E-1
 9.937371905200001E9     4.700296886903210E-1   -1.113461236130560E-1   -9.557570022981955E-4   -1.015144690007691E-3   -9.649680104540256E-4   -1.004062255858168E-3    3.825164260208536E-1   -3.165409662184779E-1
 9.937373871125000E9     4.700957474458036E-1   -1.113301563798912E-1   -9.541312917120473E-4   -1.079017133380118E-3   -9.665786165329902E-4   -1.046203255228864E-3    3.822821900063658E-1   -3.167238683223831E-1
 9.937375837049999E9     4.699698967186748E-1   -1.114952603992363E-1   -9.625820084487715E-4   -1.057835273061007E-3   -9.993595535191990E-4   -1.045546755772806E-3    3.820936165223303E-1   -3.169156530393317E-1
 9.937377802975000E9     4.701228251873246E-1   -1.116081896518997E-1   -9.663118551577017E-4   -1.066591670903751E-3   -9.979513556491030E-4   -1.043215250345295E-3    3.819376671178883E-1   -3.170662508255138E-1
 9.937379768900000E9     4.698722297449156E-1   -1.118609660438459E-1   -9.647584492192370E-4   -1.052268115058481E-3   -1.020076806753318E-3   -1.068115411418670E-3    3.816840041791921E-1   -3.172259406157340E-1
 9.937381734825001E9     4.700485216992249E-1   -1.119010223949161E-1   -1.004037049350838E-3   -1.095634084781567E-3   -1.030952388241462E-3   -1.095918976427287E-3    3.815670498254990E-1   -3.174088316678824E-1
 9.937383700750000E9     4.700416605799946E-1   -1.120799970170254E-1   -1.031926774782787E-3   -1.108706106801974E-3   -1.078149786164964E-3   -1.101360863809736E-3    3.813441420078401E-1   -3.176426298367460E-1
 9.937385666674999E9     4.698708832320907E-1   -1.121278231893748E-1   -1.052522148697196E-3   -1.095914285261525E-3   -1.051138728829294E-3   -1.077448116465838E-3    3.811340369813832E-1   -3.176652321515191E-1
 9.937387632600000E9     4.697387952653669E-1   -1.122735837319879E-1   -1.058006579343913E-3   -1.104305941896838E-3   -1.085587651825443E-3   -1.165235570609040E-3    3.810040397197242E-1   -3.179195940264288E-1
 9.937389598525000E9     4.698444741706259E-1   -1.124562235958022E-1   -1.079009892959324E-3   -1.136096855558269E-3   -1.090894481046166E-3   -1.143492491410090E-3    3.805710311427106E-1   -3.181319214786661E-1
 9.937391564450001E9     4.697708153272511E-1   -1.125281994632737E-1   -1.052629098588019E-3   -1.161549176129498E-3   -1.069220995339777E-3   -1.183574991941410E-3    3.802534137976838E-1   -3.182470150559299E-1
 9.937393530375000E9     4.696701924994848E-1   -1.126603159705513E-1   -1.085207927414660E-3   -1.189043339210049E-3   -1.117439160343041E-3   -1.178277556861779E-3    3.800721263779834E-1   -3.184381869411928E-1
 9.937395496299999E9     4.696912508293710E-1   -1.127458779114828E-1   -1.115259481683135E-3   -1.195137802391830E-3   -1.139572758026082E-3   -1.175457267331852E-3    3.799355270831322E-1   -3.186705292159951E-1
 9.937397462225000E9     4.696276817285098E-1   -1.130595407409026E-1   -1.130005606641469E-3   -1.196656993116411E-3   -1.147778319544488E-3   -1.218134873869659E-3    3.797684971872917E-1   -3.187662180905915E-1
 9.937399428150000E9     4.696250711610083E-1   -1.131829543768387E-1   -1.135900418396460E-3   -1.225825113085581E-3   -1.152360258954100E-3   -1.206041167270235E-3    3.794979400964403E-1   -3.191018766751613E-1
 9.937401394075001E9     4.696104830115075E-1   -1.133907172995336E-1   -1.125652206866385E-3   -1.223865426226565E-3   -1.160944089108717E-3   -1.230945603852298E-3    3.793892122172550E-1   -3.191221129100214E-1
 9.937403360000000E9     4.695936511208167E-1   -1.132710885782291E-1   -1.169552711435361E-3   -1.265575173593199E-3   -1.197247246117454E-3   -1.227368555263234E-3    3.788556107726763E-1   -3.195551361814281E-1
 9.937405325924999E9     4.694812405080963E-1   -1.135030009860077E-1   -1.182819657903009E-3   -1.263578952148056E-3   -1.229005315143249E-3   -1.248017981362777E-3    3.789005088111358E-1   -3.198076385778608E-1
 9.937407291850000E9     4.694387290792608E-1   -1.137445079002393E-1   -1.200918885747253E-3   -1.246578417259731E-3   -1.259562959063113E-3   -1.271681947555721E-3    3.786505241094797E-1   -3.197290872869601E-1
 9.937409257775000E9     4.693686258927200E-1   -1.137586456646656E-1   -1.199486047386550E-3   -1.269175669412419E-3   -1.266158853861861E-3   -1.273368597460255E-3    3.783043669309185E-1   -3.201049532874240E-1
 9.937411223700001E9     4.693416201713014E-1   -1.138962378330535E-1   -1.238656536715446E-3   -1.306268287336243E-3   -1.281142866565981E-3   -1.299287706688120E-3    3.781400030815131E-1   -3.204376303207654E-1
 9.937413189625000E9     4.693601249818699E-1   -1.140644892443967E-1   -1.245266799733624E-3   -1.271927668130158E-3   -1.293705657927563E-3   -1.322525606745362E-3    3.778163085295321E-1   -3.204989535986231E-1
 9.937415155549999E9     4.692983559212814E-1   -1.142061472710135E-1   -1.280539055456870E-3   -1.312117555062856E-3   -1.316794484986040E-3   -1.322524193382508E-3    3.775146304124864E-1   -3.206979718840203E-1
 9.937417121475000E9     4.692116098605970E-1   -1.142929641704665E-1   -1.280911585891628E-3   -1.349366799978751E-3   -1.309152190859427E-3   -1.352663938531474E-3    3.774243446464292E-1   -3.208396495473386E-1
 9.937419087400000E9     4.691203375468327E-1   -1.145325184663074E-1   -1.284951138431137E-3   -1.357845050919272E-3   -1.339946908458423E-3   -1.366958722288761E-3    3.772107383263846E-1   -3.211033807568942E-1
 9.937421053325001E9     4.691308781844568E-1   -1.145207822139520E-1   -1.308070527057248E-3   -1.366634895803354E-3   -1.345188232724950E-3   -1.361883940866436E-3    3.769089870881299E-1   -3.212928503189351E-1
 9.937423019250000E9     4.690179076488564E-1   -1.147739294950729E-1   -1.335924304488562E-3   -1.377201884119250E-3   -1.403802062935280E-3   -1.401005197779174E-3    3.764572343184989E-1   -3.214753351688093E-1
 9.937424985174999E9     4.688979584315817E-1   -1.149061289129343E-1   -1.370556793551824E-3   -1.395398460725795E-3   -1.407237146529816E-3   -1.376054650651637E-3    3.761262420408399E-1   -3.216406261787027E-1
 9.937426951100000E9     4.689369065448200E-1   -1.149260582766198E-1   -1.404246134549770E-3   -1.407079696020586E-3   -1.445288960921563E-3   -1.443592219329969E-3    3.760371960726429E-1   -3.218866159268621E-1
 9.937428917025000E9     4.689104220619609E-1   -1.151174889621071E-1   -1.374270257355844E-3   -1.419175149425758E-3   -1.433444002468758E-3   -1.405806132783241E-3    3.758693592496660E-1   -3.218183679134424E-1
 9.937430882950001E9     4.688599068684736E-1   -1.153373796046301E-1   -1.404760564002489E-3   -1.431557341146295E-3   -1.446319628774484E-3   -1.454025163162615E-3    3.757101876875173E-1   -3.223268959286834E-1
 9.937432848875000E9     4.686872932145807E-1   -1.153238836970385E-1   -1.430251017448376E-3   -1.503172287960476E-3   -1.488510267050101E-3   -1.470517010132549E-3    3.753666738309406E-1   -3.224407829571978E-1
 9.937434814799999E9     4.688991752649629E-1   -1.154248981994308E-1   -1.449405409806457E-3   -1.489207809009684E-3   -1.502844215946282E-3   -1.466443865108666E-3    3.748164986178883E-1   -3.226573880999278E-1
 9.937436780725000E9     4.687524335295833E-1   -1.156816091334559E-1   -1.475633879499026E-3   -1.506372467954000E-3   -1.515844098076446E-3   -1.493357147272710E-3    3.746319731180079E-1   -3.229888855190545E-1
 9.937438746650000E9     4.687167739394779E-1   -1.156688987051563E-1   -1.477661622678291E-3   -1.527799234395962E-3   -1.543893370432720E-3   -1.529245852600015E-3    3.746745441942929E-1   -3.230871033758313E-1
 9.937440712575001E9     4.686674112045597E-1   -1.159711775211881E-1   -1.514799119847431E-3   -1.552354736966989E-3   -1.548142043908356E-3   -1.535551589365040E-3    3.741346401059664E-1   -3.231842972643419E-1
 9.937442678500000E9     4.686425128456554E-1   -1.160219427898445E-1   -1.511524600592181E-3   -1.576637095021968E-3   -1.541753781127125E-3   -1.529474239110525E-3    3.738827835741903E-1   -3.235502419341443E-1
 9.937444644424999E9     4.685342629405463E-1   -1.161243877652883E-1   -1.573448869731751E-3   -1.576846313351432E-3   -1.591442920399329E-3   -1.588691868310044E-3    3.735654747380868E-1   -3.235984331849303E-1
 9.937446610350000E9     4.685211315489320E-1   -1.164103458702060E-1   -1.610089218225517E-3   -1.602169660869274E-3   -1.606449252899466E-3   -1.567186907265143E-3    3.731773391221340E-1   -3.238925450071473E-1
 9.937448576275000E9     4.685097009097164E-1   -1.164746773061766E-1   -1.590612008800070E-3   -1.610670371432873E-3   -1.645743707830747E-3   -1.611637353341905E-3    3.730334939180592E-1   -3.241647209832643E-1
 9.937450542200001E9     4.684589741882567E-1   -1.165547603009301E-1   -1.636466120065967E-3   -1.635070064807793E-3   -1.673880263966853E-3   -1.636664213834199E-3    3.726990749213671E-1   -3.245681501612512E-1
 9.937452508125000E9     4.685140720884140E-1   -1.169679994133363E-1   -1.641411068276120E-3   -1.672536348834474E-3   -1.654663626465544E-3   -1.648331928124550E-3    3.724037638763316E-1   -3.243928087155906E-1
 9.937454474049999E9     4.682205811103336E-1   -1.168865647553655E-1   -1.665012099586698E-3   -1.695575433418644E-3   -1.713788127516931E-3   -1.670148084511988E-3    3.721549106715277E-1   -3.248312089803254E-1
 9.937456439975000E9     4.682958348117053E-1   -1.171064070449192E-1   -1.689788795912784E-3   -1.676080044946995E-3   -1.733291338704052E-3   -1.667803724682731E-3    3.719023973655021E-1   -3.251942615558573E-1
 9.937458405900000E9     4.683027471246306E-1   -1.171573560760408E-1   -1.724099719519695E-3   -1.735547881051886E-3   -1.764403290446904E-3   -1.707373844502384E-3    3.713335291932329E-1   -3.253187127283626E-1
 9.937460371825001E9     4.682533283994460E-1   -1.173717537567556E-1   -1.740329948168670E-3   -1.704308114599441E-3   -1.782997034748984E-3   -1.689268422288115E-3    3.712249582933863E-1   -3.255941438805631E-1
 9.937462337750000E9     4.681485153187633E-1   -1.173070595606660E-1   -1.795883997266833E-3   -1.784120562876030E-3   -1.839202007015569E-3   -1.755681827287532E-3    3.710229426817268E-1   -3.256009616002223E-1
 9.937464303674999E9     4.681290758978456E-1   -1.175020654972394E-1   -1.812210053472815E-3   -1.762393003488117E-3   -1.853759256045880E-3   -1.768220663807427E-3    3.704650332859094E-1   -3.259243768702973E-1
 9.937466269600000E9     4.681058253001970E-1   -1.176136889638896E-1   -1.830610689477721E-3   -1.824783906122785E-3   -1.887067657030980E-3   -1.803549266497726E-3    3.705215075024398E-1   -3.260681307265294E-1
 9.937468235525000E9     4.680556208892480E-1   -1.178330354588921E-1   -1.853075506977775E-3   -1.831860608093137E-3   -1.867887192065033E-3   -1.829163242659370E-3    3.698455884668430E-1   -3.262356467343337E-1
 9.937470201450001E9     4.679493881752950E-1   -1.177984836520446E-1   -1.883096076631320E-3   -1.838593989196906E-3   -1.909665101395754E-3   -1.821536124009861E-3    3.695283564026052E-1   -3.265456234929180E-1
 9.937472167375000E9     4.679643801175399E-1   -1.179977241340978E-1   -1.926684680027861E-3   -1.859078399516745E-3   -1.961302530971822E-3   -1.865887825805037E-3    3.691463772286857E-1   -3.269976386735648E-1
 9.937474133299999E9     4.679536435882827E-1   -1.181088020392768E-1   -1.928761473649320E-3   -1.897158336619810E-3   -1.959698800806443E-3   -1.854674302449575E-3    3.689573312169457E-1   -3.272544888035427E-1
 9.937476099225000E9     4.677882681036465E-1   -1.182808529448887E-1   -1.953871192614996E-3   -1.899854223817383E-3   -2.050738639709214E-3   -1.913467450155294E-3    3.685915837333281E-1   -3.271519358720501E-1
 9.937478065150000E9     4.678823859346799E-1   -1.184828211005675E-1   -2.008882027406914E-3   -1.883191417875575E-3   -2.062585214918688E-3   -1.896591288552445E-3    3.681350203693232E-1   -3.275036887502514E-1
 9.937480031075001E9     4.678972874197568E-1   -1.187082804716336E-1   -2.015249197908363E-3   -1.961677102647978E-3   -2.099616737384727E-3   -1.943068141990116E-3    3.678033080125354E-1   -3.277440213737621E-1
 9.937481997000000E9     4.678269703624682E-1   -1.187121582190222E-1   -2.059659413355389E-3   -1.941031778828239E-3   -2.101076112725946E-3   -1.977047107013362E-3    3.677127546812795E-1   -3.280256582863628E-1
 9.937483962924999E9     4.677006405639398E-1   -1.189001202425028E-1   -2.078027253334087E-3   -1.978829020401198E-3   -2.156011536034889E-3   -1.989506066782325E-3    3.671303454739567E-1   -3.282527177310935E-1
 9.937485928850000E9     4.676365497947906E-1   -1.190326417912469E-1   -2.082755790614370E-3   -2.007856790102167E-3   -2.149832475330811E-3   -2.005329925986649E-3    3.668006298701239E-1   -3.286041522736063E-1
 9.937487894775000E9     4.676165447145186E-1   -1.191439164899981E-1   -2.143247043737747E-3   -2.050629777955227E-3   -2.201891615194229E-3   -2.025033986443660E-3    3.664337341616308E-1   -3.287665915737747E-1
 9.937489860700001E9     4.676588038175487E-1   -1.193734613409134E-1   -2.164580301067218E-3   -2.087400804887591E-3   -2.219919174373720E-3   -2.035716669684147E-3    3.659068281615686E-1   -3.288196678182395E-1
 9.937491826625000E9     4.676313169702073E-1   -1.193904459207423E-1   -2.223445362260530E-3   -2.100875219328241E-3   -2.272346832241958E-3   -2.049556986157397E-3    3.655697078895365E-1   -3.292244241372180E-1
 9.937493792549999E9     4.675782306481717E-1   -1.194920276829177E-1   -2.263469401586336E-3   -2.099639680872508E-3   -2.299781838830687E-3   -2.118069318299864E-3    3.651646278828158E-1   -3.294464861845678E-1
 9.937495758475000E9     4.674022951825590E-1   -1.195799672145950E-1   -2.265329197871514E-3   -2.142695474393332E-3   -2.355855807159542E-3   -2.120822607263300E-3    3.647889955427940E-1   -3.297486007271793E-1
 9.937497724400000E9     4.673842742325067E-1   -1.198651129983244E-1   -2.324021619799601E-3   -2.162182850035877E-3   -2.368236462689923E-3   -2.139810770147878E-3    3.642582647147495E-1   -3.301226350030856E-1
 9.937499690325001E9     4.672959526683169E-1   -1.198093201129620E-1   -2.332070964956523E-3   -2.180327537041687E-3   -2.414055959504059E-3   -2.189054935572541E-3    3.639100629503573E-1   -3.302734299210566E-1
 9.937501656250000E9     4.672983794505441E-1   -1.200975312439389E-1   -2.383554279260823E-3   -2.214400987702174E-3   -2.446493810190173E-3   -2.195702434081364E-3    3.636359434201482E-1   -3.305351332944974E-1
