#  HZ   S   RI   R     50.00 
! Rohde & Schwarz Vector Network Analyzer 
! Rohde-Schwarz,ZNB20-2Port,1311601062101988,3.16
! Created: UTC 3/20/2024, 11:00:03 PM
! freq[Hz]                re:S11                  im:S11                  re:S21                  im:S21                  re:S12                  im:S12                  re:S22                  im:S22
 9.937314063000000E9     4.713878237136109E-1   -1.073449150795088E-1   -6.608577189147341E-4   -7.269178427337661E-4   -6.628587177364609E-4   -7.173670868431783E-4    3.878029020488168E-1   -3.115897977791862E-1
 9.937316051700001E9     4.711729069437547E-1   -1.074267781917652E-1   -6.830222542551570E-4   -7.365891218410511E-4   -7.203502014647254E-4   -7.425142746374825E-4    3.875315269795925E-1   -3.120327251287057E-1
 9.937318040400000E9     4.713244066324713E-1   -1.076372107492953E-1   -6.758909021865315E-4   -7.808258087844112E-4   -6.789173339629629E-4   -7.542931190992115E-4    3.874153924226254E-1   -3.119159969716566E-1
 9.937320029100000E9     4.711445471888863E-1   -1.077129743051813E-1   -7.199603733070961E-4   -7.673265517964990E-4   -7.189096829011817E-4   -7.545321140909199E-4    3.872238238598967E-1   -3.122483598696188E-1
 9.937322017799999E9     4.711033812476160E-1   -1.078695165574485E-1   -6.816683025076047E-4   -7.711065323126426E-4   -6.959307603243053E-4   -7.925821754971251E-4    3.870841809778769E-1   -3.124025251596410E-1
 9.937324006500000E9     4.711808742598168E-1   -1.080718126038531E-1   -7.400792702911712E-4   -7.878638854842057E-4   -7.312166788524765E-4   -7.618966836733252E-4    3.869059794478361E-1   -3.125739810989333E-1
 9.937325995200001E9     4.710221775156656E-1   -1.082357545623270E-1   -7.238261004513239E-4   -7.996502824303748E-4   -7.624446506773628E-4   -8.196042524088718E-4    3.866344441386872E-1   -3.125613024836931E-1
 9.937327983900000E9     4.710176712735600E-1   -1.083646434617472E-1   -7.424649798511088E-4   -8.065230303519145E-4   -7.217037415639198E-4   -8.002372685576003E-4    3.863365585751505E-1   -3.129880839552269E-1
 9.937329972600000E9     4.709785396920060E-1   -1.085008023270674E-1   -7.433945693269434E-4   -8.065801481602486E-4   -7.587384682644292E-4   -8.392326937857187E-4    3.862922337340093E-1   -3.130723739184011E-1
 9.937331961299999E9     4.710338727383638E-1   -1.086338946920746E-1   -7.442640818323877E-4   -8.059742859459399E-4   -7.998116466145015E-4   -8.371343711010999E-4    3.862507881821390E-1   -3.131798627631801E-1
 9.937333950000000E9     4.708842525874291E-1   -1.087043784569518E-1   -7.914720178398343E-4   -8.472285120528732E-4   -7.914018416352937E-4   -8.213815202864958E-4    3.860946936042702E-1   -3.133510018208725E-1
 9.937335938700001E9     4.707681463132159E-1   -1.088592327675366E-1   -8.076770431765608E-4   -8.447949429033314E-4   -7.927716323231478E-4   -8.621725061518996E-4    3.858111135413470E-1   -3.134573870225635E-1
 9.937337927400000E9     4.707102182800195E-1   -1.089769382041202E-1   -7.991627298784047E-4   -8.361188505495152E-4   -7.609443160287869E-4   -8.938900408381350E-4    3.855081212336672E-1   -3.136522433289415E-1
 9.937339916100000E9     4.707814380256685E-1   -1.092459888164000E-1   -8.227853796946101E-4   -8.737444383801496E-4   -8.261144549933949E-4   -8.821680505178906E-4    3.853877412967676E-1   -3.136751218723843E-1
 9.937341904799999E9     4.708060019676521E-1   -1.093078060166450E-1   -8.038470654049907E-4   -8.755520192927592E-4   -8.228335538863038E-4   -8.920990005651174E-4    3.851685893150201E-1   -3.138731946343035E-1
 9.937343893500000E9     4.706102573784202E-1   -1.094578233476718E-1   -7.897017211430133E-4   -8.607102155608364E-4   -8.410888543845916E-4   -9.063099463135518E-4    3.849602525184244E-1   -3.141833596731746E-1
 9.937345882200001E9     4.706530896228805E-1   -1.095036645903747E-1   -8.220879864876863E-4   -9.263293154827961E-4   -8.416607818636060E-4   -9.329685230562264E-4    3.848175036689807E-1   -3.144158819689856E-1
 9.937347870900000E9     4.706330272078459E-1   -1.096697225650769E-1   -8.364010017615972E-4   -9.227735786107652E-4   -8.744589168447874E-4   -8.889468939208680E-4    3.844869531597254E-1   -3.144914825679767E-1
 9.937349859600000E9     4.705513620088852E-1   -1.098162956265779E-1   -8.784588519137042E-4   -9.210287912062051E-4   -8.789444004398620E-4   -8.988118934315521E-4    3.843233576938999E-1   -3.146705323615576E-1
 9.937351848299999E9     4.704816612324204E-1   -1.099525669056697E-1   -8.679021353596921E-4   -9.476393901686138E-4   -8.776545073689847E-4   -9.530199863492461E-4    3.844361703547468E-1   -3.149389810858829E-1
 9.937353837000000E9     4.705825929354756E-1   -1.100677936863821E-1   -8.684856096177137E-4   -9.721370928483576E-4   -9.025030628790693E-4   -9.420492477419480E-4    3.840173442860497E-1   -3.150781298829499E-1
 9.937355825700001E9     4.704904762993015E-1   -1.102466870643063E-1   -8.834710934447652E-4   -9.646770733606079E-4   -9.221223245129706E-4   -9.812193004803170E-4    3.836892879061047E-1   -3.153353640571377E-1
 9.937357814400000E9     4.703937489765065E-1   -1.104323702172438E-1   -9.204391347477860E-4   -9.773710821798221E-4   -9.508133175021105E-4   -9.864585738206528E-4    3.836894972852300E-1   -3.153329840314046E-1
 9.937359803100000E9     4.703616447073042E-1   -1.105074451017505E-1   -9.126681262444967E-4   -9.748825967151943E-4   -8.949802149316483E-4   -9.767697102984348E-4    3.832782704717237E-1   -3.154482673393706E-1
 9.937361791799999E9     4.702853033169114E-1   -1.106062454193362E-1   -9.111503317377481E-4   -1.015229546301211E-3   -9.563845295032878E-4   -9.746417899461485E-4    3.833179272923936E-1   -3.157224455107661E-1
 9.937363780500000E9     4.702670143692718E-1   -1.107151358337641E-1   -9.294442156017957E-4   -1.040879860017647E-3   -9.557553169205511E-4   -9.898447617710743E-4    3.827872719099712E-1   -3.159360138154048E-1
 9.937365769200001E9     4.703454742662855E-1   -1.109888217119972E-1   -9.283269665634579E-4   -9.966685490079095E-4   -9.828625501335881E-4   -1.026014552157815E-3    3.828945151351229E-1   -3.160836924806727E-1
 9.937367757900000E9     4.701909851034675E-1   -1.111279134046451E-1   -9.768682424092139E-4   -1.055802973159949E-3   -9.743531767361327E-4   -1.041422909403851E-3    3.825629346880728E-1   -3.163872529802002E-1
 9.937369746600000E9     4.703466729159156E-1   -1.110553838664541E-1   -9.746816348537718E-4   -1.083204642477815E-3   -1.001696741874927E-3   -1.019272681550211E-3    3.823916688141347E-1   -3.165925470753719E-1
 9.937371735299999E9     4.700938377404610E-1   -1.112627370559498E-1   -1.005781130193459E-3   -1.046395441163882E-3   -1.017356389272788E-3   -1.055207970814775E-3    3.820608644531067E-1   -3.166807350224954E-1
 9.937373724000000E9     4.700606012253377E-1   -1.114276561883731E-1   -1.005596337554526E-3   -1.113193315867819E-3   -1.057312575412339E-3   -1.071225815962434E-3    3.818101589258017E-1   -3.169644914778947E-1
 9.937375712700001E9     4.700368883445760E-1   -1.116352925356084E-1   -1.041856853011650E-3   -1.102909277337727E-3   -1.054517942540567E-3   -1.076694857363307E-3    3.816418622942182E-1   -3.170477253499774E-1
 9.937377701400000E9     4.699420843243199E-1   -1.116314778438668E-1   -1.030306564431964E-3   -1.099369733612861E-3   -1.029458990538999E-3   -1.106557514084615E-3    3.814954181216851E-1   -3.173705345325671E-1
 9.937379690100000E9     4.699993792954550E-1   -1.118739434876245E-1   -1.052484769347712E-3   -1.109429997957353E-3   -1.068883415504376E-3   -1.107899163969927E-3    3.811812406921830E-1   -3.173447854401578E-1
 9.937381678799999E9     4.699255865821388E-1   -1.119101247066745E-1   -1.066137056542317E-3   -1.105926238437371E-3   -1.078440348995694E-3   -1.117325067328529E-3    3.810499380381083E-1   -3.177178976670113E-1
 9.937383667500000E9     4.698857532834919E-1   -1.120500743229914E-1   -1.080920500987747E-3   -1.155580675416008E-3   -1.093127396020919E-3   -1.137706999998343E-3    3.809116201134133E-1   -3.177481988225638E-1
 9.937385656200001E9     4.697383153749900E-1   -1.123145936673817E-1   -1.086388438780936E-3   -1.174678602394693E-3   -1.131726666834655E-3   -1.148264563427978E-3    3.806110680603483E-1   -3.178799522657306E-1
 9.937387644900000E9     4.697664410532906E-1   -1.124009547444668E-1   -1.104569592477830E-3   -1.167673113804792E-3   -1.133014634132418E-3   -1.159224485652167E-3    3.804930611678531E-1   -3.183481599435932E-1
 9.937389633600000E9     4.697517603577758E-1   -1.125894387495723E-1   -1.110508556656267E-3   -1.169580168604652E-3   -1.145893547034596E-3   -1.151000713082846E-3    3.802456799081379E-1   -3.182954962451298E-1
 9.937391622299999E9     4.697756893335341E-1   -1.124482353950033E-1   -1.079419927156107E-3   -1.181791525460413E-3   -1.167159816057598E-3   -1.183528097480892E-3    3.798984353394538E-1   -3.185966833574175E-1
 9.937393611000000E9     4.695343431835325E-1   -1.127346665320773E-1   -1.143126734534331E-3   -1.224249032475778E-3   -1.222848355568300E-3   -1.195454922334017E-3    3.797828465404787E-1   -3.188133634486490E-1
 9.937395599700001E9     4.696391329661545E-1   -1.129651022092609E-1   -1.185234297578670E-3   -1.193811039904477E-3   -1.187763723480120E-3   -1.215272562600524E-3    3.793681382790685E-1   -3.189237827962658E-1
 9.937397588400000E9     4.695257595082539E-1   -1.129594506669863E-1   -1.180455977262923E-3   -1.251078801974730E-3   -1.216827622647255E-3   -1.284658071308804E-3    3.793519509092241E-1   -3.191039930132774E-1
 9.937399577100000E9     4.694994536413853E-1   -1.132843445975052E-1   -1.197066990856457E-3   -1.232901397229058E-3   -1.219066722579752E-3   -1.256879405228280E-3    3.788612286833545E-1   -3.192550089348390E-1
 9.937401565799999E9     4.695778005420659E-1   -1.134443422142829E-1   -1.250108958035894E-3   -1.259388896817833E-3   -1.260047250420818E-3   -1.254105731740179E-3    3.785499368895488E-1   -3.196714220514013E-1
 9.937403554500000E9     4.694471583269869E-1   -1.133635925800999E-1   -1.227693829291815E-3   -1.287166339188294E-3   -1.259397833938781E-3   -1.281691236709240E-3    3.786172054193555E-1   -3.197362043830251E-1
 9.937405543200001E9     4.694197146300509E-1   -1.137038274728241E-1   -1.257602311508358E-3   -1.299490182364146E-3   -1.282998259045598E-3   -1.292222521481731E-3    3.783592882902195E-1   -3.197871434489776E-1
 9.937407531900000E9     4.694540258848260E-1   -1.137709526356622E-1   -1.285035070650387E-3   -1.318322853509500E-3   -1.283992023517368E-3   -1.341550063184429E-3    3.779182372376689E-1   -3.201188115051317E-1
 9.937409520600000E9     4.693523920477277E-1   -1.138599185119542E-1   -1.295880736042346E-3   -1.330102222897105E-3   -1.328523765523152E-3   -1.342520102807775E-3    3.777343929116229E-1   -3.202913786085579E-1
 9.937411509299999E9     4.694332050417280E-1   -1.140237514889482E-1   -1.287065440277435E-3   -1.331225222780286E-3   -1.320389401893641E-3   -1.326599690963734E-3    3.776147880084022E-1   -3.206509456180263E-1
 9.937413498000000E9     4.692516686560572E-1   -1.140990784835406E-1   -1.318523107024281E-3   -1.342825151575211E-3   -1.378405646207993E-3   -1.382331786261143E-3    3.772456877710778E-1   -3.207131876913627E-1
 9.937415486700001E9     4.692424771428471E-1   -1.142623668500609E-1   -1.357685980953240E-3   -1.342941480939995E-3   -1.370697634321932E-3   -1.387069121206123E-3    3.770267205809277E-1   -3.209816841595718E-1
 9.937417475400000E9     4.691660987324529E-1   -1.144538220110382E-1   -1.329408452964261E-3   -1.423302514152230E-3   -1.416080217282851E-3   -1.407098004311032E-3    3.766799350583315E-1   -3.211742087069440E-1
 9.937419464100000E9     4.691717603587806E-1   -1.145534110011365E-1   -1.361732442901083E-3   -1.374249422784437E-3   -1.447262484885193E-3   -1.411276231782617E-3    3.764677750479177E-1   -3.214445866448150E-1
 9.937421452799999E9     4.689332130481683E-1   -1.145862254351320E-1   -1.390430234132696E-3   -1.437282071013588E-3   -1.412037600920560E-3   -1.403651841387845E-3    3.761632713129385E-1   -3.214945762823944E-1
 9.937423441500000E9     4.690095580744126E-1   -1.147683705100422E-1   -1.412533530750401E-3   -1.448569809705255E-3   -1.444680540571303E-3   -1.437465761456382E-3    3.758858719101323E-1   -3.217337433566380E-1
 9.937425430200001E9     4.689233621057280E-1   -1.149046415369308E-1   -1.441509832301098E-3   -1.440126766003775E-3   -1.471512684338129E-3   -1.463632626444106E-3    3.756447275374820E-1   -3.218883619768027E-1
 9.937427418900000E9     4.690539516204845E-1   -1.150641923259160E-1   -1.455063547614729E-3   -1.478431237301112E-3   -1.468517708092899E-3   -1.491963212655531E-3    3.753535111809850E-1   -3.222540006845808E-1
 9.937429407600000E9     4.689651640257291E-1   -1.154109329377989E-1   -1.454589531975706E-3   -1.472791143229254E-3   -1.529991734053431E-3   -1.469765525648664E-3    3.750689104915004E-1   -3.223856446055702E-1
 9.937431396299999E9     4.687198929250734E-1   -1.153744530139253E-1   -1.497673188002311E-3   -1.532612794442896E-3   -1.511585147527929E-3   -1.478258877460626E-3    3.748636710131117E-1   -3.225943294652712E-1
 9.937433385000000E9     4.687340690141241E-1   -1.154029913794999E-1   -1.526965592228650E-3   -1.534977597849747E-3   -1.571797556951578E-3   -1.513608810770121E-3    3.744995075996097E-1   -3.229321167094879E-1
 9.937435373700001E9     4.686925660167316E-1   -1.154703114869740E-1   -1.505652839202800E-3   -1.490340401776175E-3   -1.574429061489643E-3   -1.525719505188167E-3    3.741336713952125E-1   -3.231182192315022E-1
 9.937437362400000E9     4.687086171911730E-1   -1.158248633679382E-1   -1.562685227756534E-3   -1.588891315164479E-3   -1.585880069548906E-3   -1.562914562721432E-3    3.739622660227852E-1   -3.233321018294704E-1
 9.937439351100000E9     4.687235653725990E-1   -1.157860932771375E-1   -1.601377799213255E-3   -1.592861874278207E-3   -1.606383357970434E-3   -1.583126682812122E-3    3.736660890574548E-1   -3.233336737393834E-1
 9.937441339799999E9     4.688234656106203E-1   -1.158461005075257E-1   -1.588152729220007E-3   -1.620202570426220E-3   -1.629758617964170E-3   -1.608549624869983E-3    3.733159880356221E-1   -3.236309576958383E-1
 9.937443328500000E9     4.685367945315579E-1   -1.161837900882347E-1   -1.609318332470757E-3   -1.627128387185925E-3   -1.634175435284132E-3   -1.590370912326186E-3    3.731352212668707E-1   -3.241467401903818E-1
 9.937445317200001E9     4.685586391151924E-1   -1.162288915051774E-1   -1.663805246706053E-3   -1.653901438122860E-3   -1.683047509000968E-3   -1.597089297447060E-3    3.726761637790379E-1   -3.241380976092235E-1
 9.937447305900000E9     4.686608147300129E-1   -1.164095847664925E-1   -1.657908413313022E-3   -1.651821351215075E-3   -1.712209712797558E-3   -1.657442593734876E-3    3.722597639073119E-1   -3.242506609967257E-1
 9.937449294600000E9     4.684516422725434E-1   -1.165803046889897E-1   -1.687094543937794E-3   -1.668258930532973E-3   -1.737150928130994E-3   -1.672614300596322E-3    3.721618726780875E-1   -3.246353388176209E-1
 9.937451283299999E9     4.684460126942740E-1   -1.166254559961069E-1   -1.679580921876340E-3   -1.683356735003944E-3   -1.751788484102607E-3   -1.693436198886029E-3    3.717537083982319E-1   -3.249413759188291E-1
 9.937453272000000E9     4.683102606447614E-1   -1.167203378624551E-1   -1.737896654866418E-3   -1.707649721189384E-3   -1.763086686930936E-3   -1.733595480480300E-3    3.715519727415471E-1   -3.250456029616646E-1
 9.937455260700001E9     4.681984838132733E-1   -1.169282495879372E-1   -1.763203549786044E-3   -1.726596462675535E-3   -1.860405299948144E-3   -1.732733742829431E-3    3.712605852118339E-1   -3.252701147163998E-1
 9.937457249400000E9     4.683413887875972E-1   -1.170456958137776E-1   -1.806973699748364E-3   -1.747941540907936E-3   -1.850320668120436E-3   -1.728713790656870E-3    3.709240508801744E-1   -3.254734454524488E-1
 9.937459238100000E9     4.682717733460715E-1   -1.171858161892142E-1   -1.825580064465033E-3   -1.772888897590096E-3   -1.861216243000294E-3   -1.770486975834514E-3    3.704697244869311E-1   -3.257234888616485E-1
 9.937461226799999E9     4.681380861629366E-1   -1.172907739690211E-1   -1.850753234440465E-3   -1.804666592678797E-3   -1.897797708946743E-3   -1.817396563323722E-3    3.701255273253811E-1   -3.260580159140901E-1
 9.937463215500000E9     4.681548705444996E-1   -1.174726418965346E-1   -1.879805492970476E-3   -1.806506706578536E-3   -1.944764339361352E-3   -1.852098689069140E-3    3.699824235801538E-1   -3.260727340523814E-1
 9.937465204200001E9     4.681000884159586E-1   -1.176675277233006E-1   -1.916713929585101E-3   -1.858324385644349E-3   -1.945611643694909E-3   -1.803530580597199E-3    3.694032428944783E-1   -3.263172084355300E-1
 9.937467192900000E9     4.680720270009268E-1   -1.177637711391123E-1   -1.956046402948474E-3   -1.874435934185638E-3   -1.970909932624340E-3   -1.878528381191784E-3    3.692917872192651E-1   -3.267141002008774E-1
 9.937469181600000E9     4.680685393539759E-1   -1.178678389890708E-1   -1.973535854209900E-3   -1.891267829343619E-3   -2.034318249186694E-3   -1.864154059970652E-3    3.689972362440367E-1   -3.268063859590275E-1
 9.937471170299999E9     4.679572738006136E-1   -1.180691210203748E-1   -1.971145907235668E-3   -1.908030537826379E-3   -2.055409701834691E-3   -1.870190696648743E-3    3.685318628935119E-1   -3.269670882877947E-1
 9.937473159000000E9     4.680390519109940E-1   -1.182057907388168E-1   -2.025418810493230E-3   -1.920393178235394E-3   -2.062399624116884E-3   -1.931137319345129E-3    3.682015144622606E-1   -3.274641311345319E-1
 9.937475147700001E9     4.679057965561776E-1   -1.183174112802978E-1   -2.044250219285816E-3   -1.924160442819996E-3   -2.102434464563152E-3   -1.958108524372540E-3    3.678377016738889E-1   -3.275983559927856E-1
 9.937477136400000E9     4.679158753941388E-1   -1.185623631590487E-1   -2.071261767010781E-3   -1.949264431635946E-3   -2.153285921844810E-3   -1.968126662607142E-3    3.673944252953620E-1   -3.279466916948551E-1
 9.937479125100000E9     4.678369225346907E-1   -1.185039008287419E-1   -2.097207885434602E-3   -2.004812291993354E-3   -2.154423666930052E-3   -1.980017850632633E-3    3.669310298824825E-1   -3.279588727211926E-1
 9.937481113799999E9     4.677738686088824E-1   -1.187301706593224E-1   -2.158596483425467E-3   -2.047313804685192E-3   -2.186434627362340E-3   -2.015098397066733E-3    3.666153580003846E-1   -3.283845682133570E-1
 9.937483102500000E9     4.676896649919769E-1   -1.188732751968472E-1   -2.197299655532526E-3   -2.086973337208372E-3   -2.236140118702347E-3   -2.056926496119085E-3    3.662848543515361E-1   -3.284928114647769E-1
 9.937485091200001E9     4.677260999214210E-1   -1.189176597015904E-1   -2.218668162331982E-3   -2.048497534812071E-3   -2.298045596728977E-3   -2.074395022039606E-3    3.657824399204334E-1   -3.286894804647406E-1
 9.937487079900000E9     4.676086194992636E-1   -1.189953605163578E-1   -2.236554608796224E-3   -2.090120113859692E-3   -2.303478501944754E-3   -2.113555524588029E-3    3.653916812631582E-1   -3.290230890330913E-1
 9.937489068600000E9     4.676174592219338E-1   -1.190874738578810E-1   -2.284236219497372E-3   -2.151906043114337E-3   -2.343734169780576E-3   -2.128179138615101E-3    3.649960832610948E-1   -3.292179603813695E-1
 9.937491057299999E9     4.676722954517451E-1   -1.194632190128597E-1   -2.337112199941046E-3   -2.139845569809538E-3   -2.385450764858511E-3   -2.140612392275905E-3    3.646741491083942E-1   -3.296544640808258E-1
 9.937493046000000E9     4.675215638726779E-1   -1.196160019719742E-1   -2.320138857381487E-3   -2.157781290929306E-3   -2.420141692684329E-3   -2.192356449481738E-3    3.641228531275533E-1   -3.297549706455898E-1
