#  HZ   S   RI   R     50.00 
! Rohde & Schwarz Vector Network Analyzer 
! Rohde-Schwarz,ZNB20-2Port,1311601062101988,3.16
! Created: UTC 3/20/2024, 10:52:50 PM
! freq[Hz]                re:S11                  im:S11                  re:S21                  im:S21                  re:S12                  im:S12                  re:S22                  im:S22
 9.937736080000000E9     4.623438985353223E-1   -1.342899049830175E-1   -2.479840773055195E-3   -2.850835450556032E-3   -2.540203717740135E-3   -2.817401040578394E-3    3.511403437826607E-1   -3.465163311373049E-1
 9.937737040950001E9     4.623567574781836E-1   -1.344559006326217E-1   -2.489646129652009E-3   -2.827028208596588E-3   -2.558538624425176E-3   -2.823563609780194E-3    3.511284118292842E-1   -3.465110082988435E-1
 9.937738001900000E9     4.623766979229382E-1   -1.344331088407928E-1   -2.494518684340146E-3   -2.843845880629499E-3   -2.575048675819960E-3   -2.857637877007252E-3    3.509371067199802E-1   -3.467910377240317E-1
 9.937738962850000E9     4.620627607471584E-1   -1.345190903215262E-1   -2.510781333842008E-3   -2.865473544178372E-3   -2.598716319261374E-3   -2.842476486662231E-3    3.507347883400545E-1   -3.468016969931848E-1
 9.937739923799999E9     4.623226327268720E-1   -1.345110188005516E-1   -2.581400789895931E-3   -2.915402268860795E-3   -2.619330239465535E-3   -2.878495089706360E-3    3.504604677914119E-1   -3.469539245903244E-1
 9.937740884750000E9     4.622789537560734E-1   -1.346097585144682E-1   -2.591926198930816E-3   -2.884861354933083E-3   -2.671693744680069E-3   -2.900127118903304E-3    3.503684981079155E-1   -3.472263095358178E-1
 9.937741845700001E9     4.620342036033942E-1   -1.345868035283454E-1   -2.631883819481336E-3   -2.927783801508274E-3   -2.653928981796530E-3   -2.909540062730498E-3    3.500328398601203E-1   -3.475477293940138E-1
 9.937742806650000E9     4.622722098702174E-1   -1.347595294951100E-1   -2.631586475233683E-3   -2.942281198332016E-3   -2.671089370761331E-3   -2.944701878904902E-3    3.500370073830523E-1   -3.474591928905478E-1
 9.937743767600000E9     4.621525224745132E-1   -1.349255051632167E-1   -2.638782750379133E-3   -2.970051459057877E-3   -2.705035588916304E-3   -2.949782268559642E-3    3.495684452847155E-1   -3.476483404507172E-1
 9.937744728549999E9     4.621614367669909E-1   -1.347225386624856E-1   -2.645245355239958E-3   -2.958070518127355E-3   -2.723262810822214E-3   -2.964682157976457E-3    3.494832457858545E-1   -3.481085015404921E-1
 9.937745689500000E9     4.619820707964437E-1   -1.348290349599161E-1   -2.693592602589329E-3   -2.995283938630398E-3   -2.764205504938175E-3   -2.960448925823602E-3    3.491962688839333E-1   -3.479973294254709E-1
 9.937746650450001E9     4.619962210370469E-1   -1.349199405417358E-1   -2.729165806554632E-3   -3.010665247701758E-3   -2.800465956931200E-3   -3.018302069211930E-3    3.490550167541295E-1   -3.483229237730446E-1
 9.937747611400000E9     4.621089203131700E-1   -1.350926960967770E-1   -2.728214290285843E-3   -3.034514588365893E-3   -2.818405077417796E-3   -3.017212891902813E-3    3.486221324984304E-1   -3.484690897693574E-1
 9.937748572350000E9     4.620262532537062E-1   -1.351264982828654E-1   -2.762903847570710E-3   -3.070602896455223E-3   -2.819097063646548E-3   -3.065576873965651E-3    3.481654959612643E-1   -3.485689348741746E-1
 9.937749533299999E9     4.620126608015950E-1   -1.352284739485412E-1   -2.741936878814929E-3   -3.078793784623813E-3   -2.859143640971703E-3   -3.076291897549085E-3    3.481665249387668E-1   -3.487745825456056E-1
 9.937750494250000E9     4.619816396201502E-1   -1.353457759519598E-1   -2.806449302272154E-3   -3.095910710005134E-3   -2.854640156976797E-3   -3.089125592708077E-3    3.479138862718379E-1   -3.491745475317124E-1
 9.937751455200001E9     4.619751489929239E-1   -1.353390766147791E-1   -2.803696300295283E-3   -3.107816649108413E-3   -2.898748551707278E-3   -3.105948029010087E-3    3.476460388540562E-1   -3.491344888253959E-1
 9.937752416150000E9     4.619961551123545E-1   -1.354115086553854E-1   -2.828780487244408E-3   -3.137620570126705E-3   -2.931773560028009E-3   -3.129989749115895E-3    3.475182332957407E-1   -3.492643392060007E-1
 9.937753377100000E9     4.618368678852823E-1   -1.354980693999798E-1   -2.863087977822234E-3   -3.141588824967968E-3   -2.927020786716459E-3   -3.152633683796919E-3    3.469682845126484E-1   -3.493942534957956E-1
 9.937754338049999E9     4.618643982163563E-1   -1.354022806367337E-1   -2.905143796892844E-3   -3.173453065028242E-3   -2.983704669625462E-3   -3.211867218536027E-3    3.467828007579576E-1   -3.497753684023128E-1
 9.937755299000000E9     4.617430586695858E-1   -1.357444484734935E-1   -2.885029218809212E-3   -3.162958343549009E-3   -2.984893404244536E-3   -3.169552885115830E-3    3.466432254368871E-1   -3.499417320937400E-1
 9.937756259950001E9     4.616826195354153E-1   -1.356221628873858E-1   -2.943878375970847E-3   -3.213711886017840E-3   -3.038095909288268E-3   -3.261914405696892E-3    3.462961065635037E-1   -3.499414479582464E-1
 9.937757220900000E9     4.617279630119673E-1   -1.357437407988198E-1   -2.978609850453613E-3   -3.251631475530295E-3   -3.079287676628067E-3   -3.238847604950480E-3    3.459680342587422E-1   -3.502323782910634E-1
 9.937758181850000E9     4.617857169436549E-1   -1.357671235565222E-1   -2.961689553961717E-3   -3.280029974962743E-3   -3.075453270661971E-3   -3.281386786175458E-3    3.457321225946020E-1   -3.504442768156637E-1
 9.937759142799999E9     4.617513047842455E-1   -1.359162839968602E-1   -3.023575356692760E-3   -3.292076882947303E-3   -3.115042957889066E-3   -3.263525806986800E-3    3.455583951844887E-1   -3.506637526802251E-1
 9.937760103750000E9     4.615908036030414E-1   -1.359475959876278E-1   -3.012337901469554E-3   -3.325641630941542E-3   -3.148447732585490E-3   -3.343764421737222E-3    3.451660669591892E-1   -3.508409784286687E-1
 9.937761064700001E9     4.616093816372194E-1   -1.360098866925253E-1   -3.070363258923147E-3   -3.337340146669093E-3   -3.159363530322247E-3   -3.320868708349929E-3    3.447221612952706E-1   -3.509042086402759E-1
 9.937762025650000E9     4.616572116060307E-1   -1.360523754876621E-1   -3.089769997110723E-3   -3.371072466524167E-3   -3.167238649753430E-3   -3.353223101009406E-3    3.444363260034852E-1   -3.513758627072880E-1
 9.937762986600000E9     4.616183613625611E-1   -1.360920711931274E-1   -3.109897754766631E-3   -3.384714262882365E-3   -3.218226939159871E-3   -3.382667464843751E-3    3.442625356278859E-1   -3.513717339302882E-1
 9.937763947549999E9     4.615171323083765E-1   -1.362758975486060E-1   -3.124426524051539E-3   -3.412080036697867E-3   -3.293993066279997E-3   -3.419730399293348E-3    3.441415863918837E-1   -3.517982730400137E-1
 9.937764908500000E9     4.615487680860976E-1   -1.362874108161036E-1   -3.194310274013901E-3   -3.458277076096370E-3   -3.247362335519140E-3   -3.447941574506526E-3    3.436001606858710E-1   -3.517881227482286E-1
 9.937765869450001E9     4.614813863134388E-1   -1.362324478645555E-1   -3.210017421052053E-3   -3.448802187594243E-3   -3.284415180277595E-3   -3.472353563686066E-3    3.433603298375076E-1   -3.520418015397027E-1
 9.937766830400000E9     4.615201641595459E-1   -1.363997669512209E-1   -3.234919758854542E-3   -3.485273705976349E-3   -3.302386610621487E-3   -3.497445046266753E-3    3.430640952183960E-1   -3.522263266041942E-1
 9.937767791350000E9     4.615201641268457E-1   -1.364199429858671E-1   -3.235262766850829E-3   -3.496571155882676E-3   -3.354527501061363E-3   -3.501527005326721E-3    3.427106400044094E-1   -3.523162769707158E-1
 9.937768752299999E9     4.613040572583233E-1   -1.365713390888199E-1   -3.288678692447635E-3   -3.553254874628673E-3   -3.396327114467972E-3   -3.509551356750200E-3    3.424874665832607E-1   -3.526679426633426E-1
 9.937769713250000E9     4.614086141929810E-1   -1.366682328821303E-1   -3.313976831966521E-3   -3.577448131130946E-3   -3.438576993480168E-3   -3.559012053876852E-3    3.420590526359231E-1   -3.528858509043595E-1
 9.937770674200001E9     4.613106755870022E-1   -1.367219367542979E-1   -3.385576527237044E-3   -3.542026146209607E-3   -3.434198788629080E-3   -3.564082935857378E-3    3.418830657195216E-1   -3.528353974083192E-1
 9.937771635150000E9     4.614235607147864E-1   -1.367656082285925E-1   -3.382468118190470E-3   -3.619429833022135E-3   -3.477450932825417E-3   -3.591648537908261E-3    3.415620372793199E-1   -3.534161842018778E-1
 9.937772596100000E9     4.613617645010779E-1   -1.368813357095335E-1   -3.398061437788850E-3   -3.609892844603052E-3   -3.520475991793088E-3   -3.654213795716045E-3    3.409720986400791E-1   -3.535300779016500E-1
 9.937773557049999E9     4.612490985385418E-1   -1.368569541081938E-1   -3.439914364128205E-3   -3.619288793839102E-3   -3.511916530660320E-3   -3.661133945685135E-3    3.407492125115138E-1   -3.538337424444529E-1
 9.937774518000000E9     4.611277203041956E-1   -1.370059808956328E-1   -3.462481412031656E-3   -3.664635058198988E-3   -3.570540879286244E-3   -3.699651441398092E-3    3.405364220642899E-1   -3.538628852660789E-1
 9.937775478950001E9     4.612589144987734E-1   -1.370693975818797E-1   -3.520178829353716E-3   -3.723923860318631E-3   -3.582502471818741E-3   -3.689072975034990E-3    3.401483144395799E-1   -3.542111213964205E-1
 9.937776439900000E9     4.613257769576535E-1   -1.371984981847860E-1   -3.530474931169832E-3   -3.736587475994924E-3   -3.612932905117771E-3   -3.709452059349873E-3    3.400202180025407E-1   -3.545735515278056E-1
 9.937777400850000E9     4.611765149574111E-1   -1.370832470147313E-1   -3.523885825767849E-3   -3.747362314257128E-3   -3.699563417610421E-3   -3.743378011149596E-3    3.395310974166802E-1   -3.544761301879213E-1
 9.937778361799999E9     4.611725508959631E-1   -1.371568116640160E-1   -3.605528228537201E-3   -3.794642125753324E-3   -3.718145724727869E-3   -3.772461662591317E-3    3.392558921032375E-1   -3.549331049662607E-1
 9.937779322750000E9     4.612378586839477E-1   -1.373365713356449E-1   -3.642637896406419E-3   -3.815644980000585E-3   -3.749487028983518E-3   -3.837793500201788E-3    3.387875950160423E-1   -3.549404086562313E-1
 9.937780283700001E9     4.610820158179895E-1   -1.373942152805360E-1   -3.706532593244931E-3   -3.835054776658746E-3   -3.751969000793965E-3   -3.861116940607571E-3    3.385052738944455E-1   -3.551616949840229E-1
 9.937781244650000E9     4.611320059384005E-1   -1.374478122674752E-1   -3.689705313109492E-3   -3.882931041109791E-3   -3.803130563492328E-3   -3.890449999650431E-3    3.382558608511107E-1   -3.554727076068103E-1
 9.937782205600000E9     4.611630608784622E-1   -1.375790565595268E-1   -3.743180597471476E-3   -3.905409325330201E-3   -3.851996767215067E-3   -3.888751462332968E-3    3.377648328652013E-1   -3.557081724147701E-1
 9.937783166549999E9     4.610085280128727E-1   -1.376774795373904E-1   -3.779614825605401E-3   -3.953083820050357E-3   -3.861848486393656E-3   -3.931904543113940E-3    3.375428315420144E-1   -3.559918016906496E-1
 9.937784127500000E9     4.609445741867787E-1   -1.375985801045465E-1   -3.806078093636806E-3   -3.967340368093949E-3   -3.924092795510271E-3   -3.968807989368170E-3    3.372148134149048E-1   -3.563892021797217E-1
 9.937785088450001E9     4.608977766655761E-1   -1.376596101811197E-1   -3.823713615823323E-3   -4.019826963450278E-3   -3.934696296255167E-3   -4.015425769757388E-3    3.366395572175217E-1   -3.565443617113080E-1
 9.937786049400000E9     4.610132274186444E-1   -1.377788091674014E-1   -3.897656581017054E-3   -4.039908587033093E-3   -3.987816316652395E-3   -4.038629094626457E-3    3.364132223672804E-1   -3.566266162924949E-1
 9.937787010350000E9     4.610369909141883E-1   -1.378378666036326E-1   -3.951764618421785E-3   -4.058594517123520E-3   -4.035223064460807E-3   -4.028870051417823E-3    3.358706891820372E-1   -3.569189525830371E-1
 9.937787971299999E9     4.609154093040587E-1   -1.379758564277527E-1   -3.996933728526493E-3   -4.068406284797016E-3   -4.051625854549583E-3   -4.105049574004481E-3    3.354066036557496E-1   -3.571297120549810E-1
 9.937788932250000E9     4.609259836801945E-1   -1.379303800156444E-1   -3.994471415535838E-3   -4.098822499362783E-3   -4.136232200640372E-3   -4.123938833268823E-3    3.350168315459697E-1   -3.572439357436636E-1
 9.937789893200001E9     4.608390750066673E-1   -1.380465843577945E-1   -4.039371780353453E-3   -4.153009761739413E-3   -4.140583886012616E-3   -4.130538644502134E-3    3.346208750902772E-1   -3.574970035495847E-1
 9.937790854150000E9     4.609718624105453E-1   -1.381489556702324E-1   -4.087834335653162E-3   -4.194575173105356E-3   -4.182809749016967E-3   -4.162903622840184E-3    3.342524043412156E-1   -3.578468382906456E-1
 9.937791815100000E9     4.609260895421325E-1   -1.381650185839075E-1   -4.127411741952843E-3   -4.208667347231662E-3   -4.245131809701355E-3   -4.218118431456838E-3    3.337564426019741E-1   -3.580116347338724E-1
 9.937792776049999E9     4.608541502936297E-1   -1.382732007288094E-1   -4.182531883672683E-3   -4.292843163164765E-3   -4.261280445908715E-3   -4.247069799042441E-3    3.334378725469805E-1   -3.582008928705896E-1
 9.937793737000000E9     4.607257759603672E-1   -1.384286942894178E-1   -4.207452213157439E-3   -4.294443981819964E-3   -4.306801026441220E-3   -4.291966058754407E-3    3.331509098871351E-1   -3.586315938144929E-1
 9.937794697950001E9     4.608265622171654E-1   -1.384404813959485E-1   -4.256432833753974E-3   -4.303736752409266E-3   -4.352177766032012E-3   -4.305574171441319E-3    3.327412415918671E-1   -3.587749032138373E-1
 9.937795658900000E9     4.607522376061812E-1   -1.384981634480582E-1   -4.258715324467936E-3   -4.367612115531530E-3   -4.401798386871254E-3   -4.390480231259551E-3    3.321539371222713E-1   -3.593460748129009E-1
 9.937796619850000E9     4.607567628015785E-1   -1.385192432380880E-1   -4.331249378203552E-3   -4.378763095883010E-3   -4.437445377234396E-3   -4.401002924018583E-3    3.315749308358607E-1   -3.593298701332803E-1
 9.937797580799999E9     4.605052807010301E-1   -1.384431742250847E-1   -4.349717856002794E-3   -4.409143591015298E-3   -4.490732118670159E-3   -4.371062307371133E-3    3.312333901785497E-1   -3.596063011286452E-1
 9.937798541750000E9     4.606848310924219E-1   -1.386600557195230E-1   -4.447365233202100E-3   -4.438219174031663E-3   -4.559503260931877E-3   -4.458566386182816E-3    3.308175876976100E-1   -3.598070581452930E-1
 9.937799502700001E9     4.606404076400047E-1   -1.386970588792959E-1   -4.487193890254534E-3   -4.483550776698826E-3   -4.589923314400540E-3   -4.476187113456423E-3    3.303033921217469E-1   -3.601303584115903E-1
 9.937800463650000E9     4.605568794179844E-1   -1.386887311196284E-1   -4.503953649301694E-3   -4.541395031484851E-3   -4.625148651009685E-3   -4.508694490811574E-3    3.297846894406877E-1   -3.603467938296279E-1
 9.937801424600000E9     4.603485335743762E-1   -1.387606396423657E-1   -4.546936545066849E-3   -4.579535805675028E-3   -4.693232004692455E-3   -4.526808269095316E-3    3.294371530656218E-1   -3.609984688767057E-1
 9.937802385549999E9     4.604960418799264E-1   -1.389474816126372E-1   -4.629357601071363E-3   -4.579807214912314E-3   -4.771707469289772E-3   -4.595413105879322E-3    3.290342648897103E-1   -3.609651993491562E-1
 9.937803346500000E9     4.605580050589115E-1   -1.390331245776384E-1   -4.665773972481847E-3   -4.649316995152994E-3   -4.814312718311158E-3   -4.636561762133302E-3    3.282935471501866E-1   -3.614111329273411E-1
 9.937804307450001E9     4.604459887653726E-1   -1.391066092282409E-1   -4.727572361032656E-3   -4.620478422706952E-3   -4.851822400257020E-3   -4.676878007642449E-3    3.280726883767014E-1   -3.614797784621256E-1
 9.937805268400000E9     4.604322691983483E-1   -1.391803833606731E-1   -4.757695453824816E-3   -4.693088921125475E-3   -4.880855009109632E-3   -4.712595493057391E-3    3.275614165015031E-1   -3.615832127266456E-1
 9.937806229350000E9     4.604087646112869E-1   -1.391547471006259E-1   -4.773083099467195E-3   -4.747661046120207E-3   -4.917851691188076E-3   -4.748740233890901E-3    3.269067031147735E-1   -3.620103841578994E-1
 9.937807190299999E9     4.604957524939922E-1   -1.392320379022179E-1   -4.837211360438295E-3   -4.795274897209801E-3   -4.996420611349917E-3   -4.766689300824215E-3    3.264739198134944E-1   -3.624256779175585E-1
 9.937808151250000E9     4.603436405280900E-1   -1.394727870100601E-1   -4.882391021539947E-3   -4.798994777413328E-3   -5.071739329693492E-3   -4.802499019276408E-3    3.260021041794256E-1   -3.626613740456396E-1
 9.937809112200001E9     4.603604360611718E-1   -1.394105701919120E-1   -4.987073552719091E-3   -4.845671991039142E-3   -5.093852004341302E-3   -4.879639713985812E-3    3.252808422049064E-1   -3.631459864590040E-1
 9.937810073150000E9     4.602424550334441E-1   -1.395149540614836E-1   -5.026442985151655E-3   -4.905291002718752E-3   -5.191163582038844E-3   -4.907657994409788E-3    3.248896625511853E-1   -3.632727415220611E-1
 9.937811034100000E9     4.602681755345077E-1   -1.396313979801372E-1   -5.092643005423522E-3   -4.928046253759291E-3   -5.215163576685126E-3   -4.959803560413030E-3    3.243301800519549E-1   -3.634475221295078E-1
 9.937811995049999E9     4.602824075628500E-1   -1.397154883040079E-1   -5.143253429252400E-3   -4.962299993706936E-3   -5.270933593225833E-3   -4.989035759281348E-3    3.237329785661782E-1   -3.639974850500067E-1
 9.937812956000000E9     4.600822020923796E-1   -1.395353276829270E-1   -5.218962629559057E-3   -5.027626538241205E-3   -5.330469217490056E-3   -5.035943290601653E-3    3.231986101740336E-1   -3.642818666970361E-1
 9.937813916950001E9     4.601877385008918E-1   -1.396420614524229E-1   -5.273466153651710E-3   -5.053815915478705E-3   -5.399384249416014E-3   -5.056312614614670E-3    3.226618742519990E-1   -3.645112251217325E-1
 9.937814877900000E9     4.601165160391846E-1   -1.396987210665643E-1   -5.339651925561502E-3   -5.097311012996841E-3   -5.459845553809028E-3   -5.107262217505202E-3    3.218753423831546E-1   -3.649775262718637E-1
 9.937815838850000E9     4.600704094683098E-1   -1.397746756371554E-1   -5.368146038167303E-3   -5.155895821688033E-3   -5.550021631706915E-3   -5.106091971216889E-3    3.214352903045565E-1   -3.652483843863772E-1
 9.937816799799999E9     4.602012179592708E-1   -1.398750539727064E-1   -5.436780460007308E-3   -5.174710974416209E-3   -5.604777072414743E-3   -5.216200706851555E-3    3.207288175489639E-1   -3.653489916298920E-1
 9.937817760750000E9     4.600344310073297E-1   -1.401310611316566E-1   -5.508522490192772E-3   -5.254137991452209E-3   -5.660170805445619E-3   -5.228176248860120E-3    3.201617843376911E-1   -3.657173693804068E-1
 9.937818721700001E9     4.600270764367400E-1   -1.401825015910538E-1   -5.568061069308822E-3   -5.259107792170529E-3   -5.717640233748522E-3   -5.284782082686441E-3    3.196573033287728E-1   -3.660733400314861E-1
 9.937819682650000E9     4.600031148292330E-1   -1.402312977138307E-1   -5.629126889128159E-3   -5.323911081010837E-3   -5.787290106639912E-3   -5.337230822118451E-3    3.190181799969186E-1   -3.663032504150870E-1
 9.937820643600000E9     4.599985584553425E-1   -1.402250147739998E-1   -5.705160169708626E-3   -5.397662254669023E-3   -5.849516345859843E-3   -5.414761793308943E-3    3.181866933247649E-1   -3.666109126211674E-1
 9.937821604549999E9     4.600939899635298E-1   -1.402828572393300E-1   -5.771452920667509E-3   -5.443080440227603E-3   -5.948353696839587E-3   -5.411342111966849E-3    3.175136528972615E-1   -3.670109883599660E-1
 9.937822565500000E9     4.598905421524390E-1   -1.404164966186460E-1   -5.829149901163542E-3   -5.433105564269258E-3   -6.028632712203154E-3   -5.475660542877398E-3    3.169399657090956E-1   -3.672476542417424E-1
