#  HZ   S   RI   R     50.00 
! Rohde & Schwarz Vector Network Analyzer 
! Rohde-Schwarz,ZNB20-2Port,1311601062101988,3.16
! Created: UTC 3/20/2024, 11:00:10 PM
! freq[Hz]                re:S11                  im:S11                  re:S21                  im:S21                  re:S12                  im:S12                  re:S22                  im:S22
 9.937302540000000E9     4.716352146279491E-1   -1.064487227591243E-1   -6.199827268020464E-4   -7.191092570485040E-4   -6.559530508933487E-4   -6.842490524628494E-4    3.886390174217484E-1   -3.109100954662099E-1
 9.937304571150000E9     4.714645259492283E-1   -1.066851540523426E-1   -6.396046161700123E-4   -7.179474751205517E-4   -6.381636775227912E-4   -6.970300147289955E-4    3.886194172430856E-1   -3.108861301302995E-1
 9.937306602299999E9     4.715380475608747E-1   -1.069450258863686E-1   -6.636693988663492E-4   -7.271273585847588E-4   -6.639107291720665E-4   -7.086612741733376E-4    3.883926862587229E-1   -3.109930801814961E-1
 9.937308633450001E9     4.715078290457566E-1   -1.071714632693222E-1   -6.728236067935020E-4   -6.935437952291113E-4   -6.703004937503600E-4   -7.312225072014588E-4    3.880508208960718E-1   -3.112257016473442E-1
 9.937310664600000E9     4.715407175024064E-1   -1.071466390618327E-1   -6.684286993848113E-4   -7.320274257081857E-4   -6.734620556941881E-4   -7.355627405235110E-4    3.880066424223179E-1   -3.112821987239692E-1
 9.937312695750000E9     4.713851668465860E-1   -1.073235711326811E-1   -6.958508530748506E-4   -7.179442698396925E-4   -6.647892549615670E-4   -7.396712682646524E-4    3.877669297036873E-1   -3.116518713157301E-1
 9.937314726900000E9     4.712866679670318E-1   -1.074359362152593E-1   -6.602456360682449E-4   -7.774766662650849E-4   -7.168395919029549E-4   -7.449221308278891E-4    3.875221615725625E-1   -3.117147664635548E-1
 9.937316758049999E9     4.712168430377183E-1   -1.075898688564762E-1   -6.938502390847992E-4   -8.106464236242706E-4   -7.005447134289352E-4   -7.514254140119349E-4    3.874366908981668E-1   -3.121412235650097E-1
 9.937318789200001E9     4.712053706951715E-1   -1.078031157645337E-1   -6.745733933913532E-4   -7.805621918574752E-4   -7.597812875850155E-4   -7.514999439258070E-4    3.872237988605551E-1   -3.121648308729620E-1
 9.937320820350000E9     4.712463638703412E-1   -1.078021963452941E-1   -7.176337224321419E-4   -7.986229264110475E-4   -7.246054344942094E-4   -7.705038937823836E-4    3.870167887442292E-1   -3.123022632780155E-1
 9.937322851500000E9     4.711399768862974E-1   -1.081196174035340E-1   -7.433709663161235E-4   -7.746110900923941E-4   -7.484956528637366E-4   -7.932962870365416E-4    3.867591114334705E-1   -3.124125458083106E-1
 9.937324882650000E9     4.710320853384644E-1   -1.081960320526499E-1   -7.335802652063546E-4   -7.861813350801206E-4   -7.760242075603364E-4   -7.996713588677449E-4    3.867652056431475E-1   -3.126912049164370E-1
 9.937326913799999E9     4.710665528473892E-1   -1.082083849146135E-1   -7.247082018273822E-4   -8.133017350890270E-4   -7.714884251231185E-4   -8.461974934674196E-4    3.865334585175266E-1   -3.128133089465518E-1
 9.937328944950001E9     4.710380340823271E-1   -1.084248758739188E-1   -7.356176864324926E-4   -8.054145061840711E-4   -7.492989128059323E-4   -8.186449494870043E-4    3.861668353319603E-1   -3.130620732285245E-1
 9.937330976100000E9     4.709346305456164E-1   -1.086180845504471E-1   -7.618337428130836E-4   -8.251744605900902E-4   -8.147519159171855E-4   -8.324060897324204E-4    3.860187914344403E-1   -3.132301304371957E-1
 9.937333007250000E9     4.710079132351492E-1   -1.086786094252528E-1   -7.919676164639369E-4   -8.555623925604731E-4   -7.963401123590892E-4   -8.547190620009809E-4    3.858581170513455E-1   -3.132202955729629E-1
 9.937335038400000E9     4.710545629075873E-1   -1.088958410580879E-1   -7.841380766301146E-4   -8.511892490841742E-4   -8.190285670215319E-4   -8.694988792095111E-4    3.856278133419922E-1   -3.135250789823089E-1
 9.937337069549999E9     4.707833322872047E-1   -1.088502299859300E-1   -8.370423565456333E-4   -8.647262377972970E-4   -8.156634199092737E-4   -8.900930820132916E-4    3.854901126439398E-1   -3.137596985144656E-1
 9.937339100700001E9     4.709708982352495E-1   -1.091634064248090E-1   -8.146387364653353E-4   -8.656212615223856E-4   -7.941214269920744E-4   -8.640766874866716E-4    3.851896324190772E-1   -3.138910737876091E-1
 9.937341131850000E9     4.708608900025190E-1   -1.092802331504367E-1   -8.505652231102952E-4   -8.870634813533078E-4   -8.420361949206551E-4   -8.783425997263886E-4    3.850013644059922E-1   -3.138500143901653E-1
 9.937343163000000E9     4.707098829056993E-1   -1.094049434876132E-1   -8.360995040613079E-4   -9.019613179942098E-4   -8.446535048873336E-4   -8.761875065311323E-4    3.849788262948127E-1   -3.142153213545645E-1
 9.937345194150000E9     4.706252195651797E-1   -1.095251932624383E-1   -8.372154155711790E-4   -8.991175139830546E-4   -8.392378943075291E-4   -9.035770064214192E-4    3.845574040299138E-1   -3.142858682808747E-1
 9.937347225299999E9     4.706237745529820E-1   -1.097323798750850E-1   -8.286108188065783E-4   -9.609937297830600E-4   -8.673957645331235E-4   -9.294462529794540E-4    3.844885442187869E-1   -3.144740813795688E-1
 9.937349256450001E9     4.704429315096623E-1   -1.097826737195895E-1   -8.579380083044375E-4   -9.331879976968990E-4   -9.003667409359080E-4   -9.504420306713820E-4    3.842237745455827E-1   -3.145990206778919E-1
 9.937351287600000E9     4.705706416479499E-1   -1.099692948842157E-1   -8.695024711012355E-4   -9.568106383251945E-4   -9.047715688799788E-4   -9.485344546143862E-4    3.841877877630287E-1   -3.149377398037148E-1
 9.937353318750000E9     4.705877776378928E-1   -1.100254480732834E-1   -8.752739160730185E-4   -9.748219241646256E-4   -9.193899661130861E-4   -9.738488392529426E-4    3.837990932047673E-1   -3.151606183399484E-1
 9.937355349900000E9     4.704610890189549E-1   -1.102042465872414E-1   -9.082049848609631E-4   -9.745189837284409E-4   -9.644543127034538E-4   -9.811012257624203E-4    3.836212669064998E-1   -3.151774055562988E-1
 9.937357381049999E9     4.704599373690347E-1   -1.103406994061425E-1   -9.287122818492731E-4   -9.636160547507817E-4   -9.560030845857729E-4   -1.004159184633558E-3    3.834712861601077E-1   -3.154627983980766E-1
 9.937359412200001E9     4.704561345079204E-1   -1.103919483020257E-1   -9.563383132850906E-4   -9.804017719824152E-4   -9.542739772249225E-4   -9.968275825785623E-4    3.833228763294217E-1   -3.155362724339769E-1
 9.937361443350000E9     4.704365726201836E-1   -1.106059286643309E-1   -9.379624406832364E-4   -1.019078775234371E-3   -9.676565590183406E-4   -1.004069251677740E-3    3.830900328068352E-1   -3.156012340435229E-1
 9.937363474500000E9     4.704151532829565E-1   -1.108730745421518E-1   -9.437029852946761E-4   -1.014751898161497E-3   -9.927128301955527E-4   -1.023469052062676E-3    3.826836103130613E-1   -3.159628468330182E-1
 9.937365505650000E9     4.701477609508674E-1   -1.109462423703317E-1   -9.685577616869805E-4   -1.031221732311405E-3   -1.021722628681004E-3   -1.030464916535414E-3    3.827225168992678E-1   -3.163456179884320E-1
 9.937367536799999E9     4.702547920211061E-1   -1.109359897222033E-1   -9.719949723625366E-4   -1.033817817882167E-3   -1.012023376505756E-3   -1.048581043618445E-3    3.823386942870642E-1   -3.162190802761132E-1
 9.937369567950001E9     4.701446789958629E-1   -1.111972174028884E-1   -9.627786074854121E-4   -1.076862319324336E-3   -1.015181073826472E-3   -1.049505181079894E-3    3.820295301451834E-1   -3.165637957064388E-1
 9.937371599100000E9     4.700128380388895E-1   -1.112637144521060E-1   -9.906433737011133E-4   -1.091248174451148E-3   -1.033025476321842E-3   -1.079877949996221E-3    3.819629738989125E-1   -3.167424376755662E-1
 9.937373630250000E9     4.701637177950515E-1   -1.113535397709891E-1   -1.027990237922478E-3   -1.091527440772443E-3   -1.072293108960088E-3   -1.086982132713925E-3    3.819408267304468E-1   -3.168730325472784E-1
 9.937375661400000E9     4.700938304759369E-1   -1.115880068960875E-1   -1.052264689277550E-3   -1.113819683524876E-3   -1.072731111503004E-3   -1.128953010984904E-3    3.815415984589443E-1   -3.171964263446850E-1
 9.937377692549999E9     4.698586786332496E-1   -1.116493709089722E-1   -1.022758631438353E-3   -1.141989665976556E-3   -1.099147469981525E-3   -1.105740034575039E-3    3.812142440212684E-1   -3.172083997512324E-1
 9.937379723700001E9     4.700307297710504E-1   -1.118245769951464E-1   -1.050851080993262E-3   -1.138876699214646E-3   -1.096088991177702E-3   -1.152661432350071E-3    3.810905174260084E-1   -3.175655302099138E-1
 9.937381754850000E9     4.699315539170640E-1   -1.118997265788171E-1   -1.073133222262300E-3   -1.159752211784109E-3   -1.134794649667247E-3   -1.145077393733420E-3    3.808397153336779E-1   -3.178337641439345E-1
 9.937383786000000E9     4.698966167009649E-1   -1.121327134258623E-1   -1.090024207853765E-3   -1.139418194857703E-3   -1.125593889897803E-3   -1.183389021729719E-3    3.806134203325348E-1   -3.181055006131412E-1
 9.937385817150000E9     4.698217836049137E-1   -1.121422241134048E-1   -1.111113464669906E-3   -1.157659070200723E-3   -1.154064227289216E-3   -1.173034389381057E-3    3.804261381315902E-1   -3.181826303762711E-1
 9.937387848299999E9     4.698368536779611E-1   -1.123775743394620E-1   -1.114262529519803E-3   -1.170205819587673E-3   -1.134957028446943E-3   -1.183603781379158E-3    3.800552058855464E-1   -3.184222178519190E-1
 9.937389879450001E9     4.698342706465681E-1   -1.125846414729053E-1   -1.147087063015946E-3   -1.221133003379809E-3   -1.171298291634521E-3   -1.206646125359594E-3    3.798256551024279E-1   -3.185217136947695E-1
 9.937391910600000E9     4.698725027355118E-1   -1.126378248463340E-1   -1.182610243976697E-3   -1.211064171283111E-3   -1.200939995201366E-3   -1.222226852953121E-3    3.795690112594685E-1   -3.187489946231423E-1
 9.937393941750000E9     4.696984917790876E-1   -1.129387683189295E-1   -1.176920123304662E-3   -1.257499569025835E-3   -1.218544472944814E-3   -1.228806169905344E-3    3.793442580945524E-1   -3.190212330729408E-1
 9.937395972900000E9     4.695959870094603E-1   -1.130151325044998E-1   -1.160826195283733E-3   -1.219338039933720E-3   -1.248867492702885E-3   -1.232132164519553E-3    3.791773611104358E-1   -3.190347151205551E-1
 9.937398004049999E9     4.695345304933881E-1   -1.130959370527509E-1   -1.177994215381341E-3   -1.254761665061270E-3   -1.249478673516069E-3   -1.252198233772286E-3    3.787839376459257E-1   -3.192999836770290E-1
 9.937400035200001E9     4.695106793805985E-1   -1.132018815222542E-1   -1.215856398004655E-3   -1.299518111439381E-3   -1.249530346702360E-3   -1.263155584863343E-3    3.785230006972740E-1   -3.194054019543353E-1
 9.937402066350000E9     4.694989410760644E-1   -1.132871815441350E-1   -1.215794100401287E-3   -1.300440411723105E-3   -1.293910053067338E-3   -1.319780389811446E-3    3.784082864247366E-1   -3.197922711069676E-1
 9.937404097500000E9     4.694805828579681E-1   -1.134206362428035E-1   -1.274858487849949E-3   -1.307396359458507E-3   -1.339367754702501E-3   -1.319932206007742E-3    3.782859029293156E-1   -3.200808396630153E-1
 9.937406128650000E9     4.693592491987147E-1   -1.135635650518651E-1   -1.278170004689818E-3   -1.340288180325904E-3   -1.291066309410518E-3   -1.305838264598687E-3    3.777922259959753E-1   -3.201816956263259E-1
 9.937408159799999E9     4.694523326371704E-1   -1.137503929540720E-1   -1.305435087464095E-3   -1.330927592775084E-3   -1.305105332442600E-3   -1.334305432278493E-3    3.777504882694787E-1   -3.203397192224599E-1
 9.937410190950001E9     4.693568027844193E-1   -1.139386334875289E-1   -1.322746494254723E-3   -1.370492274782574E-3   -1.372689689351270E-3   -1.343301501620384E-3    3.774993589734959E-1   -3.204845294830146E-1
 9.937412222100000E9     4.693713295899237E-1   -1.139430180500410E-1   -1.356881571930137E-3   -1.369705638371752E-3   -1.378733273455688E-3   -1.325473827497398E-3    3.772508683434213E-1   -3.207722570226154E-1
 9.937414253250000E9     4.691882664014042E-1   -1.141075248341703E-1   -1.340160756901456E-3   -1.402559652440115E-3   -1.367770463192319E-3   -1.390537781677115E-3    3.769111291077520E-1   -3.209657694315163E-1
 9.937416284400000E9     4.692321237477583E-1   -1.142581324331913E-1   -1.395298484554619E-3   -1.434822039034588E-3   -1.408585347270023E-3   -1.399258862554070E-3    3.766254548549549E-1   -3.211250590955229E-1
 9.937418315549999E9     4.690794912724882E-1   -1.144792689263615E-1   -1.389421409954246E-3   -1.430874322533880E-3   -1.433621920175159E-3   -1.451717942806226E-3    3.761841968675849E-1   -3.213103427930581E-1
 9.937420346700001E9     4.690582350048249E-1   -1.146401003888116E-1   -1.401543529302534E-3   -1.445231515041908E-3   -1.467554166781414E-3   -1.415634152445191E-3    3.759800376340327E-1   -3.216988019947021E-1
 9.937422377850000E9     4.690174562436598E-1   -1.147904293779357E-1   -1.418610301669865E-3   -1.463503596648302E-3   -1.458808638297172E-3   -1.444569676029802E-3    3.758662439539103E-1   -3.219327363304151E-1
 9.937424409000000E9     4.689427605994497E-1   -1.147504266993734E-1   -1.475640887960919E-3   -1.480784943587651E-3   -1.507312738911295E-3   -1.478645954553212E-3    3.755289166506824E-1   -3.220771981605515E-1
 9.937426440150000E9     4.690472670717963E-1   -1.149743205694885E-1   -1.491068349763126E-3   -1.511079757216370E-3   -1.511974907237542E-3   -1.490738167172476E-3    3.753253693059606E-1   -3.222299683301660E-1
 9.937428471299999E9     4.689829528610243E-1   -1.150143767589224E-1   -1.484201437329173E-3   -1.502142625553887E-3   -1.539424509957940E-3   -1.474296428513002E-3    3.748207107000431E-1   -3.224590660730878E-1
 9.937430502450001E9     4.689826482632433E-1   -1.153195902596792E-1   -1.507639060765045E-3   -1.551639232263156E-3   -1.585368860643246E-3   -1.546403022914013E-3    3.747054808905657E-1   -3.227507198864195E-1
 9.937432533600000E9     4.687250656698701E-1   -1.153506884286469E-1   -1.510584534169521E-3   -1.582249741006311E-3   -1.570770977736665E-3   -1.531540813035136E-3    3.743416946511822E-1   -3.228177352022093E-1
 9.937434564750000E9     4.687602856659180E-1   -1.156658624338254E-1   -1.596791615542668E-3   -1.563074751086155E-3   -1.597311562291341E-3   -1.588995836706198E-3    3.741916170439193E-1   -3.229646955874140E-1
 9.937436595900000E9     4.687521694339656E-1   -1.156831449291478E-1   -1.616853925721708E-3   -1.584817439284239E-3   -1.621301192599288E-3   -1.575168041203669E-3    3.738336783231910E-1   -3.233329372992503E-1
 9.937438627049999E9     4.687357691008060E-1   -1.158711519044221E-1   -1.598304135790625E-3   -1.612147466157582E-3   -1.641089586231247E-3   -1.586931046424745E-3    3.734878033039067E-1   -3.234561191086303E-1
 9.937440658200001E9     4.687270039346876E-1   -1.159805546578917E-1   -1.630876207274996E-3   -1.596943301679046E-3   -1.670240928881264E-3   -1.589755232452967E-3    3.732550855617754E-1   -3.235343750073261E-1
 9.937442689350000E9     4.687307033635701E-1   -1.160486753159498E-1   -1.607341998639295E-3   -1.645973122425330E-3   -1.722689860353626E-3   -1.630167687442334E-3    3.728414027037325E-1   -3.238697617529365E-1
 9.937444720500000E9     4.685704156404982E-1   -1.162853178958077E-1   -1.686287858882842E-3   -1.683789663362625E-3   -1.722428742895996E-3   -1.645073926334258E-3    3.725769434535375E-1   -3.240908535086467E-1
 9.937446751650000E9     4.684454887661665E-1   -1.162880631138273E-1   -1.708587597232076E-3   -1.694835127574381E-3   -1.738256370379292E-3   -1.671480454561819E-3    3.722863098946930E-1   -3.244791682890617E-1
 9.937448782799999E9     4.685091613174249E-1   -1.164577058675451E-1   -1.721602653055716E-3   -1.660730938033130E-3   -1.772163470846275E-3   -1.689694888046193E-3    3.720322694973135E-1   -3.245428276724601E-1
 9.937450813950001E9     4.684132641504342E-1   -1.167163374887637E-1   -1.733068667860632E-3   -1.728916036168776E-3   -1.789853440219091E-3   -1.718702577521957E-3    3.716597298342018E-1   -3.247952898239700E-1
 9.937452845100000E9     4.684677283463843E-1   -1.166613815266170E-1   -1.795846929476769E-3   -1.757299629613600E-3   -1.834589277957156E-3   -1.756774021284051E-3    3.712243001497779E-1   -3.251603212542163E-1
 9.937454876250000E9     4.682357279588413E-1   -1.168719650869363E-1   -1.803594278577004E-3   -1.750949334050106E-3   -1.856850158244634E-3   -1.752171132139853E-3    3.708378779006997E-1   -3.252453581782465E-1
 9.937456907400000E9     4.683432944118195E-1   -1.171384416765786E-1   -1.840286478090927E-3   -1.746000086899650E-3   -1.874092245069489E-3   -1.771327883091095E-3    3.705602822358804E-1   -3.255564617991051E-1
 9.937458938549999E9     4.682125325862817E-1   -1.171531484110667E-1   -1.868603529766955E-3   -1.780945173625527E-3   -1.933546795042566E-3   -1.805514191402409E-3    3.700843506234152E-1   -3.256944088173788E-1
 9.937460969700001E9     4.683614950821171E-1   -1.173157747201954E-1   -1.884413284160000E-3   -1.837278026605425E-3   -1.921690322370774E-3   -1.829450420328227E-3    3.698596741771782E-1   -3.260586504142400E-1
 9.937463000850000E9     4.682199931552838E-1   -1.174540526391179E-1   -1.942754785023892E-3   -1.823206126471823E-3   -1.979472373438674E-3   -1.830063895909932E-3    3.694465625091865E-1   -3.264044370450097E-1
 9.937465032000000E9     4.682129992674915E-1   -1.174926689400219E-1   -1.973318041343710E-3   -1.857700615109912E-3   -2.011646053289638E-3   -1.877777331648222E-3    3.692659255052013E-1   -3.265040096433910E-1
 9.937467063150000E9     4.680775094318811E-1   -1.177470014351562E-1   -1.998537485007346E-3   -1.886045459306763E-3   -1.981558812031366E-3   -1.898206301739682E-3    3.689775148372366E-1   -3.267561836173354E-1
 9.937469094299999E9     4.681529923982972E-1   -1.180528346123492E-1   -1.996000134754879E-3   -1.924717076644429E-3   -2.064842354123162E-3   -1.889357854674148E-3    3.685735757609355E-1   -3.270453851575815E-1
 9.937471125450001E9     4.679305694755938E-1   -1.180066179931620E-1   -2.020178479355792E-3   -1.950114956725853E-3   -2.097538907121652E-3   -1.912695361888364E-3    3.680079549859696E-1   -3.271253029963102E-1
 9.937473156600000E9     4.679959881671883E-1   -1.182878512937133E-1   -2.043494162556197E-3   -1.968489072472210E-3   -2.118236146319563E-3   -1.965007897674089E-3    3.677928684972707E-1   -3.275001341160654E-1
 9.937475187750000E9     4.679498818002899E-1   -1.182011008400792E-1   -2.106280787460207E-3   -1.971131451687134E-3   -2.136709510577971E-3   -1.994406396459542E-3    3.675231642956275E-1   -3.276599923500581E-1
 9.937477218900000E9     4.678544712918654E-1   -1.183824563441828E-1   -2.120749714324785E-3   -1.989507699322024E-3   -2.198528682298471E-3   -1.965958931428400E-3    3.669502771647795E-1   -3.279584294173825E-1
 9.937479250049999E9     4.678171103320172E-1   -1.185522752344725E-1   -2.195728494040637E-3   -2.019927648121940E-3   -2.204435387030565E-3   -2.012672139756955E-3    3.667407855368414E-1   -3.284227159415796E-1
 9.937481281200001E9     4.677210223793562E-1   -1.186710177265229E-1   -2.195595563141098E-3   -2.064609980173578E-3   -2.264514110814654E-3   -2.038856667554203E-3    3.659835353602851E-1   -3.285597561508167E-1
 9.937483312350000E9     4.676276969379007E-1   -1.188543203971105E-1   -2.208646024322268E-3   -2.065635579773224E-3   -2.280443159430796E-3   -2.105108380268418E-3    3.657555477962423E-1   -3.289203174974621E-1
 9.937485343500000E9     4.676967156210667E-1   -1.190042963001603E-1   -2.278566169004324E-3   -2.107248202491164E-3   -2.349197155591256E-3   -2.119788714745378E-3    3.654907630354381E-1   -3.289820049605447E-1
