#  HZ   S   RI   R     50.00 
! Rohde & Schwarz Vector Network Analyzer 
! Rohde-Schwarz,ZNB20-2Port,1311601062101988,3.16
! Created: UTC 3/20/2024, 11:00:27 PM
! freq[Hz]                re:S11                  im:S11                  re:S21                  im:S21                  re:S12                  im:S12                  re:S22                  im:S22
 9.937287524000000E9     4.717936085866569E-1   -1.055132716223325E-1   -6.168863696077459E-4   -6.413761851439446E-4   -6.290317558037655E-4   -7.025242882946257E-4    3.897153022369727E-1   -3.096600182524424E-1
 9.937289599375000E9     4.718908988772572E-1   -1.057459537166942E-1   -5.894502732598875E-4   -6.565703678348476E-4   -6.384346468873978E-4   -6.714215967559960E-4    3.895513306044535E-1   -3.101313256710259E-1
 9.937291674750000E9     4.716788024185140E-1   -1.058516971420911E-1   -6.064415375308989E-4   -6.709332028791732E-4   -6.135137639885678E-4   -6.428704888750347E-4    3.891753568462838E-1   -3.100523737878630E-1
 9.937293750125000E9     4.715285661482318E-1   -1.060738051075926E-1   -6.317018626974634E-4   -7.142769109044930E-4   -6.101296639959435E-4   -7.070021145894169E-4    3.892302624900827E-1   -3.102061169202319E-1
 9.937295825500000E9     4.716453373406650E-1   -1.061801531620472E-1   -6.128979191702084E-4   -7.110215986462554E-4   -6.372193494320831E-4   -6.931963132379396E-4    3.890179568734728E-1   -3.104072106794852E-1
 9.937297900875000E9     4.716023352695910E-1   -1.063146780781212E-1   -6.505470276262364E-4   -6.970285611663727E-4   -6.900892597854570E-4   -6.713772914133247E-4    3.886903866954842E-1   -3.102706122026607E-1
 9.937299976250000E9     4.715823919759649E-1   -1.065430878935918E-1   -5.739709230998646E-4   -7.102308492965910E-4   -6.828590002470237E-4   -6.938409756351683E-4    3.886823621889575E-1   -3.105770607682004E-1
 9.937302051625000E9     4.715944551677018E-1   -1.065865792476432E-1   -6.782281925766774E-4   -7.078045867903706E-4   -6.764891735200116E-4   -7.056293425330439E-4    3.884723685038827E-1   -3.109602615855039E-1
 9.937304127000000E9     4.713824305248973E-1   -1.066467094643733E-1   -6.482089666836277E-4   -7.169141628018221E-4   -6.938072850650758E-4   -7.110343626110494E-4    3.882511760413780E-1   -3.109546982229074E-1
 9.937306202375000E9     4.714615989684270E-1   -1.068418351334281E-1   -6.906171395324396E-4   -7.187540589531300E-4   -6.821090050412602E-4   -7.363188143383560E-4    3.879224665803865E-1   -3.112556099142446E-1
 9.937308277750000E9     4.714322663170250E-1   -1.070677854832154E-1   -6.852438924595920E-4   -7.767889427634229E-4   -7.165727664365711E-4   -7.651713137985777E-4    3.878727396864586E-1   -3.113992393720326E-1
 9.937310353125000E9     4.713063644468264E-1   -1.071945817030565E-1   -6.850654542616057E-4   -7.785362051061477E-4   -7.064723719957353E-4   -7.706545892804269E-4    3.876192882862170E-1   -3.115536853839457E-1
 9.937312428500000E9     4.713891503183400E-1   -1.073095871735241E-1   -6.794308389132303E-4   -7.707698496497036E-4   -7.075353683121571E-4   -7.730920390989402E-4    3.875916669696246E-1   -3.118442590658380E-1
 9.937314503875000E9     4.713079471171503E-1   -1.074637824762190E-1   -7.129414926678342E-4   -7.876007497656574E-4   -7.119903839506114E-4   -7.812138984344126E-4    3.872076895648743E-1   -3.118055993028697E-1
 9.937316579250000E9     4.712120211675569E-1   -1.075886291879076E-1   -7.420299390901070E-4   -7.498101787281166E-4   -7.294280912950075E-4   -7.884716666150148E-4    3.871387909439558E-1   -3.120635434520919E-1
 9.937318654625000E9     4.712148497849087E-1   -1.078241125197217E-1   -7.223089646600252E-4   -8.085661038199559E-4   -7.690510834260311E-4   -8.110897546877381E-4    3.868339144030713E-1   -3.123275038877734E-1
 9.937320730000000E9     4.711523228345841E-1   -1.078990767510641E-1   -7.076640508268578E-4   -8.096677129840971E-4   -7.536946711015218E-4   -8.041195563623437E-4    3.867362190821919E-1   -3.123791030157781E-1
 9.937322805375000E9     4.712319932338840E-1   -1.080465083175054E-1   -7.754176495149757E-4   -8.122609524512672E-4   -7.881982574478017E-4   -8.173761192575488E-4    3.865115253698814E-1   -3.125717904880815E-1
 9.937324880750000E9     4.710097337099514E-1   -1.081892288749983E-1   -7.562115386901115E-4   -8.389344540666627E-4   -8.133790567576032E-4   -7.896171048796785E-4    3.863040503746516E-1   -3.127480103152446E-1
 9.937326956125000E9     4.709968284265986E-1   -1.083409442875674E-1   -7.766739501590447E-4   -8.252732702498274E-4   -7.887445842503973E-4   -8.383191153359736E-4    3.860350188535847E-1   -3.131049756129634E-1
 9.937329031500000E9     4.710849511838970E-1   -1.085583471252891E-1   -8.136139257073639E-4   -8.486158898938523E-4   -8.227371119843551E-4   -8.335943441832552E-4    3.858805888796368E-1   -3.132320583832501E-1
 9.937331106875000E9     4.709906700757941E-1   -1.086534294688057E-1   -7.700709734968423E-4   -8.753901467783173E-4   -8.529826734638685E-4   -8.755471643227103E-4    3.857330502300706E-1   -3.131865228728586E-1
 9.937333182250000E9     4.709185893044775E-1   -1.087473348626034E-1   -8.357308808843747E-4   -8.900981149465505E-4   -8.375203377166296E-4   -8.787747748699554E-4    3.855654476455349E-1   -3.134234898914783E-1
 9.937335257625000E9     4.707816083161014E-1   -1.088913288602226E-1   -8.251221150568843E-4   -8.976835919513726E-4   -8.440900708345058E-4   -8.933336287459396E-4    3.854655034335616E-1   -3.136042158759851E-1
 9.937337333000000E9     4.708071282149516E-1   -1.089585874359734E-1   -8.143746119388181E-4   -8.958077981925112E-4   -8.455693319029468E-4   -9.311353770070828E-4    3.852869359856843E-1   -3.138617740570289E-1
 9.937339408375000E9     4.707566213761292E-1   -1.091513135901529E-1   -8.361842990987116E-4   -9.461851059721046E-4   -8.485997349722398E-4   -9.237370193951162E-4    3.848643510748738E-1   -3.140777610656121E-1
 9.937341483750000E9     4.708046492909253E-1   -1.092985736907376E-1   -8.623905321640128E-4   -9.265989631353333E-4   -8.888491102500792E-4   -9.208492946431497E-4    3.844324108388598E-1   -3.141320765650985E-1
 9.937343559125000E9     4.708839783865898E-1   -1.095153506575094E-1   -8.903357600725983E-4   -9.251597037544158E-4   -9.159728065197040E-4   -9.289278381146464E-4    3.844946501469862E-1   -3.144551022972028E-1
 9.937345634500000E9     4.707167196802902E-1   -1.096207134880052E-1   -8.869778714955631E-4   -9.552911212454261E-4   -9.223004519497817E-4   -9.622746680745631E-4    3.845184856460527E-1   -3.145847010796195E-1
 9.937347709875000E9     4.706891104586817E-1   -1.098707364450456E-1   -8.927073612565289E-4   -9.290649700049241E-4   -9.153913456985964E-4   -9.695896292988132E-4    3.841914166073080E-1   -3.148126865510956E-1
 9.937349785250000E9     4.706064531770729E-1   -1.098049941114723E-1   -9.002073714258200E-4   -9.455707005478502E-4   -9.297838274956993E-4   -9.635441590060145E-4    3.837801013242013E-1   -3.150327181459053E-1
 9.937351860625000E9     4.704137109489888E-1   -1.101331581135044E-1   -9.403255206932258E-4   -9.901604307243467E-4   -9.236117090598460E-4   -9.655710675364465E-4    3.836438872701951E-1   -3.151794154728521E-1
 9.937353936000000E9     4.705922013468517E-1   -1.102653024899415E-1   -9.187345766949573E-4   -9.804090777268241E-4   -9.606266772741069E-4   -9.861659917790922E-4    3.833782772897285E-1   -3.154823573945278E-1
 9.937356011375000E9     4.702216502289669E-1   -1.102753354258101E-1   -9.194403554713304E-4   -1.000785699994374E-3   -9.725685004466628E-4   -1.007029369653732E-3    3.832576759483455E-1   -3.155908953301860E-1
 9.937358086750000E9     4.703528024349502E-1   -1.105154285863594E-1   -9.843708097886077E-4   -1.030444156131114E-3   -9.862531575051826E-4   -1.022985260478704E-3    3.830771143861289E-1   -3.158225483055538E-1
 9.937360162125000E9     4.703663280686605E-1   -1.105213896104282E-1   -9.760551672871559E-4   -1.042883718163151E-3   -1.000906384556689E-3   -1.051569395208185E-3    3.827921906926910E-1   -3.159290301286428E-1
 9.937362237500000E9     4.703542845022281E-1   -1.107818425958267E-1   -9.979348750594837E-4   -1.050575240488461E-3   -1.016083620756927E-3   -1.036662580523925E-3    3.826462834542678E-1   -3.159295552346039E-1
 9.937364312875000E9     4.702937276064564E-1   -1.109198646658085E-1   -9.576716298877502E-4   -1.065702798831043E-3   -1.061126530839548E-3   -1.060283470525573E-3    3.822683948416054E-1   -3.163638554048157E-1
 9.937366388250000E9     4.701114752005671E-1   -1.110828558898498E-1   -1.034678754785982E-3   -1.062850764559430E-3   -1.082962592294552E-3   -1.080441156495624E-3    3.822224841582349E-1   -3.164608212031938E-1
 9.937368463625000E9     4.701824022183679E-1   -1.112625411781261E-1   -1.032203949548031E-3   -1.089041821996843E-3   -1.068828933969526E-3   -1.065511084355611E-3    3.816977814475533E-1   -3.167290253307004E-1
 9.937370539000000E9     4.701379865540533E-1   -1.112568477742157E-1   -1.063032824177923E-3   -1.122847722531826E-3   -1.101950640636271E-3   -1.092283576245276E-3    3.815709911233864E-1   -3.169886954090825E-1
 9.937372614375000E9     4.700317740981329E-1   -1.114384801611916E-1   -1.083271340903596E-3   -1.116940396713797E-3   -1.104866122252797E-3   -1.128619380503017E-3    3.814266054707707E-1   -3.169798231896655E-1
 9.937374689750000E9     4.700289816109376E-1   -1.115559314531527E-1   -1.061727443864639E-3   -1.149956879340600E-3   -1.124350482223539E-3   -1.111914028483248E-3    3.812093995869059E-1   -3.173569503188874E-1
 9.937376765125000E9     4.701457456189873E-1   -1.117065470522485E-1   -1.071666988795494E-3   -1.159451934080726E-3   -1.129160315155424E-3   -1.151045519662093E-3    3.810925826330244E-1   -3.175328858519424E-1
 9.937378840500000E9     4.698959965189241E-1   -1.118817146453075E-1   -1.126730523606493E-3   -1.167599510601969E-3   -1.140610792206574E-3   -1.174914569876476E-3    3.806123681954751E-1   -3.177778658351776E-1
 9.937380915875000E9     4.699759584707824E-1   -1.119622472905336E-1   -1.132539175488733E-3   -1.176678469004950E-3   -1.168878504725296E-3   -1.167897484880713E-3    3.807217440800889E-1   -3.178841982942280E-1
 9.937382991250000E9     4.699063464673372E-1   -1.121425836938853E-1   -1.118523547834227E-3   -1.190723297453044E-3   -1.170974447724330E-3   -1.174573779059180E-3    3.801852755678512E-1   -3.178707617566551E-1
 9.937385066625000E9     4.698343177992625E-1   -1.123314813874080E-1   -1.161060235554801E-3   -1.203032866942658E-3   -1.239637720573897E-3   -1.174452017938611E-3    3.801035699462399E-1   -3.183252349427814E-1
 9.937387142000000E9     4.699492342933331E-1   -1.123820705902256E-1   -1.167643414533700E-3   -1.233224738013656E-3   -1.212247759806604E-3   -1.240217965475357E-3    3.797029149270431E-1   -3.185325302936927E-1
 9.937389217375000E9     4.697599443798443E-1   -1.125502280286798E-1   -1.208962552386076E-3   -1.256778294833434E-3   -1.246605995848773E-3   -1.245745206785599E-3    3.795865570506736E-1   -3.187261797413133E-1
 9.937391292750000E9     4.697181371721216E-1   -1.126608951465709E-1   -1.216591943318926E-3   -1.251949126734450E-3   -1.250761347328380E-3   -1.239355390624709E-3    3.791919599017693E-1   -3.190924763084657E-1
 9.937393368125000E9     4.696772878281483E-1   -1.128101671346611E-1   -1.243272599269425E-3   -1.259395193452586E-3   -1.267538046761834E-3   -1.260048217820681E-3    3.789613847617327E-1   -3.191079289871447E-1
 9.937395443500000E9     4.696123548909452E-1   -1.128488829495585E-1   -1.279909320752635E-3   -1.294016417820260E-3   -1.269284804263314E-3   -1.276949964179413E-3    3.787907941371377E-1   -3.192274806164202E-1
 9.937397518875000E9     4.695946847123407E-1   -1.131656564209060E-1   -1.264557077296249E-3   -1.252670760228445E-3   -1.273174667805785E-3   -1.263128417498178E-3    3.784739198362159E-1   -3.195146048480644E-1
 9.937399594250000E9     4.694917333462136E-1   -1.133836121837496E-1   -1.289582821771453E-3   -1.310677636094026E-3   -1.339878076714428E-3   -1.324521153834218E-3    3.781949612669859E-1   -3.197456955641349E-1
 9.937401669625000E9     4.696282964894040E-1   -1.134112730934728E-1   -1.291550477581719E-3   -1.317035227511270E-3   -1.358490428998191E-3   -1.348242157908620E-3    3.779613866759449E-1   -3.200054127716807E-1
 9.937403745000000E9     4.693773597622775E-1   -1.135351679352655E-1   -1.355021436333043E-3   -1.345859660833520E-3   -1.344379004885892E-3   -1.357502583893649E-3    3.776681525779345E-1   -3.202315799436047E-1
 9.937405820375000E9     4.694009849622064E-1   -1.136647020639754E-1   -1.327153012203677E-3   -1.355938186781661E-3   -1.394265619814010E-3   -1.364949939781050E-3    3.772714599259084E-1   -3.201397026461901E-1
 9.937407895750000E9     4.692688665626409E-1   -1.138155375309353E-1   -1.333675432738618E-3   -1.382970482341373E-3   -1.410917493570540E-3   -1.385370625401079E-3    3.771966767322478E-1   -3.205788525221853E-1
 9.937409971125000E9     4.693346113178056E-1   -1.139354111274894E-1   -1.369985317372063E-3   -1.369242882862741E-3   -1.425561824244893E-3   -1.401786926054826E-3    3.770788380028641E-1   -3.206923067759214E-1
 9.937412046500000E9     4.693030487676244E-1   -1.141576675826529E-1   -1.402816618581756E-3   -1.436202413216695E-3   -1.417261558288334E-3   -1.416865785276151E-3    3.766771378478822E-1   -3.209826414009617E-1
 9.937414121875000E9     4.692673199496761E-1   -1.141073379131025E-1   -1.442565827843000E-3   -1.431227041488640E-3   -1.483528943699142E-3   -1.449704246458125E-3    3.762593489948156E-1   -3.211900251336086E-1
 9.937416197250000E9     4.690767537062259E-1   -1.144422739970208E-1   -1.451332005645981E-3   -1.426774208848755E-3   -1.472625545862288E-3   -1.476590470904216E-3    3.758323887839988E-1   -3.212764912188624E-1
 9.937418272625000E9     4.691742028806078E-1   -1.145967495071434E-1   -1.432492696605655E-3   -1.464532982649345E-3   -1.499017297709235E-3   -1.468842587793258E-3    3.757077849012694E-1   -3.215018524016107E-1
 9.937420348000000E9     4.691604259940806E-1   -1.145905435123866E-1   -1.438138159911958E-3   -1.482627375798870E-3   -1.513562236537458E-3   -1.497724572431778E-3    3.754266586018726E-1   -3.218489727028114E-1
 9.937422423375000E9     4.689519423264122E-1   -1.146749132961576E-1   -1.517183380364591E-3   -1.493571844272074E-3   -1.541231662752555E-3   -1.504579872546424E-3    3.751131151972792E-1   -3.220478537056345E-1
 9.937424498750000E9     4.689767078830522E-1   -1.149165115739037E-1   -1.507626005559272E-3   -1.516667281471828E-3   -1.544724856835671E-3   -1.504058266314146E-3    3.749978652658253E-1   -3.222890171534934E-1
 9.937426574125000E9     4.689789921372139E-1   -1.151126366778278E-1   -1.534575283447686E-3   -1.494149843425324E-3   -1.589412117615916E-3   -1.543426398483686E-3    3.745367127298532E-1   -3.225116568587929E-1
 9.937428649500000E9     4.689311644391103E-1   -1.153211713708110E-1   -1.549185464317278E-3   -1.575266935302760E-3   -1.627989265343936E-3   -1.537366789261489E-3    3.742464127681930E-1   -3.226511279596800E-1
 9.937430724875000E9     4.688360707245429E-1   -1.154197256966898E-1   -1.605053154264582E-3   -1.580535623884161E-3   -1.651402025896146E-3   -1.560893194456508E-3    3.741163349135940E-1   -3.230714206945164E-1
 9.937432800250000E9     4.687039914121363E-1   -1.155815632136811E-1   -1.607997679128861E-3   -1.607202155282398E-3   -1.654547565551831E-3   -1.600710333792424E-3    3.736385337702068E-1   -3.231640756722044E-1
 9.937434875625000E9     4.688507260014361E-1   -1.155004470852742E-1   -1.625171033858103E-3   -1.620495726393562E-3   -1.705277558479663E-3   -1.597355099130498E-3    3.733383724882395E-1   -3.236203573280687E-1
 9.937436951000000E9     4.687114373902445E-1   -1.158515458683659E-1   -1.661667880524243E-3   -1.630384831572755E-3   -1.714887931599740E-3   -1.616205183936784E-3    3.730981256159436E-1   -3.235794138731336E-1
 9.937439026375000E9     4.687472695564145E-1   -1.160424458406211E-1   -1.685168228593829E-3   -1.671785042857811E-3   -1.734072309329781E-3   -1.639572447843875E-3    3.729846128689133E-1   -3.239156891885475E-1
 9.937441101750000E9     4.685693088722905E-1   -1.160580905506019E-1   -1.698970998453457E-3   -1.651433963147814E-3   -1.782894175994411E-3   -1.678174372564787E-3    3.723365943087000E-1   -3.241760079858834E-1
 9.937443177125000E9     4.685421302103249E-1   -1.162041214701251E-1   -1.748619166567564E-3   -1.698255796026502E-3   -1.818027762071643E-3   -1.682455311405471E-3    3.721990424265934E-1   -3.242474290925044E-1
 9.937445252500000E9     4.686403368492584E-1   -1.162570110694559E-1   -1.740101228076551E-3   -1.718343290249694E-3   -1.829667313469822E-3   -1.707465024147715E-3    3.717684253312328E-1   -3.244676780785575E-1
 9.937447327875000E9     4.684421340516609E-1   -1.164149563380075E-1   -1.798746115334356E-3   -1.713138252219046E-3   -1.828310153164012E-3   -1.749347403627068E-3    3.714591736383920E-1   -3.248590797370341E-1
 9.937449403250000E9     4.685112872337270E-1   -1.166465219314759E-1   -1.810479500989050E-3   -1.768460860425619E-3   -1.869190944057612E-3   -1.734975755255289E-3    3.709583171146198E-1   -3.250439598125808E-1
 9.937451478625000E9     4.684440371258469E-1   -1.168396469103852E-1   -1.842764005091211E-3   -1.806069172933989E-3   -1.931890718104765E-3   -1.750951626707200E-3    3.707731051899902E-1   -3.251961285894905E-1
 9.937453554000000E9     4.685526696603404E-1   -1.167866731716311E-1   -1.901210643433507E-3   -1.812313721428460E-3   -1.902774096901318E-3   -1.788251231815637E-3    3.705391320665333E-1   -3.255133532754100E-1
 9.937455629375000E9     4.682978192877764E-1   -1.170726364177926E-1   -1.899395425385265E-3   -1.782704119572743E-3   -1.991782268835906E-3   -1.810729653159472E-3    3.701498030517782E-1   -3.256944975753772E-1
 9.937457704750000E9     4.682583388581840E-1   -1.171058760546033E-1   -1.910440072677758E-3   -1.833799385150818E-3   -1.984685393507057E-3   -1.815569739771393E-3    3.696993840123717E-1   -3.259905190136024E-1
 9.937459780125000E9     4.682226239875651E-1   -1.172699273381633E-1   -1.963125712811953E-3   -1.878508955929702E-3   -2.029561586832427E-3   -1.833657039185642E-3    3.693142827302878E-1   -3.264208867752864E-1
 9.937461855500000E9     4.682360203232738E-1   -1.174828130745913E-1   -1.988684396839960E-3   -1.885783536348919E-3   -2.055668248597431E-3   -1.856939528494999E-3    3.689026478043767E-1   -3.263981068803671E-1
 9.937463930875000E9     4.681792707791587E-1   -1.175555899655420E-1   -2.052331813929563E-3   -1.925121232923351E-3   -2.093669456991455E-3   -1.914590531805719E-3    3.686026670638155E-1   -3.267480143337925E-1
 9.937466006250000E9     4.680402287857064E-1   -1.177342306811848E-1   -2.031323823937448E-3   -1.970165911888520E-3   -2.124653733694472E-3   -1.907524810054772E-3    3.682516439316443E-1   -3.267873691749285E-1
 9.937468081625000E9     4.680768962141754E-1   -1.179542522052907E-1   -2.115450626996406E-3   -1.941178866428859E-3   -2.139281222392064E-3   -1.954453003289473E-3    3.676846469962113E-1   -3.271550418619202E-1
 9.937470157000000E9     4.679925296862317E-1   -1.181542304899434E-1   -2.123690658383004E-3   -1.980267216231509E-3   -2.162748949947600E-3   -1.966485738869863E-3    3.672146973869324E-1   -3.272128357748564E-1
 9.937472232375000E9     4.679061262690560E-1   -1.181324081240655E-1   -2.148290842146031E-3   -2.001693073453604E-3   -2.222324494953382E-3   -2.018664850065060E-3    3.671249188004285E-1   -3.277057897791791E-1
 9.937474307750000E9     4.679423575329807E-1   -1.183953732694552E-1   -2.207355179565792E-3   -2.020650672719070E-3   -2.264267563142596E-3   -2.033952414388607E-3    3.665271263280908E-1   -3.279915731546067E-1
