#  HZ   S   RI   R     50.00 
! Rohde & Schwarz Vector Network Analyzer 
! Rohde-Schwarz,ZNB20-2Port,1311601062101988,3.16
! Created: UTC 3/20/2024, 10:52:53 PM
! freq[Hz]                re:S11                  im:S11                  re:S21                  im:S21                  re:S12                  im:S12                  re:S22                  im:S22
 9.937738962000000E9     4.622983293813219E-1   -1.345147395310516E-1   -2.438456309118591E-3   -2.808056618671015E-3   -2.528695504167124E-3   -2.766739831754837E-3    3.514540340474240E-1   -3.463971575711799E-1
 9.937739923075001E9     4.621697760199401E-1   -1.345195835516125E-1   -2.471952403584381E-3   -2.832414575029983E-3   -2.539893987678774E-3   -2.826942185648823E-3    3.513498543516003E-1   -3.468222460275989E-1
 9.937740884150000E9     4.621099255278944E-1   -1.345909403296849E-1   -2.505596913076558E-3   -2.834649984542019E-3   -2.568232555195856E-3   -2.846873824628724E-3    3.509592531442999E-1   -3.469500250805392E-1
 9.937741845225000E9     4.622487298052424E-1   -1.346161100249018E-1   -2.537412633376391E-3   -2.864067852404772E-3   -2.595664750310581E-3   -2.865810354030047E-3    3.506167938918292E-1   -3.470136260052556E-1
 9.937742806299999E9     4.621823448490440E-1   -1.346766433404159E-1   -2.567951722706706E-3   -2.866574047828134E-3   -2.635725428862912E-3   -2.857682567443207E-3    3.505464527815674E-1   -3.470628697219039E-1
 9.937743767375000E9     4.621952240606922E-1   -1.347628964950331E-1   -2.537163595268989E-3   -2.877216044336061E-3   -2.654052869476537E-3   -2.871414023684388E-3    3.502774974938616E-1   -3.473597973143951E-1
 9.937744728450001E9     4.621368428005040E-1   -1.348411115135019E-1   -2.597693313012267E-3   -2.944203297394223E-3   -2.665519603903462E-3   -2.945169945154105E-3    3.499764273197449E-1   -3.476311499797111E-1
 9.937745689525000E9     4.619880267508842E-1   -1.347593881597961E-1   -2.620423948694002E-3   -2.905111538051197E-3   -2.659562584596480E-3   -2.945799432325951E-3    3.498921998200797E-1   -3.476346359268249E-1
 9.937746650600000E9     4.619024959549561E-1   -1.350932129510444E-1   -2.631919642705201E-3   -2.941259731731088E-3   -2.717816345720246E-3   -2.949483510808651E-3    3.494307031516428E-1   -3.477644284363127E-1
 9.937747611674999E9     4.620733893629685E-1   -1.351700023439768E-1   -2.633494025074235E-3   -2.932852562671521E-3   -2.674909458259786E-3   -2.957115613876856E-3    3.492519834749215E-1   -3.480440347070290E-1
 9.937748572750000E9     4.619258283300453E-1   -1.351130713857463E-1   -2.660932857786651E-3   -2.974274451801082E-3   -2.760286434076487E-3   -3.008501462444053E-3    3.490791301408488E-1   -3.481260585573547E-1
 9.937749533825001E9     4.620106057860172E-1   -1.351940600093246E-1   -2.674768229914849E-3   -3.024487412012930E-3   -2.788240048108280E-3   -2.999079330017025E-3    3.489002876104662E-1   -3.483869896539248E-1
 9.937750494900000E9     4.619598775633857E-1   -1.353024661939527E-1   -2.733361568993488E-3   -3.013029178096453E-3   -2.770561642923140E-3   -3.032694693644086E-3    3.483967130069179E-1   -3.484653650115269E-1
 9.937751455975000E9     4.619323216830247E-1   -1.354032232307290E-1   -2.745436355512363E-3   -3.056281373169292E-3   -2.842208511588576E-3   -3.050726475602763E-3    3.483317486371719E-1   -3.486592481994183E-1
 9.937752417049999E9     4.618486301980971E-1   -1.354325214356704E-1   -2.717064780975806E-3   -3.084473006424616E-3   -2.855799699512672E-3   -3.069161960836165E-3    3.481097329928385E-1   -3.489033367016085E-1
 9.937753378125000E9     4.618461978281079E-1   -1.354552613223820E-1   -2.806932112003588E-3   -3.122820242785698E-3   -2.853103835067342E-3   -3.106161503113624E-3    3.476401492036679E-1   -3.489850639056175E-1
 9.937754339200001E9     4.618837876377255E-1   -1.355012656672990E-1   -2.793813068223086E-3   -3.131974135936036E-3   -2.853973554108431E-3   -3.113864639198324E-3    3.474687429582713E-1   -3.492274570267330E-1
 9.937755300275000E9     4.619698912920119E-1   -1.356163023888536E-1   -2.825291181757192E-3   -3.115632597940379E-3   -2.920328886619443E-3   -3.113789048509434E-3    3.473537502195833E-1   -3.491861193294354E-1
 9.937756261350000E9     4.618276067729246E-1   -1.357143688231821E-1   -2.848432305506537E-3   -3.125048426396342E-3   -2.957907590015209E-3   -3.161097739501473E-3    3.468972104546181E-1   -3.496583903491434E-1
 9.937757222424999E9     4.617884780736513E-1   -1.355743702170059E-1   -2.890656956495237E-3   -3.181556115918457E-3   -2.949190404558985E-3   -3.194988279118560E-3    3.467970970448753E-1   -3.498692851157857E-1
 9.937758183500000E9     4.617977878080942E-1   -1.357843506391886E-1   -2.902609729969969E-3   -3.162052649665872E-3   -2.961792620240135E-3   -3.189625385774953E-3    3.465318685606867E-1   -3.500562987766812E-1
 9.937759144575001E9     4.615934276464830E-1   -1.359081307840508E-1   -2.944796114910509E-3   -3.224182238897973E-3   -2.995822377336151E-3   -3.199566753227598E-3    3.462555547737552E-1   -3.501962267113378E-1
 9.937760105650000E9     4.617033534910733E-1   -1.358947292178039E-1   -2.953157348573384E-3   -3.242040022744888E-3   -3.028517301443363E-3   -3.250908736447925E-3    3.459479539828951E-1   -3.503840963690503E-1
 9.937761066725000E9     4.617275987758458E-1   -1.359864060677408E-1   -2.980703362444913E-3   -3.248478646171543E-3   -3.059323980141988E-3   -3.221610481434497E-3    3.456802601269738E-1   -3.505156032037664E-1
 9.937762027799999E9     4.617232775914065E-1   -1.360385648913827E-1   -2.953660440262183E-3   -3.287175874736980E-3   -3.077533497476561E-3   -3.282458487579715E-3    3.453466406323001E-1   -3.507062401127355E-1
 9.937762988875000E9     4.616153998574932E-1   -1.361223198379567E-1   -3.054469563855399E-3   -3.296866053202012E-3   -3.100983840612681E-3   -3.319951034134541E-3    3.449478709436130E-1   -3.509765275948036E-1
 9.937763949950001E9     4.615736502749845E-1   -1.362473271990134E-1   -3.055034768130278E-3   -3.346432515291630E-3   -3.135089333176491E-3   -3.352643587492935E-3    3.447387988085376E-1   -3.509689975059173E-1
 9.937764911025000E9     4.615094103647325E-1   -1.361636510323956E-1   -3.062171828441421E-3   -3.364495022760157E-3   -3.142256628566111E-3   -3.341916670325210E-3    3.445551023357118E-1   -3.515198454618950E-1
 9.937765872100000E9     4.614359851398309E-1   -1.363367448599534E-1   -3.100093279065912E-3   -3.390257746401494E-3   -3.215341398527056E-3   -3.380832337993839E-3    3.443061455129564E-1   -3.514682441332997E-1
 9.937766833174999E9     4.615203402384275E-1   -1.364152348216279E-1   -3.170642220590891E-3   -3.381157073569951E-3   -3.206203591496138E-3   -3.405258002289574E-3    3.439987994864706E-1   -3.517577693273863E-1
 9.937767794250000E9     4.615785023095335E-1   -1.364377892472838E-1   -3.143342501064568E-3   -3.441830382004088E-3   -3.267876870735820E-3   -3.433377915907270E-3    3.435098113037144E-1   -3.519471245240617E-1
 9.937768755325001E9     4.616170112381967E-1   -1.364848400607587E-1   -3.194393299200592E-3   -3.460445759190332E-3   -3.275535657740454E-3   -3.475313691244885E-3    3.433917768818950E-1   -3.521534520780742E-1
 9.937769716400000E9     4.614726155427418E-1   -1.366360746902023E-1   -3.223210530891441E-3   -3.481297370217023E-3   -3.305939585200578E-3   -3.493795433270717E-3    3.430915226890500E-1   -3.523806267876450E-1
 9.937770677475000E9     4.614401198506049E-1   -1.366394205609600E-1   -3.247513724863804E-3   -3.482842181009735E-3   -3.324085927607370E-3   -3.466584771450015E-3    3.425822309304275E-1   -3.527560159237819E-1
 9.937771638549999E9     4.614607718015843E-1   -1.367598839499999E-1   -3.274904143764795E-3   -3.558196447781619E-3   -3.370573525514121E-3   -3.492193374786049E-3    3.426116192255769E-1   -3.527969882686227E-1
 9.937772599625000E9     4.613124397909047E-1   -1.368098527381003E-1   -3.330200069091126E-3   -3.545175223740446E-3   -3.378558590221101E-3   -3.536634630340594E-3    3.420457145369027E-1   -3.531380969049336E-1
 9.937773560700001E9     4.613276354316735E-1   -1.370065653307321E-1   -3.321143004466588E-3   -3.602128464588312E-3   -3.438652285182204E-3   -3.570644961334559E-3    3.417476602080930E-1   -3.530534356343443E-1
 9.937774521775000E9     4.613538296900224E-1   -1.369112262025482E-1   -3.364334915857853E-3   -3.582218619361548E-3   -3.457805343057088E-3   -3.559989302055521E-3    3.413419447842083E-1   -3.531592344716381E-1
 9.937775482850000E9     4.611788306790153E-1   -1.370843353698771E-1   -3.400235879373515E-3   -3.624706839425313E-3   -3.519487343805422E-3   -3.634848949557520E-3    3.409636712811084E-1   -3.534968618365733E-1
 9.937776443924999E9     4.612428816197421E-1   -1.371489711218714E-1   -3.435750909273856E-3   -3.646358366659391E-3   -3.530096358919114E-3   -3.643669794629271E-3    3.408140237193816E-1   -3.539110721799386E-1
 9.937777405000000E9     4.610830321494959E-1   -1.371874712148041E-1   -3.473394782411123E-3   -3.668658281586285E-3   -3.570787860505802E-3   -3.682267414388268E-3    3.405082216350771E-1   -3.540326554256913E-1
 9.937778366075001E9     4.614119067616149E-1   -1.371493701385058E-1   -3.491879823646320E-3   -3.726978658014632E-3   -3.578179950083494E-3   -3.723151890913858E-3    3.402310950535634E-1   -3.543200718494482E-1
 9.937779327150000E9     4.610594804757220E-1   -1.372622300614906E-1   -3.519966868634734E-3   -3.716902250980072E-3   -3.616321578261520E-3   -3.726339994832372E-3    3.397447055868004E-1   -3.543940900296093E-1
 9.937780288225000E9     4.611983057906592E-1   -1.374554645784357E-1   -3.554475264715406E-3   -3.754887199861406E-3   -3.677919178805974E-3   -3.736347599864617E-3    3.392642585849706E-1   -3.548104151571103E-1
 9.937781249299999E9     4.610829179679364E-1   -1.373428639184592E-1   -3.571917899276843E-3   -3.778380163350543E-3   -3.700356690010049E-3   -3.782442841760082E-3    3.390098338434588E-1   -3.548534930207744E-1
 9.937782210375000E9     4.611950149809145E-1   -1.374834476339827E-1   -3.621202507909789E-3   -3.837275686582742E-3   -3.782841606313982E-3   -3.795483162359448E-3    3.387564258952527E-1   -3.551445665155661E-1
 9.937783171450001E9     4.610096200589594E-1   -1.376856856235543E-1   -3.671253696540164E-3   -3.846452983472642E-3   -3.767954275130722E-3   -3.841033651613938E-3    3.385549834890391E-1   -3.555658379755179E-1
 9.937784132525000E9     4.609838596128117E-1   -1.377442190397954E-1   -3.658282920106128E-3   -3.891989614809158E-3   -3.807202797203751E-3   -3.850838357785215E-3    3.380595248291370E-1   -3.557203820998392E-1
 9.937785093600000E9     4.609436798626588E-1   -1.376742772788102E-1   -3.721141331128673E-3   -3.944208788692360E-3   -3.835911674677109E-3   -3.933829201730542E-3    3.376731884573950E-1   -3.557738992211340E-1
 9.937786054674999E9     4.610707104302390E-1   -1.377419201127298E-1   -3.789160689701792E-3   -3.909409726134516E-3   -3.854336899291892E-3   -3.875557756115566E-3    3.373179900530932E-1   -3.559060311902661E-1
 9.937787015750000E9     4.610150537776714E-1   -1.378684616751411E-1   -3.773201750161121E-3   -3.919205519131209E-3   -3.898575961979582E-3   -3.958105929992361E-3    3.369484692518739E-1   -3.564498064374780E-1
 9.937787976825001E9     4.608691178844107E-1   -1.378479859919974E-1   -3.858275633212223E-3   -4.003335129241283E-3   -3.930762265340369E-3   -3.996563025613205E-3    3.367071567617337E-1   -3.564805512623717E-1
 9.937788937900000E9     4.608624385397384E-1   -1.379408733074143E-1   -3.887516045075864E-3   -4.001778614828026E-3   -3.994660103700624E-3   -4.043546263141272E-3    3.362534290797894E-1   -3.567896450410867E-1
 9.937789898975000E9     4.609560659714513E-1   -1.379499867694411E-1   -3.930595997177628E-3   -4.043333934181769E-3   -4.015779249741201E-3   -4.042349314130734E-3    3.357515574461369E-1   -3.569850450761128E-1
 9.937790860049999E9     4.608088304200464E-1   -1.380859994909946E-1   -3.958700417438602E-3   -4.079000033858696E-3   -4.062138502795713E-3   -4.060337809112032E-3    3.355726052422495E-1   -3.571821577232443E-1
 9.937791821125000E9     4.607278147689065E-1   -1.381260077919658E-1   -3.990170402011152E-3   -4.131888920550385E-3   -4.096824110431056E-3   -4.082206507736125E-3    3.349344455645890E-1   -3.574246849156206E-1
 9.937792782200001E9     4.607113081331463E-1   -1.382198225666902E-1   -4.015643826060884E-3   -4.155870964832586E-3   -4.123200425592746E-3   -4.095000271689302E-3    3.346273576990753E-1   -3.578001313500126E-1
 9.937793743275000E9     4.607343640367156E-1   -1.383492654848670E-1   -4.048473022139860E-3   -4.166538847988185E-3   -4.169185078289016E-3   -4.164986153549026E-3    3.342338911114461E-1   -3.579734493909787E-1
 9.937794704350000E9     4.606434323346683E-1   -1.383266699963339E-1   -4.097526024722441E-3   -4.203880637744885E-3   -4.189653475869871E-3   -4.209589269856875E-3    3.338326643442543E-1   -3.582163136691599E-1
 9.937795665424999E9     4.606935194736609E-1   -1.384557490484171E-1   -4.155861949532970E-3   -4.231859199415782E-3   -4.241868700322960E-3   -4.229603603580334E-3    3.333488463988604E-1   -3.584027572119274E-1
 9.937796626500000E9     4.605966919976009E-1   -1.384570715516910E-1   -4.189802213171444E-3   -4.273327107262198E-3   -4.322666260076971E-3   -4.281648694384346E-3    3.330209342743344E-1   -3.587220189307329E-1
 9.937797587575001E9     4.606920585995857E-1   -1.385691911348316E-1   -4.254102135972118E-3   -4.315571159807109E-3   -4.366647050988386E-3   -4.335440072475000E-3    3.326545067680228E-1   -3.589170155791003E-1
 9.937798548650000E9     4.605971992921324E-1   -1.387112046540480E-1   -4.266515926614852E-3   -4.340091067557466E-3   -4.397374951721398E-3   -4.345859592539850E-3    3.320684772050402E-1   -3.591503330318994E-1
 9.937799509725000E9     4.606306517581786E-1   -1.386830841531137E-1   -4.344103381186806E-3   -4.368089830769382E-3   -4.430705673102900E-3   -4.369711050350580E-3    3.316689626075681E-1   -3.594477450563826E-1
 9.937800470799999E9     4.605272802677759E-1   -1.388259476731409E-1   -4.350964628234187E-3   -4.412024417357558E-3   -4.508033541273306E-3   -4.400345167024819E-3    3.311264689176796E-1   -3.596640268507144E-1
 9.937801431875000E9     4.605689304540225E-1   -1.388972056990956E-1   -4.419677942643549E-3   -4.413878558203217E-3   -4.562761546026068E-3   -4.415238612211573E-3    3.308803432433752E-1   -3.598693182137916E-1
 9.937802392950001E9     4.605902227784840E-1   -1.389356551969470E-1   -4.482583768199520E-3   -4.460410244235237E-3   -4.590821242498563E-3   -4.472201556019574E-3    3.302299805025580E-1   -3.604636864086780E-1
 9.937803354025000E9     4.604188248346856E-1   -1.390000577115071E-1   -4.495824621783794E-3   -4.517007559933181E-3   -4.642834717462592E-3   -4.503432251074635E-3    3.299359347084977E-1   -3.606052809022711E-1
 9.937804315100000E9     4.605795218875795E-1   -1.390126351297882E-1   -4.539736334208850E-3   -4.576041691372639E-3   -4.641354282535713E-3   -4.531112483699526E-3    3.293205207049574E-1   -3.608638149056173E-1
 9.937805276174999E9     4.604215787122143E-1   -1.390999297308510E-1   -4.594890209858302E-3   -4.563612372600309E-3   -4.705391554404941E-3   -4.562748388691535E-3    3.289696796126079E-1   -3.611524186376636E-1
 9.937806237250000E9     4.604335223114392E-1   -1.391427983386362E-1   -4.622247179432034E-3   -4.632151340610615E-3   -4.764284418562266E-3   -4.606341116575817E-3    3.285134051842108E-1   -3.615309526464318E-1
 9.937807198325001E9     4.604009294014255E-1   -1.392634801682968E-1   -4.698239591345045E-3   -4.652946865510803E-3   -4.833774957358167E-3   -4.618458515269765E-3    3.278626229473661E-1   -3.615988755357284E-1
 9.937808159400000E9     4.602665065633836E-1   -1.393128910706003E-1   -4.748408138848720E-3   -4.684033521721313E-3   -4.889137074647700E-3   -4.690060499963249E-3    3.273251235760014E-1   -3.618421010801935E-1
 9.937809120475000E9     4.603435468109428E-1   -1.394551942874875E-1   -4.755356070832171E-3   -4.739932558746651E-3   -4.935523596261850E-3   -4.712947778090849E-3    3.267957889545338E-1   -3.621458932474989E-1
 9.937810081549999E9     4.601845809575843E-1   -1.394709035722415E-1   -4.861679057712938E-3   -4.738900306240429E-3   -4.968513869074586E-3   -4.788631695683375E-3    3.263493224781931E-1   -3.622599450745084E-1
 9.937811042625000E9     4.602565660425507E-1   -1.395079530630733E-1   -4.892715391921708E-3   -4.830331912870667E-3   -5.040261387388486E-3   -4.815143907134233E-3    3.258195213140598E-1   -3.626591694963904E-1
 9.937812003700001E9     4.601302944229124E-1   -1.396783813423966E-1   -4.968834817494888E-3   -4.878329747896364E-3   -5.086994403230154E-3   -4.848960253495672E-3    3.253926907931367E-1   -3.630492577384530E-1
 9.937812964775000E9     4.602704889285174E-1   -1.396343759677061E-1   -5.017141742125262E-3   -4.909840445488220E-3   -5.157651539551132E-3   -4.885661287352174E-3    3.247866504484899E-1   -3.633821219125840E-1
 9.937813925850000E9     4.600818972772754E-1   -1.396975923528541E-1   -5.050895023695532E-3   -4.922869302277573E-3   -5.219569617436693E-3   -4.921288900322032E-3    3.241521268448169E-1   -3.635639546354884E-1
 9.937814886924999E9     4.601501400411670E-1   -1.398464712733569E-1   -5.126767127516057E-3   -4.991079406872171E-3   -5.313951889767654E-3   -4.966484780422706E-3    3.236517166203924E-1   -3.639454857247629E-1
 9.937815848000000E9     4.600997386996969E-1   -1.397929175512675E-1   -5.184821924936999E-3   -5.030720402155675E-3   -5.313956706725997E-3   -5.001072927488599E-3    3.231008692401779E-1   -3.642211467953985E-1
 9.937816809075001E9     4.601330062601365E-1   -1.399242408740226E-1   -5.245522577515558E-3   -5.044762035343342E-3   -5.385599592395471E-3   -5.032871499087998E-3    3.225403958495489E-1   -3.645483801602299E-1
 9.937817770150000E9     4.600685233332636E-1   -1.400430474607962E-1   -5.337572291435702E-3   -5.103809435791048E-3   -5.451288450751214E-3   -5.106586869065305E-3    3.219603390764521E-1   -3.647382871789664E-1
 9.937818731225000E9     4.600733421581002E-1   -1.400741854045776E-1   -5.384601287050316E-3   -5.134719258914342E-3   -5.478615174077959E-3   -5.132563926452637E-3    3.214392254641934E-1   -3.649912849100383E-1
 9.937819692299999E9     4.601387176243036E-1   -1.401941158581069E-1   -5.416219544902256E-3   -5.189752059381606E-3   -5.537530714250350E-3   -5.204974497524963E-3    3.206295644954121E-1   -3.655513619797719E-1
 9.937820653375000E9     4.599651023023420E-1   -1.402858412993883E-1   -5.510882791471017E-3   -5.242656382553661E-3   -5.646948325444279E-3   -5.213813857400719E-3    3.202030286273899E-1   -3.657786417222095E-1
 9.937821614450001E9     4.598710794344268E-1   -1.402834468812442E-1   -5.557476769734456E-3   -5.292507612672702E-3   -5.733424998152327E-3   -5.267101670230324E-3    3.196104161985712E-1   -3.660778048985152E-1
 9.937822575525000E9     4.599947000218326E-1   -1.404191348511477E-1   -5.604013133136256E-3   -5.308052863214081E-3   -5.793637145834336E-3   -5.322434970581363E-3    3.189206585276118E-1   -3.663953167115980E-1
 9.937823536600000E9     4.597883525520329E-1   -1.403725201974600E-1   -5.708049900579246E-3   -5.373081062147403E-3   -5.838716173600058E-3   -5.354076801435883E-3    3.181976090141133E-1   -3.667183186253822E-1
 9.937824497674999E9     4.599272699840515E-1   -1.404546505094564E-1   -5.761521808452015E-3   -5.417099634347662E-3   -5.930410959600558E-3   -5.416177448234750E-3    3.177231532814729E-1   -3.670955790537977E-1
 9.937825458750000E9     4.598374401818183E-1   -1.405972356660889E-1   -5.837961652533674E-3   -5.453418306064825E-3   -5.970139511197822E-3   -5.419497051586362E-3    3.168118160204024E-1   -3.674485220430783E-1
