#  HZ   S   RI   R     50.00 
! Rohde & Schwarz Vector Network Analyzer 
! Rohde-Schwarz,ZNB20-2Port,1311601062101988,3.16
! Created: UTC 3/20/2024, 11:00:40 PM
! freq[Hz]                re:S11                  im:S11                  re:S21                  im:S21                  re:S12                  im:S12                  re:S22                  im:S22
 9.937283097000000E9     4.719409875737153E-1   -1.053185212008183E-1   -5.847059880991272E-4   -6.578805411706512E-4   -5.690704450414397E-4   -6.254054465594179E-4    3.898833631849360E-1   -3.093110350142858E-1
 9.937285174575001E9     4.719145980482132E-1   -1.056580475045898E-1   -5.942118513174783E-4   -6.698442860935832E-4   -6.083324574573579E-4   -6.492108846672125E-4    3.895959416146287E-1   -3.094877674493418E-1
 9.937287252150000E9     4.718835942138386E-1   -1.057236025307418E-1   -6.332539368818171E-4   -6.680705437075027E-4   -6.252429248493976E-4   -6.789607321083251E-4    3.894315730337481E-1   -3.098698021741422E-1
 9.937289329725000E9     4.718367644412321E-1   -1.058544970817540E-1   -6.066580411204543E-4   -6.424871383108206E-4   -6.365807715058257E-4   -6.705938310016177E-4    3.892500632611456E-1   -3.101783067271986E-1
 9.937291407299999E9     4.718306078104282E-1   -1.061082875661711E-1   -6.275097026879388E-4   -6.778475962356699E-4   -6.663572299443673E-4   -6.951527106056404E-4    3.890516539504373E-1   -3.099441203323610E-1
 9.937293484875000E9     4.716714943800643E-1   -1.060705331840956E-1   -6.463932131143769E-4   -6.889898642086785E-4   -6.639692443373387E-4   -6.522377380426495E-4    3.888764680870717E-1   -3.099867831739236E-1
 9.937295562450001E9     4.716248512545126E-1   -1.063784125553826E-1   -6.498893855165124E-4   -6.839305083918576E-4   -6.856424197139917E-4   -7.149674442948570E-4    3.886803735339637E-1   -3.104219619076546E-1
 9.937297640025000E9     4.716270334134013E-1   -1.064491727386580E-1   -6.830767193964642E-4   -7.062612680237324E-4   -6.722368076583086E-4   -7.256615810329218E-4    3.884961724053231E-1   -3.106837582630350E-1
 9.937299717600000E9     4.717388972317648E-1   -1.066336980406032E-1   -6.404710557646890E-4   -7.386538354999252E-4   -6.864324426728183E-4   -7.162919352299663E-4    3.882989177980239E-1   -3.109002929222637E-1
 9.937301795174999E9     4.716501088208163E-1   -1.066227735441667E-1   -6.886552778625605E-4   -7.495298475238653E-4   -6.856667526540555E-4   -7.177810849036488E-4    3.881421041897551E-1   -3.109223631828570E-1
 9.937303872750000E9     4.714595764841462E-1   -1.068821660659433E-1   -6.802042531395949E-4   -7.862020169399588E-4   -7.417664211995504E-4   -7.425777395650559E-4    3.879444144219911E-1   -3.112006914218964E-1
 9.937305950325001E9     4.712832072416298E-1   -1.071182655243292E-1   -7.070068109436698E-4   -7.223332856165949E-4   -7.202921994910539E-4   -7.800813270327945E-4    3.879828919715436E-1   -3.113116241861632E-1
 9.937308027900000E9     4.714907846018186E-1   -1.070740526009435E-1   -6.870938897837126E-4   -7.746051412521844E-4   -7.191666798212626E-4   -7.445643585804518E-4    3.875650713326425E-1   -3.115500155834582E-1
 9.937310105475000E9     4.715040989435786E-1   -1.071865728532998E-1   -7.182403734202253E-4   -7.696002647565144E-4   -7.160547239745338E-4   -7.605320522002328E-4    3.874683451746880E-1   -3.117919286946765E-1
 9.937312183049999E9     4.712473283720816E-1   -1.073609214613149E-1   -7.331726721585978E-4   -7.742829257129584E-4   -7.596830203667130E-4   -7.928981592203366E-4    3.872295926296799E-1   -3.119135766702820E-1
 9.937314260625000E9     4.713525792290957E-1   -1.075261384347647E-1   -7.363850177300652E-4   -7.910103098319890E-4   -7.687754302509455E-4   -8.034177226832732E-4    3.871989009878503E-1   -3.120726404644113E-1
 9.937316338200001E9     4.711837642562834E-1   -1.076905862788408E-1   -7.452375219261227E-4   -7.962770299051715E-4   -7.652096541416696E-4   -7.861186866331214E-4    3.867062658486835E-1   -3.121916159661198E-1
 9.937318415775000E9     4.712674415729211E-1   -1.078055463898473E-1   -7.409358361607042E-4   -7.926964382392318E-4   -7.707339616607946E-4   -8.207148689384268E-4    3.865943091647762E-1   -3.124366397708674E-1
 9.937320493350000E9     4.712814069678631E-1   -1.079380607666522E-1   -7.683016774452485E-4   -8.326382073561907E-4   -7.905804381805039E-4   -8.139055390308455E-4    3.864684834431787E-1   -3.126516119420867E-1
 9.937322570924999E9     4.711107156671807E-1   -1.081663859151380E-1   -7.740275565964690E-4   -8.131682749987405E-4   -8.323323974740660E-4   -8.315817511430053E-4    3.863432442762839E-1   -3.127377299842462E-1
 9.937324648500000E9     4.711391815451875E-1   -1.082302702541464E-1   -7.893326874103847E-4   -8.697869848916994E-4   -8.486540705155432E-4   -8.622480785514087E-4    3.859724223788494E-1   -3.129407148080546E-1
 9.937326726075001E9     4.709978618391429E-1   -1.083353495782358E-1   -8.179512147869324E-4   -8.912086250143591E-4   -8.332233923528835E-4   -8.614195106883560E-4    3.858479792442424E-1   -3.130886677819664E-1
 9.937328803650000E9     4.709498476267475E-1   -1.086219957119378E-1   -8.281052820652045E-4   -8.733130887502693E-4   -8.328755930042866E-4   -8.890080481742418E-4    3.855393419970926E-1   -3.133046608900011E-1
 9.937330881225000E9     4.710236168761696E-1   -1.085761898548219E-1   -8.373830271543876E-4   -8.984012099791088E-4   -8.508502873821346E-4   -8.799898847475620E-4    3.855315524097365E-1   -3.134528882988886E-1
 9.937332958799999E9     4.708863030292824E-1   -1.088655133447606E-1   -8.451137787058413E-4   -8.799496950054618E-4   -8.802323034927109E-4   -9.195294595605489E-4    3.853881919412878E-1   -3.136013384368107E-1
 9.937335036375000E9     4.709658325426533E-1   -1.089042878012596E-1   -8.469007515629520E-4   -9.125702098202278E-4   -9.036975131107730E-4   -8.998359716198553E-4    3.849940034624278E-1   -3.139081707009606E-1
 9.937337113950001E9     4.707940491902674E-1   -1.090625044951392E-1   -8.711355812334474E-4   -9.490005718558080E-4   -8.953663137616398E-4   -9.089357677510065E-4    3.848557725095568E-1   -3.140395507683252E-1
 9.937339191525000E9     4.709750173012852E-1   -1.090573694703815E-1   -8.750292891781310E-4   -9.392461451403210E-4   -8.875397039032933E-4   -9.095777922293016E-4    3.844312793192175E-1   -3.141467808743499E-1
 9.937341269100000E9     4.707185064478161E-1   -1.092861005988348E-1   -9.100418153262070E-4   -9.395096882410381E-4   -9.117387331898574E-4   -9.835788407753577E-4    3.843973059293905E-1   -3.142783218224409E-1
 9.937343346674999E9     4.706528941222075E-1   -1.096706500708998E-1   -8.938448913552314E-4   -1.000186487677954E-3   -9.411594892646301E-4   -9.726291671957487E-4    3.841430296944199E-1   -3.144845022397992E-1
 9.937345424250000E9     4.706544424286774E-1   -1.096218917507134E-1   -9.008145000067867E-4   -9.909537230130203E-4   -9.521250043913721E-4   -9.978474737465000E-4    3.841555313415431E-1   -3.146988041607938E-1
 9.937347501825001E9     4.706885134923398E-1   -1.098576973983625E-1   -9.425920945905583E-4   -9.856804539550572E-4   -9.532009153299750E-4   -1.002970757509126E-3    3.838341183586296E-1   -3.148604264513475E-1
 9.937349579400000E9     4.705072176883387E-1   -1.099957942410161E-1   -9.313453039077657E-4   -9.898998926776109E-4   -9.880269170037988E-4   -9.993704992519244E-4    3.836687503835062E-1   -3.150284259511818E-1
 9.937351656975000E9     4.705685100165560E-1   -1.101618308388163E-1   -9.485245872064802E-4   -1.000553207857890E-3   -9.702966061451640E-4   -9.678790639166101E-4    3.834220500225868E-1   -3.154302116380019E-1
 9.937353734549999E9     4.705112789725037E-1   -1.101357500612541E-1   -9.634113369991259E-4   -1.048690989669986E-3   -1.011565376687574E-3   -1.024262756475154E-3    3.831674445318297E-1   -3.155293685255457E-1
 9.937355812125000E9     4.703381408127532E-1   -1.103149256349717E-1   -9.810777567775932E-4   -1.057289162364938E-3   -1.021588732211697E-3   -1.036602704233705E-3    3.827481646778006E-1   -3.157371482912892E-1
 9.937357889700001E9     4.703433380390983E-1   -1.105635727314219E-1   -1.015667124041136E-3   -1.039680321408766E-3   -1.032977239949737E-3   -1.055084753413452E-3    3.824908711859289E-1   -3.157932833867134E-1
 9.937359967275000E9     4.704318389450942E-1   -1.106049333853903E-1   -1.037805280009014E-3   -1.048301674227645E-3   -1.072746377012326E-3   -1.045022274860132E-3    3.823689984888997E-1   -3.161284387796715E-1
 9.937362044850000E9     4.703430104160100E-1   -1.108318268885415E-1   -1.021340898103143E-3   -1.087891599281122E-3   -1.036455398599848E-3   -1.072650681182817E-3    3.823323072586444E-1   -3.163004237369825E-1
 9.937364122424999E9     4.703158359247347E-1   -1.110141990028067E-1   -1.046723201681953E-3   -1.115759004780716E-3   -1.054752022885950E-3   -1.087361564418863E-3    3.820360778232088E-1   -3.165358788020662E-1
 9.937366200000000E9     4.701573201193873E-1   -1.111017790591630E-1   -1.025930103129886E-3   -1.101936333318323E-3   -1.100152205768477E-3   -1.076845458889717E-3    3.816792990641165E-1   -3.165539239233466E-1
 9.937368277575001E9     4.700673036607138E-1   -1.111130148316486E-1   -1.079703770851799E-3   -1.137431794621189E-3   -1.089513097012131E-3   -1.088259982004279E-3    3.814988492631081E-1   -3.167922496048434E-1
 9.937370355150000E9     4.701675662901176E-1   -1.113794418310244E-1   -1.087192660621949E-3   -1.115322426153863E-3   -1.099917503310560E-3   -1.148448255440524E-3    3.813243026391869E-1   -3.170777314641335E-1
 9.937372432725000E9     4.701696214565044E-1   -1.116410499146559E-1   -1.107399634899243E-3   -1.143646525159961E-3   -1.153966037873405E-3   -1.181885074486648E-3    3.811040647293054E-1   -3.172067182822240E-1
 9.937374510299999E9     4.701499089798628E-1   -1.117023915177695E-1   -1.110846549701501E-3   -1.174718802886773E-3   -1.173272453881806E-3   -1.138660408659172E-3    3.806087012143206E-1   -3.175504257487707E-1
 9.937376587875000E9     4.699751899439353E-1   -1.116342777096862E-1   -1.123229989684160E-3   -1.186334940667274E-3   -1.137202893778174E-3   -1.155628780169223E-3    3.805569066047847E-1   -3.176354969712603E-1
 9.937378665450001E9     4.699859736339911E-1   -1.118558612538665E-1   -1.141114562007127E-3   -1.193323398031607E-3   -1.194538205258085E-3   -1.205452198610679E-3    3.803613218716230E-1   -3.178809406117546E-1
 9.937380743025000E9     4.698395714700851E-1   -1.119694395389491E-1   -1.164564669506417E-3   -1.230804090420862E-3   -1.207773983308582E-3   -1.212245965404971E-3    3.801256653626801E-1   -3.182059284178603E-1
 9.937382820600000E9     4.698257476449123E-1   -1.121555603214610E-1   -1.180851245460276E-3   -1.202926311072060E-3   -1.225803361371196E-3   -1.212006176988309E-3    3.798559498264455E-1   -3.181426511691662E-1
 9.937384898174999E9     4.696961394882683E-1   -1.123624213389761E-1   -1.183180809380166E-3   -1.222534973251266E-3   -1.243511591688206E-3   -1.224926015476178E-3    3.797416234029100E-1   -3.183980473742873E-1
 9.937386975750000E9     4.697447263833365E-1   -1.125128606477400E-1   -1.176868184138657E-3   -1.234900606607187E-3   -1.251791530422003E-3   -1.237303775542146E-3    3.793925603099677E-1   -3.187931212729551E-1
 9.937389053325001E9     4.697739672696080E-1   -1.125705829779822E-1   -1.264993434691091E-3   -1.278566612104454E-3   -1.268728585328056E-3   -1.281920267454512E-3    3.792764114623128E-1   -3.189447063972484E-1
 9.937391130900000E9     4.696727148024291E-1   -1.126975960878676E-1   -1.293366683749004E-3   -1.274785738908951E-3   -1.308144789411861E-3   -1.277431306709237E-3    3.788014821533032E-1   -3.190636753610929E-1
 9.937393208475000E9     4.696787031805380E-1   -1.130094069501575E-1   -1.243484849374278E-3   -1.318045043393751E-3   -1.276497313036455E-3   -1.308561427620329E-3    3.785607068605776E-1   -3.192813515413511E-1
 9.937395286049999E9     4.696113883319548E-1   -1.129441280610407E-1   -1.287480734488564E-3   -1.328921583873951E-3   -1.321921465097613E-3   -1.318376907274532E-3    3.783357222084737E-1   -3.194715318090314E-1
 9.937397363625000E9     4.695641028759650E-1   -1.132194185453084E-1   -1.294131658573656E-3   -1.348192375516385E-3   -1.339018175112896E-3   -1.310963779547691E-3    3.780003649702844E-1   -3.197235938275310E-1
 9.937399441200001E9     4.695327227260039E-1   -1.133853456482839E-1   -1.337897150505509E-3   -1.340803808601307E-3   -1.372075648738918E-3   -1.361657800841035E-3    3.779147594175961E-1   -3.201143953955490E-1
 9.937401518775000E9     4.695510724313114E-1   -1.133523505997494E-1   -1.357920647451000E-3   -1.322846643660939E-3   -1.372311640122983E-3   -1.350131679653664E-3    3.774182107366582E-1   -3.199615621835415E-1
 9.937403596350000E9     4.695651153992600E-1   -1.136296124343669E-1   -1.377592513199596E-3   -1.354372542294828E-3   -1.387285765997158E-3   -1.393132653738342E-3    3.772677475496745E-1   -3.205048321225268E-1
 9.937405673924999E9     4.694011894251239E-1   -1.137334748742875E-1   -1.402175266557695E-3   -1.404199978033212E-3   -1.429260551827721E-3   -1.385814418084177E-3    3.768204000186646E-1   -3.204960216171272E-1
 9.937407751500000E9     4.692161080767361E-1   -1.138416492689065E-1   -1.423268472050529E-3   -1.403401140601963E-3   -1.439281108135039E-3   -1.432737488037358E-3    3.767787720809380E-1   -3.207192922990077E-1
 9.937409829075001E9     4.694258723217480E-1   -1.140182596369656E-1   -1.425817018351332E-3   -1.438159955289571E-3   -1.471633383025303E-3   -1.416671165090922E-3    3.762361534932332E-1   -3.209708212276230E-1
 9.937411906650000E9     4.692751702059129E-1   -1.140515378833691E-1   -1.474911081935762E-3   -1.427488185810902E-3   -1.509006833519404E-3   -1.452999795671120E-3    3.760878676119683E-1   -3.210450868394064E-1
 9.937413984225000E9     4.691742067942826E-1   -1.143229017755052E-1   -1.450463298236860E-3   -1.453295934368188E-3   -1.513222851770607E-3   -1.461742393197813E-3    3.759906386356922E-1   -3.215087290148655E-1
 9.937416061799999E9     4.692073853940879E-1   -1.144711593673341E-1   -1.488803697753309E-3   -1.490547593801929E-3   -1.537467512466489E-3   -1.501694221275412E-3    3.754938516809994E-1   -3.216650905275480E-1
 9.937418139375000E9     4.691531472488361E-1   -1.146584189069194E-1   -1.505367188183276E-3   -1.533446873931005E-3   -1.559855610709695E-3   -1.492680418329167E-3    3.752759703417458E-1   -3.217457049559203E-1
 9.937420216950001E9     4.690148827522418E-1   -1.146807739607597E-1   -1.532286474060635E-3   -1.516776799541823E-3   -1.584030060939841E-3   -1.551184218804324E-3    3.748632513497390E-1   -3.221677493077569E-1
 9.937422294525000E9     4.691049147169504E-1   -1.148270705546753E-1   -1.534216002035848E-3   -1.562099965159529E-3   -1.617342172346302E-3   -1.538351091618228E-3    3.746044229602833E-1   -3.221878228477889E-1
 9.937424372100000E9     4.689180255097340E-1   -1.149142679908962E-1   -1.593770564972614E-3   -1.568243898343051E-3   -1.611817765127887E-3   -1.590584928172499E-3    3.744641857164726E-1   -3.223091023588039E-1
 9.937426449674999E9     4.689034810230313E-1   -1.149759936096251E-1   -1.604899740904936E-3   -1.550887156548313E-3   -1.680940800147948E-3   -1.587166300894208E-3    3.741001116268559E-1   -3.228710486911472E-1
 9.937428527250000E9     4.689653108490458E-1   -1.151892170805004E-1   -1.663491256298932E-3   -1.613205940699926E-3   -1.692770737022783E-3   -1.604149809968479E-3    3.735825302635104E-1   -3.229255686934297E-1
 9.937430604825001E9     4.688064609505671E-1   -1.153654558765685E-1   -1.648033406022500E-3   -1.622440179389269E-3   -1.698904517473190E-3   -1.612459897528304E-3    3.734013482549245E-1   -3.231761708399795E-1
 9.937432682400000E9     4.689738086375086E-1   -1.155664343476399E-1   -1.651769984657522E-3   -1.658372338080573E-3   -1.731374724937698E-3   -1.636017244169602E-3    3.730493797278990E-1   -3.234498878502313E-1
 9.937434759975000E9     4.688626071685974E-1   -1.156990367442455E-1   -1.708956784823356E-3   -1.677526587700671E-3   -1.745147246761763E-3   -1.659121408407433E-3    3.726143203688815E-1   -3.236580951225907E-1
 9.937436837549999E9     4.686498146051728E-1   -1.158492372417824E-1   -1.735230781497100E-3   -1.688255360466104E-3   -1.770627464720248E-3   -1.680088488518893E-3    3.724874651835680E-1   -3.238416274298985E-1
 9.937438915125000E9     4.686834936914669E-1   -1.159774519602831E-1   -1.734219582560248E-3   -1.698390561814422E-3   -1.796611435648004E-3   -1.709828396527994E-3    3.720689735968417E-1   -3.239818383117649E-1
 9.937440992700001E9     4.685208054359992E-1   -1.160764665118083E-1   -1.740808225027322E-3   -1.700257721485241E-3   -1.846065136774285E-3   -1.697073886322205E-3    3.718761161746503E-1   -3.243563839303435E-1
 9.937443070275000E9     4.686451756917794E-1   -1.161010874757284E-1   -1.787033633277651E-3   -1.750020123818653E-3   -1.840438325490539E-3   -1.717778539625071E-3    3.713978937572404E-1   -3.247012350237666E-1
 9.937445147850000E9     4.685374545764712E-1   -1.164392573698932E-1   -1.856867450271362E-3   -1.751120181391953E-3   -1.882488918887561E-3   -1.764565477445252E-3    3.711259262269969E-1   -3.246512979045846E-1
 9.937447225424999E9     4.684092681342023E-1   -1.166621578672283E-1   -1.873878834574042E-3   -1.796491578482914E-3   -1.893428165537669E-3   -1.774107194476665E-3    3.707681591762943E-1   -3.249215186306748E-1
 9.937449303000000E9     4.684563345682436E-1   -1.167650327615816E-1   -1.871313476813370E-3   -1.792704193206244E-3   -1.932190035491143E-3   -1.792044555181002E-3    3.703524833865213E-1   -3.252351405989637E-1
 9.937451380575001E9     4.684994461459693E-1   -1.168271308410626E-1   -1.942308667299664E-3   -1.830117663350397E-3   -1.958266791108946E-3   -1.838037047338316E-3    3.702114186411634E-1   -3.255334466702990E-1
 9.937453458150000E9     4.683024468857114E-1   -1.169097123862362E-1   -1.948890347845856E-3   -1.871627955999477E-3   -1.972981923453479E-3   -1.807048459205490E-3    3.696343997126504E-1   -3.259155796913787E-1
 9.937455535725000E9     4.684197935321556E-1   -1.170828583680329E-1   -1.999971316071404E-3   -1.851378517525508E-3   -2.032219732756302E-3   -1.865639540561747E-3    3.693138366729792E-1   -3.260125617126736E-1
 9.937457613299999E9     4.681991466919068E-1   -1.172344598586671E-1   -2.025918310439215E-3   -1.889896139602269E-3   -2.056858569330589E-3   -1.876467891913441E-3    3.691183270485337E-1   -3.264640056551865E-1
 9.937459690875000E9     4.681934594539479E-1   -1.173804427481403E-1   -2.054993931431855E-3   -1.886305079927063E-3   -2.094680619135169E-3   -1.885613626823668E-3    3.686103794383807E-1   -3.264592341128591E-1
 9.937461768450001E9     4.682082477561836E-1   -1.173885360242241E-1   -2.057249258411659E-3   -1.935629604953989E-3   -2.151889676007377E-3   -1.921114458059502E-3    3.682537800493784E-1   -3.264620863305185E-1
 9.937463846025000E9     4.681653147052547E-1   -1.177395370531800E-1   -2.129836762812638E-3   -1.976713690780339E-3   -2.171012186793683E-3   -1.960582890457935E-3    3.679528260698116E-1   -3.269546873981473E-1
 9.937465923600000E9     4.680409321217286E-1   -1.177754284976365E-1   -2.159289205751347E-3   -1.970028732752822E-3   -2.201919352963789E-3   -1.994781311584972E-3    3.674302427727072E-1   -3.274047978195989E-1
 9.937468001174999E9     4.680749397281326E-1   -1.178065513744916E-1   -2.144313853616616E-3   -2.011714015632502E-3   -2.228087584966917E-3   -1.998856277963286E-3    3.668239901045698E-1   -3.275760303472310E-1
 9.937470078750000E9     4.679908409799727E-1   -1.180678273175224E-1   -2.211988417235561E-3   -2.047790500516557E-3   -2.244887069211948E-3   -2.027242348994732E-3    3.664854043973829E-1   -3.277898980221964E-1
