#  HZ   S   RI   R     50.00 
! Rohde & Schwarz Vector Network Analyzer 
! Rohde-Schwarz,ZNB20-2Port,1311601062101988,3.16
! Created: UTC 3/20/2024, 11:00:57 PM
! freq[Hz]                re:S11                  im:S11                  re:S21                  im:S21                  re:S12                  im:S12                  re:S22                  im:S22
 9.937269824000000E9     4.721106757681703E-1   -1.046705985506126E-1   -5.753924096016492E-4   -6.128293072047954E-4   -5.773364867306061E-4   -5.759091570171910E-4    3.905200182541564E-1   -3.084066194158096E-1
 9.937271934549999E9     4.722042354145881E-1   -1.046633135766874E-1   -5.868715581849661E-4   -6.332645826060059E-4   -5.912506618866837E-4   -6.202536022070564E-4    3.901850230920911E-1   -3.086801349271092E-1
 9.937274045100000E9     4.719544804747057E-1   -1.049277553410998E-1   -6.071474905644433E-4   -6.590429220695854E-4   -6.061838622913807E-4   -6.578373640610583E-4    3.903093029433317E-1   -3.089311185906014E-1
 9.937276155650000E9     4.720663049589205E-1   -1.050688580532776E-1   -5.952366328052069E-4   -6.722824702735085E-4   -5.999764943788855E-4   -6.263389083129848E-4    3.899951048718748E-1   -3.088898340971934E-1
 9.937278266200001E9     4.720143764264246E-1   -1.051098011113744E-1   -6.114964366096634E-4   -6.543614384175940E-4   -6.130071478646909E-4   -6.511814314805104E-4    3.898963771228002E-1   -3.091256408186098E-1
 9.937280376750000E9     4.720167957501372E-1   -1.053660842597267E-1   -6.270710665304159E-4   -6.469500380350280E-4   -6.401680252980669E-4   -6.597408830228075E-4    3.896345069677721E-1   -3.092681691370647E-1
 9.937282487299999E9     4.719092898664926E-1   -1.055522108267886E-1   -6.435225400516715E-4   -6.543091340372664E-4   -6.157850120343211E-4   -6.878662891977899E-4    3.893884241486044E-1   -3.095838088295492E-1
 9.937284597850000E9     4.718523859589824E-1   -1.057063290608171E-1   -6.405207013315815E-4   -6.546731835327205E-4   -6.474844290949680E-4   -6.572845000996109E-4    3.892089998751028E-1   -3.097259587255649E-1
 9.937286708400000E9     4.717230267630915E-1   -1.058844562925737E-1   -6.222412950823462E-4   -7.217502118484183E-4   -6.605487449783743E-4   -7.057470545153196E-4    3.890835229524021E-1   -3.097658363624658E-1
 9.937288818950001E9     4.718221888823377E-1   -1.058663859664283E-1   -6.668461835875374E-4   -6.916588126570436E-4   -6.869508666158898E-4   -6.999598505669245E-4    3.888173195195399E-1   -3.101062523755414E-1
 9.937290929500000E9     4.717217237386985E-1   -1.060764503934374E-1   -6.949413459950498E-4   -7.046346538586985E-4   -7.021134177806553E-4   -6.839634792141095E-4    3.887036191612451E-1   -3.100105816677592E-1
 9.937293040049999E9     4.717371936350280E-1   -1.061299626077993E-1   -6.637083693287603E-4   -7.300736222586717E-4   -6.955960846001354E-4   -7.344935182826673E-4    3.888317187454676E-1   -3.104026924007695E-1
 9.937295150600000E9     4.714686127218451E-1   -1.062877242074718E-1   -6.760060126362781E-4   -7.468906198838787E-4   -6.947467256229277E-4   -7.148252267463669E-4    3.883453108362995E-1   -3.105897027607704E-1
 9.937297261150000E9     4.716218495550156E-1   -1.065820999331516E-1   -6.858036334656319E-4   -7.295714094034301E-4   -7.120064590698582E-4   -7.408999102417512E-4    3.883314100559934E-1   -3.105876258841601E-1
 9.937299371700001E9     4.715494819339796E-1   -1.066619253381409E-1   -7.289422857851188E-4   -7.683974073648982E-4   -7.191439436898953E-4   -7.618717281459843E-4    3.880999298066622E-1   -3.108658984987596E-1
 9.937301482250000E9     4.715805071111093E-1   -1.066583102905427E-1   -7.169656654647220E-4   -7.486157964778138E-4   -7.392435170126801E-4   -7.788662344875788E-4    3.879645554644621E-1   -3.111725914127506E-1
 9.937303592799999E9     4.714644611941772E-1   -1.068793518274254E-1   -7.175872563089521E-4   -7.609331105814840E-4   -7.082732146926890E-4   -7.816360364635087E-4    3.876834523995323E-1   -3.112452242259764E-1
 9.937305703350000E9     4.715356506557954E-1   -1.070898956111508E-1   -7.208221366461960E-4   -7.903044629061632E-4   -7.589476447259040E-4   -7.987752205304025E-4    3.876135325511695E-1   -3.115590897350146E-1
 9.937307813900000E9     4.714169146782968E-1   -1.070653645457013E-1   -7.423587718973679E-4   -7.942409207976879E-4   -7.430486984052343E-4   -8.015843384488162E-4    3.871800074849782E-1   -3.116963035172234E-1
 9.937309924450001E9     4.713431677394913E-1   -1.073614251234707E-1   -7.570382822196602E-4   -7.891038438823779E-4   -7.597797949383719E-4   -8.145658088605963E-4    3.870752520414292E-1   -3.117615580834699E-1
 9.937312035000000E9     4.712509103435306E-1   -1.075015745525399E-1   -7.563620202098880E-4   -8.315686077524358E-4   -7.779812490771108E-4   -8.146171152792824E-4    3.868718512360222E-1   -3.118298881877363E-1
 9.937314145549999E9     4.713209213111976E-1   -1.074600366700115E-1   -7.482078995341644E-4   -8.353868736599924E-4   -7.932818999790744E-4   -8.474135667385332E-4    3.866928709240495E-1   -3.122826422328864E-1
 9.937316256100000E9     4.711734375506116E-1   -1.078536210077975E-1   -7.703364326308525E-4   -8.177376982427557E-4   -8.104629127564811E-4   -8.216985816584543E-4    3.866006644765813E-1   -3.123201493648018E-1
 9.937318366650000E9     4.711640171717765E-1   -1.078896887384103E-1   -8.070133089624939E-4   -8.465487676565000E-4   -8.012777194192046E-4   -8.810907175562709E-4    3.862918808921643E-1   -3.125365592666756E-1
 9.937320477200001E9     4.711274856290077E-1   -1.080752062087367E-1   -8.090146158794068E-4   -8.522612336366342E-4   -8.228223799861163E-4   -8.818309841323418E-4    3.862119506555863E-1   -3.128455262145463E-1
 9.937322587750000E9     4.711872943335058E-1   -1.081073022561321E-1   -7.947094299505447E-4   -8.630006727070541E-4   -8.152881383333346E-4   -8.447623400749289E-4    3.857877530775490E-1   -3.128115564379318E-1
 9.937324698299999E9     4.709233860658653E-1   -1.083921527291233E-1   -8.403052614556303E-4   -8.883265181108750E-4   -8.495692080220291E-4   -9.032980931624153E-4    3.855869720715130E-1   -3.130016264583148E-1
 9.937326808850000E9     4.710581158487502E-1   -1.084839634658176E-1   -8.432445241178246E-4   -8.634232641943432E-4   -8.531625523555806E-4   -9.175602414477848E-4    3.853302761764990E-1   -3.133189095519939E-1
 9.937328919400000E9     4.707929020959005E-1   -1.086239006073816E-1   -8.563397541312790E-4   -9.150229063079341E-4   -8.849220332267540E-4   -9.342610557188154E-4    3.853861955442275E-1   -3.135460996434458E-1
 9.937331029950001E9     4.709718661797390E-1   -1.088622530416633E-1   -8.526614820375668E-4   -9.063015178215257E-4   -8.880766715882589E-4   -9.273713838395858E-4    3.848419052838131E-1   -3.135809288750783E-1
 9.937333140500000E9     4.708998633541487E-1   -1.089628147079748E-1   -8.796869571509562E-4   -9.220155963592104E-4   -9.085244928252364E-4   -9.333967026728779E-4    3.849530001297861E-1   -3.138810156974167E-1
 9.937335251049999E9     4.708630962021119E-1   -1.091206911143958E-1   -9.011406554384487E-4   -9.819202364559805E-4   -9.238379392969524E-4   -9.671086456551180E-4    3.847397746129374E-1   -3.140895244754496E-1
 9.937337361600000E9     4.707824230188921E-1   -1.092188713943694E-1   -8.891653581897998E-4   -9.962342642263937E-4   -9.390526983494910E-4   -9.721601687819654E-4    3.844883842518594E-1   -3.142373320681549E-1
 9.937339472150000E9     4.706574408764895E-1   -1.092655708093970E-1   -9.237502999219006E-4   -9.673253505893542E-4   -9.757702969822436E-4   -9.559724845615044E-4    3.842909797154340E-1   -3.142687889571427E-1
 9.937341582700001E9     4.707859097810311E-1   -1.095166668836977E-1   -9.511120457644061E-4   -9.666979343745172E-4   -9.620589443279075E-4   -9.697865461184325E-4    3.839553551351635E-1   -3.144498847682459E-1
 9.937343693250000E9     4.705839249501471E-1   -1.096079675820974E-1   -9.434890712161707E-4   -1.010480569360849E-3   -9.773300709226501E-4   -9.925161393934247E-4    3.838483069565573E-1   -3.148347200923561E-1
 9.937345803799999E9     4.705828309267446E-1   -1.097263411819831E-1   -9.767151751059648E-4   -1.005052939522648E-3   -9.736989222088581E-4   -9.579746806440141E-4    3.837915469618533E-1   -3.149693936520867E-1
 9.937347914350000E9     4.705926413161775E-1   -1.098337987664767E-1   -9.230364636315519E-4   -9.970765989636837E-4   -1.004054528201134E-3   -1.042963228187276E-3    3.831665892116281E-1   -3.151514640376686E-1
 9.937350024900000E9     4.704818372127575E-1   -1.100992225492207E-1   -9.837421140557229E-4   -1.020449013060852E-3   -1.020193802859974E-3   -1.064605543465348E-3    3.829996690228074E-1   -3.151737400512006E-1
 9.937352135450001E9     4.704614098457514E-1   -1.101136258444293E-1   -1.008180992142777E-3   -1.025783462102875E-3   -1.026441377787615E-3   -1.047417386026181E-3    3.826805330422980E-1   -3.154765102873802E-1
 9.937354246000000E9     4.703392905251349E-1   -1.102926742432677E-1   -9.991772159134809E-4   -1.116813429843859E-3   -1.036003761034558E-3   -1.046456413347398E-3    3.827247171361558E-1   -3.159355759401798E-1
 9.937356356549999E9     4.703328421036473E-1   -1.105833411673335E-1   -1.036701069720447E-3   -1.051813799268549E-3   -1.062749275466000E-3   -1.082465859297725E-3    3.823761581362214E-1   -3.160674889917741E-1
 9.937358467100000E9     4.702752445065230E-1   -1.104878710129633E-1   -1.033232131396637E-3   -1.083504828240205E-3   -1.094549588984872E-3   -1.089517412948709E-3    3.820732600363237E-1   -3.161115172018570E-1
 9.937360577650000E9     4.702962692069868E-1   -1.107932558758335E-1   -1.057710263095618E-3   -1.116659052260286E-3   -1.120819564838743E-3   -1.083785317254428E-3    3.820262325458478E-1   -3.164449436074917E-1
 9.937362688200001E9     4.703447213407880E-1   -1.108375968144860E-1   -1.097925269829239E-3   -1.132299569732912E-3   -1.117155250316103E-3   -1.114426207476012E-3    3.816159409538290E-1   -3.164944185825450E-1
 9.937364798750000E9     4.703071449815141E-1   -1.111250528920683E-1   -1.099512049734159E-3   -1.123729633026040E-3   -1.108861905657300E-3   -1.129811429651418E-3    3.814526088485580E-1   -3.167566073770526E-1
 9.937366909299999E9     4.702887258939326E-1   -1.111551444533028E-1   -1.071500321247101E-3   -1.136663695058692E-3   -1.139060932750086E-3   -1.143612921043547E-3    3.813519283904201E-1   -3.170507743139497E-1
 9.937369019850000E9     4.701537405774222E-1   -1.112064806908306E-1   -1.127306391629342E-3   -1.179926217224119E-3   -1.161983794508436E-3   -1.165635076470175E-3    3.811247052027258E-1   -3.171109677135200E-1
 9.937371130400000E9     4.700078284814572E-1   -1.115017316666474E-1   -1.136442977501164E-3   -1.203103317532607E-3   -1.184259887920805E-3   -1.172658153173469E-3    3.806455230068417E-1   -3.169673255259550E-1
 9.937373240950001E9     4.700658914286444E-1   -1.115756352455755E-1   -1.123314586275463E-3   -1.208049785907000E-3   -1.194233280064757E-3   -1.171383180605263E-3    3.804357156553080E-1   -3.175758956947444E-1
 9.937375351500000E9     4.701027036408739E-1   -1.117992643760755E-1   -1.156248386317681E-3   -1.240552411257988E-3   -1.236301033782412E-3   -1.191419927538072E-3    3.800230338903945E-1   -3.177071545331044E-1
 9.937377462049999E9     4.699709039930071E-1   -1.117689445159011E-1   -1.193880651093528E-3   -1.208545419377979E-3   -1.244571807897793E-3   -1.208811986618790E-3    3.800526228561052E-1   -3.179463769640580E-1
 9.937379572600000E9     4.699225922000609E-1   -1.120022383174071E-1   -1.215200456914166E-3   -1.248851315577044E-3   -1.243752733625036E-3   -1.241844846157092E-3    3.796123629261433E-1   -3.179906449172867E-1
 9.937381683150000E9     4.698800860159307E-1   -1.121551779198205E-1   -1.257675451921728E-3   -1.238472633916179E-3   -1.267184879516873E-3   -1.229755796258091E-3    3.795074922082942E-1   -3.181794838224045E-1
 9.937383793700001E9     4.699072131180584E-1   -1.122799236107017E-1   -1.240418837360968E-3   -1.231004453358703E-3   -1.271092605626717E-3   -1.272985702685563E-3    3.794613510083973E-1   -3.185982977549162E-1
 9.937385904250000E9     4.697028403117047E-1   -1.124846592183801E-1   -1.286353118888339E-3   -1.254443525610646E-3   -1.273745663368750E-3   -1.278193974333489E-3    3.791768207510637E-1   -3.188198884970420E-1
 9.937388014799999E9     4.697064732335233E-1   -1.126227792692285E-1   -1.295783220363643E-3   -1.258333651209789E-3   -1.316114651964786E-3   -1.308218979553463E-3    3.787133512055821E-1   -3.191045452262025E-1
 9.937390125350000E9     4.697265065623401E-1   -1.126980667222262E-1   -1.295714939919834E-3   -1.308832317920092E-3   -1.352750667065861E-3   -1.319151542551737E-3    3.784075653332715E-1   -3.192114713278004E-1
 9.937392235900000E9     4.695847807407844E-1   -1.129403838354675E-1   -1.319763732195966E-3   -1.323002519454294E-3   -1.392353343400509E-3   -1.321877898930400E-3    3.781318712470357E-1   -3.194668646934495E-1
 9.937394346450001E9     4.696267097300558E-1   -1.130233223329944E-1   -1.352820270707453E-3   -1.329261006776660E-3   -1.367579229271774E-3   -1.359444807582434E-3    3.777801603156599E-1   -3.195695836861568E-1
 9.937396457000000E9     4.696037668172879E-1   -1.131487306827001E-1   -1.380330150679071E-3   -1.357576629226419E-3   -1.387072726560065E-3   -1.366412391350060E-3    3.775429331907248E-1   -3.198995359463173E-1
 9.937398567549999E9     4.695235301298359E-1   -1.131568143529599E-1   -1.390177309710719E-3   -1.381259677624445E-3   -1.415768148389981E-3   -1.368672938861107E-3    3.772964569921679E-1   -3.199664229435827E-1
 9.937400678100000E9     4.693923830867106E-1   -1.134878524806811E-1   -1.382358951402469E-3   -1.400999916386211E-3   -1.447502867369720E-3   -1.413616806580801E-3    3.770559129858596E-1   -3.202172301482462E-1
 9.937402788650000E9     4.694511674460946E-1   -1.137000163307331E-1   -1.441606715449592E-3   -1.433049173732621E-3   -1.479977137806940E-3   -1.431958256521892E-3    3.767231101223742E-1   -3.202620194807966E-1
 9.937404899200001E9     4.695137247824901E-1   -1.138030800146164E-1   -1.453556012860252E-3   -1.419017157412437E-3   -1.465313120026728E-3   -1.421731192415799E-3    3.763950136105367E-1   -3.208395712637204E-1
 9.937407009750000E9     4.693820794615461E-1   -1.137583115602746E-1   -1.464630677741538E-3   -1.474237645742010E-3   -1.537842470157533E-3   -1.465819883536153E-3    3.761605469812683E-1   -3.208370125411154E-1
 9.937409120299999E9     4.693457510450205E-1   -1.140290494852481E-1   -1.499643487610669E-3   -1.454932341167338E-3   -1.542234835042937E-3   -1.466905951173372E-3    3.757761364749146E-1   -3.211302834326074E-1
 9.937411230850000E9     4.692760174281557E-1   -1.140820424966279E-1   -1.491659660464517E-3   -1.447798276276303E-3   -1.564628023782965E-3   -1.496673215581934E-3    3.755355707981020E-1   -3.213089699887191E-1
 9.937413341400000E9     4.692042123265729E-1   -1.143153317857659E-1   -1.566399897230194E-3   -1.503114533409700E-3   -1.591618832317612E-3   -1.482960523917150E-3    3.752428889798064E-1   -3.215211498186869E-1
 9.937415451950001E9     4.692082769627078E-1   -1.144528836144385E-1   -1.538689428515781E-3   -1.516585041670234E-3   -1.600464393561750E-3   -1.510744803726756E-3    3.749893252919908E-1   -3.216435557476624E-1
 9.937417562500000E9     4.689987000503706E-1   -1.146096601059376E-1   -1.580157118785189E-3   -1.534393540009311E-3   -1.629822708189478E-3   -1.559626958936543E-3    3.748005534489159E-1   -3.221069591201464E-1
 9.937419673049999E9     4.689204303684309E-1   -1.146529810988293E-1   -1.564334779296773E-3   -1.560431408985362E-3   -1.652796134626258E-3   -1.532699199435093E-3    3.741353744434119E-1   -3.223000580778548E-1
 9.937421783600000E9     4.690503969118108E-1   -1.148255100297524E-1   -1.615834047926096E-3   -1.601168979389729E-3   -1.682496531673373E-3   -1.574871979833548E-3    3.740479086583413E-1   -3.224561621413654E-1
 9.937423894150000E9     4.690320846253987E-1   -1.150217472422829E-1   -1.690394181237531E-3   -1.566138761239857E-3   -1.680062800144691E-3   -1.606154678252035E-3    3.738407717278437E-1   -3.228724465835184E-1
 9.937426004700001E9     4.687933771655484E-1   -1.152985539960744E-1   -1.688015949920181E-3   -1.601978972195321E-3   -1.736613523305281E-3   -1.596638594327894E-3    3.735048509806036E-1   -3.229489325889971E-1
 9.937428115250000E9     4.689283683707523E-1   -1.153478455991104E-1   -1.707804668958493E-3   -1.617229830934779E-3   -1.737294130578951E-3   -1.636010967151142E-3    3.731581064352442E-1   -3.231381050907061E-1
 9.937430225799999E9     4.687942873871150E-1   -1.154734918900416E-1   -1.704187495288166E-3   -1.673132092659047E-3   -1.742326725405576E-3   -1.675688648310473E-3    3.729303747427048E-1   -3.232372559102883E-1
 9.937432336350000E9     4.687841013572598E-1   -1.155560752384496E-1   -1.748917578101965E-3   -1.676668207482215E-3   -1.809888526643502E-3   -1.686875231479779E-3    3.724428045735670E-1   -3.238967830564596E-1
 9.937434446900000E9     4.687687485352489E-1   -1.156315690187643E-1   -1.780397303559395E-3   -1.723091535433157E-3   -1.835922330227068E-3   -1.721947838982165E-3    3.722176141495130E-1   -3.237573376723163E-1
 9.937436557450001E9     4.686506614644638E-1   -1.158250886963656E-1   -1.755861030749480E-3   -1.736514541600483E-3   -1.856368925884032E-3   -1.714634388666071E-3    3.716150784867449E-1   -3.241274067702719E-1
 9.937438668000000E9     4.686821156839209E-1   -1.159109023040149E-1   -1.823980897578731E-3   -1.719777468314826E-3   -1.890669491950648E-3   -1.735458868564557E-3    3.712780368561659E-1   -3.243166394864010E-1
 9.937440778549999E9     4.686374398525350E-1   -1.161391731534082E-1   -1.844400089465367E-3   -1.772369155433173E-3   -1.923565599541202E-3   -1.789397633971228E-3    3.711345325711395E-1   -3.245258139788524E-1
 9.937442889100000E9     4.684899029467657E-1   -1.162860133106314E-1   -1.891416808116162E-3   -1.789999491302184E-3   -1.958774198105266E-3   -1.768315679550294E-3    3.706640216384887E-1   -3.247578323356610E-1
 9.937444999650000E9     4.684939752058306E-1   -1.164205559639548E-1   -1.901634442380009E-3   -1.846255782816582E-3   -1.963928180107445E-3   -1.805947009999978E-3    3.701804581541674E-1   -3.251331709304990E-1
 9.937447110200001E9     4.683711848913413E-1   -1.165437109439731E-1   -1.950023551766801E-3   -1.789879837808858E-3   -2.019840028242376E-3   -1.843665489366678E-3    3.701363546420783E-1   -3.252106338157968E-1
 9.937449220750000E9     4.682541638848967E-1   -1.166822348406918E-1   -2.008833177040317E-3   -1.794857398496159E-3   -2.040943996488712E-3   -1.864207819977911E-3    3.697236420866915E-1   -3.257697822158168E-1
 9.937451331299999E9     4.683792382306040E-1   -1.169069367935398E-1   -2.029867884179941E-3   -1.875998597772580E-3   -2.077116301321746E-3   -1.861431184377301E-3    3.691972987856371E-1   -3.258990015325501E-1
 9.937453441850000E9     4.683841499466653E-1   -1.169795393926734E-1   -1.995609977660772E-3   -1.903218858956590E-3   -2.087056241986172E-3   -1.895031465111953E-3    3.686323911770105E-1   -3.262116386432947E-1
 9.937455552400000E9     4.682495846390146E-1   -1.170861349081331E-1   -2.098018001770128E-3   -1.936396921677198E-3   -2.170828797159223E-3   -1.953787000699702E-3    3.683324131317286E-1   -3.262532898421558E-1
 9.937457662950001E9     4.681509301978805E-1   -1.172997645690932E-1   -2.131877439434843E-3   -1.920164842240617E-3   -2.131439293257484E-3   -1.961262829585266E-3    3.681400287618142E-1   -3.267062714728813E-1
 9.937459773500000E9     4.681528730635585E-1   -1.174159413632609E-1   -2.141030858198366E-3   -1.988535035397540E-3   -2.212789720460736E-3   -1.993398832150151E-3    3.675469224910056E-1   -3.266843877957609E-1
