#  HZ   S   RI   R     50.00 
! Rohde & Schwarz Vector Network Analyzer 
! Rohde-Schwarz,ZNB20-2Port,1311601062101988,3.16
! Created: UTC 3/20/2024, 10:52:05 PM
! freq[Hz]                re:S11                  im:S11                  re:S21                  im:S21                  re:S12                  im:S12                  re:S22                  im:S22
 9.937806402000000E9     4.607139542917552E-1   -1.387910824037882E-1   -2.488646396156867E-3   -2.753442319609072E-3   -2.561821486283619E-3   -2.762006739838410E-3    3.482818732052460E-1   -3.493041711238101E-1
 9.937807387924999E9     4.606190850411384E-1   -1.388013214292056E-1   -2.488057878760172E-3   -2.779118845022337E-3   -2.571656226112848E-3   -2.800290272371699E-3    3.478133353903205E-1   -3.492693356311115E-1
 9.937808373850000E9     4.605634298169841E-1   -1.389629055477001E-1   -2.526066683446318E-3   -2.783353354939773E-3   -2.613643317241913E-3   -2.795779620245857E-3    3.479009464422549E-1   -3.494693734305269E-1
 9.937809359775000E9     4.605673704201551E-1   -1.389479309682851E-1   -2.543211589565269E-3   -2.807268711620325E-3   -2.649239788478169E-3   -2.803408127669453E-3    3.474409800824716E-1   -3.494926987275154E-1
 9.937810345700001E9     4.605318231357047E-1   -1.390859582580811E-1   -2.526977835704526E-3   -2.833600587014866E-3   -2.654861987454398E-3   -2.826786998182632E-3    3.472372439868591E-1   -3.498862187490724E-1
 9.937811331625000E9     4.604535159857122E-1   -1.391295963069284E-1   -2.611906946747874E-3   -2.817052681290733E-3   -2.689389882223041E-3   -2.854561557552335E-3    3.470898086862151E-1   -3.500301736760967E-1
 9.937812317549999E9     4.606052987934840E-1   -1.391329838393192E-1   -2.605735671780868E-3   -2.847094138149354E-3   -2.672772804625774E-3   -2.868620699794240E-3    3.466704063480899E-1   -3.503391751031310E-1
 9.937813303475000E9     4.605670476367441E-1   -1.393792630205225E-1   -2.632796266931031E-3   -2.860274727805103E-3   -2.719935933622554E-3   -2.910797987781389E-3    3.463253399273128E-1   -3.506275033801739E-1
 9.937814289400000E9     4.605836139149397E-1   -1.393586597117120E-1   -2.660029921955612E-3   -2.923022068026076E-3   -2.709048855018646E-3   -2.897942757892675E-3    3.463636024512103E-1   -3.507431762419370E-1
 9.937815275325001E9     4.604589548479197E-1   -1.393930988565344E-1   -2.655805471334119E-3   -2.931823575882091E-3   -2.763031367412138E-3   -2.913663036548371E-3    3.458060738559511E-1   -3.506967913811716E-1
 9.937816261250000E9     4.605022292096248E-1   -1.395993732410118E-1   -2.679327021571274E-3   -2.960110844424393E-3   -2.807711334829093E-3   -2.948369697804100E-3    3.456529312948149E-1   -3.509436521866913E-1
 9.937817247174999E9     4.604337834143907E-1   -1.395045975257103E-1   -2.692557769629242E-3   -3.003361429342705E-3   -2.813007622239334E-3   -2.959222941335540E-3    3.455186852124154E-1   -3.509551838913301E-1
 9.937818233100000E9     4.602607384390375E-1   -1.396285406251016E-1   -2.742845320813967E-3   -2.996213373637650E-3   -2.862167196356913E-3   -3.010402908929553E-3    3.450998003149051E-1   -3.513621895622403E-1
 9.937819219025000E9     4.604003216842169E-1   -1.396159131895063E-1   -2.767450278768513E-3   -3.009621500464294E-3   -2.861472026222650E-3   -2.970918281235895E-3    3.448350656153882E-1   -3.516118515854597E-1
 9.937820204950001E9     4.602460749152721E-1   -1.397360731998709E-1   -2.734337059334715E-3   -3.023145739289216E-3   -2.875099289109431E-3   -3.035932980826469E-3    3.446063362222214E-1   -3.516024973707000E-1
 9.937821190875000E9     4.602486020242049E-1   -1.397927434139541E-1   -2.813743690915327E-3   -3.065594368222348E-3   -2.913754117547667E-3   -3.078901463752000E-3    3.445624511706913E-1   -3.519949928790892E-1
 9.937822176799999E9     4.601720438073310E-1   -1.398857579533488E-1   -2.843007442531766E-3   -3.097104561307539E-3   -2.927786678478120E-3   -3.099702015830831E-3    3.441129237972144E-1   -3.519663026368656E-1
 9.937823162725000E9     4.602481012838482E-1   -1.398772574782014E-1   -2.862822595855946E-3   -3.069504227152602E-3   -2.966882882876795E-3   -3.091470898249061E-3    3.439010951445463E-1   -3.522184582719086E-1
 9.937824148650000E9     4.602000014652317E-1   -1.401745185899359E-1   -2.925500756208683E-3   -3.121317052889860E-3   -2.981156979320279E-3   -3.114423860146097E-3    3.435255975307258E-1   -3.525457637658009E-1
 9.937825134575001E9     4.600391249755186E-1   -1.401126667773201E-1   -2.924726811895521E-3   -3.092255823587755E-3   -2.991479559690262E-3   -3.146727290702214E-3    3.433475926754354E-1   -3.526844321656837E-1
 9.937826120500000E9     4.601344164691809E-1   -1.402444636478503E-1   -2.936047976263493E-3   -3.125398509045332E-3   -3.032468979619497E-3   -3.155820121782714E-3    3.430577453536672E-1   -3.528201507937552E-1
 9.937827106424999E9     4.601102310192495E-1   -1.403018901164272E-1   -2.937305790894055E-3   -3.172578441766973E-3   -3.061256870782715E-3   -3.207303552889371E-3    3.428671408110018E-1   -3.530986958280041E-1
 9.937828092350000E9     4.601224644324450E-1   -1.403170161288488E-1   -2.985885155170571E-3   -3.201533835248127E-3   -3.060325982105612E-3   -3.218511607521280E-3    3.424180370098084E-1   -3.532347952063850E-1
 9.937829078275000E9     4.601080064222036E-1   -1.404642406011310E-1   -3.040055583589222E-3   -3.211932658825357E-3   -3.097474317726540E-3   -3.232187582056690E-3    3.423340735126816E-1   -3.532997659071314E-1
 9.937830064200001E9     4.601299307143606E-1   -1.404372939080446E-1   -3.020713211150291E-3   -3.256218876876777E-3   -3.127450674837784E-3   -3.257246767785979E-3    3.421952520544799E-1   -3.535013129686620E-1
 9.937831050125000E9     4.599189850013544E-1   -1.403123971892090E-1   -3.054741201480373E-3   -3.283050709268212E-3   -3.166254712498768E-3   -3.284641056396534E-3    3.417133974278964E-1   -3.538416199432657E-1
 9.937832036049999E9     4.599990437932257E-1   -1.405748915019898E-1   -3.083429397165476E-3   -3.269296160604639E-3   -3.169842272868217E-3   -3.312086409662621E-3    3.413372514447436E-1   -3.539878128852685E-1
 9.937833021975000E9     4.600313383635226E-1   -1.406389272872259E-1   -3.103216419161668E-3   -3.365191002300240E-3   -3.270673431678705E-3   -3.344639323494453E-3    3.410408385736034E-1   -3.541945985741001E-1
 9.937834007900000E9     4.599272163532583E-1   -1.406721973396682E-1   -3.155154765703754E-3   -3.350713849415583E-3   -3.218610124931875E-3   -3.363823055168258E-3    3.407610052466550E-1   -3.544309855092360E-1
 9.937834993825001E9     4.599636972997656E-1   -1.407380508115843E-1   -3.193856139105679E-3   -3.389562618809162E-3   -3.259158457636173E-3   -3.359627046510704E-3    3.405321589698298E-1   -3.543299976537369E-1
 9.937835979750000E9     4.599114328266155E-1   -1.408902513491561E-1   -3.199060846419509E-3   -3.384005749419134E-3   -3.361143860312177E-3   -3.393514108033055E-3    3.400969677501073E-1   -3.548416356138492E-1
 9.937836965674999E9     4.599201321342010E-1   -1.409223915265120E-1   -3.213975011028099E-3   -3.416717368578466E-3   -3.285210930910617E-3   -3.402338175000575E-3    3.398721368625450E-1   -3.549613434399329E-1
 9.937837951600000E9     4.597528573398294E-1   -1.410163848899412E-1   -3.257463508892127E-3   -3.455579733623085E-3   -3.329948532856055E-3   -3.447882801664416E-3    3.395524363846191E-1   -3.550242042904534E-1
 9.937838937525000E9     4.596774247348610E-1   -1.411569936871808E-1   -3.272051018268723E-3   -3.472636210413268E-3   -3.405018422871941E-3   -3.464743731566013E-3    3.394485976103433E-1   -3.553136954259067E-1
 9.937839923450001E9     4.596590847085612E-1   -1.409796926704059E-1   -3.324360723479415E-3   -3.476556586677174E-3   -3.435189701437595E-3   -3.513785716803320E-3    3.390680271612776E-1   -3.557603163329550E-1
 9.937840909375000E9     4.597696158509284E-1   -1.411423830028331E-1   -3.337723254099522E-3   -3.474279954388483E-3   -3.475643447906738E-3   -3.492878508997011E-3    3.386214145907807E-1   -3.556822728885368E-1
 9.937841895299999E9     4.597984976563790E-1   -1.413998537387222E-1   -3.368754275083145E-3   -3.504442316743383E-3   -3.481295359996284E-3   -3.549601580133711E-3    3.383618146118381E-1   -3.559394022549309E-1
 9.937842881225000E9     4.596476295524367E-1   -1.413189674826594E-1   -3.407878038443200E-3   -3.542902531606643E-3   -3.521130825949713E-3   -3.560725409665056E-3    3.378805797233792E-1   -3.561315253213640E-1
 9.937843867150000E9     4.595528121260213E-1   -1.414419234512863E-1   -3.429441828586454E-3   -3.570991250216363E-3   -3.562736943502987E-3   -3.606988367451252E-3    3.376727268044452E-1   -3.563589878377833E-1
 9.937844853075001E9     4.596046374891099E-1   -1.416365331519863E-1   -3.449069497311010E-3   -3.582227192511447E-3   -3.576140230069954E-3   -3.615902442651666E-3    3.373623758187526E-1   -3.566759381654681E-1
 9.937845839000000E9     4.595215017382929E-1   -1.415358845517893E-1   -3.498598539008545E-3   -3.625871979769012E-3   -3.660026641900471E-3   -3.630816335838416E-3    3.369650657749738E-1   -3.568337260204124E-1
 9.937846824924999E9     4.595158544992837E-1   -1.416011201957762E-1   -3.539930372658414E-3   -3.685316673486289E-3   -3.677318422100509E-3   -3.680948583680961E-3    3.367922118144382E-1   -3.569783277351934E-1
 9.937847810850000E9     4.596269740012811E-1   -1.417423950084448E-1   -3.544205957572327E-3   -3.700100145995549E-3   -3.702506175271780E-3   -3.703509591000592E-3    3.361699718942852E-1   -3.571593076799044E-1
 9.937848796775000E9     4.595675245682371E-1   -1.418877180948120E-1   -3.615494998188161E-3   -3.707668292879812E-3   -3.731712311392963E-3   -3.714158159704121E-3    3.358752892340880E-1   -3.575186777725519E-1
 9.937849782700001E9     4.594070597725702E-1   -1.418712730932033E-1   -3.646880942827310E-3   -3.762632423514860E-3   -3.754950733251170E-3   -3.756134381822833E-3    3.354911932170224E-1   -3.578212229416949E-1
 9.937850768625000E9     4.593764787979256E-1   -1.419413454044937E-1   -3.673077185033544E-3   -3.761860757994965E-3   -3.788521136787994E-3   -3.781084162494163E-3    3.352360081230666E-1   -3.577998654920280E-1
 9.937851754549999E9     4.593821327102269E-1   -1.420014793508481E-1   -3.711657603516937E-3   -3.800867506030902E-3   -3.838703352489574E-3   -3.831928771852143E-3    3.348461880904081E-1   -3.582345749564225E-1
 9.937852740475000E9     4.594335457201292E-1   -1.420976463959981E-1   -3.777631015895348E-3   -3.830414335601632E-3   -3.880200570199779E-3   -3.852130955196018E-3    3.345688834756452E-1   -3.583761388298447E-1
 9.937853726400000E9     4.593364198944269E-1   -1.421101124768888E-1   -3.768332008974506E-3   -3.847689982781610E-3   -3.896327814471810E-3   -3.847513449805252E-3    3.342267021663617E-1   -3.585241914308669E-1
 9.937854712325001E9     4.593347576373036E-1   -1.422031374076097E-1   -3.828880041861757E-3   -3.891267539899664E-3   -3.938731554642473E-3   -3.923839220530063E-3    3.335405534284621E-1   -3.589308617263491E-1
 9.937855698250000E9     4.592913040831700E-1   -1.423302228731013E-1   -3.873621332973285E-3   -3.898084729198893E-3   -3.979303266012246E-3   -3.947774644417803E-3    3.334079448780322E-1   -3.591362395494271E-1
 9.937856684174999E9     4.593017953022314E-1   -1.422607142376354E-1   -3.876642537606279E-3   -3.965989117378342E-3   -4.017272394532863E-3   -3.958387673298373E-3    3.328587583757861E-1   -3.594476563329074E-1
 9.937857670100000E9     4.592213296267898E-1   -1.423360968287158E-1   -3.903590431212777E-3   -3.953489394592483E-3   -4.043091714768549E-3   -3.972006199066945E-3    3.325787236440134E-1   -3.595093955494163E-1
 9.937858656025000E9     4.591712223778774E-1   -1.424092180579286E-1   -3.973591825718712E-3   -4.019096714807375E-3   -4.137054150382453E-3   -4.029611895044860E-3    3.324233484952145E-1   -3.599711295034989E-1
 9.937859641950001E9     4.592864736311653E-1   -1.425230593652363E-1   -4.030129928669784E-3   -4.017429282849611E-3   -4.163185998940404E-3   -4.061474351253289E-3    3.316696655619175E-1   -3.601539400926587E-1
 9.937860627875000E9     4.591010481735546E-1   -1.425550765406458E-1   -4.033458557889139E-3   -4.098785866615883E-3   -4.169044800941036E-3   -4.083127557720344E-3    3.312597812167869E-1   -3.602497182295558E-1
 9.937861613799999E9     4.591561255993737E-1   -1.426801555375696E-1   -4.096712941777638E-3   -4.132890314787112E-3   -4.214254612193798E-3   -4.108281991108956E-3    3.308622645981871E-1   -3.603662119410267E-1
 9.937862599725000E9     4.589522760581616E-1   -1.427448035407018E-1   -4.106987433618743E-3   -4.142949333505742E-3   -4.246175224942516E-3   -4.154258166191590E-3    3.304879900753946E-1   -3.607477452888648E-1
 9.937863585650000E9     4.590209451999372E-1   -1.427757512491725E-1   -4.150906525652134E-3   -4.166875052775885E-3   -4.293061557780126E-3   -4.187161370081068E-3    3.300416381750114E-1   -3.611152349461749E-1
 9.937864571575001E9     4.589858463183495E-1   -1.428545259915813E-1   -4.210251007211812E-3   -4.224336343948846E-3   -4.309419363821237E-3   -4.242684787750468E-3    3.296225480365934E-1   -3.613475549329543E-1
 9.937865557500000E9     4.589741550864587E-1   -1.429961929827552E-1   -4.252539033299913E-3   -4.218209147999020E-3   -4.431634875459721E-3   -4.244947469875740E-3    3.291536341152064E-1   -3.614348851630387E-1
 9.937866543424999E9     4.589105527548476E-1   -1.429469764014455E-1   -4.309372102341951E-3   -4.262243359134991E-3   -4.451825410615390E-3   -4.272108941854174E-3    3.287100303006460E-1   -3.618640314766277E-1
 9.937867529350000E9     4.589652151811986E-1   -1.430022552125448E-1   -4.346345214107431E-3   -4.318851635526678E-3   -4.472060768794964E-3   -4.329155844223144E-3    3.285257988712095E-1   -3.618720219833603E-1
 9.937868515275000E9     4.589741666386723E-1   -1.432243215385069E-1   -4.409894030184842E-3   -4.338905529728676E-3   -4.545909767717739E-3   -4.343461748907748E-3    3.279711019689992E-1   -3.622720907933977E-1
 9.937869501200001E9     4.588903337023253E-1   -1.431762627935303E-1   -4.461066912124049E-3   -4.370474865303307E-3   -4.596795342384392E-3   -4.376385345922690E-3    3.274085994827351E-1   -3.625925571367872E-1
 9.937870487125000E9     4.589268159619547E-1   -1.431694904511288E-1   -4.491629251876821E-3   -4.413024653178870E-3   -4.613373087526675E-3   -4.399188960450511E-3    3.269066328794010E-1   -3.628080501376746E-1
 9.937871473049999E9     4.588474403570904E-1   -1.433712092727611E-1   -4.554019114062694E-3   -4.420146963836659E-3   -4.698663556077366E-3   -4.465392494583258E-3    3.262648876116759E-1   -3.631160808453109E-1
 9.937872458975000E9     4.587680349837712E-1   -1.434442897886111E-1   -4.613615768458607E-3   -4.462568759909060E-3   -4.722428838906093E-3   -4.536658513922318E-3    3.260784328402941E-1   -3.634259119371505E-1
 9.937873444900000E9     4.588603448702246E-1   -1.434503814088262E-1   -4.603550560411738E-3   -4.524889647169039E-3   -4.769648333167426E-3   -4.526917948974333E-3    3.253777701772188E-1   -3.635169525627175E-1
 9.937874430825001E9     4.586917243173175E-1   -1.433990543696430E-1   -4.716484620049454E-3   -4.532049677563462E-3   -4.843387372793858E-3   -4.570746372436314E-3    3.250103701534203E-1   -3.638857727106724E-1
 9.937875416750000E9     4.587223498868603E-1   -1.436572177832280E-1   -4.726416886146310E-3   -4.582683572704031E-3   -4.862963364317440E-3   -4.605723797748660E-3    3.246763439126564E-1   -3.639840659931736E-1
 9.937876402674999E9     4.587162083224586E-1   -1.435980118474741E-1   -4.783202708358141E-3   -4.649330382849701E-3   -4.959856533817358E-3   -4.631033411896726E-3    3.241402831353730E-1   -3.643075845616842E-1
 9.937877388600000E9     4.587050946020649E-1   -1.438258713033870E-1   -4.840220183597270E-3   -4.673684577926034E-3   -5.016474405723808E-3   -4.648384801072309E-3    3.233558060823132E-1   -3.648895708548914E-1
 9.937878374525000E9     4.587526832864461E-1   -1.439236478850780E-1   -4.890690323144235E-3   -4.715109501622710E-3   -5.059363800195386E-3   -4.718858454009442E-3    3.229444310156913E-1   -3.649251427575089E-1
 9.937879360450001E9     4.586616845874210E-1   -1.439522574057824E-1   -4.943274573825938E-3   -4.736117103663144E-3   -5.109685327030562E-3   -4.729370713174779E-3    3.220800178114884E-1   -3.652683979344236E-1
 9.937880346375000E9     4.585490597148989E-1   -1.439818338636156E-1   -4.966778318728652E-3   -4.799115810550265E-3   -5.170577397872658E-3   -4.760428516785226E-3    3.216603971678355E-1   -3.655089507196612E-1
 9.937881332299999E9     4.584922649863108E-1   -1.438666480339970E-1   -5.045803050702903E-3   -4.835950389303244E-3   -5.237351733018098E-3   -4.857144563391922E-3    3.213527406039229E-1   -3.657528832715090E-1
 9.937882318225000E9     4.585399057424408E-1   -1.441554944144464E-1   -5.115347311055660E-3   -4.861385349124510E-3   -5.274360106986229E-3   -4.875053999821390E-3    3.207262394596757E-1   -3.661873385385196E-1
 9.937883304150000E9     4.586077355476554E-1   -1.441617516454622E-1   -5.172013281783350E-3   -4.887395854600390E-3   -5.361009414943259E-3   -4.906832372590513E-3    3.202107501078428E-1   -3.663572844682673E-1
 9.937884290075001E9     4.584190448498224E-1   -1.442710834970918E-1   -5.219844662365037E-3   -4.923779137808310E-3   -5.384322676628784E-3   -4.962136705808263E-3    3.195553599168315E-1   -3.668226117341882E-1
 9.937885276000000E9     4.584283063186731E-1   -1.443540170087941E-1   -5.284699331751282E-3   -4.999964726071447E-3   -5.487078977219726E-3   -4.983209349168788E-3    3.188882569761401E-1   -3.669486213861768E-1
 9.937886261924999E9     4.584051592080836E-1   -1.444330221531479E-1   -5.384667167226707E-3   -5.015913952104248E-3   -5.542240693675970E-3   -5.019379685149603E-3    3.183640810805963E-1   -3.674037787494568E-1
 9.937887247850000E9     4.582648336752140E-1   -1.445662652952631E-1   -5.412331156580076E-3   -5.051719568616236E-3   -5.605562222855833E-3   -5.071695841227351E-3    3.178523014239627E-1   -3.676128110922418E-1
 9.937888233775000E9     4.582254466444159E-1   -1.444924335827441E-1   -5.504656555362558E-3   -5.105454175145906E-3   -5.694560852222924E-3   -5.128005980010671E-3    3.172831854140543E-1   -3.678504323423638E-1
 9.937889219700001E9     4.583070957412567E-1   -1.444844743608887E-1   -5.542124091950845E-3   -5.178708162071172E-3   -5.749408266931317E-3   -5.171454147059672E-3    3.165743696209264E-1   -3.683890303621442E-1
 9.937890205625000E9     4.582120642082114E-1   -1.446518708975558E-1   -5.638351042511358E-3   -5.232364354121361E-3   -5.814324915392322E-3   -5.189963461020031E-3    3.159044673720934E-1   -3.685800556165886E-1
 9.937891191549999E9     4.582579187198720E-1   -1.447226620309179E-1   -5.699225074235507E-3   -5.242851417073823E-3   -5.890485471338232E-3   -5.268517610298018E-3    3.152643432320173E-1   -3.688689611989690E-1
 9.937892177475000E9     4.581661563443962E-1   -1.448194138881199E-1   -5.750446931959845E-3   -5.283419177379441E-3   -5.933390123737025E-3   -5.287283521752729E-3    3.145180455294706E-1   -3.690416081470559E-1
 9.937893163400000E9     4.582370923122578E-1   -1.449691729371625E-1   -5.876582419770513E-3   -5.314381807594098E-3   -6.042300926081458E-3   -5.352602644846683E-3    3.138725493164767E-1   -3.696762186572641E-1
 9.937894149325001E9     4.580494925525544E-1   -1.449616101543537E-1   -5.870580113369946E-3   -5.382741462635347E-3   -6.093047778207002E-3   -5.398881372867786E-3    3.133135206935031E-1   -3.698757249918204E-1
 9.937895135250000E9     4.580956854420470E-1   -1.451018498026862E-1   -5.939844401152524E-3   -5.431930718422175E-3   -6.177286918119388E-3   -5.436328007821175E-3    3.125858164784677E-1   -3.700617774974922E-1
