#  HZ   S   RI   R     50.00 
! Rohde & Schwarz Vector Network Analyzer 
! Rohde-Schwarz,ZNB20-2Port,1311601062101988,3.16
! Created: UTC 3/20/2024, 11:01:02 PM
! freq[Hz]                re:S11                  im:S11                  re:S21                  im:S21                  re:S12                  im:S12                  re:S22                  im:S22
 9.937264526000000E9     4.722934391286413E-1   -1.042266108543887E-1   -5.409824546783839E-4   -6.550545758518022E-4   -5.836170351829500E-4   -5.984265547899580E-4    3.908693020174968E-1   -3.080018269982118E-1
 9.937266654075001E9     4.723471268662586E-1   -1.043021812184452E-1   -5.722903923218286E-4   -6.078808302768074E-4   -6.033319596344154E-4   -6.232794763629661E-4    3.907827149206645E-1   -3.082469477192065E-1
 9.937268782150000E9     4.722224925589675E-1   -1.046196487140295E-1   -5.290481543326486E-4   -6.358337921028779E-4   -6.152386249331162E-4   -6.154567352756880E-4    3.907352269719732E-1   -3.083166588191673E-1
 9.937270910225000E9     4.720846554353346E-1   -1.046219927152678E-1   -6.022661907758297E-4   -6.432690707104319E-4   -5.997913366727407E-4   -6.450910798883389E-4    3.904007365078874E-1   -3.085287016414432E-1
 9.937273038299999E9     4.720013778332910E-1   -1.048397378009453E-1   -5.909313190358741E-4   -6.278315643751697E-4   -5.928907524705974E-4   -6.166430436959998E-4    3.904605866820609E-1   -3.086267334170206E-1
 9.937275166375000E9     4.721310700468886E-1   -1.050033763972930E-1   -5.949499992551851E-4   -6.687577824137410E-4   -6.070249179989589E-4   -6.566826918903088E-4    3.901738494085926E-1   -3.089714316548323E-1
 9.937277294450001E9     4.719786843688565E-1   -1.051433289313345E-1   -5.898826958407586E-4   -6.521484418977058E-4   -6.516118614374842E-4   -6.418742697729212E-4    3.899738331968753E-1   -3.092854283811840E-1
 9.937279422525000E9     4.720294808091039E-1   -1.052630618587985E-1   -6.335190938580998E-4   -6.532033546525305E-4   -5.988996838600758E-4   -6.450819242106379E-4    3.897248933287554E-1   -3.092280508645003E-1
 9.937281550600000E9     4.720483532177174E-1   -1.054231848795041E-1   -6.377308449956336E-4   -6.700151288356968E-4   -6.497386664391421E-4   -6.951499790647929E-4    3.895723337628416E-1   -3.092894654017094E-1
 9.937283678674999E9     4.720603647529584E-1   -1.054871827754324E-1   -6.455924719883155E-4   -7.018138261220819E-4   -6.546179349338754E-4   -6.728467078088422E-4    3.893279208757517E-1   -3.095145828894543E-1
 9.937285806750000E9     4.717792381930692E-1   -1.056593444320899E-1   -6.190845192021138E-4   -6.812377357670334E-4   -6.508020278889558E-4   -6.734463204597460E-4    3.890201570113543E-1   -3.098913719796780E-1
 9.937287934825001E9     4.718879883441932E-1   -1.058883372007694E-1   -6.678975613977039E-4   -7.111722241504308E-4   -6.740522239070092E-4   -7.100419825476428E-4    3.890825915428776E-1   -3.100238006671349E-1
 9.937290062900000E9     4.716723798805424E-1   -1.060308379984444E-1   -6.720584034344689E-4   -7.129817378608101E-4   -6.956226145441020E-4   -7.131003620478074E-4    3.889543179142236E-1   -3.101751940586097E-1
 9.937292190975000E9     4.716631597901612E-1   -1.061288729836461E-1   -6.553714324923142E-4   -7.288249604572366E-4   -7.071760436503635E-4   -7.178363867777065E-4    3.886317784355842E-1   -3.104488365976895E-1
 9.937294319049999E9     4.716643884138595E-1   -1.062239892471021E-1   -6.837266303818333E-4   -7.490921386140817E-4   -7.202614684738507E-4   -7.471038538002341E-4    3.882906272525488E-1   -3.105697799648869E-1
 9.937296447125000E9     4.716840247590275E-1   -1.063867301901217E-1   -7.136284232461549E-4   -7.499063885043408E-4   -7.429432530103280E-4   -7.480679661836333E-4    3.882148100865072E-1   -3.104707017707642E-1
 9.937298575200001E9     4.716994958882078E-1   -1.065317928000770E-1   -6.851746868744265E-4   -7.279384964356307E-4   -7.130766937564536E-4   -7.316147265061210E-4    3.881955819009145E-1   -3.107564156155181E-1
 9.937300703275000E9     4.715799126164691E-1   -1.066391605579679E-1   -7.029980309836199E-4   -7.505842794042865E-4   -7.164710551362788E-4   -7.709711920669078E-4    3.878937359421665E-1   -3.111031591931427E-1
 9.937302831350000E9     4.715122830695315E-1   -1.068548574869667E-1   -6.987442981590926E-4   -7.839054173271789E-4   -7.310305168987277E-4   -7.632440862169275E-4    3.875953253473640E-1   -3.112889100106879E-1
 9.937304959424999E9     4.714375413567878E-1   -1.069022786362138E-1   -7.416097826625018E-4   -7.998697516905219E-4   -7.381964050463982E-4   -7.981926814458830E-4    3.872447762316921E-1   -3.113003978470227E-1
 9.937307087500000E9     4.715452543424807E-1   -1.070989859655552E-1   -7.416219240077618E-4   -8.002551452233976E-4   -7.573075952348275E-4   -7.711810982241313E-4    3.873125274492119E-1   -3.115710622974627E-1
 9.937309215575001E9     4.714216202436122E-1   -1.072747479231076E-1   -7.797801825436975E-4   -8.398728451248773E-4   -7.984553953428981E-4   -8.021598566908270E-4    3.869199498882565E-1   -3.117251181237112E-1
 9.937311343650000E9     4.713965238926544E-1   -1.074552652197014E-1   -7.654499892977958E-4   -8.433117437789816E-4   -7.727729599881879E-4   -8.087675541482609E-4    3.868373109000779E-1   -3.120844500561786E-1
 9.937313471725000E9     4.711620587159130E-1   -1.074800111697971E-1   -7.564851646365644E-4   -8.538865245002901E-4   -7.957502956739149E-4   -8.509180337912531E-4    3.867433842870800E-1   -3.120563163319920E-1
 9.937315599799999E9     4.713775005196436E-1   -1.077266638741431E-1   -7.711204782647633E-4   -8.366915694106070E-4   -8.264734701315961E-4   -8.433320425723992E-4    3.866008449460545E-1   -3.123484755579085E-1
 9.937317727875000E9     4.713063563754887E-1   -1.077905917341369E-1   -7.887699675841717E-4   -8.827608575997148E-4   -8.198582726130143E-4   -8.460398589077724E-4    3.861976773452096E-1   -3.126903657801736E-1
 9.937319855950001E9     4.711690973334302E-1   -1.080264302014471E-1   -7.754286398418310E-4   -8.457413574304484E-4   -8.387025648737477E-4   -8.477373208385755E-4    3.861886192209167E-1   -3.128535354318731E-1
 9.937321984025000E9     4.710628118755417E-1   -1.080927684245699E-1   -8.253585321070987E-4   -8.879099953261774E-4   -8.469288659308186E-4   -9.019402250828357E-4    3.857138887751435E-1   -3.127099627564754E-1
 9.937324112100000E9     4.711631201366289E-1   -1.082604220954145E-1   -8.518372761935695E-4   -8.972967596800506E-4   -8.860325547747747E-4   -8.848316710608345E-4    3.854498671062219E-1   -3.131534082006521E-1
 9.937326240174999E9     4.711176307968903E-1   -1.084938068242343E-1   -8.182443189929671E-4   -9.341218623452389E-4   -8.718424258968088E-4   -8.850638742826680E-4    3.855802653752127E-1   -3.128887918548473E-1
 9.937328368250000E9     4.708817942972588E-1   -1.085276447454192E-1   -8.842390857805532E-4   -9.092570196091956E-4   -8.829563272587627E-4   -9.068784113598437E-4    3.853380015325266E-1   -3.135256368211315E-1
 9.937330496325001E9     4.709145825726552E-1   -1.087596993060355E-1   -9.096975528013336E-4   -9.261535282746025E-4   -9.053304167742617E-4   -9.306892377939621E-4    3.850238556909530E-1   -3.136559546440547E-1
 9.937332624400000E9     4.709257600760337E-1   -1.088423433318038E-1   -8.790665407198597E-4   -9.196139823720350E-4   -9.294987730034259E-4   -9.398744961629636E-4    3.848772352401531E-1   -3.138876957795615E-1
 9.937334752475000E9     4.707316946522597E-1   -1.090099748223155E-1   -9.018699743574896E-4   -9.436865924672013E-4   -9.239110831116198E-4   -9.486325774194874E-4    3.844269996646258E-1   -3.139048072941671E-1
 9.937336880549999E9     4.707338521878147E-1   -1.090968209357133E-1   -8.813115319710736E-4   -9.534177895221988E-4   -9.207023182704223E-4   -9.489161231336402E-4    3.842595641810659E-1   -3.141474258447244E-1
 9.937339008625000E9     4.706952977751943E-1   -1.094158827508709E-1   -9.246754589068152E-4   -9.795058429996146E-4   -9.709418838596340E-4   -9.837045173117062E-4    3.842365099156094E-1   -3.144538679885149E-1
 9.937341136700001E9     4.706869213201231E-1   -1.094220308985154E-1   -9.520271735305112E-4   -9.941537794427449E-4   -9.949357652811542E-4   -9.932077395399851E-4    3.839118727056820E-1   -3.147717343441139E-1
 9.937343264775000E9     4.707014747095817E-1   -1.096532421353068E-1   -9.591201726931300E-4   -1.030618376834791E-3   -9.842296454918007E-4   -1.010482872998140E-3    3.836165872111751E-1   -3.149987944752685E-1
 9.937345392850000E9     4.705853599689618E-1   -1.098148920139995E-1   -9.780162455658992E-4   -1.042938574037028E-3   -9.951613498446581E-4   -1.015107068716879E-3    3.834484430404609E-1   -3.149357367655685E-1
 9.937347520924999E9     4.706137488413021E-1   -1.098428166674234E-1   -9.874873940831808E-4   -1.036917977013189E-3   -1.005000298156061E-3   -1.049218956969177E-3    3.832055802128879E-1   -3.149147923896623E-1
 9.937349649000000E9     4.706687482164713E-1   -1.099716624787011E-1   -1.000435377033096E-3   -1.005528438498634E-3   -1.055018046309632E-3   -1.034766822986376E-3    3.829029754004064E-1   -3.153288635537794E-1
 9.937351777075001E9     4.704764828555924E-1   -1.102373250308025E-1   -1.023147141747842E-3   -1.086732723183773E-3   -1.023807659837391E-3   -1.077055995056464E-3    3.827261609074137E-1   -3.155065632735805E-1
 9.937353905150000E9     4.704766855604519E-1   -1.103343518660001E-1   -1.028308410634111E-3   -1.101581950139031E-3   -1.090186756562499E-3   -1.078557158165155E-3    3.825648811151840E-1   -3.159141339679264E-1
 9.937356033225000E9     4.704585776901126E-1   -1.104767222438848E-1   -1.058265477603274E-3   -1.087261011646274E-3   -1.078804796280065E-3   -1.073478389518154E-3    3.822653610662131E-1   -3.159735944555258E-1
 9.937358161299999E9     4.703432595929786E-1   -1.105503511527331E-1   -1.101021930550842E-3   -1.080036706170206E-3   -1.085063394007016E-3   -1.107360044042038E-3    3.821045691280680E-1   -3.161008579443564E-1
 9.937360289375000E9     4.702970505355653E-1   -1.107619119240249E-1   -1.083405840503253E-3   -1.119191607519343E-3   -1.078522016844423E-3   -1.119549564304182E-3    3.818046003268387E-1   -3.163761532685858E-1
 9.937362417450001E9     4.701975307643788E-1   -1.108102284460544E-1   -1.073322126070874E-3   -1.116591985131405E-3   -1.133780207122139E-3   -1.150655759660836E-3    3.814021045942693E-1   -3.164861841476384E-1
 9.937364545525000E9     4.702331278919191E-1   -1.109815916384656E-1   -1.121686025044569E-3   -1.129989017631798E-3   -1.143024199800513E-3   -1.150568549894853E-3    3.813514114705311E-1   -3.170368226624356E-1
 9.937366673600000E9     4.700551923975623E-1   -1.111563246939836E-1   -1.100185978965040E-3   -1.163726084021742E-3   -1.152376124567344E-3   -1.161736160919343E-3    3.810463779905381E-1   -3.170581101533904E-1
 9.937368801674999E9     4.700990474686928E-1   -1.113696177696464E-1   -1.120709855055065E-3   -1.192831653450366E-3   -1.174497240158456E-3   -1.185931067623650E-3    3.808893565819026E-1   -3.172530240680144E-1
 9.937370929750000E9     4.701248131980145E-1   -1.114302140869801E-1   -1.149270597220506E-3   -1.168364072118702E-3   -1.179590345630824E-3   -1.204706344039025E-3    3.804099110309074E-1   -3.174553564306558E-1
 9.937373057825001E9     4.700867632447562E-1   -1.115808900866147E-1   -1.196069613309988E-3   -1.197385465611140E-3   -1.193089114559757E-3   -1.191870219984094E-3    3.803176247877791E-1   -3.176634155193973E-1
 9.937375185900000E9     4.698356898835867E-1   -1.117875942852436E-1   -1.202586768083339E-3   -1.217886191493874E-3   -1.226271847567039E-3   -1.216848721541134E-3    3.802748002042187E-1   -3.178075982854103E-1
 9.937377313975000E9     4.699237766851577E-1   -1.119514008085516E-1   -1.189454386198197E-3   -1.247781176653860E-3   -1.248150548339282E-3   -1.228854905051701E-3    3.799778322121600E-1   -3.179816330993544E-1
 9.937379442049999E9     4.699252236879790E-1   -1.120721729020580E-1   -1.224880676443016E-3   -1.267537741167132E-3   -1.267684493798300E-3   -1.256770527652571E-3    3.797598302686321E-1   -3.181040609994435E-1
 9.937381570125000E9     4.699410884916976E-1   -1.122513280743436E-1   -1.235346189465138E-3   -1.258885000984180E-3   -1.272485838906761E-3   -1.232603559678789E-3    3.793509453345277E-1   -3.182554619469102E-1
 9.937383698200001E9     4.697611187863059E-1   -1.123374272421840E-1   -1.307541336812034E-3   -1.295515122999929E-3   -1.309300799372178E-3   -1.330498594932800E-3    3.790037206036943E-1   -3.186146678521299E-1
 9.937385826275000E9     4.697518685063128E-1   -1.122513407130170E-1   -1.288004916232515E-3   -1.273146497543108E-3   -1.327185432875810E-3   -1.292097609531862E-3    3.787044737202119E-1   -3.187155369547462E-1
 9.937387954350000E9     4.697766055279810E-1   -1.126633655174133E-1   -1.304968207081916E-3   -1.310988780704902E-3   -1.333818947501072E-3   -1.313207963686685E-3    3.786708166456461E-1   -3.188175048974335E-1
 9.937390082424999E9     4.696180440191473E-1   -1.127230969355116E-1   -1.310363419195252E-3   -1.322492101133733E-3   -1.340490220633326E-3   -1.315376608499785E-3    3.782173605705125E-1   -3.193304397991357E-1
 9.937392210500000E9     4.696255843822223E-1   -1.129246461289342E-1   -1.353637390551610E-3   -1.334709403522571E-3   -1.367510252659166E-3   -1.356889501399014E-3    3.781095529428807E-1   -3.195274423156783E-1
 9.937394338575001E9     4.696844365856555E-1   -1.129860503327291E-1   -1.368529158165299E-3   -1.331026933435049E-3   -1.406584697102054E-3   -1.348742648113148E-3    3.776466821987053E-1   -3.195945500288793E-1
 9.937396466650000E9     4.696672144278046E-1   -1.130465128506259E-1   -1.375617393237339E-3   -1.359068900543764E-3   -1.446594561822444E-3   -1.387064044318011E-3    3.774468590666573E-1   -3.198048552188074E-1
 9.937398594725000E9     4.695585223283443E-1   -1.131863353690593E-1   -1.355402017511718E-3   -1.377882119313522E-3   -1.441203816646245E-3   -1.401182655193231E-3    3.771445517298761E-1   -3.197944765444925E-1
 9.937400722799999E9     4.695225579718816E-1   -1.133275920422724E-1   -1.413334853700891E-3   -1.393911820974663E-3   -1.483998933108554E-3   -1.399926354513589E-3    3.768668881289489E-1   -3.202557907890275E-1
 9.937402850875000E9     4.693939797672653E-1   -1.135351428692060E-1   -1.454654096728416E-3   -1.399230883920773E-3   -1.470212068751994E-3   -1.435331469030960E-3    3.767365185939110E-1   -3.206401977638658E-1
 9.937404978950001E9     4.695304432252640E-1   -1.137280822846912E-1   -1.447258093225990E-3   -1.420008832793831E-3   -1.530584259750206E-3   -1.474277139388758E-3    3.763717037472269E-1   -3.207948024216064E-1
 9.937407107025000E9     4.693478857311308E-1   -1.139042319665636E-1   -1.484486054192349E-3   -1.469284778196486E-3   -1.523910214638609E-3   -1.465057858048984E-3    3.760834634471771E-1   -3.209867399352838E-1
 9.937409235100000E9     4.693379606252427E-1   -1.139941062952954E-1   -1.481128649697910E-3   -1.514422475414018E-3   -1.527707730353410E-3   -1.488972332289986E-3    3.756570758113181E-1   -3.211275155763014E-1
 9.937411363174999E9     4.692916745990164E-1   -1.140187254092422E-1   -1.508283416327615E-3   -1.542686446664649E-3   -1.591664099076707E-3   -1.520460194625918E-3    3.754744230005866E-1   -3.213290657609038E-1
 9.937413491250000E9     4.691696740593977E-1   -1.142959252529962E-1   -1.554603182906868E-3   -1.532562934920280E-3   -1.570651056024187E-3   -1.527632285570866E-3    3.749496871370792E-1   -3.218166706774863E-1
 9.937415619325001E9     4.691515732839643E-1   -1.144591600017614E-1   -1.561917741526065E-3   -1.516016729258828E-3   -1.630355868946123E-3   -1.550613181920521E-3    3.749254041525595E-1   -3.219238617953257E-1
 9.937417747400000E9     4.690370783365352E-1   -1.144580423430025E-1   -1.613388793769500E-3   -1.558967097288415E-3   -1.636498267373141E-3   -1.583093497195319E-3    3.744303814201448E-1   -3.220547664589266E-1
 9.937419875475000E9     4.692546377047233E-1   -1.147441415476083E-1   -1.618633942243261E-3   -1.574410899358732E-3   -1.692428158180612E-3   -1.585635577962715E-3    3.741072467104526E-1   -3.223388293591729E-1
 9.937422003549999E9     4.690049111102021E-1   -1.149102818030958E-1   -1.646883582696392E-3   -1.606709358558408E-3   -1.720383325505421E-3   -1.585103120853243E-3    3.737194281492117E-1   -3.225481667561915E-1
 9.937424131625000E9     4.690593397911458E-1   -1.150207001767360E-1   -1.694091721951405E-3   -1.609033089586323E-3   -1.708401653551691E-3   -1.616121382845868E-3    3.734856717508874E-1   -3.228328975415211E-1
 9.937426259700001E9     4.687908194709947E-1   -1.151884928921231E-1   -1.706704259871748E-3   -1.621678865962778E-3   -1.744521474714621E-3   -1.647515287515688E-3    3.730218523044460E-1   -3.230091949359753E-1
 9.937428387775000E9     4.689114156733690E-1   -1.152643714893699E-1   -1.716430555646885E-3   -1.661162341020243E-3   -1.748873586133797E-3   -1.676549340561967E-3    3.728138345583615E-1   -3.233494073725186E-1
 9.937430515850000E9     4.687862402361665E-1   -1.154418523823005E-1   -1.761599977806861E-3   -1.670225807046374E-3   -1.806997008148257E-3   -1.676453580558122E-3    3.723859607532714E-1   -3.234633367115388E-1
 9.937432643924999E9     4.688297779443576E-1   -1.154846747790642E-1   -1.760719709002770E-3   -1.707259894199092E-3   -1.816504902752164E-3   -1.687439254041168E-3    3.721274689325645E-1   -3.236896819367111E-1
 9.937434772000000E9     4.686767305013723E-1   -1.158032590276586E-1   -1.775240184482213E-3   -1.720186709988422E-3   -1.853084963381440E-3   -1.710307310856873E-3    3.716800077712127E-1   -3.239626745948342E-1
 9.937436900075001E9     4.686205209792810E-1   -1.159452653088355E-1   -1.854878854344497E-3   -1.731620551167944E-3   -1.859931004870658E-3   -1.772541091246954E-3    3.713921446858154E-1   -3.243208602545951E-1
 9.937439028150000E9     4.686193686449562E-1   -1.160894442788034E-1   -1.886604197733094E-3   -1.753273826623108E-3   -1.916913902679047E-3   -1.742138489999829E-3    3.712474671648355E-1   -3.244092107405114E-1
 9.937441156225000E9     4.686590034336054E-1   -1.162117002333369E-1   -1.933238912623604E-3   -1.775730678764675E-3   -1.934336299675399E-3   -1.785483679227570E-3    3.706484761005652E-1   -3.246081215050819E-1
 9.937443284299999E9     4.685233482705752E-1   -1.162367963420162E-1   -1.936722224447822E-3   -1.822697755441900E-3   -1.965991705479429E-3   -1.825742000179968E-3    3.703653000264146E-1   -3.250711246108532E-1
 9.937445412375000E9     4.685755758512707E-1   -1.164657562068003E-1   -1.975433697935024E-3   -1.826033361015103E-3   -2.023769392940257E-3   -1.834188880068094E-3    3.701268569968345E-1   -3.252383533752097E-1
 9.937447540450001E9     4.685785149924374E-1   -1.166199475494049E-1   -1.981774300756137E-3   -1.887852210496492E-3   -2.033624403169187E-3   -1.844197057126727E-3    3.696276477923022E-1   -3.253557838020875E-1
 9.937449668525000E9     4.683864831174335E-1   -1.166530674801189E-1   -1.996360678235747E-3   -1.875675486033924E-3   -2.083093095682517E-3   -1.850341204596757E-3    3.694179579321850E-1   -3.256581559880085E-1
 9.937451796600000E9     4.683659172468451E-1   -1.170624458397310E-1   -2.056985409160762E-3   -1.897879376424454E-3   -2.125287761989704E-3   -1.923635192807452E-3    3.687679024688187E-1   -3.258864275054045E-1
 9.937453924674999E9     4.682793647872496E-1   -1.171151887589803E-1   -2.077307099117528E-3   -1.955262343171383E-3   -2.141416736796680E-3   -1.939535083228524E-3    3.684710191609471E-1   -3.263031650635005E-1
 9.937456052750000E9     4.683091317500938E-1   -1.173557538090532E-1   -2.118395968024889E-3   -1.942886115249622E-3   -2.158407782459564E-3   -1.936138240175194E-3    3.680083956469778E-1   -3.263651870799306E-1
