#  HZ   S   RI   R     50.00 
! Rohde & Schwarz Vector Network Analyzer 
! Rohde-Schwarz,ZNB20-2Port,1311601062101988,3.16
! Created: UTC 3/20/2024, 11:01:04 PM
! freq[Hz]                re:S11                  im:S11                  re:S21                  im:S21                  re:S12                  im:S12                  re:S22                  im:S22
 9.937261046000000E9     4.723353061389083E-1   -1.040813323795587E-1   -5.475503828482386E-4   -6.061146428736909E-4   -5.642151086513165E-4   -5.722053084807012E-4    3.911003100598031E-1   -3.078160845458039E-1
 9.937263189725000E9     4.722604167356158E-1   -1.042075145961656E-1   -5.452823882434589E-4   -5.904863795304370E-4   -5.478159808337131E-4   -6.064860787545702E-4    3.909669829043846E-1   -3.080131076092592E-1
 9.937265333450001E9     4.721757019500145E-1   -1.043730668227091E-1   -5.521549902273304E-4   -5.863263115135172E-4   -5.950581651696081E-4   -6.009217945074567E-4    3.908915938651450E-1   -3.082433813556448E-1
 9.937267477174999E9     4.721533558137371E-1   -1.043874109049873E-1   -5.756333813399058E-4   -6.305714363760089E-4   -6.050064710799746E-4   -6.341947354483928E-4    3.907880502097965E-1   -3.083845587895973E-1
 9.937269620900000E9     4.721734093558953E-1   -1.046418580576475E-1   -5.819744071367567E-4   -6.331608866484981E-4   -6.007395417923521E-4   -6.159219025466074E-4    3.904912293303848E-1   -3.083933877336098E-1
 9.937271764625000E9     4.721159560776019E-1   -1.047731673733014E-1   -5.557536974329698E-4   -6.195445285515458E-4   -6.053294650804216E-4   -6.150635157884439E-4    3.903295849197741E-1   -3.085355569850505E-1
 9.937273908350000E9     4.720648743792403E-1   -1.049193826210275E-1   -5.985265002570767E-4   -6.535232240713445E-4   -6.431915999232309E-4   -6.231058482808013E-4    3.901739774458898E-1   -3.088171827028262E-1
 9.937276052075001E9     4.720494229309087E-1   -1.049608468353073E-1   -6.269583850471325E-4   -6.643427124463727E-4   -6.372689054139037E-4   -6.615965217407856E-4    3.898357178126574E-1   -3.092775454419509E-1
 9.937278195799999E9     4.719744722671652E-1   -1.051573772793782E-1   -6.387695871103411E-4   -6.722759468776733E-4   -5.905127800104535E-4   -6.147207115276264E-4    3.898067510714979E-1   -3.091675840560221E-1
 9.937280339525000E9     4.718522115524264E-1   -1.053682585330670E-1   -6.238664959170176E-4   -6.659978818065196E-4   -6.382942069341405E-4   -6.347380145893831E-4    3.894494774610767E-1   -3.092765921874515E-1
 9.937282483250000E9     4.719250741256037E-1   -1.054369189226412E-1   -6.433749703125497E-4   -6.775659245703383E-4   -6.346561476286724E-4   -7.090436534272881E-4    3.893880187295142E-1   -3.094617660122188E-1
 9.937284626975000E9     4.717843527383327E-1   -1.055990947472571E-1   -6.235344332369257E-4   -6.550794122838309E-4   -6.581033166311726E-4   -7.010712794116122E-4    3.891913724537702E-1   -3.096804431002391E-1
 9.937286770700001E9     4.718251733823166E-1   -1.058884665439921E-1   -6.860060490139340E-4   -7.187513265049754E-4   -6.772792361958233E-4   -7.108391018869131E-4    3.890627756959285E-1   -3.099157058892151E-1
 9.937288914424999E9     4.718686085051644E-1   -1.058821836242372E-1   -6.836689340682168E-4   -7.000963428251145E-4   -6.839690038874666E-4   -7.081876720960484E-4    3.889648838956586E-1   -3.100471399244010E-1
 9.937291058150000E9     4.716761199720849E-1   -1.061010785123557E-1   -6.749227486331975E-4   -7.162999159658918E-4   -7.127053021015770E-4   -7.129467154339129E-4    3.886577098160065E-1   -3.103218206698609E-1
 9.937293201875000E9     4.715398010821284E-1   -1.061342941384473E-1   -6.890435007091176E-4   -7.332758235322983E-4   -6.886868075379378E-4   -7.204489558914892E-4    3.883388932798776E-1   -3.104626357015214E-1
 9.937295345600000E9     4.716284882692072E-1   -1.063040528354677E-1   -6.963193098746163E-4   -7.441837510100146E-4   -7.279760255334128E-4   -7.545541210074074E-4    3.883922971235376E-1   -3.105339556028249E-1
 9.937297489325001E9     4.716746046788610E-1   -1.064327467265260E-1   -6.939805318622120E-4   -7.530842504493575E-4   -7.004236281452646E-4   -7.665059612363699E-4    3.880583742207117E-1   -3.109358484525037E-1
 9.937299633049999E9     4.716107905958914E-1   -1.066064615225114E-1   -7.321598969658133E-4   -7.429182013009961E-4   -7.324353390553436E-4   -7.674046318314413E-4    3.876831365894998E-1   -3.109673594422019E-1
 9.937301776775000E9     4.715917383640634E-1   -1.068370722214065E-1   -7.554320577306058E-4   -7.736914028056926E-4   -7.582456159997085E-4   -7.755960147169425E-4    3.877032858916395E-1   -3.109454502547964E-1
 9.937303920500000E9     4.714359438652377E-1   -1.070684487096572E-1   -7.011360047093227E-4   -8.006506428578072E-4   -7.673234239739122E-4   -8.118109606998342E-4    3.875709913970249E-1   -3.113893635664653E-1
 9.937306064225000E9     4.714392191918395E-1   -1.071828907652975E-1   -7.586264985947658E-4   -7.784654272331898E-4   -7.669734406708911E-4   -8.221068449365431E-4    3.873107307340786E-1   -3.115760890453711E-1
 9.937308207950001E9     4.713700391820860E-1   -1.071950630737909E-1   -7.470560211998467E-4   -8.038006720649645E-4   -7.659652288842749E-4   -7.898181073161611E-4    3.870774588741452E-1   -3.118123082670414E-1
 9.937310351674999E9     4.713781071994427E-1   -1.074093042279478E-1   -8.035888839170054E-4   -8.361544420174258E-4   -7.972332542930638E-4   -8.216135504632680E-4    3.867629271203194E-1   -3.118838011849343E-1
 9.937312495400000E9     4.714184784488639E-1   -1.076164369606465E-1   -7.982923436135801E-4   -8.322682203227991E-4   -8.124957140523037E-4   -8.278560433189096E-4    3.867690582440712E-1   -3.119545845605420E-1
 9.937314639125000E9     4.711943607462491E-1   -1.077713513280225E-1   -8.250543885318440E-4   -8.368459467432551E-4   -8.153595947603137E-4   -8.268049871036521E-4    3.865576517522789E-1   -3.123945192790544E-1
 9.937316782850000E9     4.711196947220109E-1   -1.079330064568062E-1   -7.996807378197112E-4   -8.403331338035743E-4   -8.413527212355158E-4   -8.766104292474599E-4    3.863183169307580E-1   -3.123768319409357E-1
 9.937318926575001E9     4.711985426929604E-1   -1.078639604392163E-1   -7.964111279338042E-4   -8.765802323811613E-4   -8.391780165708054E-4   -8.675100164419389E-4    3.861364268776877E-1   -3.125509619221042E-1
 9.937321070299999E9     4.711279030246885E-1   -1.080430268977603E-1   -8.481229223072938E-4   -8.855679714653931E-4   -8.378724150824778E-4   -8.810573966632680E-4    3.858636725476232E-1   -3.128037680888538E-1
 9.937323214025000E9     4.709399507979215E-1   -1.082323047987068E-1   -7.983875333029782E-4   -8.830706274826304E-4   -8.893334029829285E-4   -8.892998818878516E-4    3.856070711684851E-1   -3.126966846631400E-1
 9.937325357750000E9     4.710115178321147E-1   -1.084628028321022E-1   -8.750698360238751E-4   -9.340863699541471E-4   -8.821683421291104E-4   -9.115149915159186E-4    3.855612844635404E-1   -3.132384180187694E-1
 9.937327501475000E9     4.709115901995249E-1   -1.085274312906606E-1   -8.868133733630507E-4   -9.127377546794835E-4   -9.119983533315251E-4   -9.373970844551018E-4    3.851835732036826E-1   -3.134060424519382E-1
 9.937329645200001E9     4.709188190962959E-1   -1.086145568264780E-1   -8.807615227610414E-4   -9.457864175767952E-4   -8.999777082927006E-4   -9.292603137630106E-4    3.850192938340800E-1   -3.136409975600216E-1
 9.937331788924999E9     4.708328691746944E-1   -1.088706097670808E-1   -8.813488887107055E-4   -9.456031308987409E-4   -9.356195258883931E-4   -9.392035158117080E-4    3.849369512206532E-1   -3.137559485485560E-1
 9.937333932650000E9     4.707681724504134E-1   -1.089595436074003E-1   -9.028795786049342E-4   -9.278055649262307E-4   -9.512819821027256E-4   -9.522886925676053E-4    3.845671504477529E-1   -3.140083591508413E-1
 9.937336076375000E9     4.707758712972814E-1   -1.091735317802435E-1   -9.186493393410986E-4   -9.547598138310746E-4   -9.430901389608591E-4   -9.643295836032935E-4    3.844049985163692E-1   -3.140278981903201E-1
 9.937338220100000E9     4.708161965760569E-1   -1.093003800371270E-1   -9.555992169277527E-4   -9.649201528866076E-4   -9.739325396454537E-4   -9.792343449533804E-4    3.839550596072854E-1   -3.143518054798898E-1
 9.937340363825001E9     4.707519425139582E-1   -1.093919912718110E-1   -9.456629623944587E-4   -1.000334124979886E-3   -9.904803264666816E-4   -9.972105743514643E-4    3.840012529257250E-1   -3.145894982350892E-1
 9.937342507549999E9     4.707060085003719E-1   -1.096220720990514E-1   -9.750482339035203E-4   -1.002717104769194E-3   -9.845894245341690E-4   -9.968128259944973E-4    3.835654071991823E-1   -3.146726295932496E-1
 9.937344651275000E9     4.705518862505716E-1   -1.097025036044360E-1   -9.612325290869812E-4   -1.009945035170705E-3   -9.769259761601731E-4   -1.027849499736167E-3    3.834617578827038E-1   -3.147968102332040E-1
 9.937346795000000E9     4.706557221681686E-1   -1.099093734297995E-1   -9.990981375649769E-4   -1.032717299278557E-3   -1.000092849979874E-3   -1.020820156447870E-3    3.832063742052212E-1   -3.150935608403811E-1
 9.937348938725000E9     4.706306266354555E-1   -1.100226182509209E-1   -1.014972466675678E-3   -1.016007524939520E-3   -1.032957453884485E-3   -1.024699524541697E-3    3.829669522428198E-1   -3.153393236556160E-1
 9.937351082450001E9     4.705349995634108E-1   -1.101348817184609E-1   -9.653366127224157E-4   -1.057398173237921E-3   -1.002311238491468E-3   -1.066933628371720E-3    3.828657001244713E-1   -3.155373005848286E-1
 9.937353226174999E9     4.703676570510347E-1   -1.102953422311758E-1   -1.015541399755397E-3   -1.086753225176311E-3   -1.054042856522954E-3   -1.068842353243255E-3    3.824550104154281E-1   -3.157385965270745E-1
 9.937355369900000E9     4.704366570900811E-1   -1.104766591114688E-1   -1.060321693309166E-3   -1.097404058369161E-3   -1.083323086607658E-3   -1.080358380439546E-3    3.824202844959262E-1   -3.160175833238363E-1
 9.937357513625000E9     4.703513803789838E-1   -1.105921619902134E-1   -1.069424211638884E-3   -1.077476836707571E-3   -1.131905506736197E-3   -1.090088015906931E-3    3.821139022020399E-1   -3.159399255893917E-1
 9.937359657350000E9     4.703552664118898E-1   -1.105587774088974E-1   -1.067138783036811E-3   -1.109824727503282E-3   -1.115383610307354E-3   -1.114691367506971E-3    3.819260663667150E-1   -3.163176919946004E-1
 9.937361801075001E9     4.704273631381079E-1   -1.108559861949543E-1   -1.131802727906706E-3   -1.131021619708592E-3   -1.129271599438582E-3   -1.082202526660233E-3    3.817648040362466E-1   -3.164472384846653E-1
 9.937363944799999E9     4.702423185243751E-1   -1.110076959165312E-1   -1.124831781040558E-3   -1.136496543341132E-3   -1.138589858523661E-3   -1.158583223801583E-3    3.814683056349641E-1   -3.166223309661678E-1
 9.937366088525000E9     4.702531116564922E-1   -1.112643020577654E-1   -1.143627537936201E-3   -1.173667424271086E-3   -1.166189697445592E-3   -1.185077840756507E-3    3.810887106584442E-1   -3.170855363418091E-1
 9.937368232250000E9     4.701396245148157E-1   -1.112520116736955E-1   -1.156781859051439E-3   -1.134458889510175E-3   -1.139307523722967E-3   -1.192827392020292E-3    3.809039604551292E-1   -3.170781800432765E-1
 9.937370375975000E9     4.699925063112721E-1   -1.115579737744311E-1   -1.161248382218064E-3   -1.184303707887227E-3   -1.215122697812885E-3   -1.178349701476318E-3    3.806389886912996E-1   -3.173955677820721E-1
 9.937372519700001E9     4.701898386557101E-1   -1.115749885641203E-1   -1.175833953893897E-3   -1.209193658729466E-3   -1.208275969185436E-3   -1.172288162658274E-3    3.803411857226416E-1   -3.175997368094959E-1
 9.937374663424999E9     4.700302655314729E-1   -1.116872819376645E-1   -1.224869697403027E-3   -1.205744743777448E-3   -1.199108925376392E-3   -1.212913052106576E-3    3.801381361145612E-1   -3.178062815105606E-1
 9.937376807150000E9     4.699396624311420E-1   -1.118443426320092E-1   -1.255091684148827E-3   -1.199399226496359E-3   -1.244218422037213E-3   -1.220969531723865E-3    3.796610716021602E-1   -3.180675256077872E-1
 9.937378950875000E9     4.698799382856751E-1   -1.121293438757056E-1   -1.222391982112525E-3   -1.277813314937674E-3   -1.273447335030104E-3   -1.260648856651719E-3    3.795718190340184E-1   -3.182260602725883E-1
 9.937381094600000E9     4.698536257757007E-1   -1.120565279391476E-1   -1.254011745879988E-3   -1.266745290168657E-3   -1.287501129572817E-3   -1.264302381837710E-3    3.794615396178252E-1   -3.184132203818257E-1
 9.937383238325001E9     4.698893972036209E-1   -1.121809470555030E-1   -1.296142241096513E-3   -1.285568677928573E-3   -1.281198845353549E-3   -1.265082123191009E-3    3.789329512912640E-1   -3.186038893478634E-1
 9.937385382049999E9     4.697309632246825E-1   -1.124374154428786E-1   -1.287276479680769E-3   -1.280556737889586E-3   -1.305715161471770E-3   -1.308205323146015E-3    3.788356069523891E-1   -3.189164018010420E-1
 9.937387525775000E9     4.696856798973011E-1   -1.125604434573610E-1   -1.315033065462996E-3   -1.298348730404011E-3   -1.308438598118414E-3   -1.302697411818388E-3    3.785854389545383E-1   -3.190553193122692E-1
 9.937389669500000E9     4.696107062297173E-1   -1.126226765006657E-1   -1.301063045036257E-3   -1.352795878726588E-3   -1.365599659307948E-3   -1.326647278046364E-3    3.783201023964905E-1   -3.191497392138554E-1
 9.937391813225000E9     4.695672070362034E-1   -1.128569292767324E-1   -1.350411600653549E-3   -1.374515689885046E-3   -1.401692823791334E-3   -1.319925231125188E-3    3.777551521952283E-1   -3.195146866005117E-1
 9.937393956950001E9     4.697018992285547E-1   -1.130605390923803E-1   -1.379600342320214E-3   -1.355479461650836E-3   -1.437493946254320E-3   -1.355331501549266E-3    3.777478276098950E-1   -3.196938026453272E-1
 9.937396100674999E9     4.696729385572598E-1   -1.130946646492582E-1   -1.407925282329795E-3   -1.401760577141255E-3   -1.449879855663322E-3   -1.356199391808738E-3    3.773730381248095E-1   -3.198069239676363E-1
 9.937398244400000E9     4.694723462978834E-1   -1.133616539560514E-1   -1.410457962149394E-3   -1.395910571711916E-3   -1.458112564256104E-3   -1.385669596446450E-3    3.772198492728226E-1   -3.201149410677744E-1
 9.937400388125000E9     4.694790211674650E-1   -1.134627547317386E-1   -1.445168942704571E-3   -1.434704144803653E-3   -1.476276186706586E-3   -1.399186285056383E-3    3.769263320708279E-1   -3.201245337083096E-1
 9.937402531850000E9     4.694348117756267E-1   -1.136687470578158E-1   -1.444923138377769E-3   -1.439542559496745E-3   -1.484679601970783E-3   -1.444031620668761E-3    3.765891480496641E-1   -3.204712219164025E-1
 9.937404675575001E9     4.693849801078628E-1   -1.137036971875585E-1   -1.464901512126443E-3   -1.420682453837952E-3   -1.499584572067364E-3   -1.444951053315973E-3    3.763173856225051E-1   -3.207289108422339E-1
 9.937406819299999E9     4.693434336922027E-1   -1.137799301760414E-1   -1.495453878079683E-3   -1.442998622803207E-3   -1.544431866661834E-3   -1.467272115544982E-3    3.759944794516316E-1   -3.210991167401381E-1
 9.937408963025000E9     4.693432226211722E-1   -1.141183660652004E-1   -1.526653714344762E-3   -1.490220637130527E-3   -1.550824961446682E-3   -1.463555334749373E-3    3.755268048802052E-1   -3.212367398608768E-1
 9.937411106750000E9     4.693059728220267E-1   -1.140585990624639E-1   -1.540987867452597E-3   -1.510055380874908E-3   -1.558711570462656E-3   -1.516780713563454E-3    3.750981656961772E-1   -3.214597013872650E-1
 9.937413250475000E9     4.693053116219980E-1   -1.144865934230730E-1   -1.570957207649838E-3   -1.534787414889311E-3   -1.598945402289475E-3   -1.518310027157917E-3    3.749335142667078E-1   -3.215472238885560E-1
 9.937415394200001E9     4.691764081839458E-1   -1.143244756434780E-1   -1.570936814209950E-3   -1.554054038948097E-3   -1.636186323621214E-3   -1.536571996233774E-3    3.745237015103092E-1   -3.218644518710941E-1
 9.937417537924999E9     4.691312470880262E-1   -1.146356372728333E-1   -1.603814830559455E-3   -1.576476412306726E-3   -1.666149791647377E-3   -1.571751984428129E-3    3.744367413573698E-1   -3.221088472864086E-1
 9.937419681650000E9     4.691373454508253E-1   -1.146933154659459E-1   -1.646468037504968E-3   -1.596118721833261E-3   -1.675434036061094E-3   -1.596012537036539E-3    3.741307312921598E-1   -3.226055879894900E-1
 9.937421825375000E9     4.690377209071369E-1   -1.149751360326195E-1   -1.672150427247208E-3   -1.632446384875001E-3   -1.701823826793698E-3   -1.597536220764255E-3    3.738529211570637E-1   -3.226605733675658E-1
 9.937423969100000E9     4.689154444484482E-1   -1.150058356977492E-1   -1.666184686039770E-3   -1.614955386920409E-3   -1.757525526816289E-3   -1.629249571050597E-3    3.734206946215161E-1   -3.228077789696107E-1
 9.937426112825001E9     4.689069316396340E-1   -1.152725988212422E-1   -1.697367285436251E-3   -1.658165610598614E-3   -1.764931188172340E-3   -1.636725086723737E-3    3.730794725705042E-1   -3.232104668681887E-1
 9.937428256549999E9     4.689620184349009E-1   -1.153991500249079E-1   -1.732955992506549E-3   -1.675537252552078E-3   -1.768185889469545E-3   -1.652490882816877E-3    3.727922031891089E-1   -3.231699969301953E-1
 9.937430400275000E9     4.689246642635050E-1   -1.154727533202640E-1   -1.793779851755384E-3   -1.700659072829674E-3   -1.817924694629186E-3   -1.654776494699932E-3    3.722905673710777E-1   -3.235654906265923E-1
 9.937432544000000E9     4.689318906679995E-1   -1.156571805684564E-1   -1.743049590555870E-3   -1.712465582451389E-3   -1.839830493248827E-3   -1.678762516199632E-3    3.718306604981597E-1   -3.237341207289260E-1
 9.937434687725000E9     4.686384649427824E-1   -1.158049720236617E-1   -1.867493734598043E-3   -1.719059920133000E-3   -1.872320755640005E-3   -1.742804275663365E-3    3.715026982079859E-1   -3.239285910342136E-1
 9.937436831450001E9     4.687338462613255E-1   -1.157557704121326E-1   -1.824919630813191E-3   -1.750296627928524E-3   -1.892837443295803E-3   -1.767743830057086E-3    3.713910811436200E-1   -3.241349101424045E-1
 9.937438975174999E9     4.686532675672792E-1   -1.160661870194064E-1   -1.880621793257748E-3   -1.775785795072253E-3   -1.946930588891258E-3   -1.769165938680350E-3    3.708751585264080E-1   -3.244138249240887E-1
 9.937441118900000E9     4.686170486262995E-1   -1.163147243647926E-1   -1.922140734765180E-3   -1.821574187929763E-3   -1.985541836085884E-3   -1.805013470616043E-3    3.705248517930153E-1   -3.247100082478692E-1
 9.937443262625000E9     4.685271463556064E-1   -1.163284852562463E-1   -1.928814968692793E-3   -1.853355322053957E-3   -2.035945322740825E-3   -1.822361944784582E-3    3.702489063784907E-1   -3.250493753851200E-1
 9.937445406350000E9     4.684865559363926E-1   -1.164782671225033E-1   -1.968305110476410E-3   -1.859655029736472E-3   -1.986826763262411E-3   -1.867686343998598E-3    3.698779151120025E-1   -3.252116304593462E-1
 9.937447550075001E9     4.684632376944257E-1   -1.166526268058649E-1   -1.992800150821347E-3   -1.889906935338529E-3   -2.051102539104124E-3   -1.879879170110718E-3    3.695086940783152E-1   -3.255468072112779E-1
 9.937449693799999E9     4.683433100136192E-1   -1.167317039452909E-1   -2.038751492172430E-3   -1.908024452953236E-3   -2.079563335669084E-3   -1.877286941704993E-3    3.690602537015552E-1   -3.259369091774535E-1
 9.937451837525000E9     4.683535288938481E-1   -1.169398274714773E-1   -2.071855204577405E-3   -1.937389371604642E-3   -2.126531383109388E-3   -1.905593592837495E-3    3.686623730449705E-1   -3.258950377243058E-1
 9.937453981250000E9     4.683112475117848E-1   -1.170654639311303E-1   -2.102552513907688E-3   -1.916972644346337E-3   -2.152854130527886E-3   -1.944893581758916E-3    3.682523895474736E-1   -3.262775779376540E-1
