#  HZ   S   RI   R     50.00 
! Rohde & Schwarz Vector Network Analyzer 
! Rohde-Schwarz,ZNB20-2Port,1311601062101988,3.16
! Created: UTC 3/20/2024, 11:01:24 PM
! freq[Hz]                re:S11                  im:S11                  re:S21                  im:S21                  re:S12                  im:S12                  re:S22                  im:S22
 9.937234508000000E9     4.728554582542944E-1   -1.022053439826005E-1   -5.271052854697077E-4   -5.598490600719979E-4   -5.229405892258279E-4   -5.636441741276551E-4    3.925611617297087E-1   -3.061080775904300E-1
 9.937236689525000E9     4.727729801923121E-1   -1.024381239289642E-1   -5.273490150859529E-4   -6.151344701024962E-4   -5.739213841740146E-4   -5.561220981189616E-4    3.924722056547488E-1   -3.063373362862055E-1
 9.937238871049999E9     4.728436311662260E-1   -1.025440940601873E-1   -4.958621893173304E-4   -5.333809803590519E-4   -5.682216449205211E-4   -5.714069526702753E-4    3.924170477469697E-1   -3.064072913545005E-1
 9.937241052575001E9     4.727215133688011E-1   -1.027498488185253E-1   -5.471050266574930E-4   -5.780997435629090E-4   -5.675342249576920E-4   -5.642994266735264E-4    3.921212033881417E-1   -3.066827147824616E-1
 9.937243234100000E9     4.726791615463722E-1   -1.028835647550958E-1   -5.395594516731006E-4   -5.925048517690495E-4   -5.552331654773567E-4   -5.939710228598720E-4    3.918824705757539E-1   -3.068033958555828E-1
 9.937245415625000E9     4.724664163062299E-1   -1.029699858376162E-1   -5.930013242032751E-4   -6.096652290661895E-4   -5.709079431978088E-4   -6.096809330010786E-4    3.918492662585105E-1   -3.071028014610291E-1
 9.937247597150000E9     4.726356581695783E-1   -1.032404986099488E-1   -5.636190065567016E-4   -5.974791078287565E-4   -6.156986522311976E-4   -5.960806542027349E-4    3.916513138930844E-1   -3.073231990871619E-1
 9.937249778674999E9     4.725012804818292E-1   -1.034223520509801E-1   -5.576290048527995E-4   -6.220578808844580E-4   -6.198416283505315E-4   -6.068625348695371E-4    3.913288132227594E-1   -3.074315920106013E-1
 9.937251960200001E9     4.723831469668402E-1   -1.034756486059232E-1   -5.296915593569082E-4   -6.584049759795063E-4   -6.194715066129430E-4   -6.444572563205692E-4    3.911910033800297E-1   -3.078098267028903E-1
 9.937254141725000E9     4.724141270897321E-1   -1.035031081330354E-1   -5.847735265955513E-4   -6.296192753157455E-4   -5.889884774733411E-4   -6.361091174972268E-4    3.909645548549143E-1   -3.075475540876572E-1
 9.937256323250000E9     4.724310050590692E-1   -1.038739114075446E-1   -6.239769034848576E-4   -6.678544743062394E-4   -6.407308368270132E-4   -6.592782593177743E-4    3.909821258336360E-1   -3.078619158411254E-1
 9.937258504775000E9     4.724368301350904E-1   -1.038569992167096E-1   -6.073450515756190E-4   -6.541854303989685E-4   -6.588434916106339E-4   -6.750587446115043E-4    3.906500693169223E-1   -3.081449915873482E-1
 9.937260686299999E9     4.723088679642075E-1   -1.040237279443182E-1   -6.210914198837143E-4   -6.562761450695824E-4   -6.161805389652679E-4   -6.722938802204948E-4    3.905178924111381E-1   -3.082709246772859E-1
 9.937262867825001E9     4.723724894966433E-1   -1.041874429251135E-1   -6.393432085129559E-4   -6.902514283588395E-4   -6.520181016490535E-4   -6.713674404195518E-4    3.904778642853834E-1   -3.083963493371687E-1
 9.937265049350000E9     4.722000908363749E-1   -1.043715544938663E-1   -6.253985449562659E-4   -7.097719126102402E-4   -6.617631852889435E-4   -6.815625593981629E-4    3.900777394270421E-1   -3.085649885679582E-1
 9.937267230875000E9     4.722016044570101E-1   -1.044970001003114E-1   -6.631837854311596E-4   -7.291911743898680E-4   -6.710108837325547E-4   -7.136180012327657E-4    3.897880673496501E-1   -3.088927613920707E-1
 9.937269412400000E9     4.720527012086507E-1   -1.047270421729320E-1   -6.683001222345579E-4   -7.369792092416505E-4   -6.884939642890642E-4   -7.079790253800415E-4    3.897342192095942E-1   -3.090266837107880E-1
 9.937271593924999E9     4.722050667150226E-1   -1.047858146644951E-1   -6.882820315466728E-4   -7.442299437284455E-4   -7.189636138693166E-4   -7.399940932935601E-4    3.894944588533363E-1   -3.090995731442914E-1
 9.937273775450001E9     4.720110573058773E-1   -1.048884607918772E-1   -6.654516878462646E-4   -7.413206063230680E-4   -6.874120854217468E-4   -7.129869963036481E-4    3.893763152202611E-1   -3.093792343810232E-1
 9.937275956975000E9     4.720758776538717E-1   -1.051311898985937E-1   -6.860676037098563E-4   -7.541940519661637E-4   -7.181905954753333E-4   -7.518672147878517E-4    3.892171973373986E-1   -3.094772359536183E-1
 9.937278138500000E9     4.719991577565775E-1   -1.051944056890920E-1   -7.381343413298400E-4   -7.612997359706407E-4   -7.077310558207618E-4   -7.523425014569016E-4    3.889025458867756E-1   -3.098815721129236E-1
 9.937280320025000E9     4.719341089352136E-1   -1.054255742469695E-1   -7.011204438368067E-4   -7.616326073566675E-4   -7.017587832783199E-4   -8.042813992636724E-4    3.886521303640688E-1   -3.097195863679499E-1
 9.937282501549999E9     4.718907695954653E-1   -1.053485243981776E-1   -7.231746530613445E-4   -7.741769251719385E-4   -7.431175081124213E-4   -7.879126186379047E-4    3.885725261952550E-1   -3.101544351251982E-1
 9.937284683075001E9     4.716818620492408E-1   -1.057675316554199E-1   -7.535037013372235E-4   -7.888466808702449E-4   -7.855228181105149E-4   -8.162706602211641E-4    3.883395506827339E-1   -3.102465369421675E-1
 9.937286864600000E9     4.719078312052226E-1   -1.057974647037039E-1   -7.578536065193639E-4   -7.942213851461944E-4   -7.799759464854551E-4   -8.040791383947854E-4    3.883848531001259E-1   -3.104585353546643E-1
 9.937289046125000E9     4.716330387920704E-1   -1.060433750465252E-1   -7.262111995586914E-4   -8.516671865289207E-4   -7.793875028972251E-4   -8.207773261284069E-4    3.881203880372383E-1   -3.106432918868519E-1
 9.937291227650000E9     4.716010222705501E-1   -1.060062910259225E-1   -7.442594245963297E-4   -8.101999973814245E-4   -8.181541910887184E-4   -8.357605085456467E-4    3.877758651253133E-1   -3.107822717934391E-1
 9.937293409174999E9     4.718271150613573E-1   -1.062629161007200E-1   -7.437669285040812E-4   -8.299145203086392E-4   -7.655577809408997E-4   -8.225717449073455E-4    3.875345319879266E-1   -3.109764152440042E-1
 9.937295590700001E9     4.716296219634294E-1   -1.064673130375717E-1   -8.235673071691120E-4   -8.452556312632766E-4   -8.313523617713118E-4   -8.399124313758376E-4    3.874155643088081E-1   -3.112119590481957E-1
 9.937297772225000E9     4.716599046502500E-1   -1.065344558275670E-1   -8.074895798989308E-4   -8.552838053187429E-4   -8.217310708186658E-4   -8.913419311185234E-4    3.873048162403123E-1   -3.113700921203270E-1
 9.937299953750000E9     4.714287277749177E-1   -1.067313675999247E-1   -8.542059433703207E-4   -8.871800599914752E-4   -8.311211058227637E-4   -8.524340165265247E-4    3.868315124269935E-1   -3.117297570225843E-1
 9.937302135275000E9     4.714587834063099E-1   -1.069208505763750E-1   -8.696439874100021E-4   -9.014795041141630E-4   -8.388252526639366E-4   -8.961016134409353E-4    3.866808199375456E-1   -3.117433886740562E-1
 9.937304316799999E9     4.713341676514818E-1   -1.070828193072182E-1   -8.870834704978727E-4   -8.795202662791795E-4   -8.444429469471654E-4   -8.957032051711080E-4    3.866435597812004E-1   -3.119283493615991E-1
 9.937306498325001E9     4.714655598707307E-1   -1.071578073416841E-1   -8.672685871622569E-4   -9.029090461464000E-4   -8.741997823870900E-4   -9.216275253696619E-4    3.861721790882947E-1   -3.121394366435979E-1
 9.937308679850000E9     4.713276502384400E-1   -1.074098101596178E-1   -8.721955199140504E-4   -9.238155915647743E-4   -9.122906509981036E-4   -9.531985028282340E-4    3.862494611874965E-1   -3.123301388025537E-1
 9.937310861375000E9     4.713093598122343E-1   -1.074065694775479E-1   -8.903157743917386E-4   -9.373294710154315E-4   -8.797513625927814E-4   -9.218502185373152E-4    3.858518258177647E-1   -3.125216173816441E-1
 9.937313042900000E9     4.712270551010884E-1   -1.075401807392243E-1   -8.906130602083142E-4   -9.639096904061004E-4   -9.367794976454611E-4   -9.510150157459092E-4    3.856774593490752E-1   -3.127978737748193E-1
 9.937315224424999E9     4.712216951306660E-1   -1.077089063879850E-1   -9.219918486337028E-4   -9.652568649285601E-4   -9.261224187177011E-4   -9.387229614324666E-4    3.853621416254923E-1   -3.129800127971090E-1
 9.937317405950001E9     4.711908244185259E-1   -1.078743581037316E-1   -9.045576256085915E-4   -9.919391657992307E-4   -9.598090366425943E-4   -9.835697643769277E-4    3.852114974052074E-1   -3.130661888498689E-1
 9.937319587475000E9     4.712003060585317E-1   -1.081173739269435E-1   -9.356259989462989E-4   -9.505765804235208E-4   -1.010003004666767E-3   -9.930750921243907E-4    3.849456451539955E-1   -3.133250000690108E-1
 9.937321769000000E9     4.711285026766251E-1   -1.081858249312160E-1   -9.440238817948416E-4   -1.012402172949301E-3   -9.920839279757676E-4   -9.750365913752557E-4    3.846239012163525E-1   -3.134662729392028E-1
 9.937323950525000E9     4.709188850689786E-1   -1.083658443629183E-1   -9.623729620451982E-4   -1.021043065001717E-3   -1.010954375581377E-3   -9.843045623445623E-4    3.844180061809287E-1   -3.137963746945255E-1
 9.937326132049999E9     4.709936663714605E-1   -1.084501100964481E-1   -9.946142833876601E-4   -1.014868934799090E-3   -1.018110132135593E-3   -1.032380943891163E-3    3.841652089269826E-1   -3.138236897129367E-1
 9.937328313575001E9     4.709236202092585E-1   -1.086196800726258E-1   -9.734793570524730E-4   -1.004457580908719E-3   -1.009821815064738E-3   -1.020159842361915E-3    3.842169848388553E-1   -3.142094776148648E-1
 9.937330495100000E9     4.708662025236721E-1   -1.087445883721616E-1   -1.023909096204766E-3   -1.033058596545909E-3   -1.043107037166401E-3   -1.053576630027809E-3    3.838374834059559E-1   -3.141672925696557E-1
 9.937332676625000E9     4.709135537161286E-1   -1.089427394688321E-1   -1.033601850823617E-3   -1.039139913779731E-3   -1.055077623540300E-3   -1.077605549738363E-3    3.835960186065339E-1   -3.144755875296358E-1
 9.937334858150000E9     4.708348089858639E-1   -1.089925889628636E-1   -1.010101160781812E-3   -1.090376695289334E-3   -1.121693131557874E-3   -1.076724566248145E-3    3.832356600176421E-1   -3.149106278860680E-1
 9.937337039674999E9     4.708479207826096E-1   -1.091984942038551E-1   -1.101375938334604E-3   -1.095684755916992E-3   -1.089467532553438E-3   -1.053408651516159E-3    3.831455219528163E-1   -3.149798929513021E-1
 9.937339221200001E9     4.708140881838844E-1   -1.093287838313928E-1   -1.088385351581730E-3   -1.092960316597329E-3   -1.115612343172624E-3   -1.111228955548227E-3    3.828847691927658E-1   -3.151056158347593E-1
 9.937341402725000E9     4.707494085579179E-1   -1.095166133980197E-1   -1.085292395085258E-3   -1.138813143250757E-3   -1.112374250815422E-3   -1.109698322222554E-3    3.825972538260830E-1   -3.152487702264563E-1
 9.937343584250000E9     4.707436479965942E-1   -1.096636031750058E-1   -1.091438525970224E-3   -1.105481056736699E-3   -1.120017244644853E-3   -1.162223740882260E-3    3.823751179693334E-1   -3.154690410879240E-1
 9.937345765775000E9     4.705943018349376E-1   -1.098098783421570E-1   -1.128570251715176E-3   -1.169253999669673E-3   -1.130737747209258E-3   -1.134335817578187E-3    3.820787511351768E-1   -3.157614805016413E-1
 9.937347947299999E9     4.705159937446983E-1   -1.099495967857241E-1   -1.127870964732989E-3   -1.173708343494063E-3   -1.175332697634725E-3   -1.137639107504844E-3    3.818462164050135E-1   -3.160102633702870E-1
 9.937350128825001E9     4.705051018483294E-1   -1.100462628534049E-1   -1.124088638823914E-3   -1.183482659586623E-3   -1.193424300070311E-3   -1.184347250736139E-3    3.815404250196127E-1   -3.160601277125436E-1
 9.937352310350000E9     4.703440314621731E-1   -1.102519692545634E-1   -1.141120672398782E-3   -1.189636229286856E-3   -1.194112810485374E-3   -1.206544961499720E-3    3.813762307852975E-1   -3.163957706751095E-1
 9.937354491875000E9     4.703397736830291E-1   -1.104695760383971E-1   -1.202688234356854E-3   -1.200841680320535E-3   -1.215972332607861E-3   -1.218236898776008E-3    3.809700110621367E-1   -3.166858266881795E-1
 9.937356673400000E9     4.703897317033098E-1   -1.105021844828396E-1   -1.202985980256729E-3   -1.251431477725981E-3   -1.233756828318180E-3   -1.205964404418115E-3    3.807552223424571E-1   -3.169265777755330E-1
 9.937358854924999E9     4.703238443428007E-1   -1.106416225255314E-1   -1.245622776606525E-3   -1.245961715618434E-3   -1.289373552836846E-3   -1.228715438689657E-3    3.805041002113802E-1   -3.170741127675804E-1
 9.937361036450001E9     4.703737120058268E-1   -1.108289380255836E-1   -1.205431799589725E-3   -1.286760521256280E-3   -1.283057845869942E-3   -1.259502952187105E-3    3.802706096627623E-1   -3.171611020679665E-1
 9.937363217975000E9     4.702057693208460E-1   -1.109660497860121E-1   -1.287900808478211E-3   -1.312521280777343E-3   -1.292563233443114E-3   -1.269439469861995E-3    3.800841164332873E-1   -3.174402733524765E-1
 9.937365399500000E9     4.702837255204609E-1   -1.113205455319668E-1   -1.298145208259736E-3   -1.316019316880846E-3   -1.322254536972710E-3   -1.289186254093289E-3    3.798620366866531E-1   -3.176759847752967E-1
 9.937367581025000E9     4.700662404782546E-1   -1.111912320894195E-1   -1.294300138712959E-3   -1.317576234265458E-3   -1.359077559586524E-3   -1.324165195514658E-3    3.795005791170823E-1   -3.178809485959533E-1
 9.937369762549999E9     4.702400812794188E-1   -1.114494522897386E-1   -1.334010475303846E-3   -1.319350402456443E-3   -1.361864540465245E-3   -1.292572093047707E-3    3.792028565311953E-1   -3.179474598354260E-1
 9.937371944075001E9     4.699589730419945E-1   -1.116280827532441E-1   -1.366557437474623E-3   -1.291722893069224E-3   -1.367294800557288E-3   -1.295190692100633E-3    3.790176198562953E-1   -3.182791350871353E-1
 9.937374125600000E9     4.698960640541550E-1   -1.116404097209760E-1   -1.388186653045453E-3   -1.340865734647624E-3   -1.427489193179736E-3   -1.360119264973370E-3    3.785473455229946E-1   -3.183931864237637E-1
 9.937376307125000E9     4.700216709530701E-1   -1.116888594301562E-1   -1.361486852233742E-3   -1.396318278900309E-3   -1.428061424120580E-3   -1.361431318224696E-3    3.784299376882357E-1   -3.186937117188529E-1
 9.937378488650000E9     4.698150728422294E-1   -1.121798325420222E-1   -1.383364190134930E-3   -1.404461907753145E-3   -1.417835475279840E-3   -1.399498299958439E-3    3.780758240188739E-1   -3.191002048309631E-1
 9.937380670174999E9     4.698989217896435E-1   -1.120476114039310E-1   -1.431389446779089E-3   -1.415666528512466E-3   -1.467734988311071E-3   -1.392708171237584E-3    3.775038098310609E-1   -3.192086484018257E-1
 9.937382851700001E9     4.698412988182599E-1   -1.123472729195940E-1   -1.405428547058297E-3   -1.441725801961131E-3   -1.488982233546929E-3   -1.422501983915589E-3    3.774055230259067E-1   -3.193787044521803E-1
 9.937385033225000E9     4.697224298448004E-1   -1.123538747130192E-1   -1.475334057667755E-3   -1.465225371993602E-3   -1.508025576596620E-3   -1.451804942419261E-3    3.771630197214794E-1   -3.195918880708398E-1
 9.937387214750000E9     4.697789997836966E-1   -1.126456761913430E-1   -1.520110600189686E-3   -1.463913063945407E-3   -1.570597046007127E-3   -1.458592410579273E-3    3.769261699610406E-1   -3.199246585211929E-1
 9.937389396275000E9     4.697840751159894E-1   -1.128008838321617E-1   -1.528784132153596E-3   -1.535198575986617E-3   -1.543559238975398E-3   -1.507911220922164E-3    3.764698053566097E-1   -3.199910585898938E-1
 9.937391577799999E9     4.695937854316581E-1   -1.127713791713623E-1   -1.532407411655997E-3   -1.494866932287640E-3   -1.565774854913778E-3   -1.476144225613029E-3    3.763632670460617E-1   -3.203138469406419E-1
 9.937393759325001E9     4.695437928242223E-1   -1.131643155708072E-1   -1.581043276262676E-3   -1.531436015362505E-3   -1.566063228290399E-3   -1.515737645888600E-3    3.760519305330106E-1   -3.204239409704162E-1
 9.937395940850000E9     4.695695078929182E-1   -1.131227511123531E-1   -1.578930764734189E-3   -1.554056736766049E-3   -1.625642627450857E-3   -1.530998264443922E-3    3.755841654168239E-1   -3.206460952863300E-1
 9.937398122375000E9     4.693592128444423E-1   -1.133903674230419E-1   -1.601274411956248E-3   -1.564085387617549E-3   -1.696410886316694E-3   -1.553781806068475E-3    3.752193875864807E-1   -3.210222963821426E-1
 9.937400303900000E9     4.695715874212466E-1   -1.135218745805109E-1   -1.605345824931207E-3   -1.602725332420231E-3   -1.714129684935541E-3   -1.582024058036633E-3    3.750410733812434E-1   -3.211285343643816E-1
 9.937402485424999E9     4.694530469471568E-1   -1.136207996146190E-1   -1.691779345739895E-3   -1.616806536560368E-3   -1.710503413656252E-3   -1.614161622799628E-3    3.746913743073943E-1   -3.215342493436341E-1
 9.937404666950001E9     4.693874709044855E-1   -1.138158613729459E-1   -1.654443759729874E-3   -1.608801813426112E-3   -1.733371847197285E-3   -1.616003058498691E-3    3.741964560071122E-1   -3.218402385384588E-1
 9.937406848475000E9     4.692930709820197E-1   -1.138269630962356E-1   -1.708233447185040E-3   -1.620503167102168E-3   -1.750463550532443E-3   -1.635906239504121E-3    3.739769010895089E-1   -3.218883498090235E-1
 9.937409030000000E9     4.693186779444017E-1   -1.141686959578448E-1   -1.730404422202767E-3   -1.653307285900786E-3   -1.753948270502487E-3   -1.658608405804591E-3    3.737183450542503E-1   -3.222415012785863E-1
 9.937411211525000E9     4.692754243337443E-1   -1.142012242681236E-1   -1.767922198718535E-3   -1.664217509127783E-3   -1.802634159911434E-3   -1.687184212278594E-3    3.732223874188026E-1   -3.226775265562942E-1
 9.937413393049999E9     4.691360272458941E-1   -1.142447716872113E-1   -1.767411009055265E-3   -1.730127261213378E-3   -1.840728401012852E-3   -1.670156666366215E-3    3.730549153588991E-1   -3.226419415891654E-1
 9.937415574575001E9     4.690325217036908E-1   -1.145087940141936E-1   -1.831238012882875E-3   -1.705051373033146E-3   -1.871953607842618E-3   -1.728792292597146E-3    3.725944369299791E-1   -3.230030229044188E-1
 9.937417756100000E9     4.691176526128658E-1   -1.147508934970694E-1   -1.858252278976568E-3   -1.750107462413777E-3   -1.919371748820409E-3   -1.740451011564718E-3    3.722104987281382E-1   -3.232998011419510E-1
 9.937419937625000E9     4.689747238338384E-1   -1.148586564854902E-1   -1.854691659279879E-3   -1.763915635666086E-3   -1.938272154300482E-3   -1.779042955963441E-3    3.718000523669122E-1   -3.234321896991351E-1
 9.937422119150000E9     4.690463411987127E-1   -1.150800104206314E-1   -1.888884777610101E-3   -1.793633667252351E-3   -1.964518008367969E-3   -1.753924893737352E-3    3.715521835756216E-1   -3.237031142759835E-1
 9.937424300674999E9     4.690058551939769E-1   -1.149640390901523E-1   -1.934250478684843E-3   -1.820096883134766E-3   -1.995615647856341E-3   -1.837281380211958E-3    3.710949923370485E-1   -3.238993419985191E-1
 9.937426482200001E9     4.688326531961405E-1   -1.152074791973756E-1   -1.963120425162411E-3   -1.849870582649275E-3   -2.033364209891133E-3   -1.830361565840746E-3    3.707361002266787E-1   -3.242535367218330E-1
 9.937428663725000E9     4.687982124177278E-1   -1.154267150654168E-1   -1.998860239463122E-3   -1.859998160311128E-3   -2.060569544500739E-3   -1.838056040613960E-3    3.702945990415967E-1   -3.244995954007128E-1
 9.937430845250000E9     4.688146718960288E-1   -1.155357724209535E-1   -2.041045457673641E-3   -1.909223080727690E-3   -2.098194890779339E-3   -1.893463035053965E-3    3.697617506243419E-1   -3.245199954300559E-1
