#  HZ   S   RI   R     50.00 
! Rohde & Schwarz Vector Network Analyzer 
! Rohde-Schwarz,ZNB20-2Port,1311601062101988,3.16
! Created: UTC 3/20/2024, 11:01:52 PM
! freq[Hz]                re:S11                  im:S11                  re:S21                  im:S21                  re:S12                  im:S12                  re:S22                  im:S22
 9.937215352000000E9     4.732807736190456E-1   -1.011491264551491E-1   -4.937647717449902E-4   -5.232479248814778E-4   -5.132730837621797E-4   -5.190759176455660E-4    3.937168175042300E-1   -3.048245622572393E-1
 9.937217586475000E9     4.731979475753386E-1   -1.012605068629049E-1   -4.980202159279761E-4   -4.819148205063931E-4   -5.450052833572863E-4   -5.473331678689416E-4    3.936089092022733E-1   -3.050333592695702E-1
 9.937219820950001E9     4.730531599952170E-1   -1.015331095755953E-1   -4.696212958417003E-4   -5.682917502361362E-4   -5.342006863842105E-4   -5.359343085591337E-4    3.934254175250396E-1   -3.052225518471057E-1
 9.937222055424999E9     4.730011498261966E-1   -1.014761067745227E-1   -5.321926099639325E-4   -5.416786733742125E-4   -5.401918011091803E-4   -5.355271319498501E-4    3.931656168537958E-1   -3.054041825201172E-1
 9.937224289900000E9     4.729794836978931E-1   -1.017240275682321E-1   -5.122474637919342E-4   -5.496346681347407E-4   -5.362576315628955E-4   -5.162732094952544E-4    3.930588673671349E-1   -3.056910315668135E-1
 9.937226524375000E9     4.729584083960974E-1   -1.018711645231150E-1   -5.493659207789905E-4   -5.678211706440216E-4   -5.336666972986929E-4   -5.747154767690110E-4    3.928224829213515E-1   -3.058116636083794E-1
 9.937228758850000E9     4.728886740023701E-1   -1.019682839421062E-1   -5.178552201593014E-4   -5.772084417604607E-4   -5.419080932709648E-4   -5.588502017671923E-4    3.925126602037130E-1   -3.058381716805120E-1
 9.937230993325001E9     4.728896482391778E-1   -1.021703849468208E-1   -5.630487103713332E-4   -5.768863468548536E-4   -5.677403472453340E-4   -6.146540523856544E-4    3.925572975454377E-1   -3.060441436249451E-1
 9.937233227799999E9     4.727746675037512E-1   -1.023012479349898E-1   -5.646490717473473E-4   -5.911199044685070E-4   -5.546725176790695E-4   -5.860237307142881E-4    3.922799594919034E-1   -3.062377304215675E-1
 9.937235462275000E9     4.727517685349146E-1   -1.025416527559488E-1   -5.764603543370168E-4   -5.677544556684206E-4   -5.833419540286773E-4   -5.793778305281709E-4    3.920840893848814E-1   -3.065455112755249E-1
 9.937237696750000E9     4.728063705131665E-1   -1.027056065450237E-1   -5.531883541088623E-4   -6.115318407170985E-4   -5.899017177861236E-4   -6.053124432168782E-4    3.918279663658584E-1   -3.065863993342951E-1
 9.937239931225000E9     4.726878746924548E-1   -1.027571451559226E-1   -6.148673730556372E-4   -6.353522516889347E-4   -5.868832636014493E-4   -5.943663238228307E-4    3.917810171489928E-1   -3.067135163868420E-1
 9.937242165700001E9     4.725644265137620E-1   -1.029441139980451E-1   -5.920869806039775E-4   -6.349518710721688E-4   -5.875131362472259E-4   -6.111664667425448E-4    3.915857460260034E-1   -3.070203824914381E-1
 9.937244400174999E9     4.725264381003974E-1   -1.029560540209550E-1   -6.099769751229100E-4   -6.321352605092965E-4   -6.422644673016922E-4   -6.424490320136202E-4    3.912881543501014E-1   -3.071640794613488E-1
 9.937246634650000E9     4.725638056824017E-1   -1.031831467141457E-1   -5.816745180807989E-4   -6.589267348935324E-4   -6.100686597486969E-4   -6.599986729857274E-4    3.911805090633070E-1   -3.074472397057973E-1
 9.937248869125000E9     4.725213927577128E-1   -1.034702424319552E-1   -6.036093072848356E-4   -6.404841926589020E-4   -6.037825046001919E-4   -6.868300141184798E-4    3.911817756030398E-1   -3.074777103106583E-1
 9.937251103600000E9     4.724226052124417E-1   -1.034848851267910E-1   -6.418392955360013E-4   -6.754983279059759E-4   -6.361652737962537E-4   -6.584762047143853E-4    3.906767725004746E-1   -3.077072345550376E-1
 9.937253338075001E9     4.723843235278518E-1   -1.035690654976695E-1   -6.067539206906216E-4   -6.640765344161408E-4   -6.506839554106492E-4   -6.700428011823168E-4    3.904532446546930E-1   -3.079871191895421E-1
 9.937255572549999E9     4.723369941359232E-1   -1.038236135552904E-1   -6.452680901987312E-4   -7.065380809130351E-4   -6.857332200045878E-4   -7.243786146590573E-4    3.904315296557556E-1   -3.078561785603243E-1
 9.937257807025000E9     4.724076816678601E-1   -1.039971501494472E-1   -6.924314626171339E-4   -6.971309851995170E-4   -6.515090665945599E-4   -7.330915589731625E-4    3.900111067485046E-1   -3.083085698908518E-1
 9.937260041500000E9     4.722872563386508E-1   -1.040951295633962E-1   -6.668899755726889E-4   -7.284939385469291E-4   -6.825011861703309E-4   -7.252422374601700E-4    3.899661526046857E-1   -3.084458346952264E-1
 9.937262275975000E9     4.723153953502405E-1   -1.043768796876767E-1   -6.838213527326634E-4   -7.229323426343355E-4   -6.773325829168796E-4   -7.080713184306618E-4    3.897290494343159E-1   -3.086839998303436E-1
 9.937264510450001E9     4.721382844414733E-1   -1.043665824392102E-1   -6.748201647107514E-4   -7.248506815246543E-4   -7.051303854955029E-4   -7.251925058227946E-4    3.894825485179629E-1   -3.087416294272274E-1
 9.937266744924999E9     4.721697147667905E-1   -1.046516165280762E-1   -7.369738597808419E-4   -7.226821568834572E-4   -6.852312573715920E-4   -7.371144845813362E-4    3.893240705292801E-1   -3.092684378854876E-1
 9.937268979400000E9     4.720565182554300E-1   -1.046797808267519E-1   -7.408280698400508E-4   -7.249880571724957E-4   -7.378516056304332E-4   -7.521344772568178E-4    3.892483593573598E-1   -3.092481838146663E-1
 9.937271213875000E9     4.719987339627815E-1   -1.048862933270266E-1   -7.089396444978042E-4   -7.436082714370867E-4   -7.279968396248762E-4   -7.809217539542613E-4    3.888618929890753E-1   -3.094286743466155E-1
 9.937273448350000E9     4.721522979424203E-1   -1.050071110355526E-1   -7.400927441517531E-4   -7.869828885093736E-4   -7.502152057845965E-4   -7.635309734504179E-4    3.887822488286438E-1   -3.096843856822986E-1
 9.937275682825001E9     4.720074652348549E-1   -1.051938933371996E-1   -7.377172975697573E-4   -7.884455380011592E-4   -7.750029312250210E-4   -7.869124716792062E-4    3.885013053755223E-1   -3.097588350560022E-1
 9.937277917299999E9     4.717815898275868E-1   -1.052375478219734E-1   -7.789913145836922E-4   -8.201464114169918E-4   -7.988291912685007E-4   -7.870041993640487E-4    3.885380674164964E-1   -3.100410757727921E-1
 9.937280151775000E9     4.720304083188947E-1   -1.056073349443242E-1   -7.664842236809554E-4   -8.408358050605966E-4   -7.527280541450769E-4   -8.311695651263963E-4    3.881832556617876E-1   -3.100711884872244E-1
 9.937282386250000E9     4.717835138572723E-1   -1.056847446568417E-1   -7.973495788796197E-4   -8.123303718127921E-4   -7.896170660266592E-4   -7.990387257617231E-4    3.878133856519266E-1   -3.104758575678378E-1
 9.937284620725000E9     4.716787369895215E-1   -1.058636752120952E-1   -8.204582749380382E-4   -8.037504592745419E-4   -7.971872592489796E-4   -8.577408790705818E-4    3.877659183086959E-1   -3.106220883450250E-1
 9.937286855200001E9     4.716917986919747E-1   -1.059318500187769E-1   -8.137106443792956E-4   -8.506503176226106E-4   -8.368840937796268E-4   -8.357490211144300E-4    3.875408210638739E-1   -3.108639203115461E-1
 9.937289089674999E9     4.716591644405665E-1   -1.060900454949755E-1   -8.231203980852725E-4   -8.358041805533546E-4   -8.644905234917556E-4   -8.548006461157100E-4    3.872991150126252E-1   -3.107694249750898E-1
 9.937291324150000E9     4.715776166556441E-1   -1.062671572213820E-1   -8.192793067929882E-4   -8.781069784466990E-4   -8.616043844878560E-4   -8.462792590762863E-4    3.871546596664341E-1   -3.112003700305577E-1
 9.937293558625000E9     4.715683722968010E-1   -1.062808389892390E-1   -8.265723625330786E-4   -8.727560394157960E-4   -8.601274082721080E-4   -8.984815898637936E-4    3.868365972500243E-1   -3.114374066774223E-1
 9.937295793100000E9     4.715957418379961E-1   -1.066808889835871E-1   -8.754661264065544E-4   -8.779372293324025E-4   -8.712072166565021E-4   -9.024344574750644E-4    3.866447014243272E-1   -3.113388093125336E-1
 9.937298027575001E9     4.715768925036010E-1   -1.067338472857700E-1   -8.679659742760140E-4   -9.205294549652919E-4   -9.089502862169135E-4   -9.068462064152957E-4    3.865971110954253E-1   -3.117480354681509E-1
 9.937300262049999E9     4.714834286696244E-1   -1.069202012796288E-1   -8.935745516259910E-4   -9.314504401203384E-4   -9.211252637986496E-4   -9.150197357336524E-4    3.860829420854984E-1   -3.120128055721266E-1
 9.937302496525000E9     4.715437253616544E-1   -1.070211626525809E-1   -8.829255940214018E-4   -9.207303703968119E-4   -9.375783997194569E-4   -8.956224760211195E-4    3.861061777535866E-1   -3.121133685244547E-1
 9.937304731000000E9     4.713844250909567E-1   -1.071800394885726E-1   -9.312217120000587E-4   -9.522586478584427E-4   -9.381229414580081E-4   -9.732273709202809E-4    3.857520888429317E-1   -3.123670906286857E-1
 9.937306965475000E9     4.713089041619493E-1   -1.072313369297617E-1   -9.111313823563666E-4   -9.587828983783909E-4   -9.669006399653698E-4   -9.619045104446333E-4    3.854037668866746E-1   -3.126076172195020E-1
 9.937309199950001E9     4.713378867544973E-1   -1.074049925312824E-1   -9.124565846753897E-4   -9.466325165509269E-4   -9.622050837862710E-4   -9.621853149236966E-4    3.853046119458087E-1   -3.127258740134415E-1
 9.937311434424999E9     4.712795863554102E-1   -1.077061335348176E-1   -9.507010870615144E-4   -9.841430188614886E-4   -9.680369376526362E-4   -9.725436108346673E-4    3.850642137195409E-1   -3.128877960421908E-1
 9.937313668900000E9     4.713017513438184E-1   -1.077521286592487E-1   -9.590215389831685E-4   -1.002665843087084E-3   -1.006863225970464E-3   -1.001126550544207E-3    3.848350525893733E-1   -3.133659126549634E-1
 9.937315903375000E9     4.712474293991043E-1   -1.078989554559333E-1   -9.897896267224849E-4   -9.979966086897992E-4   -9.948599383771551E-4   -1.021733997170237E-3    3.845574535441181E-1   -3.132820381506113E-1
 9.937318137850000E9     4.711788286807357E-1   -1.079625304262148E-1   -9.926881538424911E-4   -1.025295040036409E-3   -1.035549622533972E-3   -1.040994546933971E-3    3.843904637549347E-1   -3.135884479908859E-1
 9.937320372325001E9     4.710529766297979E-1   -1.081890619765631E-1   -1.057532886304350E-3   -1.056007125968319E-3   -1.038556231203251E-3   -1.032993370316225E-3    3.841321608233883E-1   -3.138829765004205E-1
 9.937322606799999E9     4.710251709047787E-1   -1.084099746588588E-1   -1.039475412369071E-3   -1.053019432237345E-3   -1.076072538210096E-3   -1.050738750468992E-3    3.839805720952056E-1   -3.140056276525572E-1
 9.937324841275000E9     4.709194609040680E-1   -1.085473324334491E-1   -1.040295097951762E-3   -1.035728530870158E-3   -1.044339155723486E-3   -1.049054535276847E-3    3.836880630400638E-1   -3.143010490572762E-1
 9.937327075750000E9     4.708956229908763E-1   -1.085981540877713E-1   -1.077355640410127E-3   -1.100643047460457E-3   -1.108172240340440E-3   -1.092247626854032E-3    3.835003534908880E-1   -3.146475837466969E-1
 9.937329310225000E9     4.708747401621760E-1   -1.088928193141731E-1   -1.119635896874612E-3   -1.128811080546321E-3   -1.123527467277434E-3   -1.087986791592401E-3    3.832705602385850E-1   -3.147110139201240E-1
 9.937331544700001E9     4.709663353390214E-1   -1.091480525554127E-1   -1.073769244502249E-3   -1.121206708731565E-3   -1.136745085196720E-3   -1.098210686700365E-3    3.828985325001231E-1   -3.148694950572888E-1
 9.937333779174999E9     4.707037280015834E-1   -1.092126225277629E-1   -1.098934077927880E-3   -1.139090715564757E-3   -1.161267002335329E-3   -1.122914290060497E-3    3.826105639483558E-1   -3.150900048824537E-1
 9.937336013650000E9     4.706951572795978E-1   -1.092835137918086E-1   -1.148143167388069E-3   -1.142609652290509E-3   -1.174242342957313E-3   -1.121504685147563E-3    3.825476126464997E-1   -3.152358626067871E-1
 9.937338248125000E9     4.707862876885210E-1   -1.092836031867472E-1   -1.136343447847826E-3   -1.150390332915116E-3   -1.192116689051011E-3   -1.169021190177048E-3    3.820605932027256E-1   -3.155102696965421E-1
 9.937340482600000E9     4.707023888736407E-1   -1.095557872581265E-1   -1.137524787487852E-3   -1.189121944798404E-3   -1.181102528388283E-3   -1.155578889542895E-3    3.816586907037489E-1   -3.156517586966190E-1
 9.937342717075001E9     4.707278927683871E-1   -1.096929577293039E-1   -1.202380659362567E-3   -1.200492345275989E-3   -1.232053517479032E-3   -1.203080992526604E-3    3.816507609932511E-1   -3.158251150936679E-1
 9.937344951549999E9     4.706971372730320E-1   -1.098835393522687E-1   -1.178372837845118E-3   -1.207710417416876E-3   -1.237739945358473E-3   -1.195039897207913E-3    3.813741709547552E-1   -3.159459452729133E-1
 9.937347186025000E9     4.704330850078466E-1   -1.101131089883291E-1   -1.225389403282852E-3   -1.204152931304730E-3   -1.252274708586007E-3   -1.222366098681348E-3    3.811811210520091E-1   -3.163141128785336E-1
 9.937349420500000E9     4.704524529537467E-1   -1.101382224797470E-1   -1.236087893661629E-3   -1.244306795629813E-3   -1.239914865036478E-3   -1.222646634386084E-3    3.807050627166709E-1   -3.165496213110449E-1
 9.937351654975000E9     4.704403157017403E-1   -1.101190942270320E-1   -1.254264470586550E-3   -1.237967699843755E-3   -1.284241229413101E-3   -1.239136020979953E-3    3.806226456232755E-1   -3.165915129594206E-1
 9.937353889450001E9     4.704441733486615E-1   -1.105849527655354E-1   -1.258042677006694E-3   -1.283075662960562E-3   -1.304192831508507E-3   -1.237062784624871E-3    3.803040770198571E-1   -3.170131393768541E-1
 9.937356123924999E9     4.702275821239896E-1   -1.106813211232562E-1   -1.299641866404276E-3   -1.283609722318581E-3   -1.311580874309868E-3   -1.300649120992218E-3    3.799893318116373E-1   -3.169461192920490E-1
 9.937358358400000E9     4.702379224715536E-1   -1.107764244333480E-1   -1.307224992336393E-3   -1.313458975330721E-3   -1.335227645685880E-3   -1.303568610526089E-3    3.797342178801250E-1   -3.171224202955233E-1
 9.937360592875000E9     4.702946351818645E-1   -1.108956967867115E-1   -1.353250516776397E-3   -1.328451243313345E-3   -1.359485790989828E-3   -1.309995643972095E-3    3.795556604565924E-1   -3.172842162053302E-1
 9.937362827350000E9     4.701495249825918E-1   -1.109505849763118E-1   -1.359515397489945E-3   -1.315284277593629E-3   -1.367581102161821E-3   -1.353412641968820E-3    3.792125407185084E-1   -3.177690622128979E-1
 9.937365061825001E9     4.701360490013779E-1   -1.113477287959335E-1   -1.374193333393003E-3   -1.339300919846722E-3   -1.401239129608345E-3   -1.359321138532858E-3    3.789162380253201E-1   -3.180549724001349E-1
 9.937367296299999E9     4.700736959545223E-1   -1.113641862424049E-1   -1.406713630236106E-3   -1.362799720216637E-3   -1.473936434422883E-3   -1.378613741905513E-3    3.785052359609458E-1   -3.181870844491080E-1
 9.937369530775000E9     4.700078225805081E-1   -1.114763340867181E-1   -1.422401376597859E-3   -1.380379019494717E-3   -1.460856646043719E-3   -1.364299221160916E-3    3.783261684806181E-1   -3.185082571227998E-1
 9.937371765250000E9     4.699769365716807E-1   -1.116895821043054E-1   -1.447176964331818E-3   -1.384370513027225E-3   -1.483077853337191E-3   -1.392145116645819E-3    3.778520353631657E-1   -3.187543521835885E-1
 9.937373999725000E9     4.698812709777530E-1   -1.118496043763334E-1   -1.488418716387823E-3   -1.447057102718497E-3   -1.524257333499973E-3   -1.428067635424303E-3    3.775150800008866E-1   -3.187278845474766E-1
 9.937376234200001E9     4.700566113215152E-1   -1.121206855197698E-1   -1.457551641040505E-3   -1.455319172000545E-3   -1.516826426635544E-3   -1.434560121735902E-3    3.774565820152640E-1   -3.192386521274689E-1
 9.937378468674999E9     4.698737850026656E-1   -1.121919275777592E-1   -1.488547170635440E-3   -1.467710777941190E-3   -1.522778850461746E-3   -1.460279610022119E-3    3.770584060139420E-1   -3.193953375681236E-1
 9.937380703150000E9     4.699032379708856E-1   -1.123019120791646E-1   -1.554063148582928E-3   -1.510335659090129E-3   -1.568819574198298E-3   -1.517596469650302E-3    3.767509930537437E-1   -3.196448808975770E-1
 9.937382937625000E9     4.697057788762178E-1   -1.124189479463406E-1   -1.556431238006563E-3   -1.481247501035485E-3   -1.598748391730706E-3   -1.504039486212151E-3    3.764251069741580E-1   -3.197573944528757E-1
 9.937385172100000E9     4.698406463871251E-1   -1.126801197544236E-1   -1.553635271132808E-3   -1.536837499468155E-3   -1.632225980069548E-3   -1.488274340001045E-3    3.761328849600545E-1   -3.200498571082547E-1
 9.937387406575001E9     4.696533433972797E-1   -1.127375770536855E-1   -1.588368283803764E-3   -1.549936141578469E-3   -1.637278433968212E-3   -1.534643760631141E-3    3.758064909468521E-1   -3.202270364166220E-1
 9.937389641049999E9     4.695939095686207E-1   -1.130552389428520E-1   -1.636564683340010E-3   -1.581261081423110E-3   -1.676280687438376E-3   -1.504494765504750E-3    3.754924349485796E-1   -3.206104361745954E-1
 9.937391875525000E9     4.695336617875575E-1   -1.131103448223924E-1   -1.647354265717421E-3   -1.610822317165028E-3   -1.715648154793195E-3   -1.601279973913554E-3    3.751486405954581E-1   -3.206454384530562E-1
 9.937394110000000E9     4.695765497146371E-1   -1.132346055094145E-1   -1.697796058749994E-3   -1.598029895867550E-3   -1.738901217686120E-3   -1.582788373447119E-3    3.749115646684835E-1   -3.209319310132642E-1
 9.937396344475000E9     4.695535410559777E-1   -1.132610597252265E-1   -1.660117648583684E-3   -1.648348017472686E-3   -1.740980632280774E-3   -1.615355707821741E-3    3.743143718424587E-1   -3.212696825049100E-1
 9.937398578950001E9     4.695988184060386E-1   -1.135568547045796E-1   -1.714135454601897E-3   -1.649938883184263E-3   -1.759921876241143E-3   -1.624628834874491E-3    3.741383459979304E-1   -3.215208496648001E-1
 9.937400813424999E9     4.693142101506258E-1   -1.135440290886879E-1   -1.790160051737910E-3   -1.656153756100102E-3   -1.830755313231578E-3   -1.643122263278844E-3    3.736485190164215E-1   -3.217770930228195E-1
 9.937403047900000E9     4.692470667717574E-1   -1.136668470757801E-1   -1.786913305383498E-3   -1.651198338465952E-3   -1.851465109823034E-3   -1.653456757716830E-3    3.732811389514546E-1   -3.219682704767511E-1
 9.937405282375000E9     4.692322333562703E-1   -1.139152905367667E-1   -1.806203556140391E-3   -1.728665462230355E-3   -1.864001010129412E-3   -1.734866879301404E-3    3.730899575631356E-1   -3.223151475371531E-1
 9.937407516850000E9     4.692974819604061E-1   -1.140925768601670E-1   -1.870545922218511E-3   -1.725717433453671E-3   -1.905668607855499E-3   -1.699894595486230E-3    3.725173574007320E-1   -3.226366514987065E-1
 9.937409751325001E9     4.692378489104265E-1   -1.142592305357764E-1   -1.902817042133719E-3   -1.759502294478973E-3   -1.951623668894542E-3   -1.743555888003830E-3    3.722828178097228E-1   -3.226730772647249E-1
 9.937411985799999E9     4.691805353032685E-1   -1.144671141899919E-1   -1.929562353429471E-3   -1.762661009546179E-3   -1.947242007013078E-3   -1.790500933170472E-3    3.717157746081310E-1   -3.230177116455449E-1
 9.937414220275000E9     4.692019185436629E-1   -1.144578038530879E-1   -1.939918194780332E-3   -1.828598161808260E-3   -2.000324019254255E-3   -1.779165586959796E-3    3.714552614598546E-1   -3.232471405887737E-1
 9.937416454750000E9     4.689769067224780E-1   -1.146789182043212E-1   -1.959157776905970E-3   -1.789375670127276E-3   -2.040953501518678E-3   -1.810423359924885E-3    3.711406389845315E-1   -3.234487840490329E-1
