#  HZ   S   RI   R     50.00 
! Rohde & Schwarz Vector Network Analyzer 
! Rohde-Schwarz,ZNB20-2Port,1311601062101988,3.16
! Created: UTC 3/20/2024, 11:02:13 PM
! freq[Hz]                re:S11                  im:S11                  re:S21                  im:S21                  re:S12                  im:S12                  re:S22                  im:S22
 9.937200555000000E9     4.734112539502485E-1   -1.003478614152286E-1   -4.505563441886417E-4   -4.642999098565142E-4   -4.790873489862679E-4   -4.738566408784667E-4    3.944080020635140E-1   -3.038738468946074E-1
 9.937202825825001E9     4.732999315044532E-1   -1.004217914284461E-1   -4.580845042593121E-4   -4.953257481477177E-4   -4.597413412488716E-4   -4.892584536611539E-4    3.941844432581349E-1   -3.042387178944095E-1
 9.937205096650000E9     4.733066219023245E-1   -1.005261844033903E-1   -4.892915780165011E-4   -4.996982484999686E-4   -4.631855539685919E-4   -5.432117444762303E-4    3.941430552942909E-1   -3.044280415732770E-1
 9.937207367475000E9     4.731972355780691E-1   -1.007018031678001E-1   -4.964446643650537E-4   -4.904195201584996E-4   -4.881256551878614E-4   -5.228518931974187E-4    3.939560423953941E-1   -3.043822724498071E-1
 9.937209638299999E9     4.733605297587843E-1   -1.008146675275386E-1   -5.111020330040310E-4   -5.001088077291293E-4   -5.086498938202413E-4   -5.031568882636441E-4    3.938226460768931E-1   -3.045182701338170E-1
 9.937211909125000E9     4.730561042352166E-1   -1.010281983658644E-1   -4.927978170857948E-4   -5.067006706571509E-4   -5.153418479849257E-4   -5.307325607921311E-4    3.935839312921530E-1   -3.046855108998141E-1
 9.937214179950001E9     4.731135162690985E-1   -1.011577344975401E-1   -5.051803624202096E-4   -5.529088872447435E-4   -5.163783600699930E-4   -5.485145996878298E-4    3.934995707552239E-1   -3.048834288384652E-1
 9.937216450775000E9     4.730498341736248E-1   -1.011863315056543E-1   -5.291294012150082E-4   -5.354067435282356E-4   -5.526824851657605E-4   -5.458829878995175E-4    3.931390957556610E-1   -3.048909648512724E-1
 9.937218721600000E9     4.730244579876102E-1   -1.015021324541776E-1   -5.098418783098456E-4   -5.251916383142473E-4   -5.483865419626281E-4   -5.808905329041791E-4    3.931776340045715E-1   -3.054377639214126E-1
 9.937220992424999E9     4.729871304752112E-1   -1.015086041937621E-1   -5.316538204667303E-4   -5.779276079621830E-4   -5.519433146045606E-4   -5.666843586890187E-4    3.926205058723909E-1   -3.055692398377332E-1
 9.937223263250000E9     4.730587071227097E-1   -1.018651087158694E-1   -5.469462963646119E-4   -5.943206192630109E-4   -5.828625925171183E-4   -5.590424559569744E-4    3.927535388098344E-1   -3.057667888601217E-1
 9.937225534075001E9     4.729684571540688E-1   -1.019535639177355E-1   -5.699902701691188E-4   -5.626902449996760E-4   -5.878467524588563E-4   -5.814630905294553E-4    3.925098835951219E-1   -3.058176051004662E-1
 9.937227804900000E9     4.729770451100477E-1   -1.020832546561291E-1   -5.707362869640162E-4   -5.821967695291354E-4   -5.781390278084883E-4   -5.625147387898401E-4    3.922299689899620E-1   -3.059569100870430E-1
 9.937230075725000E9     4.728921089153375E-1   -1.022039034621328E-1   -5.796582441840768E-4   -6.130094491657275E-4   -5.980183764398012E-4   -5.507396032089950E-4    3.920764359782350E-1   -3.062546044396705E-1
 9.937232346549999E9     4.729232198013276E-1   -1.023215670593407E-1   -5.736570958183446E-4   -6.167816763819276E-4   -5.825347787354225E-4   -6.208354225443147E-4    3.919854791100078E-1   -3.063527452084853E-1
 9.937234617375000E9     4.727822649089492E-1   -1.025538580262126E-1   -5.873712438633239E-4   -6.195228030601070E-4   -5.961221628215529E-4   -6.021126487748851E-4    3.916455372130715E-1   -3.066718907659688E-1
 9.937236888200001E9     4.726085619685645E-1   -1.025962786631349E-1   -5.704383903138899E-4   -6.305936463717974E-4   -6.165924224273026E-4   -6.360363370037537E-4    3.915318855559699E-1   -3.068449464869179E-1
 9.937239159025000E9     4.726059975840920E-1   -1.028873610077732E-1   -6.106031922084484E-4   -6.496304280335074E-4   -6.139467611209038E-4   -6.280912836675603E-4    3.912685683321875E-1   -3.069887469525304E-1
 9.937241429850000E9     4.725338975898288E-1   -1.029112521915554E-1   -6.384372205640569E-4   -6.523805290227081E-4   -6.450030637661254E-4   -6.342994197579692E-4    3.910239077467152E-1   -3.073404910083833E-1
 9.937243700674999E9     4.724723187008473E-1   -1.031451254089543E-1   -6.466953152588980E-4   -6.454666555301297E-4   -6.383106407256227E-4   -6.441972189632850E-4    3.909171065031240E-1   -3.073963913443138E-1
 9.937245971500000E9     4.725318052963109E-1   -1.033839312021880E-1   -6.426443217196122E-4   -6.729508411845814E-4   -6.761799683345169E-4   -6.794594487546026E-4    3.907579982595711E-1   -3.076056027690442E-1
 9.937248242325001E9     4.724973390555746E-1   -1.034113859658607E-1   -6.581755666362721E-4   -6.879623723981348E-4   -6.659892820049525E-4   -6.579378718750864E-4    3.904210476472601E-1   -3.076149406747790E-1
 9.937250513150000E9     4.724010792207185E-1   -1.037461464684642E-1   -6.828618565897503E-4   -6.909251131725809E-4   -6.614642395465546E-4   -6.837758438754607E-4    3.904274308044640E-1   -3.078920076587635E-1
 9.937252783975000E9     4.725031127784813E-1   -1.037851328193695E-1   -6.670424357174997E-4   -7.447675444311114E-4   -6.798824643071134E-4   -7.072238596427044E-4    3.899789697560663E-1   -3.080404573761046E-1
 9.937255054799999E9     4.724074647144996E-1   -1.040167669288333E-1   -6.628232408890836E-4   -7.722100243788959E-4   -7.112257184743243E-4   -7.360129799206480E-4    3.901364204104839E-1   -3.083399922333234E-1
 9.937257325625000E9     4.722367979843872E-1   -1.041763545040478E-1   -6.839547440587301E-4   -7.080897303548446E-4   -6.980707267464332E-4   -7.598925916860871E-4    3.897392271520297E-1   -3.084166007998185E-1
 9.937259596450001E9     4.722425314478927E-1   -1.040794917655161E-1   -7.095711817434999E-4   -7.293630290805783E-4   -6.999899864121552E-4   -7.497938614942295E-4    3.895356914011120E-1   -3.086062002993430E-1
 9.937261867275000E9     4.722770600473724E-1   -1.043726912019675E-1   -7.378107994602061E-4   -7.538383492315811E-4   -7.628579798974865E-4   -7.659047522468256E-4    3.892450436768347E-1   -3.088182227562793E-1
 9.937264138100000E9     4.721565934804471E-1   -1.045304495620981E-1   -7.229366883388568E-4   -7.753613873772846E-4   -7.598869438435715E-4   -7.780561679546796E-4    3.890973745141829E-1   -3.090146279187111E-1
 9.937266408924999E9     4.721306547439830E-1   -1.046793813649858E-1   -7.587828049645008E-4   -7.931321127269669E-4   -7.803698995581510E-4   -7.730116018877056E-4    3.890044839425248E-1   -3.092878515565241E-1
 9.937268679750000E9     4.721448556227382E-1   -1.050250508432129E-1   -7.387590174455690E-4   -7.941779072924238E-4   -7.805503801419169E-4   -8.074241068215895E-4    3.886619938831102E-1   -3.093969780447566E-1
 9.937270950575001E9     4.720096876667489E-1   -1.050137947753447E-1   -7.952006333728680E-4   -8.137459112134777E-4   -7.991217423029991E-4   -7.728495481168823E-4    3.885363259823781E-1   -3.096380480993663E-1
 9.937273221400000E9     4.719144818611913E-1   -1.051074084283594E-1   -7.658843017911767E-4   -7.854024783952124E-4   -7.750850470502034E-4   -7.988407179918522E-4    3.883090202287511E-1   -3.097221989901052E-1
 9.937275492225000E9     4.718899301307879E-1   -1.053185930161347E-1   -7.857382087805799E-4   -8.515037777245254E-4   -8.095008391416272E-4   -8.341485659819833E-4    3.881197234481520E-1   -3.099741113959941E-1
 9.937277763049999E9     4.719064357735551E-1   -1.054337647384497E-1   -7.893627353967609E-4   -8.339064435247169E-4   -8.365960832870951E-4   -8.037032791680508E-4    3.879508389217865E-1   -3.101563970811433E-1
 9.937280033875000E9     4.718408297218841E-1   -1.057430354309902E-1   -8.184811376409760E-4   -8.390592953901867E-4   -8.376253434793503E-4   -8.180654387842366E-4    3.876289771775920E-1   -3.103126968214703E-1
 9.937282304700001E9     4.717724696812284E-1   -1.059099943790107E-1   -8.632052955161338E-4   -8.744796432953107E-4   -8.538370039947884E-4   -8.604473845894386E-4    3.874736416833202E-1   -3.106447044760581E-1
 9.937284575525000E9     4.716910503928483E-1   -1.060065800522241E-1   -8.751009450047107E-4   -8.604147746566385E-4   -8.762519258054045E-4   -8.681135787179403E-4    3.870697864704993E-1   -3.107368989652429E-1
 9.937286846350000E9     4.717600248577521E-1   -1.060630982058702E-1   -8.721151370695110E-4   -8.993326660464335E-4   -8.843523751227155E-4   -8.802135881748943E-4    3.869285757807746E-1   -3.109807915159121E-1
 9.937289117174999E9     4.716594156341933E-1   -1.063391298811703E-1   -8.667199256806922E-4   -8.799020782872311E-4   -8.564528725640242E-4   -9.024987689251508E-4    3.865733968405513E-1   -3.111412924202023E-1
 9.937291388000000E9     4.716526382770823E-1   -1.063390973072203E-1   -8.791999777784968E-4   -8.776464588182715E-4   -9.061294480976368E-4   -9.178445312900763E-4    3.865210688716018E-1   -3.114058335806117E-1
 9.937293658825001E9     4.714312660267613E-1   -1.064666223491908E-1   -9.104417011065663E-4   -9.170488929675276E-4   -9.039525898069117E-4   -9.121147789183486E-4    3.862276534913813E-1   -3.114980900091567E-1
 9.937295929650000E9     4.716002926866785E-1   -1.065427515349620E-1   -9.072487440496828E-4   -9.422294110820789E-4   -9.253447320536285E-4   -9.442747185085874E-4    3.860077346934074E-1   -3.117139418180107E-1
 9.937298200475000E9     4.714368787601345E-1   -1.068439092063495E-1   -9.089117957409374E-4   -9.495925295580879E-4   -9.661331064778759E-4   -9.521065692764309E-4    3.860066437762248E-1   -3.117741665620599E-1
 9.937300471299999E9     4.715813294523780E-1   -1.070076744793956E-1   -9.479665927721685E-4   -9.542438009431487E-4   -9.524200692620267E-4   -9.401576001373276E-4    3.857440431475184E-1   -3.120029752004199E-1
 9.937302742125000E9     4.713742394255560E-1   -1.071767579829271E-1   -9.336937446711012E-4   -9.829192516209624E-4   -9.840772195036256E-4   -9.534847590583109E-4    3.850123930528966E-1   -3.124540042896997E-1
 9.937305012950001E9     4.714257150754155E-1   -1.073415967757080E-1   -9.799248975653422E-4   -9.740350656373692E-4   -9.908697091362464E-4   -9.721122795170311E-4    3.852171146242567E-1   -3.123325630778413E-1
 9.937307283775000E9     4.712827439985953E-1   -1.074840822443326E-1   -9.835502498673763E-4   -9.734086574755783E-4   -1.014262022112962E-3   -1.000870333032636E-3    3.848144574126908E-1   -3.130430362089957E-1
 9.937309554600000E9     4.712933846957708E-1   -1.076072491208903E-1   -9.868826525638937E-4   -1.001432261418286E-3   -1.023799935579815E-3   -9.982592723319626E-4    3.845230175955574E-1   -3.129900057430413E-1
 9.937311825424999E9     4.712608608335677E-1   -1.077685637387366E-1   -1.024458149651582E-3   -1.027621801883433E-3   -1.016595922745790E-3   -1.026054520828183E-3    3.844129884849063E-1   -3.131717556835036E-1
 9.937314096250000E9     4.710715938112804E-1   -1.078595848414489E-1   -1.009010813638808E-3   -1.028306081542510E-3   -1.077687806514072E-3   -1.037437666122555E-3    3.840625476868983E-1   -3.134962156665560E-1
 9.937316367075001E9     4.710598626815540E-1   -1.079928423078894E-1   -1.059819419958465E-3   -1.031068306730552E-3   -1.065454733475882E-3   -1.028581608694508E-3    3.839209306814352E-1   -3.136515851508287E-1
 9.937318637900000E9     4.711242285959832E-1   -1.080816257557597E-1   -1.091174301148704E-3   -1.079153747229519E-3   -1.059860102126372E-3   -1.046846174004779E-3    3.838469457736467E-1   -3.137438244885062E-1
 9.937320908725000E9     4.710884289927111E-1   -1.082274040378047E-1   -1.074835686378983E-3   -1.068818230240606E-3   -1.101123847372762E-3   -1.073014472359674E-3    3.834995394774679E-1   -3.139226940760496E-1
 9.937323179549999E9     4.709632317611007E-1   -1.083648278927808E-1   -1.098148717699504E-3   -1.069319374006792E-3   -1.124012062032595E-3   -1.104947469624575E-3    3.831868854396127E-1   -3.143757074753735E-1
 9.937325450375000E9     4.709545262402923E-1   -1.086036188507365E-1   -1.084652111328413E-3   -1.113254564665409E-3   -1.170701579636260E-3   -1.099775749281469E-3    3.829462589967149E-1   -3.143461996799629E-1
 9.937327721200001E9     4.709716787260834E-1   -1.088975529446452E-1   -1.140807357257400E-3   -1.127095156935383E-3   -1.165874729007117E-3   -1.148368828389879E-3    3.825137947040642E-1   -3.146111266332715E-1
 9.937329992025000E9     4.708665679293940E-1   -1.088301467814456E-1   -1.123354920623836E-3   -1.140113058902307E-3   -1.191494952622162E-3   -1.141224613225001E-3    3.825240125347392E-1   -3.149210582185022E-1
 9.937332262850000E9     4.707573277596278E-1   -1.090622895440240E-1   -1.137333065099836E-3   -1.141583573931021E-3   -1.196853814194228E-3   -1.143145729173994E-3    3.820416059554422E-1   -3.150898638311538E-1
 9.937334533674999E9     4.708034366133673E-1   -1.092921819681788E-1   -1.196751830907214E-3   -1.194289794185345E-3   -1.221886372623520E-3   -1.142240541850902E-3    3.818361509219463E-1   -3.154030472846939E-1
 9.937336804500000E9     4.706665578376553E-1   -1.093602659427935E-1   -1.182441098709740E-3   -1.192895617825516E-3   -1.253732823924188E-3   -1.170241129541442E-3    3.815791466361663E-1   -3.154555108943475E-1
 9.937339075325001E9     4.706511826573714E-1   -1.096605036649138E-1   -1.189687328126855E-3   -1.208685698635534E-3   -1.252982618452924E-3   -1.189036616255853E-3    3.814402546692762E-1   -3.159189302173962E-1
 9.937341346150000E9     4.706326985265580E-1   -1.096756528074671E-1   -1.200248945039217E-3   -1.234841437310529E-3   -1.253915735274719E-3   -1.203878084372804E-3    3.810574147233674E-1   -3.158700764622813E-1
 9.937343616975000E9     4.706864430254183E-1   -1.098919989473430E-1   -1.243463339230731E-3   -1.233345097838252E-3   -1.309116497988372E-3   -1.251320836318052E-3    3.810306378964860E-1   -3.162610634919353E-1
 9.937345887799999E9     4.703082305317831E-1   -1.100867705376655E-1   -1.272887385022504E-3   -1.244318329298339E-3   -1.297280262943752E-3   -1.235115196939994E-3    3.803936727794869E-1   -3.163326250611075E-1
 9.937348158625000E9     4.704376075792983E-1   -1.102872977595419E-1   -1.286529975200019E-3   -1.311039947168700E-3   -1.300442546865810E-3   -1.265385029802908E-3    3.802205092059721E-1   -3.164780903087260E-1
 9.937350429450001E9     4.703814654151796E-1   -1.103794506248227E-1   -1.296402222582131E-3   -1.263910123800598E-3   -1.350634440728549E-3   -1.292371497618820E-3    3.797965096258574E-1   -3.168739542761498E-1
 9.937352700275000E9     4.704819601869262E-1   -1.105188714320995E-1   -1.322173385454928E-3   -1.324881306148483E-3   -1.383430647473780E-3   -1.289216653277780E-3    3.796058444784122E-1   -3.169743702782135E-1
 9.937354971100000E9     4.703964490647460E-1   -1.107123332368310E-1   -1.351175185147645E-3   -1.334167751605520E-3   -1.380135299373519E-3   -1.287147217209566E-3    3.793103497700525E-1   -3.172872613294271E-1
 9.937357241924999E9     4.702311953718863E-1   -1.109362468787872E-1   -1.367506461095775E-3   -1.334672754587825E-3   -1.461402500149351E-3   -1.367358765174717E-3    3.791476477219895E-1   -3.174930417183700E-1
 9.937359512750000E9     4.702256589391767E-1   -1.108902234309532E-1   -1.403800331626490E-3   -1.346716244371285E-3   -1.418160018190683E-3   -1.353479080202416E-3    3.787120711463346E-1   -3.177826524256081E-1
 9.937361783575001E9     4.702304707697479E-1   -1.111923860978805E-1   -1.452774150534381E-3   -1.370068326185687E-3   -1.453372433858716E-3   -1.384541387142669E-3    3.784030671283272E-1   -3.177966250180206E-1
 9.937364054400000E9     4.700706104165245E-1   -1.112424855576572E-1   -1.461300690527389E-3   -1.391921343193607E-3   -1.462648250538990E-3   -1.379402495509088E-3    3.781566441194923E-1   -3.182728351475937E-1
 9.937366325225000E9     4.701010387345962E-1   -1.115459925308408E-1   -1.475701044385475E-3   -1.442752010331170E-3   -1.483245396543078E-3   -1.443754095276180E-3    3.778797388597105E-1   -3.185062384446686E-1
 9.937368596049999E9     4.700781275628769E-1   -1.117635661094037E-1   -1.473341088604961E-3   -1.441266090188425E-3   -1.559046359447846E-3   -1.419026039761859E-3    3.776388380419594E-1   -3.187167936778908E-1
 9.937370866875000E9     4.700870579726553E-1   -1.117393714220079E-1   -1.491529171962563E-3   -1.456171722321372E-3   -1.527721082534531E-3   -1.432462397812128E-3    3.774427870168190E-1   -3.190257658655454E-1
 9.937373137700001E9     4.700627857884883E-1   -1.119387742086627E-1   -1.557249431742765E-3   -1.487397846359597E-3   -1.566496209673962E-3   -1.446700363070669E-3    3.768132578901772E-1   -3.191759641938038E-1
 9.937375408525000E9     4.699665726294666E-1   -1.120540283306501E-1   -1.558037314467380E-3   -1.474051410498205E-3   -1.608141720313846E-3   -1.484603883409459E-3    3.767147260913760E-1   -3.192851938600705E-1
 9.937377679350000E9     4.698707110193819E-1   -1.122282309772095E-1   -1.575238223555763E-3   -1.531341946388199E-3   -1.599633422112119E-3   -1.515968446566044E-3    3.762818240587134E-1   -3.195493648762919E-1
 9.937379950174999E9     4.697601956325324E-1   -1.122701581413016E-1   -1.597245138831538E-3   -1.543034315655558E-3   -1.674117221984794E-3   -1.545388481394893E-3    3.758431681839255E-1   -3.198241578492171E-1
 9.937382221000000E9     4.698568383246622E-1   -1.125058470102482E-1   -1.656355729508172E-3   -1.570771025737289E-3   -1.661714206788507E-3   -1.552838399308583E-3    3.756172432975372E-1   -3.199732796743878E-1
 9.937384491825001E9     4.696787092098269E-1   -1.127163495107159E-1   -1.655951408975854E-3   -1.580011976155002E-3   -1.696023270001558E-3   -1.597486958118703E-3    3.750975568819966E-1   -3.202913613392635E-1
 9.937386762650000E9     4.697548799168998E-1   -1.129564101164100E-1   -1.701459417282557E-3   -1.555952080508772E-3   -1.751066687199014E-3   -1.577598237618756E-3    3.749435054966667E-1   -3.204141806357400E-1
 9.937389033475000E9     4.696606387022176E-1   -1.130095063949325E-1   -1.737451082344132E-3   -1.604416072817720E-3   -1.786474319106390E-3   -1.626272122052345E-3    3.743578806945793E-1   -3.206748367584872E-1
 9.937391304299999E9     4.695121453379436E-1   -1.132433627796255E-1   -1.718445194820751E-3   -1.592535634855177E-3   -1.791268907012681E-3   -1.605775798137677E-3    3.743385908351729E-1   -3.211213529280296E-1
 9.937393575125000E9     4.694842130787384E-1   -1.132793741243068E-1   -1.771351432189027E-3   -1.648736580849296E-3   -1.828491007454678E-3   -1.638176642019072E-3    3.738581962834313E-1   -3.211389114348108E-1
 9.937395845950001E9     4.693949011732709E-1   -1.134889587218347E-1   -1.789191849741289E-3   -1.647107138620346E-3   -1.813397828629699E-3   -1.634908866085439E-3    3.732875883083560E-1   -3.214745901981907E-1
 9.937398116775000E9     4.694187552565514E-1   -1.136505931814762E-1   -1.820409232506622E-3   -1.710053602711291E-3   -1.876477424870600E-3   -1.668543799443916E-3    3.731124492501482E-1   -3.217520953543616E-1
 9.937400387600000E9     4.692640814718469E-1   -1.138119764267418E-1   -1.841574130105519E-3   -1.713669697816418E-3   -1.910065494120708E-3   -1.736365386580520E-3    3.726109963414144E-1   -3.220216328094295E-1
 9.937402658424999E9     4.694176504845304E-1   -1.138984804754769E-1   -1.867118146336958E-3   -1.750454199463352E-3   -1.965477993429584E-3   -1.753166077342630E-3    3.724309532818179E-1   -3.224084350431999E-1
 9.937404929250000E9     4.692365859192722E-1   -1.141633485811728E-1   -1.959918387754736E-3   -1.761204958771644E-3   -1.978888820783044E-3   -1.766236817880646E-3    3.720591633286579E-1   -3.226421262143118E-1
