#  HZ   S   RI   R     50.00 
! Rohde & Schwarz Vector Network Analyzer 
! Rohde-Schwarz,ZNB20-2Port,1311601062101988,3.16
! Created: UTC 3/20/2024, 11:02:21 PM
! freq[Hz]                re:S11                  im:S11                  re:S21                  im:S21                  re:S12                  im:S12                  re:S22                  im:S22
 9.937197253000000E9     4.734849681214074E-1   -9.999461026046084E-2   -4.740967427180933E-4   -4.818021533103978E-4   -4.513381488623224E-4   -4.993809408368059E-4    3.945451794516083E-1   -3.035462348122152E-1
 9.937199529225000E9     4.733406685035952E-1   -1.001225130839656E-1   -4.734177414709791E-4   -5.009848188843341E-4   -4.893994104236279E-4   -4.986259254795693E-4    3.942764224538271E-1   -3.039391756879509E-1
 9.937201805450001E9     4.733990285425179E-1   -1.002995895339138E-1   -4.687674744863793E-4   -5.042740435036558E-4   -4.823242687585249E-4   -4.889350504873624E-4    3.940315741683373E-1   -3.040996179434309E-1
 9.937204081674999E9     4.733362847555806E-1   -1.004820925630098E-1   -4.626966864112643E-4   -4.936835716483008E-4   -4.952405901154485E-4   -4.917216970005215E-4    3.939259664530436E-1   -3.043631841735325E-1
 9.937206357900000E9     4.732599824773831E-1   -1.007332924538475E-1   -4.902159968596481E-4   -5.033553096891656E-4   -5.078888265138260E-4   -5.172967554411440E-4    3.938391571891359E-1   -3.043508253657061E-1
 9.937208634125000E9     4.732630542836004E-1   -1.008175941718046E-1   -4.637759740651978E-4   -5.041617777382402E-4   -5.334835903994850E-4   -5.570481859784999E-4    3.937607038489152E-1   -3.046398114869475E-1
 9.937210910350000E9     4.732275590315940E-1   -1.009872675050672E-1   -5.077681263023989E-4   -5.732279333278658E-4   -5.130409037149100E-4   -5.379406596346209E-4    3.933814617022537E-1   -3.046866915408024E-1
 9.937213186575001E9     4.731553678669413E-1   -1.009872364201263E-1   -5.078857838905131E-4   -5.648813443989660E-4   -5.240407828693771E-4   -5.574488152028134E-4    3.934581644868908E-1   -3.048281114633481E-1
 9.937215462799999E9     4.731530240540564E-1   -1.013182436460013E-1   -5.235442594623882E-4   -5.256926560035457E-4   -5.581571909052612E-4   -5.705392019754233E-4    3.931505899305377E-1   -3.050632973162898E-1
 9.937217739025000E9     4.729223503626117E-1   -1.014380920463636E-1   -5.231640245438092E-4   -5.643738542896023E-4   -5.139964662257080E-4   -5.842240919617446E-4    3.926522723722647E-1   -3.053175023169787E-1
 9.937220015250000E9     4.730958918414443E-1   -1.015954349917609E-1   -5.676000137030648E-4   -5.868928734773243E-4   -5.480886296357113E-4   -6.033083488429020E-4    3.925571212750246E-1   -3.053798248845335E-1
 9.937222291475000E9     4.729547788229420E-1   -1.017159231446127E-1   -5.372791054666961E-4   -5.771381279394463E-4   -5.415397671936975E-4   -5.607179858789927E-4    3.925217268010481E-1   -3.056983257493734E-1
 9.937224567700001E9     4.727974470617237E-1   -1.020271580417361E-1   -5.782801215638955E-4   -6.040089842460847E-4   -5.821055040948818E-4   -5.985067745572835E-4    3.923982748758535E-1   -3.058397302549945E-1
 9.937226843924999E9     4.729236590998205E-1   -1.019966729703548E-1   -6.073589376045121E-4   -5.977313778465324E-4   -5.975365287790861E-4   -6.011461841144369E-4    3.922439987587319E-1   -3.061098721787977E-1
 9.937229120150000E9     4.727126656045483E-1   -1.020964540081398E-1   -5.535619227887010E-4   -6.094708811405989E-4   -5.935536575451687E-4   -6.170869403469391E-4    3.919481088415614E-1   -3.062191937746901E-1
 9.937231396375000E9     4.727318653903493E-1   -1.023655088262858E-1   -5.823547648149187E-4   -6.269081007310885E-4   -6.033755482869571E-4   -6.198309936884558E-4    3.919443447699931E-1   -3.062975865601787E-1
 9.937233672600000E9     4.727314073537568E-1   -1.024871058018635E-1   -5.900385811672842E-4   -6.198032729751153E-4   -6.290382783295759E-4   -6.146097359487139E-4    3.916617120426455E-1   -3.065406145770271E-1
 9.937235948825001E9     4.727802833245723E-1   -1.026396118543273E-1   -6.488803014345259E-4   -6.575675548845467E-4   -6.110631472293419E-4   -6.136979119541542E-4    3.914158976223496E-1   -3.067578369143360E-1
 9.937238225049999E9     4.726733475815617E-1   -1.028327155000446E-1   -6.293287842263836E-4   -6.520873183529583E-4   -6.490736931459974E-4   -6.688897682145585E-4    3.913048344135859E-1   -3.067996623326898E-1
 9.937240501275000E9     4.726192824831791E-1   -1.028251284900310E-1   -6.246672604362802E-4   -6.517890772102397E-4   -6.407911251208991E-4   -6.437518396600677E-4    3.909591029551112E-1   -3.071758818928157E-1
 9.937242777500000E9     4.726834947417822E-1   -1.031463248770918E-1   -6.495226527578295E-4   -6.785964495321166E-4   -6.351651337877583E-4   -6.866093872172945E-4    3.908323535404635E-1   -3.070844693383740E-1
 9.937245053725000E9     4.725432731656476E-1   -1.032607658619833E-1   -6.588243511819223E-4   -6.798961939725021E-4   -6.786997209981789E-4   -6.925415175427185E-4    3.906373862465414E-1   -3.075976505007158E-1
 9.937247329950001E9     4.724500037410279E-1   -1.033903656331714E-1   -6.719267692365282E-4   -6.943000904554005E-4   -6.751825690303168E-4   -6.914253092588087E-4    3.904709466702771E-1   -3.075126378327476E-1
 9.937249606174999E9     4.724834132047962E-1   -1.034917854002407E-1   -6.575161350679520E-4   -6.975302994827069E-4   -6.960072616717612E-4   -7.179410006250701E-4    3.902113009848759E-1   -3.078162457160709E-1
 9.937251882400000E9     4.723151688021086E-1   -1.038512993070333E-1   -6.512539603441973E-4   -7.208797834876711E-4   -7.100043768522295E-4   -7.061771901704673E-4    3.900934054343145E-1   -3.079748399849009E-1
 9.937254158625000E9     4.723763368980812E-1   -1.038775625997324E-1   -6.928099334614831E-4   -7.345277560349242E-4   -6.832686228388465E-4   -7.276107550019479E-4    3.899242160907152E-1   -3.081829736552653E-1
 9.937256434850000E9     4.722661078740149E-1   -1.040575633077493E-1   -7.054255543741026E-4   -7.434962465572355E-4   -6.706850360070584E-4   -7.156146243775639E-4    3.897533811729577E-1   -3.084712893823178E-1
 9.937258711075001E9     4.723820011847987E-1   -1.041806079689593E-1   -7.089032141826497E-4   -7.217476680731701E-4   -7.233592139436153E-4   -7.255712809728808E-4    3.893311347492814E-1   -3.085679557239803E-1
 9.937260987299999E9     4.721945115983886E-1   -1.044047200283031E-1   -7.195811001733762E-4   -7.606036795912205E-4   -7.645590095916134E-4   -7.507481480100622E-4    3.893044230812189E-1   -3.086776023927101E-1
 9.937263263525000E9     4.722878101488496E-1   -1.044021228551098E-1   -7.286229414969920E-4   -7.880935292467840E-4   -7.806947594348364E-4   -7.536767670190855E-4    3.889729903406688E-1   -3.090125098447361E-1
 9.937265539750000E9     4.720582658106325E-1   -1.047100513742687E-1   -7.092754562506190E-4   -7.653812734565479E-4   -7.928345797083847E-4   -7.894159219955474E-4    3.888410528153219E-1   -3.092204307158397E-1
 9.937267815975000E9     4.720802097481223E-1   -1.047738994244990E-1   -7.625085863332456E-4   -7.621454367638253E-4   -7.902648827694230E-4   -7.812730095135984E-4    3.887269952404805E-1   -3.093597831711639E-1
 9.937270092200001E9     4.719087073054352E-1   -1.049694588102786E-1   -7.703191597991538E-4   -7.923646616101802E-4   -7.718338317151318E-4   -8.344307369912933E-4    3.883307727899030E-1   -3.095854265327937E-1
 9.937272368424999E9     4.719239784085767E-1   -1.050538755818432E-1   -8.110813344834624E-4   -8.294629646702068E-4   -7.977031106173765E-4   -8.081361262989522E-4    3.881285568440451E-1   -3.098077003311487E-1
 9.937274644650000E9     4.719648524589468E-1   -1.052157959060604E-1   -8.052749918719799E-4   -8.255027313316596E-4   -8.269337687559934E-4   -8.027469790614352E-4    3.880980446512939E-1   -3.100007086385068E-1
 9.937276920875000E9     4.719194417527675E-1   -1.054674331437900E-1   -7.971966039249515E-4   -8.408498415302198E-4   -8.436969078254481E-4   -8.427302781957487E-4    3.876457039167387E-1   -3.102770558298257E-1
 9.937279197100000E9     4.719603225050521E-1   -1.055614097585709E-1   -8.391428482422753E-4   -8.340112974813987E-4   -8.481085658138082E-4   -8.329034128393161E-4    3.875243242833932E-1   -3.103394102806366E-1
 9.937281473325001E9     4.718343943779830E-1   -1.057464107868741E-1   -8.009808598039424E-4   -8.607749815622805E-4   -8.505283979432550E-4   -8.633715449851274E-4    3.874344217153033E-1   -3.104749094193122E-1
 9.937283749549999E9     4.718240694408219E-1   -1.058596310537889E-1   -8.658639818091130E-4   -8.688455617663119E-4   -8.744005716713861E-4   -8.621055942871311E-4    3.869524163680279E-1   -3.108471039868432E-1
 9.937286025775000E9     4.718150059250226E-1   -1.059818461822265E-1   -8.383679492317190E-4   -8.875817795437954E-4   -8.713700664397220E-4   -8.869172041131034E-4    3.869961299768928E-1   -3.110518900563353E-1
 9.937288302000000E9     4.716880071728395E-1   -1.062321068947492E-1   -8.340949610526778E-4   -9.081878401219329E-4   -8.954969652667699E-4   -9.220159780510918E-4    3.865749882522316E-1   -3.112634342748170E-1
 9.937290578225000E9     4.716330566890996E-1   -1.065640315375393E-1   -8.940075056990955E-4   -8.916572927440265E-4   -9.384091425786384E-4   -9.287489062028731E-4    3.863768415519296E-1   -3.114719060102475E-1
 9.937292854450001E9     4.716241009262984E-1   -1.065194540361254E-1   -8.990040213605631E-4   -9.218333015844627E-4   -9.317731456020161E-4   -9.045205610591014E-4    3.860977006335377E-1   -3.114518266197680E-1
 9.937295130674999E9     4.714626987227523E-1   -1.066941074755685E-1   -9.057918716936480E-4   -9.037609621558186E-4   -9.476422509956061E-4   -9.681045307543850E-4    3.858839131890782E-1   -3.116698458390988E-1
 9.937297406900000E9     4.714060968531765E-1   -1.069163235701975E-1   -9.597030953814275E-4   -9.462292050778924E-4   -9.605024051853999E-4   -9.596827873181509E-4    3.857429898983889E-1   -3.119549957895908E-1
 9.937299683125000E9     4.714063918853764E-1   -1.069532504856953E-1   -9.470950256654064E-4   -9.575413707116323E-4   -9.590249313477091E-4   -9.864938224566865E-4    3.856220454362651E-1   -3.121937104157809E-1
 9.937301959350000E9     4.714179979366913E-1   -1.071251723798655E-1   -9.630558753131154E-4   -9.939310187274016E-4   -1.000525551492215E-3   -9.859863860875459E-4    3.851098420418265E-1   -3.121222116000728E-1
 9.937304235575001E9     4.713658580819320E-1   -1.073584124031495E-1   -9.563770526700683E-4   -9.921484682650522E-4   -9.829148482279845E-4   -9.797301828131171E-4    3.850208146825538E-1   -3.125641512821466E-1
 9.937306511799999E9     4.713370657065332E-1   -1.074473020102073E-1   -9.733937628870293E-4   -1.026914453469280E-3   -1.011644824538239E-3   -1.022846911280901E-3    3.847367843918543E-1   -3.128868410423633E-1
 9.937308788025000E9     4.712280502177441E-1   -1.076173481643460E-1   -9.759917960082766E-4   -1.009625155185639E-3   -1.020524720378851E-3   -1.025420685805728E-3    3.846192993796396E-1   -3.128701517702098E-1
 9.937311064250000E9     4.711322133003442E-1   -1.077057330670938E-1   -1.034201723844538E-3   -1.001823690014218E-3   -1.031587209137690E-3   -1.026449140871711E-3    3.843628342446699E-1   -3.131517187453212E-1
 9.937313340475000E9     4.712768480846127E-1   -1.078554542830400E-1   -1.038958601431206E-3   -1.064755536131790E-3   -1.089716274002220E-3   -1.076225837901634E-3    3.841424636448154E-1   -3.134770128124276E-1
 9.937315616700001E9     4.713158554140578E-1   -1.079319048813770E-1   -1.057698024994032E-3   -1.071090258923922E-3   -1.090716244164779E-3   -1.062792474949147E-3    3.837243754978573E-1   -3.136081681429563E-1
 9.937317892924999E9     4.711026840833853E-1   -1.081688658955975E-1   -1.091340895450463E-3   -1.074196500119306E-3   -1.125330393778671E-3   -1.058085504934824E-3    3.834858471836770E-1   -3.138619434659700E-1
 9.937320169150000E9     4.710825385382639E-1   -1.083760346246887E-1   -1.084854939462447E-3   -1.087960239709438E-3   -1.126610398158482E-3   -1.111740110340439E-3    3.832060235501575E-1   -3.140800624407390E-1
 9.937322445375000E9     4.709108894447665E-1   -1.084308791694729E-1   -1.108915637584987E-3   -1.098937426627771E-3   -1.121459148109032E-3   -1.089158447673588E-3    3.829800685344776E-1   -3.142040117903471E-1
 9.937324721600000E9     4.708523116015652E-1   -1.085737046863092E-1   -1.116051212333247E-3   -1.127753447923510E-3   -1.143287069436817E-3   -1.110324624517731E-3    3.825903509981688E-1   -3.144181462755130E-1
 9.937326997825001E9     4.707747822800125E-1   -1.087911418647132E-1   -1.153042382115917E-3   -1.113065097683772E-3   -1.161359399917285E-3   -1.131008093726242E-3    3.825287711642865E-1   -3.147222932270631E-1
 9.937329274049999E9     4.707743557448861E-1   -1.089160745023172E-1   -1.143102986833221E-3   -1.136134170872084E-3   -1.207531507353113E-3   -1.154424063886445E-3    3.822009663626744E-1   -3.147512065593391E-1
 9.937331550275000E9     4.709242092604882E-1   -1.090871906696328E-1   -1.201874311650363E-3   -1.166348399047499E-3   -1.194717713835228E-3   -1.168697964229782E-3    3.820730187493366E-1   -3.151440289803081E-1
 9.937333826500000E9     4.707360226831966E-1   -1.091486824945572E-1   -1.207408720052168E-3   -1.179665763626326E-3   -1.213507916098660E-3   -1.185300856310715E-3    3.816939974650695E-1   -3.153370970036962E-1
 9.937336102725000E9     4.706775747865733E-1   -1.095163224944952E-1   -1.203314201152495E-3   -1.210816680414234E-3   -1.241094177083217E-3   -1.199880247449020E-3    3.813788586639587E-1   -3.154067825142997E-1
 9.937338378950001E9     4.706278642908066E-1   -1.096201900803615E-1   -1.236366803385080E-3   -1.199496742832320E-3   -1.288284843989047E-3   -1.211281802618769E-3    3.813726245575214E-1   -3.158916905886596E-1
 9.937340655174999E9     4.706965847449436E-1   -1.097131133993207E-1   -1.250219674911552E-3   -1.251608033670679E-3   -1.269496840523893E-3   -1.238507580516613E-3    3.808693353924824E-1   -3.159642138538587E-1
 9.937342931400000E9     4.706082662289560E-1   -1.100414972539620E-1   -1.248378289505500E-3   -1.221466896872835E-3   -1.305221884976024E-3   -1.229707439487838E-3    3.805471078341784E-1   -3.162190832538957E-1
 9.937345207625000E9     4.704099749047416E-1   -1.099674829214486E-1   -1.258307217169945E-3   -1.271758964685112E-3   -1.306940562611669E-3   -1.267170549563211E-3    3.803732669949341E-1   -3.164038528971453E-1
 9.937347483850000E9     4.705420681903547E-1   -1.102208758589466E-1   -1.314818352653746E-3   -1.308413655435053E-3   -1.362731764894139E-3   -1.277548409294272E-3    3.800566244880107E-1   -3.165617799139542E-1
 9.937349760075001E9     4.704466298341681E-1   -1.103752521109928E-1   -1.344243322564305E-3   -1.288010727322052E-3   -1.336801632027132E-3   -1.278012007740873E-3    3.798077579736068E-1   -3.169248696806514E-1
 9.937352036299999E9     4.704488502182387E-1   -1.105003273738586E-1   -1.327742361904568E-3   -1.319588403742745E-3   -1.408278980235477E-3   -1.341743358960624E-3    3.793644681326400E-1   -3.170563772727262E-1
 9.937354312525000E9     4.704114881078782E-1   -1.105987981576133E-1   -1.374071212622570E-3   -1.346559370292504E-3   -1.407886131171893E-3   -1.332482027702030E-3    3.792415923174147E-1   -3.172631084007681E-1
 9.937356588750000E9     4.703699396762539E-1   -1.108335299340616E-1   -1.409398063408434E-3   -1.380793432673850E-3   -1.420287778569457E-3   -1.343601891764312E-3    3.789282800939643E-1   -3.174616654433470E-1
 9.937358864975000E9     4.702808948810537E-1   -1.109169290868336E-1   -1.414048410196133E-3   -1.395611136661989E-3   -1.480736658432618E-3   -1.386490727748791E-3    3.785607111156943E-1   -3.177573467455013E-1
 9.937361141200001E9     4.701429760398867E-1   -1.112230859828908E-1   -1.413346095823673E-3   -1.382882771628736E-3   -1.470935327859762E-3   -1.371848133583102E-3    3.781962385937289E-1   -3.180084662048030E-1
 9.937363417424999E9     4.701491385408486E-1   -1.112513889293411E-1   -1.458830765758769E-3   -1.414238024383650E-3   -1.484172385866800E-3   -1.413306682171930E-3    3.779566919397850E-1   -3.183151016033546E-1
 9.937365693650000E9     4.701335825085248E-1   -1.114197195669515E-1   -1.478588827992692E-3   -1.429368514261515E-3   -1.537501908489176E-3   -1.426437408065687E-3    3.775746505841145E-1   -3.183753646456958E-1
 9.937367969875000E9     4.701763751522489E-1   -1.115942160571331E-1   -1.494972445836378E-3   -1.440851367873098E-3   -1.551039353570000E-3   -1.471851014690277E-3    3.771434954727781E-1   -3.188862207926189E-1
 9.937370246100000E9     4.701321017380050E-1   -1.117623788847115E-1   -1.538628796287060E-3   -1.457771585169849E-3   -1.594629815323593E-3   -1.447628435218155E-3    3.770605610374618E-1   -3.188621123591001E-1
 9.937372522325001E9     4.700017671986543E-1   -1.119396436020475E-1   -1.600062854698962E-3   -1.511559371259382E-3   -1.584037498757346E-3   -1.482298810630210E-3    3.765231781972785E-1   -3.190749429433778E-1
 9.937374798549999E9     4.699738651978017E-1   -1.120744302988871E-1   -1.579566710288193E-3   -1.534365649000667E-3   -1.618964658388062E-3   -1.472646846717668E-3    3.762910349640709E-1   -3.193252272502544E-1
 9.937377074775000E9     4.698848079201818E-1   -1.122945090745600E-1   -1.565721570990774E-3   -1.549098085615184E-3   -1.677223401375397E-3   -1.534731118693592E-3    3.759432811293676E-1   -3.197691668512738E-1
 9.937379351000000E9     4.698757167248726E-1   -1.124231347460043E-1   -1.633516931316542E-3   -1.513091959674274E-3   -1.654482061082171E-3   -1.512825755357330E-3    3.755956427905290E-1   -3.199017163300780E-1
 9.937381627225000E9     4.698158388119030E-1   -1.125854269494569E-1   -1.645583698794471E-3   -1.568195462113430E-3   -1.716361738540176E-3   -1.575820792418206E-3    3.751851490016726E-1   -3.201892704257219E-1
 9.937383903450001E9     4.697608739294928E-1   -1.126677448625892E-1   -1.677697254381775E-3   -1.576962097601416E-3   -1.737060009737064E-3   -1.548767463528456E-3    3.750304553674998E-1   -3.205486640773495E-1
 9.937386179674999E9     4.697195233971315E-1   -1.128557321771410E-1   -1.711318345587622E-3   -1.579701792178534E-3   -1.740182867261404E-3   -1.588481454670337E-3    3.747605323066255E-1   -3.205807135169327E-1
 9.937388455900000E9     4.696565735247312E-1   -1.130234568148058E-1   -1.743918942049952E-3   -1.636797363983310E-3   -1.795195061997944E-3   -1.620355502377544E-3    3.742543988988751E-1   -3.208849360530504E-1
 9.937390732125000E9     4.694900967386608E-1   -1.130445112013698E-1   -1.755939105386466E-3   -1.631084003302069E-3   -1.788774240912050E-3   -1.644920597301884E-3    3.739524268342058E-1   -3.209720150178410E-1
 9.937393008350000E9     4.695577030762134E-1   -1.133442149348803E-1   -1.794018324558532E-3   -1.684408953567619E-3   -1.846052164523309E-3   -1.660513945427635E-3    3.737492757463747E-1   -3.212070538248630E-1
 9.937395284575001E9     4.694543257393476E-1   -1.133860211328604E-1   -1.826381320239993E-3   -1.711419815270516E-3   -1.875646131972557E-3   -1.676806533596978E-3    3.732734385993677E-1   -3.214969294624984E-1
 9.937397560799999E9     4.694266241471865E-1   -1.136087233552479E-1   -1.839420332011653E-3   -1.725717758857993E-3   -1.930963585898103E-3   -1.718406700766901E-3    3.728743426339700E-1   -3.218653118232837E-1
 9.937399837025000E9     4.694760871163962E-1   -1.137152400071021E-1   -1.887515919443883E-3   -1.739276183988903E-3   -1.980661430300471E-3   -1.727970532162714E-3    3.724075125148695E-1   -3.221975860093760E-1
 9.937402113250000E9     4.693811014771818E-1   -1.138254648395328E-1   -1.941881086339246E-3   -1.748514024164177E-3   -1.990247591237083E-3   -1.734040167129901E-3    3.721238772957798E-1   -3.222608431368779E-1
