#  HZ   S   RI   R     50.00 
! Rohde & Schwarz Vector Network Analyzer 
! Rohde-Schwarz,ZNB20-2Port,1311601062101988,3.16
! Created: UTC 3/20/2024, 11:03:05 PM
! freq[Hz]                re:S11                  im:S11                  re:S21                  im:S21                  re:S12                  im:S12                  re:S22                  im:S22
 9.937163779000000E9     4.739890166640243E-1   -9.794913519401628E-2   -3.844853914463900E-4   -4.002181944046531E-4   -4.122908691264501E-4   -3.914195346303860E-4    3.958784379733783E-1   -3.012314619548738E-1
 9.937166166549999E9     4.739920681405585E-1   -9.812135226254347E-2   -3.908151343387353E-4   -4.275970988343224E-4   -4.065988315752844E-4   -3.951473326509634E-4    3.955688221574332E-1   -3.015476426866898E-1
 9.937168554100000E9     4.739576383009743E-1   -9.811641050823927E-2   -4.224493218167588E-4   -4.214829229203950E-4   -4.460461900118651E-4   -4.017676291920651E-4    3.956133909526522E-1   -3.015770068228378E-1
 9.937170941650000E9     4.739308497116740E-1   -9.835461194727597E-2   -3.897881318182764E-4   -4.334058941710455E-4   -4.043356892150918E-4   -4.129045993573183E-4    3.952855652563646E-1   -3.018322821939636E-1
 9.937173329200001E9     4.737579774862821E-1   -9.857582449793763E-2   -4.376394000204147E-4   -4.368974292767100E-4   -4.135005365366960E-4   -4.040078583678936E-4    3.951341602962297E-1   -3.020689851351959E-1
 9.937175716750000E9     4.737373701026840E-1   -9.873740860383272E-2   -4.411741318706253E-4   -4.330616148485128E-4   -4.523754560879106E-4   -4.268813900276067E-4    3.948962926177150E-1   -3.021818294677194E-1
 9.937178104299999E9     4.737660055061206E-1   -9.891611277065374E-2   -4.049118497562247E-4   -4.751564726354061E-4   -4.187088402201571E-4   -4.349272592464336E-4    3.948591556726564E-1   -3.021892099152589E-1
 9.937180491850000E9     4.736527829288342E-1   -9.910210405869205E-2   -4.296799553509387E-4   -4.450015225692407E-4   -4.732019353878532E-4   -4.734725608494462E-4    3.945982041832837E-1   -3.025518289137126E-1
 9.937182879400000E9     4.737256527892251E-1   -9.932735676073660E-2   -4.549777663937504E-4   -4.863310766326691E-4   -4.512386324307410E-4   -4.838829613002776E-4    3.944132566105829E-1   -3.026821434918218E-1
 9.937185266950001E9     4.735897033648498E-1   -9.932904655690350E-2   -4.616670334284998E-4   -4.675768928305496E-4   -4.662229248698800E-4   -4.617298887650287E-4    3.942003892464257E-1   -3.029810641415779E-1
 9.937187654500000E9     4.735748769666584E-1   -9.966873731476089E-2   -4.640495816510036E-4   -4.736329313331482E-4   -4.693357339354292E-4   -4.570562731120512E-4    3.938536735874456E-1   -3.031898608223955E-1
 9.937190042049999E9     4.736125832231075E-1   -9.979029691387574E-2   -4.680690976798914E-4   -4.707146826829023E-4   -4.630023276720897E-4   -5.075504258747506E-4    3.938205122564308E-1   -3.033574951166120E-1
 9.937192429600000E9     4.734187106305336E-1   -1.000186770177285E-1   -5.109159799555752E-4   -5.094368145390721E-4   -5.145128978312737E-4   -4.890467090701552E-4    3.935764191776944E-1   -3.034422241174743E-1
 9.937194817150000E9     4.734725409888681E-1   -1.000456311519737E-1   -4.891961456694107E-4   -5.018683260279303E-4   -5.100762079216839E-4   -4.991356940719346E-4    3.934427001787505E-1   -3.036602166788095E-1
 9.937197204700001E9     4.734549312268274E-1   -1.001062334241117E-1   -5.250479305688395E-4   -5.169657583942487E-4   -4.940260738789077E-4   -5.128162378733913E-4    3.931966471561160E-1   -3.038393065173203E-1
 9.937199592250000E9     4.734963667210187E-1   -1.004325965240635E-1   -5.232645659588932E-4   -5.187821239525069E-4   -5.308633392989175E-4   -5.172783112760776E-4    3.930696514150147E-1   -3.042057402613326E-1
 9.937201979799999E9     4.733146398694140E-1   -1.005509474619916E-1   -5.030367608344637E-4   -5.274488264901309E-4   -5.230486951531306E-4   -5.397907348618472E-4    3.929645918769176E-1   -3.042088019211003E-1
 9.937204367350000E9     4.733591369405938E-1   -1.005948341933223E-1   -5.331594809553443E-4   -5.779179084290337E-4   -5.637736364234792E-4   -5.482962449108004E-4    3.927708767617276E-1   -3.041239241093200E-1
 9.937206754900000E9     4.732171522477866E-1   -1.008484877740803E-1   -5.598813752909381E-4   -5.618572302491691E-4   -5.625438926629845E-4   -5.491561607241814E-4    3.925086690940623E-1   -3.046028693972594E-1
 9.937209142450001E9     4.730584784485576E-1   -1.010251441607235E-1   -5.520146734522838E-4   -5.733147071548732E-4   -5.510370520268008E-4   -5.597195590996408E-4    3.922689656202489E-1   -3.047351187575358E-1
 9.937211530000000E9     4.730552119205627E-1   -1.012810288084922E-1   -5.474709364485344E-4   -5.694576499156805E-4   -5.704884159744764E-4   -5.650082023339136E-4    3.921209110420328E-1   -3.048480975990946E-1
 9.937213917549999E9     4.730414554876218E-1   -1.013623800617092E-1   -5.672766043327291E-4   -5.676043779288460E-4   -6.146203972772857E-4   -6.071540572854408E-4    3.919576335792487E-1   -3.052121247388497E-1
 9.937216305100000E9     4.730299379461504E-1   -1.014802760420025E-1   -5.931174825215980E-4   -6.007090138035955E-4   -6.006902220050388E-4   -5.830461847665753E-4    3.917101823588530E-1   -3.053465011031813E-1
 9.937218692650000E9     4.729709403456731E-1   -1.015959303727797E-1   -5.816714118701430E-4   -6.137679046569636E-4   -6.293322411861396E-4   -6.157206223311811E-4    3.916761950391292E-1   -3.056905558666574E-1
 9.937221080200001E9     4.729382531800927E-1   -1.018708706944593E-1   -5.984989529470877E-4   -6.512559020557897E-4   -6.079786251180560E-4   -6.161060443912233E-4    3.913740517927580E-1   -3.056968447686663E-1
 9.937223467750000E9     4.728033998426281E-1   -1.020429970742253E-1   -6.144742586585268E-4   -6.308866161814470E-4   -5.796101711367960E-4   -6.321017592561389E-4    3.912687840762547E-1   -3.059735620899706E-1
 9.937225855299999E9     4.728867895717069E-1   -1.022841698043659E-1   -6.264388605915723E-4   -6.817343938236365E-4   -6.629323505345241E-4   -6.405673699428781E-4    3.910139801959538E-1   -3.062937507230662E-1
 9.937228242850000E9     4.728510822532700E-1   -1.023196240301904E-1   -5.962326821582960E-4   -6.224324045660511E-4   -6.405519311136702E-4   -6.361301493958488E-4    3.908956613468869E-1   -3.064336648467247E-1
 9.937230630400000E9     4.728494683427452E-1   -1.026685316261847E-1   -6.520845200244958E-4   -6.431078613493871E-4   -6.560556224335192E-4   -6.411041958669046E-4    3.906925311861174E-1   -3.063715274352067E-1
 9.937233017950001E9     4.726428334644625E-1   -1.026842842578546E-1   -6.498718148686893E-4   -6.826169946415451E-4   -6.800713630633417E-4   -6.996625063737899E-4    3.903071699281926E-1   -3.066591249898927E-1
 9.937235405500000E9     4.726627040592877E-1   -1.028170539923827E-1   -6.993960055262980E-4   -7.002368038880938E-4   -7.095543382650788E-4   -6.983396718887021E-4    3.900287515373598E-1   -3.068075691688575E-1
 9.937237793049999E9     4.726440490751087E-1   -1.029985362858542E-1   -6.886712098273204E-4   -7.066755958861342E-4   -6.881628876436885E-4   -6.869808333338758E-4    3.899769565617744E-1   -3.071228284782261E-1
 9.937240180600000E9     4.724795868098559E-1   -1.033172508791544E-1   -7.078255752988697E-4   -6.785541680715765E-4   -7.220433731093556E-4   -6.905522775691371E-4    3.896815587934589E-1   -3.073291953685104E-1
 9.937242568150000E9     4.724953806579735E-1   -1.032679083015648E-1   -6.998091562431840E-4   -7.379602462937942E-4   -7.140162499594753E-4   -7.241521258598460E-4    3.893317282787115E-1   -3.075601153827913E-1
 9.937244955700001E9     4.724892620249178E-1   -1.034973091665069E-1   -6.970636268434754E-4   -7.381200059958136E-4   -7.071515922749564E-4   -7.485847582204943E-4    3.891846489288881E-1   -3.077883886250081E-1
 9.937247343250000E9     4.722838910511832E-1   -1.035398495520221E-1   -7.284643033294359E-4   -7.393487679750122E-4   -7.482529191975746E-4   -7.585560171772182E-4    3.891794787340394E-1   -3.076141898587608E-1
 9.937249730799999E9     4.723583395925593E-1   -1.038086642633735E-1   -7.117831347946238E-4   -7.758376432454604E-4   -7.391786005025878E-4   -7.372780060663728E-4    3.887642614203644E-1   -3.078730694701966E-1
 9.937252118350000E9     4.723789853486054E-1   -1.040061969432214E-1   -7.554355851061351E-4   -7.586289997688933E-4   -7.873556598730234E-4   -7.516749039523804E-4    3.887316982845098E-1   -3.081739395881523E-1
 9.937254505900000E9     4.722898483975049E-1   -1.042147921285572E-1   -7.601954548117180E-4   -7.788413076171160E-4   -7.894224005350920E-4   -7.547774765313105E-4    3.883323158774837E-1   -3.084859329321875E-1
 9.937256893450001E9     4.723245297777942E-1   -1.041781506226434E-1   -7.488071006549621E-4   -8.094319221283164E-4   -7.888612135795947E-4   -7.763361506710061E-4    3.881469830481288E-1   -3.085974132203011E-1
 9.937259281000000E9     4.721681638624275E-1   -1.044637611054818E-1   -7.846938144607353E-4   -7.925217316379752E-4   -8.359529617987124E-4   -7.815748369620426E-4    3.879520521929751E-1   -3.088415862045376E-1
 9.937261668549999E9     4.721317981210096E-1   -1.045249495247684E-1   -7.890194895426274E-4   -8.292384919389486E-4   -8.358366095476559E-4   -8.039236177572180E-4    3.875501944027727E-1   -3.089483431596506E-1
 9.937264056100000E9     4.720177803586912E-1   -1.048442464837406E-1   -8.082261788258051E-4   -8.420323760034203E-4   -8.391194405631429E-4   -8.561882931931188E-4    3.874975884394947E-1   -3.093303362721527E-1
 9.937266443650000E9     4.720783542062145E-1   -1.049216220206178E-1   -7.958074770971602E-4   -8.431071846773520E-4   -8.314116365092486E-4   -8.398822983165140E-4    3.873773545758019E-1   -3.094737410834995E-1
 9.937268831200001E9     4.720495261124816E-1   -1.050477446368997E-1   -8.459061808976815E-4   -8.433455647294627E-4   -8.529021288474038E-4   -8.277261587591102E-4    3.869366913177059E-1   -3.096584213131616E-1
 9.937271218750000E9     4.719554257320889E-1   -1.052585836385441E-1   -8.372640222288121E-4   -8.629805871792170E-4   -8.827756761056470E-4   -8.603656496287245E-4    3.867691870348454E-1   -3.100099186838374E-1
 9.937273606299999E9     4.717139853180443E-1   -1.055084431429170E-1   -8.724416479612183E-4   -9.073868969800259E-4   -8.792634178560686E-4   -8.807523891962324E-4    3.866173157987603E-1   -3.102468426231583E-1
 9.937275993850000E9     4.718517263131490E-1   -1.056773943317376E-1   -8.918522265997799E-4   -8.906833140654124E-4   -9.327945459158152E-4   -8.823567361668582E-4    3.863306869101398E-1   -3.102696608642926E-1
 9.937278381400000E9     4.718064386775525E-1   -1.056611545321321E-1   -8.958669500194218E-4   -8.881378670629154E-4   -9.258338112937106E-4   -8.732234470608989E-4    3.862205429919999E-1   -3.104797541463828E-1
 9.937280768950001E9     4.718405145313329E-1   -1.059795971542435E-1   -9.322364017878082E-4   -8.952596383163476E-4   -9.384744532550667E-4   -8.946085747524489E-4    3.858181304086580E-1   -3.106731807651842E-1
 9.937283156500000E9     4.716935422074787E-1   -1.060216447957110E-1   -8.819091272274750E-4   -9.367238983077160E-4   -9.532373762383308E-4   -9.241006992233924E-4    3.858134010621350E-1   -3.109972620692505E-1
 9.937285544049999E9     4.716678528714344E-1   -1.061401661353393E-1   -9.511210034211200E-4   -9.729475254483337E-4   -9.871760239229352E-4   -9.328233202084473E-4    3.855850280830679E-1   -3.112014691249085E-1
 9.937287931600000E9     4.716832927994312E-1   -1.064671791150500E-1   -9.601946444526763E-4   -9.796069178808597E-4   -9.713414931927200E-4   -9.410464564568218E-4    3.852526921633167E-1   -3.114416225163888E-1
 9.937290319150000E9     4.714589317639434E-1   -1.065908473723041E-1   -9.919639574568939E-4   -9.563569981387520E-4   -1.015377969946089E-3   -9.991692632959361E-4    3.850135100086165E-1   -3.115936530350485E-1
 9.937292706700001E9     4.714833065890456E-1   -1.067092597587878E-1   -9.726781496113132E-4   -9.689645292263859E-4   -1.011164451664534E-3   -9.507834423406250E-4    3.844965279926824E-1   -3.118177312710332E-1
 9.937295094250000E9     4.714320465033102E-1   -1.068637056580273E-1   -1.019099101187435E-3   -1.026689288651557E-3   -1.042000688649198E-3   -9.654141048223674E-4    3.845334348276843E-1   -3.120816773442516E-1
 9.937297481799999E9     4.713166077251016E-1   -1.069664033248498E-1   -1.040423984090117E-3   -1.024937799692379E-3   -1.021814297907282E-3   -1.003250286718921E-3    3.841264547017174E-1   -3.123115594363635E-1
 9.937299869350000E9     4.714346481100563E-1   -1.071826130055608E-1   -1.018347613283355E-3   -1.022213186195201E-3   -1.064178208593720E-3   -1.014484368171670E-3    3.839233494437138E-1   -3.123592327285972E-1
 9.937302256900000E9     4.713510794553478E-1   -1.074538364925801E-1   -1.049094699667297E-3   -1.090314667270223E-3   -1.095612815173422E-3   -1.079583049028120E-3    3.838039537034411E-1   -3.126286706753973E-1
 9.937304644450001E9     4.710848906826247E-1   -1.075225592124695E-1   -1.064165960706082E-3   -1.070136063761550E-3   -1.116753603113973E-3   -1.072266304033031E-3    3.835320265299300E-1   -3.129391812645662E-1
 9.937307032000000E9     4.711696911447874E-1   -1.076783509111632E-1   -1.074615096270387E-3   -1.072761249163544E-3   -1.104460107465126E-3   -1.067378021847684E-3    3.832109728582956E-1   -3.130239503785741E-1
 9.937309419549999E9     4.712469735626686E-1   -1.078227772844071E-1   -1.111103300248409E-3   -1.054567500098734E-3   -1.114993933893465E-3   -1.078397804302444E-3    3.827530166093720E-1   -3.133204323715066E-1
 9.937311807100000E9     4.711212063049737E-1   -1.080551872420623E-1   -1.119518596947658E-3   -1.133083508066395E-3   -1.177365310407630E-3   -1.092184523832875E-3    3.824943640815419E-1   -3.135050941960235E-1
 9.937314194650000E9     4.710504356071966E-1   -1.081168639977692E-1   -1.151406672762683E-3   -1.124307675595755E-3   -1.188571681765606E-3   -1.128365353696754E-3    3.823534635695069E-1   -3.136326932994474E-1
 9.937316582200001E9     4.711178221308376E-1   -1.083215761557850E-1   -1.137164932109663E-3   -1.168198070005389E-3   -1.174597193367757E-3   -1.097231822328890E-3    3.819900107183803E-1   -3.139928735370349E-1
 9.937318969750000E9     4.710681853483935E-1   -1.085133400788070E-1   -1.166694967082257E-3   -1.138535648305903E-3   -1.193566292429705E-3   -1.155061487640758E-3    3.817735788605500E-1   -3.139855892217313E-1
 9.937321357299999E9     4.709644686266948E-1   -1.085551217543410E-1   -1.203290341810603E-3   -1.167555056070900E-3   -1.217218017399690E-3   -1.150829407654884E-3    3.814084327318791E-1   -3.146371745385040E-1
 9.937323744850000E9     4.708390968456051E-1   -1.087511218686696E-1   -1.189959021782614E-3   -1.173700383756209E-3   -1.262128778716314E-3   -1.192764445263412E-3    3.812160710790076E-1   -3.146777754265974E-1
 9.937326132400000E9     4.707822147906501E-1   -1.089426818873565E-1   -1.252640623223306E-3   -1.212947047410413E-3   -1.257874707793685E-3   -1.174461828742171E-3    3.808151226466415E-1   -3.148649230521880E-1
 9.937328519950001E9     4.708612044390561E-1   -1.091809212446266E-1   -1.226654154390289E-3   -1.212949522754965E-3   -1.287664096405476E-3   -1.185568732210460E-3    3.805920263477279E-1   -3.151977157218618E-1
 9.937330907500000E9     4.707606103021758E-1   -1.093438536861353E-1   -1.280726107095460E-3   -1.239541393706514E-3   -1.300813464483003E-3   -1.234568016361465E-3    3.802860379698159E-1   -3.153654464027620E-1
 9.937333295049999E9     4.707442532718827E-1   -1.094108976244773E-1   -1.299967707042700E-3   -1.269760598341457E-3   -1.360611688942203E-3   -1.240348776553100E-3    3.798078646088375E-1   -3.155173364100856E-1
 9.937335682600000E9     4.706569307449251E-1   -1.097330231352861E-1   -1.327025538580355E-3   -1.272694443429954E-3   -1.338873163390158E-3   -1.284707354811494E-3    3.797800661149788E-1   -3.158006046047864E-1
 9.937338070150000E9     4.706171908887853E-1   -1.097376357255884E-1   -1.338167430222757E-3   -1.305748850918053E-3   -1.384538586645136E-3   -1.269756253208319E-3    3.791713401623358E-1   -3.160749869094723E-1
 9.937340457700001E9     4.706250494739647E-1   -1.099549404733657E-1   -1.352055716115532E-3   -1.314818202189432E-3   -1.417014625055337E-3   -1.293412526272128E-3    3.793402709113040E-1   -3.162214329771624E-1
 9.937342845250000E9     4.704875055584617E-1   -1.101620834838596E-1   -1.374033763386087E-3   -1.313965435564792E-3   -1.412279003218782E-3   -1.324627862397519E-3    3.788838839928568E-1   -3.165582071056340E-1
 9.937345232799999E9     4.704650664647482E-1   -1.104012004282860E-1   -1.404125996600582E-3   -1.368750563874711E-3   -1.448815736065289E-3   -1.321495833364869E-3    3.784790481354955E-1   -3.166677579793308E-1
 9.937347620350000E9     4.703793169917683E-1   -1.104166938997072E-1   -1.413614783450803E-3   -1.344105842463022E-3   -1.493902915120522E-3   -1.348950845337322E-3    3.780780515595937E-1   -3.171305276629233E-1
 9.937350007900000E9     4.702852262634266E-1   -1.105587404312505E-1   -1.453537274165129E-3   -1.388803742940444E-3   -1.480457560075188E-3   -1.362032052265586E-3    3.779161675253544E-1   -3.172747463248821E-1
 9.937352395450001E9     4.704068051410892E-1   -1.107517061789508E-1   -1.491136783971632E-3   -1.377800137886967E-3   -1.507253825298984E-3   -1.374070574367502E-3    3.775248753331666E-1   -3.175091001091363E-1
 9.937354783000000E9     4.702583518776848E-1   -1.110253828974209E-1   -1.497760661513102E-3   -1.424461835158862E-3   -1.533256053607469E-3   -1.403250439532715E-3    3.772454389141903E-1   -3.177664569982002E-1
 9.937357170549999E9     4.703243136906594E-1   -1.110522095265365E-1   -1.507449113484268E-3   -1.457733633348762E-3   -1.576597744532039E-3   -1.451688717995617E-3    3.769872512559631E-1   -3.179858947491371E-1
 9.937359558100000E9     4.701782954618053E-1   -1.112549948029166E-1   -1.544706799345039E-3   -1.434739449535470E-3   -1.559190050652308E-3   -1.441532275874449E-3    3.765261814338203E-1   -3.181311717309419E-1
 9.937361945650000E9     4.701886073052629E-1   -1.113470506591012E-1   -1.547355798554000E-3   -1.451431724696608E-3   -1.616808201201320E-3   -1.482262058145334E-3    3.762143666888400E-1   -3.181734380997473E-1
 9.937364333200001E9     4.700757947215211E-1   -1.115566677709974E-1   -1.614180411704802E-3   -1.478232136958582E-3   -1.667479189280123E-3   -1.482053973785115E-3    3.757692002576988E-1   -3.186211802616989E-1
 9.937366720750000E9     4.699893866649147E-1   -1.118181294464079E-1   -1.650194100986435E-3   -1.516967811176030E-3   -1.658863257365114E-3   -1.505652710389485E-3    3.756056128217605E-1   -3.188588404894065E-1
 9.937369108299999E9     4.699587795618085E-1   -1.118875083924915E-1   -1.654380741196694E-3   -1.555636020935366E-3   -1.700782192057693E-3   -1.528819836772895E-3    3.751682195726435E-1   -3.191913823454021E-1
 9.937371495850000E9     4.699722866937543E-1   -1.119997909700967E-1   -1.696240316546032E-3   -1.543565140686712E-3   -1.739141534782252E-3   -1.537120537251517E-3    3.747389401260103E-1   -3.192164935952811E-1
 9.937373883400000E9     4.697027872610219E-1   -1.121271139393051E-1   -1.727423692930601E-3   -1.559083076390863E-3   -1.776718506093784E-3   -1.604529361061973E-3    3.744859887390774E-1   -3.196757288806004E-1
 9.937376270950001E9     4.698044230435161E-1   -1.124154220921341E-1   -1.761047599642256E-3   -1.606433462289048E-3   -1.802223803196724E-3   -1.577035292816384E-3    3.741076634244516E-1   -3.198563279538281E-1
 9.937378658500000E9     4.698386942898707E-1   -1.125719783075363E-1   -1.767384404054880E-3   -1.640000694822576E-3   -1.832785581817857E-3   -1.593192567764803E-3    3.735258949392256E-1   -3.200507379958011E-1
