#  HZ   S   RI   R     50.00 
! Rohde & Schwarz Vector Network Analyzer 
! Rohde-Schwarz,ZNB20-2Port,1311601062101988,3.16
! Created: UTC 3/20/2024, 10:53:07 PM
! freq[Hz]                re:S11                  im:S11                  re:S21                  im:S21                  re:S12                  im:S12                  re:S22                  im:S22
 9.937756262000000E9     4.618742063410412E-1   -1.356925527220056E-1   -2.570674183776925E-3   -2.878773422817908E-3   -2.630296462455169E-3   -2.880583056782020E-3    3.494908335791443E-1   -3.480715920704233E-1
 9.937757213500000E9     4.618142779766216E-1   -1.357010021779441E-1   -2.590782763370140E-3   -2.879095177563682E-3   -2.638979718504504E-3   -2.911748373173252E-3    3.492199808730780E-1   -3.484433703079220E-1
 9.937758165000000E9     4.618102357564579E-1   -1.358745775974878E-1   -2.552563776023657E-3   -2.903494826245938E-3   -2.679397394513334E-3   -2.937171044701649E-3    3.490829606438042E-1   -3.484141576265572E-1
 9.937759116500000E9     4.616600370231532E-1   -1.358860868314588E-1   -2.623593428114532E-3   -2.978652739367820E-3   -2.723128635556778E-3   -2.947310484948832E-3    3.485707106758115E-1   -3.485918751064863E-1
 9.937760068000000E9     4.617620612799810E-1   -1.359166009950786E-1   -2.618988579068621E-3   -2.980600443392377E-3   -2.737898486982278E-3   -2.941657524043902E-3    3.484074364082727E-1   -3.487801134655439E-1
 9.937761019500000E9     4.616874968868007E-1   -1.360672400275664E-1   -2.640787041809191E-3   -2.970800430279859E-3   -2.740951203436414E-3   -2.943665488095298E-3    3.482350161941201E-1   -3.489452415513617E-1
 9.937761971000000E9     4.616766809475011E-1   -1.362250286747308E-1   -2.653069214767151E-3   -2.990069638705471E-3   -2.734914087432577E-3   -2.996348513004650E-3    3.481810452573756E-1   -3.489976636225757E-1
 9.937762922500000E9     4.616461615695038E-1   -1.361953932902464E-1   -2.702379996755146E-3   -3.012010764730939E-3   -2.802349388448864E-3   -3.011955383068102E-3    3.478848584450114E-1   -3.492452098050071E-1
 9.937763874000000E9     4.615513276607961E-1   -1.362137349588465E-1   -2.686930861025787E-3   -3.028936869088639E-3   -2.827996904647632E-3   -3.006267406417895E-3    3.474980962627929E-1   -3.496552565859054E-1
 9.937764825500000E9     4.615134556867438E-1   -1.362599868849328E-1   -2.748647801113345E-3   -3.035684873087486E-3   -2.840414586587711E-3   -3.035156306451551E-3    3.472669016952482E-1   -3.497272955038633E-1
 9.937765777000000E9     4.615886852676913E-1   -1.363734192831149E-1   -2.763835804498270E-3   -3.079334498381550E-3   -2.852573082180832E-3   -3.081955608518581E-3    3.470370407161266E-1   -3.497687595239876E-1
 9.937766728500000E9     4.615017039022076E-1   -1.364724755831448E-1   -2.802475042782706E-3   -3.064117095757866E-3   -2.901559064455044E-3   -3.104133959164174E-3    3.466608316416536E-1   -3.500337816918174E-1
 9.937767680000000E9     4.614249162672877E-1   -1.364578639389226E-1   -2.821206514732265E-3   -3.091048476793574E-3   -2.893080270742761E-3   -3.130603693379057E-3    3.464864962681072E-1   -3.502681156901874E-1
 9.937768631500000E9     4.613992260440864E-1   -1.366349727450130E-1   -2.832858243040513E-3   -3.126097754966147E-3   -2.933771520340750E-3   -3.139019341899293E-3    3.460972971081829E-1   -3.504719657059917E-1
 9.937769583000000E9     4.616181778111790E-1   -1.365926342539824E-1   -2.855000312581075E-3   -3.163646684715735E-3   -2.962403591611142E-3   -3.148989186019033E-3    3.459356713815735E-1   -3.506504850748504E-1
 9.937770534500000E9     4.613145026019678E-1   -1.367200880363827E-1   -2.904854237665042E-3   -3.197587893563587E-3   -3.021894299979480E-3   -3.206182267385898E-3    3.456807129247677E-1   -3.507813861752335E-1
 9.937771486000000E9     4.613871649098322E-1   -1.368486937492277E-1   -2.902141214588626E-3   -3.198561980038742E-3   -3.029437851930524E-3   -3.202364217927609E-3    3.454179947903854E-1   -3.509417767173329E-1
 9.937772437500000E9     4.612899432613621E-1   -1.367967953164493E-1   -2.964156091053522E-3   -3.221579901887916E-3   -3.068435024170194E-3   -3.248996748753909E-3    3.452905781353657E-1   -3.511403183160542E-1
 9.937773389000000E9     4.613060172099828E-1   -1.369678361907757E-1   -2.946183906189933E-3   -3.247360303968402E-3   -3.069973092370794E-3   -3.300106192373357E-3    3.448435732833765E-1   -3.514599133925915E-1
 9.937774340500000E9     4.613523003416188E-1   -1.369191164512156E-1   -2.981807634619053E-3   -3.261133231711918E-3   -3.113821699315214E-3   -3.277410317063993E-3    3.447067767819051E-1   -3.515077148161780E-1
 9.937775292000000E9     4.612982865508793E-1   -1.370333256671992E-1   -3.025292686544211E-3   -3.283503867420008E-3   -3.108591234547895E-3   -3.294556724864709E-3    3.444173300501535E-1   -3.516727814991273E-1
 9.937776243500000E9     4.612568399972521E-1   -1.370471184636905E-1   -3.072582983160179E-3   -3.331557083226513E-3   -3.121339752217880E-3   -3.311833526052139E-3    3.439398154782278E-1   -3.519082590808761E-1
 9.937777195000000E9     4.610859714773099E-1   -1.372114915957588E-1   -3.058500545806481E-3   -3.319938508330349E-3   -3.140543677835364E-3   -3.354483915163008E-3    3.436171786578749E-1   -3.521409726923654E-1
 9.937778146500000E9     4.611307305234052E-1   -1.372443180992020E-1   -3.113485353860622E-3   -3.319092950539798E-3   -3.188157720009623E-3   -3.355948205155041E-3    3.433967909905830E-1   -3.525041244819681E-1
 9.937779098000000E9     4.610941035728369E-1   -1.372154749713590E-1   -3.108425529519034E-3   -3.398586909936498E-3   -3.250612415523121E-3   -3.374034366631448E-3    3.431137821404149E-1   -3.524702206366170E-1
 9.937780049500000E9     4.611475908548457E-1   -1.374750620264741E-1   -3.121367562876193E-3   -3.382447037827052E-3   -3.237144056072994E-3   -3.413010552014831E-3    3.428156022184510E-1   -3.527811584785582E-1
 9.937781001000000E9     4.611637630370740E-1   -1.372645346662083E-1   -3.187509406121496E-3   -3.417386749219241E-3   -3.316648718047333E-3   -3.427142843484627E-3    3.426267395396818E-1   -3.528962601956193E-1
 9.937781952500000E9     4.610337655657993E-1   -1.375354481829720E-1   -3.235217038750428E-3   -3.457773008428624E-3   -3.312759807707583E-3   -3.475467127569696E-3    3.421800076637338E-1   -3.530785565416984E-1
 9.937782904000000E9     4.611142266490384E-1   -1.374870218003642E-1   -3.233589117245794E-3   -3.488494002791259E-3   -3.325884671609641E-3   -3.499569004564401E-3    3.420188798129574E-1   -3.532241352702276E-1
 9.937783855500000E9     4.609744256014723E-1   -1.377351195032599E-1   -3.290885032301892E-3   -3.505354955801350E-3   -3.354535495665952E-3   -3.496135651811501E-3    3.416271276590437E-1   -3.536510596255874E-1
 9.937784807000000E9     4.609422986644661E-1   -1.376339223214716E-1   -3.259381005092748E-3   -3.542487302368064E-3   -3.388016803914490E-3   -3.524392068530791E-3    3.411752010030373E-1   -3.538144191498750E-1
 9.937785758500000E9     4.609604627827839E-1   -1.378075059620207E-1   -3.325456552968375E-3   -3.569393437404315E-3   -3.434749071607918E-3   -3.570001391130266E-3    3.412537500188167E-1   -3.538775767367406E-1
 9.937786710000000E9     4.610857415727012E-1   -1.378092761038358E-1   -3.352760634964827E-3   -3.542234649281377E-3   -3.444384441193983E-3   -3.572584281448433E-3    3.409881387001688E-1   -3.542678705629028E-1
 9.937787661500000E9     4.609560567431739E-1   -1.379749144644279E-1   -3.365896091106989E-3   -3.597231958155399E-3   -3.499932830373600E-3   -3.614408868873359E-3    3.404198312510356E-1   -3.543665273290476E-1
 9.937788613000000E9     4.608502484919226E-1   -1.380422022046811E-1   -3.377079026974270E-3   -3.614313168373128E-3   -3.515872720025810E-3   -3.656477895366718E-3    3.401474242905709E-1   -3.545966312593735E-1
 9.937789564500000E9     4.609147682869653E-1   -1.380280625751745E-1   -3.424021315178451E-3   -3.659684574077188E-3   -3.559108489593163E-3   -3.681194816691673E-3    3.397145594946277E-1   -3.547731380766762E-1
 9.937790516000000E9     4.608167521990260E-1   -1.381280895146151E-1   -3.456729282488994E-3   -3.671531497203292E-3   -3.564183981073502E-3   -3.687608487828466E-3    3.394926483930474E-1   -3.550229651072755E-1
 9.937791467500000E9     4.608589363339973E-1   -1.382754836520045E-1   -3.484892212868288E-3   -3.697886603616952E-3   -3.596112314453359E-3   -3.725603125288184E-3    3.389744938386765E-1   -3.551544878919329E-1
 9.937792419000000E9     4.608519969576321E-1   -1.383615273276688E-1   -3.560074926972030E-3   -3.716476564692294E-3   -3.618189377380076E-3   -3.766535567320283E-3    3.386878915630507E-1   -3.554912466033207E-1
 9.937793370500000E9     4.607741346404821E-1   -1.382468428424381E-1   -3.564837766257726E-3   -3.758856677183028E-3   -3.675467896927947E-3   -3.788231036485591E-3    3.384365206841332E-1   -3.555010686585628E-1
 9.937794322000000E9     4.607507690830095E-1   -1.385059531837791E-1   -3.639401274064719E-3   -3.794031792061536E-3   -3.714391400635141E-3   -3.788899737972094E-3    3.381452561013368E-1   -3.559619723549710E-1
 9.937795273500000E9     4.607717353815232E-1   -1.384265359701168E-1   -3.624051775941599E-3   -3.807137580929138E-3   -3.741367065034319E-3   -3.809991981331714E-3    3.377845113678627E-1   -3.562287834666707E-1
 9.937796225000000E9     4.608170834860761E-1   -1.385048006898008E-1   -3.673668655745195E-3   -3.821136882408818E-3   -3.784919997541352E-3   -3.850530179929434E-3    3.374360809551921E-1   -3.564694399711785E-1
 9.937797176500000E9     4.607144668163999E-1   -1.386111697842488E-1   -3.715123606726781E-3   -3.870383242715822E-3   -3.829500602373987E-3   -3.873633208933942E-3    3.369037244300186E-1   -3.565492699881828E-1
 9.937798128000000E9     4.606078692187416E-1   -1.386246858624370E-1   -3.723961645098729E-3   -3.918727821927929E-3   -3.847394583473981E-3   -3.921086209912797E-3    3.366759372410616E-1   -3.567735697778532E-1
 9.937799079500000E9     4.607455045427986E-1   -1.387775911150752E-1   -3.777234045837774E-3   -3.907888737058163E-3   -3.889135235588056E-3   -3.945654146224547E-3    3.361175052221824E-1   -3.572262114928010E-1
 9.937800031000000E9     4.605237986809095E-1   -1.387056827134635E-1   -3.803533209342543E-3   -3.931873032295436E-3   -3.919557163956396E-3   -3.972311535350105E-3    3.356814160164389E-1   -3.573974196257459E-1
 9.937800982500000E9     4.605679520461131E-1   -1.388391602063087E-1   -3.837365341594471E-3   -3.955066805933623E-3   -3.951544498015446E-3   -3.990010148241360E-3    3.353834894183054E-1   -3.574653088754770E-1
 9.937801934000000E9     4.604408143488469E-1   -1.388249749244304E-1   -3.896111967417764E-3   -4.015295884143852E-3   -4.032324879848095E-3   -4.015436727108859E-3    3.351286531302634E-1   -3.576613351428826E-1
 9.937802885500000E9     4.603915298284747E-1   -1.390630922449212E-1   -3.895428275343912E-3   -4.027933236293971E-3   -4.099846121833501E-3   -4.054671012011827E-3    3.346799483313518E-1   -3.581355839654649E-1
 9.937803837000000E9     4.604764073221476E-1   -1.391141084663392E-1   -3.962361748244657E-3   -4.080327171511367E-3   -4.075101298678965E-3   -4.074459735369703E-3    3.342852104745416E-1   -3.582512482000337E-1
 9.937804788500000E9     4.605998633634036E-1   -1.391467582163298E-1   -3.953545333163198E-3   -4.107182300561262E-3   -4.144531301505374E-3   -4.112115688806713E-3    3.340073278846196E-1   -3.585388526703810E-1
 9.937805740000000E9     4.604490775363579E-1   -1.392129391826418E-1   -4.024937503747764E-3   -4.161379516663009E-3   -4.148222553439425E-3   -4.164783211800856E-3    3.334509244635031E-1   -3.587384083538555E-1
 9.937806691500000E9     4.604491679389059E-1   -1.393316778003815E-1   -4.067010263307981E-3   -4.189160326911831E-3   -4.199080448718571E-3   -4.173617324113072E-3    3.329859772312313E-1   -3.590467443888074E-1
 9.937807643000000E9     4.603719552659326E-1   -1.392924437963839E-1   -4.111277616204431E-3   -4.203060720236792E-3   -4.265359490612703E-3   -4.208388397764396E-3    3.325996416794166E-1   -3.590943332102801E-1
 9.937808594500000E9     4.603581242940646E-1   -1.394846018758880E-1   -4.161848115130587E-3   -4.233784107308890E-3   -4.309763652980293E-3   -4.248199732412728E-3    3.322412788260461E-1   -3.595379685036804E-1
 9.937809546000000E9     4.604605679270286E-1   -1.394608670856406E-1   -4.185647545949171E-3   -4.289277802793996E-3   -4.331597149169987E-3   -4.273621960021839E-3    3.317168188097387E-1   -3.597074070372989E-1
 9.937810497500000E9     4.603294030597365E-1   -1.394209603096441E-1   -4.242378048784515E-3   -4.308000566520778E-3   -4.394996464025263E-3   -4.314660470252776E-3    3.312996583674208E-1   -3.598710766025781E-1
 9.937811449000000E9     4.603484013272743E-1   -1.396332625916542E-1   -4.277094394892466E-3   -4.306375408093250E-3   -4.455844398838054E-3   -4.364469360608833E-3    3.310007029734465E-1   -3.602846191150830E-1
 9.937812400500000E9     4.602123822243323E-1   -1.396923456765356E-1   -4.328043630587978E-3   -4.370352592179107E-3   -4.451337865443684E-3   -4.405315903794495E-3    3.304993310798489E-1   -3.605654614971386E-1
 9.937813352000000E9     4.603257491364728E-1   -1.397214594546802E-1   -4.357015866704970E-3   -4.397416118477906E-3   -4.499156955686568E-3   -4.425706980794239E-3    3.299635403160717E-1   -3.607960187340178E-1
 9.937814303500000E9     4.601796819528906E-1   -1.396453583640098E-1   -4.420613750252765E-3   -4.432389361855501E-3   -4.557903666778995E-3   -4.433870219437744E-3    3.293450246397983E-1   -3.612096326850012E-1
 9.937815255000000E9     4.602064114857429E-1   -1.398851500855362E-1   -4.469264091851819E-3   -4.479736778252869E-3   -4.611813124946447E-3   -4.498092326457466E-3    3.288520370654670E-1   -3.612568546823398E-1
 9.937816206500000E9     4.600928223245556E-1   -1.399220208641825E-1   -4.503452310673372E-3   -4.495746575142900E-3   -4.640915447341773E-3   -4.538561281812951E-3    3.286503368453854E-1   -3.616401937944799E-1
 9.937817158000000E9     4.600963637311475E-1   -1.400086243952047E-1   -4.562276466244370E-3   -4.534537930814471E-3   -4.702485707112748E-3   -4.553637601956369E-3    3.281933302011850E-1   -3.619437361944485E-1
 9.937818109500000E9     4.600909498564098E-1   -1.400913850667501E-1   -4.607738065496964E-3   -4.556671370666396E-3   -4.774275513178007E-3   -4.591746363013712E-3    3.277108248876714E-1   -3.621562087136385E-1
 9.937819061000000E9     4.602304793032621E-1   -1.401199408287395E-1   -4.655720685923741E-3   -4.637104395215410E-3   -4.842453147316406E-3   -4.654869953129810E-3    3.270402235146995E-1   -3.622546612789428E-1
 9.937820012500000E9     4.600159535866363E-1   -1.401878444882175E-1   -4.689310017560697E-3   -4.657196905199249E-3   -4.824952441543130E-3   -4.673676729703780E-3    3.267711990237893E-1   -3.626128036167675E-1
 9.937820964000000E9     4.600262449338274E-1   -1.402921841224382E-1   -4.785488108235428E-3   -4.705454890030805E-3   -4.950743494722573E-3   -4.741430287963315E-3    3.261309320566431E-1   -3.630068054582531E-1
 9.937821915500000E9     4.599715572846703E-1   -1.404112073091097E-1   -4.801475327816889E-3   -4.726484126780023E-3   -4.961174288837688E-3   -4.763710747605478E-3    3.256551544293065E-1   -3.631253415053849E-1
 9.937822867000000E9     4.599891692250934E-1   -1.402907843603272E-1   -4.829953614693693E-3   -4.786851417241149E-3   -5.027516511457324E-3   -4.791209258616077E-3    3.253358837789307E-1   -3.635848668167213E-1
 9.937823818500000E9     4.598667072879573E-1   -1.405537075438822E-1   -4.892701956053890E-3   -4.789109444014151E-3   -5.102482511249406E-3   -4.811966951984166E-3    3.245446189376333E-1   -3.638932309078033E-1
 9.937824770000000E9     4.597932645144109E-1   -1.405811119490292E-1   -4.961692385139822E-3   -4.841344557115059E-3   -5.101757717030049E-3   -4.893948575466726E-3    3.241477899189673E-1   -3.641431351267579E-1
 9.937825721500000E9     4.599501592857638E-1   -1.406404252375943E-1   -4.955592356987839E-3   -4.882072988639752E-3   -5.170241813262907E-3   -4.916728991630244E-3    3.236391709574220E-1   -3.645258065351361E-1
 9.937826673000000E9     4.599053471074775E-1   -1.406411390565225E-1   -5.111728364696679E-3   -4.932971690203703E-3   -5.253211738271925E-3   -4.924362020732666E-3    3.231036651722175E-1   -3.646142723428867E-1
 9.937827624500000E9     4.597708030448076E-1   -1.407461481219292E-1   -5.124199745200004E-3   -4.980039342724164E-3   -5.273333239841632E-3   -5.008054167474201E-3    3.224984608852401E-1   -3.649232497299044E-1
 9.937828576000000E9     4.598614401862537E-1   -1.407657514882081E-1   -5.154010485506347E-3   -5.000124000342317E-3   -5.331489149609903E-3   -5.027009328235211E-3    3.218507866988199E-1   -3.653196313774527E-1
 9.937829527500000E9     4.597119682026921E-1   -1.408427831374343E-1   -5.229237324697186E-3   -5.011614293581733E-3   -5.414970867305211E-3   -5.063234988441113E-3    3.211605470555660E-1   -3.655408652119182E-1
 9.937830479000000E9     4.597720375385162E-1   -1.410044230785250E-1   -5.341565984828208E-3   -5.064315403438453E-3   -5.507663901876442E-3   -5.177881590641191E-3    3.206729206147252E-1   -3.659772832311346E-1
 9.937831430500000E9     4.597081196216087E-1   -1.411527759670949E-1   -5.355066523971834E-3   -5.123865543016185E-3   -5.559654893028030E-3   -5.157147793637193E-3    3.201201285737753E-1   -3.663450350733611E-1
 9.937832382000000E9     4.597245432257231E-1   -1.410953396515892E-1   -5.407953741360674E-3   -5.168399674319544E-3   -5.641611802365399E-3   -5.210036487152135E-3    3.195011073101751E-1   -3.664934434724424E-1
 9.937833333500000E9     4.596451081576241E-1   -1.410040454797548E-1   -5.467020066894945E-3   -5.201641193944682E-3   -5.679764987832688E-3   -5.247760536852618E-3    3.189430931400559E-1   -3.669102676687426E-1
 9.937834285000000E9     4.595309216178393E-1   -1.411534367314883E-1   -5.553753486716142E-3   -5.307773166915396E-3   -5.758498165912253E-3   -5.294027583150350E-3    3.181561347274272E-1   -3.672300981528618E-1
 9.937835236500000E9     4.595100953090304E-1   -1.413767720646328E-1   -5.595768822870602E-3   -5.302898088388786E-3   -5.846359532135591E-3   -5.311160108852242E-3    3.176906515462336E-1   -3.674324059548333E-1
 9.937836188000000E9     4.596454488756467E-1   -1.412960496429594E-1   -5.662610064099878E-3   -5.363091065821137E-3   -5.886343915361104E-3   -5.377783691251228E-3    3.170749511195192E-1   -3.679515513412064E-1
 9.937837139500000E9     4.595197295899908E-1   -1.414273042532506E-1   -5.749064755947148E-3   -5.409361696833304E-3   -5.939270924934067E-3   -5.401352337600406E-3    3.163633263153588E-1   -3.681836750647243E-1
 9.937838091000000E9     4.594985194878398E-1   -1.414891507898427E-1   -5.793904826427953E-3   -5.435568533712417E-3   -6.018833875864110E-3   -5.471466746232562E-3    3.155134135393786E-1   -3.683586308174747E-1
 9.937839042500000E9     4.595701795671767E-1   -1.415014034874101E-1   -5.916594918583906E-3   -5.504653354613875E-3   -6.101406771379134E-3   -5.530232360591628E-3    3.149726930971640E-1   -3.687886931701592E-1
 9.937839994000000E9     4.593841509333387E-1   -1.416834114279179E-1   -5.967212763181105E-3   -5.543035512969205E-3   -6.184583547451110E-3   -5.532720989138982E-3    3.142815966398547E-1   -3.691675501783918E-1
 9.937840945500000E9     4.593829990778134E-1   -1.416701887615539E-1   -6.034172007179340E-3   -5.587831448956144E-3   -6.262108635039614E-3   -5.621657263223252E-3    3.136354238532084E-1   -3.694533910163958E-1
 9.937841897000000E9     4.594589273175111E-1   -1.417209523039018E-1   -6.121240995935494E-3   -5.630391391172697E-3   -6.343146472719385E-3   -5.655355311471817E-3    3.129077586784602E-1   -3.698330457881572E-1
