#  HZ   S   RI   R     50.00 
! Rohde & Schwarz Vector Network Analyzer 
! Rohde-Schwarz,ZNB20-2Port,1311601062101988,3.16
! Created: UTC 3/20/2024, 10:53:10 PM
! freq[Hz]                re:S11                  im:S11                  re:S21                  im:S21                  re:S12                  im:S12                  re:S22                  im:S22
 9.937756071000000E9     4.619138319870617E-1   -1.357853787344621E-1   -2.580615329092454E-3   -2.917952455340022E-3   -2.676903048756071E-3   -2.901562279661431E-3    3.490209852772330E-1   -3.482229182692721E-1
 9.937757022500000E9     4.618547706578061E-1   -1.358253780646826E-1   -2.611739510707022E-3   -2.955266644707254E-3   -2.719160335555192E-3   -2.951764881753365E-3    3.488326722708259E-1   -3.484201399023185E-1
 9.937757974000000E9     4.618300577019058E-1   -1.357628858928459E-1   -2.629899928368866E-3   -2.938543767756784E-3   -2.704127173723804E-3   -2.956242100175265E-3    3.484375493815548E-1   -3.488947092622091E-1
 9.937758925500000E9     4.617385330241642E-1   -1.358530498177953E-1   -2.619933448014765E-3   -2.948989423276878E-3   -2.748690286883390E-3   -2.968823496463754E-3    3.485707329687821E-1   -3.488040654557429E-1
 9.937759877000000E9     4.617754654861954E-1   -1.359328431881287E-1   -2.681570968915770E-3   -2.981987309091623E-3   -2.747600840147608E-3   -3.007368873015664E-3    3.481183380505783E-1   -3.490954022350467E-1
 9.937760828500000E9     4.615908017247940E-1   -1.360443260973747E-1   -2.703511257116727E-3   -2.986143378370425E-3   -2.783141935726008E-3   -3.020022907287215E-3    3.479081843856562E-1   -3.491513538219168E-1
 9.937761780000000E9     4.617397917103752E-1   -1.360444145819550E-1   -2.677999296729894E-3   -3.006700160875708E-3   -2.801585197789226E-3   -3.022259196478495E-3    3.476836232445270E-1   -3.493852368157119E-1
 9.937762731500000E9     4.616140114752152E-1   -1.360736293893397E-1   -2.743269497143513E-3   -3.033596930408871E-3   -2.831723537343071E-3   -3.030377492256034E-3    3.473411306681015E-1   -3.498409452718393E-1
 9.937763683000000E9     4.615309566830748E-1   -1.362803095407809E-1   -2.750173851381882E-3   -3.022224032562649E-3   -2.844912554512182E-3   -3.092478813795118E-3    3.473699264994988E-1   -3.496145006298497E-1
 9.937764634500000E9     4.615024571620787E-1   -1.364622164289352E-1   -2.771575687849069E-3   -3.077126936741627E-3   -2.864277740987903E-3   -3.085602475913927E-3    3.468733501180124E-1   -3.499109677458628E-1
 9.937765586000000E9     4.615291736801388E-1   -1.363440356757769E-1   -2.796960768543114E-3   -3.091241746675394E-3   -2.909407871612532E-3   -3.123868746740167E-3    3.465986034731076E-1   -3.502049427365128E-1
 9.937766537500000E9     4.614700629204251E-1   -1.363960124047156E-1   -2.809260654311670E-3   -3.147550647377052E-3   -2.916630753909950E-3   -3.155722668606890E-3    3.464198725593151E-1   -3.501785374034949E-1
 9.937767489000000E9     4.615326681050606E-1   -1.365166884635026E-1   -2.833114071802194E-3   -3.165902661901352E-3   -2.949726717623089E-3   -3.167923291759588E-3    3.462509399758246E-1   -3.505067753345854E-1
 9.937768440500000E9     4.615383692540351E-1   -1.365650599140805E-1   -2.858003190955472E-3   -3.190983447914370E-3   -2.983788914426493E-3   -3.191220486691476E-3    3.457544148597560E-1   -3.504784768160079E-1
 9.937769392000000E9     4.613388487776495E-1   -1.366251075485457E-1   -2.917693175670576E-3   -3.195416971038144E-3   -3.009568601760293E-3   -3.219667788403680E-3    3.456779559961023E-1   -3.509235924741773E-1
 9.937770343500000E9     4.613972128014444E-1   -1.368426962615667E-1   -2.917010502478556E-3   -3.192694264826766E-3   -3.011854077015205E-3   -3.226726842048618E-3    3.453714169930765E-1   -3.510606221557753E-1
 9.937771295000000E9     4.613682331686645E-1   -1.367401638352206E-1   -2.918952334877227E-3   -3.233064040942367E-3   -3.074483965453869E-3   -3.264748709521947E-3    3.450823892338526E-1   -3.511890595995087E-1
 9.937772246500000E9     4.613934354372504E-1   -1.369180028473143E-1   -2.966331482256536E-3   -3.239568693483084E-3   -3.055430650966018E-3   -3.292477355002965E-3    3.446806761845198E-1   -3.514543340438774E-1
 9.937773198000000E9     4.613313973180187E-1   -1.368912246054673E-1   -3.006574690544046E-3   -3.293959776878360E-3   -3.107208480918428E-3   -3.290380765549597E-3    3.443855266326823E-1   -3.517870694764963E-1
 9.937774149500000E9     4.613039918794221E-1   -1.371188512456597E-1   -2.996492052612499E-3   -3.278376264965368E-3   -3.130310649797335E-3   -3.314659069675701E-3    3.443584285664703E-1   -3.517769167232526E-1
 9.937775101000000E9     4.612113439692818E-1   -1.370722469972553E-1   -3.070750096833308E-3   -3.316191511086143E-3   -3.143468922535583E-3   -3.333339177202898E-3    3.438841269063929E-1   -3.520027051855192E-1
 9.937776052500000E9     4.611770093104532E-1   -1.372465440413811E-1   -3.060281502128890E-3   -3.337574577589134E-3   -3.189485917778817E-3   -3.391335876950531E-3    3.434787187274553E-1   -3.522320275606074E-1
 9.937777004000000E9     4.612717842685782E-1   -1.370634329699200E-1   -3.079077194522861E-3   -3.361560042268658E-3   -3.185218801634448E-3   -3.376394776231445E-3    3.433614205019669E-1   -3.525289718610898E-1
 9.937777955500000E9     4.613093986870054E-1   -1.372839296364372E-1   -3.105773216991178E-3   -3.423846594484796E-3   -3.214693820730290E-3   -3.413284584592190E-3    3.430847764254171E-1   -3.527495914589550E-1
 9.937778907000000E9     4.612267793879027E-1   -1.372842015091332E-1   -3.148904452281592E-3   -3.418992651099277E-3   -3.290474886808140E-3   -3.410428530089218E-3    3.427474565074435E-1   -3.527601813371256E-1
 9.937779858500000E9     4.611249337193693E-1   -1.375295976753723E-1   -3.181125042575433E-3   -3.439186331160710E-3   -3.295463458812257E-3   -3.452126354784389E-3    3.424159548253509E-1   -3.530583912315022E-1
 9.937780810000000E9     4.610842199512831E-1   -1.374489790098112E-1   -3.246284543584907E-3   -3.442940565805571E-3   -3.334414884974718E-3   -3.496585325592217E-3    3.420760325502387E-1   -3.530660619508810E-1
 9.937781761500000E9     4.611107174288721E-1   -1.375697980609791E-1   -3.252761434137283E-3   -3.470231341244320E-3   -3.383503333479337E-3   -3.510855344425066E-3    3.418938902683579E-1   -3.535959804132603E-1
 9.937782713000000E9     4.610296927283509E-1   -1.375047191418388E-1   -3.255405009892149E-3   -3.516641177222923E-3   -3.370037428339496E-3   -3.560645830489420E-3    3.415894354361630E-1   -3.535622496677299E-1
 9.937783664500000E9     4.609719573955999E-1   -1.375736575182333E-1   -3.306588456923544E-3   -3.516686770108475E-3   -3.393676408745833E-3   -3.546757788792576E-3    3.411058930620907E-1   -3.538688378340188E-1
 9.937784616000000E9     4.609667147106314E-1   -1.378953474040731E-1   -3.342026132871401E-3   -3.520339353034077E-3   -3.446453253486379E-3   -3.580588123490604E-3    3.408928127144917E-1   -3.538953557689863E-1
 9.937785567500000E9     4.611081022130618E-1   -1.378446388629045E-1   -3.378598775494174E-3   -3.589023650245015E-3   -3.506516655617720E-3   -3.607985782389079E-3    3.405640648334478E-1   -3.543116850276858E-1
 9.937786519000000E9     4.609758969310578E-1   -1.377745495837776E-1   -3.376265032555989E-3   -3.610022723260993E-3   -3.503941075311213E-3   -3.621049467832751E-3    3.400312681955973E-1   -3.543548861361636E-1
 9.937787470500000E9     4.610440076791630E-1   -1.379879240959640E-1   -3.449792814847268E-3   -3.639108343247111E-3   -3.543040359234902E-3   -3.648102437925732E-3    3.400121170868519E-1   -3.547508817379404E-1
 9.937788422000000E9     4.609213512177679E-1   -1.380279352300766E-1   -3.447812669228801E-3   -3.661881312909579E-3   -3.549296491170713E-3   -3.657463056718679E-3    3.393457414462274E-1   -3.550219489850985E-1
 9.937789373500000E9     4.609254445693922E-1   -1.381252367214695E-1   -3.477550739381370E-3   -3.710638615497672E-3   -3.588478995323962E-3   -3.711192650789019E-3    3.390984907110920E-1   -3.551811727419176E-1
 9.937790325000000E9     4.608560081002245E-1   -1.382563061331696E-1   -3.506134395311943E-3   -3.703908350185451E-3   -3.652201233909322E-3   -3.747815328726856E-3    3.387092562887899E-1   -3.552281422113103E-1
 9.937791276500000E9     4.608700811977419E-1   -1.382324329803440E-1   -3.550746563856952E-3   -3.695769454382802E-3   -3.689748986462224E-3   -3.769444771964256E-3    3.384930020178873E-1   -3.556780042539145E-1
 9.937792228000000E9     4.608580546908917E-1   -1.383622642010253E-1   -3.575841980186053E-3   -3.813157714909117E-3   -3.698192381767158E-3   -3.810594506527484E-3    3.383450535458533E-1   -3.558494694394608E-1
 9.937793179500000E9     4.608465581472652E-1   -1.383704279122256E-1   -3.591185188299963E-3   -3.833186566547504E-3   -3.747479377676831E-3   -3.841252993792801E-3    3.376598155061911E-1   -3.560688763352675E-1
 9.937794131000000E9     4.607340378384860E-1   -1.383496609200294E-1   -3.647252249366031E-3   -3.815305703105794E-3   -3.771583397521822E-3   -3.873899381336397E-3    3.372794403871699E-1   -3.563080653857748E-1
 9.937795082500000E9     4.606766019599291E-1   -1.383497600414257E-1   -3.660323825011145E-3   -3.889592067423865E-3   -3.795055066672361E-3   -3.902707441317953E-3    3.370974783250408E-1   -3.568221695142959E-1
 9.937796034000000E9     4.606807338486962E-1   -1.385558333360560E-1   -3.713729746031311E-3   -3.922139424932869E-3   -3.832473181292917E-3   -3.891838660584717E-3    3.367873827699595E-1   -3.567596156803605E-1
 9.937796985500000E9     4.606499983594333E-1   -1.386565832602497E-1   -3.760977657435631E-3   -3.901925324062422E-3   -3.894497535609563E-3   -3.934687676001007E-3    3.361790895200271E-1   -3.568462706860355E-1
 9.937797937000000E9     4.606211478303357E-1   -1.386883542866381E-1   -3.786716588491454E-3   -3.912205985539627E-3   -3.908156987006499E-3   -3.974211373822505E-3    3.359961202987213E-1   -3.571294228133619E-1
 9.937798888500000E9     4.606152206266597E-1   -1.386885846274047E-1   -3.803014843946064E-3   -3.997624753662290E-3   -3.987275007105993E-3   -3.980650228407224E-3    3.356446122528181E-1   -3.574467300777994E-1
 9.937799840000000E9     4.605100514307778E-1   -1.387194916446861E-1   -3.843329947961963E-3   -4.025703229725219E-3   -3.984042017208140E-3   -4.021121739090937E-3    3.351254684724157E-1   -3.577811387907061E-1
 9.937800791500000E9     4.605438966893999E-1   -1.388336594671545E-1   -3.880209866997610E-3   -4.067395234373716E-3   -4.048704722005366E-3   -4.035656062555596E-3    3.348273921288711E-1   -3.579418396170122E-1
 9.937801743000000E9     4.604820379665250E-1   -1.389517933725551E-1   -3.971543968185005E-3   -4.057428311796903E-3   -4.082129942249993E-3   -4.076392474407215E-3    3.344727552904204E-1   -3.580370024087463E-1
 9.937802694500000E9     4.603327759891219E-1   -1.391363088408289E-1   -3.959937818098785E-3   -4.070335689097017E-3   -4.125767528317585E-3   -4.139204971777299E-3    3.341339630366366E-1   -3.582505401726177E-1
 9.937803646000000E9     4.604564754171001E-1   -1.390651908018098E-1   -4.003882732283214E-3   -4.131297142589196E-3   -4.130364423936069E-3   -4.130498939309340E-3    3.333737694303507E-1   -3.587434237042728E-1
 9.937804597500000E9     4.604574617039033E-1   -1.391939670201630E-1   -4.035398031022132E-3   -4.182405176622354E-3   -4.192257047645882E-3   -4.196448215719398E-3    3.331426948604126E-1   -3.589621487335176E-1
 9.937805549000000E9     4.604197185684361E-1   -1.392695522879027E-1   -4.107068556417991E-3   -4.197136225549303E-3   -4.258987870757733E-3   -4.250713878240303E-3    3.329268711118958E-1   -3.591729776444112E-1
 9.937806500500000E9     4.604212919223217E-1   -1.394248101141049E-1   -4.126071924466876E-3   -4.230155779721319E-3   -4.277157756535551E-3   -4.249409142497666E-3    3.323084796740720E-1   -3.592775354443457E-1
 9.937807452000000E9     4.603799539437884E-1   -1.394488049546206E-1   -4.174731562096699E-3   -4.268522503595510E-3   -4.331904416812925E-3   -4.281022243733904E-3    3.319140069369768E-1   -3.596354140332040E-1
 9.937808403500000E9     4.603245439564835E-1   -1.393790698490112E-1   -4.219740823676934E-3   -4.278716748793553E-3   -4.364272482457452E-3   -4.324990532403311E-3    3.316464745514527E-1   -3.599333387722805E-1
 9.937809355000000E9     4.603102666804473E-1   -1.395090025582314E-1   -4.224158041296649E-3   -4.328354881127015E-3   -4.420486655841017E-3   -4.343280304290496E-3    3.309879854071680E-1   -3.600806604307976E-1
 9.937810306500000E9     4.602569795835759E-1   -1.395402947050242E-1   -4.288343993875922E-3   -4.354335477501725E-3   -4.457613165747198E-3   -4.375970476035952E-3    3.306586797129202E-1   -3.604701192518066E-1
 9.937811258000000E9     4.602710025349794E-1   -1.397177774506098E-1   -4.367148324101823E-3   -4.407421938649033E-3   -4.473830345465564E-3   -4.385560705349305E-3    3.302057534254299E-1   -3.606248947255847E-1
 9.937812209500000E9     4.602558477791355E-1   -1.398330719866475E-1   -4.388357376963668E-3   -4.443262954767947E-3   -4.588424138980988E-3   -4.478048356777820E-3    3.296602583510056E-1   -3.610758753341601E-1
 9.937813161000000E9     4.601476421232027E-1   -1.398975087353993E-1   -4.436287216016823E-3   -4.476816809216392E-3   -4.623571961575126E-3   -4.487359360744159E-3    3.291861225085689E-1   -3.611019432010117E-1
 9.937814112500000E9     4.601667327794005E-1   -1.398877129839904E-1   -4.486313154575688E-3   -4.506977371530722E-3   -4.623420920696797E-3   -4.480841306545138E-3    3.289232476691656E-1   -3.615736935557996E-1
 9.937815064000000E9     4.601619163355620E-1   -1.397931627998557E-1   -4.533675489228729E-3   -4.530798679570771E-3   -4.704235903078539E-3   -4.580141048384233E-3    3.283218389826778E-1   -3.617778190695872E-1
 9.937816015500000E9     4.600185943421266E-1   -1.399797003184953E-1   -4.574860986396352E-3   -4.564432547593950E-3   -4.731178369196914E-3   -4.588541776401808E-3    3.279097773830223E-1   -3.619608775813618E-1
 9.937816967000000E9     4.601790928478244E-1   -1.399710428703062E-1   -4.639110592495934E-3   -4.636627968958823E-3   -4.824709802516099E-3   -4.634384160190737E-3    3.273823268056399E-1   -3.623595860087575E-1
 9.937817918500000E9     4.601395635027042E-1   -1.400197509155926E-1   -4.640217118452356E-3   -4.663027477534722E-3   -4.849498649934798E-3   -4.653920717004228E-3    3.269943986266576E-1   -3.625810637999515E-1
 9.937818870000000E9     4.599969323701254E-1   -1.401901592802782E-1   -4.733221985300092E-3   -4.716184514541297E-3   -4.879593753947200E-3   -4.715079934946482E-3    3.264127567429000E-1   -3.627560678238043E-1
 9.937819821500000E9     4.598675519903488E-1   -1.401794381460897E-1   -4.761478419822334E-3   -4.731087949668886E-3   -4.962948991656454E-3   -4.745591103120709E-3    3.258828312300247E-1   -3.632433277254808E-1
 9.937820773000000E9     4.600534059921306E-1   -1.401548482389833E-1   -4.816811345015812E-3   -4.736679649171801E-3   -4.988374515522472E-3   -4.777411823255995E-3    3.254538777281383E-1   -3.634937528758027E-1
 9.937821724500000E9     4.598941777108384E-1   -1.403312301297040E-1   -4.877504558378622E-3   -4.783312508192560E-3   -5.073113004549998E-3   -4.815935463918754E-3    3.247316070517836E-1   -3.638336898911241E-1
 9.937822676000000E9     4.598868256368357E-1   -1.404707260380328E-1   -4.918478764882954E-3   -4.835452146423475E-3   -5.137454747471991E-3   -4.901402281685812E-3    3.241282194962238E-1   -3.641650449215213E-1
 9.937823627500000E9     4.599406504922079E-1   -1.405214586531894E-1   -4.975242120158123E-3   -4.874350543751571E-3   -5.168850320100066E-3   -4.920193897352165E-3    3.234659401328621E-1   -3.642031401381833E-1
 9.937824579000000E9     4.598777707365979E-1   -1.406536028826002E-1   -5.044979577697901E-3   -4.894362299230885E-3   -5.249707909362199E-3   -4.938772098813419E-3    3.230791411836409E-1   -3.647571344911305E-1
 9.937825530500000E9     4.598796566415972E-1   -1.407134143632172E-1   -5.070651200978818E-3   -4.948374852663694E-3   -5.299328202027093E-3   -4.992390582606395E-3    3.226157342294160E-1   -3.650087540787761E-1
 9.937826482000000E9     4.599674514199349E-1   -1.407203386358002E-1   -5.183181566412956E-3   -4.947863585154450E-3   -5.364288760964164E-3   -5.005801003245550E-3    3.219572154304444E-1   -3.651837076617170E-1
 9.937827433500000E9     4.597921596280017E-1   -1.407400236686195E-1   -5.212576400019630E-3   -5.031357836112883E-3   -5.413768405733618E-3   -5.058073660589044E-3    3.214064812107252E-1   -3.657424005302757E-1
 9.937828385000000E9     4.597307202523506E-1   -1.409192317678741E-1   -5.306299840742249E-3   -5.071300038994358E-3   -5.500560217367329E-3   -5.091163175315128E-3    3.208225055464288E-1   -3.657752193000841E-1
 9.937829336500000E9     4.597758176315990E-1   -1.408846459762297E-1   -5.330573644583367E-3   -5.122278066454421E-3   -5.514166608916527E-3   -5.142901415810999E-3    3.203391081626290E-1   -3.660238628354455E-1
 9.937830288000000E9     4.596071358501490E-1   -1.410019322217944E-1   -5.390297200187908E-3   -5.166126512657468E-3   -5.596264526161756E-3   -5.188713756814993E-3    3.196161147254448E-1   -3.663778328479116E-1
 9.937831239500000E9     4.596260958856730E-1   -1.409320461668497E-1   -5.477357197963260E-3   -5.202217831192212E-3   -5.658693474985591E-3   -5.241951525539444E-3    3.192410875504167E-1   -3.667604029982239E-1
 9.937832191000000E9     4.596961158570735E-1   -1.410841257730231E-1   -5.506906282795244E-3   -5.237583204838599E-3   -5.707231291292548E-3   -5.283465516992480E-3    3.185839404873601E-1   -3.671723761309447E-1
 9.937833142500000E9     4.596125089935394E-1   -1.411449626134621E-1   -5.574589437050427E-3   -5.309132048669321E-3   -5.776427596460353E-3   -5.373996006194974E-3    3.178959963613909E-1   -3.674312461030167E-1
 9.937834094000000E9     4.596488017820823E-1   -1.413382639391998E-1   -5.628212853733599E-3   -5.341590519878109E-3   -5.873961879009982E-3   -5.397107574605049E-3    3.169964734519350E-1   -3.676773710054859E-1
 9.937835045500000E9     4.596142083446579E-1   -1.413244058551801E-1   -5.716035818719730E-3   -5.379136570219530E-3   -5.941718858253882E-3   -5.436885715007235E-3    3.166451664170155E-1   -3.681015098891286E-1
 9.937835997000000E9     4.595065539783931E-1   -1.413658587476902E-1   -5.782991517105312E-3   -5.434053289869411E-3   -6.001137568478387E-3   -5.465291800941897E-3    3.157717619875618E-1   -3.685880110564513E-1
 9.937836948500000E9     4.594783823957550E-1   -1.413800299384689E-1   -5.842138543384848E-3   -5.484766569246446E-3   -6.082120269580362E-3   -5.497381536934751E-3    3.149952428135828E-1   -3.688237121733313E-1
 9.937837900000000E9     4.595120665506967E-1   -1.415412789616474E-1   -5.914287701208187E-3   -5.533743793495730E-3   -6.156112329019464E-3   -5.566275014615581E-3    3.144093498141514E-1   -3.688507052016081E-1
 9.937838851500000E9     4.594758376200582E-1   -1.416153656967954E-1   -6.008747363477707E-3   -5.621919874113423E-3   -6.248912626469794E-3   -5.638880871808877E-3    3.138331259597577E-1   -3.691877254597124E-1
 9.937839803000000E9     4.593948533163224E-1   -1.415898258084062E-1   -6.083072872849252E-3   -5.646411545041654E-3   -6.316380484847487E-3   -5.671727531568476E-3    3.131946130759637E-1   -3.697372442277339E-1
 9.937840754500000E9     4.594381396935639E-1   -1.417505681227334E-1   -6.164042337678264E-3   -5.677467975674590E-3   -6.411328168211826E-3   -5.699891084868284E-3    3.124683817204840E-1   -3.700622240141082E-1
 9.937841706000000E9     4.593048953518979E-1   -1.417985427014995E-1   -6.228508590432617E-3   -5.752073483320812E-3   -6.447064412453948E-3   -5.767823034364153E-3    3.113435818759637E-1   -3.703039202822671E-1
