#  HZ   S   RI   R     50.00 
! Rohde & Schwarz Vector Network Analyzer 
! Rohde-Schwarz,ZNB20-2Port,1311601062101988,3.16
! Created: UTC 3/20/2024, 11:03:48 PM
! freq[Hz]                re:S11                  im:S11                  re:S21                  im:S21                  re:S12                  im:S12                  re:S22                  im:S22
 9.937138116000000E9     4.745540098932982E-1   -9.644475161000871E-2   -3.762625797917616E-4   -3.606755297689977E-4   -3.705221039272425E-4   -3.502610141273633E-4    3.929456639678990E-1   -3.005775787701822E-1
 9.937140565575001E9     4.744497357591199E-1   -9.660221125502694E-2   -3.739594201913889E-4   -3.705309943517096E-4   -3.506495321705740E-4   -3.408777290152965E-4    3.926974442064290E-1   -3.008963896707808E-1
 9.937143015150000E9     4.743513685965953E-1   -9.675349835300937E-2   -3.866610667484074E-4   -3.677610005777265E-4   -3.891164494862787E-4   -3.294790487831495E-4    3.926003932525920E-1   -3.010948293988520E-1
 9.937145464725000E9     4.743238074703602E-1   -9.696610802510880E-2   -3.773609979574347E-4   -3.518634776893052E-4   -3.804674162185102E-4   -3.609992597164129E-4    3.926249308420335E-1   -3.012523030228860E-1
 9.937147914299999E9     4.743770736316382E-1   -9.712034303781418E-2   -4.009893914972967E-4   -4.270853461056329E-4   -4.078050935128589E-4   -3.968606063240168E-4    3.921424606903151E-1   -3.014859350185201E-1
 9.937150363875000E9     4.742225522313521E-1   -9.722362064015683E-2   -3.998647485550121E-4   -4.024018753643320E-4   -4.141790673220001E-4   -4.002512277699556E-4    3.920435370179340E-1   -3.016387455279290E-1
 9.937152813450001E9     4.742876381275490E-1   -9.745916767552776E-2   -4.081262513041527E-4   -4.060276083381152E-4   -4.145721556737939E-4   -4.087332378352546E-4    3.918509509031807E-1   -3.016724925829824E-1
 9.937155263025000E9     4.741032291269032E-1   -9.755188172103227E-2   -3.980069019256773E-4   -4.164305076208984E-4   -4.194853681020087E-4   -3.810181641354531E-4    3.918389922276551E-1   -3.019195189747179E-1
 9.937157712600000E9     4.741355337031165E-1   -9.784240267683694E-2   -4.599991247327250E-4   -4.290335990677088E-4   -4.431099779907779E-4   -3.869955796335535E-4    3.914162095882301E-1   -3.021715087315460E-1
 9.937160162174999E9     4.739973464186949E-1   -9.795641202297625E-2   -4.496720003106246E-4   -4.226556173824648E-4   -4.380354933891013E-4   -4.203492836847947E-4    3.914497999829633E-1   -3.023787561731899E-1
 9.937162611750000E9     4.738487089715860E-1   -9.825254747713882E-2   -4.460728852059375E-4   -3.988647140719802E-4   -4.795146384412978E-4   -4.141924992181286E-4    3.912657691720714E-1   -3.026950672786049E-1
 9.937165061325001E9     4.738306527360868E-1   -9.829025948007666E-2   -4.460797252785915E-4   -4.670794028957771E-4   -4.606075015387690E-4   -4.251330743054588E-4    3.910623007775728E-1   -3.026186589636758E-1
 9.937167510900000E9     4.739427538817020E-1   -9.851643193317677E-2   -4.719799247319769E-4   -4.393589103248593E-4   -4.766172795280317E-4   -4.313050472993959E-4    3.906465821838542E-1   -3.028709489039924E-1
 9.937169960475000E9     4.738753861084315E-1   -9.859608371405983E-2   -4.949185625995276E-4   -4.627200617450452E-4   -4.560720014196199E-4   -4.619639107625462E-4    3.907524282189255E-1   -3.029716268462013E-1
 9.937172410049999E9     4.740118142847839E-1   -9.867608287068122E-2   -4.729419157444388E-4   -4.471965269896471E-4   -4.740196032067554E-4   -4.811657632493648E-4    3.904762111464319E-1   -3.031776448288739E-1
 9.937174859625000E9     4.737982852435557E-1   -9.890276898710249E-2   -5.005716217000869E-4   -4.732424605322059E-4   -4.884080999277748E-4   -5.158226091510897E-4    3.902413638949667E-1   -3.035563033584568E-1
 9.937177309200001E9     4.736933956723560E-1   -9.917915073671439E-2   -4.932952665035985E-4   -4.970723826800084E-4   -5.106146035980164E-4   -5.006416001083492E-4    3.900668431991197E-1   -3.036897398444957E-1
 9.937179758775000E9     4.735873983020457E-1   -9.942462978107150E-2   -5.154365326128541E-4   -4.815384386694006E-4   -5.021995238438116E-4   -4.923115733642328E-4    3.899123572347923E-1   -3.038189866061679E-1
 9.937182208350000E9     4.734787789715487E-1   -9.939718927256000E-2   -5.192853072732806E-4   -4.977568128637293E-4   -5.579217332482759E-4   -4.771276692117636E-4    3.895122933666060E-1   -3.041054931780957E-1
 9.937184657924999E9     4.736048256336097E-1   -9.963181184090447E-2   -5.161121185619336E-4   -5.016073040124922E-4   -5.389231061965645E-4   -5.079533035534418E-4    3.895072215118937E-1   -3.042569775276286E-1
 9.937187107500000E9     4.735622281962034E-1   -9.978784701249536E-2   -5.651688562448975E-4   -5.165531155531850E-4   -5.478671068815768E-4   -4.877014591117463E-4    3.892344378462931E-1   -3.047259888296266E-1
 9.937189557075001E9     4.735390693129450E-1   -9.989455504249836E-2   -5.420395474120508E-4   -5.664676276248564E-4   -5.612331383172419E-4   -5.231612418468238E-4    3.890399987740664E-1   -3.045593730319224E-1
 9.937192006650000E9     4.733774544409096E-1   -1.001298959687632E-1   -5.580211576739119E-4   -5.471556023172261E-4   -5.553847415314103E-4   -5.366948292503639E-4    3.889211721601172E-1   -3.048384943452029E-1
 9.937194456225000E9     4.733986425251867E-1   -1.001336921873990E-1   -5.796316961583904E-4   -5.706856819557511E-4   -5.400162604246479E-4   -5.468424909324526E-4    3.885866485378244E-1   -3.050951392136559E-1
 9.937196905799999E9     4.733579462059045E-1   -1.003946669175528E-1   -5.836592919730021E-4   -5.736795440228156E-4   -5.813849753548687E-4   -5.549100762184912E-4    3.884206107408900E-1   -3.050222409476284E-1
 9.937199355375000E9     4.733569463233471E-1   -1.006589011074714E-1   -5.616379684585148E-4   -5.577098394674326E-4   -5.670606500418730E-4   -5.847191955660808E-4    3.883837228891361E-1   -3.052425335597248E-1
 9.937201804950001E9     4.732981614048785E-1   -1.007341228547704E-1   -5.837997538544992E-4   -6.049541947697953E-4   -6.092303395663186E-4   -5.615925378010333E-4    3.882356288831250E-1   -3.056272794117629E-1
 9.937204254525000E9     4.731692437287626E-1   -1.009619929884157E-1   -5.872709067465705E-4   -5.930888936680795E-4   -6.298960274868772E-4   -6.210616864351790E-4    3.879199482144960E-1   -3.059695806196929E-1
 9.937206704100000E9     4.731218341115937E-1   -1.011776055215871E-1   -6.324989373901152E-4   -6.342819215757394E-4   -6.120531075545323E-4   -5.991631275636578E-4    3.875167804836263E-1   -3.058758238371368E-1
 9.937209153674999E9     4.730585841752254E-1   -1.012621227502178E-1   -6.186724072033313E-4   -5.918474805108049E-4   -6.164269405994580E-4   -5.873724675440195E-4    3.873405295674248E-1   -3.061862556979926E-1
 9.937211603250000E9     4.730484157797009E-1   -1.015352167208833E-1   -6.353064522569862E-4   -6.057478013629878E-4   -6.577331322240429E-4   -6.224014059647481E-4    3.873344638759419E-1   -3.062142869094210E-1
 9.937214052825001E9     4.729988596922468E-1   -1.015886556685268E-1   -6.343755331230812E-4   -6.496265709118943E-4   -6.339233380044131E-4   -6.580642904614023E-4    3.871487492913838E-1   -3.064163300118408E-1
 9.937216502400000E9     4.728446145101862E-1   -1.018660313034059E-1   -6.823726851394549E-4   -6.375028279047378E-4   -6.577144288073436E-4   -6.533638873396087E-4    3.869308710291186E-1   -3.067458810337787E-1
 9.937218951975000E9     4.729932628918770E-1   -1.020540172149179E-1   -6.341500315539759E-4   -6.771703081476537E-4   -6.896175673228110E-4   -6.954560000189524E-4    3.865103636900980E-1   -3.066964185905934E-1
 9.937221401549999E9     4.728988182429483E-1   -1.021544544773462E-1   -6.837586268452122E-4   -6.581369872175906E-4   -7.011488405642041E-4   -6.694235969786883E-4    3.864019520163172E-1   -3.070152567626976E-1
 9.937223851125000E9     4.727661467902056E-1   -1.021343834532085E-1   -7.024776123262167E-4   -6.854187940511762E-4   -7.075062417796443E-4   -6.719659905494938E-4    3.860452186801335E-1   -3.074207662225116E-1
 9.937226300700001E9     4.728105537115225E-1   -1.022485603946687E-1   -6.819433853237015E-4   -6.841495868346287E-4   -7.064300131099757E-4   -6.826195606309232E-4    3.858798512432443E-1   -3.073484135138537E-1
 9.937228750275000E9     4.726407616814088E-1   -1.025883413490516E-1   -6.979970057681981E-4   -7.000143367353412E-4   -7.659492922613654E-4   -7.116563001748848E-4    3.857683297487027E-1   -3.076723842816869E-1
 9.937231199850000E9     4.726959559360758E-1   -1.027599936709006E-1   -7.315081979921375E-4   -7.141895132926348E-4   -7.246046782856807E-4   -7.332201273312908E-4    3.854850255395830E-1   -3.077509208475204E-1
 9.937233649424999E9     4.725249116889593E-1   -1.029514282482201E-1   -7.520819706238055E-4   -7.246984572325362E-4   -7.573820890849630E-4   -7.302835966613388E-4    3.852835073903650E-1   -3.080538871995187E-1
 9.937236099000000E9     4.725720187961240E-1   -1.030802870421483E-1   -7.357746035055493E-4   -7.361397697821264E-4   -7.748916095069308E-4   -7.489822973456311E-4    3.851349960067142E-1   -3.083394108172609E-1
 9.937238548575001E9     4.725096383018264E-1   -1.032368899675088E-1   -7.744249948372793E-4   -7.492903019559616E-4   -7.704076824311126E-4   -7.611453458109262E-4    3.848913837705860E-1   -3.083967041214349E-1
 9.937240998150000E9     4.725274825359523E-1   -1.034252941495070E-1   -7.803965689335040E-4   -7.612188863325704E-4   -8.039280079197198E-4   -7.502611065133407E-4    3.846606104141402E-1   -3.086662940496235E-1
 9.937243447725000E9     4.725182145827662E-1   -1.036848558585192E-1   -7.772495176213400E-4   -7.573922688036349E-4   -7.826806340240854E-4   -7.430523819193189E-4    3.844672318604079E-1   -3.089947483706536E-1
 9.937245897299999E9     4.725391997823694E-1   -1.035920169711509E-1   -7.632641846789592E-4   -8.093123809970505E-4   -8.124556109472644E-4   -7.686816788434644E-4    3.840799104880885E-1   -3.090645966196000E-1
 9.937248346875000E9     4.724055690514343E-1   -1.039284859713339E-1   -8.030692893225758E-4   -7.758035168265858E-4   -8.476474724728435E-4   -7.901190551440385E-4    3.840005711740085E-1   -3.091944288409549E-1
 9.937250796450001E9     4.722679065768648E-1   -1.041552674419525E-1   -8.423240101516699E-4   -8.364937378159572E-4   -8.510342146665780E-4   -8.018618834440633E-4    3.836639507329673E-1   -3.094347257170573E-1
 9.937253246025000E9     4.721597197983671E-1   -1.043993778959012E-1   -8.306305471033256E-4   -8.017167121647841E-4   -8.318230047520397E-4   -8.187513465675383E-4    3.836023870125314E-1   -3.096981169557235E-1
 9.937255695600000E9     4.722301644612550E-1   -1.044748802711307E-1   -8.759046306193331E-4   -8.322783723916913E-4   -9.075687788830583E-4   -8.618373181148796E-4    3.831142361859228E-1   -3.098542151567252E-1
 9.937258145174999E9     4.721313063006665E-1   -1.046488705588924E-1   -8.444420133882176E-4   -8.428459788982905E-4   -8.953340422937616E-4   -8.544498027363404E-4    3.829448858060095E-1   -3.101090346237686E-1
 9.937260594750000E9     4.719963221573837E-1   -1.047352448852596E-1   -8.813695675018460E-4   -8.492080284867180E-4   -9.087040576668708E-4   -8.859019351258585E-4    3.827669761032539E-1   -3.101999571686884E-1
 9.937263044325001E9     4.719671828045231E-1   -1.051003343687613E-1   -8.961490123533469E-4   -8.789909049807418E-4   -9.422920127571460E-4   -8.737805541977360E-4    3.824462270809063E-1   -3.106198332990245E-1
 9.937265493900000E9     4.719987773922957E-1   -1.050946043292918E-1   -9.157123886529651E-4   -9.226271095864516E-4   -9.310529126839208E-4   -8.599074364292238E-4    3.823890323738163E-1   -3.107936166225251E-1
 9.937267943475000E9     4.719228738700562E-1   -1.050801456188231E-1   -9.633121339945727E-4   -9.204031806660353E-4   -9.695821174844486E-4   -9.061373284051004E-4    3.820288948795585E-1   -3.109428932825005E-1
 9.937270393049999E9     4.719290628613586E-1   -1.053181186448050E-1   -9.235174260518199E-4   -9.278931317934650E-4   -9.637167730467534E-4   -9.321246795233364E-4    3.816892876417216E-1   -3.111025291339330E-1
 9.937272842625000E9     4.717749383786451E-1   -1.055530417613044E-1   -9.501658993912825E-4   -9.544936287529655E-4   -1.005096654455777E-3   -9.058010694116835E-4    3.814544606221307E-1   -3.114408828103748E-1
 9.937275292200001E9     4.717902006433691E-1   -1.058615651833680E-1   -9.794237911987952E-4   -9.292859428581510E-4   -9.898445387816843E-4   -9.643593304696683E-4    3.813197685189359E-1   -3.117410699217129E-1
 9.937277741775000E9     4.717637983190389E-1   -1.059939514860259E-1   -9.921619264042589E-4   -9.438876481405219E-4   -1.068600553083360E-3   -9.536868582130129E-4    3.809649371407263E-1   -3.118179685801419E-1
 9.937280191350000E9     4.717283856727820E-1   -1.061425106774283E-1   -1.003221780764356E-3   -9.587441133159266E-4   -1.052138667206042E-3   -9.979556748564839E-4    3.806971736949800E-1   -3.119862230788835E-1
 9.937282640924999E9     4.717282874803668E-1   -1.062872190964995E-1   -1.015441606865698E-3   -9.920786818955177E-4   -1.060310514409364E-3   -9.862195144069554E-4    3.803580350579278E-1   -3.125354448425895E-1
 9.937285090500000E9     4.716118530722769E-1   -1.064690746259790E-1   -1.055776168148749E-3   -1.000153165454871E-3   -1.027730461823953E-3   -9.817353732884538E-4    3.800909678361660E-1   -3.125303128872561E-1
 9.937287540075001E9     4.714581509689112E-1   -1.066002087193151E-1   -1.025051244083982E-3   -1.030824571724464E-3   -1.091639517792276E-3   -1.027240795045454E-3    3.799500255789965E-1   -3.127374855950352E-1
 9.937289989650000E9     4.715530364270177E-1   -1.067482023272194E-1   -1.047383770471182E-3   -9.967628223901870E-4   -1.074509906185853E-3   -1.031454459699955E-3    3.795987493120840E-1   -3.128995043614678E-1
 9.937292439225000E9     4.714787583187727E-1   -1.069946781783402E-1   -1.043318831963611E-3   -1.051708596299467E-3   -1.128166403567075E-3   -1.071476187791428E-3    3.794002703773537E-1   -3.131517900526538E-1
 9.937294888799999E9     4.712751091602602E-1   -1.072110149115312E-1   -1.096904687207765E-3   -1.085465171014480E-3   -1.138653398175833E-3   -1.040297057865499E-3    3.790896691905803E-1   -3.133339131251120E-1
 9.937297338375000E9     4.713979329698135E-1   -1.072228464517657E-1   -1.163351864263569E-3   -1.067412055069757E-3   -1.153032879352217E-3   -1.085472516042704E-3    3.787646030674973E-1   -3.135937851945303E-1
 9.937299787950001E9     4.712471647344497E-1   -1.073209762349770E-1   -1.168823069167488E-3   -1.078551030717493E-3   -1.183843655706324E-3   -1.116444229048046E-3    3.784825751021802E-1   -3.138309769585895E-1
 9.937302237525000E9     4.713075144553449E-1   -1.076596719149109E-1   -1.183378616924631E-3   -1.145324869119786E-3   -1.230362212643527E-3   -1.117304779981002E-3    3.783188116315610E-1   -3.139833558744214E-1
 9.937304687100000E9     4.712740761513667E-1   -1.077324573617481E-1   -1.131913129416876E-3   -1.125258148861904E-3   -1.231170686919738E-3   -1.133464803228017E-3    3.780100639292777E-1   -3.143005185745395E-1
 9.937307136674999E9     4.711384438002087E-1   -1.078076623853800E-1   -1.225357720673923E-3   -1.164330374684224E-3   -1.216817536667535E-3   -1.135037251976357E-3    3.777871954142759E-1   -3.144880547102244E-1
 9.937309586250000E9     4.711420698136905E-1   -1.081192010352898E-1   -1.236631752928682E-3   -1.152176942653757E-3   -1.269649830335202E-3   -1.147622919741223E-3    3.775958512242324E-1   -3.146420893842108E-1
 9.937312035825001E9     4.709915461558244E-1   -1.082908789262212E-1   -1.221094268902284E-3   -1.177453437101216E-3   -1.271962914032771E-3   -1.172507366787015E-3    3.770582495699987E-1   -3.148821871061267E-1
 9.937314485400000E9     4.708755474196089E-1   -1.082861374753047E-1   -1.254051145970405E-3   -1.213501069807869E-3   -1.299748948491919E-3   -1.196491680693993E-3    3.767384846978585E-1   -3.150539433063052E-1
 9.937316934975000E9     4.710478874528722E-1   -1.086546947059604E-1   -1.287418312575245E-3   -1.213582287444831E-3   -1.298562192351713E-3   -1.194977150845227E-3    3.764639574309003E-1   -3.154992243633274E-1
 9.937319384549999E9     4.708036376674491E-1   -1.087683324216487E-1   -1.314223667890746E-3   -1.251386333967005E-3   -1.329826024259977E-3   -1.217870631670946E-3    3.761147583426712E-1   -3.155627444847517E-1
 9.937321834125000E9     4.709948396313599E-1   -1.088738666748128E-1   -1.323499694957617E-3   -1.243578359984858E-3   -1.372190466922132E-3   -1.247491170659160E-3    3.758156082384986E-1   -3.157709055769084E-1
 9.937324283700001E9     4.707180571010153E-1   -1.091706976560163E-1   -1.349129457277619E-3   -1.277568646759591E-3   -1.407819137308421E-3   -1.264871218291229E-3    3.756264790081220E-1   -3.162796751412421E-1
 9.937326733275000E9     4.707073786559993E-1   -1.091413091430360E-1   -1.366189269534819E-3   -1.268245103400916E-3   -1.412389578042887E-3   -1.261139806848559E-3    3.751592988444835E-1   -3.162724856119326E-1
 9.937329182850000E9     4.707484419787343E-1   -1.094727316410903E-1   -1.419515371621568E-3   -1.313223971747628E-3   -1.424608803843598E-3   -1.298834051737085E-3    3.749960258268253E-1   -3.164985179339921E-1
 9.937331632424999E9     4.706283481608183E-1   -1.096245211434119E-1   -1.402919450940340E-3   -1.342550024677804E-3   -1.450829716679531E-3   -1.301963888612339E-3    3.745178991669538E-1   -3.168310473322374E-1
 9.937334082000000E9     4.706482494448794E-1   -1.096551283962524E-1   -1.415631355978773E-3   -1.325638841378392E-3   -1.513516330507031E-3   -1.315023024722125E-3    3.741401444767937E-1   -3.169931388624149E-1
 9.937336531575001E9     4.704481163503079E-1   -1.098966637073286E-1   -1.477466630616196E-3   -1.328566066307432E-3   -1.485551664978536E-3   -1.356693342755167E-3    3.740608432760908E-1   -3.172645365114598E-1
 9.937338981150000E9     4.705478934394967E-1   -1.100443692846134E-1   -1.488298342704043E-3   -1.383950293246574E-3   -1.536958577599311E-3   -1.379740636967402E-3    3.736263831762546E-1   -3.175229039410187E-1
 9.937341430725000E9     4.705060999953538E-1   -1.103158272780363E-1   -1.523093442537055E-3   -1.392999567461634E-3   -1.557137372605068E-3   -1.371789383351264E-3    3.733501596407164E-1   -3.177769084782360E-1
 9.937343880299999E9     4.703185615863477E-1   -1.104567353383183E-1   -1.507672876767839E-3   -1.393296704304257E-3   -1.610936789624639E-3   -1.404349483921961E-3    3.730199132291719E-1   -3.179579127191128E-1
 9.937346329875000E9     4.703812574299240E-1   -1.105449795542385E-1   -1.550420007842775E-3   -1.426636843900301E-3   -1.619769066322552E-3   -1.442716302558992E-3    3.725245924440329E-1   -3.183059774956765E-1
 9.937348779450001E9     4.703319943546561E-1   -1.107882981040129E-1   -1.591980699319082E-3   -1.455342323605363E-3   -1.663966101628339E-3   -1.449951716424482E-3    3.724122556292468E-1   -3.184360831369393E-1
 9.937351229025000E9     4.702178619221668E-1   -1.110218011719366E-1   -1.609248773141548E-3   -1.501927478359581E-3   -1.668704010583388E-3   -1.431757901863804E-3    3.719097725885286E-1   -3.187864767165360E-1
 9.937353678600000E9     4.702839033143436E-1   -1.109725752155839E-1   -1.677533290493821E-3   -1.478769972081720E-3   -1.689476040227804E-3   -1.472321899185304E-3    3.715366955014076E-1   -3.189483984226307E-1
 9.937356128174999E9     4.701390507352912E-1   -1.111879464399565E-1   -1.704350722456720E-3   -1.509381209720457E-3   -1.745354718102700E-3   -1.491720369586648E-3    3.713644194707707E-1   -3.192690014615762E-1
 9.937358577750000E9     4.701107693847152E-1   -1.113693257920749E-1   -1.702638384831802E-3   -1.537251718296509E-3   -1.788188633352570E-3   -1.526316323542680E-3    3.707483204297793E-1   -3.193785477618152E-1
