#  HZ   S   RI   R     50.00 
! Rohde & Schwarz Vector Network Analyzer 
! Rohde-Schwarz,ZNB20-2Port,1311601062101988,3.16
! Created: UTC 3/20/2024, 11:04:12 PM
! freq[Hz]                re:S11                  im:S11                  re:S21                  im:S21                  re:S12                  im:S12                  re:S22                  im:S22
 9.937122452000000E9     4.747692685199331E-1   -9.547227683488167E-2   -3.459498571462341E-4   -3.343979368093359E-4   -3.731279342937925E-4   -3.432313179787331E-4    3.916927269873650E-1   -3.025313400454107E-1
 9.937124942850000E9     4.746907235190916E-1   -9.569006911927978E-2   -3.458805823217858E-4   -3.303013403630156E-4   -3.593449877009203E-4   -3.179269362867055E-4    3.914399150549351E-1   -3.028056293730619E-1
 9.937127433700001E9     4.746026603441449E-1   -9.589229803092486E-2   -3.424341332222762E-4   -3.397481441874684E-4   -3.546555181356285E-4   -3.412469101737384E-4    3.912383264177109E-1   -3.028750968859914E-1
 9.937129924549999E9     4.745397886873386E-1   -9.606378087399568E-2   -3.734045976369311E-4   -3.464522133645861E-4   -3.977359459234547E-4   -3.532877506608886E-4    3.911257055759942E-1   -3.030391976998325E-1
 9.937132415400000E9     4.746910072637334E-1   -9.627660183399292E-2   -3.337331189746125E-4   -3.510499628288993E-4   -4.022998212522409E-4   -3.071746772778822E-4    3.910319501693191E-1   -3.032485200352037E-1
 9.937134906250000E9     4.743846724915264E-1   -9.627270267993843E-2   -4.106859970653319E-4   -3.777787697141144E-4   -4.109074903065377E-4   -3.693757361635801E-4    3.907161526902679E-1   -3.033668947475324E-1
 9.937137397100000E9     4.743971321263382E-1   -9.653340494289289E-2   -4.026800886516841E-4   -3.832425868363855E-4   -4.027099007866265E-4   -3.454029634008370E-4    3.907083804070891E-1   -3.036981181202656E-1
 9.937139887950001E9     4.744992485027468E-1   -9.663441705977303E-2   -4.073180483343128E-4   -3.615549635164216E-4   -3.924944458029249E-4   -3.705488269622337E-4    3.903385191138937E-1   -3.039287863128739E-1
 9.937142378799999E9     4.743321400993057E-1   -9.680459556402321E-2   -4.097613798197514E-4   -3.756686235721716E-4   -4.235342021356591E-4   -3.981622728252339E-4    3.903715685507396E-1   -3.040694055045947E-1
 9.937144869650000E9     4.743372427194593E-1   -9.691344960185970E-2   -4.074058925655284E-4   -3.804056841649617E-4   -4.150625581129554E-4   -3.897922124683587E-4    3.899487086725646E-1   -3.042545639266334E-1
 9.937147360500000E9     4.742163272204298E-1   -9.731464283950808E-2   -4.364024153810036E-4   -4.045482282509655E-4   -4.471612436790898E-4   -3.926750938919401E-4    3.900143348521341E-1   -3.043104393884911E-1
 9.937149851350000E9     4.742057130087314E-1   -9.734974491125409E-2   -4.184204646088004E-4   -3.988927649349671E-4   -4.412261669834279E-4   -3.794286482618439E-4    3.896812453643931E-1   -3.046694066417474E-1
 9.937152342200001E9     4.742517457169884E-1   -9.749256392524881E-2   -4.294516869320708E-4   -4.495035198489226E-4   -4.560357054868553E-4   -4.193146862425497E-4    3.893941312447776E-1   -3.049149052603016E-1
 9.937154833049999E9     4.741177222069294E-1   -9.767608992402441E-2   -4.212679058331089E-4   -4.481780799865497E-4   -4.395825684036350E-4   -4.312344808278693E-4    3.893802469646008E-1   -3.049057147071468E-1
 9.937157323900000E9     4.740301302360791E-1   -9.786606371470448E-2   -4.440534778171646E-4   -4.171939956679282E-4   -5.049533973489777E-4   -4.256529292089236E-4    3.890800454504402E-1   -3.052021313920981E-1
 9.937159814750000E9     4.739876332407588E-1   -9.811629235007174E-2   -4.802470712599765E-4   -4.398913805410739E-4   -4.732745369954933E-4   -4.162097024495259E-4    3.888933551324464E-1   -3.052662255763510E-1
 9.937162305600000E9     4.739518152998605E-1   -9.823780331556153E-2   -4.608438457059318E-4   -4.506922151896225E-4   -4.766262106982807E-4   -4.562691712686671E-4    3.886796958525344E-1   -3.056207644191007E-1
 9.937164796450001E9     4.737692417255727E-1   -9.835026351984175E-2   -4.565659208766255E-4   -4.119822528823690E-4   -4.844416782475564E-4   -4.601273790265952E-4    3.886360812831510E-1   -3.057154201091966E-1
 9.937167287299999E9     4.738973014719845E-1   -9.855533418717104E-2   -4.883140708958933E-4   -4.743102814746183E-4   -4.921971400898191E-4   -4.919056349424899E-4    3.883198348208902E-1   -3.059104075611842E-1
 9.937169778150000E9     4.738432844867684E-1   -9.880700300197685E-2   -5.385601622344985E-4   -4.669007948606694E-4   -4.975308305050514E-4   -4.975130650220720E-4    3.880759888068420E-1   -3.061198433966569E-1
 9.937172269000000E9     4.737358321255934E-1   -9.900828776140636E-2   -4.993588929037341E-4   -4.714897166424911E-4   -5.080796976002156E-4   -4.969011604395735E-4    3.879949412751043E-1   -3.063332791796662E-1
 9.937174759850000E9     4.736747991269020E-1   -9.903551702032225E-2   -5.170300954530476E-4   -5.211271614580988E-4   -5.339198029907706E-4   -5.134475157223906E-4    3.877502831170059E-1   -3.064953897428448E-1
 9.937177250700001E9     4.736007327674535E-1   -9.928192419330707E-2   -5.494378257166246E-4   -5.154495416824480E-4   -5.202809707867368E-4   -4.957428708040542E-4    3.873517352239120E-1   -3.066433300619590E-1
 9.937179741549999E9     4.735630141654195E-1   -9.933938315997060E-2   -5.324410530895380E-4   -5.183444726324135E-4   -5.653357431220100E-4   -5.322761167866740E-4    3.872867443696282E-1   -3.068235234681054E-1
 9.937182232400000E9     4.735514727086475E-1   -9.954058015484794E-2   -5.463527901189456E-4   -5.478064426094209E-4   -5.753084882065831E-4   -5.304011667532506E-4    3.871804459686328E-1   -3.069745874076848E-1
 9.937184723250000E9     4.735304000813736E-1   -9.961201995638877E-2   -5.506698861300003E-4   -5.615355296091896E-4   -5.524563783456431E-4   -5.653132987958769E-4    3.869107690200887E-1   -3.072505531144784E-1
 9.937187214100000E9     4.735672533435638E-1   -9.988955787334619E-2   -5.359538503524002E-4   -5.787597808892193E-4   -5.784231972287165E-4   -5.533805151315197E-4    3.868192530014872E-1   -3.074531183519379E-1
 9.937189704950001E9     4.734453615536297E-1   -1.000281782810433E-1   -5.663920146819640E-4   -5.510806070175480E-4   -5.747360381719738E-4   -5.697490169225822E-4    3.863594520670842E-1   -3.075473463789635E-1
 9.937192195799999E9     4.735078703893246E-1   -1.002186709399032E-1   -5.968537430099407E-4   -5.782742924813420E-4   -6.027949183346935E-4   -5.662648116645595E-4    3.863602770240148E-1   -3.078730625735970E-1
 9.937194686650000E9     4.733085491682982E-1   -1.003886480357821E-1   -6.133206562809163E-4   -5.779661054865009E-4   -5.960314363884851E-4   -5.769845663246484E-4    3.860320371703442E-1   -3.080552828803126E-1
 9.937197177500000E9     4.734421340940644E-1   -1.005413726099979E-1   -6.148210340255932E-4   -5.899467546840444E-4   -6.204881278014552E-4   -5.698042245082801E-4    3.857282934030558E-1   -3.081687218563026E-1
 9.937199668350000E9     4.732074773715562E-1   -1.007652058705677E-1   -6.075525507256440E-4   -6.111267997385915E-4   -6.456581118151735E-4   -6.167132692726118E-4    3.857219225196839E-1   -3.084093535160556E-1
 9.937202159200001E9     4.733488756584865E-1   -1.008371446120260E-1   -6.411129661976248E-4   -6.353325934092717E-4   -6.591875481330272E-4   -5.712382468752531E-4    3.854025582451436E-1   -3.084169933725274E-1
 9.937204650049999E9     4.731796985150004E-1   -1.010487372787355E-1   -6.403442713296784E-4   -5.930072798434246E-4   -6.491944031619350E-4   -6.381503347076951E-4    3.851106158471915E-1   -3.087219915102600E-1
 9.937207140900000E9     4.731522547706444E-1   -1.014001595932143E-1   -6.593324377108648E-4   -6.104228312516204E-4   -6.775066439618639E-4   -6.236383572102194E-4    3.852171742528938E-1   -3.089137812554465E-1
 9.937209631750000E9     4.730554854977333E-1   -1.014347086682987E-1   -6.929166505089559E-4   -6.552888442040917E-4   -6.519213372512396E-4   -6.449682447952408E-4    3.847914796990036E-1   -3.092832164600919E-1
 9.937212122600000E9     4.729962075717317E-1   -1.016607471677145E-1   -6.674218733076649E-4   -6.626618282588178E-4   -6.597592361011157E-4   -6.572061721454344E-4    3.845265670829190E-1   -3.093586241132409E-1
 9.937214613450001E9     4.730640831150297E-1   -1.017494840330762E-1   -6.980150303600393E-4   -6.660857839091834E-4   -6.993854537235346E-4   -6.450476301985976E-4    3.842945042652612E-1   -3.096403716936036E-1
 9.937217104299999E9     4.729283906763709E-1   -1.019242416485971E-1   -7.207949088520020E-4   -6.792931098003087E-4   -7.172608118448452E-4   -6.870274886104236E-4    3.840407445181090E-1   -3.099675223703787E-1
 9.937219595150000E9     4.728306850468677E-1   -1.021705561118465E-1   -7.061452437798272E-4   -6.944703344919946E-4   -7.194709659205978E-4   -6.891879566410040E-4    3.838765529078905E-1   -3.099728221691151E-1
 9.937222086000000E9     4.727613039338542E-1   -1.022441588929739E-1   -7.321847550734320E-4   -6.980323814602798E-4   -7.327195731739956E-4   -7.057447236325723E-4    3.837262267391595E-1   -3.102343233135765E-1
 9.937224576850000E9     4.727282529706993E-1   -1.023684632220127E-1   -7.268779959309881E-4   -7.053143147272998E-4   -7.764484698205398E-4   -6.879687842285284E-4    3.834054340620818E-1   -3.104694730257361E-1
 9.937227067700001E9     4.727395581653962E-1   -1.025212871700822E-1   -7.139522027313506E-4   -7.240497994955449E-4   -7.796802205465706E-4   -7.110302511645411E-4    3.832662161594393E-1   -3.105707035965098E-1
 9.937229558549999E9     4.726367059435465E-1   -1.027990079675175E-1   -7.431786924447207E-4   -7.233272925699117E-4   -7.824999634153102E-4   -7.394952067130402E-4    3.829643254381432E-1   -3.108040779589499E-1
 9.937232049400000E9     4.726790426527050E-1   -1.029140294862324E-1   -7.827798653930561E-4   -7.553950585387712E-4   -7.967121285911116E-4   -7.484435676610028E-4    3.829037662564104E-1   -3.110023315793110E-1
 9.937234540250000E9     4.725341195196787E-1   -1.031770322783176E-1   -7.890755319623720E-4   -7.790704675427879E-4   -8.278150722126698E-4   -7.565498440156979E-4    3.825171278635075E-1   -3.112783226497503E-1
 9.937237031100000E9     4.725503943766967E-1   -1.033628291917029E-1   -8.034886393632583E-4   -7.686126230028288E-4   -8.236545514796833E-4   -7.597635678392543E-4    3.823172541425525E-1   -3.115172995684367E-1
 9.937239521950001E9     4.724572517119253E-1   -1.034475156942639E-1   -8.108751881942226E-4   -7.895046749113270E-4   -8.398810487593231E-4   -7.578175873856327E-4    3.821181393240080E-1   -3.115320993234131E-1
 9.937242012799999E9     4.724564376046282E-1   -1.036010450345109E-1   -8.229793082749910E-4   -8.191547051083695E-4   -8.237366915741723E-4   -7.719390752564233E-4    3.819389315395210E-1   -3.117085758204520E-1
 9.937244503650000E9     4.724794107119188E-1   -1.038043577253838E-1   -8.462394284255068E-4   -8.175230170666947E-4   -8.912806584454217E-4   -8.352506738915931E-4    3.815250373543564E-1   -3.121264677264232E-1
 9.937246994500000E9     4.723008044783678E-1   -1.038924600549913E-1   -8.494120505222222E-4   -8.152003072293396E-4   -8.806240304624705E-4   -8.379181925137615E-4    3.813017544289205E-1   -3.122463047232006E-1
 9.937249485350000E9     4.722720011717048E-1   -1.041009307554640E-1   -8.513964059531312E-4   -8.229519439526519E-4   -8.927189356059200E-4   -8.250068156647588E-4    3.810791120095830E-1   -3.124221185079278E-1
 9.937251976200001E9     4.722134707525593E-1   -1.042071384182270E-1   -8.974944064502113E-4   -8.512084450297675E-4   -9.499496067008292E-4   -8.455836807244940E-4    3.807510884530921E-1   -3.126307653770116E-1
 9.937254467049999E9     4.721892082721212E-1   -1.045026518689177E-1   -8.956674158264492E-4   -8.536479333149581E-4   -9.393320663482179E-4   -8.414309502936517E-4    3.805988265552739E-1   -3.129009521361462E-1
 9.937256957900000E9     4.722229140690047E-1   -1.046738219355627E-1   -9.094476560423952E-4   -8.955955472050760E-4   -9.358864463341898E-4   -8.994913617853062E-4    3.803756101701249E-1   -3.131179342753647E-1
 9.937259448750000E9     4.720416034121308E-1   -1.048700001582150E-1   -9.068755517210910E-4   -8.956015924516423E-4   -9.545806187184915E-4   -8.694917445310875E-4    3.799321872087787E-1   -3.134114780280962E-1
 9.937261939600000E9     4.721174073417152E-1   -1.049676775614576E-1   -9.449332545208191E-4   -9.098407505360601E-4   -9.536720229132292E-4   -8.897319059034178E-4    3.799212365425123E-1   -3.136491303978539E-1
 9.937264430450001E9     4.719329831169477E-1   -1.049850136343508E-1   -9.463049752424235E-4   -9.365000734321889E-4   -9.653424540671752E-4   -9.016973988760989E-4    3.796286129079191E-1   -3.137821506726771E-1
 9.937266921299999E9     4.718595841424923E-1   -1.052932139116671E-1   -9.687644684007724E-4   -9.744048383340879E-4   -1.012732931698448E-3   -9.398366836530597E-4    3.791642863736945E-1   -3.138853167909306E-1
 9.937269412150000E9     4.719132851933588E-1   -1.054191182937488E-1   -9.938375966193230E-4   -9.501887495015708E-4   -1.014571761735539E-3   -9.528222453128468E-4    3.789588448194289E-1   -3.143272945297906E-1
 9.937271903000000E9     4.719384304755520E-1   -1.056167263001537E-1   -1.025681435639448E-3   -9.789768641819420E-4   -1.051171461388712E-3   -9.746633140131873E-4    3.788248359928292E-1   -3.141969088794491E-1
 9.937274393850000E9     4.718274743259103E-1   -1.058426143489136E-1   -1.022849755477794E-3   -9.736126939698591E-4   -1.069519055085097E-3   -9.849994117906798E-4    3.785665714639013E-1   -3.144938681289363E-1
 9.937276884700001E9     4.718271793924334E-1   -1.058860173915361E-1   -1.053337389917213E-3   -9.722148356327035E-4   -1.045191144211855E-3   -9.801323074399785E-4    3.782205528847896E-1   -3.148894479206401E-1
 9.937279375549999E9     4.716060211271488E-1   -1.061696351220719E-1   -1.087688707395987E-3   -1.042379933303580E-3   -1.113970976234113E-3   -9.912440437255796E-4    3.779952820528244E-1   -3.149987689713962E-1
 9.937281866400000E9     4.716823786264811E-1   -1.064050339556285E-1   -1.055589666483863E-3   -9.798050841829109E-4   -1.113022430117864E-3   -1.006795488845606E-3    3.776389028286636E-1   -3.150796446735542E-1
 9.937284357250000E9     4.716226399101650E-1   -1.063718196627089E-1   -1.096316467682336E-3   -1.029487841212849E-3   -1.136331489044456E-3   -1.040871308868744E-3    3.774017727785027E-1   -3.156567788332253E-1
 9.937286848100000E9     4.715408357506600E-1   -1.065956204790946E-1   -1.120645129673521E-3   -1.051655876878216E-3   -1.151675416323366E-3   -1.049596388585603E-3    3.770854192210015E-1   -3.156386215054808E-1
 9.937289338950001E9     4.714832237699862E-1   -1.069003511273269E-1   -1.181418402934691E-3   -1.049522279367327E-3   -1.160701446359611E-3   -1.065105054190348E-3    3.769164343808270E-1   -3.159817489332920E-1
 9.937291829799999E9     4.714267656173027E-1   -1.070759212696223E-1   -1.144649607168237E-3   -1.097862688944461E-3   -1.172710341691903E-3   -1.052475806458249E-3    3.766686580564805E-1   -3.160689489322179E-1
 9.937294320650000E9     4.714401750013456E-1   -1.072162520255329E-1   -1.191013294884306E-3   -1.116601090808699E-3   -1.195983765655294E-3   -1.098487229948645E-3    3.762357950407819E-1   -3.160719523710954E-1
 9.937296811500000E9     4.712234529061411E-1   -1.073156050365563E-1   -1.223394478883986E-3   -1.132305873012817E-3   -1.226972378887945E-3   -1.093288884883569E-3    3.759701483395282E-1   -3.166809868371056E-1
 9.937299302350000E9     4.712901509960858E-1   -1.075412133616130E-1   -1.248433993090511E-3   -1.152112526375033E-3   -1.256416061287933E-3   -1.120702937265124E-3    3.757665861632218E-1   -3.167888216721609E-1
 9.937301793200001E9     4.711966480001924E-1   -1.075415236959069E-1   -1.240412737204563E-3   -1.157383682788422E-3   -1.261397887598867E-3   -1.177450844805059E-3    3.755782978138181E-1   -3.171077366881186E-1
 9.937304284049999E9     4.712566217339160E-1   -1.077634718006651E-1   -1.235806407201203E-3   -1.171430771171907E-3   -1.274901791402728E-3   -1.185820794993886E-3    3.752050299456913E-1   -3.172078284157544E-1
 9.937306774900000E9     4.711315013299139E-1   -1.080385096045293E-1   -1.254178455715437E-3   -1.184597357498533E-3   -1.330334638144989E-3   -1.202181505609578E-3    3.748702597159688E-1   -3.176086728020825E-1
 9.937309265750000E9     4.710996926894398E-1   -1.081945045677404E-1   -1.319800087558297E-3   -1.194697038916843E-3   -1.311495003460757E-3   -1.204711301415502E-3    3.744414977646816E-1   -3.177350052044203E-1
 9.937311756600000E9     4.709090743347107E-1   -1.083642415209440E-1   -1.326671198838778E-3   -1.218653667333880E-3   -1.347012009771787E-3   -1.214586451659159E-3    3.741521363709917E-1   -3.178104655524691E-1
 9.937314247450001E9     4.709459244804250E-1   -1.085336565776464E-1   -1.343057787074171E-3   -1.263982374314260E-3   -1.356148595925581E-3   -1.249911028309542E-3    3.740014176333316E-1   -3.182532581630863E-1
 9.937316738299999E9     4.709902484332024E-1   -1.086056757882363E-1   -1.349078796263035E-3   -1.241692914411780E-3   -1.427575832096313E-3   -1.235294932714052E-3    3.734930234049638E-1   -3.184305244779170E-1
 9.937319229150000E9     4.709155892754966E-1   -1.088329341107665E-1   -1.375233566258673E-3   -1.276683438769928E-3   -1.453672891966096E-3   -1.246343533526636E-3    3.730998447688775E-1   -3.188075084961283E-1
 9.937321720000000E9     4.709255645367589E-1   -1.089338628814487E-1   -1.390009679342020E-3   -1.297492525559309E-3   -1.449456978348104E-3   -1.293710662466055E-3    3.729134854363171E-1   -3.188380829574791E-1
 9.937324210850000E9     4.707248771057969E-1   -1.091904130136563E-1   -1.442884352541054E-3   -1.303578224725507E-3   -1.478164908725992E-3   -1.288193652491940E-3    3.724956878405988E-1   -3.192084149262999E-1
 9.937326701700001E9     4.707149218472353E-1   -1.093185536944001E-1   -1.443581377810198E-3   -1.321926620450256E-3   -1.524529879815522E-3   -1.338220193158143E-3    3.723315888060291E-1   -3.196219036486735E-1
 9.937329192549999E9     4.706336351874599E-1   -1.095419908985304E-1   -1.480618989861771E-3   -1.381640472868776E-3   -1.541094968185450E-3   -1.331022389362540E-3    3.719929165881647E-1   -3.196390347784977E-1
 9.937331683400000E9     4.706099627006256E-1   -1.095722806189853E-1   -1.494577556677365E-3   -1.381288422576236E-3   -1.574780657148905E-3   -1.334693572057745E-3    3.717791343535950E-1   -3.197807546245977E-1
 9.937334174250000E9     4.706401883210902E-1   -1.097893568361758E-1   -1.557731316740098E-3   -1.383357920314818E-3   -1.582357806992103E-3   -1.355303085258871E-3    3.711913049246042E-1   -3.200430260394559E-1
 9.937336665100000E9     4.705680016132168E-1   -1.099225784892876E-1   -1.564771232687134E-3   -1.431127752786449E-3   -1.629384070550275E-3   -1.389768008418051E-3    3.709448648833396E-1   -3.203424680505188E-1
 9.937339155950001E9     4.702968368651802E-1   -1.101356616251636E-1   -1.569945787746021E-3   -1.456916695838808E-3   -1.667980687377402E-3   -1.399506384784169E-3    3.705115233021866E-1   -3.205857184755436E-1
 9.937341646799999E9     4.705386906623771E-1   -1.103227737644606E-1   -1.635032824216022E-3   -1.425656635518338E-3   -1.653273260736968E-3   -1.450428585853340E-3    3.702655753487119E-1   -3.209426200386181E-1
 9.937344137650000E9     4.704363270604970E-1   -1.106524564667277E-1   -1.633264477486589E-3   -1.500220648870733E-3   -1.673837481029699E-3   -1.485587753855935E-3    3.697249249131461E-1   -3.210246511716081E-1
 9.937346628500000E9     4.703646656213714E-1   -1.105986624610164E-1   -1.684217769960711E-3   -1.501405524977882E-3   -1.690023964861271E-3   -1.481770790620876E-3    3.692386946484477E-1   -3.214440350035547E-1
