#  HZ   S   RI   R     50.00 
! Rohde & Schwarz Vector Network Analyzer 
! Rohde-Schwarz,ZNB20-2Port,1311601062101988,3.16
! Created: UTC 3/20/2024, 11:04:19 PM
! freq[Hz]                re:S11                  im:S11                  re:S21                  im:S21                  re:S12                  im:S12                  re:S22                  im:S22
 9.937113132000000E9     4.748929519676381E-1   -9.485953525182406E-2   -3.264591239232595E-4   -3.303396364724026E-4   -3.488438971303137E-4   -2.791817299117710E-4    3.920472666542763E-1   -3.030056546376830E-1
 9.937115660375000E9     4.748179843512063E-1   -9.514882872278514E-2   -3.639188034262237E-4   -2.831002102334286E-4   -3.496756996318926E-4   -3.429941621603877E-4    3.916557534255040E-1   -3.030117880330562E-1
 9.937118188750000E9     4.746169071879919E-1   -9.517967580443454E-2   -3.427689933817011E-4   -2.971298089960816E-4   -3.493501088273778E-4   -3.178782318880546E-4    3.916574666943425E-1   -3.033643103051367E-1
 9.937120717125000E9     4.747109521222741E-1   -9.538908588541735E-2   -3.502208804595744E-4   -3.195036533053221E-4   -4.002400455926303E-4   -3.173343142693753E-4    3.915124992456994E-1   -3.035594348814251E-1
 9.937123245500000E9     4.746163624151130E-1   -9.564089952728286E-2   -3.503828073045132E-4   -3.230407333610190E-4   -3.467805918942527E-4   -3.280734735849539E-4    3.913207762543753E-1   -3.037067644576634E-1
 9.937125773875000E9     4.746184478920513E-1   -9.575449309609030E-2   -3.100405809503514E-4   -3.586994972217424E-4   -3.897063732189194E-4   -3.291337981193213E-4    3.910521232132482E-1   -3.037545902813604E-1
 9.937128302250000E9     4.745456452453433E-1   -9.605244729975608E-2   -3.440560490621771E-4   -3.547347538858475E-4   -3.611394746954500E-4   -3.279271643567641E-4    3.908716090233525E-1   -3.038928767314062E-1
 9.937130830625000E9     4.744868281070566E-1   -9.613675512598355E-2   -3.822556107907354E-4   -3.374388318868919E-4   -3.786360274588685E-4   -3.489392186397063E-4    3.906857773607623E-1   -3.041033100260259E-1
 9.937133359000000E9     4.744512911180386E-1   -9.632366891733651E-2   -3.505294050268668E-4   -3.528269839776226E-4   -4.274178591372893E-4   -3.605464162420094E-4    3.904880739382316E-1   -3.045327789319148E-1
 9.937135887375000E9     4.744525445802813E-1   -9.641935244584671E-2   -3.891982885346007E-4   -3.733063524812094E-4   -4.019492867178183E-4   -3.361861961495001E-4    3.903790086838356E-1   -3.046996240092892E-1
 9.937138415750000E9     4.743209715276797E-1   -9.665713605100068E-2   -4.083849596446007E-4   -3.536639257467554E-4   -3.864656469383646E-4   -3.670457006624863E-4    3.900865948279048E-1   -3.048950324229157E-1
 9.937140944125000E9     4.743577691258934E-1   -9.674519202612296E-2   -4.248449646940043E-4   -3.783773849134807E-4   -4.271046417339840E-4   -3.643471941035612E-4    3.900279860552500E-1   -3.050912736466144E-1
 9.937143472500000E9     4.742759518765918E-1   -9.709646855551975E-2   -3.994859928722546E-4   -3.925817570598002E-4   -4.333682371915554E-4   -3.967912090540943E-4    3.899562102664855E-1   -3.051998857238842E-1
 9.937146000875000E9     4.742724436638837E-1   -9.710085476470642E-2   -4.451880826913324E-4   -3.910457009067851E-4   -4.533087580125674E-4   -3.928434230623384E-4    3.896431172549689E-1   -3.054071916628404E-1
 9.937148529250000E9     4.742043274560039E-1   -9.743752267439611E-2   -4.045796356402301E-4   -3.836335649422316E-4   -4.293824433092814E-4   -3.939409954755871E-4    3.894276260287743E-1   -3.056451834250576E-1
 9.937151057625000E9     4.741539486990999E-1   -9.751115056238295E-2   -4.539243833087637E-4   -4.425158088673268E-4   -4.562378325187069E-4   -4.103999589659969E-4    3.891806709902238E-1   -3.057785446435075E-1
 9.937153586000000E9     4.740235631900706E-1   -9.767526992401936E-2   -4.380383386767374E-4   -3.929724378707579E-4   -4.649107164602150E-4   -4.368751882044246E-4    3.890393686155889E-1   -3.060750966344140E-1
 9.937156114375000E9     4.740370581514992E-1   -9.779620668966084E-2   -4.705121734501811E-4   -4.294945205787683E-4   -4.858982872962177E-4   -4.286172532900349E-4    3.886715608276389E-1   -3.062918965399847E-1
 9.937158642750000E9     4.741389512348938E-1   -9.805095530407101E-2   -4.722694034302540E-4   -4.345636285757893E-4   -4.994116280761181E-4   -4.309364450497825E-4    3.884938779008382E-1   -3.064901024301306E-1
 9.937161171125000E9     4.739563565572242E-1   -9.819298499725887E-2   -4.589195543941039E-4   -4.741537402212225E-4   -4.801030047499052E-4   -4.373741084986754E-4    3.885253438096748E-1   -3.066084544551078E-1
 9.937163699500000E9     4.737798051562926E-1   -9.829626309160135E-2   -5.118688673478061E-4   -4.814420835901924E-4   -4.874424294994075E-4   -4.895464888249507E-4    3.882796703994074E-1   -3.069906890139962E-1
 9.937166227875000E9     4.739094870384984E-1   -9.866623869787726E-2   -4.954514084845479E-4   -4.680565692129793E-4   -5.032295626435574E-4   -4.617507761721025E-4    3.880710745665916E-1   -3.069917369664129E-1
 9.937168756250000E9     4.737852896721084E-1   -9.881541946449540E-2   -5.344905568520184E-4   -4.937183988836073E-4   -5.337532624101281E-4   -4.720529012370319E-4    3.878504494865506E-1   -3.070570988439085E-1
 9.937171284625000E9     4.737896049111689E-1   -9.881991552568097E-2   -5.305806581981101E-4   -5.218382464391348E-4   -5.366684658500322E-4   -4.885695486643874E-4    3.876008867504231E-1   -3.074559929182260E-1
 9.937173813000000E9     4.737233925275687E-1   -9.894304379391823E-2   -5.436206868260587E-4   -5.011839664677474E-4   -5.534992273013245E-4   -5.068723069842875E-4    3.874174059503207E-1   -3.075774522756020E-1
 9.937176341375000E9     4.736273572544675E-1   -9.922550463657535E-2   -5.064604918371028E-4   -5.226174156985620E-4   -5.325616196422073E-4   -5.458846629399597E-4    3.871559770682469E-1   -3.074624018431600E-1
 9.937178869750000E9     4.737249043677146E-1   -9.937192656858761E-2   -5.413160166176487E-4   -5.029092295829893E-4   -5.618702727327417E-4   -5.256748230265991E-4    3.870294545341495E-1   -3.078885426314558E-1
 9.937181398125000E9     4.736134467839742E-1   -9.945404879392064E-2   -5.530695912295265E-4   -5.250627112579622E-4   -5.696000383998114E-4   -5.487352897496226E-4    3.867425670027956E-1   -3.081606886864696E-1
 9.937183926500000E9     4.735537180456038E-1   -9.966599799229259E-2   -5.270890110870927E-4   -5.368726512513762E-4   -5.493969522359735E-4   -5.732338228165967E-4    3.866377316333960E-1   -3.082839596711324E-1
 9.937186454875000E9     4.735193153840130E-1   -9.999437582734473E-2   -5.817864320639915E-4   -5.810568181686516E-4   -5.925069229906581E-4   -5.818708530332394E-4    3.864367058616843E-1   -3.084873888424484E-1
 9.937188983250000E9     4.734112135874096E-1   -1.001021199274682E-1   -5.515175620137235E-4   -5.596021586127513E-4   -6.204842199072131E-4   -5.790216763977346E-4    3.860833608353055E-1   -3.085217148007317E-1
 9.937191511625000E9     4.734104226996699E-1   -1.002792437409887E-1   -6.057061695448611E-4   -5.968919548985568E-4   -6.083557327529924E-4   -5.770940890752888E-4    3.859496976431916E-1   -3.089931374161293E-1
 9.937194040000000E9     4.734236207778862E-1   -1.001519666813871E-1   -5.998863230976357E-4   -6.101631492632221E-4   -6.223755363910543E-4   -5.863200715803489E-4    3.858241673058767E-1   -3.090286457850605E-1
 9.937196568375000E9     4.731810083401298E-1   -1.004568391527066E-1   -6.219911692038224E-4   -5.906020229540402E-4   -6.424061973988519E-4   -5.886356642138176E-4    3.854220780034938E-1   -3.093619673507625E-1
 9.937199096750000E9     4.732367211399218E-1   -1.007021973314958E-1   -5.954014642139018E-4   -5.811938536974530E-4   -6.412029844652910E-4   -5.986590671741100E-4    3.854756267362432E-1   -3.095357783924819E-1
 9.937201625125000E9     4.733454244637290E-1   -1.009040791801923E-1   -6.481526222171262E-4   -6.165407338352960E-4   -6.661420715291044E-4   -6.270317287882031E-4    3.852561347455341E-1   -3.096849117552221E-1
 9.937204153500000E9     4.731158409826045E-1   -1.011257533005701E-1   -6.371454651893644E-4   -6.377494621470521E-4   -6.619780644621984E-4   -6.463812831277714E-4    3.847547884492221E-1   -3.100340339062920E-1
 9.937206681875000E9     4.730850013953053E-1   -1.013689059194892E-1   -6.213905219275024E-4   -6.658330947869758E-4   -6.785360262471879E-4   -6.335666102080075E-4    3.846441723595757E-1   -3.101412061788108E-1
 9.937209210250000E9     4.728208478337331E-1   -1.014637066012312E-1   -6.697171168396784E-4   -6.547917862085326E-4   -7.064763220925330E-4   -6.469136703734103E-4    3.844253285623576E-1   -3.100599285527363E-1
 9.937211738625000E9     4.730579940077457E-1   -1.015241766394960E-1   -6.564408826993924E-4   -6.655135098285542E-4   -6.887416322516066E-4   -6.601024529861606E-4    3.843198225293022E-1   -3.104280855396890E-1
 9.937214267000000E9     4.729961919273813E-1   -1.017704426358709E-1   -7.127314719049853E-4   -6.595536959109570E-4   -7.288467922747118E-4   -6.881314729669996E-4    3.838766262546829E-1   -3.107999922553306E-1
 9.937216795375000E9     4.728605941397796E-1   -1.019268510772068E-1   -7.010883153856917E-4   -6.508370681827939E-4   -7.413245795490680E-4   -6.670751319630502E-4    3.834977486936988E-1   -3.109156140894196E-1
 9.937219323750000E9     4.728945193687050E-1   -1.020906019810845E-1   -6.964089232067075E-4   -6.819149415999265E-4   -7.443238552940043E-4   -7.001723323460460E-4    3.836348097091344E-1   -3.111893848002153E-1
 9.937221852125000E9     4.727609238707629E-1   -1.022874707274131E-1   -7.654123273829024E-4   -7.121563802449697E-4   -7.605445955640630E-4   -7.165522909452780E-4    3.831662792927638E-1   -3.113332482497263E-1
 9.937224380500000E9     4.727781687634690E-1   -1.025302588455223E-1   -7.440506940706875E-4   -6.918714577961538E-4   -7.634590645016582E-4   -7.110129305879281E-4    3.830574687578674E-1   -3.115016731373390E-1
 9.937226908875000E9     4.726938080750633E-1   -1.025137865158160E-1   -7.477475998383957E-4   -7.068815038604708E-4   -7.647558947894568E-4   -7.386008460062289E-4    3.827499640137267E-1   -3.116869700203741E-1
 9.937229437250000E9     4.726696635196946E-1   -1.027987854275826E-1   -7.741524043535604E-4   -7.479882617594226E-4   -7.626604473060486E-4   -7.667910859396717E-4    3.826165247654332E-1   -3.120480143198983E-1
 9.937231965625000E9     4.727553320500187E-1   -1.029277479007526E-1   -7.903463413635810E-4   -7.612064954416080E-4   -8.102360337893903E-4   -7.427587641522958E-4    3.822970537503140E-1   -3.120432165203733E-1
 9.937234494000000E9     4.724754663186709E-1   -1.031040611577804E-1   -7.891468045427120E-4   -7.728611559491860E-4   -8.285634565710291E-4   -7.515624675544500E-4    3.819988258114662E-1   -3.123170583160621E-1
 9.937237022375000E9     4.722695117954201E-1   -1.032257614075806E-1   -7.833913446382078E-4   -8.000158764985834E-4   -8.406554019609717E-4   -7.694279761588411E-4    3.818599196494956E-1   -3.126162256061493E-1
 9.937239550750000E9     4.724894347430046E-1   -1.035218463256815E-1   -8.016807404212435E-4   -8.053401255977735E-4   -8.621718063729138E-4   -7.752070225750162E-4    3.818198278155497E-1   -3.126482415189916E-1
 9.937242079125000E9     4.725665011751321E-1   -1.037122098509029E-1   -8.425086848845711E-4   -8.141903949051410E-4   -8.494724308205120E-4   -8.055462115990741E-4    3.814488011377396E-1   -3.128750572450719E-1
 9.937244607500000E9     4.724359932093869E-1   -1.039004957510727E-1   -8.850606650430513E-4   -8.128187800773381E-4   -8.609986424999827E-4   -8.317686600256803E-4    3.809278034151706E-1   -3.132694991840564E-1
 9.937247135875000E9     4.722798655147964E-1   -1.040840727693252E-1   -8.518884699773513E-4   -8.157407155590908E-4   -8.942993897996692E-4   -8.311597706062720E-4    3.809655374378660E-1   -3.135973795290978E-1
 9.937249664250000E9     4.721522119252840E-1   -1.041015628175864E-1   -8.778942940072673E-4   -8.706499610656222E-4   -9.223198622149477E-4   -8.659955420880304E-4    3.806716590032322E-1   -3.136701405701737E-1
 9.937252192625000E9     4.722047361222333E-1   -1.042575924653007E-1   -8.975388311029989E-4   -8.941300604476542E-4   -9.413578126269246E-4   -8.478400512765796E-4    3.804198961404147E-1   -3.137528864641877E-1
 9.937254721000000E9     4.721755039514459E-1   -1.044993358522526E-1   -9.167972663994319E-4   -8.878853546203818E-4   -9.702830360937907E-4   -8.623906225547997E-4    3.802673733289218E-1   -3.141598541871130E-1
 9.937257249375000E9     4.721542634002990E-1   -1.045626082187538E-1   -9.243832665922806E-4   -8.672672965644576E-4   -9.851897633445638E-4   -8.807997236293740E-4    3.799076296858817E-1   -3.143173903706084E-1
 9.937259777750000E9     4.721700390057751E-1   -1.047945625113757E-1   -9.521560468106261E-4   -8.689736913488220E-4   -9.893248603265923E-4   -9.172479401743473E-4    3.795247067245543E-1   -3.143201357814237E-1
 9.937262306125000E9     4.719930504821319E-1   -1.050144235734090E-1   -9.643409931968679E-4   -8.761437114803781E-4   -9.981673508644305E-4   -8.927101843705774E-4    3.793916963743763E-1   -3.148557678103224E-1
 9.937264834500000E9     4.721202403777229E-1   -1.051516595013348E-1   -9.639079949745444E-4   -9.321412955067225E-4   -1.019712210830911E-3   -9.339636411268208E-4    3.790596734456280E-1   -3.150411816142454E-1
 9.937267362875000E9     4.718205436135731E-1   -1.053887301135587E-1   -1.002492340471946E-3   -9.653323129086373E-4   -1.032867346611830E-3   -9.351951281633331E-4    3.788597108650897E-1   -3.150823338956809E-1
 9.937269891250000E9     4.718908092541595E-1   -1.055139508859129E-1   -1.041735795359970E-3   -9.731560906652745E-4   -1.063725286121761E-3   -9.628164671971561E-4    3.786479914664726E-1   -3.153155682018228E-1
 9.937272419625000E9     4.718069249895045E-1   -1.057082408265580E-1   -1.045414763967565E-3   -9.885022479666193E-4   -1.072733541514933E-3   -9.673567688100153E-4    3.783374329997648E-1   -3.154647620093267E-1
 9.937274948000000E9     4.718677254930009E-1   -1.060012535494335E-1   -1.059447967485361E-3   -9.786974899444047E-4   -1.076104002019400E-3   -9.749602894018174E-4    3.779258497925971E-1   -3.157439755796922E-1
 9.937277476375000E9     4.717262813603633E-1   -1.060524325686805E-1   -1.061817523871531E-3   -1.008337772949805E-3   -1.078155627875300E-3   -1.016637520742708E-3    3.777155349701349E-1   -3.161243733815744E-1
 9.937280004750000E9     4.717300821299759E-1   -1.062626498962846E-1   -1.082835434930293E-3   -1.021143447894498E-3   -1.126697742790920E-3   -1.003256156702311E-3    3.774469817565301E-1   -3.159575302930154E-1
 9.937282533125000E9     4.717277843704178E-1   -1.062994373363297E-1   -1.072893289388451E-3   -1.038030928698410E-3   -1.136733887034854E-3   -1.044749015149277E-3    3.772076520465952E-1   -3.165583756987756E-1
 9.937285061500000E9     4.715889785604552E-1   -1.065530857346893E-1   -1.151663692610971E-3   -1.064411808490065E-3   -1.162645467377565E-3   -1.071207584223175E-3    3.767315841941666E-1   -3.167446627168772E-1
 9.937287589875000E9     4.715062232477392E-1   -1.067429683364303E-1   -1.158236833868413E-3   -1.079349277344027E-3   -1.181680519256529E-3   -1.055822170330945E-3    3.767412399939328E-1   -3.167983074586769E-1
 9.937290118250000E9     4.715656528539641E-1   -1.068584872346210E-1   -1.175985612810838E-3   -1.064403300231330E-3   -1.216881311528306E-3   -1.091651953298136E-3    3.762486775114819E-1   -3.172146982378879E-1
 9.937292646625000E9     4.714836299727784E-1   -1.071255827675913E-1   -1.151594204106517E-3   -1.105508184673183E-3   -1.216854210231338E-3   -1.094238547137141E-3    3.760599718275037E-1   -3.174335093833272E-1
 9.937295175000000E9     4.714244787557388E-1   -1.072218666683302E-1   -1.207679198192009E-3   -1.150114833661015E-3   -1.221323303762118E-3   -1.123752253006850E-3    3.757599023543233E-1   -3.176408041564409E-1
 9.937297703375000E9     4.713146906949369E-1   -1.073658786210022E-1   -1.225904728162805E-3   -1.126491431492293E-3   -1.246263515108086E-3   -1.139606283076358E-3    3.755429835592372E-1   -3.176721817780892E-1
 9.937300231750000E9     4.712857967007350E-1   -1.074853074126957E-1   -1.241547915269934E-3   -1.121007997901803E-3   -1.277872690694029E-3   -1.157499653032247E-3    3.751369138236240E-1   -3.181278044400163E-1
 9.937302760125000E9     4.711620894952809E-1   -1.077591508110802E-1   -1.301329810030325E-3   -1.135497089585358E-3   -1.279114093194539E-3   -1.181119043926584E-3    3.747531900054980E-1   -3.182743834022469E-1
 9.937305288500000E9     4.711222230366695E-1   -1.078490264420569E-1   -1.280057370881925E-3   -1.161244672457580E-3   -1.343699888791101E-3   -1.154013699536152E-3    3.743961323557648E-1   -3.183891537451949E-1
 9.937307816875000E9     4.710264709702784E-1   -1.080363414516668E-1   -1.300373344918905E-3   -1.237381091380342E-3   -1.357820478853491E-3   -1.209640961886188E-3    3.742515311284060E-1   -3.186191915843595E-1
 9.937310345250000E9     4.710946772143233E-1   -1.083209964621381E-1   -1.343443135442003E-3   -1.214176913372484E-3   -1.374111076299202E-3   -1.225484655621913E-3    3.738407125251091E-1   -3.192592743921702E-1
 9.937312873625000E9     4.709314305885804E-1   -1.084422893412778E-1   -1.368421399812674E-3   -1.230203656197098E-3   -1.414916799360577E-3   -1.239940436587925E-3    3.735784100584749E-1   -3.193402582847948E-1
 9.937315402000000E9     4.710354905441116E-1   -1.085362788338776E-1   -1.383567514761177E-3   -1.282171007891730E-3   -1.400283954626424E-3   -1.256897066094248E-3    3.732306767223061E-1   -3.193455023103101E-1
 9.937317930375000E9     4.710848052318171E-1   -1.087093668418485E-1   -1.398556248671667E-3   -1.244462796681209E-3   -1.446794093459557E-3   -1.270189733876647E-3    3.728253831332910E-1   -3.197490748392345E-1
 9.937320458750000E9     4.708471338560448E-1   -1.089117847523925E-1   -1.436555318235176E-3   -1.310556457532821E-3   -1.494645562912507E-3   -1.270211420981800E-3    3.726245124778002E-1   -3.198774372093534E-1
 9.937322987125000E9     4.707234663666880E-1   -1.093125735449673E-1   -1.444935775048168E-3   -1.320923290886341E-3   -1.496190042846120E-3   -1.340010040245197E-3    3.722992266576959E-1   -3.202278948796186E-1
 9.937325515500000E9     4.706680404714475E-1   -1.092535738731461E-1   -1.432036832634628E-3   -1.354926688137849E-3   -1.525031662686368E-3   -1.351981687776775E-3    3.717292316516474E-1   -3.203047159143687E-1
 9.937328043875000E9     4.708313128344793E-1   -1.093527693966657E-1   -1.474575193898356E-3   -1.378794434397039E-3   -1.563510095255327E-3   -1.309687102002150E-3    3.713691121341490E-1   -3.204992875784025E-1
 9.937330572250000E9     4.706683527694991E-1   -1.096627138890037E-1   -1.519545748152353E-3   -1.368740372052526E-3   -1.590907270379829E-3   -1.376299776403545E-3    3.711946149123607E-1   -3.209151266138139E-1
 9.937333100625000E9     4.706191220587814E-1   -1.098488005967961E-1   -1.531438933183377E-3   -1.399526601832610E-3   -1.584691210773986E-3   -1.379926529036934E-3    3.707749081480901E-1   -3.208393910933288E-1
 9.937335629000000E9     4.706236157412131E-1   -1.098868346095420E-1   -1.573280264358875E-3   -1.428751607692174E-3   -1.647946174004936E-3   -1.418626157579664E-3    3.704114292295879E-1   -3.214075072037777E-1
 9.937338157375000E9     4.704041028967371E-1   -1.101333688216013E-1   -1.593562392200346E-3   -1.425652313390052E-3   -1.625655753916474E-3   -1.443903831672030E-3    3.699764328742339E-1   -3.215604115839218E-1
 9.937340685750000E9     4.704070405393602E-1   -1.102643634908800E-1   -1.635469099532887E-3   -1.434804197634432E-3   -1.692641371602472E-3   -1.454563546458951E-3    3.696827296643351E-1   -3.218121304688002E-1
