#  HZ   S   RI   R     50.00 
! Rohde & Schwarz Vector Network Analyzer 
! Rohde-Schwarz,ZNB20-2Port,1311601062101988,3.16
! Created: UTC 3/20/2024, 10:53:15 PM
! freq[Hz]                re:S11                  im:S11                  re:S21                  im:S21                  re:S12                  im:S12                  re:S22                  im:S22
 9.937753256000000E9     4.619646168902079E-1   -1.356333509677901E-1   -2.639100744364967E-3   -2.952431291412012E-3   -2.727701639338358E-3   -2.960837872001314E-3    3.489997560079902E-1   -3.484685609127464E-1
 9.937754198625000E9     4.617959815613005E-1   -1.356027932768801E-1   -2.638890289360161E-3   -2.974419820439192E-3   -2.755774915732386E-3   -2.998983501904552E-3    3.484572070467055E-1   -3.487130140627840E-1
 9.937755141250000E9     4.618056891577886E-1   -1.357339271842418E-1   -2.656099437145523E-3   -3.022655487317308E-3   -2.745287423747029E-3   -2.961652668953214E-3    3.483014690787533E-1   -3.488257650557345E-1
 9.937756083875000E9     4.618751594460632E-1   -1.357219352327902E-1   -2.726533462622761E-3   -3.015933149225217E-3   -2.764393788433468E-3   -2.997099653978503E-3    3.480385605698099E-1   -3.489728615014799E-1
 9.937757026500000E9     4.617845287632403E-1   -1.359010308420562E-1   -2.725348077119744E-3   -3.023274899330685E-3   -2.845795652636849E-3   -3.038433844539874E-3    3.478430638118987E-1   -3.492944418190962E-1
 9.937757969125000E9     4.617802070437758E-1   -1.359709270528797E-1   -2.736916896113878E-3   -3.038546589910399E-3   -2.842632274160418E-3   -3.053494956949276E-3    3.475600067854963E-1   -3.495514187418562E-1
 9.937758911750000E9     4.616899499883279E-1   -1.359502101033000E-1   -2.762551480060727E-3   -3.048583589959871E-3   -2.872850109998618E-3   -3.109017237761033E-3    3.472497381616388E-1   -3.496948008606217E-1
 9.937759854375000E9     4.617041479356101E-1   -1.359900323322802E-1   -2.762885699488737E-3   -3.081223220421688E-3   -2.881396789411937E-3   -3.112034867088177E-3    3.471321353613532E-1   -3.497314292264568E-1
 9.937760797000000E9     4.616898810677210E-1   -1.362378479809432E-1   -2.796336930736420E-3   -3.098024301572821E-3   -2.885559964845092E-3   -3.127773022096306E-3    3.469043132706748E-1   -3.501795081370971E-1
 9.937761739625000E9     4.615999497353026E-1   -1.361159255791124E-1   -2.826557083940703E-3   -3.147183827133605E-3   -2.910411118220007E-3   -3.140662865010602E-3    3.464582316846096E-1   -3.501496867464824E-1
 9.937762682250000E9     4.615583830553803E-1   -1.362339412578365E-1   -2.835747083732008E-3   -3.154204827912740E-3   -2.946362261246597E-3   -3.161982835702888E-3    3.460621280917294E-1   -3.504178032588889E-1
 9.937763624875000E9     4.615430557730460E-1   -1.363265270302751E-1   -2.883221656635455E-3   -3.161487330002685E-3   -2.989029334657578E-3   -3.154132099971082E-3    3.458715809850137E-1   -3.504640302925915E-1
 9.937764567500000E9     4.616040952673581E-1   -1.364613295819203E-1   -2.874831512490812E-3   -3.187332523194596E-3   -2.968074088957836E-3   -3.213669669763274E-3    3.457356153338720E-1   -3.507466778541647E-1
 9.937765510125000E9     4.615918245051961E-1   -1.366444895077913E-1   -2.905085376102712E-3   -3.199427786273856E-3   -3.005986705218785E-3   -3.213251649806237E-3    3.456363728305481E-1   -3.509186143150996E-1
 9.937766452750000E9     4.615634066944620E-1   -1.363805471776508E-1   -2.933823206935914E-3   -3.235485130669284E-3   -3.075242856740589E-3   -3.246371675571217E-3    3.451610982094800E-1   -3.511040091242825E-1
 9.937767395375000E9     4.614685493258077E-1   -1.366330447731422E-1   -2.948739561608552E-3   -3.272788364874462E-3   -3.048325260083930E-3   -3.268954166583272E-3    3.448892460638771E-1   -3.514165964014327E-1
 9.937768338000000E9     4.615120709841681E-1   -1.366701004023277E-1   -3.001830658916435E-3   -3.304859017726440E-3   -3.101923312990994E-3   -3.304611503791576E-3    3.446855899663369E-1   -3.514784133265058E-1
 9.937769280625000E9     4.614657351666474E-1   -1.367619460976353E-1   -3.020008756621317E-3   -3.309229602016161E-3   -3.146741840472634E-3   -3.325382153523351E-3    3.443821663408823E-1   -3.515893964013683E-1
 9.937770223250000E9     4.614255834251799E-1   -1.366834731851049E-1   -3.047992841806707E-3   -3.344245246428390E-3   -3.135559735106523E-3   -3.347146244222683E-3    3.439891835585210E-1   -3.518618399702916E-1
 9.937771165875000E9     4.613097594290032E-1   -1.368246332081101E-1   -3.089472448711705E-3   -3.352319938318209E-3   -3.157715737472170E-3   -3.369746162886244E-3    3.438537287574172E-1   -3.520446837559698E-1
 9.937772108500000E9     4.612692347503318E-1   -1.368581522465941E-1   -3.102332046775746E-3   -3.382762255268840E-3   -3.188620450329080E-3   -3.361510041367594E-3    3.435205292788174E-1   -3.524073698266511E-1
 9.937773051125000E9     4.612873968433640E-1   -1.368623855699851E-1   -3.116900508706338E-3   -3.387142632576335E-3   -3.216804936885067E-3   -3.417610155822428E-3    3.433634773774202E-1   -3.524300334921650E-1
 9.937773993750000E9     4.613072974385855E-1   -1.370838295836567E-1   -3.166329428788826E-3   -3.415429934139438E-3   -3.253111903852171E-3   -3.410974539277220E-3    3.429280707591006E-1   -3.526946665449628E-1
 9.937774936375000E9     4.613301142832664E-1   -1.371388583408089E-1   -3.180210453524599E-3   -3.423285543371167E-3   -3.294431612136199E-3   -3.476985361322444E-3    3.426225733909948E-1   -3.528599343869604E-1
 9.937775879000000E9     4.613531812574591E-1   -1.371559945459332E-1   -3.223545421010617E-3   -3.496854569337103E-3   -3.305205282611544E-3   -3.493357164646676E-3    3.422556214103704E-1   -3.530861823419139E-1
 9.937776821625000E9     4.612363576637795E-1   -1.372839702249605E-1   -3.247939449999356E-3   -3.519973657556697E-3   -3.333148385135069E-3   -3.501822195237857E-3    3.420664336062720E-1   -3.532493590676118E-1
 9.937777764250000E9     4.612546168277896E-1   -1.373767011877639E-1   -3.263420108367139E-3   -3.531707265520074E-3   -3.365413306894612E-3   -3.523193234985151E-3    3.417152927290476E-1   -3.533365075303950E-1
 9.937778706875000E9     4.612080103721307E-1   -1.374047226689141E-1   -3.295032178774038E-3   -3.527751955499659E-3   -3.380601807706092E-3   -3.576322414119216E-3    3.413617181996172E-1   -3.538603846359317E-1
 9.937779649500000E9     4.612665373521322E-1   -1.374395044097721E-1   -3.325249672057732E-3   -3.558667088700205E-3   -3.411251737405697E-3   -3.630700915993936E-3    3.409529197650369E-1   -3.539405019672778E-1
 9.937780592125000E9     4.611121722430998E-1   -1.374948361782766E-1   -3.375767143081864E-3   -3.559227887129314E-3   -3.487529125385049E-3   -3.591623190838507E-3    3.407428516245384E-1   -3.542501900515753E-1
 9.937781534750000E9     4.611259771727266E-1   -1.376160261752024E-1   -3.383771959989325E-3   -3.645847018782071E-3   -3.460040088741995E-3   -3.634350831383376E-3    3.403413534470164E-1   -3.542228571775977E-1
 9.937782477375000E9     4.612219679871979E-1   -1.376515121285657E-1   -3.428065232193028E-3   -3.668595509198581E-3   -3.562217913510570E-3   -3.662773623235996E-3    3.400806261301839E-1   -3.544088872042468E-1
 9.937783420000000E9     4.611030415374769E-1   -1.376464980511179E-1   -3.408563917545632E-3   -3.675401839408477E-3   -3.553661544949446E-3   -3.641654552989745E-3    3.396986071761949E-1   -3.546395171252023E-1
 9.937784362625000E9     4.610262607943608E-1   -1.377797758921020E-1   -3.507019402230634E-3   -3.695456858877557E-3   -3.596252084106695E-3   -3.720116955610828E-3    3.393937597368535E-1   -3.550314674585348E-1
 9.937785305250000E9     4.609931374805016E-1   -1.378426577020530E-1   -3.498743712887261E-3   -3.726019550374744E-3   -3.626030923254746E-3   -3.742065336007256E-3    3.392386889591824E-1   -3.551734515245586E-1
 9.937786247875000E9     4.609504792488536E-1   -1.379260721430616E-1   -3.554958427041278E-3   -3.726561557528629E-3   -3.678740184283241E-3   -3.762162998136027E-3    3.387757617018146E-1   -3.554664999142881E-1
 9.937787190500000E9     4.609096489141631E-1   -1.380478117986978E-1   -3.569388749054471E-3   -3.787765922131280E-3   -3.681813046953847E-3   -3.784269349622302E-3    3.384868950252615E-1   -3.557939619058084E-1
 9.937788133125000E9     4.608894936308654E-1   -1.380349834385821E-1   -3.616509121364892E-3   -3.780667016514929E-3   -3.736231761359055E-3   -3.828353474861410E-3    3.379728418366967E-1   -3.557908544623035E-1
 9.937789075750000E9     4.608110619304107E-1   -1.381196774530991E-1   -3.636286045218875E-3   -3.836029948813882E-3   -3.748667674451940E-3   -3.857628336273367E-3    3.377966233742296E-1   -3.559360296503406E-1
 9.937790018375000E9     4.608701188829498E-1   -1.382488658078901E-1   -3.659188112933154E-3   -3.870304683826536E-3   -3.820176989921832E-3   -3.877986287841269E-3    3.374965120249958E-1   -3.563251324086889E-1
 9.937790961000000E9     4.608043790588466E-1   -1.382457773967996E-1   -3.698953013082825E-3   -3.880455221885679E-3   -3.840830400209708E-3   -3.919664747930951E-3    3.370258745773930E-1   -3.564117213899807E-1
 9.937791903625000E9     4.608172466488872E-1   -1.382316900556466E-1   -3.752667392699474E-3   -3.927281781593570E-3   -3.847996136232578E-3   -3.939734589887015E-3    3.365776498862627E-1   -3.566333552803045E-1
 9.937792846250000E9     4.609058689527414E-1   -1.383704721971049E-1   -3.778523819456285E-3   -3.967615034342765E-3   -3.918457918087500E-3   -3.953680995771485E-3    3.362284637738270E-1   -3.570482198330406E-1
 9.937793788875000E9     4.606971690499327E-1   -1.384930125870768E-1   -3.795022475343884E-3   -3.973980120413318E-3   -3.911013949136681E-3   -3.988440865313444E-3    3.359447070753726E-1   -3.572988407941970E-1
 9.937794731500000E9     4.607013462807725E-1   -1.385953109627797E-1   -3.856677924309528E-3   -4.004035744920023E-3   -3.991747768532305E-3   -4.028717084305801E-3    3.355065280077624E-1   -3.575271416784560E-1
 9.937795674125000E9     4.606534612071687E-1   -1.384882535563535E-1   -3.857632917056492E-3   -4.016479225850572E-3   -4.031018495929416E-3   -4.019802385678532E-3    3.351439654542909E-1   -3.576630859592554E-1
 9.937796616750000E9     4.607162494562809E-1   -1.387631301581719E-1   -3.887869292381850E-3   -4.086804311059336E-3   -4.075590407827043E-3   -4.087034740834753E-3    3.345548645031190E-1   -3.579362600474149E-1
 9.937797559375000E9     4.607590174786194E-1   -1.387150395922666E-1   -3.969226840990599E-3   -4.055914304615491E-3   -4.070869412670363E-3   -4.103962707851542E-3    3.344286150328362E-1   -3.581671105450933E-1
 9.937798502000000E9     4.606404110329547E-1   -1.387126254214996E-1   -3.981963581119632E-3   -4.150811474672798E-3   -4.150628966560598E-3   -4.140060291465802E-3    3.339233357775597E-1   -3.583525198110724E-1
 9.937799444625000E9     4.605644123850288E-1   -1.388683110831753E-1   -4.057994991625583E-3   -4.203960301139723E-3   -4.160313084731162E-3   -4.180326718414863E-3    3.336073640707327E-1   -3.586683440117115E-1
 9.937800387250000E9     4.605974548582801E-1   -1.389927387026325E-1   -4.079048158732076E-3   -4.205419917379404E-3   -4.223648340220079E-3   -4.238706160337635E-3    3.331473801611775E-1   -3.588597559786919E-1
 9.937801329875000E9     4.605583074130699E-1   -1.390179046357434E-1   -4.114211259468529E-3   -4.220056602289328E-3   -4.217475744999927E-3   -4.241624814329867E-3    3.329619224180380E-1   -3.592442496521368E-1
 9.937802272500000E9     4.604691188831457E-1   -1.389459568001813E-1   -4.124726377036203E-3   -4.244675562143507E-3   -4.284476365403553E-3   -4.265677560081147E-3    3.323476392915555E-1   -3.594069606070622E-1
 9.937803215125000E9     4.604459098158171E-1   -1.391372216688092E-1   -4.179118805056849E-3   -4.257725805760919E-3   -4.353055521601396E-3   -4.335041988302118E-3    3.317756275603782E-1   -3.596162107691636E-1
 9.937804157750000E9     4.603337873793243E-1   -1.392768049304469E-1   -4.263651037264813E-3   -4.317976008176675E-3   -4.406410034044507E-3   -4.319745442542949E-3    3.314520173371128E-1   -3.598249700852639E-1
 9.937805100375000E9     4.604072483614660E-1   -1.391160948244435E-1   -4.304059059814674E-3   -4.346157666512395E-3   -4.446798024193772E-3   -4.378099804677442E-3    3.309347866399332E-1   -3.602627523418347E-1
 9.937806043000000E9     4.603964741637522E-1   -1.391173206882227E-1   -4.309012864101829E-3   -4.374828281673369E-3   -4.473536333709113E-3   -4.408097717493222E-3    3.305275623450231E-1   -3.604039681776967E-1
 9.937806985625000E9     4.602873177098278E-1   -1.393091512911644E-1   -4.349629407960985E-3   -4.422173583176293E-3   -4.498249289209973E-3   -4.421305371142189E-3    3.300782072156440E-1   -3.607206030926241E-1
 9.937807928250000E9     4.603323582186820E-1   -1.394882167276787E-1   -4.389645288444406E-3   -4.465847538886978E-3   -4.575099521884444E-3   -4.482290015297616E-3    3.298891472224075E-1   -3.611124917459793E-1
 9.937808870875000E9     4.602160387616285E-1   -1.395564376836854E-1   -4.454626110088107E-3   -4.488360148078937E-3   -4.619771286113306E-3   -4.507029450180165E-3    3.292721468650691E-1   -3.612413357327839E-1
 9.937809813500000E9     4.602196451160509E-1   -1.395023414188390E-1   -4.507796833460576E-3   -4.523182093561662E-3   -4.684751339213919E-3   -4.534265276178132E-3    3.288845516668547E-1   -3.615087792658507E-1
 9.937810756125000E9     4.602938579372435E-1   -1.396588789521715E-1   -4.545008657909077E-3   -4.526331488653282E-3   -4.709615379053104E-3   -4.586692099909443E-3    3.280451977477291E-1   -3.616991110474281E-1
 9.937811698750000E9     4.603409862598524E-1   -1.397054517766014E-1   -4.584106600245197E-3   -4.614452198923950E-3   -4.784275244027083E-3   -4.601452305753314E-3    3.278996379441925E-1   -3.621466406505361E-1
 9.937812641375000E9     4.603304970326473E-1   -1.398843084467068E-1   -4.663747825987254E-3   -4.621066036495710E-3   -4.818464462724763E-3   -4.632705410198831E-3    3.274002837882365E-1   -3.625462718777764E-1
 9.937813584000000E9     4.601936645563534E-1   -1.398755483989459E-1   -4.681028867342063E-3   -4.685097250169142E-3   -4.878653827595638E-3   -4.643397969860091E-3    3.268624338855792E-1   -3.626288331084623E-1
 9.937814526625000E9     4.601344374198886E-1   -1.399116355618682E-1   -4.740886304186897E-3   -4.704125643378200E-3   -4.921126007218078E-3   -4.743070688100086E-3    3.263539612530472E-1   -3.628404589394325E-1
 9.937815469250000E9     4.601718556780439E-1   -1.398283024134388E-1   -4.746950482435193E-3   -4.724231462548811E-3   -4.999034996507757E-3   -4.739867140228545E-3    3.257342906479865E-1   -3.632338780090265E-1
 9.937816411875000E9     4.601300155902648E-1   -1.400122192070137E-1   -4.838974532181325E-3   -4.782291416462239E-3   -5.041168998838822E-3   -4.790900046800280E-3    3.252662208834691E-1   -3.635904272344280E-1
 9.937817354500000E9     4.599679884363054E-1   -1.401016279948355E-1   -4.903246257679459E-3   -4.813964279819145E-3   -5.085040720687163E-3   -4.841886963480185E-3    3.248082974907517E-1   -3.636936263790170E-1
 9.937818297125000E9     4.600386906333180E-1   -1.401669647284154E-1   -4.971975053925790E-3   -4.873435511628416E-3   -5.138137963733403E-3   -4.862683083126763E-3    3.241158618984566E-1   -3.640037742502434E-1
 9.937819239750000E9     4.599707638955644E-1   -1.402446746692018E-1   -5.011851224010829E-3   -4.903386072091109E-3   -5.205098844118211E-3   -4.939196690803699E-3    3.237574889123098E-1   -3.642995007850729E-1
 9.937820182375000E9     4.599823597269807E-1   -1.403116524460176E-1   -5.066870621281301E-3   -4.960663988052117E-3   -5.244555135099976E-3   -4.948327038321590E-3    3.231801516267097E-1   -3.647456535350582E-1
 9.937821125000000E9     4.598650226045705E-1   -1.404184793083902E-1   -5.110495468056005E-3   -4.963407771823216E-3   -5.293906017961363E-3   -4.984817129191247E-3    3.226239668147776E-1   -3.649135203686806E-1
 9.937822067625000E9     4.600370188407355E-1   -1.404830676324813E-1   -5.192271649278180E-3   -5.028763411737685E-3   -5.350578480316818E-3   -5.012224869115265E-3    3.220293778508576E-1   -3.652156073011628E-1
 9.937823010250000E9     4.599331752539897E-1   -1.405820930864690E-1   -5.237553826527379E-3   -5.044270157202572E-3   -5.426520251531467E-3   -5.045577648937955E-3    3.214500935628346E-1   -3.654195256202072E-1
 9.937823952875000E9     4.598903007983097E-1   -1.405183312462033E-1   -5.290910271142333E-3   -5.102614286902125E-3   -5.496814348526279E-3   -5.121375640191296E-3    3.208668125920615E-1   -3.658930164137713E-1
 9.937824895500000E9     4.598756699741842E-1   -1.406968002207632E-1   -5.346602481388834E-3   -5.176149416429123E-3   -5.546507701390872E-3   -5.186415284684024E-3    3.203721176379075E-1   -3.663377287894646E-1
 9.937825838125000E9     4.596717441170526E-1   -1.408049085839895E-1   -5.401041980621228E-3   -5.189373661102793E-3   -5.610615770473329E-3   -5.174257103852289E-3    3.197733234104124E-1   -3.663562640240673E-1
 9.937826780750000E9     4.597731388985436E-1   -1.407449858769300E-1   -5.470987872715402E-3   -5.241493534501825E-3   -5.695747425331854E-3   -5.268469377398993E-3    3.191432288084283E-1   -3.667610188130740E-1
 9.937827723375000E9     4.597963063502503E-1   -1.408303223023987E-1   -5.530818907646919E-3   -5.310950582644115E-3   -5.751298782838213E-3   -5.311419229334904E-3    3.182860257152363E-1   -3.671367611257238E-1
 9.937828666000000E9     4.596658554104987E-1   -1.409877965836397E-1   -5.627636853885014E-3   -5.332628286621819E-3   -5.794941399598076E-3   -5.341211161100632E-3    3.177658359380260E-1   -3.673801862625555E-1
 9.937829608625000E9     4.596883692073128E-1   -1.409999155637287E-1   -5.668854844881701E-3   -5.373288221949534E-3   -5.865145333501314E-3   -5.397636088547661E-3    3.171091747512080E-1   -3.675791624193601E-1
 9.937830551250000E9     4.596925744071019E-1   -1.411854895991996E-1   -5.745587741419405E-3   -5.408729278287296E-3   -5.956027357872810E-3   -5.456626288078172E-3    3.164119898452344E-1   -3.680447565478791E-1
 9.937831493875000E9     4.597076630416885E-1   -1.411638675231161E-1   -5.818405902416071E-3   -5.472829888472084E-3   -6.025731665180822E-3   -5.495223007476700E-3    3.157508182665589E-1   -3.685096160992729E-1
 9.937832436500000E9     4.595745630748154E-1   -1.410499573677640E-1   -5.876383607829659E-3   -5.507479273561013E-3   -6.100687273510269E-3   -5.531598355691406E-3    3.152057404371447E-1   -3.687970370128932E-1
 9.937833379125000E9     4.595803818957510E-1   -1.412710202381964E-1   -5.961874348488675E-3   -5.575260183817150E-3   -6.162693170017454E-3   -5.553692037178553E-3    3.143184687439279E-1   -3.690042207636771E-1
 9.937834321750000E9     4.596142729915120E-1   -1.413274140231490E-1   -6.071636472595739E-3   -5.607869386963720E-3   -6.268302318456512E-3   -5.652708400900662E-3    3.136680450190845E-1   -3.695664843815635E-1
 9.937835264375000E9     4.592972309811184E-1   -1.414334868200815E-1   -6.101695513276830E-3   -5.652542422050504E-3   -6.300478699091431E-3   -5.672740607943165E-3    3.129188497370877E-1   -3.697050339393130E-1
 9.937836207000000E9     4.594179705229160E-1   -1.414908521302199E-1   -6.193341578175000E-3   -5.703318782938247E-3   -6.408094440769972E-3   -5.740720172483491E-3    3.122141982170077E-1   -3.701014797425496E-1
 9.937837149625000E9     4.594267246892786E-1   -1.416089481884312E-1   -6.234317509180679E-3   -5.768512239343958E-3   -6.481429204695124E-3   -5.788819006603689E-3    3.116169347318221E-1   -3.702430270535034E-1
 9.937838092250000E9     4.593630784717027E-1   -1.415764219205249E-1   -6.344396741676001E-3   -5.800486432986069E-3   -6.550282677387794E-3   -5.854343739206273E-3    3.108749303620643E-1   -3.708080274495281E-1
