#  HZ   S   RI   R     50.00 
! Rohde & Schwarz Vector Network Analyzer 
! Rohde-Schwarz,ZNB20-2Port,1311601062101988,3.16
! Created: UTC 3/20/2024, 11:04:50 PM
! freq[Hz]                re:S11                  im:S11                  re:S21                  im:S21                  re:S12                  im:S12                  re:S22                  im:S22
 9.937099498000000E9     4.752093424115508E-1   -9.422527521170568E-2   -3.265648072212087E-4   -2.807149964165866E-4   -3.547243314640107E-4   -2.912696976344124E-4    3.926829537057809E-1   -3.055125627364932E-1
 9.937102047375000E9     4.750824251274445E-1   -9.424273680709983E-2   -3.102124392833821E-4   -3.075131181772093E-4   -3.141666286202427E-4   -2.572285915921846E-4    3.922572162391767E-1   -3.057506092502183E-1
 9.937104596750000E9     4.750088012259136E-1   -9.435621556537858E-2   -3.119061356675545E-4   -2.960188056804775E-4   -3.190780471368017E-4   -2.556452186626166E-4    3.920427979239413E-1   -3.060392176585470E-1
 9.937107146125000E9     4.749843278809603E-1   -9.473238759870840E-2   -3.128618074614583E-4   -2.432020871848396E-4   -3.565725679707096E-4   -2.980322970700413E-4    3.919686534021999E-1   -3.061818790393811E-1
 9.937109695500000E9     4.749708224882468E-1   -9.484062425547297E-2   -3.526427761988864E-4   -3.297145499382019E-4   -3.237530701485559E-4   -2.793832332981334E-4    3.916641819464477E-1   -3.062977282940287E-1
 9.937112244875000E9     4.748481393131930E-1   -9.490822003797109E-2   -3.742096396661236E-4   -3.241050957749406E-4   -3.784172509966172E-4   -3.282940155623220E-4    3.915637675060046E-1   -3.064903160927154E-1
 9.937114794250000E9     4.748098000159620E-1   -9.509249861073339E-2   -3.756407037729675E-4   -3.451680004686929E-4   -3.802142525603648E-4   -3.297344496634499E-4    3.915458544184867E-1   -3.067496661978905E-1
 9.937117343625000E9     4.747201586664473E-1   -9.520269129070474E-2   -3.786932890317524E-4   -3.284031185005826E-4   -4.173214270192191E-4   -2.992128187120956E-4    3.911610643173959E-1   -3.068649818414995E-1
 9.937119893000000E9     4.745954661085074E-1   -9.549959950315912E-2   -3.710840282539297E-4   -3.280785958699338E-4   -3.985439849002874E-4   -3.689548635566706E-4    3.910799376105698E-1   -3.070990528571491E-1
 9.937122442375000E9     4.746935188035378E-1   -9.564607438981773E-2   -3.935318603317516E-4   -3.482499914147574E-4   -3.431843569344641E-4   -3.614636805425865E-4    3.909322950931552E-1   -3.071224405220637E-1
 9.937124991750000E9     4.745952492214550E-1   -9.588064970291936E-2   -4.061586478796354E-4   -4.029514176809518E-4   -3.870835982294639E-4   -3.701104821522874E-4    3.906469702209413E-1   -3.072693202736488E-1
 9.937127541125000E9     4.745371759509943E-1   -9.616811430592569E-2   -4.176031648528490E-4   -3.614627190993562E-4   -3.789897606612050E-4   -3.598361290379899E-4    3.904195822222516E-1   -3.077441323728556E-1
 9.937130090500000E9     4.745111052842003E-1   -9.613453623531501E-2   -4.073371953195553E-4   -3.717646882992880E-4   -4.393422486778907E-4   -3.661593480628817E-4    3.904400920992235E-1   -3.077069607469709E-1
 9.937132639875000E9     4.744056341259373E-1   -9.632928120473012E-2   -4.022243279109820E-4   -3.770802400733292E-4   -4.169028511299621E-4   -3.962739444639257E-4    3.899916358597062E-1   -3.081553571403655E-1
 9.937135189250000E9     4.744459303267969E-1   -9.662037604037649E-2   -4.566679707094919E-4   -4.042228201873193E-4   -4.492058177762627E-4   -3.883936882175031E-4    3.899568474165079E-1   -3.082064455958372E-1
 9.937137738625000E9     4.742304707813215E-1   -9.679391810255791E-2   -4.355072119969080E-4   -4.019888428886436E-4   -4.552945900485267E-4   -3.953748772360860E-4    3.896760114012100E-1   -3.083219481793706E-1
 9.937140288000000E9     4.742708909785928E-1   -9.704481916071357E-2   -4.555349315994988E-4   -4.366999038559713E-4   -4.664849339738242E-4   -4.244784813843809E-4    3.894181659994279E-1   -3.086395888550075E-1
 9.937142837375000E9     4.742564152971779E-1   -9.703616426349897E-2   -4.443791258243485E-4   -4.185211276267444E-4   -4.577507143783011E-4   -4.204989895425415E-4    3.892282827774160E-1   -3.087740970857137E-1
 9.937145386750000E9     4.742092368508546E-1   -9.707108785823902E-2   -4.970999068316257E-4   -4.418769532828771E-4   -4.627082365568651E-4   -4.231884820959520E-4    3.891457367233874E-1   -3.091079798577528E-1
 9.937147936125000E9     4.742098045320649E-1   -9.737878575833918E-2   -4.659119704004830E-4   -4.181615365360675E-4   -4.894124609226392E-4   -4.304796454985152E-4    3.888618540219613E-1   -3.093425146461771E-1
 9.937150485500000E9     4.740190525777521E-1   -9.762856257000008E-2   -4.848674998632915E-4   -4.511955740526706E-4   -4.837438151109764E-4   -4.468515806030814E-4    3.886801034084928E-1   -3.093237217701992E-1
 9.937153034875000E9     4.740441350384152E-1   -9.779734831436984E-2   -4.879909663479625E-4   -4.831023022990292E-4   -5.091952193039419E-4   -5.076467437302824E-4    3.884189960549218E-1   -3.096251952271820E-1
 9.937155584250000E9     4.739845128477325E-1   -9.791740105005640E-2   -4.798134956713928E-4   -4.985241566805768E-4   -5.085871912875325E-4   -4.685370226985987E-4    3.881163512095475E-1   -3.096989193307418E-1
 9.937158133625000E9     4.740635335026941E-1   -9.801292891357516E-2   -4.915870263612695E-4   -5.095520061163442E-4   -5.241343055635188E-4   -4.835794946881501E-4    3.879832503782242E-1   -3.098771284278764E-1
 9.937160683000000E9     4.738705045939522E-1   -9.831225540315058E-2   -5.119350162223766E-4   -4.694073485107062E-4   -5.275943580832784E-4   -5.044105187649623E-4    3.879255532221287E-1   -3.100916782363127E-1
 9.937163232375000E9     4.738723540700900E-1   -9.837805449321813E-2   -5.643507530118752E-4   -5.249454295945785E-4   -5.632735397056262E-4   -4.981301733250816E-4    3.877397617338778E-1   -3.103899819856140E-1
 9.937165781750000E9     4.738180074448597E-1   -9.860651681509693E-2   -5.587790377075430E-4   -5.168006111233476E-4   -5.536081047225359E-4   -4.900878605641916E-4    3.874468262407982E-1   -3.105986850122608E-1
 9.937168331125000E9     4.738581213657796E-1   -9.870405719783297E-2   -5.554569012633021E-4   -5.418594829971456E-4   -5.761352953903807E-4   -5.248907612564865E-4    3.872229582322280E-1   -3.108598651286912E-1
 9.937170880500000E9     4.737393457484464E-1   -9.901560186846863E-2   -5.346601777164954E-4   -5.003241819730480E-4   -5.552023825882836E-4   -5.482398993211904E-4    3.870903788456693E-1   -3.108146882192130E-1
 9.937173429875000E9     4.735947748987693E-1   -9.922366754275580E-2   -5.906498752623630E-4   -5.318559348372048E-4   -5.720884845478088E-4   -5.219854915410388E-4    3.867764859178890E-1   -3.109297014469519E-1
 9.937175979250000E9     4.737424919885972E-1   -9.942638620343539E-2   -5.619196369392275E-4   -5.428173343560616E-4   -6.086542311498650E-4   -5.637999624905396E-4    3.865229456370303E-1   -3.111822083038136E-1
 9.937178528625000E9     4.734371339699592E-1   -9.955089534688699E-2   -5.779174953532327E-4   -5.519703724696935E-4   -6.387984823434023E-4   -5.502962951173937E-4    3.865588286023831E-1   -3.114834495098684E-1
 9.937181078000000E9     4.735332972500600E-1   -9.952640474369136E-2   -6.138649848963999E-4   -5.704531423501237E-4   -6.024260772686703E-4   -5.690262637910450E-4    3.862331277223686E-1   -3.115251139685487E-1
 9.937183627375000E9     4.734968024545235E-1   -9.973680069191825E-2   -6.417226390870055E-4   -5.740039080988496E-4   -6.244687383421333E-4   -5.732640705196913E-4    3.860964245910336E-1   -3.118544188323136E-1
 9.937186176750000E9     4.735126691830003E-1   -9.993849070640470E-2   -6.324766909245446E-4   -5.752451774087650E-4   -6.118963113407336E-4   -5.865298441251918E-4    3.856514962017212E-1   -3.119557043465120E-1
 9.937188726125000E9     4.735116795672752E-1   -1.001036124305405E-1   -6.150362678429939E-4   -5.803462551472658E-4   -6.772250995401670E-4   -5.963105881866378E-4    3.854891389488323E-1   -3.122198991716075E-1
 9.937191275500000E9     4.735059149216029E-1   -1.002801664455142E-1   -6.537013604868773E-4   -6.044784821536857E-4   -6.489593944202892E-4   -6.141290692653917E-4    3.852342231940110E-1   -3.124043745388656E-1
 9.937193824875000E9     4.733556976589066E-1   -1.005803429769989E-1   -6.326065597370063E-4   -6.449766541552033E-4   -6.819215030504297E-4   -6.338959200520823E-4    3.852391100749329E-1   -3.127954503858998E-1
 9.937196374250000E9     4.731509994564794E-1   -1.006616610489710E-1   -6.350595049763550E-4   -6.473602970354249E-4   -6.919669748972616E-4   -6.293112350492500E-4    3.849945319798216E-1   -3.129377773337106E-1
 9.937198923625000E9     4.732567223555478E-1   -1.008402306425033E-1   -7.105749315420972E-4   -6.575557539195146E-4   -6.890896489614223E-4   -6.364470608471068E-4    3.847267685845823E-1   -3.130361999559673E-1
 9.937201473000000E9     4.731422247305505E-1   -1.009926659575751E-1   -6.849141055834512E-4   -6.475285152505834E-4   -7.106525442699589E-4   -6.341229823970372E-4    3.843023306517228E-1   -3.130960296587466E-1
 9.937204022375000E9     4.730677663007329E-1   -1.012448109225484E-1   -7.294593403253263E-4   -6.828053185268365E-4   -7.302532036370326E-4   -6.573246364997861E-4    3.842754478282707E-1   -3.134154667913915E-1
 9.937206571750000E9     4.730428304927252E-1   -1.014183299709074E-1   -6.978382394037283E-4   -7.233629458632564E-4   -7.405830721495025E-4   -6.818254665687752E-4    3.840582044129159E-1   -3.136068915968600E-1
 9.937209121125000E9     4.728458877079786E-1   -1.015407755825366E-1   -7.323727492992002E-4   -6.860615169819131E-4   -7.438872684049813E-4   -6.832602422866575E-4    3.837032936874814E-1   -3.136800166731156E-1
 9.937211670500000E9     4.730847662380491E-1   -1.017546221177332E-1   -7.422062443284758E-4   -7.310669832803610E-4   -7.507343117407740E-4   -7.395804856694650E-4    3.835345566066883E-1   -3.140918843851305E-1
 9.937214219875000E9     4.729451629166033E-1   -1.018845735047048E-1   -7.642856451007887E-4   -7.337410679717426E-4   -7.945966695985851E-4   -7.277750364968643E-4    3.832700940965059E-1   -3.142878522561456E-1
 9.937216769250000E9     4.728751896371360E-1   -1.020845646878694E-1   -7.842196832087551E-4   -7.489851339406884E-4   -7.839744805115750E-4   -7.346659244472335E-4    3.831156203090962E-1   -3.145507387265832E-1
 9.937219318625000E9     4.728821457784686E-1   -1.022081959246853E-1   -7.619550288033405E-4   -7.424474994215691E-4   -8.191442427143791E-4   -7.379259311480036E-4    3.829370133499863E-1   -3.146963246568396E-1
 9.937221868000000E9     4.726822194359727E-1   -1.024125163534898E-1   -8.155632741894513E-4   -7.534851580615370E-4   -8.030984089616514E-4   -7.869683650449547E-4    3.825397026501808E-1   -3.149013646196011E-1
 9.937224417375000E9     4.726423850427161E-1   -1.026225646688625E-1   -7.978519796324672E-4   -7.711801641362112E-4   -8.330846741001816E-4   -7.578214136455678E-4    3.821911981606650E-1   -3.150744905041376E-1
 9.937226966750000E9     4.726332909934146E-1   -1.027658483970634E-1   -8.407391509920661E-4   -7.699402493913817E-4   -8.321973231707843E-4   -8.011533507596908E-4    3.821379040802901E-1   -3.152986208831493E-1
 9.937229516125000E9     4.726624628754419E-1   -1.028405654733364E-1   -8.416886436136346E-4   -7.800675358291029E-4   -8.854346240562950E-4   -7.783965666410790E-4    3.819394144040164E-1   -3.154985552611154E-1
 9.937232065500000E9     4.725449877520771E-1   -1.030640783916784E-1   -8.180892068056366E-4   -8.420162573009471E-4   -8.813173436135005E-4   -8.005112572371984E-4    3.814988083182624E-1   -3.156410337931004E-1
 9.937234614875000E9     4.725731237626776E-1   -1.032172138725477E-1   -8.414931525026766E-4   -8.483217587126439E-4   -8.802883272601279E-4   -8.075016011309504E-4    3.813714822028407E-1   -3.158642112158342E-1
 9.937237164250000E9     4.724396063310579E-1   -1.034890000752353E-1   -8.832828664891546E-4   -8.263015820687757E-4   -9.079728088710103E-4   -8.319521442063569E-4    3.812053479955035E-1   -3.161916005410881E-1
 9.937239713625000E9     4.724720274213238E-1   -1.035079709285544E-1   -9.195360722846013E-4   -8.491352848072963E-4   -8.931910333826036E-4   -8.277755212595081E-4    3.808923581357633E-1   -3.163782994194207E-1
 9.937242263000000E9     4.722905984068151E-1   -1.037891040270247E-1   -9.021345082307919E-4   -8.378893711365697E-4   -9.199161354789231E-4   -8.655314576378102E-4    3.806238154372374E-1   -3.167344342302686E-1
 9.937244812375000E9     4.723936077833866E-1   -1.039165149732188E-1   -9.182303274959682E-4   -8.854315531026482E-4   -9.460492438230374E-4   -8.882511393194443E-4    3.803114640894822E-1   -3.167350820613576E-1
 9.937247361750000E9     4.723831673584952E-1   -1.040658186933735E-1   -9.553971428957247E-4   -8.826547096839083E-4   -9.498612380465256E-4   -8.902027065145719E-4    3.799792786733928E-1   -3.169353224798582E-1
 9.937249911125000E9     4.722589005637872E-1   -1.041779359530603E-1   -9.694905529611577E-4   -9.023667817368123E-4   -9.902740585414889E-4   -8.983777238595099E-4    3.799275676895503E-1   -3.172212319387638E-1
 9.937252460500000E9     4.721889370267087E-1   -1.044960046901582E-1   -1.008019168942395E-3   -8.811443756607090E-4   -1.017456053420862E-3   -9.360844697438492E-4    3.794540169038050E-1   -3.175227277097927E-1
 9.937255009875000E9     4.721127545634243E-1   -1.045518531390602E-1   -1.000130578426390E-3   -9.579513089887708E-4   -1.033054957944315E-3   -9.222244784839430E-4    3.793759510240531E-1   -3.177363025192426E-1
 9.937257559250000E9     4.720285174429996E-1   -1.048929813017957E-1   -1.015266431001065E-3   -9.221489462696444E-4   -1.027423683317505E-3   -9.388691107505957E-4    3.790613676801161E-1   -3.178662479791304E-1
 9.937260108625000E9     4.721055012987471E-1   -1.050482543215352E-1   -9.926138227099052E-4   -9.888969146672529E-4   -1.053282377177292E-3   -9.648819158560916E-4    3.787603865051485E-1   -3.182154045523397E-1
 9.937262658000000E9     4.719857415462080E-1   -1.052259632083924E-1   -1.075228689966219E-3   -9.683801428495367E-4   -1.067989370781746E-3   -9.596174554891388E-4    3.781917266437134E-1   -3.183103868915061E-1
 9.937265207375000E9     4.720153084419540E-1   -1.053446050718217E-1   -1.079563324599318E-3   -9.895297930464641E-4   -1.106776925166535E-3   -9.741263029840401E-4    3.782631467719586E-1   -3.185835185654519E-1
 9.937267756750000E9     4.718860991297043E-1   -1.054198026166883E-1   -1.070862469272397E-3   -9.912663581997912E-4   -1.140592674112336E-3   -1.001123213400602E-3    3.777320424643539E-1   -3.187836912742434E-1
 9.937270306125000E9     4.718975090495710E-1   -1.057414806306440E-1   -1.069385724204717E-3   -9.993844174566249E-4   -1.123675609803197E-3   -9.963022090394864E-4    3.776963019145497E-1   -3.189722253744278E-1
 9.937272855500000E9     4.718444285380649E-1   -1.059313089020204E-1   -1.145190172875592E-3   -1.015511096622715E-3   -1.112868933252508E-3   -1.031849714694192E-3    3.772223773400027E-1   -3.193013677699643E-1
 9.937275404875000E9     4.716888185697773E-1   -1.060084231776621E-1   -1.112459479554907E-3   -1.062856171885164E-3   -1.188464423811742E-3   -1.089972830312361E-3    3.770426209130702E-1   -3.195641903784829E-1
 9.937277954250000E9     4.716209392761047E-1   -1.063020325014342E-1   -1.163233362252979E-3   -1.052061997417435E-3   -1.198559521369308E-3   -1.076074919645656E-3    3.766715549311093E-1   -3.197170580580267E-1
 9.937280503625000E9     4.717338861724458E-1   -1.065248335970438E-1   -1.160890010924945E-3   -1.057577620773515E-3   -1.211598975584586E-3   -1.106338811917832E-3    3.762828355362439E-1   -3.199997935268578E-1
 9.937283053000000E9     4.715925485779303E-1   -1.065293929823729E-1   -1.180204544213726E-3   -1.061300740543162E-3   -1.218781940702780E-3   -1.127019030254873E-3    3.759600376695473E-1   -3.199397922392225E-1
 9.937285602375000E9     4.715810204131292E-1   -1.067310032666833E-1   -1.220612418893719E-3   -1.093686191261200E-3   -1.223221354449930E-3   -1.094040054769160E-3    3.758535596370930E-1   -3.204663962621070E-1
 9.937288151750000E9     4.714885325019266E-1   -1.067405284964526E-1   -1.228716904013615E-3   -1.153097182169179E-3   -1.269684277775651E-3   -1.150286221494372E-3    3.755211490044957E-1   -3.206175850845799E-1
 9.937290701125000E9     4.713479426353438E-1   -1.070010838581625E-1   -1.274072234008980E-3   -1.153925489541223E-3   -1.305292334754764E-3   -1.111540466627509E-3    3.750877631377130E-1   -3.208564385307362E-1
 9.937293250500000E9     4.713327391860364E-1   -1.072317828937438E-1   -1.280515465314163E-3   -1.166539282484806E-3   -1.316663674924251E-3   -1.161458897061602E-3    3.749154207699286E-1   -3.209781826682565E-1
 9.937295799875000E9     4.713219673568296E-1   -1.073365967959420E-1   -1.302442564769692E-3   -1.219886991058565E-3   -1.312512051932116E-3   -1.203439012404788E-3    3.745748192742334E-1   -3.214593642968844E-1
 9.937298349250000E9     4.713440675463905E-1   -1.075803854960393E-1   -1.333422023309305E-3   -1.179337435179060E-3   -1.380765187956922E-3   -1.201018915104323E-3    3.742401411536791E-1   -3.216116042281268E-1
 9.937300898625000E9     4.712552777527838E-1   -1.075983314138786E-1   -1.340195763073646E-3   -1.217361746893063E-3   -1.379346731911440E-3   -1.221947341123393E-3    3.739069266168670E-1   -3.217270449053700E-1
 9.937303448000000E9     4.712580740037390E-1   -1.080045399185395E-1   -1.377744472035040E-3   -1.263007752909319E-3   -1.396333745088427E-3   -1.229884408414642E-3    3.736702668161151E-1   -3.220703569344030E-1
 9.937305997375000E9     4.712695362745357E-1   -1.081566963169478E-1   -1.387953226983135E-3   -1.239045422640383E-3   -1.388382078002629E-3   -1.275946406808532E-3    3.731747927663460E-1   -3.220529382633357E-1
 9.937308546750000E9     4.710883977201354E-1   -1.082349047785155E-1   -1.428465782454969E-3   -1.266289044157429E-3   -1.456370610525624E-3   -1.254076982091774E-3    3.727943681255947E-1   -3.224768226680241E-1
 9.937311096125000E9     4.710388232835175E-1   -1.084772547352887E-1   -1.422070671887082E-3   -1.291497667828323E-3   -1.490544427963227E-3   -1.275216202346818E-3    3.728018918565458E-1   -3.227473009113679E-1
 9.937313645500000E9     4.710638906483047E-1   -1.086597248488455E-1   -1.481613956058350E-3   -1.297631439814465E-3   -1.501293261363400E-3   -1.289468252893286E-3    3.722979775976557E-1   -3.231644651909648E-1
 9.937316194875000E9     4.708471395876397E-1   -1.087451020325875E-1   -1.500889231108676E-3   -1.326415694734056E-3   -1.531893718207127E-3   -1.334773572932809E-3    3.718600151539158E-1   -3.233329590233983E-1
 9.937318744250000E9     4.708627243932223E-1   -1.089542625870064E-1   -1.547429307068765E-3   -1.357349205736665E-3   -1.581066220159737E-3   -1.347682414086756E-3    3.717392099919591E-1   -3.235897963917996E-1
 9.937321293625000E9     4.708059187731617E-1   -1.089850100308504E-1   -1.562493471963746E-3   -1.376280770089471E-3   -1.615894813530252E-3   -1.339598580508572E-3    3.711656666083985E-1   -3.238729048113492E-1
 9.937323843000000E9     4.707460692874375E-1   -1.094015199607786E-1   -1.587589279482447E-3   -1.384708245024007E-3   -1.632187746005785E-3   -1.379355084015931E-3    3.709772998853491E-1   -3.239524085109015E-1
 9.937326392375000E9     4.707058270438910E-1   -1.094819560822864E-1   -1.595576265469667E-3   -1.419725071154950E-3   -1.672230988811806E-3   -1.390679723165379E-3    3.704470447180231E-1   -3.243382123845048E-1
 9.937328941750000E9     4.707679335096538E-1   -1.097638899886799E-1   -1.628610640984497E-3   -1.415703315270163E-3   -1.672883568854234E-3   -1.403782927397181E-3    3.699913101324605E-1   -3.244486410361965E-1
