#  HZ   S   RI   R     50.00 
! Rohde & Schwarz Vector Network Analyzer 
! Rohde-Schwarz,ZNB20-2Port,1311601062101988,3.16
! Created: UTC 3/20/2024, 11:04:55 PM
! freq[Hz]                re:S11                  im:S11                  re:S21                  im:S21                  re:S12                  im:S12                  re:S22                  im:S22
 9.937086413000000E9     4.752848191223974E-1   -9.312502830075343E-2   -3.014918300579864E-4   -2.385032272101261E-4   -2.956723179476222E-4   -2.521672744470185E-4    3.935665068888890E-1   -3.047040481812054E-1
 9.937089021100000E9     4.752378957484009E-1   -9.328229720252751E-2   -2.922760772665234E-4   -2.382558544986936E-4   -2.900135074797625E-4   -2.795268887378561E-4    3.932777330330461E-1   -3.049391730627415E-1
 9.937091629200001E9     4.750426299401004E-1   -9.361764807235706E-2   -2.906823769640979E-4   -2.834005303766572E-4   -3.123796764108559E-4   -2.941319941247510E-4    3.930068012894006E-1   -3.051453783331877E-1
 9.937094237299999E9     4.751170256123903E-1   -9.384028888045168E-2   -3.390777637654525E-4   -2.721410863568443E-4   -3.032072183836122E-4   -2.732582985165675E-4    3.928541617749465E-1   -3.051532589165190E-1
 9.937096845400000E9     4.751206903019002E-1   -9.406155421017887E-2   -2.837668399409961E-4   -2.421239651322934E-4   -3.176198993318982E-4   -2.889420012259016E-4    3.927288013113724E-1   -3.053243284907657E-1
 9.937099453500000E9     4.750093524738515E-1   -9.396229193935725E-2   -3.045954373618589E-4   -2.532057754226564E-4   -3.516227738505458E-4   -2.909399419274914E-4    3.926745052850828E-1   -3.057745633736932E-1
 9.937102061600000E9     4.749552030757176E-1   -9.430493006606425E-2   -3.232583409716588E-4   -2.981497786716719E-4   -3.597062847856838E-4   -3.005587009452613E-4    3.925452990221392E-1   -3.056697483570884E-1
 9.937104669700001E9     4.748245363024202E-1   -9.444426748752084E-2   -3.429243515097627E-4   -3.179297664787256E-4   -3.365387080018380E-4   -3.215887137228838E-4    3.921380871496809E-1   -3.059887513719415E-1
 9.937107277799999E9     4.748942057477223E-1   -9.473752372346872E-2   -3.330036304346553E-4   -3.113133001506481E-4   -3.496323336884427E-4   -3.372269976436025E-4    3.918870951687751E-1   -3.062352215983960E-1
 9.937109885900000E9     4.748552148374252E-1   -9.487919494079448E-2   -3.266671481034026E-4   -3.550368173762167E-4   -3.595653710355125E-4   -3.134774767260057E-4    3.917372041064471E-1   -3.061416242225247E-1
 9.937112494000000E9     4.747938424182221E-1   -9.499100361627992E-2   -3.522986442782259E-4   -3.286329811452542E-4   -3.711263403648348E-4   -3.092706993458536E-4    3.917110426335199E-1   -3.066026595304419E-1
 9.937115102100000E9     4.748009725723601E-1   -9.507116639142262E-2   -3.518949321127825E-4   -3.481186481537667E-4   -3.718613273655504E-4   -3.197380252155848E-4    3.914601667321006E-1   -3.065555507273418E-1
 9.937117710200001E9     4.746294620913195E-1   -9.529304055766835E-2   -3.838170864356646E-4   -3.662616920544768E-4   -3.980714713314052E-4   -3.352399162331269E-4    3.912357636514495E-1   -3.069759698192357E-1
 9.937120318299999E9     4.746063052052440E-1   -9.548827812824232E-2   -3.560041861704322E-4   -3.659079344383424E-4   -3.859596081616842E-4   -3.405918462658674E-4    3.912220195710270E-1   -3.072435795112078E-1
 9.937122926400000E9     4.746541636640504E-1   -9.564668854653846E-2   -3.724730334537618E-4   -3.471173426591735E-4   -3.992251243832797E-4   -3.655582985061442E-4    3.906324704725959E-1   -3.073600556454100E-1
 9.937125534500000E9     4.744548903843305E-1   -9.598396421686033E-2   -3.866018034776230E-4   -3.689939659520708E-4   -4.236397975568824E-4   -3.698622790132957E-4    3.907934110239740E-1   -3.076743304544598E-1
 9.937128142600000E9     4.744412771701917E-1   -9.608863791986270E-2   -3.787837461863134E-4   -3.751961312473447E-4   -4.388591132447216E-4   -3.633056299261972E-4    3.904917514792605E-1   -3.078156767036383E-1
 9.937130750700001E9     4.744816825397715E-1   -9.641228023235884E-2   -4.341889692181051E-4   -4.120972321917191E-4   -4.299348728637820E-4   -3.888789902529079E-4    3.901125532766558E-1   -3.078674593604540E-1
 9.937133358799999E9     4.743132409050841E-1   -9.656828788298380E-2   -4.276738050725203E-4   -3.805668031126207E-4   -4.504187029170573E-4   -3.739421774956899E-4    3.899201587986559E-1   -3.080951842514919E-1
 9.937135966900000E9     4.744266846612186E-1   -9.658116722835677E-2   -4.234876326568252E-4   -4.248521029702366E-4   -4.434950826698595E-4   -4.098322901360906E-4    3.898290526318139E-1   -3.083001764299480E-1
 9.937138575000000E9     4.743237244633278E-1   -9.692607413992527E-2   -4.103397866342026E-4   -3.958612280356254E-4   -4.604717382723081E-4   -4.170374256681743E-4    3.895711068202896E-1   -3.084472876415598E-1
 9.937141183100000E9     4.743885575869929E-1   -9.704049364907461E-2   -4.688137844948769E-4   -4.443568308267539E-4   -4.707661954330818E-4   -4.069946742262700E-4    3.894584448444209E-1   -3.086709853797797E-1
 9.937143791200001E9     4.742389133889002E-1   -9.710850375481095E-2   -4.590502999776712E-4   -4.705527350573341E-4   -4.709940367428495E-4   -4.744640688180732E-4    3.892971891975145E-1   -3.088650328917246E-1
 9.937146399299999E9     4.742017383703864E-1   -9.721575000546855E-2   -4.705149211225082E-4   -3.977138035545484E-4   -4.776124121492447E-4   -4.299441720037594E-4    3.888880826336411E-1   -3.089822969667206E-1
 9.937149007400000E9     4.741136541327189E-1   -9.748248222911084E-2   -4.875880136798053E-4   -4.601147209935478E-4   -4.770361020531697E-4   -4.853136481192218E-4    3.888688969966130E-1   -3.091869780039773E-1
 9.937151615500000E9     4.742075643969202E-1   -9.772021813668823E-2   -4.885002652782575E-4   -4.434661610854976E-4   -4.993634353369973E-4   -4.573619834916297E-4    3.886499478815185E-1   -3.095134946656148E-1
 9.937154223600000E9     4.741061638204688E-1   -9.783136940964514E-2   -4.816621757907804E-4   -4.787372638984075E-4   -5.125597162292022E-4   -4.806517899385823E-4    3.884330255870346E-1   -3.095039127870310E-1
 9.937156831700001E9     4.740372732327149E-1   -9.808178269349188E-2   -4.991400644673552E-4   -4.749405223004385E-4   -5.368084798913897E-4   -4.690567960246853E-4    3.882787790253444E-1   -3.097406168910284E-1
 9.937159439799999E9     4.739319679121465E-1   -9.828587270319125E-2   -5.280363163205304E-4   -4.998587774927622E-4   -5.491941634396248E-4   -5.096838358755535E-4    3.881811620159715E-1   -3.101655235414096E-1
 9.937162047900000E9     4.738160689693198E-1   -9.842085791576012E-2   -5.132784295142019E-4   -4.799525657248765E-4   -5.579144376548238E-4   -5.115400934352234E-4    3.877003977529992E-1   -3.102625835897289E-1
 9.937164656000000E9     4.738258272365016E-1   -9.846345551653665E-2   -5.707087039193989E-4   -5.078678831188873E-4   -5.714109253549093E-4   -5.320454884529767E-4    3.875780781367555E-1   -3.102561808975602E-1
 9.937167264100000E9     4.738171254020284E-1   -9.878923704045288E-2   -5.432144353109736E-4   -4.909255171158181E-4   -5.764369740289974E-4   -5.187443893078365E-4    3.873889944166637E-1   -3.107129348952321E-1
 9.937169872200001E9     4.737432493506173E-1   -9.895206432654906E-2   -5.546830677273491E-4   -5.480829124118186E-4   -5.742224234162341E-4   -5.067361230017592E-4    3.873576009362392E-1   -3.107782435511987E-1
 9.937172480299999E9     4.736671387877605E-1   -9.906443468562279E-2   -5.593925111060433E-4   -5.772283751072477E-4   -5.841927880068681E-4   -5.354399083922767E-4    3.869644757772340E-1   -3.112705405216025E-1
 9.937175088400000E9     4.736281267052443E-1   -9.935637880770286E-2   -6.028245581416566E-4   -6.015176192311105E-4   -6.156727895697108E-4   -5.548247990835165E-4    3.868006478715501E-1   -3.112807476426006E-1
 9.937177696500000E9     4.735694643530497E-1   -9.946579041031232E-2   -5.942845600541845E-4   -5.780629539277548E-4   -6.064209408455417E-4   -5.670639056865562E-4    3.864944416998318E-1   -3.113253295329055E-1
 9.937180304600000E9     4.736012722013209E-1   -9.961625403009362E-2   -6.000628193158719E-4   -5.930758932462630E-4   -5.930153092162850E-4   -5.596828524888290E-4    3.862312488709410E-1   -3.115328231084832E-1
 9.937182912700001E9     4.733991262480208E-1   -9.978143734711699E-2   -6.146771567313202E-4   -5.718341606511670E-4   -5.908104487159760E-4   -5.776693659012744E-4    3.860119349567283E-1   -3.117313608631865E-1
 9.937185520799999E9     4.734259109652494E-1   -9.994594220164736E-2   -6.383939723548688E-4   -5.913523892214491E-4   -6.236784576517675E-4   -5.856280279738394E-4    3.856698249664308E-1   -3.120474386650860E-1
 9.937188128900000E9     4.734448805791087E-1   -1.002228150150220E-1   -6.292313321140659E-4   -5.995104248350177E-4   -6.591136186497868E-4   -6.055172162291882E-4    3.855315314298738E-1   -3.122594250486974E-1
 9.937190737000000E9     4.733265444103065E-1   -1.002618099292925E-1   -6.698778340291237E-4   -6.729870760155488E-4   -6.677556518384439E-4   -6.134252083400475E-4    3.854631831448550E-1   -3.125519416006435E-1
 9.937193345100000E9     4.732427786780748E-1   -1.004317139627829E-1   -6.569309089807047E-4   -6.692142847276856E-4   -6.686215239761935E-4   -6.122095669054231E-4    3.850607076630125E-1   -3.125611282863063E-1
 9.937195953200001E9     4.733942096037975E-1   -1.006662142476782E-1   -6.483052055048709E-4   -6.328381886569582E-4   -6.832033308654521E-4   -6.330016116685272E-4    3.849657671976924E-1   -3.129769222622061E-1
 9.937198561299999E9     4.732182838194018E-1   -1.008202027079826E-1   -7.124937264529400E-4   -6.346510127483885E-4   -7.285529171483675E-4   -6.383048723310818E-4    3.847347169979019E-1   -3.130962650040194E-1
 9.937201169400000E9     4.730029330821703E-1   -1.009976409826669E-1   -6.952969529799054E-4   -6.785926011957044E-4   -7.204226645931236E-4   -6.532657228958381E-4    3.843879036555491E-1   -3.133211718375034E-1
 9.937203777500000E9     4.730942763377165E-1   -1.013674811408608E-1   -7.167494994993636E-4   -6.567714670283666E-4   -7.106405449448659E-4   -6.621614153071281E-4    3.841920886396415E-1   -3.135395728772376E-1
 9.937206385600000E9     4.731322323314124E-1   -1.013548585878812E-1   -6.845825148292865E-4   -6.712187850973921E-4   -7.259143857746384E-4   -6.770701678335216E-4    3.838247019445550E-1   -3.137009054363458E-1
 9.937208993700001E9     4.730749954958537E-1   -1.014164626265477E-1   -7.431184783432015E-4   -6.924454266970346E-4   -7.675565515863310E-4   -6.763946165633723E-4    3.838894660038142E-1   -3.140318910695375E-1
 9.937211601799999E9     4.729922140720607E-1   -1.017832182356345E-1   -7.597008758102651E-4   -7.117392461061959E-4   -7.892018609121548E-4   -6.873768696048602E-4    3.835718430338435E-1   -3.140749373951804E-1
 9.937214209900000E9     4.729362005406367E-1   -1.018312183332209E-1   -7.618686501140938E-4   -7.309113218488584E-4   -7.960663586130335E-4   -7.308219788617650E-4    3.832171053232661E-1   -3.144295404157574E-1
 9.937216818000000E9     4.728540397642488E-1   -1.021478574920896E-1   -7.863327501925035E-4   -7.225933128419473E-4   -7.824951699732870E-4   -7.165104342041103E-4    3.828888401114048E-1   -3.144344434777357E-1
 9.937219426100000E9     4.727582766784667E-1   -1.023081237860981E-1   -7.844428920521257E-4   -7.229664252447776E-4   -8.121084961630983E-4   -7.560266584852117E-4    3.828172145523063E-1   -3.146949374301179E-1
 9.937222034200001E9     4.727551614761515E-1   -1.025762651833294E-1   -8.311107012663849E-4   -7.557649303980528E-4   -8.350395331701363E-4   -7.495578374888786E-4    3.825682082570745E-1   -3.146700405587197E-1
 9.937224642299999E9     4.727284106376763E-1   -1.026009132483675E-1   -8.394981721553443E-4   -7.797782038537909E-4   -8.448463488467527E-4   -7.746377780826308E-4    3.820841421133362E-1   -3.153602644920239E-1
 9.937227250400000E9     4.726875799378878E-1   -1.029104886392294E-1   -8.355763885057939E-4   -7.895302287759554E-4   -8.399689182486349E-4   -7.752316000433332E-4    3.818744220411432E-1   -3.153777740953293E-1
 9.937229858500000E9     4.725918758885968E-1   -1.030204205163413E-1   -8.487327465661453E-4   -7.881382331851984E-4   -8.636042728083491E-4   -8.228060989581105E-4    3.818240030674966E-1   -3.155052953007859E-1
 9.937232466600000E9     4.724345074388320E-1   -1.032119401600498E-1   -8.567285845520841E-4   -8.244683892157353E-4   -8.865623139684767E-4   -8.244121706684101E-4    3.814661692092179E-1   -3.156618061225722E-1
 9.937235074700001E9     4.725228151861306E-1   -1.032599174121934E-1   -8.700143687300539E-4   -8.389352424060102E-4   -8.928066292171799E-4   -7.814323628701269E-4    3.813893475095333E-1   -3.160914669092872E-1
 9.937237682799999E9     4.724637110113104E-1   -1.034528649053713E-1   -8.777071545637345E-4   -8.453447891423275E-4   -9.281536789990009E-4   -8.547774542826425E-4    3.807866534958146E-1   -3.162271367906337E-1
 9.937240290900000E9     4.723441865729173E-1   -1.037163558117109E-1   -8.713932202745910E-4   -8.785533612626655E-4   -9.284674487095868E-4   -8.655713049591382E-4    3.806550002499905E-1   -3.164878899437439E-1
 9.937242899000000E9     4.723562204898322E-1   -1.037399277516134E-1   -9.356557364663825E-4   -8.941948387629737E-4   -9.450372171238415E-4   -8.833909535807295E-4    3.803910863719602E-1   -3.167128634559653E-1
 9.937245507100000E9     4.721798695272114E-1   -1.040935761627462E-1   -9.783381999335335E-4   -8.784951355504230E-4   -9.468900643730157E-4   -8.817024075405715E-4    3.801548931047917E-1   -3.169967673812661E-1
 9.937248115200001E9     4.721537428084182E-1   -1.040930814174034E-1   -9.421040766912618E-4   -8.980676146486235E-4   -9.911380074392377E-4   -8.718566364660805E-4    3.800724565396377E-1   -3.171373032782387E-1
 9.937250723299999E9     4.722403165856812E-1   -1.044381902697880E-1   -9.879599006762023E-4   -9.234667481236062E-4   -1.002674521200196E-3   -8.815699230113120E-4    3.797818561755311E-1   -3.172886462830177E-1
 9.937253331400000E9     4.721295788085257E-1   -1.045920766099561E-1   -9.726075862724269E-4   -9.686838943987381E-4   -1.041744418263336E-3   -8.983872298282086E-4    3.793903733956369E-1   -3.176253117847920E-1
 9.937255939500000E9     4.721609709775617E-1   -1.047343008373341E-1   -9.782836882906497E-4   -9.595227067167143E-4   -1.073652349289192E-3   -9.509604450477041E-4    3.792124412265901E-1   -3.176892922211016E-1
 9.937258547600000E9     4.720413108468502E-1   -1.048337594637378E-1   -1.050196638893905E-3   -9.231259256534606E-4   -1.061656535178906E-3   -9.468350228165495E-4    3.788705150141704E-1   -3.179661912909842E-1
 9.937261155700001E9     4.719464169600688E-1   -1.051128560152600E-1   -1.030062510290282E-3   -9.728667087796913E-4   -1.081466940720512E-3   -9.576184677654814E-4    3.785017548814515E-1   -3.183349431626190E-1
 9.937263763799999E9     4.719323202556729E-1   -1.052219423520801E-1   -1.034650482394738E-3   -9.853265351043934E-4   -1.089442985123324E-3   -9.887658855662978E-4    3.783262542151823E-1   -3.184070083181735E-1
 9.937266371900000E9     4.717958367711258E-1   -1.054412206323863E-1   -1.074513891069791E-3   -9.994908036420639E-4   -1.110946351117499E-3   -1.005557019381716E-3    3.780017999270363E-1   -3.187896712119314E-1
 9.937268980000000E9     4.718476440051366E-1   -1.056355713583899E-1   -1.102450237776071E-3   -1.018287031697435E-3   -1.148684275355937E-3   -9.739800332932801E-4    3.777066165383077E-1   -3.189884083662076E-1
 9.937271588100000E9     4.717543666510283E-1   -1.057906498556494E-1   -1.102606719087238E-3   -1.047080207237787E-3   -1.142203153133408E-3   -1.008215603386223E-3    3.774230618766353E-1   -3.191774869941630E-1
 9.937274196200001E9     4.717793630695827E-1   -1.059215015492511E-1   -1.157889159154018E-3   -1.046117947296456E-3   -1.146940616684807E-3   -1.060179506539383E-3    3.770263561879058E-1   -3.194947255850417E-1
 9.937276804299999E9     4.717074368891814E-1   -1.060715496995001E-1   -1.179377271640544E-3   -1.045998863183926E-3   -1.202160385733935E-3   -1.070962149507074E-3    3.767798047800607E-1   -3.197740327151560E-1
 9.937279412400000E9     4.716916684901348E-1   -1.062816477236963E-1   -1.134087612819164E-3   -1.070766317213928E-3   -1.207532559306994E-3   -1.077485863171010E-3    3.767684447997465E-1   -3.197857780661142E-1
 9.937282020500000E9     4.716783711704133E-1   -1.064612350648116E-1   -1.206829650720794E-3   -1.115222882737729E-3   -1.250264923878813E-3   -1.086191754576185E-3    3.762542097981422E-1   -3.199887505525931E-1
 9.937284628600000E9     4.715083311083266E-1   -1.066680329010402E-1   -1.241454931136671E-3   -1.130638203392561E-3   -1.259894616424141E-3   -1.085707648302094E-3    3.758516068610646E-1   -3.203771584562387E-1
 9.937287236700001E9     4.713600001657017E-1   -1.066903129240582E-1   -1.281309034472861E-3   -1.130855911239117E-3   -1.287518650769201E-3   -1.109496276876109E-3    3.754821808122620E-1   -3.204496601807056E-1
 9.937289844799999E9     4.714762220657348E-1   -1.069462141340404E-1   -1.272812426907814E-3   -1.126412281107123E-3   -1.300791714495116E-3   -1.136914461052444E-3    3.753955031681884E-1   -3.208885481815323E-1
 9.937292452900000E9     4.714848116716100E-1   -1.071563476896249E-1   -1.284165614313972E-3   -1.151555291824415E-3   -1.325261189255127E-3   -1.153005866353263E-3    3.747898368038770E-1   -3.208869412435321E-1
 9.937295061000000E9     4.712594211831128E-1   -1.074201532374568E-1   -1.288600625361502E-3   -1.196537552280337E-3   -1.357689513095033E-3   -1.171731220857019E-3    3.746153985041727E-1   -3.212847851054123E-1
 9.937297669100000E9     4.712811967430607E-1   -1.075136602693210E-1   -1.305033834578425E-3   -1.183595358195020E-3   -1.357837430632676E-3   -1.186163228784943E-3    3.741899777836736E-1   -3.216419189039152E-1
 9.937300277200001E9     4.712394054436170E-1   -1.076895152094282E-1   -1.363021959668773E-3   -1.231686003768961E-3   -1.388202966606661E-3   -1.245735072094199E-3    3.739600173949610E-1   -3.216334754386605E-1
 9.937302885299999E9     4.711286155026813E-1   -1.078482310529839E-1   -1.385049025055248E-3   -1.229773257406100E-3   -1.420071582819355E-3   -1.237185709400365E-3    3.735658342361150E-1   -3.221335962122619E-1
 9.937305493400000E9     4.712269598434594E-1   -1.079431459686131E-1   -1.387999230101486E-3   -1.294893171740587E-3   -1.435182691295008E-3   -1.241314808889812E-3    3.732818273599777E-1   -3.224132404454691E-1
 9.937308101500000E9     4.711753709705671E-1   -1.080644126896890E-1   -1.458750417257118E-3   -1.297026292310803E-3   -1.459533785139597E-3   -1.245311665082273E-3    3.727793138424066E-1   -3.224952228905169E-1
 9.937310709600000E9     4.710579401410149E-1   -1.083482634426325E-1   -1.433033954364894E-3   -1.290082222237738E-3   -1.500092361169550E-3   -1.287976167994293E-3    3.726357670713562E-1   -3.228336881429647E-1
 9.937313317700001E9     4.709982649365204E-1   -1.086750325456096E-1   -1.471862147593501E-3   -1.313365314016649E-3   -1.513605673363795E-3   -1.316315021073923E-3    3.721639007776981E-1   -3.230294865849150E-1
 9.937315925799999E9     4.709386142992568E-1   -1.087802109032264E-1   -1.492456015754721E-3   -1.355003529226119E-3   -1.546384732162949E-3   -1.357511051806245E-3    3.719788227952899E-1   -3.233632091893042E-1
 9.937318533900000E9     4.708963084163125E-1   -1.089904867851147E-1   -1.539418173298225E-3   -1.331113517107126E-3   -1.572659522934159E-3   -1.324704920091693E-3    3.713416152841582E-1   -3.235219137765740E-1
 9.937321142000000E9     4.707221776745167E-1   -1.091262886201900E-1   -1.564443234502506E-3   -1.370884197840362E-3   -1.609603336604050E-3   -1.383434550150410E-3    3.710381974273645E-1   -3.238082770090082E-1
