#  HZ   S   RI   R     50.00 
! Rohde & Schwarz Vector Network Analyzer 
! Rohde-Schwarz,ZNB20-2Port,1311601062101988,3.16
! Created: UTC 3/20/2024, 11:04:59 PM
! freq[Hz]                re:S11                  im:S11                  re:S21                  im:S21                  re:S12                  im:S12                  re:S22                  im:S22
 9.937087765000000E9     4.752629977205977E-1   -9.334393349332322E-2   -3.269084562729594E-4   -2.623155008442781E-4   -2.730021987098131E-4   -2.965999349902309E-4    3.933782347141797E-1   -3.047553411742452E-1
 9.937090356200001E9     4.751798876481655E-1   -9.355442439149288E-2   -3.046465798576656E-4   -2.664769228855776E-4   -2.877968475441555E-4   -2.340752052557489E-4    3.932688222443076E-1   -3.049012541486839E-1
 9.937092947400000E9     4.751268336260019E-1   -9.365126448466354E-2   -3.259760741256305E-4   -2.951178532462165E-4   -3.247705239931871E-4   -2.819255809639412E-4    3.931317048086044E-1   -3.051856971580880E-1
 9.937095538600000E9     4.752102634949894E-1   -9.385413729240281E-2   -3.196623046559437E-4   -2.705587440416363E-4   -3.395155704408958E-4   -2.847420811317486E-4    3.928888818976140E-1   -3.053594063982267E-1
 9.937098129799999E9     4.750869271900638E-1   -9.411186085742126E-2   -3.287607152639790E-4   -2.780322749039850E-4   -3.260158026819837E-4   -3.001320177151501E-4    3.925945429176469E-1   -3.057283618545640E-1
 9.937100721000000E9     4.750341583167024E-1   -9.421738935313720E-2   -3.573576506780015E-4   -3.409090178235007E-4   -3.169712527149924E-4   -2.810109001462748E-4    3.924895244470823E-1   -3.055417259737287E-1
 9.937103312200001E9     4.749071054145415E-1   -9.444072152333466E-2   -3.313431959166851E-4   -2.691420345939320E-4   -3.648380205543887E-4   -3.173020048618830E-4    3.920496188874806E-1   -3.057783859374935E-1
 9.937105903400000E9     4.748942128109868E-1   -9.442998769258219E-2   -3.685365596161740E-4   -3.197598245697116E-4   -3.465305651074264E-4   -3.050415075702600E-4    3.921833504899881E-1   -3.059094038392113E-1
 9.937108494600000E9     4.746778678593997E-1   -9.483602770405392E-2   -3.508974295968466E-4   -3.194196677386379E-4   -3.420204485725665E-4   -3.177590654134328E-4    3.918075248931431E-1   -3.062560573329259E-1
 9.937111085799999E9     4.748264553948581E-1   -9.492617393318359E-2   -3.396642959362962E-4   -3.658819795074178E-4   -3.780034279860851E-4   -3.387452996782870E-4    3.918773175218728E-1   -3.065003918135119E-1
 9.937113677000000E9     4.748657619220804E-1   -9.506591155244916E-2   -3.560692823614261E-4   -2.959572846878881E-4   -3.644784923880959E-4   -3.334621009859145E-4    3.914925452977933E-1   -3.066349331133020E-1
 9.937116268200001E9     4.747307959360274E-1   -9.536003777273279E-2   -3.955056834033727E-4   -3.330966993154682E-4   -3.959881891006422E-4   -3.886777972080524E-4    3.912692305180792E-1   -3.067365730487372E-1
 9.937118859400000E9     4.746798749811701E-1   -9.554566623586234E-2   -3.879372338672762E-4   -3.791563454092009E-4   -3.967820167664448E-4   -3.085319817278655E-4    3.911570282380735E-1   -3.071887280189241E-1
 9.937121450600000E9     4.746412459709967E-1   -9.578012057495940E-2   -4.047298765358206E-4   -3.770874970165921E-4   -3.883299972219897E-4   -4.007425191010612E-4    3.908635347358971E-1   -3.070762852040259E-1
 9.937124041799999E9     4.745582981305235E-1   -9.588313457281349E-2   -4.165227145147940E-4   -3.671578445610978E-4   -4.046044879719401E-4   -3.534375669657991E-4    3.906472363516773E-1   -3.074522282485069E-1
 9.937126633000000E9     4.746417364802638E-1   -9.593950404458151E-2   -4.197948944919408E-4   -3.785471799287114E-4   -4.375838168050513E-4   -3.770919465710101E-4    3.904849263584678E-1   -3.075894567092064E-1
 9.937129224200001E9     4.744983125905191E-1   -9.601100660567125E-2   -4.160739980313472E-4   -3.930885049779264E-4   -4.381842841960078E-4   -3.706558082346665E-4    3.903327193636305E-1   -3.077298862894109E-1
 9.937131815400000E9     4.744360052073565E-1   -9.628808469490686E-2   -4.640771960615043E-4   -3.653991503751359E-4   -4.083600993781806E-4   -3.924139512742937E-4    3.901512640024416E-1   -3.081672157601446E-1
 9.937134406600000E9     4.743616878618246E-1   -9.655626692085942E-2   -4.519791210639519E-4   -3.924957251371523E-4   -4.745042542424579E-4   -3.868654402194628E-4    3.898077012013068E-1   -3.082671623617835E-1
 9.937136997799999E9     4.741643597106395E-1   -9.678814338462559E-2   -4.691183334728273E-4   -4.128052552589894E-4   -4.641438434390150E-4   -4.220190018346813E-4    3.895883269135411E-1   -3.082182043915911E-1
 9.937139589000000E9     4.742554123427110E-1   -9.696427928633808E-2   -4.278800058243608E-4   -4.216385850507369E-4   -4.660208679775958E-4   -4.196644483594251E-4    3.894361334283888E-1   -3.085482662996463E-1
 9.937142180200001E9     4.742951844674685E-1   -9.703094026126510E-2   -4.807407696852074E-4   -4.071564572409966E-4   -5.041095336444971E-4   -4.330757236687505E-4    3.893182165797376E-1   -3.086826373350948E-1
 9.937144771400000E9     4.742305082929683E-1   -9.722810300513125E-2   -4.593604308099842E-4   -4.345545948247911E-4   -5.050588807677794E-4   -4.373402684391934E-4    3.892485728968654E-1   -3.090018264667010E-1
 9.937147362600000E9     4.741293407879441E-1   -9.732306898827291E-2   -4.891514841436666E-4   -4.318281957652607E-4   -4.995978186812694E-4   -4.333715685974686E-4    3.889691720311828E-1   -3.091381149793823E-1
 9.937149953799999E9     4.741528957542154E-1   -9.759387249065211E-2   -4.897533958132172E-4   -4.587312703036145E-4   -4.983389865430421E-4   -4.409516038393734E-4    3.887835723159727E-1   -3.092745698930919E-1
 9.937152545000000E9     4.740488660173312E-1   -9.771165668961290E-2   -4.903605838006033E-4   -4.777605426188204E-4   -5.045037901163815E-4   -4.816475035640242E-4    3.887353333503866E-1   -3.096294073351564E-1
 9.937155136200001E9     4.740210443696324E-1   -9.781113774261380E-2   -5.041152995421272E-4   -4.417834546016543E-4   -5.442564880310349E-4   -4.884779455285562E-4    3.883934474090867E-1   -3.097369060280528E-1
 9.937157727400000E9     4.739966869236755E-1   -9.813257316016696E-2   -5.427853957360105E-4   -5.159512531955584E-4   -5.150742367211633E-4   -4.593467556340050E-4    3.879843977625878E-1   -3.099036450840676E-1
 9.937160318600000E9     4.738645289185562E-1   -9.825205514379792E-2   -5.799763388510062E-4   -5.209770268207058E-4   -5.428634000656789E-4   -5.072879294759667E-4    3.878446358763032E-1   -3.101514402662540E-1
 9.937162909799999E9     4.738389100703367E-1   -9.845771675558711E-2   -5.573182567672857E-4   -5.131076568129114E-4   -5.507430440872523E-4   -4.820281108492604E-4    3.877891814479262E-1   -3.104656686383518E-1
 9.937165501000000E9     4.739185486491393E-1   -9.868644136263940E-2   -5.286936565589394E-4   -5.342381325172585E-4   -5.466027370701725E-4   -5.361677471791271E-4    3.875466164371860E-1   -3.106531499655957E-1
 9.937168092200001E9     4.738072424813716E-1   -9.879905801980882E-2   -5.800667683176811E-4   -5.365808048590734E-4   -5.718980155694333E-4   -5.099893700074702E-4    3.872603879296905E-1   -3.108499095392823E-1
 9.937170683400000E9     4.737571796558326E-1   -9.907037468528383E-2   -5.587218044761068E-4   -5.512352033598283E-4   -5.885258315985731E-4   -5.391400365280424E-4    3.871647427471407E-1   -3.108644880857498E-1
 9.937173274600000E9     4.736770603770869E-1   -9.917691694426031E-2   -5.985236753380885E-4   -5.517966837302589E-4   -6.122971427795000E-4   -5.408296961287599E-4    3.868834460904145E-1   -3.110499162107646E-1
 9.937175865799999E9     4.735389294109186E-1   -9.937812136015943E-2   -5.838677115752708E-4   -5.659874432185069E-4   -6.253846402197364E-4   -5.658433020403295E-4    3.865082984670726E-1   -3.115590944768806E-1
 9.937178457000000E9     4.734830624493199E-1   -9.958171252130289E-2   -6.194198895379583E-4   -5.595588650911701E-4   -6.230515373071415E-4   -5.768006799325046E-4    3.863572124223202E-1   -3.113405349734963E-1
 9.937181048200001E9     4.734907078851548E-1   -9.966843703990615E-2   -6.330823283411890E-4   -5.996836067459470E-4   -5.999447748459699E-4   -5.868423514877715E-4    3.861391354554286E-1   -3.116680610519945E-1
 9.937183639400000E9     4.735169177529316E-1   -9.995009879443668E-2   -6.060549495577456E-4   -6.109779104578468E-4   -6.600060512689062E-4   -6.023544678908984E-4    3.860105634226325E-1   -3.119955173735625E-1
 9.937186230600000E9     4.733025961655723E-1   -9.996552516964589E-2   -6.338626504348707E-4   -6.102102792437219E-4   -6.787809492500576E-4   -5.920471894590525E-4    3.857984436721417E-1   -3.121492397515551E-1
 9.937188821799999E9     4.733782221462232E-1   -1.002574726079928E-1   -6.357195249802206E-4   -6.185734085220956E-4   -6.609260488352871E-4   -6.296777192362235E-4    3.855806465047409E-1   -3.123933142428021E-1
 9.937191413000000E9     4.732456068507634E-1   -1.004132063661719E-1   -6.597111766252650E-4   -6.275681251827880E-4   -6.747001575083280E-4   -6.540621048459579E-4    3.854466039201172E-1   -3.126044265442366E-1
 9.937194004200001E9     4.733594976134071E-1   -1.006058690084204E-1   -6.932430376515489E-4   -6.107784364333449E-4   -6.891151658214881E-4   -6.435616093261168E-4    3.851136004194968E-1   -3.127431100167130E-1
 9.937196595400000E9     4.730795200514532E-1   -1.008381031687970E-1   -6.823796267721526E-4   -6.427008196216893E-4   -7.147744093878814E-4   -6.391861141877017E-4    3.847451879737501E-1   -3.129375111332015E-1
 9.937199186600000E9     4.733308640294097E-1   -1.010192302552325E-1   -6.900252959113348E-4   -6.854258782625459E-4   -6.979089874383302E-4   -6.254112216735808E-4    3.845140891815218E-1   -3.131681269873390E-1
 9.937201777799999E9     4.730985845152931E-1   -1.010923955727058E-1   -7.192189665265250E-4   -6.696473023805102E-4   -7.374726555208994E-4   -6.778846613115326E-4    3.842262342422841E-1   -3.134381763533444E-1
 9.937204369000000E9     4.730672333953835E-1   -1.015440607407012E-1   -7.293343786292845E-4   -6.810053163207849E-4   -7.557183292892872E-4   -6.526425499583968E-4    3.840921937122575E-1   -3.135737004224127E-1
 9.937206960200001E9     4.731041587550592E-1   -1.015746278295915E-1   -7.126313749186334E-4   -7.102957065986820E-4   -7.674400062403707E-4   -6.891133102477585E-4    3.838352190018575E-1   -3.136653588588020E-1
 9.937209551400000E9     4.731657621580968E-1   -1.016476103014054E-1   -7.347784002894523E-4   -7.141922770447280E-4   -7.582797678089662E-4   -6.864994576095469E-4    3.836543446387630E-1   -3.140076941409037E-1
 9.937212142600000E9     4.728100836976657E-1   -1.017334151832139E-1   -7.456496537105977E-4   -7.446212461168220E-4   -7.891418364238028E-4   -7.245955961578157E-4    3.834351474534887E-1   -3.140922590302012E-1
 9.937214733799999E9     4.728599066209034E-1   -1.020409061845008E-1   -8.067551734066359E-4   -7.371590083987342E-4   -7.986118872136642E-4   -7.320447937761716E-4    3.830106805339714E-1   -3.145279383633580E-1
 9.937217325000000E9     4.727136086439883E-1   -1.020518043284009E-1   -8.081672862949343E-4   -7.461371733913015E-4   -8.118553769690105E-4   -7.298182308709138E-4    3.829486666582884E-1   -3.145647830862162E-1
 9.937219916200001E9     4.727207425355751E-1   -1.024028407822111E-1   -7.675599521166777E-4   -7.538690065586589E-4   -8.015167599354610E-4   -7.489836571968033E-4    3.827456616302686E-1   -3.149065014879428E-1
 9.937222507400000E9     4.728441283492808E-1   -1.023735828535691E-1   -8.145453309564308E-4   -7.872898234365830E-4   -8.386620424816570E-4   -7.730444104823539E-4    3.826170929330616E-1   -3.152175457252321E-1
 9.937225098600000E9     4.727250038398662E-1   -1.026681254528246E-1   -8.141934669824338E-4   -7.763154495412656E-4   -8.364451558214756E-4   -7.756825446777346E-4    3.822792442953989E-1   -3.153275806355236E-1
 9.937227689799999E9     4.725942417415875E-1   -1.028483316918593E-1   -8.624935290121016E-4   -7.456681629421118E-4   -8.501816856474762E-4   -7.889003824057571E-4    3.818010393574676E-1   -3.155097595439781E-1
 9.937230281000000E9     4.726267775420263E-1   -1.028968094398618E-1   -8.795752667132078E-4   -7.945561831138142E-4   -8.626566264313470E-4   -8.073925187033400E-4    3.816236902363230E-1   -3.157935250706230E-1
 9.937232872200001E9     4.724162897219517E-1   -1.032280444040281E-1   -8.639551365593525E-4   -8.050345133175404E-4   -9.055880976020502E-4   -8.355819757119969E-4    3.814662283556509E-1   -3.159637943104290E-1
 9.937235463400000E9     4.724588821164585E-1   -1.032421022023816E-1   -8.825334924977803E-4   -8.281437259691081E-4   -8.964991081187527E-4   -8.021208007823620E-4    3.813631539672734E-1   -3.160154560430437E-1
 9.937238054600000E9     4.723646377572652E-1   -1.034442127462416E-1   -9.118734899844735E-4   -8.088463145920703E-4   -9.136965620082404E-4   -8.430116503757233E-4    3.808069466273613E-1   -3.164064538392199E-1
 9.937240645799999E9     4.723255566550055E-1   -1.036487868193121E-1   -9.210907127311258E-4   -8.650633781643782E-4   -9.376206740792680E-4   -8.487622309020721E-4    3.807620278941661E-1   -3.166409052667560E-1
 9.937243237000000E9     4.724040318460220E-1   -1.038948551318180E-1   -9.198054847174267E-4   -9.078173696975908E-4   -9.780444020638557E-4   -8.564678346501962E-4    3.801860949431513E-1   -3.169589791429578E-1
 9.937245828200001E9     4.722294078085779E-1   -1.041040516231511E-1   -9.552025683021944E-4   -8.562464082931754E-4   -9.926550410302600E-4   -9.193488796012125E-4    3.801677262036597E-1   -3.170256546192690E-1
 9.937248419400000E9     4.723583396534021E-1   -1.041477883044802E-1   -9.733357019726375E-4   -8.975975276017444E-4   -9.947877798216066E-4   -8.934695902743229E-4    3.798632075919114E-1   -3.173654298259492E-1
 9.937251010600000E9     4.721784757681122E-1   -1.043919520238305E-1   -9.983347043592888E-4   -9.219884864409209E-4   -1.031909074945352E-3   -9.337134401841974E-4    3.796792875884947E-1   -3.174390871793096E-1
 9.937253601799999E9     4.721386293938264E-1   -1.047031959937058E-1   -1.014315003601270E-3   -9.412714737190029E-4   -1.045702552205099E-3   -9.642226795831645E-4    3.792799119836475E-1   -3.178506324555588E-1
 9.937256193000000E9     4.720576815037630E-1   -1.047375086648006E-1   -1.037204338671330E-3   -9.523138122930171E-4   -1.049101902578652E-3   -9.530746212458698E-4    3.790485005637970E-1   -3.178801013731996E-1
 9.937258784200001E9     4.720041444347300E-1   -1.048817953021709E-1   -1.034639088922740E-3   -9.577224517126534E-4   -1.067493925720284E-3   -9.503917436191830E-4    3.788230659713565E-1   -3.181519817744252E-1
 9.937261375400000E9     4.718850987127992E-1   -1.050635380282085E-1   -1.051581257307026E-3   -9.914328116106363E-4   -1.111077252076125E-3   -9.908699316125856E-4    3.785518734582053E-1   -3.182957885496768E-1
 9.937263966600000E9     4.718799429880711E-1   -1.052587460347876E-1   -1.065951114255347E-3   -1.020654957251207E-3   -1.120074562395028E-3   -9.816863920320204E-4    3.781637202381495E-1   -3.185782501184390E-1
 9.937266557799999E9     4.719225191946099E-1   -1.053645771494631E-1   -1.093302151465620E-3   -1.011849332028949E-3   -1.119877184350370E-3   -9.970785044274425E-4    3.776089646627107E-1   -3.187481683412958E-1
 9.937269149000000E9     4.719846700212893E-1   -1.057663779772399E-1   -1.140665256002632E-3   -1.018276727660538E-3   -1.128088866886576E-3   -1.035175397034453E-3    3.774212425186251E-1   -3.189313831787561E-1
 9.937271740200001E9     4.716567636464531E-1   -1.057564859766750E-1   -1.128235680274942E-3   -1.077739207454876E-3   -1.148919240987710E-3   -1.029366933652573E-3    3.772475602084214E-1   -3.192038946623063E-1
 9.937274331400000E9     4.716319265599928E-1   -1.060099817528735E-1   -1.132252664746526E-3   -1.061900142863588E-3   -1.197998695659262E-3   -1.051852706316742E-3    3.770002095675946E-1   -3.196139317492221E-1
 9.937276922600000E9     4.715536432171810E-1   -1.062355479312045E-1   -1.200272203737082E-3   -1.112432684879776E-3   -1.203897998596807E-3   -1.071374879175282E-3    3.766531837120649E-1   -3.198782395200487E-1
 9.937279513799999E9     4.716478726972808E-1   -1.065015938692978E-1   -1.177119886954336E-3   -1.083554440653240E-3   -1.262875479374862E-3   -1.084153067763547E-3    3.764350171365295E-1   -3.199901071064801E-1
 9.937282105000000E9     4.715389207810232E-1   -1.064007331466624E-1   -1.231748139018497E-3   -1.133524294752853E-3   -1.233619239494135E-3   -1.101039305695604E-3    3.761267929483788E-1   -3.200783892456359E-1
 9.937284696200001E9     4.714521972816001E-1   -1.068636761530833E-1   -1.262588190837276E-3   -1.105726462375697E-3   -1.253066774147295E-3   -1.146824873280667E-3    3.758750560383673E-1   -3.204457057082975E-1
 9.937287287400000E9     4.714834643146941E-1   -1.068641348852665E-1   -1.266246688899681E-3   -1.137119902224535E-3   -1.316881235084018E-3   -1.154089415215025E-3    3.754965744011572E-1   -3.207937551788779E-1
 9.937289878600000E9     4.714670125002544E-1   -1.069395377778102E-1   -1.300162754153764E-3   -1.149565854982726E-3   -1.321090050376387E-3   -1.183003262889825E-3    3.751694980076020E-1   -3.210048298689681E-1
 9.937292469799999E9     4.713813855395282E-1   -1.072719435781859E-1   -1.300201570938997E-3   -1.177020858011719E-3   -1.337797481345090E-3   -1.197345700580577E-3    3.749248590753507E-1   -3.210592758143803E-1
 9.937295061000000E9     4.712435215156512E-1   -1.074602376099973E-1   -1.304990315437647E-3   -1.185118473574363E-3   -1.349336130792032E-3   -1.182456496755206E-3    3.744116335247833E-1   -3.213742121701937E-1
 9.937297652200001E9     4.712000660111850E-1   -1.075367706395855E-1   -1.358524590546534E-3   -1.226028251742233E-3   -1.398584917520090E-3   -1.252055316993692E-3    3.742995729919850E-1   -3.215031254725788E-1
 9.937300243400000E9     4.712107947341097E-1   -1.077907796176216E-1   -1.372832848727740E-3   -1.243240391014624E-3   -1.401195372792356E-3   -1.219094770092524E-3    3.739958495976539E-1   -3.217234039392259E-1
 9.937302834600000E9     4.711175503140773E-1   -1.079248529449305E-1   -1.386726375589100E-3   -1.253001629864254E-3   -1.476232382203206E-3   -1.237576641897566E-3    3.735082220352927E-1   -3.220837195324399E-1
 9.937305425799999E9     4.709377779920652E-1   -1.082188096830323E-1   -1.418007998983804E-3   -1.298487623095344E-3   -1.457893109577424E-3   -1.269014018252392E-3    3.732196644234380E-1   -3.222294255733581E-1
 9.937308017000000E9     4.711268740573005E-1   -1.082562527924909E-1   -1.417332542563198E-3   -1.295692823072143E-3   -1.487913357001086E-3   -1.245779313696822E-3    3.727362898717702E-1   -3.225385766007042E-1
 9.937310608200001E9     4.711076763768068E-1   -1.084643590659782E-1   -1.457212187005471E-3   -1.308186737474809E-3   -1.493816410931723E-3   -1.292558658431761E-3    3.725398407976643E-1   -3.226395678563437E-1
 9.937313199400000E9     4.708342779521452E-1   -1.086492941069670E-1   -1.510865575192558E-3   -1.356018520730962E-3   -1.548339718909253E-3   -1.313471108342738E-3    3.721908511996703E-1   -3.229661622869539E-1
 9.937315790600000E9     4.709518456729423E-1   -1.086444559014394E-1   -1.508560864661816E-3   -1.342855559639625E-3   -1.555046659727258E-3   -1.321397208105711E-3    3.718009360410641E-1   -3.233171712617218E-1
 9.937318381799999E9     4.708874999511475E-1   -1.089995003765456E-1   -1.581059023015201E-3   -1.376506724483215E-3   -1.613794258966872E-3   -1.368259243212233E-3    3.714556072853850E-1   -3.235360982461887E-1
 9.937320973000000E9     4.707073351862786E-1   -1.090886956939279E-1   -1.593307086614907E-3   -1.373077956730970E-3   -1.626523680884662E-3   -1.378878852516550E-3    3.710914683035804E-1   -3.238407753625025E-1
