#  HZ   S   RI   R     50.00 
! Rohde & Schwarz Vector Network Analyzer 
! Rohde-Schwarz,ZNB20-2Port,1311601062101988,3.16
! Created: UTC 3/20/2024, 11:05:07 PM
! freq[Hz]                re:S11                  im:S11                  re:S21                  im:S21                  re:S12                  im:S12                  re:S22                  im:S22
 9.937079323000000E9     4.753516442558411E-1   -9.283512131712995E-2   -2.963867612129881E-4   -2.017467918244674E-4   -3.090567920741671E-4   -2.419631960469277E-4    3.944891603696848E-1   -3.044221612013507E-1
 9.937081948725000E9     4.753769771505403E-1   -9.305464328149682E-2   -2.939204553455591E-4   -2.491214254077559E-4   -2.807481842014139E-4   -2.422092702987595E-4    3.941902522270893E-1   -3.043441932058764E-1
 9.937084574450001E9     4.752457529689980E-1   -9.319672451216843E-2   -3.032630544376443E-4   -2.627496495677733E-4   -3.095060167658355E-4   -2.700719772809580E-4    3.940047108830966E-1   -3.047589894282606E-1
 9.937087200174999E9     4.753403164135365E-1   -9.344049323220376E-2   -2.854428913730533E-4   -2.464076211253680E-4   -3.092185475933080E-4   -2.703579528233172E-4    3.938377259430979E-1   -3.048594232071629E-1
 9.937089825900000E9     4.752589943763291E-1   -9.365372242349473E-2   -3.056610131882952E-4   -2.763124704996665E-4   -3.114203081965514E-4   -2.673055539305427E-4    3.938364633972172E-1   -3.052069399440638E-1
 9.937092451625000E9     4.750808825870219E-1   -9.373254470966126E-2   -3.212850761648589E-4   -2.663281232998750E-4   -3.222497577364141E-4   -2.529517746064370E-4    3.935518000766308E-1   -3.052182624795465E-1
 9.937095077350000E9     4.749577480885080E-1   -9.394075621807337E-2   -3.025155187058109E-4   -2.556363804379106E-4   -3.437193781897604E-4   -2.916919447462990E-4    3.934114119340069E-1   -3.056427867162323E-1
 9.937097703075001E9     4.749822114079434E-1   -9.414581465791667E-2   -3.041965377234315E-4   -3.009357138476342E-4   -3.591934061981695E-4   -2.981326328200350E-4    3.932636984188305E-1   -3.055769916118735E-1
 9.937100328799999E9     4.750184926087099E-1   -9.437808576325138E-2   -3.513607103636653E-4   -3.289684790162090E-4   -3.343667722431136E-4   -3.039594235038951E-4    3.929621582886478E-1   -3.059290839139346E-1
 9.937102954525000E9     4.750064375977698E-1   -9.441338415767433E-2   -3.221953664603082E-4   -3.366402900377136E-4   -3.156989337648796E-4   -2.870382082103865E-4    3.927151032128102E-1   -3.060553748373090E-1
 9.937105580250000E9     4.748486039839334E-1   -9.453323528953586E-2   -3.647073115258426E-4   -3.097376240779246E-4   -3.801499651672770E-4   -3.128958540033938E-4    3.925508802560831E-1   -3.062783500338218E-1
 9.937108205975000E9     4.748003281470196E-1   -9.490202564216044E-2   -3.765918323257415E-4   -3.203080542264007E-4   -3.961269805089874E-4   -3.053129219080423E-4    3.923168399054133E-1   -3.064794876317662E-1
 9.937110831700001E9     4.747898340102819E-1   -9.504370837974820E-2   -3.961715766178373E-4   -3.465328642699757E-4   -3.718828270669022E-4   -3.459312162554346E-4    3.920685638628718E-1   -3.066456485828641E-1
 9.937113457424999E9     4.747634409226963E-1   -9.521736445887881E-2   -3.712436892201661E-4   -3.503932117774115E-4   -4.024662032652169E-4   -3.178977149231534E-4    3.920039796929236E-1   -3.068083124428694E-1
 9.937116083150000E9     4.746831119028901E-1   -9.515632022151155E-2   -3.886091374328784E-4   -3.645479553341556E-4   -4.216998286947649E-4   -3.490184111632894E-4    3.917749783161082E-1   -3.069430012017058E-1
 9.937118708875000E9     4.745381335141390E-1   -9.553460794251520E-2   -3.783322253307956E-4   -3.500802817668176E-4   -3.867102077932297E-4   -3.598111112612621E-4    3.917139860171111E-1   -3.072388019997202E-1
 9.937121334600000E9     4.745923520146537E-1   -9.566627293114105E-2   -3.881040213421749E-4   -3.641146572570497E-4   -3.986767873681011E-4   -3.579762379793321E-4    3.916309096847921E-1   -3.074836203226699E-1
 9.937123960325001E9     4.745366826968846E-1   -9.593159852049428E-2   -4.220583058746664E-4   -3.819349386989319E-4   -4.306971977899971E-4   -3.583699311004284E-4    3.912901501462716E-1   -3.077563235237019E-1
 9.937126586049999E9     4.745035444642180E-1   -9.597109355939945E-2   -4.355653588772596E-4   -3.870463535016416E-4   -4.310184047798444E-4   -3.290466264348586E-4    3.910068223165051E-1   -3.077472369419246E-1
 9.937129211775000E9     4.743807773434348E-1   -9.623176409714616E-2   -4.427119898922770E-4   -3.998582690281748E-4   -4.244689568975665E-4   -3.648338217492236E-4    3.908356395532806E-1   -3.080528014570407E-1
 9.937131837500000E9     4.743601708189540E-1   -9.639025108696170E-2   -4.515707881829601E-4   -4.162341491373668E-4   -4.414168218290520E-4   -4.063202337704347E-4    3.907756957824847E-1   -3.081351533204142E-1
 9.937134463225000E9     4.743156407431015E-1   -9.660194515349259E-2   -4.309823231754664E-4   -4.040647653279146E-4   -4.743483506809249E-4   -3.960488453603443E-4    3.902819252126826E-1   -3.084053014637125E-1
 9.937137088950001E9     4.743989061279031E-1   -9.676833685745506E-2   -4.333327063320954E-4   -4.458937762169765E-4   -4.644216490733433E-4   -4.224563536409396E-4    3.901000084076388E-1   -3.085962358750548E-1
 9.937139714674999E9     4.742086247359281E-1   -9.697291213383191E-2   -4.665586172369629E-4   -4.176482941567773E-4   -4.505941278321302E-4   -4.348283948952173E-4    3.900612991024208E-1   -3.087643940148588E-1
 9.937142340400000E9     4.741514871599963E-1   -9.717013706068969E-2   -4.910169372190055E-4   -4.425154849624634E-4   -4.938152469531137E-4   -4.640382555044741E-4    3.898780451244929E-1   -3.091198159035447E-1
 9.937144966125000E9     4.740646663661905E-1   -9.728450429874407E-2   -4.883154607466023E-4   -4.485309524375128E-4   -4.911636524142876E-4   -4.738121544499145E-4    3.896813412299800E-1   -3.092710184401694E-1
 9.937147591850000E9     4.740997851397948E-1   -9.756483823548782E-2   -5.090226607618623E-4   -4.394296650953017E-4   -5.103475650296058E-4   -4.997424929582973E-4    3.894484471461062E-1   -3.093901440585271E-1
 9.937150217575001E9     4.740509377346196E-1   -9.767598297194877E-2   -5.127656234693800E-4   -4.557256308806085E-4   -5.134190794160755E-4   -4.364126905581763E-4    3.889730369787999E-1   -3.096040616630809E-1
 9.937152843299999E9     4.740148030124564E-1   -9.783233931819672E-2   -5.278848666401136E-4   -4.762544275344817E-4   -5.249213463265233E-4   -4.812119935671134E-4    3.888416384636008E-1   -3.097895416547415E-1
 9.937155469025000E9     4.740003784668091E-1   -9.819634790685861E-2   -5.031319996718795E-4   -4.530685185533329E-4   -5.457562263387390E-4   -5.075536359136532E-4    3.887810269453802E-1   -3.100625562333032E-1
 9.937158094750000E9     4.740473026477317E-1   -9.820990648376271E-2   -5.327350202190109E-4   -4.939867197638126E-4   -5.722065112080181E-4   -5.106126146589247E-4    3.886685963533315E-1   -3.102099213553082E-1
 9.937160720475000E9     4.739666545747415E-1   -9.836420574258400E-2   -5.465662753656150E-4   -4.715637997970253E-4   -5.545709931507665E-4   -5.140538927814986E-4    3.882786608758028E-1   -3.104669750747713E-1
 9.937163346200001E9     4.736464121523632E-1   -9.849242385211934E-2   -5.397983789850920E-4   -4.940708517869455E-4   -5.540676958598533E-4   -5.236603875882985E-4    3.882091365636429E-1   -3.106704863460191E-1
 9.937165971924999E9     4.737446150352900E-1   -9.871727736463627E-2   -5.385976699097180E-4   -5.533637708315897E-4   -5.920112382813773E-4   -5.406082061252979E-4    3.878536620201389E-1   -3.106899269615515E-1
 9.937168597650000E9     4.737211776589381E-1   -9.887807554559580E-2   -5.764426795400384E-4   -5.592224013628528E-4   -5.696137887894180E-4   -4.985681853364009E-4    3.877823718826043E-1   -3.108226877646187E-1
 9.937171223375000E9     4.737002236187887E-1   -9.909068393920190E-2   -5.705399406489408E-4   -5.750415267086326E-4   -5.710406415352461E-4   -5.577141477263848E-4    3.875081674634017E-1   -3.112311477279258E-1
 9.937173849100000E9     4.735178753693831E-1   -9.923902976389237E-2   -5.822044300977054E-4   -5.397283926282374E-4   -6.144329105072522E-4   -5.532776898710455E-4    3.872830194935368E-1   -3.112944316401888E-1
 9.937176474825001E9     4.736179716365893E-1   -9.951217173221925E-2   -5.995712488882377E-4   -5.576319770190644E-4   -6.212902296745082E-4   -5.813825779486747E-4    3.873119944821379E-1   -3.115445995552905E-1
 9.937179100549999E9     4.734491227868300E-1   -9.963428151655646E-2   -6.295135255801780E-4   -5.741838387285115E-4   -6.268783448887081E-4   -5.736444214036431E-4    3.867158579123495E-1   -3.118579810109512E-1
 9.937181726275000E9     4.734406542853434E-1   -9.979940118779031E-2   -6.379391357298081E-4   -6.094734088734798E-4   -6.305272165001330E-4   -5.683370893662723E-4    3.866167332572045E-1   -3.120377078650117E-1
 9.937184352000000E9     4.734213928489292E-1   -1.000490444729868E-1   -6.313088215040263E-4   -6.134901887683656E-4   -6.773845867212487E-4   -5.692268255701014E-4    3.862244283553082E-1   -3.123783331534604E-1
 9.937186977725000E9     4.733406368791454E-1   -1.001532653778755E-1   -6.253782726121117E-4   -6.065991432695762E-4   -6.532640780163383E-4   -6.134786395931257E-4    3.860693109929104E-1   -3.123442850219320E-1
 9.937189603450001E9     4.733292908425148E-1   -1.004900191040440E-1   -6.677785031190086E-4   -6.271081952277884E-4   -6.958363434987480E-4   -6.230372510702754E-4    3.859830723559414E-1   -3.125794652632098E-1
 9.937192229174999E9     4.732066457055865E-1   -1.005985445779649E-1   -6.963500656949508E-4   -6.467357207688312E-4   -6.974215158816071E-4   -6.250555916362126E-4    3.855965586423810E-1   -3.128995101924134E-1
 9.937194854900000E9     4.732351606055772E-1   -1.007777259663160E-1   -6.901584172210859E-4   -6.717765039095768E-4   -6.935895967708597E-4   -6.657130487735915E-4    3.854012021789078E-1   -3.131871139909239E-1
 9.937197480625000E9     4.731273047254995E-1   -1.008824143448572E-1   -6.826639206754502E-4   -6.532166749461374E-4   -7.030015458246385E-4   -6.614414555481538E-4    3.850910087243645E-1   -3.131402206301203E-1
 9.937200106350000E9     4.730357947290811E-1   -1.009776755032156E-1   -7.104092637793901E-4   -6.594840379318917E-4   -7.175812790167262E-4   -6.706641067940439E-4    3.850556120425936E-1   -3.134072310709562E-1
 9.937202732075001E9     4.730925375402733E-1   -1.012727535717007E-1   -7.409521383864382E-4   -7.229013190432447E-4   -7.645834273694641E-4   -7.059038918833649E-4    3.847254119394629E-1   -3.135900592843179E-1
 9.937205357799999E9     4.730314968132209E-1   -1.014136982794329E-1   -7.321823420969021E-4   -6.797523498994757E-4   -7.688741476360734E-4   -6.724214882298200E-4    3.844600134108176E-1   -3.137857101423212E-1
 9.937207983525000E9     4.728520357604605E-1   -1.014919330170693E-1   -7.392705148571172E-4   -7.326528735360561E-4   -7.663174978495185E-4   -7.540539080627121E-4    3.843209888538434E-1   -3.139543568666819E-1
 9.937210609250000E9     4.730771537420834E-1   -1.017016929037870E-1   -7.629627064515948E-4   -7.315915602766139E-4   -7.473721480943087E-4   -7.291555534703678E-4    3.841339327916634E-1   -3.141715362058201E-1
 9.937213234975000E9     4.728973788122013E-1   -1.018958243363859E-1   -7.628730623040804E-4   -7.125275270669725E-4   -7.987972203291877E-4   -7.001825501813836E-4    3.838595573920661E-1   -3.144451050695716E-1
 9.937215860700001E9     4.728890095593791E-1   -1.020013030789535E-1   -8.113716857089600E-4   -7.529179596968740E-4   -8.353088148061299E-4   -7.612481578562198E-4    3.834916711126416E-1   -3.147718018899128E-1
 9.937218486424999E9     4.728206681913699E-1   -1.021714830395064E-1   -7.900732918853811E-4   -7.774526311476383E-4   -8.325949346726900E-4   -7.441734225737751E-4    3.833268164907706E-1   -3.149482817758870E-1
 9.937221112150000E9     4.728030597395353E-1   -1.023668691762938E-1   -8.388943784758229E-4   -7.834967681425734E-4   -8.473325167907468E-4   -7.847758813800727E-4    3.830387419629877E-1   -3.152153534004942E-1
 9.937223737875000E9     4.727089462204960E-1   -1.027664340856020E-1   -8.141429769741850E-4   -7.681636488135236E-4   -8.684611690397292E-4   -7.720487332879131E-4    3.827649337824461E-1   -3.153772560478849E-1
 9.937226363600000E9     4.727111971158831E-1   -1.028950101439684E-1   -8.650242421556928E-4   -7.834839101202238E-4   -8.638425087031664E-4   -7.861022648471573E-4    3.825810523308625E-1   -3.155318857186351E-1
 9.937228989325001E9     4.725804069125602E-1   -1.029667558787596E-1   -8.522923162028374E-4   -8.103673705055978E-4   -8.559362575784961E-4   -8.078294085386457E-4    3.822689137380603E-1   -3.157834556777128E-1
 9.937231615049999E9     4.725265401228435E-1   -1.031709242137482E-1   -8.825629150699721E-4   -8.422513229320154E-4   -8.871209782950915E-4   -8.454890053634109E-4    3.821509606408122E-1   -3.160992136388313E-1
 9.937234240775000E9     4.726096321730838E-1   -1.033430526064893E-1   -9.239151652910568E-4   -8.377928119953886E-4   -9.229943521245349E-4   -8.596717910436962E-4    3.818067408483343E-1   -3.162715681687523E-1
 9.937236866500000E9     4.725316912384526E-1   -1.034718389527408E-1   -9.173067488772444E-4   -8.455273169188396E-4   -9.456775923539023E-4   -8.588792146990619E-4    3.814448211294947E-1   -3.165160825924531E-1
 9.937239492225000E9     4.723851169077058E-1   -1.036362978776855E-1   -9.056014845094281E-4   -8.388929994933531E-4   -9.176627991084120E-4   -8.523308050689753E-4    3.810515219019088E-1   -3.167847769215265E-1
 9.937242117950001E9     4.723316520922415E-1   -1.038760975574387E-1   -9.097874224918650E-4   -9.185662343562381E-4   -9.545856737993148E-4   -8.864042641495880E-4    3.809397479483309E-1   -3.170449387602525E-1
 9.937244743674999E9     4.722394525015484E-1   -1.041495065313817E-1   -9.390497293629087E-4   -9.139834195597569E-4   -1.013216003071849E-3   -9.076289911665960E-4    3.808623011732083E-1   -3.171415676643297E-1
 9.937247369400000E9     4.724155005222982E-1   -1.042578413287441E-1   -9.751648041080054E-4   -8.953386192537406E-4   -1.034054921766107E-3   -9.329318189500155E-4    3.803114766924712E-1   -3.174304664134094E-1
 9.937249995125000E9     4.722787527881270E-1   -1.043867276634932E-1   -9.754709999063014E-4   -9.410390622210658E-4   -1.040827860655852E-3   -9.157219952806866E-4    3.801317704457765E-1   -3.175155486118271E-1
 9.937252620850000E9     4.721312669323906E-1   -1.045339260704487E-1   -1.052874215622192E-3   -9.438289110806542E-4   -1.040273189098818E-3   -9.543552179950572E-4    3.798389594191731E-1   -3.177734506764314E-1
 9.937255246575001E9     4.722184134243335E-1   -1.047270708321656E-1   -1.037936414221172E-3   -9.532320591531472E-4   -1.029578924755304E-3   -9.416624036925231E-4    3.795416913457005E-1   -3.180627706094851E-1
 9.937257872299999E9     4.721307049846513E-1   -1.048750930752231E-1   -1.059179037837037E-3   -9.649885360150727E-4   -1.096256123370916E-3   -9.848453721315342E-4    3.793301741099767E-1   -3.181811088608640E-1
 9.937260498025000E9     4.720760249107774E-1   -1.051960670962183E-1   -1.077792669113067E-3   -9.885229733104471E-4   -1.096007319806497E-3   -9.892400584527834E-4    3.790256248853279E-1   -3.184492613640367E-1
 9.937263123750000E9     4.719390083007949E-1   -1.052346095309818E-1   -1.098084527956282E-3   -1.008878345822745E-3   -1.106985139836066E-3   -9.882175944709466E-4    3.786735050868282E-1   -3.187197601158465E-1
 9.937265749475000E9     4.718025832800901E-1   -1.055199856431974E-1   -1.116729086012353E-3   -1.003274083435172E-3   -1.136318995350872E-3   -1.021150940642507E-3    3.784297621686878E-1   -3.191040662129800E-1
 9.937268375200001E9     4.717988866163988E-1   -1.056514615863446E-1   -1.104976189106681E-3   -1.019845536921645E-3   -1.153446431591493E-3   -1.007694699787907E-3    3.777665954321103E-1   -3.193726723508393E-1
 9.937271000924999E9     4.718618271199954E-1   -1.058419196262537E-1   -1.126746450247145E-3   -1.056538640719014E-3   -1.171323684298861E-3   -1.029356487729320E-3    3.777212335295374E-1   -3.195993910055647E-1
 9.937273626650000E9     4.716727705100121E-1   -1.060549018567931E-1   -1.141313074844923E-3   -1.046304224345064E-3   -1.201070130930862E-3   -1.065671968253317E-3    3.773998523208509E-1   -3.194858367095347E-1
 9.937276252375000E9     4.717159123326583E-1   -1.061710381117369E-1   -1.195154495025804E-3   -1.054898653302450E-3   -1.214132524763724E-3   -1.084056397261332E-3    3.771247672001474E-1   -3.199924248812204E-1
 9.937278878100000E9     4.716831529517698E-1   -1.062182682578279E-1   -1.202884577223771E-3   -1.124603795134326E-3   -1.233753039305216E-3   -1.100755044166235E-3    3.769576699113906E-1   -3.201314259843145E-1
 9.937281503825001E9     4.715118636558414E-1   -1.064846312403884E-1   -1.269372348696703E-3   -1.143328723941605E-3   -1.286063117132838E-3   -1.108859109492281E-3    3.765577255484006E-1   -3.202939623777175E-1
 9.937284129549999E9     4.714718113241259E-1   -1.065558369847718E-1   -1.253634372665213E-3   -1.161662975173812E-3   -1.295031100748648E-3   -1.127717682371904E-3    3.761823958295782E-1   -3.206954263126242E-1
 9.937286755275000E9     4.714601057212231E-1   -1.069167528519974E-1   -1.276034337844373E-3   -1.124610632451817E-3   -1.315454154593110E-3   -1.140041107452491E-3    3.759344840785337E-1   -3.209696691313655E-1
 9.937289381000000E9     4.715231444062939E-1   -1.069963811112871E-1   -1.279019095096840E-3   -1.170311737354407E-3   -1.313926211598036E-3   -1.155679554700269E-3    3.755917489091921E-1   -3.210870437989897E-1
 9.937292006725000E9     4.714407223370218E-1   -1.073686659193225E-1   -1.323524077332655E-3   -1.220062650822015E-3   -1.357839163267501E-3   -1.219953027432051E-3    3.752507102921952E-1   -3.213550523166075E-1
 9.937294632450001E9     4.713450990441369E-1   -1.073007763227057E-1   -1.334908639384031E-3   -1.168335848849830E-3   -1.345482704586473E-3   -1.209771573365981E-3    3.747981002961228E-1   -3.215973260052165E-1
 9.937297258174999E9     4.713211208468783E-1   -1.076897132342546E-1   -1.362116459220918E-3   -1.263312162247042E-3   -1.398248130388572E-3   -1.181406367027000E-3    3.744427898778117E-1   -3.217399193751863E-1
 9.937299883900000E9     4.712525648338603E-1   -1.078884508246603E-1   -1.393127881642842E-3   -1.231921980373574E-3   -1.445862274166917E-3   -1.231128522920716E-3    3.743596044372420E-1   -3.220571482781969E-1
 9.937302509625000E9     4.711636976140240E-1   -1.079309131960422E-1   -1.420888100189615E-3   -1.283751543428694E-3   -1.440482286524968E-3   -1.287917496001345E-3    3.737440085636872E-1   -3.224350346550520E-1
 9.937305135350000E9     4.711235624321922E-1   -1.080975389232704E-1   -1.439484648278758E-3   -1.300498503244276E-3   -1.455110985321960E-3   -1.273658418419765E-3    3.735986282074881E-1   -3.225065582697548E-1
 9.937307761075001E9     4.710098659425813E-1   -1.083225406383450E-1   -1.461824229025934E-3   -1.305411557036857E-3   -1.522859286140273E-3   -1.296010796001985E-3    3.731187475103491E-1   -3.227582645944698E-1
 9.937310386799999E9     4.708415552777348E-1   -1.085168786207887E-1   -1.494736299123244E-3   -1.300530946207329E-3   -1.536464059141692E-3   -1.319784833913097E-3    3.728119918442167E-1   -3.230818123708638E-1
 9.937313012525000E9     4.709588133041721E-1   -1.086624074475889E-1   -1.496470624449412E-3   -1.362824833183115E-3   -1.521157545494972E-3   -1.332563091557219E-3    3.725458209009301E-1   -3.233721842801389E-1
 9.937315638250000E9     4.708620898176753E-1   -1.089088645591922E-1   -1.547984446719128E-3   -1.369613439521477E-3   -1.582894509976461E-3   -1.357793484162413E-3    3.719677244192121E-1   -3.235801310348181E-1
