#  HZ   S   RI   R     50.00 
! Rohde & Schwarz Vector Network Analyzer 
! Rohde-Schwarz,ZNB20-2Port,1311601062101988,3.16
! Created: UTC 3/20/2024, 11:05:12 PM
! freq[Hz]                re:S11                  im:S11                  re:S21                  im:S21                  re:S12                  im:S12                  re:S22                  im:S22
 9.937072062000000E9     4.756751771946406E-1   -9.239554987152047E-2   -2.623883633663096E-4   -2.281624106171800E-4   -2.878238691648498E-4   -2.172867660548105E-4    3.949964986359953E-1   -3.039218986220646E-1
 9.937074715350000E9     4.755070470512454E-1   -9.260556497032560E-2   -2.794876750938516E-4   -2.485821074375373E-4   -2.618119976353400E-4   -2.351683781425528E-4    3.946820407861367E-1   -3.041272724319641E-1
 9.937077368700001E9     4.754185718566230E-1   -9.283486824208248E-2   -2.935877442517100E-4   -2.834796691862687E-4   -2.819491052329944E-4   -2.438762597800162E-4    3.945337237783987E-1   -3.044221628582416E-1
 9.937080022049999E9     4.754529801164116E-1   -9.300818275042663E-2   -2.598088646856524E-4   -2.257983096160189E-4   -2.756242235450036E-4   -2.786463267741924E-4    3.943108649841423E-1   -3.044861868385429E-1
 9.937082675400000E9     4.752656938148160E-1   -9.312005600146847E-2   -2.972671869704704E-4   -2.552328528975859E-4   -3.142818720818717E-4   -2.467884496018374E-4    3.941423577770065E-1   -3.046127351612929E-1
 9.937085328750000E9     4.752637237801848E-1   -9.327001028350949E-2   -3.241790595430343E-4   -2.745029316999121E-4   -3.201392796961784E-4   -2.551263260144153E-4    3.939403211950112E-1   -3.047916099411108E-1
 9.937087982100000E9     4.752033502906502E-1   -9.349647834849893E-2   -3.155982860418654E-4   -2.741456232787520E-4   -3.356633004993647E-4   -2.519147307318864E-4    3.937432830718937E-1   -3.049330875477106E-1
 9.937090635450001E9     4.751125152956449E-1   -9.369962410568534E-2   -2.834414521049558E-4   -2.933437526510410E-4   -3.294019998701142E-4   -2.691446397924390E-4    3.934802093643575E-1   -3.051278901644707E-1
 9.937093288799999E9     4.750928338277985E-1   -9.389482377969971E-2   -3.250935564290858E-4   -2.807428261244510E-4   -3.465331166448752E-4   -2.880237877383217E-4    3.933582501502283E-1   -3.054020390705907E-1
 9.937095942150000E9     4.749650193027877E-1   -9.405402925994968E-2   -3.463949309524898E-4   -2.942269945121575E-4   -3.317596822761222E-4   -2.773517177038233E-4    3.930982424887121E-1   -3.055399473409731E-1
 9.937098595500000E9     4.750102567944132E-1   -9.416946329986176E-2   -3.349349305189130E-4   -2.879113174018243E-4   -3.541289986049292E-4   -3.084380133549170E-4    3.928911966383503E-1   -3.057908523139032E-1
 9.937101248850000E9     4.750773954979781E-1   -9.443770969102069E-2   -3.755224151815494E-4   -3.188375000478297E-4   -3.485368767567150E-4   -3.133583962554532E-4    3.927690706096357E-1   -3.060272509362403E-1
 9.937103902200001E9     4.748899760429433E-1   -9.469350679541721E-2   -3.333230510523370E-4   -2.718690165680798E-4   -3.646366618147305E-4   -3.027585638164416E-4    3.926398173304305E-1   -3.061221826894300E-1
 9.937106555549999E9     4.747822460085878E-1   -9.468934345027839E-2   -3.592324404320152E-4   -2.966961027812152E-4   -3.690123100685815E-4   -3.008692216693226E-4    3.924545066577531E-1   -3.062332178218863E-1
 9.937109208900000E9     4.749062947992945E-1   -9.490787687770036E-2   -3.671975768697982E-4   -3.167236629278802E-4   -3.718417178159925E-4   -3.420691447375678E-4    3.920515842379440E-1   -3.066881480941525E-1
 9.937111862250000E9     4.747058547808601E-1   -9.504466309883834E-2   -3.590608315425451E-4   -3.368215144544751E-4   -3.881349431159337E-4   -3.416446597495044E-4    3.920357568143674E-1   -3.067845177780302E-1
 9.937114515600000E9     4.746725058652008E-1   -9.529437400422219E-2   -3.780867614235862E-4   -3.728331903695655E-4   -3.845752225847845E-4   -3.502673131711184E-4    3.919542323447899E-1   -3.068764537624982E-1
 9.937117168950001E9     4.747269278392586E-1   -9.544130349259301E-2   -3.958944797008235E-4   -3.597751499918712E-4   -4.005882170441292E-4   -3.451674073062622E-4    3.917032852444690E-1   -3.072440670921616E-1
 9.937119822299999E9     4.747288347585432E-1   -9.571753953553493E-2   -4.308607314505321E-4   -3.944006171457113E-4   -4.104651570172888E-4   -3.707493329876651E-4    3.913056844107223E-1   -3.072019050093141E-1
 9.937122475650000E9     4.745845838864961E-1   -9.587703185376747E-2   -3.734637534357068E-4   -3.921437590173064E-4   -3.957146713490323E-4   -3.782966461550723E-4    3.914083893378965E-1   -3.074446644857582E-1
 9.937125129000000E9     4.745109419640455E-1   -9.599642372322752E-2   -4.235021048234322E-4   -3.797391376237391E-4   -4.557745448660485E-4   -3.552155544688790E-4    3.910216827284988E-1   -3.075057927486167E-1
 9.937127782350000E9     4.745199255552615E-1   -9.619841086284102E-2   -4.379344534200420E-4   -4.086685805297724E-4   -4.451057027354973E-4   -3.866176467284302E-4    3.908406650308429E-1   -3.078026682660647E-1
 9.937130435700001E9     4.744189442974617E-1   -9.632184761585938E-2   -4.680458439636031E-4   -4.128439335265757E-4   -4.617868216244483E-4   -4.053421543800873E-4    3.905609904392029E-1   -3.079945583843189E-1
 9.937133089049999E9     4.743536836195866E-1   -9.654924927744604E-2   -4.543005010108746E-4   -4.289849669828011E-4   -4.734010682970686E-4   -4.067852336723991E-4    3.904034480683215E-1   -3.084917997706873E-1
 9.937135742400000E9     4.742168315609821E-1   -9.676490831198876E-2   -4.771915505660203E-4   -4.243913626321413E-4   -4.380456044430133E-4   -4.073508843454249E-4    3.902460462833914E-1   -3.085180462053137E-1
 9.937138395750000E9     4.742536671007673E-1   -9.696553192106513E-2   -4.662682974224122E-4   -4.271088598268080E-4   -4.599445561441652E-4   -4.299490408293393E-4    3.898957717883551E-1   -3.087235131557960E-1
 9.937141049100000E9     4.742930280960752E-1   -9.709299568985576E-2   -4.626728741345971E-4   -4.398401632460715E-4   -4.892707364235189E-4   -4.540822367744522E-4    3.898005004567632E-1   -3.089975638638535E-1
 9.937143702450001E9     4.741789235467049E-1   -9.738708179631213E-2   -4.694086245731196E-4   -4.602848627513385E-4   -4.800967480980876E-4   -4.358165183382924E-4    3.895976685739736E-1   -3.091764387924513E-1
 9.937146355799999E9     4.742895099056853E-1   -9.738044858623697E-2   -4.968403938708958E-4   -4.609328073307189E-4   -5.014337161793692E-4   -4.893991792246066E-4    3.894172967695960E-1   -3.093530700666225E-1
 9.937149009150000E9     4.741563218940640E-1   -9.763445033867500E-2   -4.726342041013561E-4   -4.742819953246947E-4   -5.268979962978366E-4   -4.494771783578970E-4    3.891894690529628E-1   -3.094194359240223E-1
 9.937151662500000E9     4.740045519718741E-1   -9.785297452668887E-2   -5.291683800102042E-4   -4.958251015146875E-4   -5.259069474792358E-4   -4.692570321601492E-4    3.889772361206971E-1   -3.098272933007151E-1
 9.937154315850000E9     4.740273933496102E-1   -9.784352803348738E-2   -5.425342152108211E-4   -4.371446477057348E-4   -5.658268315769558E-4   -4.830361987854357E-4    3.887810315493144E-1   -3.099072066349273E-1
 9.937156969200001E9     4.738981931184355E-1   -9.821612697662722E-2   -5.206507063055959E-4   -5.032857947936693E-4   -5.453557552049131E-4   -4.979993470455206E-4    3.885615008624630E-1   -3.099837727959002E-1
 9.937159622549999E9     4.739810988524016E-1   -9.837573725454675E-2   -5.522937494566211E-4   -5.024610184724986E-4   -5.671443028066980E-4   -5.455665761553483E-4    3.883997387603845E-1   -3.102442916065842E-1
 9.937162275900000E9     4.739580839214117E-1   -9.849040734102366E-2   -5.750491262498639E-4   -5.177225228527251E-4   -6.009225654408551E-4   -4.998410703056725E-4    3.880775600747589E-1   -3.106370177408054E-1
 9.937164929250000E9     4.737282277062600E-1   -9.871106986802938E-2   -5.607980044347287E-4   -5.627004467409039E-4   -5.859518613400837E-4   -5.308540782673497E-4    3.880530434587638E-1   -3.107933188139640E-1
 9.937167582600000E9     4.737959636434571E-1   -9.881168382616522E-2   -5.879648840833527E-4   -5.251927996385332E-4   -5.939734764171545E-4   -5.645927906580825E-4    3.877129055768624E-1   -3.110190269704067E-1
 9.937170235950001E9     4.736322313099555E-1   -9.916939290226634E-2   -5.991122790622485E-4   -5.132400824330227E-4   -6.078087152522755E-4   -5.406772520909511E-4    3.874960602473684E-1   -3.111454159224706E-1
 9.937172889299999E9     4.736346386316586E-1   -9.909015619841910E-2   -6.222491688783318E-4   -5.851957116695447E-4   -6.172697994826265E-4   -5.532872340020167E-4    3.872228274321130E-1   -3.112450746080528E-1
 9.937175542650000E9     4.736826310474198E-1   -9.943891905046311E-2   -6.085329181537248E-4   -5.710200639599642E-4   -6.474529146118075E-4   -5.782775542477015E-4    3.870820607182290E-1   -3.115625027094576E-1
 9.937178196000000E9     4.736056757469274E-1   -9.971279266502943E-2   -5.735958732270903E-4   -5.860036231481664E-4   -6.612321307871287E-4   -5.729786715187289E-4    3.867288406194940E-1   -3.116912777609396E-1
 9.937180849350000E9     4.734096102038823E-1   -9.982772935155027E-2   -6.325581473290650E-4   -6.016985534597627E-4   -6.526490678282323E-4   -5.887143655533550E-4    3.867066475440042E-1   -3.120880004117017E-1
 9.937183502700001E9     4.735019534717543E-1   -9.996134208430958E-2   -6.600958297399409E-4   -6.015250504431411E-4   -6.504401467732958E-4   -5.870704379144452E-4    3.864728029647934E-1   -3.121849634852813E-1
 9.937186156049999E9     4.734700518403726E-1   -1.002061750517325E-1   -6.278935351958327E-4   -5.876553118751406E-4   -6.577146637523219E-4   -6.444804163591063E-4    3.861755899508428E-1   -3.122636547474926E-1
 9.937188809400000E9     4.733987460643799E-1   -1.002726615109428E-1   -6.359890755116259E-4   -6.264865081406607E-4   -6.971780008593094E-4   -6.485228200378591E-4    3.860437551635509E-1   -3.125179646858312E-1
 9.937191462750000E9     4.732706889979776E-1   -1.005621362949499E-1   -7.034309564508262E-4   -6.505999856921236E-4   -7.239981187984548E-4   -6.366210209408310E-4    3.857539432275280E-1   -3.129672971903822E-1
 9.937194116100000E9     4.734102999240450E-1   -1.007709729761466E-1   -6.900825413044999E-4   -6.536381361457360E-4   -6.951081905030606E-4   -6.412991897505514E-4    3.854001828183669E-1   -3.130583040251820E-1
 9.937196769450001E9     4.733530344688674E-1   -1.009056849080617E-1   -7.248211154476777E-4   -6.581664108179378E-4   -7.170379118931744E-4   -6.735113061800760E-4    3.852393077000468E-1   -3.131648777013516E-1
 9.937199422799999E9     4.730078148696130E-1   -1.009199945278651E-1   -6.874400545838897E-4   -7.086714928626111E-4   -7.154079734763403E-4   -6.683223052603737E-4    3.848592275175535E-1   -3.132246377565467E-1
 9.937202076150000E9     4.731723004733454E-1   -1.013486547868756E-1   -7.293706638963755E-4   -7.187394836805598E-4   -7.331268041214631E-4   -6.889353394687222E-4    3.848720152673528E-1   -3.136219999871869E-1
 9.937204729500000E9     4.730968832455334E-1   -1.014798755822347E-1   -7.503149784461598E-4   -7.206631975188042E-4   -7.633363122674728E-4   -6.855005691332410E-4    3.844292748052137E-1   -3.138612351681273E-1
 9.937207382850000E9     4.729132790810539E-1   -1.015239107739718E-1   -7.251672705578427E-4   -7.063732291898562E-4   -7.761593927841920E-4   -7.119930054975525E-4    3.842629354488447E-1   -3.139988785279036E-1
 9.937210036200001E9     4.730460955620683E-1   -1.017477131557637E-1   -7.685937521956021E-4   -7.398397878748581E-4   -8.215141752651825E-4   -7.193372310150738E-4    3.839541601970363E-1   -3.142993475240684E-1
 9.937212689549999E9     4.729517478947206E-1   -1.019022921156419E-1   -7.987915206198326E-4   -7.465949613543370E-4   -7.972225643021545E-4   -7.277677491367298E-4    3.836802863257726E-1   -3.144835516051230E-1
 9.937215342900000E9     4.728344576113814E-1   -1.021326647814182E-1   -7.794224433905849E-4   -7.569871748882976E-4   -8.433512692808354E-4   -7.686089117640800E-4    3.834619940135305E-1   -3.146441520150065E-1
 9.937217996250000E9     4.728113825941680E-1   -1.022421356744537E-1   -8.080441663991301E-4   -7.537224494045626E-4   -8.658113973018262E-4   -7.620916893477585E-4    3.831800155395070E-1   -3.149500168762951E-1
 9.937220649600000E9     4.727062541720009E-1   -1.025041324594759E-1   -8.061729256657263E-4   -8.084784874931736E-4   -8.118491952907940E-4   -7.759953913593071E-4    3.830639801543184E-1   -3.150914871180340E-1
 9.937223302950001E9     4.727515235599770E-1   -1.026251452839701E-1   -8.067635652595402E-4   -8.244020142628656E-4   -8.806412226926269E-4   -7.964479076018896E-4    3.827311874793902E-1   -3.151320038262032E-1
 9.937225956299999E9     4.726680163524805E-1   -1.027638208194355E-1   -8.869328172617017E-4   -7.748215678641402E-4   -8.650646252588190E-4   -8.207818359219578E-4    3.824010267517378E-1   -3.156360938884110E-1
 9.937228609650000E9     4.726465954675432E-1   -1.029320351146158E-1   -9.052356163332815E-4   -8.318728235567180E-4   -9.012386596890115E-4   -8.350133920642426E-4    3.821580735944229E-1   -3.160315498870540E-1
 9.937231263000000E9     4.725895340337912E-1   -1.033045645743398E-1   -8.662664110485073E-4   -8.660559111542613E-4   -8.953904825519843E-4   -8.248361802422283E-4    3.819903161405773E-1   -3.161929198880293E-1
 9.937233916350000E9     4.724756583324420E-1   -1.034156638800475E-1   -9.108233704201441E-4   -8.670003185092959E-4   -9.615141299384989E-4   -8.519434374432322E-4    3.817006896521732E-1   -3.164432274015875E-1
 9.937236569700001E9     4.724233928768852E-1   -1.035773560252153E-1   -9.233453299004218E-4   -8.342577799598612E-4   -9.717624854169810E-4   -8.685767001765969E-4    3.813849824405460E-1   -3.163930980814367E-1
 9.937239223049999E9     4.723854482283045E-1   -1.038345215220843E-1   -9.282227002946782E-4   -8.578525344880380E-4   -9.373424372294243E-4   -8.762876514368127E-4    3.811452004990429E-1   -3.165875141402971E-1
 9.937241876400000E9     4.723660153829089E-1   -1.039069138848830E-1   -9.751983773325595E-4   -8.962642600111447E-4   -9.675943397131415E-4   -8.813806922726350E-4    3.809173805868032E-1   -3.169133019221703E-1
 9.937244529750000E9     4.722559519913044E-1   -1.040655976208579E-1   -9.821750235830284E-4   -9.089394068780177E-4   -9.964554137279465E-4   -9.142681744163840E-4    3.806292981748453E-1   -3.172090959035257E-1
 9.937247183100000E9     4.722377213291770E-1   -1.041280489969183E-1   -9.906334553578197E-4   -9.285663816171818E-4   -1.018245235489751E-3   -9.121470271010015E-4    3.802295802426284E-1   -3.173818502844746E-1
 9.937249836450001E9     4.722191732328256E-1   -1.044771091060346E-1   -1.011493685151711E-3   -9.324888248027374E-4   -1.071881124574236E-3   -9.561847013852908E-4    3.799838064892156E-1   -3.177135462086125E-1
 9.937252489799999E9     4.720937963783362E-1   -1.045872274878575E-1   -1.048239307948795E-3   -9.638867866149782E-4   -1.070152359702463E-3   -9.393057901903774E-4    3.797743486736129E-1   -3.178857382033542E-1
 9.937255143150000E9     4.720584020838899E-1   -1.048191503453966E-1   -1.012677286828981E-3   -9.806684467334743E-4   -1.058177992655991E-3   -9.691948020749835E-4    3.793927450066583E-1   -3.180428346042593E-1
 9.937257796500000E9     4.720278424239736E-1   -1.050135133166143E-1   -1.023925163730925E-3   -9.822662879797159E-4   -1.097004385400398E-3   -1.006044651550760E-3    3.791817129876798E-1   -3.181854935093600E-1
 9.937260449850000E9     4.721207978206661E-1   -1.052459634442380E-1   -1.077690539297606E-3   -9.988776429971675E-4   -1.136568956131472E-3   -1.000396756883476E-3    3.787331357213513E-1   -3.186875278721186E-1
 9.937263103200001E9     4.718452786558132E-1   -1.053720624960295E-1   -1.113878504507920E-3   -9.585734005002346E-4   -1.107125132126541E-3   -1.021808475446063E-3    3.785459733121517E-1   -3.186831760678522E-1
 9.937265756549999E9     4.718660339682151E-1   -1.054862982609539E-1   -1.113324895605063E-3   -1.071372682977533E-3   -1.135385868891508E-3   -1.040459286899154E-3    3.783004963002886E-1   -3.190108635122201E-1
 9.937268409900000E9     4.717541334155345E-1   -1.057542126653695E-1   -1.123114960160300E-3   -1.051881455085198E-3   -1.178019536060965E-3   -1.006272435972695E-3    3.777620583828499E-1   -3.192922173234160E-1
 9.937271063250000E9     4.717972560795096E-1   -1.058565918767836E-1   -1.158185323799548E-3   -1.077620554308882E-3   -1.201205014988350E-3   -1.053910051161944E-3    3.774429564289470E-1   -3.197339401365243E-1
 9.937273716600000E9     4.717035709567322E-1   -1.060991460849940E-1   -1.161657831489897E-3   -1.043936417073294E-3   -1.206055874111833E-3   -1.081356689346486E-3    3.773006201259171E-1   -3.198135547164791E-1
 9.937276369950001E9     4.717964814321803E-1   -1.063115237344179E-1   -1.197807035933697E-3   -1.068465127050139E-3   -1.234048015636848E-3   -1.090325949660742E-3    3.771287291755727E-1   -3.200942857866473E-1
 9.937279023299999E9     4.715578662286751E-1   -1.063539916241617E-1   -1.216577110745054E-3   -1.125005953863259E-3   -1.266674560926953E-3   -1.108065889738841E-3    3.765613140763159E-1   -3.202038046199899E-1
 9.937281676650000E9     4.715879726935551E-1   -1.066218881855657E-1   -1.220410264495314E-3   -1.100244391696640E-3   -1.270485147605233E-3   -1.130538953221306E-3    3.764538065472455E-1   -3.205932630604360E-1
 9.937284330000000E9     4.716746478450902E-1   -1.068360107434522E-1   -1.287434103391590E-3   -1.123045793284024E-3   -1.300259380487097E-3   -1.143082633909528E-3    3.758246221297545E-1   -3.207310420743131E-1
 9.937286983350000E9     4.715069423517687E-1   -1.070053301357336E-1   -1.276509448706862E-3   -1.147840585563584E-3   -1.325428295588028E-3   -1.158814765233438E-3    3.758625151834025E-1   -3.209781035865198E-1
 9.937289636700001E9     4.713261276968062E-1   -1.071167210057808E-1   -1.326482516907680E-3   -1.187399619019504E-3   -1.347406062099293E-3   -1.187730682060442E-3    3.753883003192510E-1   -3.211055400474471E-1
 9.937292290049999E9     4.712703571422340E-1   -1.074137136591198E-1   -1.335172576372058E-3   -1.200254877998751E-3   -1.353321430574915E-3   -1.181658228912499E-3    3.749657853763063E-1   -3.214141270162962E-1
 9.937294943400000E9     4.712512968570764E-1   -1.074912509971851E-1   -1.370703829544338E-3   -1.263682779123722E-3   -1.392714938765511E-3   -1.221353776904439E-3    3.746758838062283E-1   -3.215071964413028E-1
 9.937297596750000E9     4.712354041956813E-1   -1.076896424751451E-1   -1.395714946794837E-3   -1.201772837856573E-3   -1.408536213374434E-3   -1.228982812781244E-3    3.744182428174514E-1   -3.218415654268936E-1
 9.937300250100000E9     4.712479967585522E-1   -1.079190737853094E-1   -1.435059494241881E-3   -1.266700202301836E-3   -1.421000795717747E-3   -1.229506279437977E-3    3.741104703011151E-1   -3.222753084028379E-1
 9.937302903450001E9     4.711924358415658E-1   -1.080540632319673E-1   -1.429887059752012E-3   -1.268638355600541E-3   -1.475425041661913E-3   -1.289429389221595E-3    3.736665107822338E-1   -3.223629826204634E-1
 9.937305556799999E9     4.710736886956295E-1   -1.081292825714031E-1   -1.487089320703517E-3   -1.283787473253919E-3   -1.480393421246555E-3   -1.250735600352831E-3    3.732968990664106E-1   -3.227093267927010E-1
 9.937308210150000E9     4.709766780654959E-1   -1.081726854820163E-1   -1.483042778574692E-3   -1.369212017734703E-3   -1.541648026455962E-3   -1.345423505297426E-3    3.729323150998212E-1   -3.228800382274045E-1
 9.937310863500000E9     4.709884023976079E-1   -1.085496771939493E-1   -1.509633112903620E-3   -1.321847314673663E-3   -1.554666898758109E-3   -1.337993794955643E-3    3.725565519637119E-1   -3.231983103978311E-1
