#  HZ   S   RI   R     50.00 
! Rohde & Schwarz Vector Network Analyzer 
! Rohde-Schwarz,ZNB20-2Port,1311601062101988,3.16
! Created: UTC 3/20/2024, 11:05:14 PM
! freq[Hz]                re:S11                  im:S11                  re:S21                  im:S21                  re:S12                  im:S12                  re:S22                  im:S22
 9.937078586000000E9     4.754446199690155E-1   -9.293735816007362E-2   -2.742192363912513E-4   -2.475263381175143E-4   -3.174211361306629E-4   -2.428110575271454E-4    3.944919507839156E-1   -3.042136528354918E-1
 9.937081202400000E9     4.754237097682593E-1   -9.298298389794300E-2   -3.234382642245586E-4   -2.715828876572954E-4   -2.915042667316480E-4   -2.672718778430720E-4    3.942457519049744E-1   -3.043423962000382E-1
 9.937083818799999E9     4.753627021378577E-1   -9.330284076083713E-2   -3.194311408420812E-4   -2.589941005120250E-4   -3.306323804682128E-4   -2.294007258329656E-4    3.940396486110837E-1   -3.048628824937431E-1
 9.937086435200001E9     4.753385528910067E-1   -9.336742553014199E-2   -2.856427217603939E-4   -2.928158547005027E-4   -3.105514576272852E-4   -2.453069158400099E-4    3.939377392662760E-1   -3.048811517184602E-1
 9.937089051600000E9     4.751778882384901E-1   -9.363328042849045E-2   -3.303249421917649E-4   -2.225990371549681E-4   -3.155823375436754E-4   -2.722196698108095E-4    3.937104872021843E-1   -3.050665591146476E-1
 9.937091668000000E9     4.752045555525798E-1   -9.362548253533208E-2   -3.313046049676980E-4   -2.931319540944374E-4   -3.172874559600975E-4   -2.790000107811320E-4    3.935556513006228E-1   -3.053770218420068E-1
 9.937094284400000E9     4.752636027662053E-1   -9.402421477887522E-2   -3.223261339330245E-4   -2.619068721380348E-4   -3.590189952477090E-4   -2.919593978707245E-4    3.931185419649260E-1   -3.053705180725612E-1
 9.937096900799999E9     4.751367678816664E-1   -9.422125811959414E-2   -3.701347192645042E-4   -2.533749807081807E-4   -3.467764478956263E-4   -2.818413584588614E-4    3.932234536089977E-1   -3.057177727636835E-1
 9.937099517200001E9     4.749047930621786E-1   -9.429202244595657E-2   -3.356754842955246E-4   -3.077769229317690E-4   -3.273094445304954E-4   -2.858523341049617E-4    3.930287135136395E-1   -3.057910151089052E-1
 9.937102133600000E9     4.749628958037100E-1   -9.447231444853120E-2   -3.469195233488023E-4   -3.081092999756325E-4   -3.557467317187802E-4   -2.916768624224140E-4    3.928325609624184E-1   -3.061357949418190E-1
 9.937104750000000E9     4.748717055075058E-1   -9.456921244279801E-2   -3.548873849193865E-4   -3.421970493380932E-4   -3.750967173461434E-4   -2.950955475379767E-4    3.924337656618926E-1   -3.061113138642569E-1
 9.937107366400000E9     4.749114762959447E-1   -9.472553242197033E-2   -3.359537276663745E-4   -3.459228424960215E-4   -3.836284109797564E-4   -2.928995455038557E-4    3.923217433028358E-1   -3.063959319353411E-1
 9.937109982799999E9     4.748097425092844E-1   -9.495481885513504E-2   -3.881206548674892E-4   -3.310517866393860E-4   -3.660730089365816E-4   -3.270340483699400E-4    3.922365680911943E-1   -3.067054154049181E-1
 9.937112599200001E9     4.748898144774258E-1   -9.523030450188635E-2   -3.775561562659099E-4   -3.253962578023320E-4   -3.890853988404365E-4   -3.277660585413104E-4    3.918155790278874E-1   -3.068540139085527E-1
 9.937115215600000E9     4.746666523938277E-1   -9.536013508861671E-2   -4.038399532068779E-4   -3.384176549069188E-4   -3.977592429073354E-4   -3.599410227628137E-4    3.917107714286842E-1   -3.068826525716318E-1
 9.937117832000000E9     4.746054248318575E-1   -9.568217575092719E-2   -4.041439500805424E-4   -3.799058712876840E-4   -3.872338603757553E-4   -3.686446226901011E-4    3.914946239459005E-1   -3.071228497010469E-1
 9.937120448400000E9     4.745366223152752E-1   -9.571707527743478E-2   -3.905944989553401E-4   -3.596699875613174E-4   -4.373760578574899E-4   -3.830757784851654E-4    3.914502995374626E-1   -3.074101934901616E-1
 9.937123064799999E9     4.746064588844414E-1   -9.597513873989340E-2   -4.348846860423059E-4   -3.616470417884053E-4   -4.423277554148815E-4   -3.636370243162991E-4    3.909546522666496E-1   -3.076882016564582E-1
 9.937125681200001E9     4.745253415619856E-1   -9.600098256908274E-2   -4.308109744336421E-4   -3.840861838199053E-4   -4.305756253446395E-4   -3.929848939078944E-4    3.909752222593091E-1   -3.077631536088142E-1
 9.937128297600000E9     4.744181333627470E-1   -9.622569647707356E-2   -4.452097822242893E-4   -4.373745311758167E-4   -4.287152976369103E-4   -3.988113635375501E-4    3.906873298182912E-1   -3.079225367501354E-1
 9.937130914000000E9     4.744348511379783E-1   -9.640004042718747E-2   -4.425558376643152E-4   -3.956797963027728E-4   -4.463670392050080E-4   -3.967456167519471E-4    3.906785991795004E-1   -3.083200644466033E-1
 9.937133530400000E9     4.745485963402592E-1   -9.656722971348058E-2   -4.355360185258300E-4   -3.945675366431099E-4   -4.352333920240635E-4   -3.981540971536359E-4    3.903773359014541E-1   -3.083732144924340E-1
 9.937136146799999E9     4.743647385010104E-1   -9.674695267289880E-2   -4.634912421329973E-4   -4.368901148765187E-4   -4.757530431577196E-4   -4.343897174855529E-4    3.900221503569144E-1   -3.085794435789687E-1
 9.937138763200001E9     4.743321539165810E-1   -9.686409594142027E-2   -4.666375101233789E-4   -4.423071050654340E-4   -4.838609178571318E-4   -4.298628569730848E-4    3.899475180194450E-1   -3.087318490230772E-1
 9.937141379600000E9     4.742938081777470E-1   -9.715223534277535E-2   -4.774025631522189E-4   -4.459036600697300E-4   -5.071625734040336E-4   -4.817220998097660E-4    3.897803147864115E-1   -3.088481783335192E-1
 9.937143996000000E9     4.740894418277591E-1   -9.735685190318000E-2   -5.082428586485416E-4   -4.503683569411238E-4   -5.119149082535738E-4   -4.444369904490296E-4    3.896237921646944E-1   -3.091345495077059E-1
 9.937146612400000E9     4.742386082425495E-1   -9.747864508486317E-2   -4.810806364328399E-4   -4.499182563274186E-4   -5.159986845126987E-4   -4.733889864512831E-4    3.895760227237409E-1   -3.093259518291930E-1
 9.937149228799999E9     4.741974163130135E-1   -9.769718101307759E-2   -5.045779972350168E-4   -4.949953632705351E-4   -5.113721620826116E-4   -4.755998628283304E-4    3.890707115677227E-1   -3.094989761168483E-1
 9.937151845200001E9     4.740499808095969E-1   -9.782495823685000E-2   -5.100793924517912E-4   -5.005533940128905E-4   -5.221965957532784E-4   -4.830502964623250E-4    3.890768398822749E-1   -3.096530503552829E-1
 9.937154461600000E9     4.740520567751650E-1   -9.809055783419206E-2   -5.324474012825747E-4   -5.054218112031071E-4   -5.240866374470552E-4   -4.916984036092986E-4    3.887515000039596E-1   -3.099524394374096E-1
 9.937157078000000E9     4.739318785232193E-1   -9.817657531725422E-2   -5.449235268939786E-4   -5.084346841460124E-4   -5.553875998247596E-4   -4.900506831669093E-4    3.885992240547939E-1   -3.100484138333404E-1
 9.937159694400000E9     4.738925224993778E-1   -9.838904395308254E-2   -5.815544168988711E-4   -4.915207376375338E-4   -5.649207362979082E-4   -5.156859004164529E-4    3.881990315336158E-1   -3.102540459401908E-1
 9.937162310799999E9     4.739158151722668E-1   -9.845506153444615E-2   -5.712875586370973E-4   -5.363510295415578E-4   -5.735605517716146E-4   -5.068523308136203E-4    3.881885119467859E-1   -3.106241486577281E-1
 9.937164927200001E9     4.738298584832895E-1   -9.871847050678463E-2   -5.821201091527489E-4   -5.429207819928399E-4   -5.891573719256429E-4   -5.543152847734975E-4    3.877983764514398E-1   -3.108615179690991E-1
 9.937167543600000E9     4.737573270544586E-1   -9.890757419267346E-2   -5.601671855250814E-4   -5.027036464781954E-4   -6.038053568100782E-4   -5.419229139888386E-4    3.876170725448693E-1   -3.108878496113308E-1
 9.937170160000000E9     4.736760120985971E-1   -9.904266299900315E-2   -5.551185498360065E-4   -5.412598597811387E-4   -6.019004978948742E-4   -5.650329416806299E-4    3.876135443836022E-1   -3.112637367524396E-1
 9.937172776400000E9     4.736482508967456E-1   -9.916408263757800E-2   -5.979102481331136E-4   -5.481031426551391E-4   -6.143946949136401E-4   -5.633731233693797E-4    3.873175361549397E-1   -3.113867365302978E-1
 9.937175392799999E9     4.735648818876778E-1   -9.950309376265715E-2   -5.989542729518991E-4   -5.548236834278012E-4   -6.475288724871942E-4   -5.676481368118723E-4    3.870134637816579E-1   -3.114015902101770E-1
 9.937178009200001E9     4.735933905200261E-1   -9.960419722958505E-2   -5.890065780022214E-4   -5.714532509415155E-4   -6.066177673054312E-4   -5.493749926031823E-4    3.867327360575687E-1   -3.116040958017941E-1
 9.937180625600000E9     4.735443891360084E-1   -9.975233608712142E-2   -6.278226666848664E-4   -6.259126476059599E-4   -6.511583050925674E-4   -6.005829303145749E-4    3.863664253625728E-1   -3.118538552489816E-1
 9.937183242000000E9     4.733518610253981E-1   -9.999699254516886E-2   -6.118820276162837E-4   -6.306705619029304E-4   -6.485992164472096E-4   -6.053789250500004E-4    3.863475323825201E-1   -3.120849225532736E-1
 9.937185858400000E9     4.734762219777235E-1   -1.000989068231490E-1   -6.964441198210190E-4   -6.357195605649654E-4   -6.762692025879379E-4   -6.246484022131575E-4    3.861300729887868E-1   -3.124626374889804E-1
 9.937188474799999E9     4.733705445128817E-1   -1.002961123028140E-1   -6.780717887022431E-4   -6.729487752348990E-4   -6.904683567016174E-4   -6.306253804424104E-4    3.858731709939260E-1   -3.125781460764345E-1
 9.937191091200001E9     4.732919432564097E-1   -1.006031251828153E-1   -6.504137744030566E-4   -6.397447536577352E-4   -7.177798474232281E-4   -6.543987756996876E-4    3.857525334064881E-1   -3.126647288335459E-1
 9.937193707600000E9     4.732691992834835E-1   -1.007734217024417E-1   -6.837393163055039E-4   -6.402376814422582E-4   -6.920110439009494E-4   -6.440046513816204E-4    3.854484228336299E-1   -3.129905037351394E-1
 9.937196324000000E9     4.732600071369051E-1   -1.007968333439210E-1   -6.757666105613580E-4   -6.479783416891779E-4   -7.040049540683859E-4   -6.667454015496215E-4    3.851657548264250E-1   -3.132862253850046E-1
 9.937198940400000E9     4.731914900825312E-1   -1.009675327775257E-1   -6.862166256806240E-4   -6.828784597008295E-4   -7.465887015161845E-4   -6.865465273203769E-4    3.849856436203200E-1   -3.132360930546380E-1
 9.937201556799999E9     4.729704935984024E-1   -1.012506452819071E-1   -7.367810092433344E-4   -7.159056055490857E-4   -7.339725756158456E-4   -6.860117854158194E-4    3.847475783226764E-1   -3.137404750593973E-1
 9.937204173200001E9     4.731713945583811E-1   -1.013770396536849E-1   -7.360560529756762E-4   -6.598552133670558E-4   -7.772892449146677E-4   -6.877196070642487E-4    3.846098951905246E-1   -3.137753127949721E-1
 9.937206789600000E9     4.731307040589937E-1   -1.014742791868666E-1   -7.775025759484518E-4   -7.151697076272956E-4   -7.962646603896613E-4   -6.895679198452032E-4    3.842203896242501E-1   -3.139103194669077E-1
 9.937209406000000E9     4.730642054778486E-1   -1.016717945496941E-1   -7.623176528116269E-4   -7.088494933301613E-4   -7.661507845087136E-4   -7.184385787690022E-4    3.840436090574933E-1   -3.141403428377011E-1
 9.937212022400000E9     4.727979297029299E-1   -1.018548356157781E-1   -8.143422423621198E-4   -7.246633503669150E-4   -7.889005644993232E-4   -7.112280083087691E-4    3.839100517815692E-1   -3.145687097989738E-1
 9.937214638799999E9     4.729138293108913E-1   -1.019595464699359E-1   -8.068876350654143E-4   -7.471053764436047E-4   -8.149520634352380E-4   -7.282910079822948E-4    3.834319371165302E-1   -3.146617998690433E-1
 9.937217255200001E9     4.728737631799503E-1   -1.022596848333921E-1   -7.913167829769094E-4   -7.639211757709326E-4   -8.519114920854372E-4   -7.660547660070789E-4    3.830996235912790E-1   -3.148444725301529E-1
 9.937219871600000E9     4.728367045564795E-1   -1.023329666110984E-1   -8.454827504940768E-4   -7.764276124843149E-4   -8.318631158062207E-4   -7.857899127008650E-4    3.828363433512936E-1   -3.151930110417276E-1
 9.937222488000000E9     4.726423266845943E-1   -1.026368420501946E-1   -8.513826808793254E-4   -8.098570520195034E-4   -8.542157164620485E-4   -7.758861721239254E-4    3.826742949674658E-1   -3.154221966102244E-1
 9.937225104400000E9     4.727655390967471E-1   -1.027070918479872E-1   -8.547933598667745E-4   -8.151915487041660E-4   -8.769300102720658E-4   -7.872551573836935E-4    3.823805984599957E-1   -3.157314559212983E-1
 9.937227720799999E9     4.725865296674289E-1   -1.030675726107763E-1   -8.652937338263625E-4   -8.184447841657876E-4   -8.890005159476351E-4   -8.063272218892715E-4    3.822143240718417E-1   -3.157934054044344E-1
 9.937230337200001E9     4.725460336105560E-1   -1.030848993915255E-1   -9.065292568123225E-4   -8.065861335978010E-4   -9.357393200861992E-4   -8.381750196305304E-4    3.820116239519090E-1   -3.158506486678614E-1
 9.937232953600000E9     4.725679351840034E-1   -1.033018671740412E-1   -9.067248962811873E-4   -8.142843078379691E-4   -9.560012355215747E-4   -8.238650932372994E-4    3.817094160090189E-1   -3.163522410224715E-1
 9.937235570000000E9     4.725468431908206E-1   -1.033890326981182E-1   -9.406903440945925E-4   -8.365670140337325E-4   -9.398613555033232E-4   -8.840748449318200E-4    3.814492233376666E-1   -3.162919162446068E-1
 9.937238186400000E9     4.723758995996357E-1   -1.037793532112549E-1   -9.643503602714844E-4   -8.960772095581802E-4   -9.667539056385483E-4   -8.902649897670352E-4    3.812412477706459E-1   -3.165570212700518E-1
 9.937240802799999E9     4.725032200405598E-1   -1.038437787907296E-1   -9.796251040628606E-4   -8.648167075193535E-4   -9.544433176397686E-4   -8.893205459288077E-4    3.810190528904622E-1   -3.170142044860379E-1
 9.937243419200001E9     4.722799636103512E-1   -1.038934375547429E-1   -9.731346619316719E-4   -8.966300481535847E-4   -1.005533186965536E-3   -8.804407414060345E-4    3.806455658035566E-1   -3.171870792630233E-1
 9.937246035600000E9     4.723142744359432E-1   -1.042213891105216E-1   -9.413538832164929E-4   -8.993160690027792E-4   -1.007375027371472E-3   -9.303582816780629E-4    3.803133516391259E-1   -3.172369278350511E-1
 9.937248652000000E9     4.722077261089194E-1   -1.044702475579698E-1   -9.816582560910479E-4   -8.979965498415416E-4   -1.028253370186158E-3   -9.177856762540002E-4    3.800925517057465E-1   -3.173981943413484E-1
 9.937251268400000E9     4.721076549062642E-1   -1.046164746699079E-1   -1.016317254444585E-3   -9.409099955827312E-4   -1.051902953933577E-3   -9.579222505919265E-4    3.797367396087661E-1   -3.178951398398351E-1
 9.937253884799999E9     4.721713845779336E-1   -1.047611955827990E-1   -1.046236179451854E-3   -9.778823122186594E-4   -1.077895703584937E-3   -9.429550231782231E-4    3.798181125979048E-1   -3.181141164350819E-1
 9.937256501200001E9     4.720141852436979E-1   -1.049542398408933E-1   -1.049820261672773E-3   -9.681483429618099E-4   -1.086256562474625E-3   -9.431740879045549E-4    3.791319884537122E-1   -3.182609444885793E-1
 9.937259117600000E9     4.719581547508409E-1   -1.050617916317173E-1   -1.084765244995683E-3   -9.782938173272179E-4   -1.100239341781225E-3   -9.980251409156865E-4    3.789019076193463E-1   -3.183412012409751E-1
 9.937261734000000E9     4.720209098562309E-1   -1.052821822794106E-1   -1.072643512410089E-3   -9.791193300897941E-4   -1.136761961333567E-3   -1.022612032119144E-3    3.787870750050525E-1   -3.187064036259192E-1
 9.937264350400000E9     4.718286969229268E-1   -1.054305729212790E-1   -1.112704429079533E-3   -1.053414230459576E-3   -1.152245142515826E-3   -9.988047129075525E-4    3.784861658085258E-1   -3.188641027334732E-1
 9.937266966799999E9     4.718532010778867E-1   -1.055675168940391E-1   -1.141311696201755E-3   -1.067614538173616E-3   -1.159564937276400E-3   -1.036137252213571E-3    3.782701032069539E-1   -3.190219004534313E-1
 9.937269583200001E9     4.718684420272166E-1   -1.057718175822738E-1   -1.177418520034248E-3   -1.067380566423698E-3   -1.165354665214676E-3   -1.051820518932288E-3    3.776867713421619E-1   -3.191630794735235E-1
 9.937272199600000E9     4.716242636277861E-1   -1.059100015685524E-1   -1.165410197614016E-3   -1.042716537781536E-3   -1.219360758748123E-3   -1.043903191875289E-3    3.773522636855670E-1   -3.195550792110333E-1
 9.937274816000000E9     4.717668991656939E-1   -1.060310345429583E-1   -1.184857259727416E-3   -1.096393861702144E-3   -1.213835517884377E-3   -1.078145689464429E-3    3.770607105238463E-1   -3.197899986950207E-1
 9.937277432400000E9     4.715652886988266E-1   -1.062635290708789E-1   -1.216724096290092E-3   -1.098290100056476E-3   -1.239126024492681E-3   -1.106720936670178E-3    3.767233194706176E-1   -3.201195070984250E-1
 9.937280048799999E9     4.715775954492351E-1   -1.065091602973262E-1   -1.262432999248462E-3   -1.162920712923125E-3   -1.261517141598511E-3   -1.109005644481234E-3    3.764144078677439E-1   -3.203253489783019E-1
 9.937282665200001E9     4.716325188894593E-1   -1.065969525854832E-1   -1.244122773864718E-3   -1.160003694942456E-3   -1.308590036941228E-3   -1.139964032117658E-3    3.762419086989439E-1   -3.204953982936408E-1
 9.937285281600000E9     4.715815923298010E-1   -1.067706433573682E-1   -1.306727925622124E-3   -1.168466440369422E-3   -1.317561774304624E-3   -1.142739447563189E-3    3.758430962542956E-1   -3.206574123966118E-1
 9.937287898000000E9     4.713529678090245E-1   -1.069183858640148E-1   -1.295797711125588E-3   -1.190861258466487E-3   -1.339195668460647E-3   -1.159088833951578E-3    3.756200822236392E-1   -3.211072648261284E-1
 9.937290514400000E9     4.714891778624088E-1   -1.071879982629539E-1   -1.317270032624921E-3   -1.201136990389466E-3   -1.383347405814933E-3   -1.179809385396254E-3    3.752302952351732E-1   -3.211010671344238E-1
 9.937293130799999E9     4.713028215001753E-1   -1.073395219629655E-1   -1.319370659027887E-3   -1.195340510581167E-3   -1.400561688464002E-3   -1.220569133433278E-3    3.750157321138356E-1   -3.213494400333908E-1
 9.937295747200001E9     4.713006037286828E-1   -1.074944609900202E-1   -1.367554574290387E-3   -1.227078047927675E-3   -1.404963342101683E-3   -1.239341161659231E-3    3.746224348620384E-1   -3.217515424379141E-1
 9.937298363600000E9     4.711895350974830E-1   -1.077502126830659E-1   -1.391612294113613E-3   -1.234979148327901E-3   -1.439293820979395E-3   -1.260766685890397E-3    3.743099551738491E-1   -3.218915331320898E-1
 9.937300980000000E9     4.711178268742380E-1   -1.078770706300636E-1   -1.442514825659748E-3   -1.237286632999134E-3   -1.494974189800325E-3   -1.263551326183937E-3    3.739416629205161E-1   -3.221663684582847E-1
 9.937303596400000E9     4.712916476490160E-1   -1.081025880549737E-1   -1.459215381211517E-3   -1.306790351233407E-3   -1.488705611642521E-3   -1.242313921441570E-3    3.734932548255886E-1   -3.224525817055021E-1
 9.937306212799999E9     4.711110080334366E-1   -1.082940979494218E-1   -1.463859700873189E-3   -1.278465953381476E-3   -1.513235728143263E-3   -1.293980026026407E-3    3.732182498678963E-1   -3.226951572222310E-1
 9.937308829200001E9     4.709920836564419E-1   -1.084377842199878E-1   -1.491650783141489E-3   -1.327192820930765E-3   -1.526157454783807E-3   -1.320559756689284E-3    3.729828044019713E-1   -3.230767992832991E-1
 9.937311445600000E9     4.709611086965245E-1   -1.086154328543621E-1   -1.529686306253196E-3   -1.335158905654673E-3   -1.577124429855810E-3   -1.342714611010796E-3    3.725003566562384E-1   -3.232527125444595E-1
 9.937314062000000E9     4.708974687723944E-1   -1.086317136193406E-1   -1.557973793701456E-3   -1.351862156203359E-3   -1.598031934633481E-3   -1.373942576339818E-3    3.722003088635045E-1   -3.236017249679535E-1
