#  HZ   S   RI   R     50.00 
! Rohde & Schwarz Vector Network Analyzer 
! Rohde-Schwarz,ZNB20-2Port,1311601062101988,3.16
! Created: UTC 3/20/2024, 11:05:16 PM
! freq[Hz]                re:S11                  im:S11                  re:S21                  im:S21                  re:S12                  im:S12                  re:S22                  im:S22
 9.937074395000000E9     4.756402423727152E-1   -9.243965609618550E-2   -2.632198669104087E-4   -2.007719523341620E-4   -2.912709086293204E-4   -2.146231581262039E-4    3.945749925993787E-1   -3.041017851407468E-1
 9.937077029575001E9     4.755049941637319E-1   -9.274724521694687E-2   -2.762562040572909E-4   -2.661436764453275E-4   -2.939369018148434E-4   -2.493109703327273E-4    3.943120095978269E-1   -3.041893518256227E-1
 9.937079664150000E9     4.753897912265395E-1   -9.298501574979617E-2   -2.985261319200978E-4   -2.323210977410506E-4   -3.020352115157046E-4   -2.411289952318537E-4    3.944571814791790E-1   -3.043985653374237E-1
 9.937082298725000E9     4.754103385043705E-1   -9.319416311922733E-2   -3.036104538797165E-4   -2.466625913249095E-4   -2.896518756268240E-4   -2.456318416120900E-4    3.941210827012548E-1   -3.045735296845287E-1
 9.937084933299999E9     4.752414605456251E-1   -9.329445594228744E-2   -3.140771917948822E-4   -2.748214539911950E-4   -3.001065262088455E-4   -2.565069961610476E-4    3.940505162888641E-1   -3.048807770264420E-1
 9.937087567875000E9     4.752454647038651E-1   -9.349084297031905E-2   -3.195822462985131E-4   -2.901028280372586E-4   -3.245307767710465E-4   -2.611328189768082E-4    3.936631348180535E-1   -3.050793311057869E-1
 9.937090202450001E9     4.751812185019071E-1   -9.367420012255000E-2   -3.023968605667623E-4   -2.861128155594015E-4   -3.051209300265694E-4   -2.657469168810652E-4    3.934776776203633E-1   -3.052125321870492E-1
 9.937092837025000E9     4.751951856189239E-1   -9.387149004334001E-2   -2.876925581194956E-4   -3.116886169895088E-4   -3.198273628245901E-4   -2.683939366000100E-4    3.935961488011089E-1   -3.056106481901865E-1
 9.937095471600000E9     4.750112761900807E-1   -9.394351163784505E-2   -3.164181975328617E-4   -3.223314226389172E-4   -3.329631048092004E-4   -2.651531098261978E-4    3.931296655214550E-1   -3.055253453180243E-1
 9.937098106174999E9     4.751181353973456E-1   -9.432496711744880E-2   -3.462430704699629E-4   -2.796930296704118E-4   -3.547462670844792E-4   -3.248841671230985E-4    3.930031776195949E-1   -3.057363527505210E-1
 9.937100740750000E9     4.749686549082651E-1   -9.443068682712386E-2   -3.467061071005385E-4   -3.204339976432671E-4   -3.718631193182772E-4   -2.934493524922500E-4    3.927901971987616E-1   -3.059649273168125E-1
 9.937103375325001E9     4.748351019450159E-1   -9.448934762331719E-2   -3.734567467506668E-4   -3.038362177999897E-4   -3.917694887114446E-4   -2.940549712740066E-4    3.926327155518520E-1   -3.061673382539792E-1
 9.937106009900000E9     4.748778714953220E-1   -9.464189748939097E-2   -3.699242004834550E-4   -3.112291930656799E-4   -3.814928791401716E-4   -3.407370637679148E-4    3.923846551828589E-1   -3.062820828773390E-1
 9.937108644475000E9     4.748186630391886E-1   -9.490716602712758E-2   -3.953521818039646E-4   -3.535202955108841E-4   -3.956868287968371E-4   -3.499884664678190E-4    3.922551927688148E-1   -3.065772994658749E-1
 9.937111279049999E9     4.749202949578468E-1   -9.527958033455053E-2   -3.919792817969636E-4   -3.538154996020960E-4   -4.159185552286338E-4   -3.544446401031374E-4    3.921355183688797E-1   -3.066855123625120E-1
 9.937113913625000E9     4.745999615566934E-1   -9.524090662404881E-2   -3.832475950308089E-4   -3.508018583666137E-4   -4.197384201306274E-4   -3.227089616196902E-4    3.918197155846501E-1   -3.068308305236346E-1
 9.937116548200001E9     4.747409992470310E-1   -9.540032504025095E-2   -4.203037438688311E-4   -3.411185629655435E-4   -4.189513284867391E-4   -3.422236212267347E-4    3.916308626702658E-1   -3.069134176599141E-1
 9.937119182775000E9     4.746950542454265E-1   -9.563770510434749E-2   -3.961933116774433E-4   -3.820400160295685E-4   -4.417610576528258E-4   -3.995926474756677E-4    3.915153511385840E-1   -3.072442630173234E-1
 9.937121817350000E9     4.745062074641467E-1   -9.580533700332729E-2   -4.207875979182607E-4   -3.480458391855054E-4   -3.949848943403493E-4   -3.850752622117628E-4    3.913125073921240E-1   -3.072875328001373E-1
 9.937124451924999E9     4.745803639834131E-1   -9.602638583425779E-2   -4.117694795686945E-4   -3.722064714459498E-4   -4.584769492668677E-4   -3.983951071329002E-4    3.907346785839731E-1   -3.075897673836787E-1
 9.937127086500000E9     4.744577408461029E-1   -9.631073552266514E-2   -4.403777924995933E-4   -3.963045014197201E-4   -4.199855287495939E-4   -3.928910372206178E-4    3.907995447207995E-1   -3.080750760808613E-1
 9.937129721075001E9     4.745130754734557E-1   -9.630515701400634E-2   -4.323408443096719E-4   -3.978523681379034E-4   -4.618470695576523E-4   -3.742354601305328E-4    3.906926712772418E-1   -3.080967293506348E-1
 9.937132355650000E9     4.744222030335755E-1   -9.667122066596893E-2   -4.621062078160426E-4   -4.295581038963341E-4   -4.598410851340782E-4   -4.193651287601347E-4    3.904972283137952E-1   -3.084445502634943E-1
 9.937134990225000E9     4.743623483746724E-1   -9.670506157264973E-2   -4.652774468962600E-4   -4.329444333492690E-4   -4.709928232834941E-4   -4.026721078350593E-4    3.902203006092377E-1   -3.082871116942361E-1
 9.937137624799999E9     4.743379102044493E-1   -9.667042590586671E-2   -4.902786391353370E-4   -4.479338157224086E-4   -5.045510537052450E-4   -4.366509934158920E-4    3.900602646416132E-1   -3.085458382474049E-1
 9.937140259375000E9     4.743430484567632E-1   -9.706331821730912E-2   -4.497365641516394E-4   -4.355247518169915E-4   -5.001372117392911E-4   -4.559133994183395E-4    3.898977829914640E-1   -3.089721110135753E-1
 9.937142893950001E9     4.742840262566285E-1   -9.725748973788521E-2   -4.892754730813490E-4   -4.380322791965821E-4   -5.162800660719095E-4   -4.183842573509398E-4    3.896332044933489E-1   -3.092011984389926E-1
 9.937145528525000E9     4.741109032786076E-1   -9.739449380788515E-2   -5.120603405572239E-4   -4.646581052349286E-4   -5.175873868916475E-4   -4.583242487782323E-4    3.893846022758690E-1   -3.091679705979458E-1
 9.937148163100000E9     4.741278621609080E-1   -9.755331055093776E-2   -5.518925410267468E-4   -4.630841535880954E-4   -5.278157872727953E-4   -4.575130674810269E-4    3.892291598924006E-1   -3.094642610569691E-1
 9.937150797674999E9     4.741646260930744E-1   -9.773286567165179E-2   -4.973709536948414E-4   -5.089959813750519E-4   -5.363883469184874E-4   -4.927964486718303E-4    3.889800233527371E-1   -3.097522492827359E-1
 9.937153432250000E9     4.740143931433294E-1   -9.794566894503283E-2   -5.400211308861399E-4   -4.645133884532414E-4   -5.262687462033387E-4   -4.885427787109780E-4    3.888922891519767E-1   -3.099531704086478E-1
 9.937156066825001E9     4.739719217238301E-1   -9.809816874551409E-2   -5.581933449118241E-4   -5.028413102611672E-4   -5.578224357549971E-4   -5.200313324919921E-4    3.887291836646403E-1   -3.101623432459005E-1
 9.937158701400000E9     4.739337564735768E-1   -9.833798855619227E-2   -5.874910650082305E-4   -4.901588049237752E-4   -5.517038940218985E-4   -4.964608561216171E-4    3.882878968409787E-1   -3.103335491739079E-1
 9.937161335975000E9     4.739512824367741E-1   -9.850307969573049E-2   -5.715254695746876E-4   -5.460112388951317E-4   -5.551743203173151E-4   -5.421632895655679E-4    3.881905901360297E-1   -3.105761267220868E-1
 9.937163970549999E9     4.737981327068230E-1   -9.859147878565785E-2   -5.416123680990661E-4   -5.389305685922225E-4   -6.040103368313379E-4   -5.227081535800265E-4    3.879450718499929E-1   -3.107073654886562E-1
 9.937166605125000E9     4.737553340627138E-1   -9.881452730705031E-2   -5.730096337386969E-4   -5.302831840623605E-4   -5.999942298984184E-4   -5.402622997681451E-4    3.877115481176566E-1   -3.108226643248483E-1
 9.937169239700001E9     4.738441932830146E-1   -9.909465420828489E-2   -6.231772048820659E-4   -5.483819611988020E-4   -6.260126554275144E-4   -5.371271514227305E-4    3.875714094114409E-1   -3.110800064969529E-1
 9.937171874275000E9     4.737398870647300E-1   -9.922517931991630E-2   -6.275433400519112E-4   -5.824567435299682E-4   -6.059235985479487E-4   -5.690599814279251E-4    3.872053851644954E-1   -3.114197701803370E-1
 9.937174508850000E9     4.735417117029135E-1   -9.945920241212466E-2   -6.198978185170415E-4   -5.648688452210774E-4   -5.980940919512092E-4   -5.915130905372191E-4    3.871533298082570E-1   -3.114084222821451E-1
 9.937177143424999E9     4.735960312941858E-1   -9.958361120519993E-2   -6.101493397122345E-4   -5.625036349444796E-4   -6.386204934305562E-4   -5.901334079322900E-4    3.867256982846068E-1   -3.117145013635664E-1
 9.937179778000000E9     4.735513818930712E-1   -9.973256146394624E-2   -6.483911623544448E-4   -5.909814749135980E-4   -6.367959827433153E-4   -5.911072918212371E-4    3.868409106038371E-1   -3.118209676413193E-1
 9.937182412575001E9     4.735145206055540E-1   -9.991316862908411E-2   -6.280880093278417E-4   -6.005370548273245E-4   -6.858552018374147E-4   -5.828926901991225E-4    3.864008855436274E-1   -3.120980053858776E-1
 9.937185047150000E9     4.734863834850268E-1   -1.000961198793038E-1   -6.504901235076508E-4   -6.166205016466813E-4   -7.039470362423986E-4   -6.330304408299159E-4    3.861955217128461E-1   -3.123468845689477E-1
 9.937187681725000E9     4.734208282209600E-1   -1.003163408168196E-1   -6.848955601693262E-4   -6.659772633453281E-4   -7.118518799249751E-4   -6.332520460230939E-4    3.858077753380585E-1   -3.124616950506312E-1
 9.937190316299999E9     4.733797166821831E-1   -1.004399562951921E-1   -6.427348995403310E-4   -6.940344617256787E-4   -7.414060212013129E-4   -6.410843352005184E-4    3.856886071309258E-1   -3.127394649774454E-1
 9.937192950875000E9     4.732258417406475E-1   -1.006143282346748E-1   -6.725570492005105E-4   -6.833630739132569E-4   -7.097271113236347E-4   -6.386071617376705E-4    3.855269553749294E-1   -3.129908899070826E-1
 9.937195585450001E9     4.732056971810654E-1   -1.007446178311395E-1   -6.878795197864435E-4   -6.256048028152556E-4   -7.344668970103801E-4   -6.622421743115518E-4    3.852919744504146E-1   -3.133123981601703E-1
 9.937198220025000E9     4.730826814684066E-1   -1.010117449087264E-1   -7.017494642190489E-4   -6.801172651987081E-4   -7.252265254218446E-4   -6.627466210841434E-4    3.850280138074807E-1   -3.133118738276134E-1
 9.937200854600000E9     4.731733030788137E-1   -1.010313822157538E-1   -7.207747649024292E-4   -7.046815621380422E-4   -7.411041314752564E-4   -7.182818288651997E-4    3.847402661923183E-1   -3.134934748977644E-1
 9.937203489174999E9     4.731030413160606E-1   -1.013708467253420E-1   -7.862004763936325E-4   -7.088095444785531E-4   -7.534619266639636E-4   -7.059904421655394E-4    3.844434703374524E-1   -3.138625042459567E-1
 9.937206123750000E9     4.730535315473232E-1   -1.014814044443542E-1   -7.239052109855447E-4   -7.272000166725686E-4   -7.486573943814568E-4   -7.036173827170008E-4    3.844597960401962E-1   -3.139350257424831E-1
 9.937208758325001E9     4.729610493576773E-1   -1.016720192422443E-1   -7.972326382544921E-4   -7.138008858896859E-4   -7.819857506981152E-4   -7.675906906601043E-4    3.838258857620435E-1   -3.142738567828258E-1
 9.937211392900000E9     4.728812224431665E-1   -1.018420435535238E-1   -7.874588860732276E-4   -7.571219605956362E-4   -8.118304078904509E-4   -7.314760487806800E-4    3.836454086355466E-1   -3.144747796920697E-1
 9.937214027475000E9     4.728066899243380E-1   -1.020705945864579E-1   -7.779809749473008E-4   -7.476634209702439E-4   -8.243065427839953E-4   -7.530578439365793E-4    3.835458918945229E-1   -3.147585235892064E-1
 9.937216662049999E9     4.729690404877978E-1   -1.022924512376151E-1   -8.351864027453759E-4   -7.642111885415137E-4   -8.512047929120687E-4   -7.759730511955331E-4    3.831478301242080E-1   -3.148155342704461E-1
 9.937219296625000E9     4.728602469602756E-1   -1.024148640430489E-1   -8.559913075214625E-4   -7.734989890953815E-4   -8.722931386059247E-4   -7.967543068711529E-4    3.830086398539034E-1   -3.150308841200228E-1
 9.937221931200001E9     4.727039912175205E-1   -1.026371459519130E-1   -8.218325649565305E-4   -7.921003380627898E-4   -8.619602319368936E-4   -8.000909613351206E-4    3.826720342828880E-1   -3.152831905988473E-1
 9.937224565775000E9     4.726711562836062E-1   -1.028027106378859E-1   -8.721622740264617E-4   -8.111880680932952E-4   -8.703343989027015E-4   -7.798518662582301E-4    3.824404700216982E-1   -3.154645773594550E-1
 9.937227200350000E9     4.725702444567597E-1   -1.029557916982454E-1   -8.892328082691255E-4   -8.030008166487551E-4   -8.871960892167119E-4   -8.382072124502962E-4    3.822191259919628E-1   -3.156816096022696E-1
 9.937229834924999E9     4.725561963373603E-1   -1.031633891386367E-1   -9.139111043985016E-4   -8.377230719502208E-4   -9.207765155833378E-4   -8.012438160795634E-4    3.819301076942255E-1   -3.159564590591742E-1
 9.937232469500000E9     4.725725996072817E-1   -1.033369990224899E-1   -9.259926720072314E-4   -8.750360363135656E-4   -9.121535444717640E-4   -8.126991302975684E-4    3.817647653069517E-1   -3.160984013023158E-1
 9.937235104075001E9     4.724317198398164E-1   -1.034738097510480E-1   -8.932413084870619E-4   -8.992813798190287E-4   -9.370206310932216E-4   -8.515465192900677E-4    3.815477785902298E-1   -3.162844322551489E-1
 9.937237738650000E9     4.724302393326968E-1   -1.036287164946242E-1   -9.707207304543624E-4   -8.848831725800168E-4   -9.484041201061306E-4   -8.678852781293303E-4    3.810198976169222E-1   -3.165834454276557E-1
 9.937240373225000E9     4.722810646386784E-1   -1.039090714596036E-1   -9.187309658072542E-4   -8.730525441131095E-4   -1.000052066945201E-3   -8.835416680664725E-4    3.807794696400317E-1   -3.169149790119781E-1
 9.937243007799999E9     4.723752297497976E-1   -1.038953936704979E-1   -9.516746979223443E-4   -8.842954125693192E-4   -1.011421935033038E-3   -8.885404325413607E-4    3.807189634831833E-1   -3.173847712254599E-1
 9.937245642375000E9     4.723217207089210E-1   -1.041837309912480E-1   -9.800357642180519E-4   -8.941642235975417E-4   -1.012398701672079E-3   -8.881450986111209E-4    3.803724330781437E-1   -3.171877650906775E-1
 9.937248276950001E9     4.722647742274635E-1   -1.044349495606485E-1   -9.730818222839867E-4   -9.460284354398266E-4   -1.042333452895939E-3   -8.954894542030154E-4    3.802909320652001E-1   -3.176590070487378E-1
 9.937250911525000E9     4.721708823672787E-1   -1.045163815676969E-1   -9.959958584801929E-4   -9.705554525497663E-4   -1.070535499769710E-3   -9.513787601855677E-4    3.798225780562148E-1   -3.177586574211961E-1
 9.937253546100000E9     4.721428455596052E-1   -1.046497560578056E-1   -1.072901210274106E-3   -9.737294360304572E-4   -1.064267231669273E-3   -9.658987413234682E-4    3.796201088774672E-1   -3.180353609322558E-1
 9.937256180674999E9     4.720811388283614E-1   -1.047745251412646E-1   -1.069205896020113E-3   -9.600895932181072E-4   -1.057689922598258E-3   -9.825057084603571E-4    3.791590918838234E-1   -3.180351116453323E-1
 9.937258815250000E9     4.720139821201805E-1   -1.050326923591213E-1   -1.089962385933193E-3   -1.023261770858613E-3   -1.131883833371940E-3   -9.948781850980049E-4    3.791448449632679E-1   -3.184789994636789E-1
 9.937261449825001E9     4.719941304256288E-1   -1.053141093923529E-1   -1.113161307994944E-3   -1.003924588640534E-3   -1.136095877712636E-3   -1.015784660230920E-3    3.786624857438620E-1   -3.187282182703347E-1
 9.937264084400000E9     4.719357459822859E-1   -1.054823958795077E-1   -1.102260531224750E-3   -1.036714992916699E-3   -1.124984904596746E-3   -9.876754480138473E-4    3.783351114713485E-1   -3.187299304097326E-1
 9.937266718975000E9     4.719704026634664E-1   -1.056264059416519E-1   -1.120020080349643E-3   -1.042596694072351E-3   -1.168654361402385E-3   -1.043871606803539E-3    3.778908538794263E-1   -3.190271263671967E-1
 9.937269353549999E9     4.716895277003799E-1   -1.056741185441069E-1   -1.125296363902740E-3   -1.060178958949325E-3   -1.167696602678001E-3   -1.069817206781065E-3    3.778634284311321E-1   -3.194192531841198E-1
 9.937271988125000E9     4.717851397102681E-1   -1.059808115458513E-1   -1.192508278139585E-3   -1.092233409117048E-3   -1.191416272784305E-3   -1.055498649879991E-3    3.773975544997651E-1   -3.196247991960331E-1
 9.937274622700001E9     4.717352535681100E-1   -1.062126824077295E-1   -1.211758578811518E-3   -1.110260488363305E-3   -1.251500765949542E-3   -1.115466778843684E-3    3.771671102864461E-1   -3.198445136758207E-1
 9.937277257275000E9     4.715743347434642E-1   -1.063030383322711E-1   -1.208965967463804E-3   -1.109294523103755E-3   -1.232525113853762E-3   -1.085319696650481E-3    3.769077059941621E-1   -3.200616350895105E-1
 9.937279891850000E9     4.716156711074562E-1   -1.064987903437304E-1   -1.227010102372194E-3   -1.123343853155063E-3   -1.315820788012825E-3   -1.116908173673493E-3    3.765404503043986E-1   -3.200999462796985E-1
 9.937282526424999E9     4.714102503884846E-1   -1.066935734522629E-1   -1.278542502832161E-3   -1.131082932791740E-3   -1.324870601997122E-3   -1.133324791326305E-3    3.760981791258896E-1   -3.205689660749611E-1
 9.937285161000000E9     4.715109129620677E-1   -1.067846940554020E-1   -1.298072587080394E-3   -1.149790711185713E-3   -1.317000716574859E-3   -1.161121728564800E-3    3.756649313498750E-1   -3.207931385785607E-1
 9.937287795575001E9     4.713808035998936E-1   -1.070877914281627E-1   -1.332774910844963E-3   -1.202126384214900E-3   -1.328729373259945E-3   -1.151867066025074E-3    3.754241938696878E-1   -3.209366900425013E-1
 9.937290430150000E9     4.714506035847334E-1   -1.071342228454456E-1   -1.312715574946645E-3   -1.178236159408322E-3   -1.380764152647808E-3   -1.172092050229144E-3    3.752290064472032E-1   -3.212808451924502E-1
 9.937293064725000E9     4.713665539727759E-1   -1.073292120854201E-1   -1.343845033935721E-3   -1.212908910288987E-3   -1.375168849294720E-3   -1.195140398644612E-3    3.746768702702622E-1   -3.214494421856868E-1
 9.937295699299999E9     4.712576744654027E-1   -1.075345274037319E-1   -1.341323952496473E-3   -1.227953160195579E-3   -1.422416879435553E-3   -1.237474786158569E-3    3.745096264837533E-1   -3.217476806495065E-1
 9.937298333875000E9     4.712282561629877E-1   -1.076441895979947E-1   -1.381143329343712E-3   -1.248071852942059E-3   -1.432403679994814E-3   -1.231233380274186E-3    3.740164530659320E-1   -3.218765520937704E-1
 9.937300968450001E9     4.711282309226104E-1   -1.078278216426570E-1   -1.430345151348212E-3   -1.293122381597835E-3   -1.462374591609581E-3   -1.286621333713540E-3    3.738584725155333E-1   -3.222325989730009E-1
 9.937303603025000E9     4.711541178674594E-1   -1.080713295854128E-1   -1.451160939488051E-3   -1.321890463562004E-3   -1.523408480209774E-3   -1.303805445903951E-3    3.734303791914304E-1   -3.225665907729942E-1
 9.937306237600000E9     4.710277946498462E-1   -1.082320829796466E-1   -1.473282823049504E-3   -1.308147916977752E-3   -1.541886390329656E-3   -1.321272108773036E-3    3.730160328578179E-1   -3.226730418085205E-1
 9.937308872174999E9     4.710703836521713E-1   -1.084867621544757E-1   -1.487054569572161E-3   -1.349694086992472E-3   -1.552198789437003E-3   -1.345761773065370E-3    3.726842614528898E-1   -3.228430571982819E-1
 9.937311506750000E9     4.710947604995468E-1   -1.085486688850834E-1   -1.549184554951339E-3   -1.393160001499534E-3   -1.589687611214750E-3   -1.375565208393247E-3    3.722851997720841E-1   -3.232488064285128E-1
