#  HZ   S   RI   R     50.00 
! Rohde & Schwarz Vector Network Analyzer 
! Rohde-Schwarz,ZNB20-2Port,1311601062101988,3.16
! Created: UTC 3/20/2024, 11:05:24 PM
! freq[Hz]                re:S11                  im:S11                  re:S21                  im:S21                  re:S12                  im:S12                  re:S22                  im:S22
 9.937073007000000E9     4.754332781485828E-1   -9.253452644782288E-2   -2.830909866134974E-4   -2.098999288245318E-4   -2.675227960657114E-4   -2.196745742125809E-4    3.945549147397766E-1   -3.037814053424380E-1
 9.937075638299999E9     4.754141131411251E-1   -9.271134557271075E-2   -2.765309535275112E-4   -2.329046544643793E-4   -2.767851857719792E-4   -2.283161880383751E-4    3.945561818942908E-1   -3.043561607933426E-1
 9.937078269600000E9     4.753302053509719E-1   -9.286421736807435E-2   -2.785993090473603E-4   -2.279583976607342E-4   -2.953674626904078E-4   -2.398984375559491E-4    3.943405962576320E-1   -3.042401883761960E-1
 9.937080900900000E9     4.754023038282947E-1   -9.314452042950036E-2   -2.936510599792709E-4   -2.601277487951268E-4   -3.190834014389302E-4   -2.417221015564367E-4    3.942995725907327E-1   -3.045610117085890E-1
 9.937083532200001E9     4.753100906906067E-1   -9.319651973268750E-2   -3.337864160685875E-4   -2.704245691455156E-4   -2.891547635456686E-4   -2.610405404878850E-4    3.941060462422650E-1   -3.048217497758933E-1
 9.937086163500000E9     4.751819324420657E-1   -9.338503712714048E-2   -3.542661731492970E-4   -2.645949413651559E-4   -3.325447327464407E-4   -2.846685461744037E-4    3.939072610414278E-1   -3.048643003829778E-1
 9.937088794799999E9     4.752230760665090E-1   -9.358340880670843E-2   -3.474379165851220E-4   -2.753482871210410E-4   -3.237111632750065E-4   -2.752916805014153E-4    3.937896177656177E-1   -3.053062151676550E-1
 9.937091426100000E9     4.751823890286153E-1   -9.370326615991252E-2   -3.280211135342820E-4   -2.958048936985431E-4   -3.312789716358687E-4   -2.871168966029134E-4    3.935366906774131E-1   -3.053959384232164E-1
 9.937094057400000E9     4.751348082408372E-1   -9.383891471792043E-2   -3.174646212299366E-4   -3.281132575123707E-4   -3.459388804332927E-4   -2.849311597517602E-4    3.932364703091711E-1   -3.053797762364427E-1
 9.937096688700001E9     4.751034412901076E-1   -9.424487295305209E-2   -3.695640371763001E-4   -3.033643462416757E-4   -3.388795545584828E-4   -2.807123372144467E-4    3.930235590257337E-1   -3.057521880819972E-1
 9.937099320000000E9     4.750260962165619E-1   -9.437307201060056E-2   -3.676358857473576E-4   -3.312117185045405E-4   -3.675380697724566E-4   -3.068231891884616E-4    3.928431958026484E-1   -3.060260078457786E-1
 9.937101951299999E9     4.750241962861390E-1   -9.440529684266830E-2   -3.664565809350264E-4   -2.897141180921127E-4   -3.780954634804781E-4   -3.388585993504786E-4    3.926716221916442E-1   -3.061417554896197E-1
 9.937104582600000E9     4.748429918764817E-1   -9.467867457811671E-2   -3.753517751220942E-4   -3.129285090397311E-4   -3.673634930706073E-4   -3.511913292232130E-4    3.926974792360562E-1   -3.060759713776164E-1
 9.937107213900000E9     4.748405522882443E-1   -9.475646196102909E-2   -3.780277470722687E-4   -3.437092167161005E-4   -3.949839816370327E-4   -3.234265564975382E-4    3.923404386357168E-1   -3.065397846222868E-1
 9.937109845200001E9     4.748094111521330E-1   -9.513428684321222E-2   -4.076775604352956E-4   -3.621127752073982E-4   -3.841092549509364E-4   -3.246509256902945E-4    3.921138158531215E-1   -3.067530337611951E-1
 9.937112476500000E9     4.745975638968878E-1   -9.536020406347226E-2   -4.172886408799891E-4   -3.714583501963671E-4   -4.155794504095073E-4   -3.215883583580335E-4    3.920689970623161E-1   -3.067673841463245E-1
 9.937115107799999E9     4.746501405489393E-1   -9.538234260424593E-2   -4.065140633029820E-4   -3.532842272803274E-4   -4.124774237099941E-4   -3.605821595098637E-4    3.914797928042970E-1   -3.070435030535776E-1
 9.937117739100000E9     4.747172342958937E-1   -9.561597842470096E-2   -4.362461149227335E-4   -3.966836767062323E-4   -4.097284230273092E-4   -3.763968082946055E-4    3.915275059684060E-1   -3.071850433990936E-1
 9.937120370400000E9     4.746725862628098E-1   -9.587465215748853E-2   -4.216385568154373E-4   -3.591174994754411E-4   -4.220610900660690E-4   -3.824867500763306E-4    3.913756629226882E-1   -3.073821675865367E-1
 9.937123001700001E9     4.745029118329227E-1   -9.588233441668474E-2   -4.226557266215594E-4   -4.133838249440490E-4   -4.103902275416907E-4   -3.787086823245299E-4    3.909916235294409E-1   -3.075787215303485E-1
 9.937125633000000E9     4.744915058512348E-1   -9.606048896698528E-2   -4.552187218128752E-4   -3.903227147900466E-4   -4.093039839747771E-4   -3.776487335109258E-4    3.909274904813080E-1   -3.078756709185125E-1
 9.937128264299999E9     4.745573861256326E-1   -9.628015056762020E-2   -4.643618915591272E-4   -4.238620563792715E-4   -4.749701028504764E-4   -4.276958918946921E-4    3.907020412877570E-1   -3.079314712394275E-1
 9.937130895600000E9     4.742612009091648E-1   -9.646630504996780E-2   -4.399311219635121E-4   -4.537788738290550E-4   -4.684341532940722E-4   -4.034891517120412E-4    3.905295046858570E-1   -3.081577668226163E-1
 9.937133526900000E9     4.743741564077359E-1   -9.651733621580463E-2   -4.632542039750743E-4   -4.561182852891335E-4   -5.179387114671412E-4   -4.335914394563306E-4    3.903286108945422E-1   -3.083611412699661E-1
 9.937136158200001E9     4.743005077811431E-1   -9.688640692054577E-2   -4.666675429057562E-4   -4.592236919353359E-4   -4.723018734731618E-4   -4.336454909467655E-4    3.901912279969698E-1   -3.087075168282444E-1
 9.937138789500000E9     4.745118167107065E-1   -9.687978206116689E-2   -4.661706901373291E-4   -4.733453135126396E-4   -4.718470039928920E-4   -4.530066615763955E-4    3.899557859076401E-1   -3.086843082159392E-1
 9.937141420799999E9     4.742064541878522E-1   -9.723540461038294E-2   -4.646182787679948E-4   -4.491359298087955E-4   -4.835059756706821E-4   -4.678978061518280E-4    3.896932203002038E-1   -3.089922085450957E-1
 9.937144052100000E9     4.742308092672263E-1   -9.736837143310514E-2   -4.932009966171401E-4   -4.797469867771879E-4   -5.090646017410446E-4   -4.351755937316831E-4    3.896701829350956E-1   -3.091277589785021E-1
 9.937146683400000E9     4.741417502002334E-1   -9.770010741343847E-2   -5.473305251261667E-4   -4.451137187285849E-4   -5.380797318443038E-4   -4.670830370217723E-4    3.893081228419696E-1   -3.094003243236833E-1
 9.937149314700001E9     4.741873359993931E-1   -9.776750656853424E-2   -5.265694684412240E-4   -4.722203761578496E-4   -5.477032963166009E-4   -4.809664255782330E-4    3.891061177374109E-1   -3.096379921211462E-1
 9.937151946000000E9     4.741043916955488E-1   -9.783328959236096E-2   -5.381789306070823E-4   -4.681603475966946E-4   -5.241910865172459E-4   -4.596515934881632E-4    3.888258604836308E-1   -3.096569769291256E-1
 9.937154577299999E9     4.740398945477640E-1   -9.815440204042997E-2   -5.170776618620373E-4   -5.045000880818099E-4   -5.435140305294167E-4   -5.320629706155029E-4    3.886214116352490E-1   -3.098734758117087E-1
 9.937157208600000E9     4.739022162058157E-1   -9.825678345672249E-2   -5.506545122131401E-4   -5.286546358031500E-4   -5.812416870353316E-4   -4.830008618069316E-4    3.884186570348283E-1   -3.102300983377868E-1
 9.937159839900000E9     4.738748877570648E-1   -9.839757953370412E-2   -5.563240337102591E-4   -5.226534909092128E-4   -5.783293348980325E-4   -5.400725878375390E-4    3.881675659740684E-1   -3.102621866136568E-1
 9.937162471200001E9     4.737699963873245E-1   -9.862911542033734E-2   -5.760269151610925E-4   -5.346785737240856E-4   -5.730291488890886E-4   -5.070589634731243E-4    3.882365563986490E-1   -3.106506254364357E-1
 9.937165102500000E9     4.737696822769814E-1   -9.891679701833625E-2   -5.890320551459697E-4   -5.380475925497497E-4   -5.878246973869613E-4   -5.169594147115843E-4    3.876047495230907E-1   -3.107205260891624E-1
 9.937167733799999E9     4.737118948446422E-1   -9.877469796371720E-2   -5.862647845732143E-4   -5.474399162644954E-4   -5.982851682530196E-4   -5.680531209873548E-4    3.876878563745939E-1   -3.110555267444763E-1
 9.937170365100000E9     4.736807488145942E-1   -9.896127294252439E-2   -6.582583609842035E-4   -5.792082921381590E-4   -6.214830201594265E-4   -5.556305132630582E-4    3.872326189036115E-1   -3.112738868781792E-1
 9.937172996400000E9     4.736374146081795E-1   -9.930497081415657E-2   -6.048313365701540E-4   -5.797237262333210E-4   -6.347537680967647E-4   -5.853710111385288E-4    3.871584912005456E-1   -3.115353992574095E-1
 9.937175627700001E9     4.735587904017518E-1   -9.955270108312848E-2   -6.081772089182407E-4   -5.563336712578670E-4   -6.231575586906451E-4   -5.780409051582509E-4    3.869323201049318E-1   -3.115852784122062E-1
 9.937178259000000E9     4.735443882332013E-1   -9.970192503056965E-2   -5.986478635770902E-4   -5.715230726347165E-4   -6.666938427512290E-4   -6.047614456642666E-4    3.866231479721504E-1   -3.118016772714288E-1
 9.937180890299999E9     4.735699693607652E-1   -9.988387269861501E-2   -6.853576426999960E-4   -6.090410056795329E-4   -6.735340426700038E-4   -6.287221899957930E-4    3.862752999276069E-1   -3.120142550698080E-1
 9.937183521600000E9     4.734835560196171E-1   -1.000490237747697E-1   -6.600738328081907E-4   -6.120924186349677E-4   -6.325258211850868E-4   -6.199776438550132E-4    3.862482792883383E-1   -3.121319280616375E-1
 9.937186152900000E9     4.734205750316191E-1   -1.002780536874900E-1   -7.079334413361740E-4   -6.648823615851343E-4   -6.654791306409618E-4   -6.053470296183527E-4    3.860922172771847E-1   -3.124832568054020E-1
 9.937188784200001E9     4.733407231770415E-1   -1.005415972343691E-1   -6.790932678939300E-4   -6.541479757744343E-4   -7.100949641418916E-4   -6.354176169209598E-4    3.856164216024939E-1   -3.127567787597211E-1
 9.937191415500000E9     4.732202102470635E-1   -1.005060283495394E-1   -7.203715542937119E-4   -6.581738390883122E-4   -6.938428943753136E-4   -6.644065543610073E-4    3.856004036198993E-1   -3.129791043642002E-1
 9.937194046799999E9     4.733217495208590E-1   -1.007083745871558E-1   -7.143718885765850E-4   -6.765996896428444E-4   -7.726340589326085E-4   -6.993393072495081E-4    3.854099888720670E-1   -3.131033775062075E-1
 9.937196678100000E9     4.731605332035232E-1   -1.008665580480683E-1   -7.029089207635754E-4   -6.608201623153638E-4   -7.868140567023202E-4   -7.034231915559710E-4    3.850105396403549E-1   -3.133415203894759E-1
 9.937199309400000E9     4.730853601758674E-1   -1.010887206677968E-1   -7.186808867427648E-4   -7.102184170420713E-4   -7.404908693731182E-4   -7.000217275653950E-4    3.847042305506410E-1   -3.134310152169499E-1
 9.937201940700001E9     4.730783827495788E-1   -1.013604704659614E-1   -7.625300040262079E-4   -6.966955255896726E-4   -7.500191514606839E-4   -6.874376204930910E-4    3.845535377582104E-1   -3.136531650504514E-1
 9.937204572000000E9     4.729964893614494E-1   -1.013884397708419E-1   -7.454627489874463E-4   -7.023605352301910E-4   -7.902773441495359E-4   -7.375635522173054E-4    3.843569051808796E-1   -3.139344281010100E-1
 9.937207203299999E9     4.730327728909098E-1   -1.016298461551579E-1   -8.023949286802799E-4   -7.327157804915641E-4   -7.856840440963259E-4   -7.114250858519353E-4    3.842300566501566E-1   -3.141399286232041E-1
 9.937209834600000E9     4.728643856198217E-1   -1.018139649167243E-1   -7.963038195566028E-4   -7.189209113232079E-4   -8.093310587932121E-4   -7.420581906593596E-4    3.837846837317854E-1   -3.143994208894209E-1
 9.937212465900000E9     4.728962127908201E-1   -1.019972366652520E-1   -8.236403555834410E-4   -7.274735512481792E-4   -8.313517313055843E-4   -7.620883555382339E-4    3.835517431042935E-1   -3.146849092671884E-1
 9.937215097200001E9     4.729037972293371E-1   -1.021734801420232E-1   -7.905832124936424E-4   -7.714581395100688E-4   -8.167325253367117E-4   -7.774291652345614E-4    3.834077569985817E-1   -3.148305258545979E-1
 9.937217728500000E9     4.728218522728420E-1   -1.023091339508443E-1   -8.487442164975804E-4   -7.962064188264296E-4   -8.662057065235357E-4   -7.659650652890018E-4    3.831539931155999E-1   -3.149818880689248E-1
 9.937220359799999E9     4.727500172033570E-1   -1.023875001821225E-1   -8.536872311053929E-4   -7.806210572428912E-4   -8.882117281974447E-4   -7.896722770226300E-4    3.828200110113535E-1   -3.149735476336857E-1
 9.937222991100000E9     4.726529172039033E-1   -1.026682447311991E-1   -8.496982681245415E-4   -8.267689585188111E-4   -8.904662279399741E-4   -7.854768491691334E-4    3.825592484532777E-1   -3.154218329001807E-1
 9.937225622400000E9     4.726073127611921E-1   -1.028620108619733E-1   -8.657112813728384E-4   -8.392170867670220E-4   -9.021332605219917E-4   -8.313249848060451E-4    3.821674123416670E-1   -3.157842577758905E-1
 9.937228253700001E9     4.724654033610439E-1   -1.031260338993280E-1   -8.946361753043115E-4   -8.245778178096646E-4   -9.489859712362578E-4   -8.123990871930228E-4    3.819805339899616E-1   -3.159378404058334E-1
 9.937230885000000E9     4.725350392947238E-1   -1.031481814992359E-1   -8.905330793299020E-4   -8.471803712553817E-4   -9.297470160783650E-4   -8.551123338882858E-4    3.818620104731265E-1   -3.162214663269206E-1
 9.937233516299999E9     4.724431104627824E-1   -1.033502146825737E-1   -9.757867678659356E-4   -8.596117743087092E-4   -9.515913164953012E-4   -8.619081216017074E-4    3.815053218311112E-1   -3.164142773141394E-1
 9.937236147600000E9     4.724682770666203E-1   -1.037154980321205E-1   -9.435162304432687E-4   -8.739911810626007E-4   -9.775682838916737E-4   -8.893473963448241E-4    3.813741101757321E-1   -3.163878771902804E-1
 9.937238778900000E9     4.722973757906060E-1   -1.037865531093348E-1   -9.637276190757485E-4   -8.922035444350808E-4   -9.858473590667128E-4   -8.935657752675080E-4    3.810130778847228E-1   -3.166399509130338E-1
 9.937241410200001E9     4.723548194434075E-1   -1.039133400202519E-1   -9.621612299754986E-4   -9.020448155028851E-4   -1.008826292843617E-3   -9.325460298664054E-4    3.805793258784565E-1   -3.169334974167838E-1
 9.937244041500000E9     4.722137581875174E-1   -1.040893556129857E-1   -1.004027135122293E-3   -9.308607136778057E-4   -1.003457579080709E-3   -9.393877878365879E-4    3.804670916436753E-1   -3.171764778046417E-1
 9.937246672799999E9     4.721512001804247E-1   -1.042471452851725E-1   -1.023765183108720E-3   -9.052779557070956E-4   -1.021082383356397E-3   -9.390572318415507E-4    3.802993872687522E-1   -3.175083388778359E-1
 9.937249304100000E9     4.722118744040913E-1   -1.046656026805961E-1   -1.003123173002562E-3   -9.363620686419488E-4   -1.035842022999285E-3   -9.606293013527285E-4    3.797794244674296E-1   -3.175915471432517E-1
 9.937251935400000E9     4.721413633750512E-1   -1.046305481400536E-1   -1.052791009115727E-3   -9.764232959707141E-4   -1.075210934703438E-3   -9.624722777280023E-4    3.795137726295190E-1   -3.178177108808030E-1
 9.937254566700001E9     4.720049001955904E-1   -1.047987137773062E-1   -1.078579421064049E-3   -9.876342732321988E-4   -1.095192893824955E-3   -9.618547038545557E-4    3.793718829548521E-1   -3.179351435090142E-1
 9.937257198000000E9     4.721115587085905E-1   -1.049842801665669E-1   -1.071370112011461E-3   -9.936980133660300E-4   -1.116392205747431E-3   -1.006564615233452E-3    3.791542713029347E-1   -3.184902991312012E-1
 9.937259829299999E9     4.719854813962909E-1   -1.051459635892069E-1   -1.134061734391054E-3   -1.018094473191136E-3   -1.114124519903482E-3   -9.764628821561696E-4    3.787355765139469E-1   -3.186356639191867E-1
 9.937262460600000E9     4.719471719543987E-1   -1.054112633284057E-1   -1.135355623471198E-3   -1.038197220399478E-3   -1.177061574155741E-3   -1.010561170404066E-3    3.784243623613648E-1   -3.189689878331158E-1
 9.937265091900000E9     4.720667982124798E-1   -1.055176284715174E-1   -1.137117454597698E-3   -1.023475834602410E-3   -1.193467165822831E-3   -1.013406365792457E-3    3.780126337245517E-1   -3.189691085629490E-1
 9.937267723200001E9     4.718485963710675E-1   -1.057964887040135E-1   -1.147629824223646E-3   -1.040087574848983E-3   -1.191738590437546E-3   -1.080558831464541E-3    3.777175027123934E-1   -3.193713744288195E-1
 9.937270354500000E9     4.718493979053074E-1   -1.059871565174373E-1   -1.167011760429115E-3   -1.054530136870040E-3   -1.194269898032172E-3   -1.064009974475510E-3    3.775119230824504E-1   -3.194544400937577E-1
 9.937272985799999E9     4.716015804107041E-1   -1.060023773688374E-1   -1.187580132127438E-3   -1.093733607913358E-3   -1.231256714035792E-3   -1.088447616338047E-3    3.773160223286999E-1   -3.196348655664815E-1
 9.937275617100000E9     4.716228236196409E-1   -1.063286573372330E-1   -1.218213558928619E-3   -1.119724499968695E-3   -1.265317330657224E-3   -1.079715941079991E-3    3.767330724934577E-1   -3.198902437058020E-1
 9.937278248400000E9     4.717089470680726E-1   -1.065367260462843E-1   -1.219435057073795E-3   -1.157626397492086E-3   -1.292386381592977E-3   -1.128688629220051E-3    3.765284443237884E-1   -3.202142996734517E-1
 9.937280879700001E9     4.714957379219135E-1   -1.066435010401256E-1   -1.249725282380753E-3   -1.142753907706986E-3   -1.302611810382366E-3   -1.159620137562774E-3    3.762290613279295E-1   -3.203211962281543E-1
 9.937283511000000E9     4.715794190201948E-1   -1.066941504820264E-1   -1.293681102868617E-3   -1.188596076735817E-3   -1.308134975935852E-3   -1.181576477837399E-3    3.759313952474919E-1   -3.206611314045661E-1
 9.937286142299999E9     4.714918471206787E-1   -1.068208857111224E-1   -1.325548562301519E-3   -1.145687463561584E-3   -1.356196912689477E-3   -1.162856447444801E-3    3.755316780777357E-1   -3.208192858429900E-1
 9.937288773600000E9     4.713260345877802E-1   -1.071146874384220E-1   -1.313733376122229E-3   -1.195967075992252E-3   -1.394252310454443E-3   -1.168178340434215E-3    3.750854969848443E-1   -3.211489038160956E-1
 9.937291404900000E9     4.713836726184623E-1   -1.073039973475465E-1   -1.360867740190415E-3   -1.227403516634866E-3   -1.405400530947031E-3   -1.229447766124062E-3    3.749220218284094E-1   -3.214606211604930E-1
 9.937294036200001E9     4.713944195643046E-1   -1.074822757955831E-1   -1.368909237570834E-3   -1.263131201678007E-3   -1.440878506049437E-3   -1.234989305255239E-3    3.746127227949841E-1   -3.217120444105747E-1
 9.937296667500000E9     4.712116446860110E-1   -1.075915235378320E-1   -1.434611311096056E-3   -1.235480354437885E-3   -1.436110224114780E-3   -1.232519806894446E-3    3.740241947667360E-1   -3.219833940854465E-1
 9.937299298799999E9     4.712507136158293E-1   -1.077782206995211E-1   -1.432563923854614E-3   -1.285203249552213E-3   -1.463659772441914E-3   -1.264682161966572E-3    3.740490622297735E-1   -3.219845899972379E-1
 9.937301930100000E9     4.713226735023927E-1   -1.079366449961552E-1   -1.479166855972245E-3   -1.298668016743300E-3   -1.486613518737692E-3   -1.265248210533128E-3    3.734490533678003E-1   -3.223519844368175E-1
 9.937304561400000E9     4.711364102401247E-1   -1.081836014976019E-1   -1.493521668783233E-3   -1.288407909443044E-3   -1.539804656060865E-3   -1.321449684870758E-3    3.730227639284861E-1   -3.225787145399330E-1
 9.937307192700001E9     4.709608467095949E-1   -1.083867927023855E-1   -1.512150966671458E-3   -1.331905319984051E-3   -1.556568649029895E-3   -1.327235972244273E-3    3.726214067800101E-1   -3.229707664212720E-1
 9.937309824000000E9     4.709212619273500E-1   -1.085059817403107E-1   -1.539783985256470E-3   -1.363345722458697E-3   -1.596529249519404E-3   -1.339059913875440E-3    3.724811677390958E-1   -3.231473541588142E-1
