#  HZ   S   RI   R     50.00 
! Rohde & Schwarz Vector Network Analyzer 
! Rohde-Schwarz,ZNB20-2Port,1311601062101988,3.16
! Created: UTC 3/20/2024, 11:05:26 PM
! freq[Hz]                re:S11                  im:S11                  re:S21                  im:S21                  re:S12                  im:S12                  re:S22                  im:S22
 9.937062798000000E9     4.755772032654631E-1   -9.183000377015373E-2   -2.754238872142718E-4   -2.148313509637816E-4   -2.805719108072420E-4   -1.994704944975402E-4    3.956277497118879E-1   -3.032439797507677E-1
 9.937065478325001E9     4.755994553773796E-1   -9.207338848648322E-2   -2.614571446266113E-4   -2.089588681436873E-4   -2.545321453761857E-4   -2.159601485056873E-4    3.953985172440356E-1   -3.033335960480865E-1
 9.937068158650000E9     4.756283358721725E-1   -9.217386577867971E-2   -2.932478991175884E-4   -2.396331393027646E-4   -2.902186222356379E-4   -2.276158699324848E-4    3.951341581983518E-1   -3.038262336391449E-1
 9.937070838975000E9     4.755227672246385E-1   -9.233435926834874E-2   -2.858244568908363E-4   -2.451711567060775E-4   -2.516814599962690E-4   -2.318030449117062E-4    3.948712990077901E-1   -3.039096473326861E-1
 9.937073519299999E9     4.755600957532993E-1   -9.243552354793115E-2   -2.508110149528939E-4   -2.096878009482615E-4   -3.255029405687997E-4   -2.403286737742541E-4    3.947551423008873E-1   -3.039754533025940E-1
 9.937076199625000E9     4.753182482210326E-1   -9.274071251911234E-2   -3.155366615268974E-4   -2.646967600324371E-4   -3.095473415313618E-4   -2.459065372698623E-4    3.946715933338203E-1   -3.043283711683130E-1
 9.937078879950001E9     4.753040451102788E-1   -9.294063940564540E-2   -2.914111612938777E-4   -2.701209588658406E-4   -3.163084564076747E-4   -2.327010325140544E-4    3.943100081103360E-1   -3.044803127432765E-1
 9.937081560275000E9     4.754114399589871E-1   -9.316322880651341E-2   -2.938770050902078E-4   -2.576074823094626E-4   -2.906208422649087E-4   -2.635973224516348E-4    3.942476697417578E-1   -3.044280836177524E-1
 9.937084240600000E9     4.752959290469421E-1   -9.343128895570721E-2   -3.025937115110310E-4   -2.871784509398986E-4   -3.616785885906967E-4   -2.305124145879433E-4    3.941185033938133E-1   -3.049376370276406E-1
 9.937086920924999E9     4.751656139893830E-1   -9.349903669114193E-2   -3.151937793429143E-4   -2.961835838996327E-4   -3.133208322828887E-4   -2.545369468023682E-4    3.938809302778986E-1   -3.049864986171156E-1
 9.937089601250000E9     4.752774993299932E-1   -9.371226299118364E-2   -3.294945009854719E-4   -2.780847524438838E-4   -3.413881183234270E-4   -3.046105681730236E-4    3.934750484169444E-1   -3.052574631115404E-1
 9.937092281575001E9     4.751024443628216E-1   -9.396293452147771E-2   -3.182280032041956E-4   -3.272555736862085E-4   -3.356608828145951E-4   -3.321130712020685E-4    3.932558974136391E-1   -3.054409046664197E-1
 9.937094961900000E9     4.751740020234065E-1   -9.403699917622511E-2   -3.779319223876005E-4   -3.090374289694794E-4   -3.427742839151437E-4   -2.809314330316775E-4    3.932348173368646E-1   -3.056351328349242E-1
 9.937097642225000E9     4.749790276619937E-1   -9.423218818421303E-2   -3.538509182929773E-4   -3.251727074542619E-4   -3.531170006990276E-4   -2.933026925618071E-4    3.931709590007927E-1   -3.059255761465934E-1
 9.937100322549999E9     4.749023525578022E-1   -9.445253770964791E-2   -3.706866643687295E-4   -3.076441838975550E-4   -3.445392653983153E-4   -3.221172514532476E-4    3.928353872359808E-1   -3.059233958047080E-1
 9.937103002875000E9     4.748680368758767E-1   -9.457539135903738E-2   -3.861049778335365E-4   -3.119853276750515E-4   -3.786357167184806E-4   -3.196846882978372E-4    3.927016250145567E-1   -3.060557229989602E-1
 9.937105683200001E9     4.749641892707069E-1   -9.477374752758008E-2   -3.879197531864475E-4   -3.022516080001957E-4   -4.218711948919738E-4   -3.074765410859805E-4    3.924114203903664E-1   -3.064045391204072E-1
 9.937108363525000E9     4.747847347958600E-1   -9.498972361714554E-2   -3.489710934413335E-4   -3.603501973003568E-4   -4.029497120742390E-4   -3.553531693224835E-4    3.921535262631276E-1   -3.065168474275797E-1
 9.937111043850000E9     4.748590380609455E-1   -9.514374330995859E-2   -3.988984829092794E-4   -3.283388387593670E-4   -4.117793026559824E-4   -3.905218720885876E-4    3.921095189937028E-1   -3.068524402456468E-1
 9.937113724174999E9     4.747099427502762E-1   -9.524517478687250E-2   -3.974204463606997E-4   -3.432299070263427E-4   -4.036235021141028E-4   -3.848461766516867E-4    3.918315150994505E-1   -3.069535989184595E-1
 9.937116404500000E9     4.746018341900398E-1   -9.543980064158243E-2   -3.814053512958470E-4   -3.445416839496459E-4   -3.877146895473183E-4   -3.971955460641488E-4    3.916236106761975E-1   -3.073372057402254E-1
 9.937119084825001E9     4.746122134870087E-1   -9.571617163844054E-2   -4.415911559171939E-4   -3.648993343870889E-4   -4.251618605766545E-4   -3.917380689688061E-4    3.913837443273353E-1   -3.073527725171973E-1
 9.937121765150000E9     4.747044010238505E-1   -9.588542056975095E-2   -4.365299547250504E-4   -3.880208480736238E-4   -4.367893798316516E-4   -3.833306161750011E-4    3.913228183675859E-1   -3.075075903073564E-1
 9.937124445475000E9     4.746122357071684E-1   -9.610820764153348E-2   -4.256706465421866E-4   -4.219008049207295E-4   -4.408355353887213E-4   -3.743375252224990E-4    3.910490742246169E-1   -3.076003275358727E-1
 9.937127125799999E9     4.744359077605448E-1   -9.623093570749880E-2   -3.834344247735822E-4   -3.929252305342571E-4   -4.870345904952658E-4   -4.194020804717872E-4    3.907086134129447E-1   -3.080238976080923E-1
 9.937129806125000E9     4.744528881477292E-1   -9.638020692374347E-2   -4.544483607916183E-4   -4.238968107818938E-4   -4.546481063753186E-4   -4.024146711480707E-4    3.905724152488575E-1   -3.079530725226302E-1
 9.937132486450001E9     4.744549121859059E-1   -9.664251954726344E-2   -4.537434742793019E-4   -4.283241410715036E-4   -4.673417942404691E-4   -4.375512449096579E-4    3.904262979656439E-1   -3.081713508838728E-1
 9.937135166775000E9     4.743400115006091E-1   -9.678344664602689E-2   -4.647365123213097E-4   -4.090762309792290E-4   -5.000427697232976E-4   -4.193655414203919E-4    3.902773813391075E-1   -3.085378012178827E-1
 9.937137847100000E9     4.743301616991764E-1   -9.696357497100440E-2   -4.616962841505428E-4   -4.461931466727272E-4   -4.757177619194358E-4   -4.481861126252265E-4    3.898954059671293E-1   -3.085938779583338E-1
 9.937140527424999E9     4.741108047138760E-1   -9.704983449020069E-2   -4.814806988374830E-4   -4.535428977479071E-4   -5.012422383774348E-4   -4.415580681706170E-4    3.895951350069995E-1   -3.089461051997363E-1
 9.937143207750000E9     4.741243613977171E-1   -9.730228561850748E-2   -5.076846712467300E-4   -4.754779784124614E-4   -4.908497267201709E-4   -4.589494737834241E-4    3.896317597372572E-1   -3.088952275239000E-1
 9.937145888075001E9     4.742246174124631E-1   -9.742025270747381E-2   -5.209888378629270E-4   -5.025466301225723E-4   -5.172976478946871E-4   -4.542733515449157E-4    3.892523373709718E-1   -3.093577071382292E-1
 9.937148568400000E9     4.740989940468845E-1   -9.765652669141857E-2   -5.322330835693931E-4   -4.833934966067686E-4   -5.348892915691444E-4   -4.830622127216220E-4    3.890828152941296E-1   -3.095423384906159E-1
 9.937151248725000E9     4.738831027968819E-1   -9.779740452010850E-2   -5.308789869595752E-4   -4.919507802300042E-4   -5.323198833704823E-4   -4.942049377396271E-4    3.889387573694132E-1   -3.099053142678465E-1
 9.937153929049999E9     4.739547703460955E-1   -9.814460823432954E-2   -5.372477355363350E-4   -4.824074501862239E-4   -5.607819864675577E-4   -5.003161125988479E-4    3.888737317184011E-1   -3.098924491259317E-1
 9.937156609375000E9     4.739867277680406E-1   -9.823807026934894E-2   -5.403263626073122E-4   -5.137425195435354E-4   -5.412841456579247E-4   -5.186321270622360E-4    3.886080430000993E-1   -3.101191034238903E-1
 9.937159289700001E9     4.739536627974885E-1   -9.840872371291705E-2   -5.772258913722025E-4   -5.496069030040850E-4   -5.616061545727551E-4   -5.255908434129884E-4    3.882147324589587E-1   -3.103162950471696E-1
 9.937161970025000E9     4.738647016743794E-1   -9.869593030898560E-2   -5.680783432966861E-4   -5.425240070260194E-4   -6.229047701486603E-4   -5.020799895435351E-4    3.880668199724977E-1   -3.104287147681909E-1
 9.937164650350000E9     4.739162943030485E-1   -9.870375757280321E-2   -5.756480930169464E-4   -5.505832282766460E-4   -6.201791393338626E-4   -5.231368395566906E-4    3.880152793667109E-1   -3.109420901769810E-1
 9.937167330674999E9     4.736834353861678E-1   -9.899383019267204E-2   -5.737003613968105E-4   -5.523796299763726E-4   -6.248670890970610E-4   -5.753435215523111E-4    3.875660633198985E-1   -3.108820957997059E-1
 9.937170011000000E9     4.736053539001105E-1   -9.914405876517154E-2   -5.684661650814340E-4   -5.726184236561124E-4   -6.116990927978281E-4   -5.737613579985429E-4    3.873818212663898E-1   -3.112111770767839E-1
 9.937172691325001E9     4.736337616814500E-1   -9.935587206915142E-2   -6.144698865547601E-4   -5.951634440589527E-4   -6.324359178754833E-4   -5.533417988689633E-4    3.871868590646655E-1   -3.113329098764622E-1
 9.937175371650000E9     4.736171505870596E-1   -9.942159553008163E-2   -6.217532977034291E-4   -5.805125800961826E-4   -6.590164150648841E-4   -5.718800880509545E-4    3.868671675437866E-1   -3.116822056446246E-1
 9.937178051975000E9     4.735399745988105E-1   -9.960141708737620E-2   -6.389401381079494E-4   -6.095981857059159E-4   -6.416856705840083E-4   -5.604775517505084E-4    3.867797659330711E-1   -3.117381123407661E-1
 9.937180732299999E9     4.735736053314868E-1   -9.980694915765925E-2   -6.616293197848700E-4   -6.249376010288541E-4   -6.438700873745911E-4   -6.123968626996630E-4    3.863949975843077E-1   -3.120538528007337E-1
 9.937183412625000E9     4.734483759652601E-1   -1.000937995656247E-1   -6.737752190554893E-4   -6.093036230651931E-4   -6.559520415756652E-4   -6.351251394779167E-4    3.863202600444668E-1   -3.121985535234299E-1
 9.937186092950001E9     4.733840515286117E-1   -1.002610393222945E-1   -6.739775092899513E-4   -6.825543194244012E-4   -6.616331652976776E-4   -6.539040388190865E-4    3.859494707844874E-1   -3.124458166012023E-1
 9.937188773275000E9     4.733569547450541E-1   -1.004899012776426E-1   -6.915502081304639E-4   -6.712910291094817E-4   -7.538683518604743E-4   -6.389279923208589E-4    3.857947894148269E-1   -3.125616530608368E-1
 9.937191453600000E9     4.732790630797763E-1   -1.005591542222068E-1   -6.803572804283460E-4   -6.744239417294561E-4   -7.328675450186994E-4   -6.556235854344269E-4    3.856717956587804E-1   -3.129133532369324E-1
 9.937194133924999E9     4.731718344007834E-1   -1.007528857847388E-1   -7.133354633038795E-4   -6.517843078610555E-4   -7.362050638577547E-4   -6.699322393881728E-4    3.852937619987615E-1   -3.130370863478447E-1
 9.937196814250000E9     4.731708467299814E-1   -1.009104629487369E-1   -7.198882434623892E-4   -7.215451672606952E-4   -7.397363555165015E-4   -6.929096222418880E-4    3.850384143051707E-1   -3.133917337763886E-1
 9.937199494575001E9     4.732727026762311E-1   -1.010752696845115E-1   -7.447260248354572E-4   -6.781633865070108E-4   -7.417935470596914E-4   -6.735507479747201E-4    3.848233358833877E-1   -3.135321178654881E-1
 9.937202174900000E9     4.730812561585644E-1   -1.012265188093911E-1   -7.649341682026908E-4   -6.923494621616945E-4   -8.141433799207347E-4   -7.048133380156272E-4    3.845610761896430E-1   -3.136949822513749E-1
 9.937204855225000E9     4.729918096482644E-1   -1.015266980994059E-1   -7.927653000080798E-4   -7.132649460446901E-4   -8.182126364266530E-4   -7.110207656705601E-4    3.844965060250577E-1   -3.141868120224037E-1
 9.937207535549999E9     4.728858831165097E-1   -1.017387090980423E-1   -7.434115727424477E-4   -7.227022578558892E-4   -8.381096048265280E-4   -7.490348372216996E-4    3.839648567565069E-1   -3.144529760730577E-1
 9.937210215875000E9     4.729971651083148E-1   -1.018133536030192E-1   -7.835912340427403E-4   -8.090893286196985E-4   -8.260405140272377E-4   -7.279719281386782E-4    3.838622338899624E-1   -3.144876267116195E-1
 9.937212896200001E9     4.728212076630506E-1   -1.020398110910892E-1   -8.104436360409310E-4   -7.770886287615686E-4   -8.390359265967836E-4   -7.658474269659176E-4    3.835184471154393E-1   -3.146016344690976E-1
 9.937215576525000E9     4.728100908093800E-1   -1.021848629374511E-1   -8.308702079477545E-4   -7.614659837021408E-4   -8.611466482257687E-4   -7.737195020899374E-4    3.832097968504637E-1   -3.149881569116909E-1
 9.937218256850000E9     4.728922280037444E-1   -1.023883890545335E-1   -8.476210558914053E-4   -8.003602534493700E-4   -8.582361030702767E-4   -7.760230976250822E-4    3.830274114339473E-1   -3.151034720282893E-1
 9.937220937174999E9     4.726892839871663E-1   -1.024763550477584E-1   -8.500845474493786E-4   -7.990639957427039E-4   -8.688605322873886E-4   -8.112951059325199E-4    3.827508680344830E-1   -3.153522723407748E-1
 9.937223617500000E9     4.726829865267156E-1   -1.026818415590319E-1   -8.841094878716910E-4   -8.199544584709385E-4   -8.621030492985016E-4   -7.969201772497614E-4    3.824602325027105E-1   -3.154624801275188E-1
 9.937226297825001E9     4.725107820614301E-1   -1.028483471880620E-1   -8.890872740949606E-4   -8.224392982586651E-4   -8.743624466548530E-4   -8.214789645300291E-4    3.821635598652529E-1   -3.156744621534531E-1
 9.937228978150000E9     4.726443828223123E-1   -1.031929036336968E-1   -8.953207941472066E-4   -8.425466333816345E-4   -9.038219419577542E-4   -8.110823511811954E-4    3.820255537892710E-1   -3.159083017267511E-1
 9.937231658475000E9     4.724181105406360E-1   -1.032340922849558E-1   -9.376456940902385E-4   -8.660632618874174E-4   -9.337549124087763E-4   -8.312983428835538E-4    3.816494400588142E-1   -3.162545141882819E-1
 9.937234338799999E9     4.723037980448047E-1   -1.035734963420489E-1   -9.381525734753559E-4   -8.841644484243297E-4   -9.414319344831847E-4   -8.815572225284092E-4    3.815053938689411E-1   -3.166282550406848E-1
 9.937237019125000E9     4.725676959280770E-1   -1.036490742100514E-1   -9.353544455518632E-4   -8.836420865064681E-4   -9.855825831064232E-4   -9.037906616766652E-4    3.812184545926710E-1   -3.167357823915313E-1
 9.937239699450001E9     4.722610880672757E-1   -1.038865306179558E-1   -9.632845800089298E-4   -9.101666109565422E-4   -9.841163220216693E-4   -8.943779087322275E-4    3.806940609450859E-1   -3.169517278616736E-1
 9.937242379775000E9     4.724109355379704E-1   -1.040228006899474E-1   -1.009144674026139E-3   -9.051394774148909E-4   -1.035192695054765E-3   -8.850491695103741E-4    3.805749404730501E-1   -3.171668720523734E-1
 9.937245060100000E9     4.722524842860374E-1   -1.041200823969829E-1   -9.859115711262319E-4   -9.237751749693418E-4   -1.039231970105348E-3   -9.248746006992295E-4    3.801719710009843E-1   -3.173642838647293E-1
 9.937247740424999E9     4.721458178110480E-1   -1.043520975233238E-1   -1.018785182735374E-3   -9.801418620662349E-4   -1.043691158932109E-3   -9.630732814809125E-4    3.799221479725329E-1   -3.175396073221884E-1
 9.937250420750000E9     4.722535550143974E-1   -1.045586364219749E-1   -1.042014708889994E-3   -9.668747045400764E-4   -1.027653478089590E-3   -9.523132364705400E-4    3.795909529989294E-1   -3.179195176253772E-1
 9.937253101075001E9     4.722205370842313E-1   -1.047279884030233E-1   -1.064859363087937E-3   -1.001430578995979E-3   -1.057233506906078E-3   -9.681279557930161E-4    3.794948389695824E-1   -3.180567351163852E-1
 9.937255781400000E9     4.720176231355057E-1   -1.047511068367443E-1   -1.086536436356215E-3   -1.039760824545468E-3   -1.120755500611502E-3   -9.826551492492363E-4    3.790226399177722E-1   -3.182609590398631E-1
 9.937258461725000E9     4.720397049320769E-1   -1.051556892980973E-1   -1.098340625298250E-3   -1.006769728903065E-3   -1.162402110458203E-3   -9.795711711774947E-4    3.788477237155769E-1   -3.185846417285594E-1
 9.937261142049999E9     4.718711433085960E-1   -1.053697867148922E-1   -1.116141376866524E-3   -1.029037737682043E-3   -1.163478498201717E-3   -1.053940163539250E-3    3.784786725324648E-1   -3.187110213459973E-1
 9.937263822375000E9     4.719292629606645E-1   -1.055225183498400E-1   -1.137108180703962E-3   -1.039474936793803E-3   -1.187836008174832E-3   -1.036433701067319E-3    3.783780259745715E-1   -3.190919412381500E-1
 9.937266502700001E9     4.717884922970768E-1   -1.056559403686715E-1   -1.162839745083796E-3   -1.056037623696717E-3   -1.185279642180739E-3   -1.058602320354066E-3    3.780194903311143E-1   -3.190999379512754E-1
 9.937269183025000E9     4.717952792350698E-1   -1.057883618912916E-1   -1.209466626526484E-3   -1.066611100353329E-3   -1.209079472895499E-3   -1.083213342762383E-3    3.776333779746887E-1   -3.193768627796176E-1
 9.937271863350000E9     4.717514662240604E-1   -1.060023652204364E-1   -1.185781256674561E-3   -1.055197086209682E-3   -1.224136842421498E-3   -1.061116347073294E-3    3.771643580705104E-1   -3.196823925347199E-1
 9.937274543674999E9     4.715996005995465E-1   -1.061967928251207E-1   -1.217637497346147E-3   -1.130417221612755E-3   -1.233347569935686E-3   -1.097189470282722E-3    3.770094516048882E-1   -3.197042691426785E-1
 9.937277224000000E9     4.715893821421385E-1   -1.063028286500671E-1   -1.263197143234407E-3   -1.132538659241896E-3   -1.282020271551922E-3   -1.149252591985039E-3    3.766948081545086E-1   -3.202608364472088E-1
 9.937279904325001E9     4.714401671750711E-1   -1.064195206342743E-1   -1.282383839466517E-3   -1.153478301195484E-3   -1.306820729204741E-3   -1.131190524849680E-3    3.761162512994792E-1   -3.203098577663255E-1
 9.937282584650000E9     4.713560083550378E-1   -1.067989853770473E-1   -1.315681958610212E-3   -1.203609466078824E-3   -1.318186809836139E-3   -1.130165226892322E-3    3.759501057732553E-1   -3.206068591811088E-1
 9.937285264975000E9     4.714228544598053E-1   -1.070349672746995E-1   -1.306364866549337E-3   -1.167705281586247E-3   -1.359828797625659E-3   -1.161755469853956E-3    3.756655939389032E-1   -3.209512698754475E-1
 9.937287945299999E9     4.714793390729721E-1   -1.070962142833232E-1   -1.340493044292978E-3   -1.175286665215393E-3   -1.386328945016364E-3   -1.207178473696979E-3    3.754431346290079E-1   -3.212027743406807E-1
 9.937290625625000E9     4.715027049657630E-1   -1.072862226046056E-1   -1.334890495352279E-3   -1.235637080194014E-3   -1.380408811422567E-3   -1.222032960676620E-3    3.749238514718758E-1   -3.214342163127588E-1
 9.937293305950001E9     4.713545166241178E-1   -1.075266582712135E-1   -1.376108508276974E-3   -1.237452788667552E-3   -1.434672964573710E-3   -1.242163645182788E-3    3.745386555389041E-1   -3.217574732068765E-1
 9.937295986275000E9     4.712458386396766E-1   -1.075954121839059E-1   -1.436809440689627E-3   -1.225914946762757E-3   -1.438979811146840E-3   -1.251929207190782E-3    3.742442893235393E-1   -3.217314293864054E-1
 9.937298666600000E9     4.711518438046193E-1   -1.078442860412566E-1   -1.429733608325150E-3   -1.266655800718831E-3   -1.485481987122810E-3   -1.271137067621767E-3    3.739697950372088E-1   -3.220067067436800E-1
 9.937301346924999E9     4.710675753812381E-1   -1.081225335778006E-1   -1.472746847411718E-3   -1.313318416744355E-3   -1.497548252619390E-3   -1.294913874287077E-3    3.734778768463183E-1   -3.223442035127878E-1
 9.937304027250000E9     4.709397442839159E-1   -1.081491575913009E-1   -1.490325726354572E-3   -1.305127051566229E-3   -1.516678547554241E-3   -1.303956662689553E-3    3.731630301408301E-1   -3.225952966896835E-1
