#  HZ   S   RI   R     50.00 
! Rohde & Schwarz Vector Network Analyzer 
! Rohde-Schwarz,ZNB20-2Port,1311601062101988,3.16
! Created: UTC 3/20/2024, 11:05:39 PM
! freq[Hz]                re:S11                  im:S11                  re:S21                  im:S21                  re:S12                  im:S12                  re:S22                  im:S22
 9.937055961000000E9     4.757296414131664E-1   -9.149227446254543E-2   -2.046008977145859E-4   -1.991783410246743E-4   -2.487333402831684E-4   -2.013850079850565E-4    3.956751611490409E-1   -3.027691754941623E-1
 9.937058657225000E9     4.758193094479645E-1   -9.162692857994985E-2   -2.405985961408015E-4   -2.363861744920320E-4   -2.775281049538973E-4   -1.891352300169190E-4    3.956500983505780E-1   -3.031622100112069E-1
 9.937061353450001E9     4.756661850406068E-1   -9.184263590301257E-2   -2.308074501976061E-4   -2.029053798202616E-4   -2.921860326241400E-4   -1.929359495879918E-4    3.953944720643324E-1   -3.033804641318144E-1
 9.937064049674999E9     4.756498928902314E-1   -9.202037708827934E-2   -2.615812997597613E-4   -2.236604305740835E-4   -2.756584121737445E-4   -2.089897391181988E-4    3.953851769625247E-1   -3.034429620233988E-1
 9.937066745900000E9     4.754964866358168E-1   -9.218032173859660E-2   -2.892120139294522E-4   -2.082059119769755E-4   -2.728775123918402E-4   -2.210004261742190E-4    3.950658891245923E-1   -3.035687991816572E-1
 9.937069442125000E9     4.755532025294141E-1   -9.237035663681985E-2   -2.883602670825367E-4   -2.304112636749912E-4   -2.705439858004369E-4   -2.287682201817942E-4    3.948226806152577E-1   -3.038089843081287E-1
 9.937072138350000E9     4.754598087823733E-1   -9.258963918733779E-2   -2.775127793427749E-4   -2.548778748055412E-4   -3.152754241103484E-4   -2.265236921869096E-4    3.947224854378688E-1   -3.038381727024800E-1
 9.937074834575001E9     4.753512836706738E-1   -9.282161063288531E-2   -2.783479560856158E-4   -2.509630551584085E-4   -2.955183974268146E-4   -2.582780893294722E-4    3.944353960229794E-1   -3.041202796808869E-1
 9.937077530799999E9     4.754437531589857E-1   -9.293687410882834E-2   -3.421794073531118E-4   -2.532489887329526E-4   -2.904407249761896E-4   -2.757421180435624E-4    3.942347075031900E-1   -3.044518106840298E-1
 9.937080227025000E9     4.752837221897211E-1   -9.314433516503583E-2   -3.197489666707258E-4   -2.441233315549968E-4   -3.344246710635974E-4   -2.540275962321880E-4    3.940044591701247E-1   -3.045926162112828E-1
 9.937082923250000E9     4.753141030771273E-1   -9.329280208208628E-2   -3.358265449978268E-4   -2.788212357450460E-4   -3.572348024256836E-4   -2.899539951532586E-4    3.939503145243358E-1   -3.046435763214604E-1
 9.937085619475000E9     4.751572230648818E-1   -9.349176340552970E-2   -3.238163730809898E-4   -2.726447370003714E-4   -3.381956053455925E-4   -2.918464966794063E-4    3.937497737314694E-1   -3.049926526444131E-1
 9.937088315700001E9     4.750199934138886E-1   -9.374712114088013E-2   -3.385490210873745E-4   -2.759986261555201E-4   -3.720163410569414E-4   -2.857489596378669E-4    3.936099175380803E-1   -3.051458740866186E-1
 9.937091011924999E9     4.750788197284795E-1   -9.378528248600934E-2   -3.308802212795209E-4   -3.022872549221415E-4   -3.342253506844250E-4   -2.848115789341304E-4    3.934481881195686E-1   -3.054072147251941E-1
 9.937093708150000E9     4.751640164228555E-1   -9.418938001537873E-2   -3.747866823724414E-4   -3.123832452127689E-4   -3.801063942507155E-4   -2.905709103950351E-4    3.933816422273450E-1   -3.054937513787979E-1
 9.937096404375000E9     4.751290633072866E-1   -9.436087073085679E-2   -3.420484174293235E-4   -2.853749095970661E-4   -3.471456225196257E-4   -3.314968697526578E-4    3.930798007807936E-1   -3.057991749755815E-1
 9.937099100600000E9     4.750216375110289E-1   -9.428588503478605E-2   -3.591000132553679E-4   -3.288733619858627E-4   -3.422722941967325E-4   -3.564510174822772E-4    3.927867442749663E-1   -3.059395839402580E-1
 9.937101796825001E9     4.748592927991359E-1   -9.451505078141925E-2   -3.999001395297861E-4   -3.409014099112446E-4   -3.873359440281199E-4   -3.149013680141407E-4    3.925871920194421E-1   -3.060757881634099E-1
 9.937104493049999E9     4.749126012233896E-1   -9.468350420759412E-2   -3.506556344697873E-4   -3.374089026883865E-4   -4.006185023491027E-4   -3.428274115880790E-4    3.923476076213510E-1   -3.064392941038787E-1
 9.937107189275000E9     4.747845846005949E-1   -9.504850301359147E-2   -3.782358682812411E-4   -3.402541719722388E-4   -3.957699222465812E-4   -3.334649651489012E-4    3.921043797807041E-1   -3.062958762238535E-1
 9.937109885500000E9     4.747931416659428E-1   -9.505853036539992E-2   -4.011200985649341E-4   -3.713049215068091E-4   -4.049530463148141E-4   -3.619474555196816E-4    3.921165956029954E-1   -3.069372449179213E-1
 9.937112581725000E9     4.747090311184013E-1   -9.533377187887382E-2   -4.083748024328522E-4   -3.984964645814936E-4   -4.406286206767125E-4   -3.573714966587753E-4    3.917816859943675E-1   -3.068788668726704E-1
 9.937115277950001E9     4.746541878869106E-1   -9.557468614502561E-2   -4.165769171723240E-4   -3.568082930861663E-4   -4.169309908571566E-4   -3.750157172236764E-4    3.916411491647514E-1   -3.070471470896931E-1
 9.937117974174999E9     4.746896854493269E-1   -9.570135476862342E-2   -4.104213275522609E-4   -4.190224142048091E-4   -4.722958438787996E-4   -3.659058272763020E-4    3.913881107650647E-1   -3.073703146562359E-1
 9.937120670400000E9     4.746173398458439E-1   -9.590801403576098E-2   -4.460296470451049E-4   -3.952811181358686E-4   -4.285641744916970E-4   -3.859929690601060E-4    3.910738359991999E-1   -3.076137145751986E-1
 9.937123366625000E9     4.745495431369208E-1   -9.593549143315751E-2   -4.512430744755726E-4   -3.896719376605465E-4   -4.199445636546982E-4   -3.789846781681329E-4    3.909675260743800E-1   -3.077787100302820E-1
 9.937126062850000E9     4.745567977538878E-1   -9.633487453088860E-2   -4.466878334919986E-4   -4.317017028841351E-4   -4.470226485943333E-4   -3.881922881532743E-4    3.908055247173974E-1   -3.078342339983868E-1
 9.937128759075001E9     4.742856141236996E-1   -9.650896984084835E-2   -4.552650215192465E-4   -4.374163794262993E-4   -5.000983996270814E-4   -4.369623412797846E-4    3.904722920053257E-1   -3.081495886039039E-1
 9.937131455299999E9     4.743159671161672E-1   -9.669842067393621E-2   -4.714640159567816E-4   -4.486019160138008E-4   -4.761153456030198E-4   -4.452874239997758E-4    3.902434290145557E-1   -3.083898243537159E-1
 9.937134151525000E9     4.743930802366810E-1   -9.673245315714968E-2   -4.730331514508259E-4   -4.345686041165128E-4   -4.931505844037101E-4   -4.570791828268412E-4    3.901573037664659E-1   -3.085622645733982E-1
 9.937136847750000E9     4.742521803349237E-1   -9.694577531273499E-2   -5.097147214444713E-4   -4.411031477916124E-4   -5.074112409576650E-4   -4.630551511632708E-4    3.898354503695871E-1   -3.086852100743294E-1
 9.937139543975000E9     4.740323643910739E-1   -9.713635820340669E-2   -5.440091791944657E-4   -4.576376049260526E-4   -5.152079273398889E-4   -4.551838816998591E-4    3.898881386475960E-1   -3.088606377074647E-1
 9.937142240200001E9     4.741769360380862E-1   -9.714733703311623E-2   -5.497410943338878E-4   -4.589626635224665E-4   -4.921263682970913E-4   -4.564642122619755E-4    3.894692046614648E-1   -3.090324415458631E-1
 9.937144936424999E9     4.742134180439321E-1   -9.754868277495382E-2   -4.959591394023907E-4   -4.568458915549066E-4   -5.241461085278544E-4   -4.999050454877949E-4    3.891512832902518E-1   -3.094152597910439E-1
 9.937147632650000E9     4.741815128353146E-1   -9.762454454077783E-2   -5.428417253345578E-4   -4.817201443906569E-4   -5.494841948039761E-4   -4.872452810134923E-4    3.891456351965487E-1   -3.095722059736293E-1
 9.937150328875000E9     4.740862726796419E-1   -9.795083635164401E-2   -5.286543512742430E-4   -4.894118568305545E-4   -5.605137336521544E-4   -5.018969921306521E-4    3.887623807362757E-1   -3.098502660131926E-1
 9.937153025100000E9     4.740244993621334E-1   -9.788056337890867E-2   -5.375784789759456E-4   -4.931015899463151E-4   -5.609409521174369E-4   -4.805722982065784E-4    3.885500348240188E-1   -3.097813665187267E-1
 9.937155721325001E9     4.739917018462416E-1   -9.826605119703552E-2   -5.823903986181401E-4   -5.208353794704671E-4   -5.896336448927844E-4   -4.916877460735818E-4    3.882371117817683E-1   -3.100804234282677E-1
 9.937158417549999E9     4.739683118037819E-1   -9.838295570028419E-2   -5.703859685364593E-4   -5.445136872197867E-4   -5.819166644462118E-4   -4.821838631056137E-4    3.881375073156687E-1   -3.104867499729925E-1
 9.937161113775000E9     4.738303062207450E-1   -9.856236380211822E-2   -5.853071419924203E-4   -5.136411000155195E-4   -5.922113038808620E-4   -5.134477573522543E-4    3.880047970366657E-1   -3.104914030236758E-1
 9.937163810000000E9     4.737437735659481E-1   -9.877879657631125E-2   -5.796809234103750E-4   -5.711506082857589E-4   -6.046766694188985E-4   -5.517868879370708E-4    3.874485098169347E-1   -3.107695479157886E-1
 9.937166506225000E9     4.737979925739136E-1   -9.888003534090391E-2   -5.958497046504173E-4   -5.426358072097302E-4   -6.391869868070131E-4   -5.783889323881498E-4    3.875163837683910E-1   -3.108980919866817E-1
 9.937169202450001E9     4.736529503727561E-1   -9.917119382706660E-2   -6.298969393496273E-4   -5.515460490898594E-4   -6.262405960510890E-4   -5.629208737801810E-4    3.873085431603432E-1   -3.112164934643431E-1
 9.937171898674999E9     4.735766711381354E-1   -9.932401151703245E-2   -6.584203068534501E-4   -6.060814944038454E-4   -6.758100511098782E-4   -5.749114377235908E-4    3.870781419152259E-1   -3.113054463230047E-1
 9.937174594900000E9     4.736894421934940E-1   -9.939942835135027E-2   -6.413386851320895E-4   -6.147174574853762E-4   -6.376461225803882E-4   -6.066346899612763E-4    3.868663132947727E-1   -3.116755424273192E-1
 9.937177291125000E9     4.735095038898282E-1   -9.965957380640809E-2   -6.597739038891319E-4   -5.874630588464895E-4   -6.797950292844829E-4   -5.935856157946006E-4    3.867334563807405E-1   -3.119081410801052E-1
 9.937179987350000E9     4.734873139306188E-1   -9.990689259268540E-2   -6.867974859449028E-4   -6.520182618235309E-4   -6.929839620951286E-4   -6.363283133197115E-4    3.866505325546480E-1   -3.120491232063129E-1
 9.937182683575001E9     4.733320507895099E-1   -1.000604123642421E-1   -6.851196117773040E-4   -6.083950976229707E-4   -7.232001411024430E-4   -6.260179555683280E-4    3.860192915269372E-1   -3.124324585277931E-1
 9.937185379799999E9     4.734141857112729E-1   -1.003186757726594E-1   -6.936754763087893E-4   -6.624652383385258E-4   -7.138520865356726E-4   -6.615528803491224E-4    3.857810959932931E-1   -3.125756195475041E-1
 9.937188076025000E9     4.732578469325157E-1   -1.004463927135768E-1   -7.019244293831064E-4   -6.748666344801758E-4   -7.447314721884181E-4   -6.469952397861890E-4    3.855585432265105E-1   -3.127066277893683E-1
 9.937190772250000E9     4.732594236105157E-1   -1.007050966030572E-1   -7.213491647146768E-4   -6.795103197608132E-4   -7.149440918125794E-4   -6.757820251724933E-4    3.853846967686669E-1   -3.129392146961451E-1
 9.937193468475000E9     4.733667349268477E-1   -1.006695610651331E-1   -7.470631909509219E-4   -6.301348780287384E-4   -7.420547654212037E-4   -6.574578598164532E-4    3.849636469211218E-1   -3.130660894541055E-1
 9.937196164700001E9     4.732583414742766E-1   -1.009421324116918E-1   -7.304419767101739E-4   -7.157656259851831E-4   -7.473593328291309E-4   -6.640057961842023E-4    3.849600304920273E-1   -3.133705746771124E-1
 9.937198860924999E9     4.732389233361644E-1   -1.010421770328808E-1   -7.811455386409600E-4   -7.183657774173158E-4   -7.726720689414800E-4   -6.805676052581484E-4    3.846623660337710E-1   -3.136087000211406E-1
 9.937201557150000E9     4.731748692765107E-1   -1.013625018041049E-1   -7.742083060082488E-4   -6.939263683421136E-4   -8.123333490961443E-4   -6.993736245695182E-4    3.843454423282943E-1   -3.136705463533148E-1
 9.937204253375000E9     4.730897852688219E-1   -1.015107993555680E-1   -8.122730534282333E-4   -7.044805273743471E-4   -7.823657526815703E-4   -7.427917968284972E-4    3.841390853788268E-1   -3.137893944362956E-1
 9.937206949600000E9     4.729327813586104E-1   -1.016314661211883E-1   -8.342546204329576E-4   -7.809949350298658E-4   -8.168131093660849E-4   -7.397614865191242E-4    3.837500554641596E-1   -3.142092568567756E-1
 9.937209645825001E9     4.729101402578429E-1   -1.019023656244122E-1   -8.279117203421893E-4   -7.354507687334603E-4   -8.122425248029157E-4   -7.577843253205634E-4    3.837472834240502E-1   -3.144722233255009E-1
 9.937212342049999E9     4.729761946395497E-1   -1.020792093447450E-1   -8.401844333328722E-4   -7.572725759838390E-4   -8.680464483707162E-4   -8.088937911100702E-4    3.832770452023238E-1   -3.147023093132080E-1
 9.937215038275000E9     4.728131542025478E-1   -1.021502217836455E-1   -7.982406147159235E-4   -7.929370820387924E-4   -8.855736027906861E-4   -7.997166110095392E-4    3.831067443819358E-1   -3.147726834702678E-1
 9.937217734500000E9     4.728545858422359E-1   -1.024047220763363E-1   -8.506367122814123E-4   -7.928395466748733E-4   -8.621705977186097E-4   -8.254179508501208E-4    3.828874822168010E-1   -3.150403163266937E-1
 9.937220430725000E9     4.726837578454358E-1   -1.025885434971641E-1   -8.926917224941967E-4   -8.071796257649827E-4   -9.077467273582614E-4   -8.282121669049023E-4    3.824409286210866E-1   -3.154967764030049E-1
 9.937223126950001E9     4.727375480957441E-1   -1.027485297927692E-1   -8.931948004386655E-4   -8.371471342488290E-4   -9.120581888859389E-4   -8.256342494885738E-4    3.821624323338970E-1   -3.154871485004966E-1
 9.937225823174999E9     4.725883130007030E-1   -1.029285974411560E-1   -8.981648687964349E-4   -8.470098212874361E-4   -9.225724232639741E-4   -8.149799611217018E-4    3.819990516580078E-1   -3.156883644039271E-1
 9.937228519400000E9     4.725858289850781E-1   -1.031069535669878E-1   -9.317616971531083E-4   -8.599594437855867E-4   -9.850141535955842E-4   -8.504767705463372E-4    3.818094450665726E-1   -3.160816091953559E-1
 9.937231215625000E9     4.725946120773581E-1   -1.033339553532370E-1   -9.336611775972269E-4   -8.878053362244131E-4   -9.652892022832495E-4   -8.809714479777786E-4    3.814635932423620E-1   -3.160406916375942E-1
 9.937233911850000E9     4.724293296313470E-1   -1.034618255801747E-1   -9.996267606175381E-4   -9.057368656354893E-4   -9.768933875956203E-4   -8.889058575922123E-4    3.811405054718455E-1   -3.164613880550609E-1
 9.937236608075001E9     4.725535691981664E-1   -1.036403363245047E-1   -9.650168990806899E-4   -9.374679535525642E-4   -9.989999468296010E-4   -8.932157656610307E-4    3.808096017541617E-1   -3.166083088138566E-1
 9.937239304299999E9     4.722908579315718E-1   -1.039984792751940E-1   -9.769918226795004E-4   -9.342865936807475E-4   -1.015178201256577E-3   -8.752442447774994E-4    3.805534276018084E-1   -3.168647559719586E-1
 9.937242000525000E9     4.722268208954561E-1   -1.041483090138769E-1   -1.017190131101385E-3   -9.230720904369117E-4   -1.065727129793206E-3   -9.052731880383522E-4    3.803513637632421E-1   -3.171563952049827E-1
 9.937244696750000E9     4.722059343786515E-1   -1.042142448641134E-1   -1.008658421274999E-3   -9.345944880434367E-4   -1.049897077997892E-3   -9.533340751991082E-4    3.800154809877068E-1   -3.172428228021139E-1
 9.937247392975000E9     4.722079874895865E-1   -1.044587366603948E-1   -1.024846896065110E-3   -9.726913400757235E-4   -1.063068292401220E-3   -9.755580160606818E-4    3.798194352583789E-1   -3.177448425306150E-1
 9.937250089200001E9     4.722670548902604E-1   -1.045046726060490E-1   -1.057780590608221E-3   -9.657779101841850E-4   -1.112313969690040E-3   -9.705536925413490E-4    3.795284473802475E-1   -3.178900190326072E-1
 9.937252785424999E9     4.720800732607719E-1   -1.048362829577125E-1   -1.067901671309750E-3   -1.008113811602171E-3   -1.097729086192843E-3   -9.807195947851581E-4    3.790625740752262E-1   -3.179669170922570E-1
 9.937255481650000E9     4.720796335465438E-1   -1.050729491056504E-1   -1.117972292711761E-3   -1.007954414521065E-3   -1.162343259280885E-3   -9.790072643125784E-4    3.789910022991544E-1   -3.182509863384608E-1
 9.937258177875000E9     4.718653550249838E-1   -1.051094258231501E-1   -1.127970595097868E-3   -1.015721820387141E-3   -1.175630655919944E-3   -1.014799484484476E-3    3.784336010277928E-1   -3.184696990658319E-1
 9.937260874100000E9     4.719798558546942E-1   -1.054506611650234E-1   -1.149537751808108E-3   -1.026274021258151E-3   -1.177552508481891E-3   -1.029227176421397E-3    3.783336398822940E-1   -3.187168726195869E-1
 9.937263570325001E9     4.719321980432915E-1   -1.054941628764891E-1   -1.176923975390793E-3   -1.037827222566200E-3   -1.205986652286839E-3   -1.047807216257484E-3    3.779896023427426E-1   -3.192010803035890E-1
 9.937266266549999E9     4.719365226800762E-1   -1.057231283314989E-1   -1.190525226374627E-3   -1.077026312074082E-3   -1.208361932972237E-3   -1.038850264572259E-3    3.775886782289838E-1   -3.193916052718909E-1
 9.937268962775000E9     4.717944079615309E-1   -1.060060518344682E-1   -1.196700739691165E-3   -1.101789209946332E-3   -1.213149562395138E-3   -1.092801529253822E-3    3.774311955963784E-1   -3.196223976443905E-1
 9.937271659000000E9     4.716870068833942E-1   -1.060139381163497E-1   -1.238128830496705E-3   -1.126684770154172E-3   -1.252536074322227E-3   -1.067800178611433E-3    3.769222602029147E-1   -3.195460735225972E-1
 9.937274355225000E9     4.717529527337466E-1   -1.063333073935260E-1   -1.216391380558633E-3   -1.131007774949049E-3   -1.273470210310211E-3   -1.126515020105673E-3    3.765883917576842E-1   -3.200226483580739E-1
 9.937277051450001E9     4.716560141469720E-1   -1.063776911749298E-1   -1.236474439448530E-3   -1.149296052620803E-3   -1.317249941436377E-3   -1.138626618937079E-3    3.765028142871536E-1   -3.203330812853961E-1
 9.937279747674999E9     4.716018836359805E-1   -1.065407508576784E-1   -1.283733311820760E-3   -1.156154516764639E-3   -1.338239329927140E-3   -1.151014249475741E-3    3.760637004875128E-1   -3.205992748617754E-1
 9.937282443900000E9     4.714791038459200E-1   -1.068454905661527E-1   -1.309682951384264E-3   -1.194902203516317E-3   -1.341392844411290E-3   -1.143445226102428E-3    3.756444353188906E-1   -3.206117221842417E-1
 9.937285140125000E9     4.713395225397261E-1   -1.069930836913612E-1   -1.302733902263204E-3   -1.191174568048622E-3   -1.357567382590165E-3   -1.175511331888387E-3    3.751758360219007E-1   -3.210123986057525E-1
 9.937287836350000E9     4.713268025616411E-1   -1.070747251918131E-1   -1.378413652158921E-3   -1.207528980080424E-3   -1.404766099796337E-3   -1.220876903508834E-3    3.748677406426734E-1   -3.210104780501724E-1
 9.937290532575001E9     4.713534910070864E-1   -1.072227011210649E-1   -1.376120540069858E-3   -1.231219127100328E-3   -1.443835326710913E-3   -1.216692476331201E-3    3.745661071404462E-1   -3.215203408472569E-1
 9.937293228799999E9     4.712746245758168E-1   -1.075230124582291E-1   -1.413416992789200E-3   -1.232487973705329E-3   -1.441993349638446E-3   -1.245246516770878E-3    3.742620048301405E-1   -3.216768461421999E-1
 9.937295925025000E9     4.712052372448255E-1   -1.075553574450098E-1   -1.421859575648047E-3   -1.236366345794402E-3   -1.483971537908749E-3   -1.283771806197096E-3    3.740625335037112E-1   -3.219398627088371E-1
 9.937298621250000E9     4.711120207028188E-1   -1.078443397741455E-1   -1.491967085264768E-3   -1.276088136775241E-3   -1.491849168345762E-3   -1.268725943699239E-3    3.734761057572970E-1   -3.222784512547877E-1
