#  HZ   S   RI   R     50.00 
! Rohde & Schwarz Vector Network Analyzer 
! Rohde-Schwarz,ZNB20-2Port,1311601062101988,3.16
! Created: UTC 3/20/2024, 11:05:51 PM
! freq[Hz]                re:S11                  im:S11                  re:S21                  im:S21                  re:S12                  im:S12                  re:S22                  im:S22
 9.937063348000000E9     4.756016104592054E-1   -9.189609486835587E-2   -3.048168138248362E-4   -2.243827718277035E-4   -2.800149136124302E-4   -2.473716972468863E-4    3.952343418320383E-1   -3.033926725590961E-1
 9.937065988799999E9     4.756379951691539E-1   -9.209938569514999E-2   -2.879263514269627E-4   -2.597330537716542E-4   -2.586475092491928E-4   -2.102621233386153E-4    3.952172065795096E-1   -3.037205444494908E-1
 9.937068629600000E9     4.755527265864174E-1   -9.239537085106501E-2   -2.949241871176031E-4   -2.542046650584688E-4   -3.164973522480632E-4   -2.182081168167882E-4    3.948031003840990E-1   -3.038083245699107E-1
 9.937071270400000E9     4.755285207920610E-1   -9.253248663294840E-2   -3.395823396447957E-4   -2.417370947614638E-4   -2.809083295056472E-4   -2.625389355959557E-4    3.948849610719752E-1   -3.040147247362853E-1
 9.937073911200001E9     4.754473955431742E-1   -9.274982794936280E-2   -3.173963400345316E-4   -2.809675571927231E-4   -3.065723118363381E-4   -2.680993020931688E-4    3.944179853654931E-1   -3.041310339289458E-1
 9.937076552000000E9     4.753969104282122E-1   -9.295004917345714E-2   -3.098402170182732E-4   -2.402829458052234E-4   -3.142660820993477E-4   -2.777135659609290E-4    3.942763549012731E-1   -3.044249489970107E-1
 9.937079192799999E9     4.753145224353348E-1   -9.303195259372642E-2   -3.466576996999410E-4   -2.397332983513115E-4   -2.946023837517507E-4   -2.709809246475552E-4    3.940853259287612E-1   -3.046540854236051E-1
 9.937081833600000E9     4.752294755618543E-1   -9.333595171768308E-2   -3.292002967141852E-4   -2.641689097349267E-4   -3.195809184042109E-4   -2.614854900069613E-4    3.939295649639463E-1   -3.045983254218785E-1
 9.937084474400000E9     4.751581085445654E-1   -9.352862616033919E-2   -3.250060960163588E-4   -3.353369266910828E-4   -3.272875073324208E-4   -3.171160656546668E-4    3.938561219812770E-1   -3.050476538008347E-1
 9.937087115200001E9     4.751097206608517E-1   -9.365575040839760E-2   -3.338583028371081E-4   -2.776917247525744E-4   -3.770205990577520E-4   -2.957428474866332E-4    3.936022035827263E-1   -3.052579997691079E-1
 9.937089756000000E9     4.751281897323446E-1   -9.398556358801502E-2   -3.637233062084404E-4   -3.356919755007112E-4   -3.543650049262646E-4   -2.737860715312018E-4    3.935020813127906E-1   -3.052662952665794E-1
 9.937092396799999E9     4.750863118993183E-1   -9.401956310862541E-2   -3.125736380261845E-4   -2.808897221481026E-4   -3.530830965671885E-4   -3.102167611330338E-4    3.932838555326548E-1   -3.055332453909537E-1
 9.937095037600000E9     4.750772418968655E-1   -9.419377071502308E-2   -3.683868463718439E-4   -3.203169236918821E-4   -3.681227103840395E-4   -3.227989012081375E-4    3.929897892639468E-1   -3.058261159211723E-1
 9.937097678400000E9     4.750585526493683E-1   -9.436143880755399E-2   -3.959375731892395E-4   -3.434190222218020E-4   -3.530864818373681E-4   -3.316903605938012E-4    3.928203251922125E-1   -3.056821434524417E-1
 9.937100319200001E9     4.750082613625011E-1   -9.458485212866422E-2   -4.073950630609906E-4   -3.315850906277121E-4   -4.057180338675816E-4   -3.755715243418518E-4    3.926336907625295E-1   -3.062181873640886E-1
 9.937102960000000E9     4.750210691680469E-1   -9.466960421533152E-2   -4.025181798971951E-4   -3.346171738092287E-4   -4.097879624767764E-4   -3.410347408772731E-4    3.924864954069467E-1   -3.063302346746939E-1
 9.937105600799999E9     4.747925942863396E-1   -9.483195369812535E-2   -3.970304423644519E-4   -3.466238156706365E-4   -4.230063455198530E-4   -3.366236918050650E-4    3.921590435677649E-1   -3.064934266857340E-1
 9.937108241600000E9     4.747779278476893E-1   -9.505714146821792E-2   -4.034475724773508E-4   -3.744000926764037E-4   -3.952750788450469E-4   -3.582417225975935E-4    3.922524263417480E-1   -3.066684409695631E-1
 9.937110882400000E9     4.747822985351710E-1   -9.514081171439437E-2   -3.900363016726509E-4   -4.093712695254266E-4   -4.166013224228870E-4   -3.804763106841303E-4    3.918157550971499E-1   -3.068414389398151E-1
 9.937113523200001E9     4.748119145423730E-1   -9.539756711211031E-2   -3.862405534621514E-4   -3.961220637413667E-4   -4.497890442161299E-4   -3.881388750074877E-4    3.916968488753559E-1   -3.069968025642838E-1
 9.937116164000000E9     4.745703509084221E-1   -9.559811887905718E-2   -4.247741477691721E-4   -3.968323821647601E-4   -4.392086997749608E-4   -4.359800333276002E-4    3.915668592422293E-1   -3.071854896064831E-1
 9.937118804799999E9     4.745509144101224E-1   -9.584247846627149E-2   -4.623450418582245E-4   -3.876919769286413E-4   -4.523592201102383E-4   -3.797044004764844E-4    3.912048195420854E-1   -3.076606856802033E-1
 9.937121445600000E9     4.745429978534682E-1   -9.603707316712912E-2   -4.478690122333350E-4   -4.173617771247901E-4   -4.195515866253536E-4   -4.333469098889257E-4    3.910336586428773E-1   -3.076996009163641E-1
 9.937124086400000E9     4.745282352510733E-1   -9.597295894932896E-2   -4.618911169504076E-4   -4.422988056709505E-4   -4.895258293441816E-4   -4.174687358090954E-4    3.907856826629933E-1   -3.077818247839128E-1
 9.937126727200001E9     4.743982338659742E-1   -9.636252057943245E-2   -4.880969059070912E-4   -4.332284297144969E-4   -4.677676085882748E-4   -3.977275538392029E-4    3.905551464622503E-1   -3.080465831122423E-1
 9.937129368000000E9     4.744440197562166E-1   -9.652613553426122E-2   -4.931771673321829E-4   -4.439707379517235E-4   -4.923912386011739E-4   -4.343808258290361E-4    3.905237725485018E-1   -3.081560744450834E-1
 9.937132008799999E9     4.743837402734853E-1   -9.676021756990928E-2   -4.776434464132921E-4   -4.268097950783649E-4   -4.600201465840424E-4   -4.247528563547482E-4    3.902804400461964E-1   -3.084686918664494E-1
 9.937134649600000E9     4.742514277671406E-1   -9.695585380544630E-2   -4.760323195971354E-4   -4.415472946912519E-4   -5.245547413640101E-4   -5.011387162706997E-4    3.899578375768305E-1   -3.086848201453053E-1
 9.937137290400000E9     4.742028102537330E-1   -9.703085572013789E-2   -4.891330587795317E-4   -4.904953858265219E-4   -5.240023791554103E-4   -4.655337340407127E-4    3.897236327731320E-1   -3.089822148510096E-1
 9.937139931200001E9     4.742079954454165E-1   -9.734996503723188E-2   -4.962330181700384E-4   -5.054590826654006E-4   -5.211305930548291E-4   -4.567368443395340E-4    3.896301904811413E-1   -3.090641464924110E-1
 9.937142572000000E9     4.742505215895410E-1   -9.752161877257991E-2   -5.488403012941930E-4   -4.904937452782257E-4   -5.442159211510538E-4   -5.006860773195284E-4    3.893712123864009E-1   -3.093256780726716E-1
 9.937145212799999E9     4.742083212812109E-1   -9.759516123167261E-2   -5.337058866047245E-4   -4.970437712671668E-4   -5.613458666524281E-4   -4.836536026050636E-4    3.891587216163786E-1   -3.094101431787853E-1
 9.937147853600000E9     4.741231059005120E-1   -9.774545679686317E-2   -5.602767575005849E-4   -5.274364322102183E-4   -5.667293577560718E-4   -4.957521201851262E-4    3.890194635819072E-1   -3.098127684859684E-1
 9.937150494400000E9     4.740097827358576E-1   -9.779087132873593E-2   -5.374233243902395E-4   -5.389272136783134E-4   -5.674172837986067E-4   -5.264379560157196E-4    3.889048077087698E-1   -3.099100292597554E-1
 9.937153135200001E9     4.740268354364978E-1   -9.815402317241846E-2   -5.557584469323519E-4   -5.596974921767614E-4   -5.715229491321826E-4   -5.384477691668509E-4    3.882711809273841E-1   -3.102284895758770E-1
 9.937155776000000E9     4.738991729451261E-1   -9.822612259173780E-2   -5.947895877844513E-4   -5.315412523548063E-4   -5.610696830242503E-4   -5.617233618192746E-4    3.883979806719773E-1   -3.100836210511799E-1
 9.937158416799999E9     4.738776142147709E-1   -9.847481925300912E-2   -5.885561635519664E-4   -5.361843391598613E-4   -5.823421859141916E-4   -5.127835748913213E-4    3.879678522828185E-1   -3.103670667355948E-1
 9.937161057600000E9     4.738656984226825E-1   -9.861665222806899E-2   -6.028913792813806E-4   -5.835492094677600E-4   -6.051662350101764E-4   -5.630900793064105E-4    3.879646185222196E-1   -3.106317198020712E-1
 9.937163698400000E9     4.738482479625807E-1   -9.880885309225379E-2   -6.006433435802392E-4   -6.158193389514986E-4   -6.344717575899736E-4   -5.862913801659149E-4    3.877449807198252E-1   -3.109821425631020E-1
 9.937166339200001E9     4.737867677039505E-1   -9.912139769838521E-2   -6.208115319074060E-4   -6.105336533077855E-4   -6.439404581743523E-4   -5.922209902534536E-4    3.875469072918061E-1   -3.111566730266990E-1
 9.937168980000000E9     4.736703195241140E-1   -9.920554041473166E-2   -6.237343948673211E-4   -6.238402637505434E-4   -6.726733186610380E-4   -6.032420733040884E-4    3.874342381435773E-1   -3.114642237018284E-1
 9.937171620799999E9     4.735820188585516E-1   -9.938277831660718E-2   -6.525611929242215E-4   -5.952714094456480E-4   -6.851329661983584E-4   -6.044412667630526E-4    3.871317585349314E-1   -3.114476640239861E-1
 9.937174261600000E9     4.736379995545711E-1   -9.958530342638028E-2   -6.873178368253059E-4   -5.943083002517988E-4   -6.671715064623263E-4   -6.342574234943328E-4    3.866949129510602E-1   -3.117042274591713E-1
 9.937176902400000E9     4.736123055789697E-1   -9.970383581147740E-2   -6.954001304486347E-4   -6.306665825864924E-4   -6.940310548825916E-4   -6.221897831778828E-4    3.864757170023382E-1   -3.118026284940901E-1
 9.937179543200001E9     4.735476387887281E-1   -9.994846269016902E-2   -6.762935350672371E-4   -6.480396725859472E-4   -6.940318338100205E-4   -6.511147389685660E-4    3.861210143384341E-1   -3.120678498402779E-1
 9.937182184000000E9     4.733604108845014E-1   -1.000884932736686E-1   -7.096648896308843E-4   -6.590802009980526E-4   -6.784676558677444E-4   -6.321163573777555E-4    3.861073262949471E-1   -3.122845226136940E-1
 9.937184824799999E9     4.733801380815871E-1   -1.001655047837371E-1   -7.249112397349063E-4   -6.875249808552161E-4   -7.503291240435579E-4   -6.518342259403868E-4    3.857631653948278E-1   -3.124743699648847E-1
 9.937187465600000E9     4.733495488016576E-1   -1.003800096446040E-1   -7.474431883830590E-4   -6.531364377927786E-4   -7.390474320136670E-4   -6.666657599310505E-4    3.856935451155694E-1   -3.126858097376701E-1
 9.937190106400000E9     4.733439993372194E-1   -1.005917873413006E-1   -7.443772048026849E-4   -6.723572566239998E-4   -7.378863095822367E-4   -6.970714825567435E-4    3.852587171280334E-1   -3.129229062765062E-1
 9.937192747200001E9     4.732301750598367E-1   -1.007624853837774E-1   -7.551623267737001E-4   -7.019487067929009E-4   -7.551998129434307E-4   -6.976421149209300E-4    3.851456581575506E-1   -3.130418992373686E-1
 9.937195388000000E9     4.731652151697610E-1   -1.008651731032968E-1   -7.539479061928883E-4   -6.939294298897297E-4   -8.043361957010543E-4   -7.215358858670825E-4    3.848594257054758E-1   -3.133239385840366E-1
 9.937198028799999E9     4.732023719146690E-1   -1.010787842428251E-1   -7.902048975929754E-4   -7.005879252914487E-4   -8.076235888776874E-4   -7.224594488413107E-4    3.845075694837349E-1   -3.136185122557215E-1
 9.937200669600000E9     4.730764930800327E-1   -1.013547962553295E-1   -7.881260691552716E-4   -7.306079403201005E-4   -8.160902383833197E-4   -7.327480912962495E-4    3.844250939879685E-1   -3.138585185059519E-1
 9.937203310400000E9     4.730360406959888E-1   -1.013781892024633E-1   -8.015002324344011E-4   -7.282970703906168E-4   -8.433425623886316E-4   -7.109047637313996E-4    3.843493179451736E-1   -3.141139134423107E-1
 9.937205951200001E9     4.730815935493053E-1   -1.017074316799771E-1   -8.168056130503040E-4   -7.423084360130265E-4   -8.182953504022532E-4   -7.712573812095240E-4    3.837386119583105E-1   -3.142409116102978E-1
 9.937208592000000E9     4.728657889200042E-1   -1.018192468993788E-1   -8.112401951015503E-4   -7.612119370880237E-4   -8.427567860178761E-4   -7.824451132363758E-4    3.835972997260231E-1   -3.143943270253755E-1
 9.937211232799999E9     4.727609699718566E-1   -1.021133522877447E-1   -8.450993181878696E-4   -7.904277212638350E-4   -8.964346292027964E-4   -7.672796473537504E-4    3.834395358593090E-1   -3.147563900872417E-1
 9.937213873600000E9     4.728638531669151E-1   -1.022376517465542E-1   -8.847746427120798E-4   -8.079688125512947E-4   -8.871278410523336E-4   -7.978906579911939E-4    3.830681631422789E-1   -3.149722011026301E-1
 9.937216514400000E9     4.726697989338808E-1   -1.024017462879814E-1   -8.458377705461312E-4   -7.989880801491482E-4   -9.246714571678643E-4   -7.953772663900807E-4    3.828674975627249E-1   -3.151299721103120E-1
 9.937219155200001E9     4.727899538991612E-1   -1.025982489429702E-1   -9.131372974758794E-4   -8.149892912090364E-4   -9.201815282977011E-4   -8.295234630814432E-4    3.827078757454422E-1   -3.152682868404178E-1
 9.937221796000000E9     4.726386237871134E-1   -1.026821873991779E-1   -8.956385234872376E-4   -8.453823942272609E-4   -9.303897455054797E-4   -8.567359814445429E-4    3.823077329461569E-1   -3.156662579992470E-1
 9.937224436799999E9     4.726626727058884E-1   -1.028010838567665E-1   -9.185615621826507E-4   -8.540928484341152E-4   -9.674162729930852E-4   -8.383518560557379E-4    3.820979743730432E-1   -3.156278981615478E-1
 9.937227077600000E9     4.725553361932491E-1   -1.031488511981207E-1   -9.580550581522596E-4   -8.702602658079947E-4   -9.612434261345739E-4   -8.653429976163546E-4    3.818964075713615E-1   -3.158698616285591E-1
 9.937229718400000E9     4.726180540968241E-1   -1.032472927604271E-1   -9.876058394248271E-4   -8.946910889979130E-4   -9.629545859714867E-4   -8.814132484268165E-4    3.815387240940731E-1   -3.162671759014244E-1
 9.937232359200001E9     4.725234596000132E-1   -1.034958841384908E-1   -9.636111425959570E-4   -9.071361477980678E-4   -1.003518562228075E-3   -8.953942664266468E-4    3.813367910757278E-1   -3.163835663227966E-1
 9.937235000000000E9     4.724683495637341E-1   -1.036834850523948E-1   -1.010241583918570E-3   -9.106493700269644E-4   -1.001120891791460E-3   -9.127623343834420E-4    3.809348852284816E-1   -3.167046848292022E-1
 9.937237640799999E9     4.723563605656742E-1   -1.038250601990092E-1   -9.764070214043783E-4   -9.071379511077799E-4   -1.035738074038148E-3   -9.095802208370085E-4    3.806881881603788E-1   -3.170411617005588E-1
 9.937240281600000E9     4.722334879774105E-1   -1.039630466102124E-1   -1.044189179873429E-3   -9.376302322825836E-4   -1.063385639542972E-3   -9.355075756029357E-4    3.805831191887046E-1   -3.170227460719382E-1
 9.937242922400000E9     4.722833801033132E-1   -1.042042886992799E-1   -1.004998090767649E-3   -9.349750337038449E-4   -1.084968616996578E-3   -9.333237071297225E-4    3.801212877402145E-1   -3.175267655531668E-1
 9.937245563200001E9     4.721981438303784E-1   -1.043350386031769E-1   -1.091469937129301E-3   -9.932780048160983E-4   -1.085228114748272E-3   -9.453925560474214E-4    3.798539023810455E-1   -3.174968092160636E-1
 9.937248204000000E9     4.721322265160135E-1   -1.045750359185821E-1   -1.063522909626370E-3   -9.882805321989885E-4   -1.108517083717985E-3   -9.513140639610348E-4    3.795911792629667E-1   -3.177275514494549E-1
 9.937250844799999E9     4.722125501606315E-1   -1.047701221697592E-1   -1.097270746894749E-3   -1.035092804917232E-3   -1.142153501893758E-3   -9.957331892546041E-4    3.791808858253839E-1   -3.179930859988743E-1
 9.937253485600000E9     4.719859785125827E-1   -1.049268698797681E-1   -1.115550062437487E-3   -1.048516748801564E-3   -1.149275051867914E-3   -1.010554139652052E-3    3.790417502471810E-1   -3.182303359251304E-1
 9.937256126400000E9     4.719075512828780E-1   -1.050561748929308E-1   -1.139220703716352E-3   -1.015157229589801E-3   -1.161078335344200E-3   -1.030951942694648E-3    3.784043285611880E-1   -3.185162676201996E-1
 9.937258767200001E9     4.719767670130641E-1   -1.052364000147414E-1   -1.204256635102748E-3   -1.034526735014398E-3   -1.191279014545472E-3   -1.050999704134031E-3    3.783686275291703E-1   -3.188268640700843E-1
 9.937261408000000E9     4.718790328707322E-1   -1.054920530167994E-1   -1.151024697190267E-3   -1.063507070983784E-3   -1.188484581831814E-3   -1.058145406929842E-3    3.780295399234739E-1   -3.191223755598049E-1
 9.937264048799999E9     4.717826433190227E-1   -1.054660103647959E-1   -1.211439965512648E-3   -1.073979405571187E-3   -1.218417470540234E-3   -1.085357368546938E-3    3.776388063080951E-1   -3.192907334999674E-1
 9.937266689600000E9     4.717550083012202E-1   -1.057192998024986E-1   -1.204925566551094E-3   -1.071459456291958E-3   -1.275019844856697E-3   -1.098064947773759E-3    3.773956651745005E-1   -3.194584251718307E-1
 9.937269330400000E9     4.717791427876133E-1   -1.059911414888113E-1   -1.260674875814874E-3   -1.148222079128774E-3   -1.270570983577713E-3   -1.110191534910725E-3    3.771989274390682E-1   -3.196854005357716E-1
 9.937271971200001E9     4.717183880808741E-1   -1.060387663468696E-1   -1.259005524670780E-3   -1.124302108651710E-3   -1.293332257548293E-3   -1.101209326913788E-3    3.766507680555246E-1   -3.197363121909592E-1
 9.937274612000000E9     4.716377147731926E-1   -1.062747555164101E-1   -1.309537324956799E-3   -1.140023238384044E-3   -1.320468976044360E-3   -1.156957005014139E-3    3.762397210401718E-1   -3.203090179230696E-1
 9.937277252799999E9     4.717114973506434E-1   -1.064584601813277E-1   -1.327047033553508E-3   -1.167246966432909E-3   -1.387726317305041E-3   -1.158335349054681E-3    3.761580979410628E-1   -3.205265740082507E-1
 9.937279893600000E9     4.715248924928756E-1   -1.066164907358152E-1   -1.348855316110606E-3   -1.199945179322661E-3   -1.378606836401389E-3   -1.181148274722187E-3    3.757828752133824E-1   -3.204526570425310E-1
 9.937282534400000E9     4.714116300450229E-1   -1.069091295558608E-1   -1.378752482697231E-3   -1.196068140864560E-3   -1.385938251113166E-3   -1.233665719281457E-3    3.753057074513893E-1   -3.208089940097100E-1
 9.937285175200001E9     4.714129008427144E-1   -1.069641462701808E-1   -1.385887763479031E-3   -1.229563591465138E-3   -1.449932185806650E-3   -1.203783575840899E-3    3.750339789303569E-1   -3.213349966407935E-1
 9.937287816000000E9     4.712687407261351E-1   -1.072635464468616E-1   -1.453300659632366E-3   -1.216965254940658E-3   -1.468452098893314E-3   -1.270974106739519E-3    3.747351098814052E-1   -3.212865642652283E-1
 9.937290456799999E9     4.712513097464066E-1   -1.073753164345483E-1   -1.443336391014874E-3   -1.259222028911575E-3   -1.485574331254413E-3   -1.259769808431464E-3    3.741378095603447E-1   -3.216593537054659E-1
 9.937293097600000E9     4.714142086578784E-1   -1.075296769244768E-1   -1.411709616792609E-3   -1.275027436239734E-3   -1.500116668016247E-3   -1.284846333213353E-3    3.741172071109731E-1   -3.218192327132542E-1
 9.937295738400000E9     4.712069414556052E-1   -1.076925832076125E-1   -1.514928630291650E-3   -1.318553933405709E-3   -1.512050651399786E-3   -1.305282386237224E-3    3.736862186754705E-1   -3.221788986777122E-1
 9.937298379200001E9     4.711520621396141E-1   -1.078031043995665E-1   -1.535751817222234E-3   -1.293648996959789E-3   -1.541822302325530E-3   -1.300184561014917E-3    3.734154575805704E-1   -3.223376393378894E-1
 9.937301020000000E9     4.710829210922892E-1   -1.080526541327390E-1   -1.546076224233038E-3   -1.314382747855532E-3   -1.598886913319994E-3   -1.332744392889573E-3    3.730607457936470E-1   -3.226184432195044E-1
