#  HZ   S   RI   R     50.00 
! Rohde & Schwarz Vector Network Analyzer 
! Rohde-Schwarz,ZNB20-2Port,1311601062101988,3.16
! Created: UTC 3/20/2024, 11:06:21 PM
! freq[Hz]                re:S11                  im:S11                  re:S21                  im:S21                  re:S12                  im:S12                  re:S22                  im:S22
 9.937030284000000E9     4.761323470726493E-1   -8.994337447099371E-2   -2.256690988388842E-4   -1.813524492434784E-4   -2.496954849896166E-4   -1.621274199666336E-4    3.972585742566316E-1   -3.013306457897012E-1
 9.937033051799999E9     4.759801609551552E-1   -9.013922150304460E-2   -2.299283692883963E-4   -1.728341908956423E-4   -2.733545222472690E-4   -1.429104031988217E-4    3.971424321055480E-1   -3.017753547911923E-1
 9.937035819600000E9     4.759520025444365E-1   -9.022512340004082E-2   -2.190359098532744E-4   -1.567539947700238E-4   -2.159091712177806E-4   -1.715520424122207E-4    3.969004253612219E-1   -3.016278034511163E-1
 9.937038587400000E9     4.759547891606116E-1   -9.052709471990671E-2   -2.415515459250037E-4   -1.707994455159908E-4   -2.415265360618375E-4   -1.651769328794956E-4    3.966252547223134E-1   -3.020361476676247E-1
 9.937041355200001E9     4.760369111455346E-1   -9.074574060865023E-2   -2.602675254064396E-4   -1.999971247040378E-4   -2.593309583488576E-4   -1.592503823513105E-4    3.964316534683735E-1   -3.021136290812517E-1
 9.937044123000000E9     4.757745789565642E-1   -9.086972717351156E-2   -2.492540681203906E-4   -1.902491291133825E-4   -2.601781356726239E-4   -1.818155594520436E-4    3.961916452120423E-1   -3.024786275645106E-1
 9.937046890799999E9     4.758738815493256E-1   -9.102537023321279E-2   -2.512963240255316E-4   -2.192106973613918E-4   -2.673394454063386E-4   -1.853552261710359E-4    3.960761447882486E-1   -3.023603989515684E-1
 9.937049658600000E9     4.757202316172737E-1   -9.121529253902265E-2   -2.397350125801761E-4   -2.013448906661295E-4   -2.749774465311877E-4   -2.029849003013221E-4    3.958769315955847E-1   -3.026536595430641E-1
 9.937052426400000E9     4.757283142288373E-1   -9.141997344673582E-2   -2.726805318990959E-4   -2.017270182266696E-4   -2.870603357653397E-4   -2.078944074579129E-4    3.957022208947655E-1   -3.025895138873336E-1
 9.937055194200001E9     4.757116390737454E-1   -9.168229522729274E-2   -2.864605941516766E-4   -2.168745601752625E-4   -2.531587518687144E-4   -2.266308106979757E-4    3.957291178652844E-1   -3.031270064630893E-1
 9.937057962000000E9     4.756530662726494E-1   -9.186000749810619E-2   -2.757389765635559E-4   -2.538934835491005E-4   -2.935336640197349E-4   -2.335936616430550E-4    3.954228451041568E-1   -3.031909131854417E-1
 9.937060729799999E9     4.755575585783323E-1   -9.198863553319438E-2   -2.692828879741453E-4   -2.025083631125864E-4   -3.139185864196443E-4   -2.467952825528937E-4    3.951469058206499E-1   -3.033456847418715E-1
 9.937063497600000E9     4.755134366650450E-1   -9.219994473354326E-2   -3.237157111638827E-4   -2.580496660085593E-4   -2.888186145268034E-4   -2.608077634729414E-4    3.950712303356425E-1   -3.035232427481572E-1
 9.937066265400000E9     4.755008359097294E-1   -9.229810108736389E-2   -2.901852066716029E-4   -2.615597519881360E-4   -3.020900578970331E-4   -2.672233741442132E-4    3.946409410013392E-1   -3.038829250308841E-1
 9.937069033200001E9     4.755615239426276E-1   -9.260976991411624E-2   -3.299497845939187E-4   -2.650862906610313E-4   -3.536135893445937E-4   -2.552939699137828E-4    3.944265154179110E-1   -3.040583566176931E-1
 9.937071801000000E9     4.754383340950128E-1   -9.279807460208464E-2   -3.285776503276321E-4   -2.613361828110408E-4   -3.476053293289487E-4   -2.722496160669616E-4    3.943506439487030E-1   -3.042027621323647E-1
 9.937074568799999E9     4.754862262207829E-1   -9.296917585366925E-2   -3.521383678303570E-4   -2.685515416543451E-4   -3.327305606671546E-4   -2.750977138199723E-4    3.942329064040493E-1   -3.045190975059563E-1
 9.937077336600000E9     4.752557795057504E-1   -9.313390637593302E-2   -3.386156353200305E-4   -3.222095266674396E-4   -3.644861281500109E-4   -2.860937045379437E-4    3.939020509217306E-1   -3.045528407515461E-1
 9.937080104400000E9     4.752819786321690E-1   -9.343535176785363E-2   -3.653529861436103E-4   -3.107277406447143E-4   -3.751334983639885E-4   -2.980253994592705E-4    3.939667009983994E-1   -3.049277511008601E-1
 9.937082872200001E9     4.751127809398410E-1   -9.347653149878492E-2   -3.648769006087759E-4   -3.006058435048148E-4   -3.786262327851426E-4   -3.090471287230910E-4    3.935464445498078E-1   -3.050720820028305E-1
 9.937085640000000E9     4.750299682036664E-1   -9.356489226325417E-2   -3.631925203692926E-4   -3.219609266734383E-4   -3.729937546333675E-4   -3.258904083534563E-4    3.933833936136258E-1   -3.051036556550588E-1
 9.937088407799999E9     4.750619710296259E-1   -9.398646968250519E-2   -3.724335268428743E-4   -2.870358023726538E-4   -3.512173752929468E-4   -3.335831635419229E-4    3.934226571767960E-1   -3.054520593759847E-1
 9.937091175600000E9     4.750040622205177E-1   -9.396694004223548E-2   -3.620082554295020E-4   -3.567794557082058E-4   -4.163024908149825E-4   -3.480655691667937E-4    3.931808198202608E-1   -3.056961162649441E-1
 9.937093943400000E9     4.749268650692492E-1   -9.429574018306928E-2   -3.888891571591417E-4   -3.549061514785842E-4   -4.062009809779990E-4   -3.184805849257668E-4    3.928680211793265E-1   -3.060374417131408E-1
 9.937096711200001E9     4.751251152762463E-1   -9.448642087510119E-2   -3.677399261273628E-4   -3.482719426278303E-4   -4.158559551603099E-4   -3.373633048695956E-4    3.925588236922699E-1   -3.059495188336456E-1
 9.937099479000000E9     4.747733610017881E-1   -9.467349159768947E-2   -4.052795277545336E-4   -3.646943376877554E-4   -4.130047749468688E-4   -3.441478536060372E-4    3.925094623018756E-1   -3.063949630822606E-1
 9.937102246799999E9     4.748720106460411E-1   -9.479399272265501E-2   -3.950725977725254E-4   -3.659330273654722E-4   -4.401190376405475E-4   -3.715384511681766E-4    3.922646569310040E-1   -3.063777090682563E-1
 9.937105014600000E9     4.747215388611980E-1   -9.501164684377633E-2   -4.361628092890868E-4   -3.667813204132529E-4   -4.235963047395717E-4   -3.813065808024106E-4    3.921435784131541E-1   -3.066331369256715E-1
 9.937107782400000E9     4.747009255988435E-1   -9.521894254543055E-2   -4.454602544179794E-4   -3.770094313266643E-4   -4.415453555524845E-4   -3.925933051305116E-4    3.918981815369516E-1   -3.069595795566664E-1
 9.937110550200001E9     4.745828613303831E-1   -9.546447793418808E-2   -4.586759230949331E-4   -3.938333082959541E-4   -4.442015968550713E-4   -3.819365102649093E-4    3.914931494903872E-1   -3.070288280099729E-1
 9.937113318000000E9     4.747412909759165E-1   -9.552946042418395E-2   -4.579991236482618E-4   -3.684316636759074E-4   -4.633248813235406E-4   -4.041257145468484E-4    3.910921347173847E-1   -3.073313246460495E-1
 9.937116085799999E9     4.745633231780116E-1   -9.577242011599181E-2   -4.508725236873355E-4   -4.056755326917856E-4   -4.709121887907989E-4   -4.303256422633755E-4    3.912472418433502E-1   -3.075292173781685E-1
 9.937118853600000E9     4.746092494549294E-1   -9.586473732522248E-2   -4.930304748660100E-4   -4.115981531586846E-4   -4.844328036292098E-4   -4.175757360919132E-4    3.908635639525819E-1   -3.077716647857973E-1
 9.937121621400000E9     4.743681042471643E-1   -9.634627230781914E-2   -4.499420381817022E-4   -4.447329215797523E-4   -5.091561011116328E-4   -4.563050334073233E-4    3.905361455504263E-1   -3.077300346393052E-1
 9.937124389200001E9     4.744275499732228E-1   -9.628928952810464E-2   -4.899347766109106E-4   -4.538640574128027E-4   -5.009465640462971E-4   -4.410343972941884E-4    3.905675549351682E-1   -3.081861674805513E-1
 9.937127157000000E9     4.744634900066028E-1   -9.638730090084915E-2   -5.006332664907723E-4   -4.615457076377683E-4   -5.077279207029382E-4   -4.906973050810279E-4    3.903421157333488E-1   -3.084521468020625E-1
 9.937129924799999E9     4.742768733406469E-1   -9.661904882605547E-2   -5.202007902336245E-4   -4.427173773117225E-4   -5.159584463868471E-4   -4.592532499589627E-4    3.900602094260434E-1   -3.086081368058250E-1
 9.937132692600000E9     4.742539968112111E-1   -9.689812140378892E-2   -5.476681968693011E-4   -4.876169043971705E-4   -5.081358443803815E-4   -4.791520612065970E-4    3.899082640916961E-1   -3.088239794547268E-1
 9.937135460400000E9     4.742303421633818E-1   -9.714142389320382E-2   -5.266841060949568E-4   -4.501549508989202E-4   -5.434245436908263E-4   -4.746136125356653E-4    3.896183930421164E-1   -3.088052642022198E-1
 9.937138228200001E9     4.741530497222655E-1   -9.724575575384280E-2   -5.543509718227880E-4   -4.963061507075866E-4   -5.544673393783689E-4   -4.559457938981847E-4    3.894625183696925E-1   -3.093276245863978E-1
 9.937140996000000E9     4.742202896368947E-1   -9.744177675854204E-2   -5.390281872786723E-4   -5.074485800917230E-4   -5.686212386121343E-4   -4.952050896259618E-4    3.892576576024339E-1   -3.095029631460794E-1
 9.937143763799999E9     4.740190839140125E-1   -9.777889303331631E-2   -5.786860846989234E-4   -5.477108883690717E-4   -5.665926947665670E-4   -5.106843053876984E-4    3.889889998096781E-1   -3.095194361424650E-1
 9.937146531600000E9     4.740729201708921E-1   -9.787353324731439E-2   -5.831914458141189E-4   -5.300033190440791E-4   -5.897142067219465E-4   -5.418998945642392E-4    3.887934035826881E-1   -3.098482911781829E-1
 9.937149299400000E9     4.739943432751062E-1   -9.796527092012158E-2   -6.131389903982194E-4   -5.278159996268133E-4   -6.077710866853943E-4   -5.660555508728669E-4    3.886523124326070E-1   -3.097381888336446E-1
 9.937152067200001E9     4.739603318109778E-1   -9.821885563381665E-2   -6.032260436663203E-4   -5.559586354254031E-4   -6.224797446228621E-4   -5.478923889314921E-4    3.881575795938335E-1   -3.101674612452237E-1
 9.937154835000000E9     4.738889356163236E-1   -9.839751564184009E-2   -6.585413800973314E-4   -5.898012085461806E-4   -6.652305500725580E-4   -5.513287581336583E-4    3.882218449328742E-1   -3.103436113293881E-1
 9.937157602799999E9     4.739069016815464E-1   -9.854757102497044E-2   -6.141005852209695E-4   -5.615445580217691E-4   -6.631611397373266E-4   -5.762106001955563E-4    3.877310745563952E-1   -3.106307114962671E-1
 9.937160370600000E9     4.737572588576334E-1   -9.880756516942557E-2   -6.441314368377471E-4   -5.645262447309434E-4   -6.569613379672368E-4   -5.655290087723090E-4    3.875306608217693E-1   -3.109246527021765E-1
 9.937163138400000E9     4.737190519800610E-1   -9.898319766005555E-2   -6.168445829107651E-4   -6.066334833679063E-4   -6.462875979626970E-4   -5.927651593136480E-4    3.875693226667683E-1   -3.109852784425486E-1
 9.937165906200001E9     4.736670271299412E-1   -9.913463626128600E-2   -6.414166437779833E-4   -6.354525585213691E-4   -6.634691718244227E-4   -6.186711577888508E-4    3.869950899488012E-1   -3.112894156788691E-1
 9.937168674000000E9     4.737361814897722E-1   -9.939688851760083E-2   -6.905764463648587E-4   -6.550659455605121E-4   -6.785947897655335E-4   -6.333578636300420E-4    3.867358585101286E-1   -3.115506615363369E-1
 9.937171441799999E9     4.736174393882391E-1   -9.949076419686911E-2   -7.083105672581606E-4   -6.124617383562597E-4   -7.084325930932584E-4   -6.614467049045716E-4    3.865067862993645E-1   -3.117301674930493E-1
 9.937174209600000E9     4.734204401518483E-1   -9.963323025791677E-2   -6.769485267065908E-4   -6.405667118858209E-4   -6.812127151345781E-4   -6.293905668385355E-4    3.861713192834185E-1   -3.118885155737135E-1
 9.937176977400000E9     4.733238051175508E-1   -9.989101403946897E-2   -7.192096951893711E-4   -6.768170636198192E-4   -7.621985885421383E-4   -6.325211226650329E-4    3.861296289647708E-1   -3.122126257427890E-1
 9.937179745200001E9     4.734528588188237E-1   -1.001673393036497E-1   -7.493747198607524E-4   -6.925626505814237E-4   -7.297080389646509E-4   -6.465146562873810E-4    3.857923500909083E-1   -3.122002252769110E-1
 9.937182513000000E9     4.733322608018457E-1   -1.002715072746408E-1   -7.669096004977603E-4   -6.530210735250133E-4   -7.558541650873646E-4   -7.119001671204887E-4    3.855428243109767E-1   -3.126646137212031E-1
 9.937185280799999E9     4.733167981104184E-1   -1.005049798010421E-1   -7.441687694819186E-4   -6.683099939582332E-4   -8.042484915949928E-4   -6.986464732343290E-4    3.853278726231764E-1   -3.128445212229060E-1
 9.937188048600000E9     4.731226766060017E-1   -1.006360882281483E-1   -7.921597210032416E-4   -7.316848486418628E-4   -7.977737986182956E-4   -6.761360638773919E-4    3.850168354064875E-1   -3.131088021375583E-1
 9.937190816400000E9     4.732224854419474E-1   -1.008413003862240E-1   -7.817721755376164E-4   -7.261141923940065E-4   -8.012344920338781E-4   -7.283359880238088E-4    3.846980064736307E-1   -3.132978474263381E-1
 9.937193584200001E9     4.733191279174244E-1   -1.009867374456556E-1   -7.852976613991662E-4   -7.001807706065844E-4   -8.145924155333352E-4   -7.032015484472934E-4    3.847740450487510E-1   -3.134215343237711E-1
 9.937196352000000E9     4.731381307773473E-1   -1.012160598773686E-1   -8.516515788732230E-4   -7.505371158340437E-4   -8.640645041491276E-4   -7.427139166910789E-4    3.843214276027950E-1   -3.138490037327061E-1
 9.937199119799999E9     4.730373751380284E-1   -1.014864956358091E-1   -8.551165069667672E-4   -7.467162417345035E-4   -8.313326666696638E-4   -7.888752934555706E-4    3.840743240826121E-1   -3.138796945724180E-1
 9.937201887600000E9     4.729987928342134E-1   -1.015084273059711E-1   -8.743681273617227E-4   -7.562110799212126E-4   -8.452905924179110E-4   -7.771011359612715E-4    3.838907190058200E-1   -3.141792507977819E-1
 9.937204655400000E9     4.729770126327735E-1   -1.017112541807145E-1   -8.208510628683972E-4   -7.996176327685653E-4   -8.795983151503523E-4   -7.905961747086039E-4    3.836843518273769E-1   -3.145614363786904E-1
 9.937207423200001E9     4.729459766923535E-1   -1.019841893941629E-1   -8.442206929691025E-4   -7.639825087679403E-4   -8.985485484723032E-4   -8.030901246131194E-4    3.831905602123787E-1   -3.146372898057574E-1
 9.937210191000000E9     4.728925567315448E-1   -1.021484364703261E-1   -8.948487654458717E-4   -8.010698178301894E-4   -9.346169642710987E-4   -8.232193685325134E-4    3.829246311761256E-1   -3.148148817722125E-1
 9.937212958799999E9     4.728542055336211E-1   -1.023359095695956E-1   -8.853058693011758E-4   -8.330878376825148E-4   -9.615852061268051E-4   -8.531919647265145E-4    3.827635724019046E-1   -3.152305948919271E-1
 9.937215726600000E9     4.727502519466541E-1   -1.024092072844148E-1   -9.146725631205634E-4   -8.515442464191750E-4   -9.440723318989942E-4   -8.595177691279342E-4    3.822797291439637E-1   -3.153156105047557E-1
 9.937218494400000E9     4.726308008261592E-1   -1.026340277577227E-1   -9.349961734274223E-4   -8.565813851766045E-4   -9.755689122428710E-4   -8.585188002397613E-4    3.820352292047706E-1   -3.155958672915427E-1
 9.937221262200001E9     4.725150173332485E-1   -1.028850685794192E-1   -9.619019185884575E-4   -8.759090093272879E-4   -9.803454852025139E-4   -8.833269803619316E-4    3.819005883814176E-1   -3.156910788298032E-1
 9.937224030000000E9     4.725647558808666E-1   -1.031408072423189E-1   -9.910229379338021E-4   -8.890956005275459E-4   -1.012057171194847E-3   -9.013141909314378E-4    3.814707878247550E-1   -3.159610299969697E-1
 9.937226797799999E9     4.725397503756381E-1   -1.031459476916366E-1   -9.995728732295310E-4   -8.822302327630825E-4   -9.947951277955831E-4   -8.811288470815116E-4    3.812635513921540E-1   -3.164692111277274E-1
 9.937229565600000E9     4.724719414571902E-1   -1.035150585834707E-1   -1.025733935351783E-3   -9.460329075332835E-4   -1.031446561426726E-3   -9.386544454545271E-4    3.810764156703005E-1   -3.165006654770294E-1
 9.937232333400000E9     4.724675890652192E-1   -1.036000388160297E-1   -1.036232993526670E-3   -9.346095327589643E-4   -1.063945626933217E-3   -9.305955854435787E-4    3.805680303597349E-1   -3.167781900374817E-1
 9.937235101200001E9     4.722871549274679E-1   -1.038088915527665E-1   -1.077477517214703E-3   -9.671507932041163E-4   -1.098729040709871E-3   -9.484825133667838E-4    3.803988317957778E-1   -3.171370091507756E-1
 9.937237869000000E9     4.723074149908181E-1   -1.039240641925665E-1   -1.104746680556100E-3   -9.840150805672117E-4   -1.102723012659321E-3   -9.673263368357397E-4    3.801563312730220E-1   -3.171986467282784E-1
 9.937240636799999E9     4.721819073693947E-1   -1.041118878405645E-1   -1.125869547750403E-3   -9.697876564476118E-4   -1.135787790093689E-3   -9.454360533136799E-4    3.799123652606838E-1   -3.175007813877893E-1
 9.937243404600000E9     4.721624406602479E-1   -1.044773821225034E-1   -1.115394379382992E-3   -9.830316093118155E-4   -1.143971680386078E-3   -1.009459749037081E-3    3.795989483765674E-1   -3.175459132463379E-1
 9.937246172400000E9     4.721389652030920E-1   -1.045220249709199E-1   -1.123175514204942E-3   -9.923270670512691E-4   -1.154843474124516E-3   -9.783054302908562E-4    3.791184047554447E-1   -3.179855313500978E-1
 9.937248940200001E9     4.720720971390465E-1   -1.047210074457172E-1   -1.121265699929036E-3   -1.065054307650285E-3   -1.168994255141259E-3   -9.919804778977333E-4    3.787600689551510E-1   -3.182734663161557E-1
 9.937251708000000E9     4.721393545509235E-1   -1.048640384434495E-1   -1.163893970150941E-3   -1.052900593699114E-3   -1.193223207131716E-3   -1.026700439397509E-3    3.784882595969912E-1   -3.183675009098720E-1
 9.937254475799999E9     4.721320211431336E-1   -1.051354476188856E-1   -1.193561327905195E-3   -1.074288189250728E-3   -1.245019958275502E-3   -1.065326357883541E-3    3.781579237134960E-1   -3.186344814287684E-1
 9.937257243600000E9     4.719883405283961E-1   -1.052996692732732E-1   -1.215475557667599E-3   -1.093849384808403E-3   -1.226384690018430E-3   -1.058278701408594E-3    3.776939069312579E-1   -3.189792590971914E-1
 9.937260011400000E9     4.718011930661198E-1   -1.055363164723392E-1   -1.241166541160675E-3   -1.088357295694298E-3   -1.243156949388606E-3   -1.064708358641856E-3    3.774720728013713E-1   -3.191315467023783E-1
 9.937262779200001E9     4.718455843183441E-1   -1.057291863730980E-1   -1.248155599589988E-3   -1.079087533220532E-3   -1.323406205700213E-3   -1.082214092991212E-3    3.771395485738189E-1   -3.193142298432152E-1
 9.937265547000000E9     4.717876950982735E-1   -1.059488381030537E-1   -1.251569150547845E-3   -1.143529602391223E-3   -1.341041263513392E-3   -1.144702243973400E-3    3.767952064763331E-1   -3.195069261174069E-1
 9.937268314799999E9     4.717606037959940E-1   -1.060260333511439E-1   -1.332619542407220E-3   -1.139718430804803E-3   -1.342185222884956E-3   -1.137112153227905E-3    3.765115367356483E-1   -3.199073551709527E-1
 9.937271082600000E9     4.717136148133829E-1   -1.062196747277087E-1   -1.344168423957261E-3   -1.187061118093264E-3   -1.357812554537234E-3   -1.178232766069490E-3    3.761294794536246E-1   -3.200822055047357E-1
 9.937273850400000E9     4.716276853087040E-1   -1.063917535368505E-1   -1.355657554683632E-3   -1.174105091486468E-3   -1.415323946367174E-3   -1.178660772483540E-3    3.757355359111533E-1   -3.204728020677662E-1
 9.937276618200001E9     4.714532328234824E-1   -1.066854586596070E-1   -1.416150059236771E-3   -1.206697363080539E-3   -1.406211729808668E-3   -1.197788145277956E-3    3.755657633055651E-1   -3.206723562517317E-1
 9.937279386000000E9     4.715830214832306E-1   -1.067416832892875E-1   -1.409322469499296E-3   -1.222233704457240E-3   -1.456322292655557E-3   -1.236888182489308E-3    3.750636729542060E-1   -3.210206356427058E-1
