#  HZ   S   RI   R     50.00 
! Rohde & Schwarz Vector Network Analyzer 
! Rohde-Schwarz,ZNB20-2Port,1311601062101988,3.16
! Created: UTC 3/20/2024, 11:06:23 PM
! freq[Hz]                re:S11                  im:S11                  re:S21                  im:S21                  re:S12                  im:S12                  re:S22                  im:S22
 9.937034282000000E9     4.760769346119124E-1   -9.030950381087290E-2   -2.216374379464870E-4   -1.606842605808648E-4   -2.504603288610491E-4   -1.488757817232255E-4    3.969441133023623E-1   -3.014613230708071E-1
 9.937037023075001E9     4.761306002555196E-1   -9.045769162086455E-2   -2.406293629133638E-4   -2.003310451980890E-4   -2.737264592082774E-4   -2.007157410431202E-4    3.968538146890876E-1   -3.018766344782564E-1
 9.937039764150000E9     4.759535665061165E-1   -9.062277949079006E-2   -2.813029010395191E-4   -1.943295533267355E-4   -2.622675264538871E-4   -1.848326058524595E-4    3.967032782764300E-1   -3.019011049107578E-1
 9.937042505225000E9     4.759647948215381E-1   -9.085910138448336E-2   -2.825091768366271E-4   -1.840908187379113E-4   -2.597659051557671E-4   -2.107969344958582E-4    3.963063291586240E-1   -3.022509995851526E-1
 9.937045246299999E9     4.758635518645520E-1   -9.111302999523799E-2   -2.199544521406193E-4   -1.526835243824562E-4   -2.444529397737423E-4   -1.860877457605654E-4    3.962671486207504E-1   -3.025003332874698E-1
 9.937047987375000E9     4.757055399779009E-1   -9.120877531534018E-2   -2.519643043432242E-4   -1.936449338196957E-4   -2.514135345227861E-4   -2.009667717637838E-4    3.960122442879578E-1   -3.025734189977329E-1
 9.937050728450001E9     4.757078067726123E-1   -9.131646804714284E-2   -2.625650018603639E-4   -2.310859603138031E-4   -2.688091035868862E-4   -2.072132833826977E-4    3.957333731412819E-1   -3.028075555252250E-1
 9.937053469525000E9     4.757844435788016E-1   -9.152567148037892E-2   -2.708635640249121E-4   -2.038072727167986E-4   -2.935445515122836E-4   -2.069206898357075E-4    3.958198400558846E-1   -3.029260138857174E-1
 9.937056210600000E9     4.756206849474378E-1   -9.184274611383990E-2   -2.987238461034362E-4   -2.176969559317361E-4   -2.937016858059740E-4   -2.392228590669376E-4    3.955534957468385E-1   -3.031824978545675E-1
 9.937058951674999E9     4.756840768183341E-1   -9.190338009083039E-2   -2.808044627317230E-4   -2.087999076194382E-4   -3.064385465583023E-4   -2.268157068083235E-4    3.951780474962420E-1   -3.032373131221470E-1
 9.937061692750000E9     4.755807721868812E-1   -9.213044882604396E-2   -2.870234939210544E-4   -2.616989555218222E-4   -2.888476106610406E-4   -2.603962209593989E-4    3.951583333730588E-1   -3.036978761930381E-1
 9.937064433825001E9     4.754814256787530E-1   -9.229491513531478E-2   -3.092580943181561E-4   -2.592093241619419E-4   -3.009526018513027E-4   -2.507459340445027E-4    3.949855246571792E-1   -3.038226055440974E-1
 9.937067174900000E9     4.756290217389651E-1   -9.248370896226743E-2   -3.391850313459215E-4   -2.708449429034437E-4   -3.426074068328312E-4   -2.689023389350038E-4    3.947842213052518E-1   -3.039319030700247E-1
 9.937069915975000E9     4.754963157748963E-1   -9.268055898028879E-2   -3.262435006523059E-4   -2.833382701149078E-4   -3.389365233198039E-4   -2.502724806201715E-4    3.946006463339884E-1   -3.041005981490132E-1
 9.937072657049999E9     4.754259122060411E-1   -9.282191082924092E-2   -3.193141361100408E-4   -2.800295633395418E-4   -3.231327732298506E-4   -2.795993211091254E-4    3.944161077804245E-1   -3.041687886581311E-1
 9.937075398125000E9     4.753514212224048E-1   -9.300311139201266E-2   -3.519569349043822E-4   -2.665347410100959E-4   -3.432225209340828E-4   -2.993897000264718E-4    3.941784649144001E-1   -3.043852729736817E-1
 9.937078139200001E9     4.753341219487529E-1   -9.309855871393945E-2   -3.028703093684071E-4   -2.845950836809417E-4   -3.323279027883225E-4   -2.903991817703248E-4    3.941390735937970E-1   -3.048841831648205E-1
 9.937080880275000E9     4.751555919973088E-1   -9.341626456590348E-2   -3.665774400868290E-4   -3.127172252402189E-4   -3.313075638267762E-4   -3.062865293795691E-4    3.937042977806706E-1   -3.049382252438159E-1
 9.937083621350000E9     4.752340464324745E-1   -9.363924796962647E-2   -3.294924759766824E-4   -2.996973423788750E-4   -3.657564187495875E-4   -3.267981532399747E-4    3.935666339317836E-1   -3.051998670185656E-1
 9.937086362424999E9     4.751729269338836E-1   -9.373235246346652E-2   -4.079893872847912E-4   -3.161811530087922E-4   -3.690544791548850E-4   -3.241527709518066E-4    3.933585179642015E-1   -3.052086987336467E-1
 9.937089103500000E9     4.749977913296325E-1   -9.395387436400582E-2   -3.914190706451395E-4   -3.566879409208183E-4   -3.685587911666169E-4   -3.395352918019984E-4    3.930678683757256E-1   -3.055275371812397E-1
 9.937091844575001E9     4.750806888061924E-1   -9.411171602950279E-2   -3.842838742077166E-4   -3.114168588391248E-4   -3.686375629860579E-4   -3.164365665505263E-4    3.930412383903878E-1   -3.056989664151180E-1
 9.937094585650000E9     4.748218280463498E-1   -9.443873349992149E-2   -4.030551294967770E-4   -3.444477642812234E-4   -3.970167529753205E-4   -3.511274123583862E-4    3.928220928010083E-1   -3.057418310384659E-1
 9.937097326725000E9     4.749678584287758E-1   -9.462414976336848E-2   -4.084895060248685E-4   -3.466295877900009E-4   -3.652753215277049E-4   -3.360934466020277E-4    3.926236714968969E-1   -3.061802788786165E-1
 9.937100067799999E9     4.749169400606817E-1   -9.473996424099057E-2   -4.041175173675658E-4   -3.352348727823972E-4   -4.330783774628771E-4   -3.545915046012237E-4    3.923878358469172E-1   -3.064217790895812E-1
 9.937102808875000E9     4.747594194132133E-1   -9.491253421518470E-2   -4.292570574787760E-4   -3.936858469823219E-4   -4.546916238646491E-4   -3.681334735972914E-4    3.922457487485775E-1   -3.065192242697218E-1
 9.937105549950001E9     4.749213123263338E-1   -9.525292894131174E-2   -4.537307643595531E-4   -4.221719716297040E-4   -4.417261686200289E-4   -3.540990681805002E-4    3.919786262881810E-1   -3.066746433946351E-1
 9.937108291025000E9     4.746158329047488E-1   -9.525234119761695E-2   -4.230819576250107E-4   -4.015372125535117E-4   -4.517815842789194E-4   -3.798793218010487E-4    3.917480955331571E-1   -3.069392034574324E-1
 9.937111032100000E9     4.746546742527292E-1   -9.547128723690670E-2   -4.458065415530314E-4   -3.995487833077532E-4   -4.533553662522193E-4   -3.778890085708356E-4    3.915612014921954E-1   -3.073167790200201E-1
 9.937113773174999E9     4.746807285400168E-1   -9.566249945798483E-2   -4.591772359293705E-4   -4.341008988925650E-4   -4.284216027266932E-4   -3.909591032282469E-4    3.913184941609982E-1   -3.073671018389030E-1
 9.937116514250000E9     4.746290204799234E-1   -9.587779104556718E-2   -4.747423471565252E-4   -4.321511599065157E-4   -4.800804273557306E-4   -4.205123650866551E-4    3.910705319233900E-1   -3.074556288365582E-1
 9.937119255325001E9     4.745945514718319E-1   -9.598462394175641E-2   -4.862232593173684E-4   -4.328403120979047E-4   -4.831649577144596E-4   -4.223263000245303E-4    3.908270390655936E-1   -3.076860951388152E-1
 9.937121996400000E9     4.744803766452446E-1   -9.611829357183449E-2   -4.863062144989123E-4   -4.320941822865146E-4   -4.998826635763531E-4   -4.440440539268999E-4    3.905556588812405E-1   -3.081216245057852E-1
 9.937124737475000E9     4.743083780961976E-1   -9.640704293458337E-2   -4.963656443074730E-4   -4.459100093066623E-4   -5.370923380502557E-4   -4.539084801352245E-4    3.904154230471786E-1   -3.081788717414614E-1
 9.937127478549999E9     4.744432837474354E-1   -9.658892449326728E-2   -5.415791197959667E-4   -4.542298317309154E-4   -5.235933437067394E-4   -4.649735930960181E-4    3.900994060192086E-1   -3.082677692707972E-1
 9.937130219625000E9     4.743817613244203E-1   -9.669969468494212E-2   -5.305016986296836E-4   -4.883446878426805E-4   -5.494475730421961E-4   -4.714865438445540E-4    3.900494185608111E-1   -3.084948295463237E-1
 9.937132960700001E9     4.743453897271906E-1   -9.698731043603770E-2   -5.500555725045271E-4   -4.771993118353207E-4   -5.178553622244438E-4   -4.935403017905065E-4    3.898072150107940E-1   -3.087820033191837E-1
 9.937135701775000E9     4.741897950335190E-1   -9.706974742713094E-2   -4.760945979380181E-4   -4.873968260789730E-4   -5.483692925469986E-4   -4.721423408437980E-4    3.896345282728228E-1   -3.089727971522598E-1
 9.937138442850000E9     4.741582834855407E-1   -9.735697055928332E-2   -5.335264900461103E-4   -5.221689423825348E-4   -5.866930844441992E-4   -4.956432589293462E-4    3.895126077075150E-1   -3.092602589787964E-1
 9.937141183924999E9     4.740133709576658E-1   -9.753112336530442E-2   -5.520674623885784E-4   -5.115341057478844E-4   -5.814441173564206E-4   -5.196833129743401E-4    3.891128642824962E-1   -3.093520050781416E-1
 9.937143925000000E9     4.740389394261154E-1   -9.767107791504814E-2   -5.397750776478705E-4   -5.249373352299912E-4   -6.084002138802709E-4   -5.053746532523414E-4    3.889640742093167E-1   -3.095387206682012E-1
 9.937146666075001E9     4.739471793363792E-1   -9.789998588695130E-2   -5.599533580651675E-4   -5.272309204800995E-4   -6.045677350871804E-4   -5.342978726370239E-4    3.887039432677633E-1   -3.099649198148867E-1
 9.937149407150000E9     4.739748943477677E-1   -9.801933787160114E-2   -6.061251413463553E-4   -5.443186635511146E-4   -5.896931471706514E-4   -5.351402808849666E-4    3.885195011425371E-1   -3.098594596575688E-1
 9.937152148225000E9     4.738750610232302E-1   -9.813156388744104E-2   -6.044125231404230E-4   -5.514292259811650E-4   -6.096597466572535E-4   -5.515598514466618E-4    3.882791120656588E-1   -3.102712189312714E-1
 9.937154889299999E9     4.739199648064481E-1   -9.847339649756467E-2   -6.212937552408744E-4   -5.698284738219800E-4   -6.243566422376011E-4   -5.580168298207743E-4    3.878949298126834E-1   -3.102797518711750E-1
 9.937157630375000E9     4.738340685074697E-1   -9.860527154606866E-2   -6.144813080224780E-4   -5.860182696515706E-4   -6.564850404480086E-4   -5.729009162369789E-4    3.878541268949307E-1   -3.107405120348301E-1
 9.937160371450001E9     4.736966742448046E-1   -9.875116878750835E-2   -6.538707514410095E-4   -6.022198608606515E-4   -6.656676695689076E-4   -6.067847543673324E-4    3.874811740257361E-1   -3.108989406293876E-1
 9.937163112525000E9     4.736647780550607E-1   -9.899052790650154E-2   -6.644090761741850E-4   -6.089897110075114E-4   -6.537467045298098E-4   -5.954896914093120E-4    3.873728139428019E-1   -3.109323709537187E-1
 9.937165853600000E9     4.736603432382144E-1   -9.918752983074526E-2   -6.542451382419044E-4   -5.842161632509416E-4   -6.716791257139003E-4   -6.249305506494237E-4    3.871942910863186E-1   -3.112596865630276E-1
 9.937168594674999E9     4.735768588723656E-1   -9.935564743863121E-2   -6.954615030796966E-4   -6.217513836024434E-4   -7.115709612566535E-4   -6.013683503747072E-4    3.866747174341749E-1   -3.116989390659739E-1
 9.937171335750000E9     4.735702542672074E-1   -9.943622577979291E-2   -7.123088430863965E-4   -6.794479154593858E-4   -6.796899526498542E-4   -6.267162108473570E-4    3.867293429832809E-1   -3.116882044159978E-1
 9.937174076825001E9     4.735639748541299E-1   -9.974951127258699E-2   -7.108552273358231E-4   -6.577021513276199E-4   -7.003087349403833E-4   -6.422827396390426E-4    3.862451550093274E-1   -3.119747421186277E-1
 9.937176817900000E9     4.733447235755830E-1   -9.998175888919604E-2   -7.022660289736165E-4   -6.797975223546041E-4   -7.255154488050315E-4   -6.615269655712931E-4    3.860997140688412E-1   -3.121977875230039E-1
 9.937179558975000E9     4.735753692119657E-1   -1.000810853321349E-1   -7.297512598533170E-4   -6.391884151143005E-4   -7.452817792256378E-4   -6.865203772050437E-4    3.857148803100698E-1   -3.123739256171782E-1
 9.937182300049999E9     4.732948865661073E-1   -1.003285407120508E-1   -7.539876285369525E-4   -6.765574418156604E-4   -7.684623259515941E-4   -6.944421565218141E-4    3.855622863482601E-1   -3.126232452360623E-1
 9.937185041125000E9     4.732437277720788E-1   -1.005013386248343E-1   -7.662010541400473E-4   -6.900663980896340E-4   -7.573301724784961E-4   -7.048575331291652E-4    3.854548214097057E-1   -3.127626871107959E-1
 9.937187782200001E9     4.731647160042233E-1   -1.005867748394686E-1   -7.748741783743595E-4   -6.901853798297130E-4   -7.994052412376038E-4   -7.065689126167936E-4    3.849927890536189E-1   -3.129996723419726E-1
 9.937190523275000E9     4.730717046905268E-1   -1.008390747765229E-1   -7.770345684099989E-4   -7.348398514677662E-4   -8.063458374481001E-4   -7.059551208506291E-4    3.846978962558970E-1   -3.135529225245821E-1
 9.937193264350000E9     4.731538420933021E-1   -1.010090653049410E-1   -8.284440810521028E-4   -7.107981528607147E-4   -8.214059176668816E-4   -7.563495761493074E-4    3.843308089674553E-1   -3.133522432834274E-1
 9.937196005424999E9     4.730518597248806E-1   -1.011470240094045E-1   -8.167079152839515E-4   -7.494306412677808E-4   -8.557946409115443E-4   -7.216043344868230E-4    3.843127110059656E-1   -3.140306138602346E-1
 9.937198746500000E9     4.731724630206879E-1   -1.014006421648414E-1   -8.268065008463734E-4   -7.773925273935016E-4   -8.491113146646719E-4   -7.326647901678384E-4    3.839781419174917E-1   -3.138899836230535E-1
 9.937201487575001E9     4.730341633982320E-1   -1.014241219262170E-1   -8.425900394241533E-4   -7.691398138024074E-4   -8.424669515305481E-4   -7.545211880968121E-4    3.838501359325074E-1   -3.142054050554212E-1
 9.937204228650000E9     4.729633490313436E-1   -1.018181616171585E-1   -8.578667947390292E-4   -7.864202741306975E-4   -8.789125937473492E-4   -8.106799545050433E-4    3.834067428824455E-1   -3.143713243872749E-1
 9.937206969725000E9     4.728939163883598E-1   -1.018731718225731E-1   -8.559221260574566E-4   -7.990362671352858E-4   -9.021818053012521E-4   -7.911194927869915E-4    3.831938325978958E-1   -3.146888181566606E-1
 9.937209710799999E9     4.727430832367143E-1   -1.020655133061782E-1   -9.116860120041000E-4   -8.161493861959677E-4   -9.001074930763902E-4   -7.966255733962599E-4    3.829593141743375E-1   -3.148005751745607E-1
 9.937212451875000E9     4.727091172315422E-1   -1.023504046822554E-1   -9.378837856356528E-4   -8.411103181615391E-4   -9.235733562034018E-4   -8.446411006415330E-4    3.826387638952987E-1   -3.151510032482346E-1
 9.937215192950001E9     4.727010474443861E-1   -1.024828747628966E-1   -9.484820267752259E-4   -8.527013467810119E-4   -9.568888021425382E-4   -8.328512139997851E-4    3.822381210993647E-1   -3.151598568136596E-1
 9.937217934025000E9     4.726933965634170E-1   -1.027253020275322E-1   -9.586088379462737E-4   -8.498784519945192E-4   -9.675113464926363E-4   -8.564226526073339E-4    3.821952717512942E-1   -3.154608514371635E-1
 9.937220675100000E9     4.726164449634674E-1   -1.028372041739362E-1   -9.264455304032673E-4   -8.931014110354328E-4   -9.697563400724439E-4   -8.540991690968896E-4    3.818472854506049E-1   -3.156272439693072E-1
 9.937223416174999E9     4.725913480129080E-1   -1.029481958893356E-1   -9.468690990245824E-4   -9.380000109058973E-4   -1.020175843082022E-3   -8.968813492722157E-4    3.817659644297287E-1   -3.162448241176046E-1
 9.937226157250000E9     4.726937282918824E-1   -1.032354184246545E-1   -9.956319347220190E-4   -9.227667516128472E-4   -1.066340903774910E-3   -9.260829102286297E-4    3.813102185845788E-1   -3.162450499695134E-1
 9.937228898325001E9     4.725343313825707E-1   -1.033673065662679E-1   -1.018831390719871E-3   -9.294219867183057E-4   -1.054481155833457E-3   -9.220185882556674E-4    3.810404647153770E-1   -3.164235421025438E-1
 9.937231639400000E9     4.725604181522202E-1   -1.035655202932836E-1   -1.041993334475373E-3   -9.557675474727018E-4   -1.072451663194254E-3   -9.720723542776961E-4    3.806197948445819E-1   -3.169101456992633E-1
 9.937234380475000E9     4.723522138853894E-1   -1.038529425294530E-1   -1.063182100983881E-3   -9.458834449496913E-4   -1.058222548832188E-3   -9.408027297444979E-4    3.804520626872901E-1   -3.169359007304394E-1
 9.937237121549999E9     4.723016423109051E-1   -1.038413220702029E-1   -1.052396521169298E-3   -9.487102630803432E-4   -1.082065056139494E-3   -9.909049497402271E-4    3.802264542228276E-1   -3.170539444480195E-1
 9.937239862625000E9     4.723710600269647E-1   -1.041087301655435E-1   -1.094537900750580E-3   -9.726580405946617E-4   -1.126119095326645E-3   -9.588838409973929E-4    3.796910330342571E-1   -3.173106871238379E-1
 9.937242603700001E9     4.722123554756165E-1   -1.043323616526118E-1   -1.120271727318420E-3   -1.010283232252353E-3   -1.170375744228297E-3   -9.832080752874572E-4    3.794843672545485E-1   -3.177177985645892E-1
 9.937245344775000E9     4.722108426363099E-1   -1.044848916267041E-1   -1.136958000319384E-3   -1.017050457171993E-3   -1.144802295364044E-3   -1.033659897409894E-3    3.792191405996479E-1   -3.180535352187548E-1
 9.937248085850000E9     4.720580595401436E-1   -1.046482144014834E-1   -1.155090232364970E-3   -1.038238679212370E-3   -1.186134866878054E-3   -1.028457679350032E-3    3.787950440952393E-1   -3.180271761108820E-1
 9.937250826924999E9     4.721338864658249E-1   -1.048423184975054E-1   -1.185886168950010E-3   -1.077916414070067E-3   -1.235011946455555E-3   -1.044009158237022E-3    3.784637734695584E-1   -3.184816372664642E-1
 9.937253568000000E9     4.719758745189408E-1   -1.050539791353114E-1   -1.222757684932593E-3   -1.070109702186821E-3   -1.242842630169001E-3   -1.063230771111772E-3    3.781682222329269E-1   -3.185286054830235E-1
 9.937256309075001E9     4.719223906330572E-1   -1.052048314232991E-1   -1.227775850627479E-3   -1.098214891827266E-3   -1.247940368280465E-3   -1.107208650808264E-3    3.779191573801545E-1   -3.187591901694873E-1
 9.937259050150000E9     4.718932312057254E-1   -1.054393065639275E-1   -1.237458496643713E-3   -1.129574677393496E-3   -1.289977210972356E-3   -1.092706328110391E-3    3.774745139222393E-1   -3.190921716236008E-1
 9.937261791225000E9     4.719245738323661E-1   -1.056254877799797E-1   -1.262655587470232E-3   -1.137918789849913E-3   -1.295910739903749E-3   -1.093299784459106E-3    3.772825221320877E-1   -3.193177804880842E-1
 9.937264532299999E9     4.716177009162125E-1   -1.058411497874892E-1   -1.303125105347530E-3   -1.131827975371743E-3   -1.315696854578627E-3   -1.119168972364575E-3    3.769479919814682E-1   -3.197690189629208E-1
 9.937267273375000E9     4.717111013351895E-1   -1.058838006167142E-1   -1.307621770218713E-3   -1.153609743842208E-3   -1.354994494105238E-3   -1.153900720631240E-3    3.765540797558529E-1   -3.198574469110575E-1
 9.937270014450001E9     4.715847039146305E-1   -1.061559033382133E-1   -1.357709143650529E-3   -1.162762028947393E-3   -1.422982947936292E-3   -1.167673511312477E-3    3.763390680788929E-1   -3.200626925794871E-1
 9.937272755525000E9     4.715021202087505E-1   -1.063029881993642E-1   -1.341957013822324E-3   -1.181268844814173E-3   -1.361055249245194E-3   -1.212619654200505E-3    3.757919391329826E-1   -3.202775045494709E-1
 9.937275496600000E9     4.714333900182689E-1   -1.065775965886795E-1   -1.392588497006737E-3   -1.215471795707339E-3   -1.422631654687659E-3   -1.195230202274792E-3    3.755603899359851E-1   -3.205004611951161E-1
 9.937278237674999E9     4.714088066458687E-1   -1.067236107759792E-1   -1.411310887222678E-3   -1.218781831985248E-3   -1.466591507153200E-3   -1.199018440696546E-3    3.750460409105447E-1   -3.208899984460541E-1
 9.937280978750000E9     4.713466480268926E-1   -1.068790260912311E-1   -1.441058637013632E-3   -1.223166791015588E-3   -1.438094988301550E-3   -1.251790704228025E-3    3.748798495874936E-1   -3.210303824540752E-1
