#  HZ   S   RI   R     50.00 
! Rohde & Schwarz Vector Network Analyzer 
! Rohde-Schwarz,ZNB20-2Port,1311601062101988,3.16
! Created: UTC 3/20/2024, 11:06:46 PM
! freq[Hz]                re:S11                  im:S11                  re:S21                  im:S21                  re:S12                  im:S12                  re:S22                  im:S22
 9.937010073000000E9     4.763833413228981E-1   -8.866001151305886E-2   -1.822720870133027E-4   -1.137955352792811E-4   -1.840807505646450E-4   -8.249922925294880E-5    3.983383832249627E-1   -3.001077760330251E-1
 9.937012901350000E9     4.763843589589220E-1   -8.887082819665355E-2   -2.160714486675741E-4   -1.207323766723412E-4   -1.958744320159026E-4   -1.085930456053926E-4    3.981652910782692E-1   -3.001973383881877E-1
 9.937015729700001E9     4.763785844654551E-1   -8.926251111835722E-2   -1.941904780541505E-4   -1.336506077353554E-4   -2.021046971602468E-4   -1.358388314901414E-4    3.980507556007793E-1   -3.005555894647994E-1
 9.937018558049999E9     4.761434276922814E-1   -8.922915165886502E-2   -2.095702506133701E-4   -1.638250337682593E-4   -2.101531529418550E-4   -1.189887236778765E-4    3.978401969309673E-1   -3.006446245153091E-1
 9.937021386400000E9     4.762453959672152E-1   -8.945156228977154E-2   -2.377550140831526E-4   -1.592125517954327E-4   -2.019628835789084E-4   -1.470834866597698E-4    3.976405822372556E-1   -3.009507333621526E-1
 9.937024214750000E9     4.761821552275460E-1   -8.963912062917152E-2   -2.100382423568756E-4   -1.540227368633745E-4   -2.151609759614453E-4   -1.544485662827251E-4    3.974784202265459E-1   -3.010439539405558E-1
 9.937027043100000E9     4.761823751051571E-1   -8.993805467480674E-2   -2.176716485350381E-4   -1.607619517172237E-4   -2.450106274409989E-4   -1.566444619864334E-4    3.973251133646105E-1   -3.011572860816868E-1
 9.937029871450001E9     4.761978974147387E-1   -9.018052513339571E-2   -2.396418557998712E-4   -2.120967889204402E-4   -2.595519998990914E-4   -1.872898099201349E-4    3.969854188090070E-1   -3.014759608797001E-1
 9.937032699799999E9     4.759487201895686E-1   -9.032367505552276E-2   -2.381420934841383E-4   -1.617551970147374E-4   -2.561806983621069E-4   -1.751812025441545E-4    3.968874625606007E-1   -3.016794597021356E-1
 9.937035528150000E9     4.759279022843144E-1   -9.035590574324000E-2   -2.745522542338519E-4   -2.246252977614692E-4   -2.441710529858945E-4   -1.801280516748750E-4    3.965741853079718E-1   -3.018296919680319E-1
 9.937038356500000E9     4.759828738792197E-1   -9.061186008795502E-2   -2.436073211272643E-4   -1.728344255166417E-4   -3.081330266569006E-4   -2.064896235669326E-4    3.965391750989417E-1   -3.020738483908328E-1
 9.937041184850000E9     4.759115386825941E-1   -9.081943775974022E-2   -2.783252401285437E-4   -1.937165780382902E-4   -2.699070510300238E-4   -2.033265085003716E-4    3.962783962301256E-1   -3.022925560948471E-1
 9.937044013200001E9     4.757658970414858E-1   -9.099044611650461E-2   -2.886907710736179E-4   -1.947132903002402E-4   -2.811493284404016E-4   -2.160383473364834E-4    3.962279926203536E-1   -3.025338687502387E-1
 9.937046841549999E9     4.756554272706014E-1   -9.131094490778723E-2   -2.594180982400031E-4   -2.281755861114885E-4   -2.781163002803199E-4   -2.022237356127216E-4    3.959492491650923E-1   -3.027434376783044E-1
 9.937049669900000E9     4.758496248510078E-1   -9.153022836823377E-2   -3.175505872499143E-4   -2.206286183745041E-4   -3.022117081488800E-4   -1.969217812201334E-4    3.958328041192398E-1   -3.028879566063375E-1
 9.937052498250000E9     4.756713824249397E-1   -9.178278703147194E-2   -3.195578576029240E-4   -2.360532673467128E-4   -3.011349464699515E-4   -2.369028154512558E-4    3.953615714557114E-1   -3.029089509697736E-1
 9.937055326600000E9     4.756857622527932E-1   -9.173182688235287E-2   -3.373763977370435E-4   -2.682867699630749E-4   -3.241357104928918E-4   -2.275798964882422E-4    3.954558828170832E-1   -3.031883282782326E-1
 9.937058154950001E9     4.755825417740540E-1   -9.206369165365003E-2   -2.858555715258982E-4   -2.572064145619773E-4   -3.312375698269836E-4   -2.731232731270691E-4    3.951329885656368E-1   -3.034239722540505E-1
 9.937060983299999E9     4.755329506548739E-1   -9.215834910545442E-2   -3.028469028797812E-4   -2.384252948678314E-4   -3.095271732052639E-4   -2.503825986293789E-4    3.949287472884271E-1   -3.037268890810647E-1
 9.937063811650000E9     4.755557580471670E-1   -9.233808663097368E-2   -3.469592127831363E-4   -2.799685174010362E-4   -3.362541864367008E-4   -2.635719104019321E-4    3.947600817360625E-1   -3.039271232771841E-1
 9.937066640000000E9     4.755082402598349E-1   -9.245283853632254E-2   -3.255661889118608E-4   -3.093650329292087E-4   -3.282830842588166E-4   -2.576713188753638E-4    3.943873379057996E-1   -3.043490724499401E-1
 9.937069468350000E9     4.753320463634003E-1   -9.285033520810122E-2   -3.396262166150591E-4   -3.053881664542962E-4   -3.392890695067887E-4   -2.693394038805662E-4    3.943950742805169E-1   -3.043202986547044E-1
 9.937072296700001E9     4.753839664606923E-1   -9.295592567444257E-2   -3.270335285161379E-4   -2.921093622975828E-4   -3.487922125995794E-4   -2.603460774103685E-4    3.942165804487846E-1   -3.045149412628481E-1
 9.937075125049999E9     4.752868404688646E-1   -9.306109289853000E-2   -3.707466622872024E-4   -2.940244297593830E-4   -3.461713130293588E-4   -2.935356269100044E-4    3.940467336428277E-1   -3.049535612963121E-1
 9.937077953400000E9     4.752608371961958E-1   -9.349420857873875E-2   -3.634504236570768E-4   -3.225804429413734E-4   -3.611168174377331E-4   -3.555501020373976E-4    3.936953208784465E-1   -3.049493028368664E-1
 9.937080781750000E9     4.750959037191042E-1   -9.355471736769425E-2   -3.830361463062073E-4   -3.325486054484316E-4   -3.770402972121258E-4   -3.045116475511775E-4    3.935376236988888E-1   -3.052331348366220E-1
 9.937083610100000E9     4.751778890801561E-1   -9.367251280607965E-2   -3.986913287909483E-4   -3.448162750297618E-4   -3.886697944558805E-4   -3.416518263370060E-4    3.932192798595823E-1   -3.053339164659323E-1
 9.937086438450001E9     4.750941497004609E-1   -9.392061508090591E-2   -4.077340610513269E-4   -3.370292860123343E-4   -3.953839513010773E-4   -3.635882771316314E-4    3.931162903102996E-1   -3.053533586899549E-1
 9.937089266799999E9     4.750362317139797E-1   -9.422236207922549E-2   -3.870940651470354E-4   -3.478329814839097E-4   -4.084017384468537E-4   -3.313361294298415E-4    3.929611474422132E-1   -3.057238591133673E-1
 9.937092095150000E9     4.749158774715263E-1   -9.430799333044215E-2   -4.080409853348391E-4   -3.479307094025924E-4   -3.929175509670338E-4   -3.463118596104804E-4    3.925520342974443E-1   -3.058730806436764E-1
 9.937094923500000E9     4.749261988856879E-1   -9.449395302550044E-2   -4.010228036099068E-4   -3.589345125043353E-4   -4.304974882435111E-4   -3.757544163566847E-4    3.925058203910761E-1   -3.061722676189704E-1
 9.937097751850000E9     4.748101409188681E-1   -9.472139644260652E-2   -4.474441087994989E-4   -3.792828114587623E-4   -4.319195554998313E-4   -3.632569083770265E-4    3.922850951075916E-1   -3.062711300605035E-1
 9.937100580200001E9     4.748765516183807E-1   -9.494269570522483E-2   -4.402947495120184E-4   -4.072493021347624E-4   -4.287072963016978E-4   -3.921788663383462E-4    3.920781775511101E-1   -3.068744381837696E-1
 9.937103408549999E9     4.747986522996857E-1   -9.521782227620160E-2   -4.354779149758721E-4   -4.089887789279533E-4   -4.576461443476851E-4   -3.545804010462159E-4    3.918028265537740E-1   -3.067522788435305E-1
 9.937106236900000E9     4.746325178825883E-1   -9.531621999111652E-2   -4.319676292934965E-4   -4.046035184732457E-4   -4.924819586519910E-4   -4.000605727539821E-4    3.917461608024246E-1   -3.069614923845516E-1
 9.937109065250000E9     4.746652838816413E-1   -9.544967019309185E-2   -4.605814385643820E-4   -4.515251898218249E-4   -4.657000158633474E-4   -4.024559376418232E-4    3.913120536350608E-1   -3.071916087348533E-1
 9.937111893600000E9     4.746703479873969E-1   -9.565453323774757E-2   -4.558946279547406E-4   -4.216662561302129E-4   -5.071117481641649E-4   -4.494153382624584E-4    3.911951354773727E-1   -3.073663445241389E-1
 9.937114721950001E9     4.744130571465021E-1   -9.585405404142450E-2   -5.189100249990579E-4   -4.195111302639189E-4   -5.162199054588152E-4   -4.286696696917738E-4    3.908348662962364E-1   -3.074796701068315E-1
 9.937117550299999E9     4.744422865328591E-1   -9.594700617805037E-2   -5.199549338832864E-4   -4.646479755121575E-4   -5.163505183957731E-4   -4.590806673130370E-4    3.907505490330746E-1   -3.081933358383826E-1
 9.937120378650000E9     4.744024161376346E-1   -9.621502851066538E-2   -5.289764356850748E-4   -4.571375347602530E-4   -5.413533345881242E-4   -4.512586403451211E-4    3.906022775702515E-1   -3.080007582197427E-1
 9.937123207000000E9     4.743265290668225E-1   -9.633413552886277E-2   -5.129993264881498E-4   -4.618877786865063E-4   -5.592498868933967E-4   -4.465756949154531E-4    3.901580901813770E-1   -3.083533564711078E-1
 9.937126035350000E9     4.742365987192610E-1   -9.667583596121215E-2   -5.112727144921428E-4   -4.984416237661889E-4   -5.560784158493911E-4   -4.816147694655413E-4    3.901634794992874E-1   -3.084504141111577E-1
 9.937128863700001E9     4.742226689052008E-1   -9.686180849666277E-2   -5.444889033425778E-4   -4.676285733283558E-4   -5.612169858194114E-4   -4.800824829572880E-4    3.898119674705229E-1   -3.087056834976825E-1
 9.937131692049999E9     4.742592563255351E-1   -9.699872863344597E-2   -5.255598661710411E-4   -4.952020051151460E-4   -5.784845519812980E-4   -4.756478573217858E-4    3.896468668951451E-1   -3.088593509437771E-1
 9.937134520400000E9     4.741177511702482E-1   -9.722346524497344E-2   -5.611828505662958E-4   -5.077669639801519E-4   -5.887207861045339E-4   -4.940292214846117E-4    3.895168890720078E-1   -3.089856270948156E-1
 9.937137348750000E9     4.741420651826132E-1   -9.745272467073519E-2   -5.857968329864343E-4   -5.196027618862717E-4   -6.348258977190085E-4   -5.175393946644695E-4    3.890443551750428E-1   -3.095135269684240E-1
 9.937140177100000E9     4.741403225235783E-1   -9.739536130328134E-2   -5.979218226746354E-4   -5.706048547574441E-4   -5.549657672169663E-4   -5.251261906112451E-4    3.891195396208939E-1   -3.094832326674862E-1
 9.937143005450001E9     4.739586153295679E-1   -9.774291956257318E-2   -5.972429712934108E-4   -5.673006556784772E-4   -6.130772270421094E-4   -5.187514596438003E-4    3.887301757358739E-1   -3.098571518057629E-1
 9.937145833799999E9     4.739828167964230E-1   -9.785706169569409E-2   -6.125813360573505E-4   -5.574011811788615E-4   -6.402404828853416E-4   -5.642704890794156E-4    3.883229395398362E-1   -3.099329377362215E-1
 9.937148662150000E9     4.739795064738488E-1   -9.827106358948308E-2   -6.061129228872244E-4   -6.065836081808336E-4   -6.402234833294911E-4   -5.733107003180675E-4    3.882961920040443E-1   -3.105432254134655E-1
 9.937151490500000E9     4.739617838696945E-1   -9.840304531794151E-2   -6.141137097114184E-4   -5.747384928522184E-4   -6.331100915350374E-4   -6.046422208785704E-4    3.877650869571931E-1   -3.105456391637436E-1
 9.937154318850000E9     4.738265560824719E-1   -9.859827302085919E-2   -6.696050367544544E-4   -6.171917945505497E-4   -6.773140433398918E-4   -5.823490215183903E-4    3.876656019453056E-1   -3.106352742569634E-1
 9.937157147200001E9     4.737894246784763E-1   -9.869264441918309E-2   -6.623633390885672E-4   -5.582553910175666E-4   -6.786923282373515E-4   -6.054488735323843E-4    3.874922228605877E-1   -3.107634156052695E-1
 9.937159975549999E9     4.738941952231405E-1   -9.900067489804872E-2   -6.960939438702978E-4   -6.026619575617858E-4   -6.854560117660435E-4   -6.107147266782210E-4    3.871612320172734E-1   -3.110818418198307E-1
 9.937162803900000E9     4.737290724527752E-1   -9.919925717553249E-2   -6.736045504904507E-4   -6.166212218067807E-4   -6.853321398108676E-4   -6.326434428809129E-4    3.869585909056256E-1   -3.114015859362756E-1
 9.937165632250000E9     4.735575403039167E-1   -9.924853797585241E-2   -7.247548414036261E-4   -6.208739117564423E-4   -7.070943247121427E-4   -6.373615483522862E-4    3.867327817125923E-1   -3.116176858930090E-1
 9.937168460600000E9     4.736750634267851E-1   -9.951647158737362E-2   -7.090309846212701E-4   -6.572269265513548E-4   -6.903525322044941E-4   -6.505920314616411E-4    3.865660744524231E-1   -3.117596499717155E-1
 9.937171288950001E9     4.733671035000372E-1   -9.964843935958785E-2   -7.054090296170304E-4   -6.625852695813830E-4   -7.379450773524578E-4   -6.775321448282271E-4    3.861698850150501E-1   -3.121083825420303E-1
 9.937174117299999E9     4.735326796040211E-1   -9.978660731689112E-2   -7.327296227767746E-4   -6.933941763120202E-4   -7.604526136385713E-4   -6.850341109630031E-4    3.859012781509160E-1   -3.122167868066418E-1
 9.937176945650000E9     4.733515421016034E-1   -1.000446350719955E-1   -7.595458757858332E-4   -6.934384203399303E-4   -7.504435521612606E-4   -6.760986849928037E-4    3.855524105500823E-1   -3.125823036097419E-1
 9.937179774000000E9     4.734754300268623E-1   -1.002154749926646E-1   -7.704994093260085E-4   -7.183958757366848E-4   -7.861520072424736E-4   -6.859291291098208E-4    3.851728021078367E-1   -3.127210385402051E-1
 9.937182602350000E9     4.733758393031017E-1   -1.004977916014239E-1   -7.757172169110053E-4   -7.106808573049075E-4   -7.629423770670790E-4   -7.394605605417589E-4    3.853462139517640E-1   -3.130898415652539E-1
 9.937185430700001E9     4.733776572606932E-1   -1.005022653758992E-1   -8.256312839671053E-4   -7.482601290299452E-4   -8.632764715337052E-4   -7.198070687153829E-4    3.849621170154320E-1   -3.130728814080506E-1
 9.937188259049999E9     4.732313963237423E-1   -1.008371857071423E-1   -7.962948154727619E-4   -7.599405093073624E-4   -8.245050679967494E-4   -7.526893168563896E-4    3.845157132023092E-1   -3.132621671110269E-1
 9.937191087400000E9     4.730314928876584E-1   -1.009242686922111E-1   -8.314304081077883E-4   -7.729788820796499E-4   -8.747031237488659E-4   -7.533934935633800E-4    3.842443265684669E-1   -3.136004542493027E-1
 9.937193915750000E9     4.730306100800313E-1   -1.011388859537787E-1   -8.813254669889866E-4   -7.756330025046132E-4   -8.511491078772252E-4   -7.469327173782134E-4    3.841188680850748E-1   -3.137464721970924E-1
 9.937196744100000E9     4.729995827691874E-1   -1.014125356976137E-1   -8.684477749987965E-4   -8.035106277337311E-4   -8.578803980772704E-4   -7.781094369376674E-4    3.835898196002235E-1   -3.142505854634252E-1
 9.937199572450001E9     4.731178982828960E-1   -1.015575061064708E-1   -8.782156894749831E-4   -7.793978037385350E-4   -9.090240233188448E-4   -7.812291844175090E-4    3.836113888841431E-1   -3.142037174783450E-1
 9.937202400799999E9     4.727817177644046E-1   -1.017933345829422E-1   -8.968275900033232E-4   -8.045763546280550E-4   -9.063777574460481E-4   -8.033606049501474E-4    3.832380961405106E-1   -3.143879799621804E-1
 9.937205229150000E9     4.727802048362709E-1   -1.020315557530973E-1   -8.765411388297905E-4   -7.951034664278959E-4   -9.129319509343547E-4   -8.209189678501409E-4    3.829490939880053E-1   -3.146187441700006E-1
 9.937208057500000E9     4.726999163338908E-1   -1.021058550233833E-1   -9.328948361013862E-4   -8.449094246213586E-4   -9.693321093772827E-4   -8.253890371673047E-4    3.829572691406685E-1   -3.148044769482685E-1
 9.937210885850000E9     4.728113762910761E-1   -1.025623383391543E-1   -9.439302843985358E-4   -8.097779086288744E-4   -9.808768871155268E-4   -8.766740166572565E-4    3.823708025046839E-1   -3.151427667443256E-1
 9.937213714200001E9     4.728032082166829E-1   -1.025866953801384E-1   -9.732748654321463E-4   -8.736221902488028E-4   -9.822306644529679E-4   -8.672071000730122E-4    3.821257875888766E-1   -3.153896321785452E-1
 9.937216542549999E9     4.726395844679986E-1   -1.026400324110475E-1   -9.880179385590125E-4   -8.807089894927991E-4   -1.021854905047987E-3   -8.888696415510949E-4    3.819438847166622E-1   -3.157252326476654E-1
 9.937219370900000E9     4.725569362218379E-1   -1.030677419762575E-1   -1.028536960798942E-3   -9.102519820173968E-4   -1.055153465960600E-3   -8.967836200565065E-4    3.815914713960452E-1   -3.160947332415236E-1
 9.937222199250000E9     4.725754308625124E-1   -1.031458165988588E-1   -9.970326483545911E-4   -9.023993345854075E-4   -1.032193621093349E-3   -9.304668797954158E-4    3.811750254828799E-1   -3.161056328773066E-1
 9.937225027600000E9     4.724285876157045E-1   -1.031299683127862E-1   -9.983942889900935E-4   -9.404017419906819E-4   -1.062160518514388E-3   -9.270161105620232E-4    3.808020096505256E-1   -3.164118149851200E-1
 9.937227855950001E9     4.724113759782439E-1   -1.034762281245120E-1   -1.074175818796398E-3   -9.366852985524772E-4   -1.055023932683834E-3   -9.514438633598006E-4    3.806928213126000E-1   -3.167224861381451E-1
 9.937230684299999E9     4.724004589669886E-1   -1.037548529766743E-1   -1.067232105826466E-3   -1.000788072827189E-3   -1.105715262857865E-3   -9.687696732570507E-4    3.803100077877563E-1   -3.168817641342186E-1
 9.937233512650000E9     4.722749023398189E-1   -1.039621310964293E-1   -1.097783721481664E-3   -9.956839958486711E-4   -1.134845146152725E-3   -9.657342992716168E-4    3.798670899708365E-1   -3.170560230135014E-1
 9.937236341000000E9     4.723382214327855E-1   -1.040895721345882E-1   -1.080562194158243E-3   -1.003212161494521E-3   -1.148882212478316E-3   -9.651858517167604E-4    3.795757845505801E-1   -3.173842278035897E-1
 9.937239169350000E9     4.721537598406146E-1   -1.042196821215847E-1   -1.151015111782810E-3   -1.021403846618719E-3   -1.172989461733326E-3   -1.020336638913286E-3    3.793470667868383E-1   -3.177072370560550E-1
 9.937241997700001E9     4.720085949255395E-1   -1.043455575911667E-1   -1.169101431392195E-3   -9.923023658468253E-4   -1.164666656750060E-3   -1.017739873230137E-3    3.789336211890157E-1   -3.178311346764073E-1
 9.937244826049999E9     4.721887627300612E-1   -1.045630652439232E-1   -1.194222623890249E-3   -1.036140424828323E-3   -1.216209296530492E-3   -1.045898181483061E-3    3.786882081098712E-1   -3.180799268807735E-1
 9.937247654400000E9     4.721754366874703E-1   -1.047889129196218E-1   -1.222791471919889E-3   -1.088102818800238E-3   -1.262355068948764E-3   -1.031531449198502E-3    3.782694273618150E-1   -3.185295070230066E-1
 9.937250482750000E9     4.720400771858386E-1   -1.049671938729043E-1   -1.202021002132270E-3   -1.096191775806238E-3   -1.261671187387786E-3   -1.087010769283950E-3    3.780195124009771E-1   -3.187917147607068E-1
 9.937253311100000E9     4.719336007523544E-1   -1.051692511943104E-1   -1.227615495194032E-3   -1.100033125824159E-3   -1.304110014987254E-3   -1.095506118295289E-3    3.777312476776457E-1   -3.189906583563435E-1
 9.937256139450001E9     4.719768746901753E-1   -1.054447352255477E-1   -1.304501597803988E-3   -1.106214940542135E-3   -1.300557985219947E-3   -1.136814883387516E-3    3.774194318720966E-1   -3.190380495411339E-1
 9.937258967799999E9     4.718951501999922E-1   -1.055367996555738E-1   -1.299531933976510E-3   -1.160716043663325E-3   -1.341005633387735E-3   -1.152587990985493E-3    3.771424223437367E-1   -3.194120303101440E-1
 9.937261796150000E9     4.718909273856911E-1   -1.057059847446532E-1   -1.321665066080140E-3   -1.133251811437895E-3   -1.361820787108888E-3   -1.142359538988475E-3    3.766305777665425E-1   -3.196370112441889E-1
 9.937264624500000E9     4.717827836841971E-1   -1.058933411020347E-1   -1.369701193521279E-3   -1.205778431133576E-3   -1.411586908164711E-3   -1.166191367643754E-3    3.763796852476249E-1   -3.200707057466863E-1
