#  HZ   S   RI   R     50.00 
! Rohde & Schwarz Vector Network Analyzer 
! Rohde-Schwarz,ZNB20-2Port,1311601062101988,3.16
! Created: UTC 3/20/2024, 11:06:53 PM
! freq[Hz]                re:S11                  im:S11                  re:S21                  im:S21                  re:S12                  im:S12                  re:S22                  im:S22
 9.937010792000000E9     4.764394096734045E-1   -8.882174341277392E-2   -2.107746233666685E-4   -1.379852084869437E-4   -2.180432078138894E-4   -1.309947036185142E-4    3.984225227695126E-1   -3.006424318562703E-1
 9.937013609525000E9     4.764762270300701E-1   -8.901699821860706E-2   -1.833908934687294E-4   -1.447600295669283E-4   -1.733582200305826E-4   -1.456190082441929E-4    3.980736860080629E-1   -3.008238606386460E-1
 9.937016427049999E9     4.763867895557115E-1   -8.928996022688400E-2   -2.148052063746585E-4   -1.502217265964438E-4   -2.082351812809821E-4   -1.731609136539162E-4    3.981603640840707E-1   -3.010721604881172E-1
 9.937019244575001E9     4.762119458490501E-1   -8.933478093288849E-2   -1.998122129552088E-4   -1.361089907435158E-4   -2.147968575925908E-4   -1.383255930127420E-4    3.979268931265884E-1   -3.012080982377516E-1
 9.937022062100000E9     4.762726392197328E-1   -8.954937134774719E-2   -2.124351681901660E-4   -1.513286648646863E-4   -2.322122114809036E-4   -1.570150832921973E-4    3.977327647475988E-1   -3.012609711642720E-1
 9.937024879625000E9     4.761525869220933E-1   -8.977104109989312E-2   -2.380385244562828E-4   -1.744386869342762E-4   -2.305269269443169E-4   -1.210706117743264E-4    3.976163282757893E-1   -3.014402354324454E-1
 9.937027697150000E9     4.760940637517346E-1   -9.005459518228291E-2   -2.456250580943015E-4   -1.394126386976900E-4   -2.413563574578952E-4   -1.753629291984685E-4    3.974487133014239E-1   -3.017810231642760E-1
 9.937030514674999E9     4.760974798805708E-1   -9.017674387319839E-2   -2.449723885179870E-4   -1.799129952161584E-4   -2.455695037683656E-4   -1.877181100235344E-4    3.971526161325101E-1   -3.018857587501043E-1
 9.937033332200001E9     4.758862750558652E-1   -9.029366837690035E-2   -2.333577822738974E-4   -2.091216627548511E-4   -2.345217056402851E-4   -1.947003512927096E-4    3.968586754213309E-1   -3.020979796613878E-1
 9.937036149725000E9     4.758599448427702E-1   -9.048646966787008E-2   -2.213151139797347E-4   -1.854394297894587E-4   -2.784002668284926E-4   -2.019084362009071E-4    3.966326967483036E-1   -3.022233823247576E-1
 9.937038967250000E9     4.758450109319164E-1   -9.073824434014766E-2   -2.837525738109383E-4   -1.961932771433296E-4   -2.907255854172918E-4   -2.085880305345183E-4    3.963950345698045E-1   -3.024549968133615E-1
 9.937041784775000E9     4.758303844526570E-1   -9.103116806247577E-2   -2.572997259094675E-4   -2.355461670363845E-4   -2.745310579352069E-4   -1.914307673017290E-4    3.962048266385325E-1   -3.026236171779482E-1
 9.937044602299999E9     4.758564867135531E-1   -9.114928146038988E-2   -3.117330329096708E-4   -2.317780779510772E-4   -3.151538857611709E-4   -2.249459558792303E-4    3.961493969766594E-1   -3.028563923018570E-1
 9.937047419825001E9     4.758015188542021E-1   -9.129456583319767E-2   -2.598850421955905E-4   -2.299577762693528E-4   -2.591761379505971E-4   -2.024657292350163E-4    3.960526026543229E-1   -3.032278809506288E-1
 9.937050237350000E9     4.757493890106155E-1   -9.150617677274714E-2   -3.074079439133418E-4   -2.315507393913745E-4   -3.074806612522462E-4   -2.392087687047014E-4    3.957969290699153E-1   -3.032325788367506E-1
 9.937053054875000E9     4.756615497961391E-1   -9.161773644403987E-2   -2.931643360699585E-4   -2.643798812627573E-4   -3.353508381077745E-4   -2.212871907533401E-4    3.955213098663984E-1   -3.035803163026884E-1
 9.937055872400000E9     4.755534064772461E-1   -9.189979002472017E-2   -3.260338827850536E-4   -2.321457319950555E-4   -3.381018851561235E-4   -2.379052067896753E-4    3.952688964185773E-1   -3.035253467138578E-1
 9.937058689924999E9     4.756755390719041E-1   -9.212738379964140E-2   -3.079104938104711E-4   -2.587972847393473E-4   -3.627970588781722E-4   -2.428091410399330E-4    3.952221224754597E-1   -3.040300730764295E-1
 9.937061507450001E9     4.754810840280033E-1   -9.234303346561752E-2   -3.167377884380531E-4   -2.757613098998936E-4   -3.537147439647611E-4   -2.769770562562021E-4    3.948874134901020E-1   -3.043608615454105E-1
 9.937064324975000E9     4.754254760795841E-1   -9.242254196172812E-2   -3.253810756434679E-4   -2.974507074749818E-4   -3.267053594489789E-4   -2.860448051769445E-4    3.948789241583091E-1   -3.043180076618879E-1
 9.937067142500000E9     4.753289719314039E-1   -9.272315898732668E-2   -3.755806220128137E-4   -2.914742172544513E-4   -3.096699030288795E-4   -2.866817072431889E-4    3.945519645247442E-1   -3.044098422612493E-1
 9.937069960025000E9     4.752632862847819E-1   -9.281540454941853E-2   -3.451579298598286E-4   -3.007047581891891E-4   -3.679304542274070E-4   -3.020940426374655E-4    3.942669655419383E-1   -3.045876191069926E-1
 9.937072777549999E9     4.753213443835791E-1   -9.307517061426815E-2   -3.658560516661311E-4   -2.885803330602143E-4   -3.827232970673025E-4   -2.976873285418377E-4    3.941016486597565E-1   -3.049078157508940E-1
 9.937075595075001E9     4.753057145114533E-1   -9.311485652998221E-2   -3.678687116892500E-4   -3.132881738896101E-4   -3.775277093102586E-4   -2.911057922843789E-4    3.939017741288275E-1   -3.051519341051810E-1
 9.937078412600000E9     4.751798808448105E-1   -9.344638855910162E-2   -3.889073776111389E-4   -3.195462165395482E-4   -3.960326821105876E-4   -2.885446918969803E-4    3.935222246621394E-1   -3.053213974868565E-1
 9.937081230125000E9     4.752597936294439E-1   -9.360529258271645E-2   -3.627310918787669E-4   -3.496548976122565E-4   -3.855868087352491E-4   -3.306223277813151E-4    3.934638715622449E-1   -3.054253008109709E-1
 9.937084047650000E9     4.749676704136356E-1   -9.381286690565910E-2   -3.810653794889831E-4   -3.292894067439311E-4   -3.808706029985667E-4   -3.223863015793533E-4    3.931699343962856E-1   -3.056668167996122E-1
 9.937086865174999E9     4.751642503555459E-1   -9.404562454906272E-2   -4.244448645422333E-4   -3.372469104697605E-4   -4.222442020085790E-4   -3.166584531640271E-4    3.929295708048669E-1   -3.059212339221601E-1
 9.937089682700001E9     4.748959668844902E-1   -9.419390449252035E-2   -4.217778006873597E-4   -3.354712576534395E-4   -4.263879611816105E-4   -3.773936840634293E-4    3.929052223820830E-1   -3.062329772226119E-1
 9.937092500225000E9     4.749415162843305E-1   -9.436817236314449E-2   -4.432041179188269E-4   -3.802227043895123E-4   -4.122566617272369E-4   -3.574031576077751E-4    3.926500508119652E-1   -3.063801150795535E-1
 9.937095317750000E9     4.747973577065925E-1   -9.443342220771690E-2   -4.365058846364078E-4   -3.803465078789415E-4   -4.707481483303099E-4   -3.883438899845519E-4    3.925027040458000E-1   -3.068053460596913E-1
 9.937098135275000E9     4.748481598915028E-1   -9.479588441097182E-2   -4.612277024146741E-4   -3.730705947848916E-4   -4.403519287624825E-4   -3.548410838191680E-4    3.922806098010387E-1   -3.068254841776519E-1
 9.937100952799999E9     4.748642485750778E-1   -9.496584934772311E-2   -4.812992785380526E-4   -3.969388875179077E-4   -4.410667024552198E-4   -4.198668243993215E-4    3.920490717943992E-1   -3.071332827465740E-1
 9.937103770325001E9     4.747796033477483E-1   -9.506842370304319E-2   -4.583156876831678E-4   -4.046780563862961E-4   -5.076619164157686E-4   -4.091343903290783E-4    3.918315272800337E-1   -3.074355134483448E-1
 9.937106587850000E9     4.746440971403272E-1   -9.535284280251628E-2   -4.626907836162015E-4   -4.209923441921129E-4   -4.893894089856114E-4   -4.066993625745355E-4    3.916495841298657E-1   -3.074692562407555E-1
 9.937109405375000E9     4.746841152734028E-1   -9.552397498100026E-2   -4.956496797353862E-4   -3.802371069360972E-4   -4.550109170523675E-4   -4.318416020919971E-4    3.913763593010479E-1   -3.077383765840430E-1
 9.937112222900000E9     4.746830335378327E-1   -9.568406162623354E-2   -4.782558498727662E-4   -4.298476364952105E-4   -5.360167204750912E-4   -4.397384641781596E-4    3.909970508832736E-1   -3.077288772198609E-1
 9.937115040424999E9     4.745994812489895E-1   -9.585833165998116E-2   -5.079135223528476E-4   -4.187580101786927E-4   -4.933219948537510E-4   -4.679509950769458E-4    3.909899070043605E-1   -3.081147615900864E-1
 9.937117857950001E9     4.744526117322015E-1   -9.604101859020334E-2   -5.221947122827024E-4   -4.792856309039285E-4   -5.137382966608821E-4   -4.497921547256275E-4    3.908457642260461E-1   -3.082604183591734E-1
 9.937120675475000E9     4.745104322796669E-1   -9.629763129204479E-2   -5.272246719986595E-4   -4.545894414452714E-4   -5.531982422578220E-4   -4.656291711799141E-4    3.906419757776935E-1   -3.083984708354496E-1
 9.937123493000000E9     4.744273926832674E-1   -9.641456514296307E-2   -5.478356901613255E-4   -4.546477943636965E-4   -5.588819784007267E-4   -5.066950756970190E-4    3.903034884425702E-1   -3.086939767804649E-1
 9.937126310525000E9     4.742914415987811E-1   -9.670505281218769E-2   -5.464530874465091E-4   -4.913472702957994E-4   -5.300327798032567E-4   -4.615288829074036E-4    3.901908252338130E-1   -3.089313985330503E-1
 9.937129128049999E9     4.742321140846407E-1   -9.690230677462869E-2   -5.706475239418905E-4   -4.962237979680897E-4   -5.763800755055267E-4   -4.668015371389425E-4    3.895299648301389E-1   -3.090723494473640E-1
 9.937131945575001E9     4.743050713633315E-1   -9.699167652224858E-2   -5.403508196368972E-4   -5.305962738161776E-4   -6.075028541545699E-4   -4.889118903968339E-4    3.894984783527830E-1   -3.094447396971473E-1
 9.937134763100000E9     4.742226995478788E-1   -9.728629332890670E-2   -5.674052862453213E-4   -5.181972735521276E-4   -5.965786663083615E-4   -5.352512098636234E-4    3.893723650428135E-1   -3.095784388120162E-1
 9.937137580625000E9     4.742187877323975E-1   -9.738842233690739E-2   -5.769555499217931E-4   -5.143979447775760E-4   -5.885176006155081E-4   -5.361367133249185E-4    3.889264810857347E-1   -3.098213031214282E-1
 9.937140398150000E9     4.742020915776251E-1   -9.764100040298060E-2   -5.936414581577553E-4   -5.566558523171244E-4   -6.316694220102911E-4   -5.128468860184964E-4    3.889293660695342E-1   -3.099906615872104E-1
 9.937143215674999E9     4.740432713720610E-1   -9.776951725705627E-2   -6.157376695695833E-4   -5.653315067403603E-4   -6.183168816205396E-4   -5.785206836615622E-4    3.887049778981519E-1   -3.103519070348158E-1
 9.937146033200001E9     4.739821426436077E-1   -9.794224559337882E-2   -5.794358802110485E-4   -5.661910570148193E-4   -6.416928633371478E-4   -5.379683886103953E-4    3.885417452712389E-1   -3.106923009859996E-1
 9.937148850725000E9     4.739166791487611E-1   -9.814130358472152E-2   -6.529263802205068E-4   -5.434705907805553E-4   -6.457165174563574E-4   -5.721114450006578E-4    3.882880043902671E-1   -3.107942119226311E-1
 9.937151668250000E9     4.739642748284565E-1   -9.857123184560289E-2   -6.319326954607511E-4   -5.941667625516902E-4   -6.297723435042924E-4   -6.014753336829648E-4    3.880200550421230E-1   -3.110086676371224E-1
 9.937154485775000E9     4.738233167833960E-1   -9.852285485660443E-2   -6.568595366151836E-4   -6.182031278287402E-4   -6.774655748125896E-4   -6.179357611955351E-4    3.877306085028791E-1   -3.111288797046453E-1
 9.937157303299999E9     4.737892456541801E-1   -9.876331323027333E-2   -6.814206972087223E-4   -5.983990523866641E-4   -6.631553459471999E-4   -5.923983365597283E-4    3.875338044824718E-1   -3.113057006124801E-1
 9.937160120825001E9     4.737285897431855E-1   -9.895355121093014E-2   -6.893598779409485E-4   -6.327003963955884E-4   -6.960916928584434E-4   -6.287189724255931E-4    3.871798440578767E-1   -3.115589819722925E-1
 9.937162938350000E9     4.737551581390335E-1   -9.912108023472302E-2   -6.978466800705550E-4   -6.357380290078965E-4   -7.068260216832156E-4   -6.154237333147864E-4    3.870076958381741E-1   -3.118433903780733E-1
 9.937165755875000E9     4.736249301395656E-1   -9.933864152327336E-2   -7.350568106469810E-4   -6.306464807340483E-4   -7.212576245657858E-4   -6.475644098237109E-4    3.866907731200124E-1   -3.118477793620182E-1
 9.937168573400000E9     4.735931134424560E-1   -9.955747207923273E-2   -7.491355020694437E-4   -6.719507786749725E-4   -7.641558430657048E-4   -6.684966183850887E-4    3.863757419022985E-1   -3.122329152480851E-1
 9.937171390924999E9     4.736263008309996E-1   -9.974455532226899E-2   -7.429703128081623E-4   -6.933916827659725E-4   -7.872336157706254E-4   -7.012050066427384E-4    3.860825711288424E-1   -3.124948869662866E-1
 9.937174208450001E9     4.735391604974163E-1   -9.993265161680674E-2   -7.536326677016582E-4   -6.797315739514718E-4   -7.621193910586863E-4   -6.908535099485238E-4    3.859689283498531E-1   -3.128099023237240E-1
 9.937177025975000E9     4.734305323849565E-1   -1.000392488909494E-1   -7.972558981618389E-4   -6.958262609462111E-4   -7.762046984918756E-4   -7.040346148743861E-4    3.856148596730876E-1   -3.129594748965552E-1
 9.937179843500000E9     4.733413180988612E-1   -1.004533972821414E-1   -8.064921877045760E-4   -7.061593226637032E-4   -7.916096055502897E-4   -7.159759620359786E-4    3.853777305749704E-1   -3.130451140002781E-1
 9.937182661025000E9     4.733329480844826E-1   -1.005638151317992E-1   -8.180671850513467E-4   -7.067351192390915E-4   -8.207302572631114E-4   -7.324611594981360E-4    3.849333360800931E-1   -3.133244565429998E-1
 9.937185478549999E9     4.732437705779887E-1   -1.006442026430051E-1   -8.087630325445960E-4   -7.573426122522477E-4   -8.462211950395820E-4   -7.495067128014008E-4    3.848369110028045E-1   -3.135538442490306E-1
 9.937188296075001E9     4.730043005519617E-1   -1.008087648222362E-1   -8.585274020348373E-4   -7.241621626119212E-4   -8.385419519373972E-4   -7.533089555935402E-4    3.844870176703606E-1   -3.136976398067682E-1
 9.937191113600000E9     4.733134942325334E-1   -1.008674342163219E-1   -8.471156037708875E-4   -7.949974855913476E-4   -8.792097628409440E-4   -7.719671858383117E-4    3.845019955471157E-1   -3.138818947098341E-1
 9.937193931125000E9     4.730660115490002E-1   -1.013123675362698E-1   -8.351325228987712E-4   -7.714816413986157E-4   -9.080901247074673E-4   -7.670854872399840E-4    3.839399106879750E-1   -3.143094050927471E-1
 9.937196748650000E9     4.730594166319448E-1   -1.015117000225506E-1   -8.468693545579881E-4   -7.670909347448245E-4   -8.883035879604194E-4   -8.038560330183077E-4    3.838668179406086E-1   -3.143819671479686E-1
 9.937199566174999E9     4.729474751464255E-1   -1.015829536960818E-1   -9.023492930937182E-4   -7.899704763591269E-4   -9.416155100594974E-4   -7.793841295065290E-4    3.834840094652647E-1   -3.148102619986777E-1
 9.937202383700001E9     4.728794142066046E-1   -1.018076956112783E-1   -9.163809676707206E-4   -8.344113035691066E-4   -9.409641649311651E-4   -8.120450121187863E-4    3.831558451946818E-1   -3.150580581828446E-1
 9.937205201225000E9     4.730074031025879E-1   -1.019001406390471E-1   -9.258939425815289E-4   -8.298416215946557E-4   -9.342153781164036E-4   -8.322915364195721E-4    3.830599727305312E-1   -3.151346548627683E-1
 9.937208018750000E9     4.728420049656750E-1   -1.022765063761049E-1   -9.483603542761621E-4   -8.524211516487383E-4   -9.855014561547407E-4   -8.388346065929880E-4    3.827062176373595E-1   -3.153736288516089E-1
 9.937210836275000E9     4.727882179642834E-1   -1.023735054471126E-1   -9.922872751944498E-4   -8.628664660772188E-4   -9.893832220714664E-4   -8.481817505374033E-4    3.824747904943291E-1   -3.158016596439649E-1
 9.937213653799999E9     4.727063036045343E-1   -1.025291313145650E-1   -9.922530929076399E-4   -8.814225294910453E-4   -1.004028295677263E-3   -9.066262048426380E-4    3.821296506440441E-1   -3.158498958978097E-1
 9.937216471325001E9     4.726682885615826E-1   -1.027422166768769E-1   -9.610853750262939E-4   -9.251184786655643E-4   -1.035553998072915E-3   -8.835537618475321E-4    3.818941726083160E-1   -3.162415891085288E-1
 9.937219288850000E9     4.726527608568580E-1   -1.028438523973525E-1   -1.025111741012141E-3   -9.337229489804574E-4   -1.083118542475953E-3   -9.053392525503837E-4    3.815236121496978E-1   -3.164807356680262E-1
 9.937222106375000E9     4.726777229249114E-1   -1.030481407788558E-1   -1.017246904689786E-3   -9.564190381335526E-4   -1.053222255844202E-3   -9.113989410402512E-4    3.811856823345409E-1   -3.165899923984795E-1
 9.937224923900000E9     4.725717539518787E-1   -1.032461768270345E-1   -1.024455694094080E-3   -9.328718979069880E-4   -1.046425632765635E-3   -9.249660173579957E-4    3.808750664425364E-1   -3.168436734653218E-1
 9.937227741424999E9     4.724187035502878E-1   -1.034256002918396E-1   -1.046283366338653E-3   -9.523924943166602E-4   -1.102639285376213E-3   -9.320668389063743E-4    3.806157107013909E-1   -3.172149990107243E-1
 9.937230558950001E9     4.722968758939287E-1   -1.036881419822283E-1   -1.109048876229238E-3   -9.834161045031073E-4   -1.137093339423209E-3   -1.009627332501674E-3    3.801383118081681E-1   -3.172780634565949E-1
 9.937233376475000E9     4.723985576109148E-1   -1.037429490017416E-1   -1.111671468183809E-3   -9.647932169473284E-4   -1.166266472835452E-3   -9.940136215147357E-4    3.798248533169289E-1   -3.175514317458905E-1
 9.937236194000000E9     4.723434679524989E-1   -1.040652103254948E-1   -1.138824156430085E-3   -1.025771194421626E-3   -1.163203740248209E-3   -9.996289927578584E-4    3.798118649375241E-1   -3.178116644880095E-1
 9.937239011525000E9     4.722960093788245E-1   -1.043257900553994E-1   -1.151585191941368E-3   -1.064729426703610E-3   -1.164443705471299E-3   -1.023843338854776E-3    3.792452592952487E-1   -3.179855231875933E-1
 9.937241829049999E9     4.722087737495073E-1   -1.044594147967075E-1   -1.182855848400034E-3   -1.016299921190515E-3   -1.230274604436866E-3   -1.033028074095366E-3    3.790785133317170E-1   -3.182248964845641E-1
 9.937244646575001E9     4.721179217657511E-1   -1.047294665763558E-1   -1.198365963470303E-3   -1.043285673100885E-3   -1.278421722081017E-3   -1.092420883499788E-3    3.786312980314355E-1   -3.186278888593188E-1
 9.937247464100000E9     4.720236297309839E-1   -1.047715084535940E-1   -1.189996048332676E-3   -1.046334757429271E-3   -1.252668654400494E-3   -1.085235664576522E-3    3.783564144362619E-1   -3.186486234099956E-1
 9.937250281625000E9     4.719418805774320E-1   -1.050262177647066E-1   -1.258919659772981E-3   -1.058429687005579E-3   -1.268965789959867E-3   -1.076280357035059E-3    3.778905758507137E-1   -3.190891374081284E-1
 9.937253099150000E9     4.720131222527771E-1   -1.053142868004185E-1   -1.279390721903060E-3   -1.098530874602243E-3   -1.340030960749127E-3   -1.099321983856767E-3    3.775667354128044E-1   -3.195406146622805E-1
 9.937255916674999E9     4.719553393338551E-1   -1.053919174348387E-1   -1.307782442286109E-3   -1.136593826874845E-3   -1.338996588986642E-3   -1.126240127637957E-3    3.773642697214036E-1   -3.195511655661351E-1
 9.937258734200001E9     4.718465034182125E-1   -1.054829205835291E-1   -1.312922865098915E-3   -1.138075797106679E-3   -1.349695891658135E-3   -1.132868412935532E-3    3.768545466692421E-1   -3.197254151611926E-1
 9.937261551725000E9     4.717754979309270E-1   -1.057652595502421E-1   -1.331572589197848E-3   -1.174740860414115E-3   -1.369099399115303E-3   -1.132610680935773E-3    3.764838506800384E-1   -3.200391592243216E-1
 9.937264369250000E9     4.715770105647898E-1   -1.061227679804932E-1   -1.360238375467136E-3   -1.172758182487205E-3   -1.432171586131378E-3   -1.173736874467090E-3    3.762635040011544E-1   -3.202482132086005E-1
