#  HZ   S   RI   R     50.00 
! Rohde & Schwarz Vector Network Analyzer 
! Rohde-Schwarz,ZNB20-2Port,1311601062101988,3.16
! Created: UTC 3/20/2024, 11:06:58 PM
! freq[Hz]                re:S11                  im:S11                  re:S21                  im:S21                  re:S12                  im:S12                  re:S22                  im:S22
 9.937016764000000E9     4.763270238452249E-1   -8.922691069904187E-2   -2.315843168100945E-4   -1.228448665979561E-4   -2.088344227459318E-4   -1.662292744049059E-4    3.980810026446586E-1   -3.009071937544936E-1
 9.937019547799999E9     4.762253233204366E-1   -8.945116821169426E-2   -1.879376360927133E-4   -1.457649700955737E-4   -2.312441060413688E-4   -1.507435940194575E-4    3.978616072626928E-1   -3.013253827041895E-1
 9.937022331600000E9     4.762445695939690E-1   -8.961061310003589E-2   -2.338413168030941E-4   -1.364484527194295E-4   -2.463000267667478E-4   -1.538446078200155E-4    3.977177688560504E-1   -3.013652064462326E-1
 9.937025115400000E9     4.762355631926638E-1   -8.982926344551455E-2   -2.068536839411365E-4   -2.197946260147022E-4   -2.498937079186605E-4   -1.447495564778525E-4    3.974822693966623E-1   -3.015893684623012E-1
 9.937027899200001E9     4.761911286551509E-1   -8.994730145600077E-2   -2.560637080818867E-4   -1.673861748162888E-4   -2.328107819311517E-4   -1.682299088969369E-4    3.971669024593286E-1   -3.018271164004254E-1
 9.937030683000000E9     4.761092852629626E-1   -9.019036003919101E-2   -2.465363794770240E-4   -1.446354413701309E-4   -2.371783380155195E-4   -1.905563416331684E-4    3.971151443292182E-1   -3.018893580893915E-1
 9.937033466799999E9     4.760984825466115E-1   -9.041377062754732E-2   -2.916745774972304E-4   -2.049586517998076E-4   -2.766922262883813E-4   -1.970910919298519E-4    3.969101088198410E-1   -3.021271524840337E-1
 9.937036250600000E9     4.759565547866053E-1   -9.059951937661960E-2   -2.709089242882250E-4   -2.043259535029786E-4   -2.470708345286864E-4   -1.938828922171701E-4    3.968102301073187E-1   -3.023355700356063E-1
 9.937039034400000E9     4.759490381199138E-1   -9.081600944930455E-2   -2.762219105181846E-4   -1.970929948102309E-4   -2.987184488475149E-4   -2.032116287189536E-4    3.966605340008571E-1   -3.025315223568100E-1
 9.937041818200001E9     4.758592801133074E-1   -9.105946932204759E-2   -2.575218309054518E-4   -2.387179725439887E-4   -2.996555578358219E-4   -2.092627422187364E-4    3.964454161991072E-1   -3.028056724077314E-1
 9.937044602000000E9     4.758967143846013E-1   -9.113931290341357E-2   -2.556361749195047E-4   -2.401902147885723E-4   -2.783395179811767E-4   -1.867362607267237E-4    3.962494741659180E-1   -3.029505194028938E-1
 9.937047385799999E9     4.757865556263440E-1   -9.132789157090353E-2   -3.073005648829214E-4   -2.076002321721156E-4   -2.945105136105700E-4   -2.085101352266954E-4    3.959493511211282E-1   -3.033650623200778E-1
 9.937050169600000E9     4.758793009439038E-1   -9.157378544803657E-2   -3.218039690892833E-4   -2.606922059358633E-4   -2.699104484049876E-4   -2.494895744402632E-4    3.956863389995139E-1   -3.034149646687535E-1
 9.937052953400000E9     4.756277049494781E-1   -9.175662224579734E-2   -3.092299833256397E-4   -2.678795290717844E-4   -2.887295475261952E-4   -2.469490899656509E-4    3.955801004837700E-1   -3.035401481142658E-1
 9.937055737200001E9     4.755358746404024E-1   -9.193012583668754E-2   -2.923321439298673E-4   -2.588156216322425E-4   -3.356511664349537E-4   -2.646765505837786E-4    3.954863997667130E-1   -3.037334024841530E-1
 9.937058521000000E9     4.755657764371184E-1   -9.217258065315766E-2   -3.053792247521093E-4   -2.731573041348839E-4   -3.469019298343719E-4   -3.124736491573342E-4    3.953049554449415E-1   -3.039920032834233E-1
 9.937061304799999E9     4.755154857532403E-1   -9.239009001129295E-2   -3.556971860176165E-4   -2.628172418564135E-4   -3.499070092512423E-4   -2.951952846268174E-4    3.948913003672367E-1   -3.040540282653263E-1
 9.937064088600000E9     4.754624127357848E-1   -9.244862536199051E-2   -3.400534178755558E-4   -2.773541711696767E-4   -3.382617567661121E-4   -2.815845946415470E-4    3.947900996028525E-1   -3.042394169107687E-1
 9.937066872400000E9     4.753939468260942E-1   -9.263277009045444E-2   -3.715650558740816E-4   -2.668556410910786E-4   -3.611156809551569E-4   -2.785039019559937E-4    3.946250636040062E-1   -3.046536334572195E-1
 9.937069656200001E9     4.753705546465136E-1   -9.294765402395688E-2   -3.584528690035887E-4   -3.030642788796700E-4   -3.489167732872248E-4   -2.719775060279680E-4    3.945283419376334E-1   -3.048502724383754E-1
 9.937072440000000E9     4.753282104490703E-1   -9.308091354450142E-2   -3.447687696379381E-4   -3.276200127700578E-4   -3.777945320751542E-4   -3.370825945812873E-4    3.943881366278666E-1   -3.048782041127024E-1
 9.937075223799999E9     4.753250269573083E-1   -9.322055482771585E-2   -3.907872691857325E-4   -2.995995801905726E-4   -3.938296191829631E-4   -3.442294326035841E-4    3.937938687674277E-1   -3.051006123290922E-1
 9.937078007600000E9     4.752860437019128E-1   -9.353855007959205E-2   -3.866861962919696E-4   -2.907561813689226E-4   -3.614932861485024E-4   -3.284624952103152E-4    3.937331480149632E-1   -3.051577645537251E-1
 9.937080791400000E9     4.751704300677811E-1   -9.360225036580193E-2   -3.850721377172605E-4   -3.299398595310968E-4   -4.223475769419797E-4   -3.239836243213408E-4    3.932755011836913E-1   -3.055092012232029E-1
 9.937083575200001E9     4.749443708734944E-1   -9.392446036003836E-2   -4.077172085585171E-4   -3.228799255924389E-4   -4.073942545418701E-4   -3.294501037816324E-4    3.931849302833662E-1   -3.057609163476749E-1
 9.937086359000000E9     4.750862077662212E-1   -9.396765282403487E-2   -4.167917594341593E-4   -3.564690452571526E-4   -4.525065496901294E-4   -3.612674183834012E-4    3.931460110788696E-1   -3.059063369005522E-1
 9.937089142799999E9     4.749600513900373E-1   -9.422310261523656E-2   -4.121386084278721E-4   -3.561351695718543E-4   -4.223922802770039E-4   -3.622696523337461E-4    3.930294331430226E-1   -3.061686345418865E-1
 9.937091926600000E9     4.750536999349405E-1   -9.435872674795837E-2   -4.287229076913007E-4   -3.453728273292473E-4   -4.101918507538202E-4   -3.785852076014699E-4    3.924998558056625E-1   -3.064654634542161E-1
 9.937094710400000E9     4.749319962135950E-1   -9.450376590774541E-2   -4.429393401962289E-4   -3.521033259105976E-4   -4.532837152547035E-4   -3.688613232937608E-4    3.923620747785967E-1   -3.067344611587584E-1
 9.937097494200001E9     4.749375862431766E-1   -9.476072696044438E-2   -4.117924328691299E-4   -3.802254538158224E-4   -4.617879332773256E-4   -3.825796036320496E-4    3.921929452789570E-1   -3.068108507077835E-1
 9.937100278000000E9     4.747585838548168E-1   -9.484941036579536E-2   -4.631924645295176E-4   -3.602728294348926E-4   -4.607875537447899E-4   -3.744716612798514E-4    3.920315140098635E-1   -3.069503518959906E-1
 9.937103061799999E9     4.747919342390909E-1   -9.518276226066349E-2   -4.545412139848404E-4   -4.262384718528204E-4   -4.763695970880332E-4   -3.702056503110522E-4    3.920404796880702E-1   -3.072304367954835E-1
 9.937105845600000E9     4.746161764721927E-1   -9.527319654418351E-2   -4.754460470693347E-4   -4.127530585004719E-4   -4.609624541730117E-4   -4.391935442424155E-4    3.915250941958994E-1   -3.076507876547703E-1
 9.937108629400000E9     4.746413773725151E-1   -9.538785780175908E-2   -4.912402503266392E-4   -4.480586450989897E-4   -4.953885393879327E-4   -4.263245335122706E-4    3.914324171960812E-1   -3.076454395527833E-1
 9.937111413200001E9     4.746011752190432E-1   -9.571073305292661E-2   -5.188112148316959E-4   -4.250112808080045E-4   -5.181036615630786E-4   -3.937995673273880E-4    3.913170733254239E-1   -3.078509511592602E-1
 9.937114197000000E9     4.745978500623408E-1   -9.590239501816177E-2   -4.837914330735254E-4   -4.453685639121490E-4   -4.873878941031424E-4   -4.423164456776139E-4    3.909124181874186E-1   -3.079346220852140E-1
 9.937116980799999E9     4.746024702170600E-1   -9.601652643146043E-2   -5.004489928490723E-4   -4.617582708862048E-4   -5.185504427924923E-4   -4.880316251250793E-4    3.904255772891363E-1   -3.082672057318052E-1
 9.937119764600000E9     4.743665963461649E-1   -9.615846350566844E-2   -5.326642084672654E-4   -4.831169752829828E-4   -5.440603421804064E-4   -4.753018265366776E-4    3.905960989177850E-1   -3.083863492589710E-1
 9.937122548400000E9     4.743141491958302E-1   -9.633733824052738E-2   -5.308580353958237E-4   -4.631382586753051E-4   -5.321843971402410E-4   -4.775430638378369E-4    3.905443930461889E-1   -3.086623465478069E-1
 9.937125332200001E9     4.742843058398598E-1   -9.660595532231077E-2   -5.763623777774404E-4   -4.725416912793186E-4   -5.710604336379044E-4   -4.963724099568057E-4    3.901531452350471E-1   -3.089203860753810E-1
 9.937128116000000E9     4.742465544837441E-1   -9.679040412678309E-2   -5.603955229750180E-4   -5.048471567547822E-4   -5.681317910465416E-4   -5.155429689536815E-4    3.899181020359120E-1   -3.091170790858072E-1
 9.937130899799999E9     4.741118450158378E-1   -9.690110233596999E-2   -5.659542587151655E-4   -5.178285905957033E-4   -5.604006635978755E-4   -5.118744398492983E-4    3.896221931981967E-1   -3.093506162392298E-1
 9.937133683600000E9     4.742267975406982E-1   -9.726689645933834E-2   -5.874312191329773E-4   -5.303656300120113E-4   -5.772880160172448E-4   -5.183413437656803E-4    3.896085214190319E-1   -3.094547593867859E-1
 9.937136467400000E9     4.740703055911433E-1   -9.741584042425307E-2   -5.835284907393755E-4   -5.146447535227998E-4   -6.049825664478726E-4   -5.257747559374329E-4    3.891934859988040E-1   -3.096975579111020E-1
 9.937139251200001E9     4.740717133608949E-1   -9.754665213200797E-2   -6.039357873070040E-4   -5.530222512263392E-4   -6.216430144255635E-4   -5.686242377844722E-4    3.890545881777724E-1   -3.098068516868704E-1
 9.937142035000000E9     4.739991114978414E-1   -9.770353229949723E-2   -5.983086353738241E-4   -5.793354369488544E-4   -6.119913635429534E-4   -5.515495878497622E-4    3.887757626408652E-1   -3.102286123053576E-1
 9.937144818799999E9     4.740177887303842E-1   -9.790325958615080E-2   -5.965265796452821E-4   -5.586080862176076E-4   -6.755115064524308E-4   -5.609664069686623E-4    3.885121949466687E-1   -3.104108741872826E-1
 9.937147602600000E9     4.740212339954504E-1   -9.809415778123382E-2   -6.437179238075452E-4   -5.715504511718948E-4   -6.447674334041851E-4   -5.860754031566250E-4    3.882297304607344E-1   -3.105357505316889E-1
 9.937150386400000E9     4.739513005405289E-1   -9.824868687075704E-2   -6.700083268043492E-4   -5.852290054303549E-4   -6.702074471008192E-4   -5.860282983255941E-4    3.880518562290903E-1   -3.108049976180435E-1
 9.937153170200001E9     4.738397587254201E-1   -9.848783430061427E-2   -6.566506787336288E-4   -6.080650184378703E-4   -6.470279256488303E-4   -5.798467522604073E-4    3.876762241071122E-1   -3.110234013092556E-1
 9.937155954000000E9     4.737266308783944E-1   -9.879858830989995E-2   -6.792492061363102E-4   -5.795340062500113E-4   -7.109330658936461E-4   -5.799442720944710E-4    3.875661364717651E-1   -3.111446702836244E-1
 9.937158737799999E9     4.737069662807945E-1   -9.894889492093464E-2   -6.816871198877505E-4   -5.996466259394591E-4   -7.127956322506690E-4   -6.263042075207376E-4    3.872363593689034E-1   -3.113860245774338E-1
 9.937161521600000E9     4.735968986729807E-1   -9.911617591514045E-2   -7.050234660102213E-4   -6.419478620886453E-4   -7.366260852446323E-4   -6.322666648156161E-4    3.870464184247886E-1   -3.117862385951456E-1
 9.937164305400000E9     4.737210874774904E-1   -9.917859070397067E-2   -6.845863370130962E-4   -6.766190614505771E-4   -7.500043233199381E-4   -6.448433640479205E-4    3.868756054606737E-1   -3.119800675749219E-1
 9.937167089200001E9     4.735842798516402E-1   -9.957309896451154E-2   -7.275798271491734E-4   -6.792032827897855E-4   -7.385091257971106E-4   -6.561866566065007E-4    3.865686707017648E-1   -3.121936848873125E-1
 9.937169873000000E9     4.735023510886018E-1   -9.962662198261850E-2   -7.286270472588157E-4   -6.702791099546102E-4   -7.598740854230067E-4   -6.785085707176636E-4    3.863267289306532E-1   -3.124470855362468E-1
 9.937172656799999E9     4.734242674430578E-1   -9.986485254963121E-2   -7.534434941199921E-4   -6.819642813016627E-4   -7.638826742364447E-4   -6.556152454322137E-4    3.861209616395327E-1   -3.125986007456976E-1
 9.937175440600000E9     4.735284487828160E-1   -9.989971701023123E-2   -7.839359436854135E-4   -6.845536950861070E-4   -7.919928445160446E-4   -6.994934239126018E-4    3.857796763967916E-1   -3.126218558893842E-1
 9.937178224400000E9     4.733939781699194E-1   -1.002616902002991E-1   -8.047707997201162E-4   -6.746273864204991E-4   -7.908706593736347E-4   -6.888587350107304E-4    3.854506857818289E-1   -3.129674535096495E-1
 9.937181008200001E9     4.733666792943251E-1   -1.002875042366645E-1   -7.870388055608433E-4   -7.157430557494989E-4   -7.993521427063521E-4   -7.332866733940763E-4    3.854758995721416E-1   -3.134238682534289E-1
 9.937183792000000E9     4.731449238997259E-1   -1.004776272974224E-1   -8.086327109918152E-4   -7.648335125092150E-4   -8.200216124040516E-4   -7.300009225224089E-4    3.850274411619161E-1   -3.134568947734579E-1
 9.937186575799999E9     4.732414553261977E-1   -1.008372209504994E-1   -8.185705707976762E-4   -7.530552630649131E-4   -8.611765773234324E-4   -7.306260140649289E-4    3.848808949370333E-1   -3.135902822137451E-1
 9.937189359600000E9     4.732067103622699E-1   -1.008216498007446E-1   -8.635519522386644E-4   -7.843465986066553E-4   -8.557940538777799E-4   -7.708400822087181E-4    3.845164937160356E-1   -3.138705602431097E-1
 9.937192143400000E9     4.731807366591656E-1   -1.011809022767551E-1   -8.884443201763349E-4   -7.975831793664444E-4   -9.086664737762046E-4   -7.402968360298358E-4    3.842815202395580E-1   -3.139568711452564E-1
 9.937194927200001E9     4.730274812116540E-1   -1.010989308093215E-1   -8.672286703799225E-4   -7.749564889677060E-4   -9.137506419839469E-4   -8.046235117965777E-4    3.838692742768441E-1   -3.144080014861337E-1
 9.937197711000000E9     4.729177628236849E-1   -1.015199348532411E-1   -8.801417641880624E-4   -7.894354890368010E-4   -9.327474539295205E-4   -7.821395207663132E-4    3.836831995004073E-1   -3.145389469071549E-1
 9.937200494799999E9     4.729336201441312E-1   -1.016509966242170E-1   -9.281113361258543E-4   -8.026075093859370E-4   -9.276726598149688E-4   -8.128428652709450E-4    3.834063856226080E-1   -3.146642313177606E-1
 9.937203278600000E9     4.729485611481495E-1   -1.018996630132888E-1   -9.109375845620358E-4   -8.427818239785299E-4   -9.479330350559366E-4   -8.383061954997693E-4    3.832155314141237E-1   -3.149859485666229E-1
 9.937206062400000E9     4.728303988193720E-1   -1.020675120654353E-1   -9.491401449456007E-4   -8.325557707903349E-4   -9.581532349269889E-4   -8.656848717676595E-4    3.828571391703427E-1   -3.153427918096181E-1
 9.937208846200001E9     4.728070197802134E-1   -1.022463126516787E-1   -9.672499358183222E-4   -8.739636135325742E-4   -9.617070213706659E-4   -8.624313523033033E-4    3.825044096923663E-1   -3.155972868405794E-1
 9.937211630000000E9     4.728007651847027E-1   -1.024417570695333E-1   -9.928138301781972E-4   -8.879663893579546E-4   -1.036351970406913E-3   -8.680282414883553E-4    3.822728817534201E-1   -3.157664733558655E-1
 9.937214413799999E9     4.727719011658351E-1   -1.025822853227115E-1   -1.006447104488656E-3   -8.914647243028083E-4   -1.032393013897513E-3   -8.972871158281672E-4    3.821567374539559E-1   -3.160432537864074E-1
 9.937217197600000E9     4.727445079184878E-1   -1.028398301431742E-1   -1.009921510762230E-3   -9.297151750508357E-4   -1.062942919829946E-3   -8.968454134240601E-4    3.817006450077540E-1   -3.163184806377114E-1
 9.937219981400000E9     4.727383772566353E-1   -1.030126732395927E-1   -9.960366801469594E-4   -9.045724560467932E-4   -1.047725125495206E-3   -9.370309860635593E-4    3.813255545872890E-1   -3.164981417857935E-1
 9.937222765200001E9     4.726499393802410E-1   -1.033079494014356E-1   -1.061574452599258E-3   -9.208322774330618E-4   -1.100840677325094E-3   -9.812308022923452E-4    3.810009794475767E-1   -3.167170929598511E-1
 9.937225549000000E9     4.724617583052801E-1   -1.033960040518642E-1   -1.109781375406884E-3   -9.674630156446434E-4   -1.138736833012730E-3   -9.343664524867279E-4    3.807191775574059E-1   -3.169482115222139E-1
 9.937228332799999E9     4.724682081550785E-1   -1.035213448171412E-1   -1.095731606478065E-3   -9.377636973728835E-4   -1.107333060750182E-3   -9.824007468634364E-4    3.804071786844824E-1   -3.173062322945203E-1
 9.937231116600000E9     4.725155392352605E-1   -1.037336686510322E-1   -1.090316998803324E-3   -9.614554253433008E-4   -1.129829773656149E-3   -9.661028764921719E-4    3.800546375785765E-1   -3.173947122260588E-1
 9.937233900400000E9     4.721997873531987E-1   -1.039515277274424E-1   -1.107560031751066E-3   -1.011064453201789E-3   -1.172065061885451E-3   -1.001595221555160E-3    3.798688813097442E-1   -3.177468155123880E-1
 9.937236684200001E9     4.722258280146690E-1   -1.040745070263757E-1   -1.165297054459429E-3   -1.021794137084091E-3   -1.190468462035125E-3   -1.000298946853907E-3    3.795337521364968E-1   -3.179341318399957E-1
 9.937239468000000E9     4.721686430174911E-1   -1.043989059642367E-1   -1.166339245717231E-3   -1.046272856158620E-3   -1.197620881676786E-3   -1.030121877443034E-3    3.792473995214635E-1   -3.180848295484646E-1
 9.937242251799999E9     4.721343611609160E-1   -1.045855292440832E-1   -1.176772513146218E-3   -1.066137162716488E-3   -1.229599215413961E-3   -1.037926223036301E-3    3.790483718408538E-1   -3.184538396345687E-1
 9.937245035600000E9     4.721544243613961E-1   -1.047019656396001E-1   -1.219107795534118E-3   -1.050189901800320E-3   -1.245509379794558E-3   -1.063555040962412E-3    3.786401996760277E-1   -3.187618655020365E-1
 9.937247819400000E9     4.721656423153365E-1   -1.049474896661084E-1   -1.228187635864432E-3   -1.132416380701856E-3   -1.242686295226804E-3   -1.100529465183742E-3    3.780382112647038E-1   -3.187206195265060E-1
 9.937250603200001E9     4.719783289321320E-1   -1.050812732029544E-1   -1.256693188110749E-3   -1.104595786860599E-3   -1.275808430418333E-3   -1.128794029129752E-3    3.778358533876893E-1   -3.192994165474395E-1
 9.937253387000000E9     4.720064384874692E-1   -1.052997286737743E-1   -1.283928395997513E-3   -1.101988336326145E-3   -1.328309498639227E-3   -1.128054736106437E-3    3.774499051052389E-1   -3.194315333059565E-1
 9.937256170799999E9     4.719072362350843E-1   -1.054154329916545E-1   -1.291002935334200E-3   -1.137662822845659E-3   -1.358663725157423E-3   -1.137624114418216E-3    3.771033963220056E-1   -3.196759047558460E-1
 9.937258954600000E9     4.718038368795205E-1   -1.056152430666013E-1   -1.339461768797446E-3   -1.177548125909800E-3   -1.353762963321209E-3   -1.152785210049959E-3    3.769037578857442E-1   -3.198808604237899E-1
 9.937261738400000E9     4.718015409473507E-1   -1.059031866390684E-1   -1.381558826819159E-3   -1.193590602085989E-3   -1.382947165491499E-3   -1.193777937976450E-3    3.765972091834230E-1   -3.200246659874134E-1
 9.937264522200001E9     4.716648934953075E-1   -1.059268034370484E-1   -1.370514143704151E-3   -1.192562232216794E-3   -1.408481066101960E-3   -1.184502745104713E-3    3.761209359426151E-1   -3.204395953597854E-1
 9.937267306000000E9     4.718961576341454E-1   -1.061560456074943E-1   -1.429498534038792E-3   -1.239222455789205E-3   -1.448061497584341E-3   -1.181264278075936E-3    3.756177620087620E-1   -3.206419998975424E-1
