#  HZ   S   RI   R     50.00 
! Rohde & Schwarz Vector Network Analyzer 
! Rohde-Schwarz,ZNB20-2Port,1311601062101988,3.16
! Created: UTC 3/20/2024, 11:07:08 PM
! freq[Hz]                re:S11                  im:S11                  re:S21                  im:S21                  re:S12                  im:S12                  re:S22                  im:S22
 9.937003560000000E9     4.764837559514993E-1   -8.836150050091758E-2   -1.697618144031342E-4   -1.366115599935243E-4   -1.820104300683758E-4   -1.201784233385258E-4    3.988702565341828E-1   -3.001642546970007E-1
 9.937006392200001E9     4.763556061469165E-1   -8.855557344934438E-2   -2.202569437667630E-4   -1.422928204785696E-4   -1.921767270269029E-4   -9.045972564228707E-5    3.985343751178659E-1   -3.003428055986707E-1
 9.937009224400000E9     4.763649908483822E-1   -8.879110777509869E-2   -2.528688613947777E-4   -1.031263028397944E-4   -2.213969570027666E-4   -1.116491569901939E-4    3.985621458153119E-1   -3.004333089074701E-1
 9.937012056600000E9     4.764403707965871E-1   -8.904166500495124E-2   -2.316336499468118E-4   -1.281392608215917E-4   -2.272449323368141E-4   -1.516472364100991E-4    3.982233649592419E-1   -3.007854772097264E-1
 9.937014888799999E9     4.762787427404838E-1   -8.912632067350550E-2   -2.269061349327605E-4   -1.393139863789021E-4   -2.072317879612978E-4   -1.578830824291494E-4    3.978607404881203E-1   -3.006981904038566E-1
 9.937017721000000E9     4.762522823358095E-1   -8.927795475236863E-2   -2.263746590998248E-4   -1.534674530299356E-4   -2.260688202074561E-4   -1.461222185720740E-4    3.980277071027682E-1   -3.012419668616206E-1
 9.937020553200001E9     4.761782507775492E-1   -8.951694795109530E-2   -2.389072681654240E-4   -1.537460703030203E-4   -2.043757889750023E-4   -1.794404378168908E-4    3.977408710947604E-1   -3.012845428037265E-1
 9.937023385400000E9     4.761640721974699E-1   -8.983560400281916E-2   -2.387591739944387E-4   -1.704086867792613E-4   -2.280184460265320E-4   -1.805167416351547E-4    3.974594210674229E-1   -3.014715342603599E-1
 9.937026217600000E9     4.761924420205704E-1   -8.989395486642561E-2   -2.173179462633526E-4   -1.650034584276808E-4   -2.652130436874642E-4   -1.677025482001312E-4    3.973396455079733E-1   -3.018966552443569E-1
 9.937029049799999E9     4.760296150405615E-1   -9.009859618730715E-2   -2.549178878832277E-4   -1.816469270066543E-4   -2.841530506826472E-4   -1.998533876762214E-4    3.972529650808840E-1   -3.020907160743101E-1
 9.937031882000000E9     4.761031169943253E-1   -9.031851612565370E-2   -2.623327581372827E-4   -1.914432870492631E-4   -2.816646481785778E-4   -1.857308155381574E-4    3.969241005870168E-1   -3.020980391611391E-1
 9.937034714200001E9     4.760735547500008E-1   -9.050172237385656E-2   -2.888204786511792E-4   -1.926270726689148E-4   -2.943723024666002E-4   -1.959920115902032E-4    3.967942603231546E-1   -3.023544034293347E-1
 9.937037546400000E9     4.759262666098396E-1   -9.071621658519596E-2   -3.005174581271259E-4   -2.147381912672082E-4   -2.890347020682741E-4   -2.151784318191070E-4    3.965648724604119E-1   -3.025635755337535E-1
 9.937040378600000E9     4.757679640419257E-1   -9.099113597586125E-2   -2.733999516275459E-4   -2.304057071444578E-4   -2.645514941825521E-4   -2.230043893987508E-4    3.962991371334572E-1   -3.027128807816994E-1
 9.937043210799999E9     4.758013391749536E-1   -9.113350157709656E-2   -2.954881046481092E-4   -2.323220205119828E-4   -3.050431139517679E-4   -2.529587302335018E-4    3.962007578975545E-1   -3.028668949629658E-1
 9.937046043000000E9     4.757677560844754E-1   -9.144639077301449E-2   -3.002323318577528E-4   -2.583387121054365E-4   -3.067086061670461E-4   -2.151144786383651E-4    3.959478041618250E-1   -3.030989818369424E-1
 9.937048875200001E9     4.756831178782159E-1   -9.148336490839121E-2   -2.926317460471732E-4   -2.584035599918490E-4   -3.169041219460966E-4   -2.343020343021216E-4    3.954642423688652E-1   -3.034595783818958E-1
 9.937051707400000E9     4.755894414757770E-1   -9.167897698549185E-2   -3.599856763888921E-4   -2.482983832123790E-4   -3.306015408465028E-4   -2.407206647351800E-4    3.954910716320642E-1   -3.035478650529878E-1
 9.937054539600000E9     4.756794738301610E-1   -9.192135122383120E-2   -3.146238478018740E-4   -2.663619826357134E-4   -3.153633065736474E-4   -2.973415421165530E-4    3.954474183684045E-1   -3.037069369853170E-1
 9.937057371799999E9     4.755497944629256E-1   -9.208205802484135E-2   -3.635094742021304E-4   -2.778732004091774E-4   -3.074271906621675E-4   -2.751555175091701E-4    3.954001846419494E-1   -3.039858622229613E-1
 9.937060204000000E9     4.755081493746187E-1   -9.235060867424498E-2   -3.403442515229059E-4   -3.015564990671380E-4   -3.412303628132479E-4   -2.850162725976835E-4    3.950505236880816E-1   -3.041968732352481E-1
 9.937063036200001E9     4.754034348003163E-1   -9.246083416535114E-2   -3.679335692725738E-4   -3.176809722344459E-4   -3.546275114936104E-4   -3.078130561249827E-4    3.949284232049898E-1   -3.043949275988568E-1
 9.937065868400000E9     4.755150650094804E-1   -9.269264172186950E-2   -3.312876930497230E-4   -2.919649540442598E-4   -3.632322835985361E-4   -3.142014451288296E-4    3.946054492830104E-1   -3.045072765197535E-1
 9.937068700600000E9     4.753159297757045E-1   -9.289512799993502E-2   -3.912533647256200E-4   -3.015517336536169E-4   -3.576017278834339E-4   -3.093794506492070E-4    3.943848745411643E-1   -3.048169991913320E-1
 9.937071532799999E9     4.753770199062674E-1   -9.302572787202502E-2   -3.487007757185780E-4   -3.306976542391017E-4   -3.868218256403610E-4   -2.736166432004597E-4    3.941051923352995E-1   -3.048762259965863E-1
 9.937074365000000E9     4.753256267689629E-1   -9.306106518412807E-2   -3.737154451452822E-4   -3.025652788700345E-4   -3.824946770579807E-4   -3.169993190950275E-4    3.939716533074595E-1   -3.052786902281908E-1
 9.937077197200001E9     4.751795414809811E-1   -9.340025180595024E-2   -3.619335766315276E-4   -3.608168202840415E-4   -3.747073268351706E-4   -3.400921571031607E-4    3.939006572494683E-1   -3.055210641152301E-1
 9.937080029400000E9     4.750491885960891E-1   -9.365032919952558E-2   -3.956339445314227E-4   -3.554135451135293E-4   -4.297440063236722E-4   -3.232739273120348E-4    3.934487453996405E-1   -3.055205081267302E-1
 9.937082861600000E9     4.751089283993286E-1   -9.373875341977331E-2   -4.059301467096017E-4   -3.601510134071934E-4   -3.861722348520522E-4   -3.428415573622114E-4    3.933012526100862E-1   -3.057492050615640E-1
 9.937085693799999E9     4.752125688672447E-1   -9.398446581821304E-2   -3.878976947257750E-4   -3.608013894902078E-4   -4.554029115804943E-4   -3.825381281950893E-4    3.931412313677125E-1   -3.060141773625599E-1
 9.937088526000000E9     4.750006182997246E-1   -9.422953327133692E-2   -4.464457752158424E-4   -3.297756817938343E-4   -4.415829458378748E-4   -4.020008672809167E-4    3.929712591207790E-1   -3.061149036213892E-1
 9.937091358200001E9     4.750145642500965E-1   -9.437690009429189E-2   -4.266896280200582E-4   -3.753152246274977E-4   -4.895410699914443E-4   -3.646289959669586E-4    3.925947399277762E-1   -3.063619333228677E-1
 9.937094190400000E9     4.750386101778556E-1   -9.456989704761488E-2   -4.420104215150932E-4   -3.764020185448827E-4   -4.454226455452980E-4   -3.420946729936683E-4    3.926108060389315E-1   -3.065853055496849E-1
 9.937097022600000E9     4.747877943057079E-1   -9.474575496770993E-2   -4.508016619503592E-4   -3.736116483774494E-4   -5.006377477591399E-4   -3.676999765136631E-4    3.920915543646938E-1   -3.067927773499333E-1
 9.937099854799999E9     4.748568468185774E-1   -9.496796376062197E-2   -4.645170709001001E-4   -3.876107718268861E-4   -4.747073711717540E-4   -4.337137279501365E-4    3.922063775209953E-1   -3.070658230034194E-1
 9.937102687000000E9     4.747531868519148E-1   -9.501615072331288E-2   -4.824816235179265E-4   -4.222541194799062E-4   -4.746003820870099E-4   -4.207521365884583E-4    3.917604909309087E-1   -3.070614222923533E-1
 9.937105519200001E9     4.746707328755146E-1   -9.532048381285049E-2   -4.567821954782272E-4   -4.412571576735649E-4   -4.761990564341414E-4   -4.181489179945516E-4    3.916217452637487E-1   -3.073150184814924E-1
 9.937108351400000E9     4.747876996023950E-1   -9.547573424700125E-2   -4.977517196207319E-4   -4.534968691584610E-4   -4.907996090819863E-4   -4.564397924309141E-4    3.914021349842516E-1   -3.076540826156469E-1
 9.937111183600000E9     4.745000570595592E-1   -9.573742083599934E-2   -4.815122225390724E-4   -4.424729177554664E-4   -5.018380137694690E-4   -4.490874570744115E-4    3.911396576369943E-1   -3.075629746890954E-1
 9.937114015799999E9     4.745867791050449E-1   -9.585756968030411E-2   -5.084411079224844E-4   -4.611909386582775E-4   -5.288453878009163E-4   -4.473224525852943E-4    3.909020862258420E-1   -3.081373736620498E-1
 9.937116848000000E9     4.744180853941549E-1   -9.612331955812164E-2   -5.104203748101162E-4   -4.879519663382315E-4   -5.297514748315108E-4   -4.576653953957443E-4    3.909130537609334E-1   -3.084294919103884E-1
 9.937119680200001E9     4.745113917156361E-1   -9.621684919786568E-2   -5.347219759601621E-4   -4.744268531629069E-4   -5.578266634661412E-4   -5.089622309773664E-4    3.904736106153479E-1   -3.084302164037071E-1
 9.937122512400000E9     4.745282042927761E-1   -9.629701249492879E-2   -5.387363086788942E-4   -4.822261983559099E-4   -5.593023815782208E-4   -4.670540737198170E-4    3.901781728575029E-1   -3.088365239615807E-1
 9.937125344600000E9     4.742679964550730E-1   -9.656083571501653E-2   -5.694036521065726E-4   -4.664400084365131E-4   -5.723354421062076E-4   -5.188029873016264E-4    3.900935709399979E-1   -3.091521102653838E-1
 9.937128176799999E9     4.742210209337481E-1   -9.685840549608057E-2   -5.649762455489052E-4   -5.253521749822301E-4   -5.930084085410478E-4   -5.247380707743849E-4    3.896665836779692E-1   -3.090815932671787E-1
 9.937131009000000E9     4.744274505099443E-1   -9.702247226885871E-2   -5.483546131275828E-4   -5.044908166825072E-4   -5.936048223929319E-4   -4.933927387996603E-4    3.895956787220476E-1   -3.093448974126547E-1
 9.937133841200001E9     4.742262729066844E-1   -9.709569519644967E-2   -5.657062895657737E-4   -5.261133037484010E-4   -5.971881126937437E-4   -5.269478084993046E-4    3.894065981663333E-1   -3.093599252342809E-1
 9.937136673400000E9     4.741156743904146E-1   -9.741121678293306E-2   -6.102864286105515E-4   -5.513522710669385E-4   -6.399496004463005E-4   -5.287560074143372E-4    3.890590654676727E-1   -3.096942028280625E-1
 9.937139505600000E9     4.742436202030794E-1   -9.770864851106037E-2   -6.107485167214693E-4   -5.721541452494090E-4   -6.333044599140885E-4   -5.437160601450670E-4    3.888570265059097E-1   -3.099086970273698E-1
 9.937142337799999E9     4.740852459817712E-1   -9.782271420570435E-2   -6.320713443752331E-4   -5.760492965412569E-4   -6.403603786010243E-4   -5.891499639249346E-4    3.886796033593956E-1   -3.102369658420925E-1
 9.937145170000000E9     4.740643124619033E-1   -9.797444134746143E-2   -6.232397530192807E-4   -6.105969915598459E-4   -6.525943381638907E-4   -5.914847850854635E-4    3.882647098533911E-1   -3.105309116973257E-1
 9.937148002200001E9     4.739362574026272E-1   -9.820919993814076E-2   -6.868327562333401E-4   -5.834238741630448E-4   -6.742649483243469E-4   -5.515722513381420E-4    3.884176783842357E-1   -3.106862750954330E-1
 9.937150834400000E9     4.738446059783976E-1   -9.848525331055699E-2   -6.364275223013933E-4   -6.332974914165173E-4   -6.825309398395885E-4   -5.829880451131453E-4    3.879936300524794E-1   -3.109427965598063E-1
 9.937153666600000E9     4.737453317605216E-1   -9.861953053759107E-2   -6.959668128990256E-4   -6.121692619554777E-4   -6.724644219154158E-4   -6.031690008624356E-4    3.877124802170551E-1   -3.111547876746457E-1
 9.937156498799999E9     4.736741256014251E-1   -9.858708300362816E-2   -6.822101904810500E-4   -6.355490847028914E-4   -7.042628741252743E-4   -6.193664943563878E-4    3.873374482904544E-1   -3.112321233613166E-1
 9.937159331000000E9     4.737959106294854E-1   -9.890138639936985E-2   -6.915407035584885E-4   -6.102207338481994E-4   -7.213268432965592E-4   -6.276827429221529E-4    3.870320454845217E-1   -3.117592796370843E-1
 9.937162163200001E9     4.737742148631982E-1   -9.909983070043399E-2   -7.235945875174554E-4   -6.265283915185062E-4   -7.176684804282010E-4   -6.191172326466664E-4    3.870859645232723E-1   -3.116322288277704E-1
 9.937164995400000E9     4.736737943167395E-1   -9.938108101778392E-2   -7.149585540086955E-4   -6.645814638919903E-4   -7.323255627393473E-4   -6.529130367286372E-4    3.865007295820610E-1   -3.119837985109931E-1
 9.937167827600000E9     4.734665180398618E-1   -9.955212321103893E-2   -7.301691417344778E-4   -7.003392207659350E-4   -7.792888222220138E-4   -6.672684047945714E-4    3.865168604215429E-1   -3.122896218771101E-1
 9.937170659799999E9     4.734252047246090E-1   -9.959857697745449E-2   -7.861793650151669E-4   -7.221194054686523E-4   -7.972820939799711E-4   -6.994076819363969E-4    3.861137779125163E-1   -3.124607014878779E-1
 9.937173492000000E9     4.733872420633513E-1   -9.986071137661355E-2   -7.620991106733669E-4   -6.925459048855658E-4   -7.811214936985730E-4   -6.750081702933207E-4    3.857900524462035E-1   -3.128872628793130E-1
 9.937176324200001E9     4.734547741026912E-1   -9.999600645286329E-2   -8.154029770859024E-4   -7.645297087738460E-4   -7.912962533910014E-4   -6.987884488136820E-4    3.855552607673205E-1   -3.129972353880532E-1
 9.937179156400000E9     4.732848263114975E-1   -1.002718023582865E-1   -8.025348383458173E-4   -7.281902980319609E-4   -7.993051057748354E-4   -7.289426346512523E-4    3.852850023111161E-1   -3.130992690837763E-1
 9.937181988600000E9     4.733485519464032E-1   -1.004034992722238E-1   -8.333231463274239E-4   -7.459309585192018E-4   -8.467592087461555E-4   -7.259130455249458E-4    3.850894670216910E-1   -3.133962334641781E-1
 9.937184820799999E9     4.733024153311655E-1   -1.006172665981676E-1   -8.453581018543385E-4   -7.558222778805716E-4   -8.388553965164639E-4   -7.300716818731513E-4    3.848226230679590E-1   -3.136479216888012E-1
 9.937187653000000E9     4.731067730828464E-1   -1.010134518825952E-1   -8.571169956873287E-4   -7.794396559723376E-4   -8.818349588508391E-4   -7.686738741231325E-4    3.844720018072964E-1   -3.138371988195230E-1
 9.937190485200001E9     4.731846371797780E-1   -1.010697488683222E-1   -8.346867241139745E-4   -7.804721579870624E-4   -8.945556660908459E-4   -8.167332625286796E-4    3.843075987427949E-1   -3.141467501112577E-1
 9.937193317400000E9     4.731741273118799E-1   -1.011396165223580E-1   -8.757214380893467E-4   -7.915864686015854E-4   -9.296120357503519E-4   -7.948162457354032E-4    3.839727411325315E-1   -3.143401059716128E-1
 9.937196149600000E9     4.730457528079365E-1   -1.013156620054757E-1   -8.956035685450292E-4   -8.174020783358553E-4   -9.129967654647050E-4   -8.207790210027715E-4    3.837723710008017E-1   -3.146547888732218E-1
 9.937198981799999E9     4.730430167258021E-1   -1.017004335467475E-1   -9.228561928797279E-4   -8.249302049725502E-4   -9.706712571959661E-4   -8.267996757936478E-4    3.832224673319422E-1   -3.147355287540606E-1
 9.937201814000000E9     4.729000735566571E-1   -1.019131835036075E-1   -9.099259207942458E-4   -8.073250271143948E-4   -9.694978283313693E-4   -8.344380793180117E-4    3.831114675119684E-1   -3.150511427294989E-1
 9.937204646200001E9     4.728118677057370E-1   -1.019145604222109E-1   -9.447468524493825E-4   -8.741062000636792E-4   -9.902966132795421E-4   -8.168685039451035E-4    3.826957462241758E-1   -3.152768262532614E-1
 9.937207478400000E9     4.727741716451719E-1   -1.021679267902454E-1   -9.410318860571907E-4   -8.449213439727243E-4   -9.932131458999958E-4   -8.805094825647148E-4    3.824953041388569E-1   -3.154580176388486E-1
 9.937210310600000E9     4.727118846522231E-1   -1.023111102244303E-1   -9.901670115585921E-4   -9.018161406255796E-4   -9.942663339841122E-4   -8.674967671479538E-4    3.821216869834592E-1   -3.157514987418930E-1
 9.937213142799999E9     4.726906977058853E-1   -1.025380860644483E-1   -9.997280554425063E-4   -8.735362274313819E-4   -1.019999549238474E-3   -9.100845890531063E-4    3.820461242795032E-1   -3.160114702795062E-1
 9.937215975000000E9     4.725138440920089E-1   -1.027742186451713E-1   -1.006193451302438E-3   -8.993244547170451E-4   -1.073987045866241E-3   -8.958308873742110E-4    3.815886139402441E-1   -3.163126508451582E-1
 9.937218807200001E9     4.726244833303112E-1   -1.029984660494894E-1   -1.073822289678600E-3   -9.170283837295637E-4   -1.064452696828721E-3   -9.243541815792066E-4    3.812620667851317E-1   -3.165638377163709E-1
 9.937221639400000E9     4.725254657580737E-1   -1.032566999400977E-1   -1.059770219219014E-3   -9.679321314973242E-4   -1.068091129835060E-3   -9.288697125312495E-4    3.809632376552247E-1   -3.166292685117535E-1
 9.937224471600000E9     4.725075471496060E-1   -1.033238027974727E-1   -1.077013452831850E-3   -9.589762830206275E-4   -1.129804788782870E-3   -9.676885903831000E-4    3.808623006634641E-1   -3.169167551732500E-1
 9.937227303799999E9     4.723666176771515E-1   -1.034222928951097E-1   -1.093571336379119E-3   -9.731271457832516E-4   -1.129134312047262E-3   -9.642880566170914E-4    3.804748329196047E-1   -3.172058598693519E-1
 9.937230136000000E9     4.723587196360790E-1   -1.035887592769525E-1   -1.156572205543116E-3   -1.025988105378664E-3   -1.173588626439370E-3   -9.534604986483970E-4    3.802032363761213E-1   -3.173658688797107E-1
 9.937232968200001E9     4.723066965687494E-1   -1.038988705335697E-1   -1.148656037410479E-3   -1.050390474627150E-3   -1.169958621199402E-3   -9.853527461630087E-4    3.798284759439547E-1   -3.178445616692133E-1
 9.937235800400000E9     4.722025579167273E-1   -1.040216881894907E-1   -1.174838189026564E-3   -1.042960407793766E-3   -1.186656218152958E-3   -1.030785757398458E-3    3.794175650337372E-1   -3.180828974196881E-1
 9.937238632600000E9     4.721815341083621E-1   -1.043006980533983E-1   -1.223131170097894E-3   -1.025734840716750E-3   -1.227739332103547E-3   -1.041293287559497E-3    3.789233952276434E-1   -3.181148814504905E-1
 9.937241464799999E9     4.721610271616612E-1   -1.044124003000384E-1   -1.210315301487064E-3   -1.044184390156782E-3   -1.224343985022183E-3   -1.062156746812120E-3    3.788937170834619E-1   -3.185770874542995E-1
 9.937244297000000E9     4.721581612148402E-1   -1.046938593679638E-1   -1.267266273689801E-3   -1.082655842059888E-3   -1.240146044129080E-3   -1.079792527204149E-3    3.784709128724625E-1   -3.187065573552244E-1
 9.937247129200001E9     4.720380411058815E-1   -1.048334187564410E-1   -1.249470754445719E-3   -1.076230819620142E-3   -1.294053608353416E-3   -1.059858682934752E-3    3.781578643739849E-1   -3.190688502774223E-1
 9.937249961400000E9     4.720714425979399E-1   -1.051175037616879E-1   -1.292966279306725E-3   -1.076915095117976E-3   -1.294142247947208E-3   -1.104353983181078E-3    3.776917584992092E-1   -3.192773583161329E-1
 9.937252793600000E9     4.719152956985823E-1   -1.051957599031584E-1   -1.287985974695304E-3   -1.120344340382130E-3   -1.351943650262066E-3   -1.117445341301601E-3    3.775182512811221E-1   -3.194960513595574E-1
 9.937255625799999E9     4.718987129258917E-1   -1.054220053064459E-1   -1.317625824567955E-3   -1.164106218578830E-3   -1.372554029831995E-3   -1.170138770154958E-3    3.769915500903104E-1   -3.195800022924168E-1
 9.937258458000000E9     4.718641790556248E-1   -1.055597290719701E-1   -1.397809674105541E-3   -1.173181865033471E-3   -1.380166474944752E-3   -1.179757425499011E-3    3.767570898089491E-1   -3.200643792858715E-1
