#  HZ   S   RI   R     50.00 
! Rohde & Schwarz Vector Network Analyzer 
! Rohde-Schwarz,ZNB20-2Port,1311601062101988,3.16
! Created: UTC 3/20/2024, 11:07:36 PM
! freq[Hz]                re:S11                  im:S11                  re:S21                  im:S21                  re:S12                  im:S12                  re:S22                  im:S22
 9.937259762000000E9     4.720323541691578E-1   -1.055243027729028E-1   -3.340448198209513E-4   -2.965463536729327E-4   -3.454376388073762E-4   -2.721462992195415E-4    3.864320669495002E-1   -3.143134842726699E-1
 9.937262553750000E9     4.719392634759793E-1   -1.055969272805877E-1   -3.526385309026802E-4   -2.979213738043050E-4   -3.602558006975361E-4   -2.712152512266769E-4    3.860920397875506E-1   -3.143424045376474E-1
 9.937265345500000E9     4.718743811880459E-1   -1.057265361357031E-1   -3.579832655569079E-4   -3.119578811973659E-4   -3.635276376443926E-4   -2.830562374303037E-4    3.860588210120572E-1   -3.145034002761667E-1
 9.937268137250000E9     4.717363850946377E-1   -1.059776790020161E-1   -3.725542267992181E-4   -2.995967799594334E-4   -3.638539899214665E-4   -2.739362836175295E-4    3.854877945323824E-1   -3.147920695438881E-1
 9.937270929000000E9     4.716241545759039E-1   -1.062512656466757E-1   -3.677226652753457E-4   -2.840210647350015E-4   -4.026991691516566E-4   -2.961803933589573E-4    3.854464309086278E-1   -3.150481133842785E-1
 9.937273720750000E9     4.719483490392045E-1   -1.063935324234956E-1   -4.037218076111632E-4   -3.589594048506122E-4   -3.906396770592984E-4   -3.169709388326799E-4    3.852899008402912E-1   -3.153081469379934E-1
 9.937276512500000E9     4.715944944500466E-1   -1.066592498553152E-1   -3.662021785688611E-4   -3.554919699588484E-4   -3.778896673291857E-4   -3.274968538615287E-4    3.850929272267544E-1   -3.151827283065431E-1
 9.937279304250000E9     4.714850552416427E-1   -1.068927512841906E-1   -4.348767979316809E-4   -3.230766536548464E-4   -4.116556266555084E-4   -3.914791663562164E-4    3.846188274401215E-1   -3.157620012272141E-1
 9.937282096000000E9     4.716542997100098E-1   -1.070196051460213E-1   -4.089391821584032E-4   -3.660481910969455E-4   -4.440223245762364E-4   -3.298124151980950E-4    3.847818779377808E-1   -3.157975754566748E-1
 9.937284887750000E9     4.715995025482549E-1   -1.072171563399701E-1   -4.393266450163896E-4   -3.585113670791957E-4   -4.285325554932819E-4   -3.625570852309674E-4    3.842759416151241E-1   -3.159540885196957E-1
 9.937287679500000E9     4.714811651827315E-1   -1.073119087622171E-1   -4.443679722805173E-4   -3.637044072042439E-4   -4.388569171154708E-4   -3.714404193126196E-4    3.840606230400995E-1   -3.162217972096967E-1
 9.937290471250000E9     4.714381337526914E-1   -1.075785379827784E-1   -4.385390825770639E-4   -3.819509368096470E-4   -4.442187999218865E-4   -3.657758196682981E-4    3.838843669944556E-1   -3.162769656607231E-1
 9.937293263000000E9     4.712133019805737E-1   -1.075961906961799E-1   -4.391965436724204E-4   -3.580815843733046E-4   -4.688578235418697E-4   -3.961158313556938E-4    3.837237699865779E-1   -3.166122137301460E-1
 9.937296054750000E9     4.713485435974785E-1   -1.079450810917705E-1   -4.468218745222279E-4   -3.803806623590480E-4   -4.396118451194054E-4   -4.006807115918090E-4    3.835628385929947E-1   -3.167780608012213E-1
 9.937298846500000E9     4.711999834136669E-1   -1.081686975050677E-1   -4.598630231009762E-4   -4.072962001266959E-4   -5.013162147671456E-4   -4.047352642797602E-4    3.832127352684672E-1   -3.170614609809259E-1
 9.937301638250000E9     4.712211578088918E-1   -1.082663352165170E-1   -4.646217267676214E-4   -4.490626462655917E-4   -5.004267478460372E-4   -3.982292985402640E-4    3.829851408521979E-1   -3.170332353697297E-1
 9.937304430000000E9     4.711038431192207E-1   -1.084765195612843E-1   -4.638266780918828E-4   -4.231316561693967E-4   -5.264758914448651E-4   -4.287603761837890E-4    3.828608459240261E-1   -3.173744505695294E-1
 9.937307221750000E9     4.709876220409383E-1   -1.085909716255073E-1   -5.011518736953620E-4   -4.478828438129059E-4   -5.310915166817147E-4   -4.365691303319947E-4    3.825004296874013E-1   -3.175369597893463E-1
 9.937310013500000E9     4.710374477725124E-1   -1.090035045419756E-1   -5.094555100422685E-4   -4.318680682556985E-4   -5.607117146727852E-4   -4.432873617032247E-4    3.822735825905720E-1   -3.178653047999863E-1
 9.937312805250000E9     4.709295245875189E-1   -1.090685753339068E-1   -5.079197496985010E-4   -4.621453039469031E-4   -5.009383294655095E-4   -4.615316495925976E-4    3.821479226377204E-1   -3.180451988035793E-1
 9.937315597000000E9     4.709578966899006E-1   -1.091299461924743E-1   -5.519453272274620E-4   -4.286976486953290E-4   -5.564771004046250E-4   -4.595011186421634E-4    3.818556309839904E-1   -3.181012011982416E-1
 9.937318388750000E9     4.707161149072194E-1   -1.094262526901042E-1   -5.565466402209634E-4   -4.488293797471495E-4   -5.608478962062098E-4   -4.682639175811948E-4    3.816414028911777E-1   -3.181196863113258E-1
 9.937321180500000E9     4.707357217209120E-1   -1.095443349365270E-1   -5.343091896358189E-4   -5.287875364808302E-4   -5.776813598802016E-4   -4.641455307588450E-4    3.813497062471410E-1   -3.185500278024556E-1
 9.937323972250000E9     4.707715014123117E-1   -1.097732256544886E-1   -5.839145986932947E-4   -4.798742947940619E-4   -6.056287740823788E-4   -5.022546819151534E-4    3.814250203075480E-1   -3.189011328717521E-1
 9.937326764000000E9     4.706562628770058E-1   -1.100869992843628E-1   -5.657596735041114E-4   -5.197865247593594E-4   -5.989191462439756E-4   -5.193616390833219E-4    3.811563940830916E-1   -3.190332241172025E-1
 9.937329555750000E9     4.706174964497273E-1   -1.102936981410617E-1   -5.856670279006594E-4   -5.162364059303800E-4   -5.971159905269246E-4   -5.156941774456450E-4    3.808151989355620E-1   -3.189973135907942E-1
 9.937332347500000E9     4.705769635225588E-1   -1.103492790778347E-1   -5.825612079119304E-4   -5.155897991016437E-4   -6.192594000812440E-4   -4.898275968337838E-4    3.805515158410927E-1   -3.193758689138528E-1
 9.937335139250000E9     4.704929609065245E-1   -1.106095112562069E-1   -5.909003422181893E-4   -5.504113294457032E-4   -6.302312497795655E-4   -5.285624558084816E-4    3.803721128391549E-1   -3.195274875922919E-1
 9.937337931000000E9     4.702903732300793E-1   -1.106389449116816E-1   -6.009252149228089E-4   -5.238009524065464E-4   -6.760641306547091E-4   -5.255997410244100E-4    3.801265696435517E-1   -3.197362756404806E-1
 9.937340722750000E9     4.703963386301586E-1   -1.108230743944729E-1   -6.288346141040561E-4   -5.674766048535672E-4   -6.397878665379464E-4   -5.391107480872456E-4    3.798295183153880E-1   -3.200013657485514E-1
 9.937343514500000E9     4.703353282401007E-1   -1.112197569232215E-1   -6.312997114571317E-4   -5.654521985593511E-4   -6.761487092595828E-4   -5.564077593465677E-4    3.795638395908628E-1   -3.201650886322879E-1
 9.937346306250000E9     4.701917793689964E-1   -1.113367071099036E-1   -6.611622490005730E-4   -5.858777012387574E-4   -6.926387466327347E-4   -5.497791704395788E-4    3.794886852989431E-1   -3.203713293690724E-1
 9.937349098000000E9     4.702533943508526E-1   -1.114150274409572E-1   -6.716211891257143E-4   -5.859443061274606E-4   -7.338141607192792E-4   -5.920732603993114E-4    3.790912659822742E-1   -3.206007806054327E-1
 9.937351889750000E9     4.701131918513883E-1   -1.117538505273981E-1   -6.832833081421587E-4   -6.335386946126710E-4   -7.005212112966404E-4   -6.259832870608717E-4    3.788982905920003E-1   -3.206917996198485E-1
 9.937354681500000E9     4.700942338740896E-1   -1.118819568658361E-1   -7.031149298312812E-4   -6.164198067104236E-4   -6.928776443278282E-4   -6.285925350027611E-4    3.787159114109703E-1   -3.210426013579741E-1
 9.937357473250000E9     4.700877685460783E-1   -1.121802706386201E-1   -7.047879467208156E-4   -6.112010369701010E-4   -7.390848682805614E-4   -6.174742679105631E-4    3.784723193969799E-1   -3.213089853154930E-1
 9.937360265000000E9     4.698785395175905E-1   -1.123323488951815E-1   -7.147083638606299E-4   -6.308019266483061E-4   -7.277538237955339E-4   -6.245943748228409E-4    3.782815251459739E-1   -3.214968532508247E-1
 9.937363056750000E9     4.698462591273076E-1   -1.125869767668493E-1   -7.550939609315595E-4   -6.367677027212869E-4   -7.665572165804008E-4   -6.516852882230750E-4    3.779913520345644E-1   -3.217241693323408E-1
 9.937365848500000E9     4.699158705534223E-1   -1.126155242993645E-1   -7.585965551403410E-4   -6.611272311512689E-4   -7.573257981666017E-4   -6.286547204034169E-4    3.774605980524305E-1   -3.218842845797880E-1
 9.937368640250000E9     4.698522622836642E-1   -1.129542911051241E-1   -7.808880704617337E-4   -7.049874205198463E-4   -7.677855211943821E-4   -6.644632100933187E-4    3.773691622799553E-1   -3.220742392251960E-1
 9.937371432000000E9     4.698135292644831E-1   -1.131552053654850E-1   -7.835805929222994E-4   -6.990089676921662E-4   -8.383317270260141E-4   -6.962679387426706E-4    3.770168467136177E-1   -3.224023212486806E-1
 9.937374223750000E9     4.697106812181853E-1   -1.132306742103592E-1   -7.845835538621432E-4   -7.022480107848851E-4   -8.019158969148913E-4   -6.627174885108976E-4    3.769114128995016E-1   -3.225566349398815E-1
 9.937377015500000E9     4.696129249225969E-1   -1.134724100578673E-1   -7.826703838394935E-4   -7.094262379740245E-4   -8.384496537792153E-4   -7.038384196374020E-4    3.764782534114941E-1   -3.227719668573818E-1
 9.937379807250000E9     4.695727378778679E-1   -1.135998540081069E-1   -8.282972131323433E-4   -7.222818317398827E-4   -8.524169682705450E-4   -7.131159957365005E-4    3.762112070797376E-1   -3.229675697709986E-1
 9.937382599000000E9     4.696262883309489E-1   -1.137718444554329E-1   -8.474929988103126E-4   -7.139710078302202E-4   -8.814226720180166E-4   -7.158284092837201E-4    3.759863137911429E-1   -3.230496312925098E-1
 9.937385390750000E9     4.694177003214569E-1   -1.139216236040046E-1   -8.610680271136604E-4   -7.289296104602184E-4   -8.614806906288000E-4   -7.238198797381302E-4    3.758287714933266E-1   -3.233335396438942E-1
 9.937388182500000E9     4.693435170856189E-1   -1.142168991816048E-1   -8.949477072657570E-4   -7.629381490526224E-4   -9.131109106340626E-4   -7.505533195181002E-4    3.755552967059397E-1   -3.237756010291402E-1
 9.937390974250000E9     4.693187001930260E-1   -1.143219394443347E-1   -8.879778784723531E-4   -7.549733518815834E-4   -9.139453452746516E-4   -7.472441729349470E-4    3.751469926561805E-1   -3.239933862633687E-1
 9.937393766000000E9     4.692615667740697E-1   -1.145545792303522E-1   -8.944897239851734E-4   -8.051214108891325E-4   -9.408162656382113E-4   -7.718930448222648E-4    3.750329105699897E-1   -3.241401832850559E-1
 9.937396557750000E9     4.691974564517491E-1   -1.146744284982091E-1   -9.410604585244992E-4   -8.468293957192568E-4   -9.560257570028173E-4   -8.035008510305053E-4    3.747051796052319E-1   -3.243830013106244E-1
 9.937399349500000E9     4.692717944647767E-1   -1.147800063084235E-1   -9.313420715825999E-4   -8.138011804829109E-4   -9.687955909821434E-4   -7.956067772366155E-4    3.744260805828304E-1   -3.246330006775611E-1
 9.937402141250000E9     4.690677812370855E-1   -1.151784962791882E-1   -9.592148233096916E-4   -8.336645820622809E-4   -1.008074505304050E-3   -8.234492149728933E-4    3.742287809408752E-1   -3.247349701330029E-1
 9.937404933000000E9     4.689837715159973E-1   -1.153479689660291E-1   -9.785312791407064E-4   -8.477477507195768E-4   -1.002617542700252E-3   -8.456447493511957E-4    3.738590548149016E-1   -3.250591953570525E-1
 9.937407724750000E9     4.690035170630871E-1   -1.154620717336353E-1   -1.012897379589793E-3   -8.583551922667289E-4   -1.020768887505564E-3   -8.695788972488524E-4    3.734570516044673E-1   -3.251900924844153E-1
 9.937410516500000E9     4.687877866248639E-1   -1.155642039612729E-1   -1.012143199990871E-3   -8.669261456759072E-4   -1.078174175226354E-3   -8.763463004514738E-4    3.732080183601795E-1   -3.253224494281258E-1
 9.937413308250000E9     4.688071110779238E-1   -1.158994229069655E-1   -1.033784295776881E-3   -8.674670303765895E-4   -1.036254315716219E-3   -8.754311844919473E-4    3.730092222894951E-1   -3.256496619615525E-1
 9.937416100000000E9     4.686560720405456E-1   -1.160814847279219E-1   -1.048371345577423E-3   -9.053672756734831E-4   -1.086556316107226E-3   -8.792671018011841E-4    3.726879883089346E-1   -3.259549550546356E-1
 9.937418891750000E9     4.686154825783903E-1   -1.161867956782042E-1   -1.058904313586565E-3   -9.340242407768438E-4   -1.091164250260015E-3   -9.167045554812240E-4    3.723898447199658E-1   -3.261646262354208E-1
 9.937421683500000E9     4.686919184126156E-1   -1.165063953771790E-1   -1.060945520140103E-3   -9.130593268996774E-4   -1.117141452981095E-3   -9.095844533921240E-4    3.721235850369746E-1   -3.263727760728051E-1
 9.937424475250000E9     4.687385517039043E-1   -1.166384141338656E-1   -1.095806493077946E-3   -9.223375761151198E-4   -1.152455997815271E-3   -9.632002237977553E-4    3.716134814487807E-1   -3.265449019244275E-1
 9.937427267000000E9     4.686068928922984E-1   -1.167696600925228E-1   -1.120403189054192E-3   -9.437002218489875E-4   -1.171205211334614E-3   -9.613629952400658E-4    3.714777488607691E-1   -3.270176051041478E-1
 9.937430058750000E9     4.683651714111330E-1   -1.170129110477993E-1   -1.128657976910804E-3   -9.720285558124954E-4   -1.204841399301646E-3   -9.383600564103520E-4    3.710106790477341E-1   -3.272042706503735E-1
 9.937432850500000E9     4.684372664496872E-1   -1.170875427544585E-1   -1.179887470151722E-3   -9.776089036505049E-4   -1.215415304167782E-3   -9.929094899472372E-4    3.708074102202593E-1   -3.274098699655146E-1
 9.937435642250000E9     4.683853840549249E-1   -1.172044725839194E-1   -1.185637844810458E-3   -9.718014183715585E-4   -1.229494126204352E-3   -1.003323939036969E-3    3.702870062717570E-1   -3.275279874925482E-1
 9.937438434000000E9     4.683234754244502E-1   -1.176060185782872E-1   -1.199309820258134E-3   -1.036168884924280E-3   -1.250637450325251E-3   -1.011772132465466E-3    3.700087655972906E-1   -3.277011048141048E-1
 9.937441225750000E9     4.682870080013855E-1   -1.175398048990096E-1   -1.215935466863370E-3   -1.054174287088045E-3   -1.279500205989279E-3   -1.029688368326284E-3    3.697113860046262E-1   -3.279616617744813E-1
 9.937444017500000E9     4.681280118273431E-1   -1.179186003387796E-1   -1.238043356068670E-3   -1.053069248582602E-3   -1.256444254020487E-3   -1.062226128474656E-3    3.693357967467838E-1   -3.281889346469229E-1
 9.937446809250000E9     4.682105397052727E-1   -1.181359616599706E-1   -1.300126327765307E-3   -1.110899094817961E-3   -1.317706729774941E-3   -1.047693141331826E-3    3.689940224015861E-1   -3.286772142961778E-1
 9.937449601000000E9     4.680744715858853E-1   -1.181774741667877E-1   -1.326199756431508E-3   -1.094740789780847E-3   -1.341135714565341E-3   -1.091809463627047E-3    3.686739336550598E-1   -3.287877884507303E-1
 9.937452392750000E9     4.679112338446403E-1   -1.183914923723406E-1   -1.309613291450584E-3   -1.119798268996190E-3   -1.361734451729640E-3   -1.081121965001519E-3    3.683855931520028E-1   -3.291026079396628E-1
 9.937455184500000E9     4.680165280632373E-1   -1.186461224516087E-1   -1.362114599193056E-3   -1.118974894136168E-3   -1.403136242170276E-3   -1.132409726136634E-3    3.680622473546225E-1   -3.291860240478648E-1
 9.937457976250000E9     4.678091008331198E-1   -1.187287711505238E-1   -1.386203750731710E-3   -1.167795294353430E-3   -1.419214055909943E-3   -1.147041922917696E-3    3.675952814361636E-1   -3.295004270538371E-1
 9.937460768000000E9     4.677569762723384E-1   -1.189849478571486E-1   -1.407706557720828E-3   -1.161348577957390E-3   -1.471746501784364E-3   -1.159141153163308E-3    3.674532218093164E-1   -3.295883970628071E-1
 9.937463559750000E9     4.678931067116835E-1   -1.191778943527465E-1   -1.424315495191575E-3   -1.171080214677773E-3   -1.472465098847772E-3   -1.160042257860778E-3    3.669562380986350E-1   -3.301422863050285E-1
 9.937466351500000E9     4.678235851526507E-1   -1.194529508066771E-1   -1.474040888436635E-3   -1.208820377934132E-3   -1.501681108047516E-3   -1.167474926443764E-3    3.665065193894234E-1   -3.301858616478474E-1
 9.937469143250000E9     4.676577718617344E-1   -1.195630816814157E-1   -1.503115010162756E-3   -1.198091867202916E-3   -1.559374949729213E-3   -1.205857864619499E-3    3.661585371666606E-1   -3.301681992992395E-1
 9.937471935000000E9     4.676216231716986E-1   -1.197766739162656E-1   -1.483486641376003E-3   -1.245818195803110E-3   -1.555329550958746E-3   -1.227538423322547E-3    3.658234136294254E-1   -3.306438202537160E-1
 9.937474726750000E9     4.675200587843962E-1   -1.199831904182002E-1   -1.551255015960135E-3   -1.227063452342277E-3   -1.580086195617129E-3   -1.248916203724384E-3    3.654878290356557E-1   -3.310618590538590E-1
 9.937477518500000E9     4.675320492877901E-1   -1.202252738686105E-1   -1.547945748743987E-3   -1.281023996220114E-3   -1.610286254059583E-3   -1.244445671036573E-3    3.650172564882893E-1   -3.311649869889202E-1
 9.937480310250000E9     4.673904362701841E-1   -1.202592529296807E-1   -1.610211574085112E-3   -1.276211869998003E-3   -1.647327328561881E-3   -1.284782622070271E-3    3.646846937256302E-1   -3.313177717545971E-1
 9.937483102000000E9     4.673061145573441E-1   -1.206075547160607E-1   -1.651688683090867E-3   -1.265884515133723E-3   -1.664161686881021E-3   -1.299351169493139E-3    3.642399144851771E-1   -3.319143347232912E-1
 9.937485893750000E9     4.672316489836008E-1   -1.206043438073870E-1   -1.674797654931775E-3   -1.332186426671441E-3   -1.731071911426644E-3   -1.349766899892014E-3    3.638902076960466E-1   -3.319312297226238E-1
 9.937488685500000E9     4.671483358374899E-1   -1.207655505243687E-1   -1.675175631167725E-3   -1.352007002593606E-3   -1.756288534290421E-3   -1.332259195761861E-3    3.636541251110716E-1   -3.320921477157026E-1
 9.937491477250000E9     4.671652716041274E-1   -1.210654198920859E-1   -1.731747169140467E-3   -1.386439037144397E-3   -1.768948434800080E-3   -1.370568198862090E-3    3.629894801054158E-1   -3.324919634402935E-1
 9.937494269000000E9     4.671447919264290E-1   -1.213231063692721E-1   -1.743657597615408E-3   -1.398539120137508E-3   -1.837143479763992E-3   -1.386869539199998E-3    3.626856226099930E-1   -3.325481167171381E-1
 9.937497060750000E9     4.671577321465923E-1   -1.214425065364161E-1   -1.776407881139308E-3   -1.413136837962219E-3   -1.839049335741518E-3   -1.436264906807926E-3    3.622704808433658E-1   -3.328160308729655E-1
 9.937499852500000E9     4.668513043286702E-1   -1.215369223338468E-1   -1.853520194344346E-3   -1.438758510232991E-3   -1.866327634906740E-3   -1.431489410014852E-3    3.616819046879710E-1   -3.332007421904389E-1
 9.937502644250000E9     4.668199251204208E-1   -1.217745353229131E-1   -1.883434324402112E-3   -1.444008679432274E-3   -1.949355005616574E-3   -1.436427388977872E-3    3.611953833579802E-1   -3.333629648896899E-1
 9.937505436000000E9     4.668252294161512E-1   -1.220108242353348E-1   -1.902317653648830E-3   -1.495253883108214E-3   -1.978639906792802E-3   -1.475895853755931E-3    3.610704715105605E-1   -3.338537618622034E-1
 9.937508227750000E9     4.667799817105454E-1   -1.220549973002788E-1   -1.924005317724437E-3   -1.506361708358456E-3   -2.011113806236883E-3   -1.482347651714895E-3    3.604224261646480E-1   -3.338660529105670E-1
 9.937511019500000E9     4.667768095290618E-1   -1.222432161357666E-1   -2.019498208662711E-3   -1.512919179363800E-3   -2.043240474800893E-3   -1.518079181106847E-3    3.600224760428051E-1   -3.342857696658369E-1
