#  HZ   S   RI   R     50.00 
! Rohde & Schwarz Vector Network Analyzer 
! Rohde-Schwarz,ZNB20-2Port,1311601062101988,3.16
! Created: UTC 3/20/2024, 10:53:37 PM
! freq[Hz]                re:S11                  im:S11                  re:S21                  im:S21                  re:S12                  im:S12                  re:S22                  im:S22
 9.937726338000000E9     4.623691701674728E-1   -1.338907782317782E-1   -2.609614415355771E-3   -2.931389816462169E-3   -2.671073434263486E-3   -2.925973751974092E-3    3.500419802083963E-1   -3.472930306128720E-1
 9.937727294325001E9     4.624065364287379E-1   -1.341176567368907E-1   -2.621215394869374E-3   -2.946888395053953E-3   -2.732225747816044E-3   -2.942457098873456E-3    3.497915599601429E-1   -3.473868499940341E-1
 9.937728250650000E9     4.624689661239045E-1   -1.341081662319291E-1   -2.656864591139366E-3   -2.987394804968240E-3   -2.745892262414330E-3   -3.001536355021973E-3    3.494943144265961E-1   -3.478769662551026E-1
 9.937729206975000E9     4.623066369103063E-1   -1.341555857066036E-1   -2.652055398350847E-3   -2.993178824333675E-3   -2.764715812231134E-3   -2.992310025103144E-3    3.492488256752884E-1   -3.477719886953445E-1
 9.937730163299999E9     4.622470014123737E-1   -1.342310157756561E-1   -2.686465480669641E-3   -2.982436411137096E-3   -2.775726840386739E-3   -3.051459120305204E-3    3.492532557731704E-1   -3.480007253098730E-1
 9.937731119625000E9     4.625091234469599E-1   -1.343132655740067E-1   -2.710899658758864E-3   -3.003080168641428E-3   -2.814205709130602E-3   -3.052798112905161E-3    3.488408891394216E-1   -3.481385899435200E-1
 9.937732075950001E9     4.624354461413371E-1   -1.344314546505181E-1   -2.726443446799429E-3   -3.054209057180222E-3   -2.852295164317214E-3   -3.065996450894406E-3    3.485438655199138E-1   -3.484541501961703E-1
 9.937733032275000E9     4.622898374503346E-1   -1.345409274886919E-1   -2.748140135745251E-3   -3.040866140239041E-3   -2.852502965452556E-3   -3.089749558139492E-3    3.483069672953070E-1   -3.485662145472453E-1
 9.937733988600000E9     4.622953535365322E-1   -1.344809305539714E-1   -2.787381962742448E-3   -3.065620612242884E-3   -2.905923706933017E-3   -3.109909035780631E-3    3.481647541127263E-1   -3.487816776183006E-1
 9.937734944924999E9     4.622532227583603E-1   -1.345148401820020E-1   -2.795084803779639E-3   -3.096023297258872E-3   -2.916222022375438E-3   -3.123947801606929E-3    3.476072234125919E-1   -3.489531949652814E-1
 9.937735901250000E9     4.621583773660890E-1   -1.347834433677405E-1   -2.834765684934812E-3   -3.135355162302835E-3   -2.925191421372852E-3   -3.141006002263997E-3    3.474936917853443E-1   -3.491495449493863E-1
 9.937736857575001E9     4.621830348650363E-1   -1.347158751484724E-1   -2.840886322800170E-3   -3.140127389440765E-3   -2.970426123004500E-3   -3.165650927040467E-3    3.474670048386975E-1   -3.492524845741908E-1
 9.937737813900000E9     4.621004401931399E-1   -1.347984844433552E-1   -2.890133367853417E-3   -3.180148502689074E-3   -2.958237843246505E-3   -3.209111277806792E-3    3.469394706466031E-1   -3.493260264232743E-1
 9.937738770225000E9     4.621043835870110E-1   -1.350066893296002E-1   -2.920962810924006E-3   -3.186776491083552E-3   -3.023663838873156E-3   -3.206137348506887E-3    3.468739500223324E-1   -3.497507102404732E-1
 9.937739726549999E9     4.620178453417821E-1   -1.348766872811900E-1   -2.886304873707852E-3   -3.204503808153433E-3   -3.022641901000332E-3   -3.255010910915274E-3    3.464166270343780E-1   -3.499201172823945E-1
 9.937740682875000E9     4.621428847466401E-1   -1.350091116157247E-1   -2.951241485744453E-3   -3.234748084411980E-3   -3.051967715643535E-3   -3.258562723241214E-3    3.462691521046622E-1   -3.501470688563629E-1
 9.937741639200001E9     4.620419534696102E-1   -1.352977608573351E-1   -2.971891516864722E-3   -3.272658304454148E-3   -3.089579914795940E-3   -3.270371678491102E-3    3.457857245455152E-1   -3.501013981318248E-1
 9.937742595525000E9     4.619403481930119E-1   -1.352836651590439E-1   -3.004587240299135E-3   -3.297051595872504E-3   -3.103987120713392E-3   -3.313794796570018E-3    3.454331212043572E-1   -3.503594348108038E-1
 9.937743551850000E9     4.619710854762846E-1   -1.351861691010234E-1   -2.988071805831337E-3   -3.314266314779707E-3   -3.143789626426445E-3   -3.319675419927188E-3    3.453160437848369E-1   -3.506084899180793E-1
 9.937744508174999E9     4.619565858211377E-1   -1.352459168536569E-1   -3.058170842877269E-3   -3.325200316380153E-3   -3.149511857715051E-3   -3.345424091335195E-3    3.449814099768621E-1   -3.508752578524967E-1
 9.937745464500000E9     4.618854019600072E-1   -1.354496707551345E-1   -3.083376338116388E-3   -3.358389513889448E-3   -3.210634092400598E-3   -3.362515146894911E-3    3.448328763181988E-1   -3.510109023858414E-1
 9.937746420825001E9     4.619303763064118E-1   -1.354375166876832E-1   -3.074877371998598E-3   -3.430238185114733E-3   -3.239952439380564E-3   -3.386727849199425E-3    3.444253689776352E-1   -3.514406049341407E-1
 9.937747377150000E9     4.618100431760193E-1   -1.355080575642050E-1   -3.088713201625450E-3   -3.374401419331603E-3   -3.255285161908393E-3   -3.409133525079394E-3    3.441124349901317E-1   -3.513996765264358E-1
 9.937748333475000E9     4.619304851390129E-1   -1.355903085052767E-1   -3.176077457772505E-3   -3.411858570024898E-3   -3.303935177906161E-3   -3.446154675091956E-3    3.440216347149918E-1   -3.518387860282295E-1
 9.937749289799999E9     4.619457700590194E-1   -1.356845051030533E-1   -3.188369423714541E-3   -3.434618421924324E-3   -3.322385807140273E-3   -3.465578211537237E-3    3.436030626274889E-1   -3.518661377697709E-1
 9.937750246125000E9     4.618038052577115E-1   -1.357772768228687E-1   -3.203847991995217E-3   -3.457069285838586E-3   -3.348887710833945E-3   -3.485249624864625E-3    3.431037219044850E-1   -3.520023816872009E-1
 9.937751202450001E9     4.616701719636975E-1   -1.357465473559374E-1   -3.252014717441879E-3   -3.500053947694738E-3   -3.333203074231912E-3   -3.532502400874916E-3    3.428685131585325E-1   -3.523414398456717E-1
 9.937752158775000E9     4.617859072159461E-1   -1.357904535150932E-1   -3.294890314651630E-3   -3.509274781392681E-3   -3.397977390130917E-3   -3.544362112727710E-3    3.425426763545335E-1   -3.524451524794362E-1
 9.937753115100000E9     4.617003847538705E-1   -1.360391905868149E-1   -3.290395826472043E-3   -3.546176299979659E-3   -3.433448204773942E-3   -3.571598000476510E-3    3.423099350165799E-1   -3.528321345196472E-1
 9.937754071424999E9     4.615801533238983E-1   -1.358927077947902E-1   -3.347813126797669E-3   -3.560465814587855E-3   -3.453480680066722E-3   -3.588860111477909E-3    3.418780986031187E-1   -3.528829730159372E-1
 9.937755027750000E9     4.616156717879609E-1   -1.360557351559027E-1   -3.380363951360056E-3   -3.585255902095380E-3   -3.484217486291065E-3   -3.598278069621661E-3    3.416791042881109E-1   -3.532664434570833E-1
 9.937755984075001E9     4.616634481787193E-1   -1.360823541810519E-1   -3.404025392633881E-3   -3.624082866397673E-3   -3.507578381462093E-3   -3.651311038550870E-3    3.412398939306970E-1   -3.533731272812365E-1
 9.937756940400000E9     4.616243324288682E-1   -1.362200089195128E-1   -3.421827359786593E-3   -3.625289908298792E-3   -3.561628476227437E-3   -3.642296426407634E-3    3.409598608161104E-1   -3.537041002946363E-1
 9.937757896725000E9     4.616949096506988E-1   -1.362478200514500E-1   -3.449351624936227E-3   -3.670952770578288E-3   -3.578388863144142E-3   -3.676924100900169E-3    3.408596309103658E-1   -3.539229885244087E-1
 9.937758853049999E9     4.615887499467236E-1   -1.362896185306563E-1   -3.471667852803536E-3   -3.713333528019350E-3   -3.608235989947276E-3   -3.719054812551932E-3    3.403057862891497E-1   -3.539340281232521E-1
 9.937759809375000E9     4.614980811406177E-1   -1.363622042764941E-1   -3.526218868041156E-3   -3.708497730579044E-3   -3.644995957306733E-3   -3.739140231108828E-3    3.399211380431826E-1   -3.542169805938000E-1
 9.937760765700001E9     4.614659861305048E-1   -1.363844708924009E-1   -3.558911719184299E-3   -3.783978831007704E-3   -3.682874318287320E-3   -3.793157700099889E-3    3.397862366973288E-1   -3.546611673586120E-1
 9.937761722025000E9     4.614185029340533E-1   -1.363881982260171E-1   -3.587681414019668E-3   -3.806446518726092E-3   -3.725283436846725E-3   -3.814629324971616E-3    3.392207461107358E-1   -3.547912463089163E-1
 9.937762678350000E9     4.614451890259452E-1   -1.366757752534768E-1   -3.655551422109529E-3   -3.870556520051483E-3   -3.767107211250685E-3   -3.827851429213036E-3    3.387396588419109E-1   -3.549750869556925E-1
 9.937763634674999E9     4.614363613236120E-1   -1.366202925202710E-1   -3.634001449565228E-3   -3.842472978321483E-3   -3.791623261140151E-3   -3.847913076815519E-3    3.384823012791463E-1   -3.551954767070152E-1
 9.937764591000000E9     4.613855714153968E-1   -1.367637255007123E-1   -3.691410477860752E-3   -3.877295709811524E-3   -3.805126016835945E-3   -3.895748379302707E-3    3.381792302149906E-1   -3.553034947720881E-1
 9.937765547325001E9     4.613272943679728E-1   -1.368394527750274E-1   -3.709985471521346E-3   -3.873652479837091E-3   -3.842975180038985E-3   -3.921938085974077E-3    3.378677182521360E-1   -3.556001994278563E-1
 9.937766503650000E9     4.614199834094891E-1   -1.368750792512305E-1   -3.759858025161697E-3   -3.943629194316742E-3   -3.909793426642934E-3   -3.947982703685507E-3    3.373318956759760E-1   -3.556996814531094E-1
 9.937767459975000E9     4.613033380311916E-1   -1.369210852264318E-1   -3.797782859056428E-3   -3.968773639071069E-3   -3.957813643742624E-3   -4.000760214798424E-3    3.367972752030683E-1   -3.560487142174023E-1
 9.937768416299999E9     4.612253524305668E-1   -1.370439784984218E-1   -3.863309975625518E-3   -4.018043724059415E-3   -3.994550960217345E-3   -4.008898585181706E-3    3.365958520338013E-1   -3.563661047309329E-1
 9.937769372625000E9     4.612800445176292E-1   -1.370527895517675E-1   -3.873632786270616E-3   -4.001034710630329E-3   -4.012349770259879E-3   -4.034669137862215E-3    3.361365763311691E-1   -3.566401756515588E-1
 9.937770328950001E9     4.612254142458377E-1   -1.371008738450297E-1   -3.940461564233498E-3   -4.048516588344127E-3   -4.058970639761252E-3   -4.099103224271075E-3    3.356938078736281E-1   -3.566955691011909E-1
 9.937771285275000E9     4.611638641007878E-1   -1.371763721285516E-1   -3.976324456425401E-3   -4.110646485286871E-3   -4.082351811425368E-3   -4.099810423026670E-3    3.353912902064341E-1   -3.571653469640025E-1
 9.937772241600000E9     4.611844092876544E-1   -1.370091386539690E-1   -3.970490859635290E-3   -4.089596538459071E-3   -4.143486895316471E-3   -4.099626973960220E-3    3.350113721129279E-1   -3.575162329741853E-1
 9.937773197924999E9     4.611570357752622E-1   -1.372958568424585E-1   -4.043752922520902E-3   -4.140581646373070E-3   -4.162702301040585E-3   -4.179564215097813E-3    3.345790852117966E-1   -3.576067620341265E-1
 9.937774154250000E9     4.611729684848139E-1   -1.374872982000679E-1   -4.050136855542743E-3   -4.176541862078401E-3   -4.228549933816885E-3   -4.187037749410807E-3    3.340721561888750E-1   -3.579425997174839E-1
 9.937775110575001E9     4.610950751831277E-1   -1.372991806029348E-1   -4.101296948217941E-3   -4.194500678084214E-3   -4.237027645093902E-3   -4.230992602400035E-3    3.336003519158656E-1   -3.580515854106631E-1
 9.937776066900000E9     4.610064413965645E-1   -1.374007320183482E-1   -4.159181685237009E-3   -4.223241260382622E-3   -4.347668985002117E-3   -4.294152459353454E-3    3.333396556457008E-1   -3.583276407949672E-1
 9.937777023225000E9     4.611477294571700E-1   -1.376244431822645E-1   -4.219333732099446E-3   -4.276495454093302E-3   -4.338977695053180E-3   -4.296396247248007E-3    3.329120236494036E-1   -3.584746149497087E-1
 9.937777979549999E9     4.610334707926374E-1   -1.376818457013815E-1   -4.255902822513342E-3   -4.302355121693825E-3   -4.389798208618724E-3   -4.304607263328674E-3    3.323147501172254E-1   -3.589552149997344E-1
 9.937778935875000E9     4.608780982985471E-1   -1.379060544658776E-1   -4.289877814572242E-3   -4.318619703767354E-3   -4.446430202230673E-3   -4.367268776002730E-3    3.318514921696736E-1   -3.592559221246460E-1
 9.937779892200001E9     4.609888108745723E-1   -1.377598439339986E-1   -4.340313037947846E-3   -4.380941174499265E-3   -4.480794061022650E-3   -4.407456045507331E-3    3.315805167482140E-1   -3.593669809335014E-1
 9.937780848525000E9     4.610116706180374E-1   -1.379190511533344E-1   -4.362828145496192E-3   -4.395152621303352E-3   -4.527553341530463E-3   -4.452207011688712E-3    3.310694628150147E-1   -3.595751705549252E-1
 9.937781804850000E9     4.609123716813866E-1   -1.379825419702342E-1   -4.401614599022846E-3   -4.446697416260045E-3   -4.583609919797696E-3   -4.478830696916558E-3    3.307453445965637E-1   -3.598961646083799E-1
 9.937782761174999E9     4.609836206209655E-1   -1.380190487357503E-1   -4.438977871320174E-3   -4.481202125011641E-3   -4.655941165419696E-3   -4.500877217606581E-3    3.301568234048406E-1   -3.601458263353266E-1
 9.937783717500000E9     4.608215459645107E-1   -1.381759516777018E-1   -4.516616212237987E-3   -4.552079487863833E-3   -4.694729795279662E-3   -4.578638869690930E-3    3.296548090576349E-1   -3.605816886826267E-1
 9.937784673825001E9     4.607940236462477E-1   -1.382980608413865E-1   -4.543743537892578E-3   -4.553115842251312E-3   -4.758979727617922E-3   -4.596767834279123E-3    3.291984296550082E-1   -3.606959333863445E-1
 9.937785630150000E9     4.608266343274074E-1   -1.382908678687081E-1   -4.590642357488091E-3   -4.624864415258793E-3   -4.760098234739828E-3   -4.612479491348118E-3    3.287258573865520E-1   -3.611401638684918E-1
 9.937786586475000E9     4.607268711779687E-1   -1.383187382466534E-1   -4.676118341713447E-3   -4.601041800042500E-3   -4.840696001971041E-3   -4.664140986536672E-3    3.281912503420929E-1   -3.613379912034527E-1
 9.937787542799999E9     4.606846430970807E-1   -1.383132515646214E-1   -4.690295725358496E-3   -4.685459043340022E-3   -4.912435823551722E-3   -4.703381757891090E-3    3.276947249590128E-1   -3.616184845224878E-1
 9.937788499125000E9     4.607865237170921E-1   -1.383496881223105E-1   -4.759534013883885E-3   -4.712689459570019E-3   -4.982618827144024E-3   -4.743602024969017E-3    3.272553625748553E-1   -3.620661751524600E-1
 9.937789455450001E9     4.606676384673912E-1   -1.384788031477426E-1   -4.813246945070536E-3   -4.761845393378930E-3   -4.987114962399360E-3   -4.788451208663104E-3    3.267229732108484E-1   -3.619477175676476E-1
 9.937790411775000E9     4.606362147588663E-1   -1.385666866517177E-1   -4.853353329459961E-3   -4.802993026345623E-3   -5.066331928151152E-3   -4.788245025570442E-3    3.261687281663528E-1   -3.622137616901427E-1
 9.937791368100000E9     4.607402067669745E-1   -1.387205479224833E-1   -4.905516070355983E-3   -4.857795416237716E-3   -5.108958944890590E-3   -4.851418164522146E-3    3.256245219579128E-1   -3.628759151582087E-1
 9.937792324424999E9     4.604730191228303E-1   -1.387132159145389E-1   -4.983460647135803E-3   -4.825872906771713E-3   -5.182247326303543E-3   -4.903472831619976E-3    3.249454887859323E-1   -3.629996841909753E-1
 9.937793280750000E9     4.606226246603496E-1   -1.388252208024016E-1   -5.050164202107355E-3   -4.904889363947198E-3   -5.198555322702312E-3   -4.925511489341542E-3    3.244427065307737E-1   -3.632530837545451E-1
 9.937794237075001E9     4.605969005914042E-1   -1.388948820795222E-1   -5.106726628930800E-3   -4.931395440914320E-3   -5.299027016115680E-3   -4.973447455849017E-3    3.237558225688551E-1   -3.636449337992674E-1
 9.937795193400000E9     4.605854292041398E-1   -1.387826803784703E-1   -5.139387879969389E-3   -4.971800802393718E-3   -5.335407062271252E-3   -5.007296232482117E-3    3.232420720274391E-1   -3.639648828982575E-1
 9.937796149725000E9     4.604082537667027E-1   -1.390203685464291E-1   -5.227809776586582E-3   -5.028475067977392E-3   -5.413621830403271E-3   -5.040302340212920E-3    3.226558782316718E-1   -3.643367803357443E-1
 9.937797106049999E9     4.605989154497641E-1   -1.389813069886221E-1   -5.251601261562104E-3   -5.022614848696942E-3   -5.443987903548461E-3   -5.085391865412472E-3    3.221196656276706E-1   -3.646646868410995E-1
 9.937798062375000E9     4.603701439174527E-1   -1.392151466006602E-1   -5.349978348034052E-3   -5.097723474798289E-3   -5.532933402965327E-3   -5.176947589919920E-3    3.214243173332270E-1   -3.650108224762627E-1
 9.937799018700001E9     4.603233780549917E-1   -1.391451601182216E-1   -5.369248474458146E-3   -5.140817386869246E-3   -5.576287561960405E-3   -5.178165683473400E-3    3.209603629157616E-1   -3.650504223870064E-1
 9.937799975025000E9     4.603936452031325E-1   -1.393066449402560E-1   -5.476867051286940E-3   -5.210110192977405E-3   -5.653715056054271E-3   -5.238970254455717E-3    3.202750807331072E-1   -3.655243517330680E-1
 9.937800931350000E9     4.604563599241489E-1   -1.393253376546818E-1   -5.514311361903168E-3   -5.261485100622128E-3   -5.719512056810911E-3   -5.296884892665092E-3    3.195916181847905E-1   -3.660101396693636E-1
 9.937801887674999E9     4.602010424737964E-1   -1.394289212863064E-1   -5.587120343309320E-3   -5.329721445502886E-3   -5.788381550972318E-3   -5.333665675041728E-3    3.189297509157998E-1   -3.659677156637330E-1
 9.937802844000000E9     4.602110432830139E-1   -1.394645251134806E-1   -5.632323709438753E-3   -5.351573373709815E-3   -5.866742672009519E-3   -5.348615400049769E-3    3.181374202536266E-1   -3.666421802294362E-1
 9.937803800325001E9     4.603756643387394E-1   -1.393919821830139E-1   -5.723342110262410E-3   -5.361402561488779E-3   -5.943965797653144E-3   -5.430597587587306E-3    3.175564866623807E-1   -3.668394049435891E-1
 9.937804756650000E9     4.601882682405916E-1   -1.395399532212215E-1   -5.753069378440089E-3   -5.448622535491200E-3   -5.995454633141576E-3   -5.432305683223971E-3    3.167718465204728E-1   -3.670710134922888E-1
 9.937805712975000E9     4.603064455386690E-1   -1.396485179779837E-1   -5.836665456365947E-3   -5.464151534167861E-3   -6.072005478178766E-3   -5.513670898081005E-3    3.162092560776262E-1   -3.676748870256212E-1
 9.937806669299999E9     4.602208491465304E-1   -1.397695715880488E-1   -5.944475079881843E-3   -5.511909974066330E-3   -6.193374377938844E-3   -5.569089797758545E-3    3.154217853832996E-1   -3.678547872664093E-1
 9.937807625625000E9     4.600683333465806E-1   -1.399013349644747E-1   -5.999336043141479E-3   -5.565228250200799E-3   -6.211703150428327E-3   -5.579309290380152E-3    3.147847536928981E-1   -3.683404112973542E-1
 9.937808581950001E9     4.601418383159162E-1   -1.398952713715387E-1   -6.073319317034798E-3   -5.631840764334282E-3   -6.338993500940727E-3   -5.648988186298663E-3    3.140417748431905E-1   -3.685549762720223E-1
 9.937809538275000E9     4.601266729994952E-1   -1.399277510307575E-1   -6.123629604744097E-3   -5.653979710217409E-3   -6.393324644140840E-3   -5.697551530168894E-3    3.132108963968451E-1   -3.689600181760495E-1
 9.937810494600000E9     4.599460968175852E-1   -1.399201912440856E-1   -6.252806203274184E-3   -5.681524843324564E-3   -6.471590873929001E-3   -5.783305584813868E-3    3.126387562160040E-1   -3.693379881632755E-1
 9.937811450924999E9     4.600551510869436E-1   -1.400576546475399E-1   -6.313602212540333E-3   -5.767814443402493E-3   -6.561478190370717E-3   -5.807813757829804E-3    3.116321873515205E-1   -3.696514995162560E-1
 9.937812407250000E9     4.599343796356650E-1   -1.401805556009868E-1   -6.409398862007046E-3   -5.835780039977584E-3   -6.638230929035760E-3   -5.859346080514310E-3    3.112555715417809E-1   -3.698882383870643E-1
