#  HZ   S   RI   R     50.00 
! Rohde & Schwarz Vector Network Analyzer 
! Rohde-Schwarz,ZNB20-2Port,1311601062101988,3.16
! Created: UTC 3/20/2024, 11:07:58 PM
! freq[Hz]                re:S11                  im:S11                  re:S21                  im:S21                  re:S12                  im:S12                  re:S22                  im:S22
 9.937215687000000E9     4.728408340842544E-1   -1.024743835117195E-1   -1.790205019042329E-4   -1.528256066375150E-4   -2.069209426551075E-4   -1.574100819095732E-4    3.892185765942929E-1   -3.110949666557654E-1
 9.937218478025000E9     4.727877113121440E-1   -1.028191779031270E-1   -2.070916204889994E-4   -1.569086337152252E-4   -2.145675092132298E-4   -1.746665880091940E-4    3.891537173234334E-1   -3.113153236540782E-1
 9.937221269049999E9     4.727052567248661E-1   -1.030297182712153E-1   -2.439149689183266E-4   -1.848022206477787E-4   -2.513058453345192E-4   -1.757297179744230E-4    3.887995044531732E-1   -3.117242541302495E-1
 9.937224060075001E9     4.726699056633117E-1   -1.031841239264778E-1   -2.702082983312152E-4   -1.773999635516478E-4   -2.553749762894150E-4   -1.374520795819327E-4    3.887953405046068E-1   -3.117409065347841E-1
 9.937226851100000E9     4.726208343996416E-1   -1.034478437552231E-1   -2.473556195722428E-4   -1.921661971561765E-4   -2.489234189105250E-4   -1.854911822064023E-4    3.885473337312843E-1   -3.119312594379942E-1
 9.937229642125000E9     4.726821538615671E-1   -1.035801692038169E-1   -2.337586264959229E-4   -1.746788325298635E-4   -2.629274812889349E-4   -1.848224129829010E-4    3.883001786738184E-1   -3.122265918385211E-1
 9.937232433150000E9     4.723442354767761E-1   -1.037793845644459E-1   -2.533301493461027E-4   -2.040530909638395E-4   -2.597120682170994E-4   -1.893125733051660E-4    3.880924944293475E-1   -3.126151926256096E-1
 9.937235224174999E9     4.723525885285532E-1   -1.039614241713552E-1   -2.956830538252982E-4   -1.983714975672365E-4   -2.754123434683966E-4   -2.201653267520915E-4    3.878971193442863E-1   -3.125488015666993E-1
 9.937238015200001E9     4.724618333173093E-1   -1.040871775329798E-1   -3.101636486668525E-4   -1.993227985207199E-4   -2.831205314563311E-4   -2.276517912315238E-4    3.878023661765908E-1   -3.127852906248828E-1
 9.937240806225000E9     4.724240498248379E-1   -1.044294575094442E-1   -2.866468046559705E-4   -2.412778751859222E-4   -2.904319986016001E-4   -2.079950399824639E-4    3.874537700999652E-1   -3.128859797998421E-1
 9.937243597250000E9     4.723683929955968E-1   -1.045658296770614E-1   -2.915477170566863E-4   -2.318826182108219E-4   -2.903725214935789E-4   -2.361415188853791E-4    3.872238666053407E-1   -3.131843422819859E-1
 9.937246388275000E9     4.721929368219881E-1   -1.047540186275817E-1   -3.328127194048586E-4   -2.189760681014253E-4   -3.298811389818695E-4   -2.469540128064801E-4    3.871744431806157E-1   -3.134293823111122E-1
 9.937249179299999E9     4.722810256408963E-1   -1.050248045227641E-1   -2.876957046133460E-4   -2.537690921913739E-4   -3.038775475346090E-4   -2.609902045548617E-4    3.869770832622796E-1   -3.136946595555745E-1
 9.937251970325001E9     4.720700379730144E-1   -1.050356583380768E-1   -2.957333002929617E-4   -2.738645570092795E-4   -3.219070799481400E-4   -2.808633221838456E-4    3.867036177726710E-1   -3.137258600627194E-1
 9.937254761350000E9     4.720323567383166E-1   -1.053934940484147E-1   -3.368985249228624E-4   -2.822439416013612E-4   -3.211431531507687E-4   -2.600083628132446E-4    3.866100258495574E-1   -3.139724093353338E-1
 9.937257552375000E9     4.720264538388452E-1   -1.053343448454065E-1   -3.204312859566472E-4   -2.722168922235206E-4   -3.714396695889806E-4   -2.972390190833693E-4    3.865195105053431E-1   -3.139066227770141E-1
 9.937260343400000E9     4.720588487132106E-1   -1.056000480703762E-1   -3.132138055794026E-4   -2.845313275804925E-4   -3.619221094865393E-4   -2.803538078136806E-4    3.862611892044090E-1   -3.143551996335714E-1
 9.937263134424999E9     4.719295053593264E-1   -1.057971859962269E-1   -3.478441272508387E-4   -2.732482067960005E-4   -3.612891874548974E-4   -3.102443737754411E-4    3.859079669977072E-1   -3.145164680817342E-1
 9.937265925450001E9     4.718723837371334E-1   -1.059895740960863E-1   -3.887553461814185E-4   -3.041224605815795E-4   -3.765864391673134E-4   -2.858568791195486E-4    3.855624479856891E-1   -3.146805748372246E-1
 9.937268716475000E9     4.717909979193378E-1   -1.061015861859337E-1   -3.936956953817356E-4   -3.326534729888975E-4   -4.172759961493699E-4   -3.055066237065899E-4    3.855812237288357E-1   -3.148759793726665E-1
 9.937271507500000E9     4.717188294466382E-1   -1.064100486341944E-1   -3.933582258345066E-4   -2.850505572172937E-4   -3.690318635106582E-4   -3.157445835246077E-4    3.853005020614643E-1   -3.149784210086859E-1
 9.937274298525000E9     4.716434469695894E-1   -1.067090279830086E-1   -3.783115867604208E-4   -3.149235701524209E-4   -4.096818492489100E-4   -2.797941591138202E-4    3.851200303253206E-1   -3.154398270056257E-1
 9.937277089549999E9     4.716010087293224E-1   -1.067801667098006E-1   -3.893407896041042E-4   -3.343247491891277E-4   -3.921939289920638E-4   -3.222575944008898E-4    3.848959995454667E-1   -3.153540013597672E-1
 9.937279880575001E9     4.714940165742633E-1   -1.070590018913214E-1   -4.230416087927719E-4   -3.431802934011058E-4   -4.085585733963086E-4   -3.557218726308401E-4    3.849692734810358E-1   -3.156585212184893E-1
 9.937282671600000E9     4.714353479687732E-1   -1.070572051928031E-1   -3.907835790743566E-4   -3.474535720134648E-4   -4.374242864002615E-4   -3.366976554381778E-4    3.845499621005425E-1   -3.158488705830091E-1
 9.937285462625000E9     4.714326617139238E-1   -1.073336571870928E-1   -4.277909046428972E-4   -3.602603248725458E-4   -4.328181172789370E-4   -3.542877265266080E-4    3.843114921584232E-1   -3.161170484479532E-1
 9.937288253650000E9     4.712419393877978E-1   -1.074250843902892E-1   -4.285001115317828E-4   -3.888111525862216E-4   -4.387562702720928E-4   -3.619333301631319E-4    3.842173380445624E-1   -3.163169515625406E-1
 9.937291044674999E9     4.713647852562662E-1   -1.076796904494874E-1   -4.654420473853248E-4   -3.834233464789623E-4   -4.702314132019835E-4   -3.867115836222131E-4    3.839694743487395E-1   -3.164750229550417E-1
 9.937293835700001E9     4.712671908111055E-1   -1.079351576941540E-1   -4.711313038350316E-4   -3.634058968593055E-4   -4.373585162353594E-4   -3.882907968287117E-4    3.837284564810787E-1   -3.167252795868372E-1
 9.937296626725000E9     4.712333799535739E-1   -1.080998991325018E-1   -4.525027468938201E-4   -3.918053244487885E-4   -4.721070450146127E-4   -4.110564682331044E-4    3.835854479454521E-1   -3.167446990694263E-1
 9.937299417750000E9     4.712075880802816E-1   -1.083128996855399E-1   -4.597787584236077E-4   -4.019026964190535E-4   -4.551379839522658E-4   -4.349678468401402E-4    3.833217400878648E-1   -3.170903522853491E-1
 9.937302208775000E9     4.711460945120627E-1   -1.084775249671863E-1   -4.618351426100910E-4   -3.943343125591211E-4   -5.254217888161545E-4   -4.315456129283257E-4    3.830316514355169E-1   -3.172228074074234E-1
 9.937304999799999E9     4.710954396318465E-1   -1.085685009327925E-1   -4.777290699019836E-4   -4.015945988049842E-4   -4.985798281836535E-4   -4.316643607191882E-4    3.827561443169418E-1   -3.175121480374127E-1
 9.937307790825001E9     4.709650274359423E-1   -1.088132750534792E-1   -5.154258951816145E-4   -4.457665644755035E-4   -4.811811017353317E-4   -4.279807818227017E-4    3.824937545729432E-1   -3.176681296349684E-1
 9.937310581850000E9     4.709535698133653E-1   -1.089024921487465E-1   -5.297876221191811E-4   -4.220821126822218E-4   -5.159250047766708E-4   -4.511626136897370E-4    3.824257419766570E-1   -3.177883797433824E-1
 9.937313372875000E9     4.709201879780096E-1   -1.092869574524722E-1   -5.134370400584639E-4   -4.384805028111418E-4   -5.228992369676182E-4   -4.563959190578729E-4    3.819445073111080E-1   -3.180644356719781E-1
 9.937316163900000E9     4.708648047400826E-1   -1.093930355123611E-1   -5.048102986237434E-4   -4.834351989483940E-4   -5.466179571090077E-4   -4.766920203704649E-4    3.817254642716719E-1   -3.183173194932902E-1
 9.937318954924999E9     4.709061340709554E-1   -1.094102359281891E-1   -5.369554732240650E-4   -4.566987221744620E-4   -5.366505831359179E-4   -4.864284802434864E-4    3.816613644909144E-1   -3.183920893713106E-1
 9.937321745950001E9     4.708463227200207E-1   -1.097126056007340E-1   -5.411481745175744E-4   -4.764885984944061E-4   -5.713998591905343E-4   -4.867977465851239E-4    3.815995770398151E-1   -3.185789518097507E-1
 9.937324536975000E9     4.707012000154964E-1   -1.100422221878672E-1   -5.519936130006721E-4   -4.981956564960912E-4   -5.557725626413695E-4   -4.625046983868355E-4    3.811965979820930E-1   -3.186905989780013E-1
 9.937327328000000E9     4.705355504714264E-1   -1.101485629343868E-1   -5.705778229036288E-4   -5.030950579665041E-4   -5.871676691278399E-4   -4.705583228132750E-4    3.809486124566210E-1   -3.188950159880963E-1
 9.937330119025000E9     4.705442316598738E-1   -1.103033866625730E-1   -5.541397218933173E-4   -5.014276296871456E-4   -6.184203291296767E-4   -5.014090723086033E-4    3.806234132040806E-1   -3.193644993058749E-1
 9.937332910049999E9     4.704923477347481E-1   -1.104768566921659E-1   -6.010242273171905E-4   -5.064700812939144E-4   -6.107298421531542E-4   -4.956296473448033E-4    3.806436831425476E-1   -3.194284089164785E-1
 9.937335701075001E9     4.704655289218814E-1   -1.107179098053669E-1   -6.019751041420652E-4   -5.357574398781788E-4   -6.417183647286633E-4   -5.335879034124939E-4    3.801556630661646E-1   -3.195242854145655E-1
 9.937338492100000E9     4.703444785027047E-1   -1.108292961362947E-1   -6.288762029902296E-4   -5.437767942638965E-4   -6.216064095407644E-4   -5.323538701404926E-4    3.802757983172721E-1   -3.199898598447476E-1
 9.937341283125000E9     4.702057581034534E-1   -1.110499934687067E-1   -6.076306427815967E-4   -5.687568368666253E-4   -6.275986321220497E-4   -5.565946532822018E-4    3.799618552109438E-1   -3.200251704975839E-1
 9.937344074150000E9     4.702289763568439E-1   -1.113056356021831E-1   -6.460395722835319E-4   -5.529509493828762E-4   -6.678888880342736E-4   -5.454458052587517E-4    3.796184042482043E-1   -3.203991445979490E-1
 9.937346865174999E9     4.701871250471530E-1   -1.114970680787607E-1   -6.882455692931002E-4   -5.928507425962545E-4   -6.793079215963335E-4   -5.435124483917167E-4    3.793828196424149E-1   -3.204739847081785E-1
 9.937349656200001E9     4.701988719650320E-1   -1.117492213161318E-1   -6.688767023964286E-4   -6.230574882505121E-4   -6.981682906394697E-4   -5.974520091357462E-4    3.792122291671211E-1   -3.207199275817910E-1
 9.937352447225000E9     4.700548051909084E-1   -1.117461467937507E-1   -6.657374929397832E-4   -6.155269873616907E-4   -6.819026291012296E-4   -5.997608429859542E-4    3.788663578962047E-1   -3.210592094067339E-1
 9.937355238250000E9     4.698877456837702E-1   -1.120070510171410E-1   -7.335370544345895E-4   -5.869838880018498E-4   -6.994057511128107E-4   -6.209927770516169E-4    3.784481304625003E-1   -3.213227652888296E-1
 9.937358029275000E9     4.700147893141667E-1   -1.121540999836401E-1   -7.009871390566755E-4   -6.137483986636184E-4   -7.309496382464891E-4   -6.408036487640513E-4    3.783937323180127E-1   -3.213283282259125E-1
 9.937360820299999E9     4.699651793858489E-1   -1.122731440258144E-1   -7.402456505941731E-4   -6.498927207984137E-4   -7.302602175296959E-4   -6.313144498099879E-4    3.781885030555049E-1   -3.215009965204442E-1
 9.937363611325001E9     4.698191411544496E-1   -1.124707339283552E-1   -7.643059047855149E-4   -6.630075774191312E-4   -7.589142203419999E-4   -6.432119467887138E-4    3.777484289861554E-1   -3.219413857839886E-1
 9.937366402350000E9     4.699036473098543E-1   -1.126650160131903E-1   -7.047960234695595E-4   -6.351166557123220E-4   -7.710973693234771E-4   -6.369705417093772E-4    3.776402560981903E-1   -3.221323810389987E-1
 9.937369193375000E9     4.697122723000683E-1   -1.129350440789613E-1   -7.652416799401956E-4   -6.935000662399818E-4   -7.689684130278804E-4   -6.864305841351373E-4    3.775185633775542E-1   -3.221925908436042E-1
 9.937371984400000E9     4.696997139178390E-1   -1.130429428164607E-1   -7.526740454498412E-4   -6.826776250805591E-4   -8.061779875990425E-4   -6.843798128751315E-4    3.770860007635641E-1   -3.225505319902343E-1
 9.937374775424999E9     4.695361170235403E-1   -1.134332468956153E-1   -7.763846324172624E-4   -6.762734518897919E-4   -8.073901485761626E-4   -6.975475668231652E-4    3.767442957299332E-1   -3.226415040525018E-1
 9.937377566450001E9     4.696359069621567E-1   -1.133589879341803E-1   -8.088301301267819E-4   -7.036479230621107E-4   -8.352499184083251E-4   -7.110772554016749E-4    3.765437552009034E-1   -3.228348868525814E-1
 9.937380357475000E9     4.695314001578788E-1   -1.137335086888810E-1   -8.174789065032331E-4   -7.009512507113297E-4   -8.491244821076655E-4   -7.134390817910859E-4    3.762492695202701E-1   -3.230952463716658E-1
 9.937383148500000E9     4.694177308781092E-1   -1.138374628140383E-1   -8.464986748978502E-4   -7.506406009088119E-4   -8.611691685441819E-4   -7.217624860387708E-4    3.762158730332624E-1   -3.234150731216484E-1
 9.937385939525000E9     4.693731672519066E-1   -1.140484602956700E-1   -8.326901053651250E-4   -7.615560156284804E-4   -9.090677949149916E-4   -7.424735634440976E-4    3.757307703939707E-1   -3.234216318699640E-1
 9.937388730549999E9     4.692768993330690E-1   -1.141689227566174E-1   -9.006765065016476E-4   -7.750013896761356E-4   -8.561298836703026E-4   -7.450387317311442E-4    3.756646442662036E-1   -3.238661883482602E-1
 9.937391521575001E9     4.692881860181599E-1   -1.146511138294162E-1   -8.681603760326035E-4   -7.877904236234875E-4   -8.861120019416792E-4   -7.484099674383500E-4    3.751535873276701E-1   -3.239800602839896E-1
 9.937394312600000E9     4.692844600546304E-1   -1.145638446313453E-1   -8.903262232413364E-4   -7.879064728111729E-4   -9.272350839786999E-4   -7.706303390107146E-4    3.750978121498292E-1   -3.240568898033833E-1
 9.937397103625000E9     4.692687978651349E-1   -1.149976751164552E-1   -9.279447292286795E-4   -7.971858518025122E-4   -9.434111467019482E-4   -7.776552941010697E-4    3.748885810491485E-1   -3.242729459662032E-1
 9.937399894650000E9     4.691793219059702E-1   -1.150178234101040E-1   -9.530039585772870E-4   -8.300728140241120E-4   -9.489680526648527E-4   -7.894701960562803E-4    3.742860139032262E-1   -3.247036712567176E-1
 9.937402685674999E9     4.690476104613939E-1   -1.152181980386815E-1   -9.395353800991407E-4   -8.454838692891617E-4   -9.528472263013638E-4   -8.447981628429376E-4    3.741175166242382E-1   -3.250576751165297E-1
 9.937405476700001E9     4.690368967027908E-1   -1.154388948436862E-1   -1.003844907263717E-3   -8.668424907117769E-4   -9.936793022928200E-4   -8.507202571281671E-4    3.738555144326082E-1   -3.250383891013021E-1
 9.937408267725000E9     4.689584745440943E-1   -1.155284839229895E-1   -9.964910430087081E-4   -8.469629355489523E-4   -1.004551031487050E-3   -8.678229964844906E-4    3.734744458879790E-1   -3.252898683644448E-1
 9.937411058750000E9     4.688207464852282E-1   -1.155894480623794E-1   -9.932401727926296E-4   -8.586074949152847E-4   -1.033352800746021E-3   -8.726936193297709E-4    3.732025587116614E-1   -3.255516922765279E-1
 9.937413849775000E9     4.688050924667910E-1   -1.159753981118560E-1   -9.909420644321977E-4   -8.959814354059741E-4   -1.045971991660169E-3   -8.488244853564495E-4    3.728444699926826E-1   -3.259069288982374E-1
 9.937416640799999E9     4.686584016827128E-1   -1.161929696722588E-1   -1.025126317830488E-3   -9.220182233240774E-4   -1.065378938580908E-3   -9.286281911215177E-4    3.727050965593977E-1   -3.260693758891222E-1
 9.937419431825001E9     4.687762844897327E-1   -1.163882294735245E-1   -1.047388495963264E-3   -9.075763987358039E-4   -1.120619064714739E-3   -9.036316694951575E-4    3.722729364281149E-1   -3.262614086901366E-1
 9.937422222850000E9     4.684410900673214E-1   -1.165701884692115E-1   -1.105638890590235E-3   -9.197023293364319E-4   -1.123366292330808E-3   -9.305567976687823E-4    3.721593544769868E-1   -3.265112225210509E-1
 9.937425013875000E9     4.686627321770777E-1   -1.166740840847515E-1   -1.127955809488695E-3   -9.300800219453867E-4   -1.163430016863212E-3   -9.220155364090787E-4    3.716555705319831E-1   -3.267364194957464E-1
 9.937427804900000E9     4.684339889032620E-1   -1.167392333104721E-1   -1.123490568076603E-3   -9.644408124946321E-4   -1.154774006501289E-3   -9.690888657189502E-4    3.713621283745032E-1   -3.269233205559395E-1
 9.937430595924999E9     4.684592969681802E-1   -1.169576290951875E-1   -1.159914674510760E-3   -9.720466737729383E-4   -1.158054002929803E-3   -9.691574014200947E-4    3.711410892860944E-1   -3.271553200264409E-1
 9.937433386950001E9     4.684016835589055E-1   -1.171607933510270E-1   -1.170936280613753E-3   -9.627619608909851E-4   -1.180876134900886E-3   -9.861862255528201E-4    3.708555529421411E-1   -3.275044095858690E-1
 9.937436177975000E9     4.685446124348274E-1   -1.173980564955260E-1   -1.170326488715229E-3   -9.818559023297591E-4   -1.234312414116520E-3   -1.006355711982975E-3    3.704506539301393E-1   -3.275141215215882E-1
 9.937438969000000E9     4.683500702750789E-1   -1.175275501305098E-1   -1.195425891554978E-3   -1.019298785928539E-3   -1.228697335003325E-3   -1.034618412014792E-3    3.702562836191831E-1   -3.277753027986383E-1
 9.937441760025000E9     4.682001753627580E-1   -1.178320033618154E-1   -1.242942600413932E-3   -1.049658237831404E-3   -1.252420500138735E-3   -1.054950680077200E-3    3.698261439309432E-1   -3.281148394267283E-1
 9.937444551049999E9     4.682169693681829E-1   -1.179729136002493E-1   -1.222439558940943E-3   -1.053969955234006E-3   -1.289323501012001E-3   -1.071129819244605E-3    3.695221174953545E-1   -3.282880622336137E-1
 9.937447342075001E9     4.680825257911513E-1   -1.182486621166342E-1   -1.276962748833224E-3   -1.074491708692840E-3   -1.281613839058350E-3   -1.090690678665988E-3    3.690752783266792E-1   -3.285235598163685E-1
 9.937450133100000E9     4.680013256341067E-1   -1.183172456022592E-1   -1.333042537681717E-3   -1.107943583182417E-3   -1.294485561918851E-3   -1.067823645649350E-3    3.688958119890220E-1   -3.288362046435873E-1
 9.937452924125000E9     4.679845893823191E-1   -1.185044945264448E-1   -1.302692546144236E-3   -1.099227350074255E-3   -1.364152587175010E-3   -1.104478562248723E-3    3.685061747319225E-1   -3.290800262646565E-1
 9.937455715150000E9     4.679293904780447E-1   -1.187263456417786E-1   -1.346040772694593E-3   -1.132761138996947E-3   -1.375976705232939E-3   -1.106553881475163E-3    3.680757116087033E-1   -3.289553704671516E-1
 9.937458506174999E9     4.678678010972559E-1   -1.190329760233508E-1   -1.371455827060103E-3   -1.143976810654489E-3   -1.419710550552465E-3   -1.115166423157574E-3    3.677211070087341E-1   -3.294210545899843E-1
 9.937461297200001E9     4.678907487725780E-1   -1.192068988832873E-1   -1.379102928049911E-3   -1.154318618220237E-3   -1.442274839198698E-3   -1.143966477951360E-3    3.672586203373228E-1   -3.297818268509382E-1
 9.937464088225000E9     4.677968273985590E-1   -1.194018344210892E-1   -1.414554277532208E-3   -1.160152035347550E-3   -1.458589107150933E-3   -1.123703252173495E-3    3.671337593582302E-1   -3.299695405915918E-1
 9.937466879250000E9     4.676543014735838E-1   -1.194253681303029E-1   -1.478903437314538E-3   -1.188830154686126E-3   -1.489975483046247E-3   -1.197987377946323E-3    3.665970098377906E-1   -3.303439486188460E-1
