#  HZ   S   RI   R     50.00 
! Rohde & Schwarz Vector Network Analyzer 
! Rohde-Schwarz,ZNB20-2Port,1311601062101988,3.16
! Created: UTC 3/20/2024, 11:08:03 PM
! freq[Hz]                re:S11                  im:S11                  re:S21                  im:S21                  re:S12                  im:S12                  re:S22                  im:S22
 9.937226664000000E9     4.727019007016054E-1   -1.034853281851362E-1   -2.458937002633684E-4   -1.739972896535968E-4   -2.302114068556112E-4   -1.826658725650180E-4    3.883822564436645E-1   -3.119755539979037E-1
 9.937229404625000E9     4.724874648958675E-1   -1.036700322875983E-1   -2.506985406461199E-4   -2.239108337116747E-4   -2.713775871645132E-4   -2.016420920725218E-4    3.882957920802446E-1   -3.120860078428199E-1
 9.937232145250000E9     4.724515762306249E-1   -1.038667359916607E-1   -2.624470309472215E-4   -2.072642509810242E-4   -2.712951218441685E-4   -1.755837406483325E-4    3.881454769328945E-1   -3.123664746339003E-1
 9.937234885875000E9     4.723712761245158E-1   -1.037076338137925E-1   -2.746950589856276E-4   -1.905028303448102E-4   -3.036253017098801E-4   -2.218862858441227E-4    3.881645543640413E-1   -3.126264436334554E-1
 9.937237626500000E9     4.723862100349062E-1   -1.040699790296392E-1   -2.165021917809579E-4   -2.100159966011670E-4   -3.215739665123755E-4   -1.918510012835564E-4    3.877131296288988E-1   -3.125185730583321E-1
 9.937240367125000E9     4.724318573249786E-1   -1.043159128221701E-1   -2.577132448985226E-4   -2.388999005602255E-4   -2.713039267678521E-4   -2.050955991113499E-4    3.876934371154283E-1   -3.126990476805708E-1
 9.937243107750000E9     4.723681925210073E-1   -1.044040802936037E-1   -2.726925861369934E-4   -2.531192542618040E-4   -3.178374184098040E-4   -2.304308654754251E-4    3.874173828381013E-1   -3.130782902248447E-1
 9.937245848375000E9     4.723258313128676E-1   -1.046954131105494E-1   -3.190469896827737E-4   -2.367777326854905E-4   -3.267750904681389E-4   -2.534371529466974E-4    3.870959084053565E-1   -3.133340740092658E-1
 9.937248589000000E9     4.721381452181745E-1   -1.048144256200506E-1   -2.896701294921551E-4   -2.510876931045840E-4   -3.207991192073943E-4   -2.244193597741164E-4    3.869705366259217E-1   -3.134527365964435E-1
 9.937251329625000E9     4.721035807013643E-1   -1.050030927825917E-1   -2.996278452873640E-4   -2.365718707232748E-4   -3.281191494404936E-4   -2.559998866195869E-4    3.868218807661437E-1   -3.134874166712064E-1
 9.937254070250000E9     4.719474340532151E-1   -1.051590536222297E-1   -3.457398607702329E-4   -2.499845145616369E-4   -3.312681199514975E-4   -2.789258645090465E-4    3.867303384215488E-1   -3.139075992244454E-1
 9.937256810875000E9     4.720985709700359E-1   -1.053878169504704E-1   -3.475805671501205E-4   -2.607779340169564E-4   -3.332640048139236E-4   -2.817039227912721E-4    3.863966977607114E-1   -3.138557152619647E-1
 9.937259551500000E9     4.720174629860908E-1   -1.056599683005085E-1   -3.364736809773796E-4   -3.061460053330777E-4   -3.270355647416706E-4   -2.558577483623340E-4    3.864185407453423E-1   -3.141871195996120E-1
 9.937262292125000E9     4.719633905454473E-1   -1.057006624538021E-1   -3.561783431299926E-4   -2.705489087929719E-4   -3.669311610226552E-4   -2.923975327738081E-4    3.860340170600760E-1   -3.146459970284274E-1
 9.937265032750000E9     4.718532329784542E-1   -1.058697951095034E-1   -3.555144000079788E-4   -3.106830564486528E-4   -3.509924924557264E-4   -2.765964140600774E-4    3.858618963085633E-1   -3.146972311810318E-1
 9.937267773375000E9     4.718237180479132E-1   -1.061002072382127E-1   -3.413468856140709E-4   -3.084640026846577E-4   -3.732517573443874E-4   -2.391701000412003E-4    3.857557412111470E-1   -3.146718754199888E-1
 9.937270514000000E9     4.717847460242541E-1   -1.062182396113146E-1   -3.689591304065883E-4   -3.029607458442370E-4   -3.748912793815231E-4   -3.084222782905538E-4    3.855328937086836E-1   -3.149511189048830E-1
 9.937273254625000E9     4.717406091693710E-1   -1.066633697699664E-1   -3.656812611075061E-4   -3.065516562623628E-4   -3.917466276287180E-4   -3.457234789921975E-4    3.853275465171945E-1   -3.152884941645966E-1
 9.937275995250000E9     4.716367936215469E-1   -1.066159553788838E-1   -4.022850892908905E-4   -3.204108088686187E-4   -3.868496935628710E-4   -3.238093099982807E-4    3.851284660743886E-1   -3.152549319216114E-1
 9.937278735875000E9     4.716286079320418E-1   -1.068769685568687E-1   -3.784554645109055E-4   -3.179120521636859E-4   -3.812108631075905E-4   -2.977721415349536E-4    3.850118792879700E-1   -3.157184734815134E-1
 9.937281476500000E9     4.715575296108031E-1   -1.069762811548575E-1   -4.005038795894391E-4   -3.497603662844246E-4   -4.081954671656348E-4   -3.297972243049689E-4    3.846770884708131E-1   -3.158685058648704E-1
 9.937284217125000E9     4.715316708260964E-1   -1.072063190079701E-1   -4.366500238192976E-4   -3.220825142685614E-4   -4.343036278456426E-4   -3.336110526762117E-4    3.842686933032144E-1   -3.160086086683354E-1
 9.937286957750000E9     4.714593018083099E-1   -1.074323099161265E-1   -4.128847737334441E-4   -3.439896196540921E-4   -4.283509293601765E-4   -3.321892091703783E-4    3.842340282508104E-1   -3.159986397306782E-1
 9.937289698375000E9     4.713996260295726E-1   -1.075910636004436E-1   -4.533060076437922E-4   -3.747368235763609E-4   -4.718666900779230E-4   -3.565677569631194E-4    3.839997285004734E-1   -3.161918719938552E-1
 9.937292439000000E9     4.713096850036588E-1   -1.077653824320326E-1   -4.294727132235016E-4   -3.518386888195004E-4   -4.406776627098077E-4   -3.536024223542331E-4    3.838932313129408E-1   -3.164522710791824E-1
 9.937295179625000E9     4.711885903442419E-1   -1.079140497550597E-1   -4.560018677636112E-4   -3.957044241750734E-4   -4.784158192735066E-4   -3.683465076007852E-4    3.835705880329668E-1   -3.166404708324315E-1
 9.937297920250000E9     4.710769414910069E-1   -1.081781006078534E-1   -4.798006263563043E-4   -3.750721662062872E-4   -4.710729783207333E-4   -3.775001076332462E-4    3.833851172260760E-1   -3.167436760289485E-1
 9.937300660875000E9     4.711931009640590E-1   -1.081506205981893E-1   -4.711008387118083E-4   -3.901894901487389E-4   -4.915117198363133E-4   -4.209401494450932E-4    3.831517921525278E-1   -3.172324114331160E-1
 9.937303401500000E9     4.712530334176016E-1   -1.084876938281837E-1   -4.635086065296078E-4   -4.387498615974082E-4   -5.021420455816979E-4   -4.013623444294632E-4    3.829501103854735E-1   -3.172756904205111E-1
 9.937306142125000E9     4.709910149530054E-1   -1.088292968317243E-1   -4.812106364884096E-4   -3.737910301585783E-4   -4.679756779952716E-4   -3.978624991246832E-4    3.828739478468767E-1   -3.176674355618477E-1
 9.937308882750000E9     4.709371428020861E-1   -1.088848920770498E-1   -5.090729158520452E-4   -4.451084969901738E-4   -5.049566439604267E-4   -4.297887391754031E-4    3.823935153052005E-1   -3.176409518377269E-1
 9.937311623375000E9     4.708984720992614E-1   -1.091509000826543E-1   -4.961899427787766E-4   -4.521989290641351E-4   -4.972795953674329E-4   -4.404423752035644E-4    3.823086663328383E-1   -3.178450598661277E-1
 9.937314364000000E9     4.707128255534985E-1   -1.093111802027391E-1   -5.559391332524619E-4   -4.584020746936674E-4   -5.665924580347040E-4   -4.631624015972401E-4    3.821888831364976E-1   -3.180387656913773E-1
 9.937317104625000E9     4.708531224805104E-1   -1.094877573916005E-1   -5.102353624416352E-4   -4.361974421832842E-4   -5.382873149524226E-4   -4.434683423564789E-4    3.819084981547454E-1   -3.184465161322341E-1
 9.937319845250000E9     4.707488261775000E-1   -1.095988157526079E-1   -5.257466347994100E-4   -4.910531058768490E-4   -5.254972298745081E-4   -4.870126733616344E-4    3.819271454429952E-1   -3.187799709132482E-1
 9.937322585875000E9     4.707919338895029E-1   -1.097419669758036E-1   -5.409792419949623E-4   -5.109230500440877E-4   -5.841543705999866E-4   -4.773509698028021E-4    3.813952445168586E-1   -3.187424671390576E-1
 9.937325326500000E9     4.707016488572320E-1   -1.099606974003718E-1   -5.590624746870184E-4   -4.933748354281521E-4   -5.450677514929884E-4   -4.733503232032207E-4    3.811951615340060E-1   -3.189225181132073E-1
 9.937328067125000E9     4.705874315292737E-1   -1.100621950448329E-1   -5.762507631840900E-4   -5.144229223976159E-4   -5.813114233406348E-4   -4.655668220852031E-4    3.811261526516002E-1   -3.189898364833733E-1
 9.937330807750000E9     4.706104747623096E-1   -1.103255642855316E-1   -5.905387249368367E-4   -5.551273708616478E-4   -6.279325147680626E-4   -5.228750178079500E-4    3.807519079627963E-1   -3.191135811939485E-1
 9.937333548375000E9     4.705166486181179E-1   -1.105008125386834E-1   -5.459707100569001E-4   -5.319443153374309E-4   -6.032461946221467E-4   -4.945891297868068E-4    3.805470070561285E-1   -3.195452619775059E-1
 9.937336289000000E9     4.703841519506423E-1   -1.106967238057514E-1   -6.296048046674723E-4   -5.205017051284990E-4   -6.255236744026750E-4   -5.447389380733834E-4    3.803522374146507E-1   -3.198595851908394E-1
 9.937339029625000E9     4.704558114934950E-1   -1.108937717136749E-1   -6.172671706830466E-4   -5.512622114270931E-4   -6.421959567815531E-4   -5.461188080778563E-4    3.800499848429831E-1   -3.198585063630275E-1
 9.937341770250000E9     4.702278154273306E-1   -1.111288257572979E-1   -6.529066166511244E-4   -5.467906940547163E-4   -6.687161128447586E-4   -5.426287875928052E-4    3.797317217439672E-1   -3.200319485962206E-1
 9.937344510875000E9     4.701043785343099E-1   -1.113050897724092E-1   -6.417037760920578E-4   -5.295263552283423E-4   -6.625720871711708E-4   -5.688516021899060E-4    3.794390116490691E-1   -3.202991845396435E-1
 9.937347251500000E9     4.702847631883304E-1   -1.114878907427462E-1   -6.759894742089420E-4   -5.748355846586171E-4   -6.893698458395754E-4   -5.915314662219667E-4    3.793648538615144E-1   -3.206299105199492E-1
 9.937349992125000E9     4.701086102806091E-1   -1.114493298943471E-1   -6.600638687843163E-4   -5.768871759507990E-4   -6.812140209815369E-4   -5.431400449205132E-4    3.790773189777549E-1   -3.206462183117171E-1
 9.937352732750000E9     4.701882878267254E-1   -1.118093740272254E-1   -6.961102820959911E-4   -6.141661883837654E-4   -6.900052192537017E-4   -5.959480324936878E-4    3.789758406070894E-1   -3.208353933734823E-1
 9.937355473375000E9     4.699876907836916E-1   -1.120057525003391E-1   -6.877070311016775E-4   -5.870144224749082E-4   -6.942226689709997E-4   -6.054937358626309E-4    3.784775521508006E-1   -3.211217417281425E-1
 9.937358214000000E9     4.698983528193136E-1   -1.122245366166657E-1   -7.200435584787737E-4   -5.900042079631666E-4   -7.336209512085100E-4   -5.938967710954992E-4    3.782506867510828E-1   -3.213696682910365E-1
 9.937360954625000E9     4.699156316287594E-1   -1.123282926694852E-1   -7.201251967876092E-4   -6.346376569263692E-4   -7.337660157243626E-4   -6.289484762333980E-4    3.782021268270448E-1   -3.215016255756489E-1
 9.937363695250000E9     4.698454774575423E-1   -1.125976990185450E-1   -6.922677707181355E-4   -6.467975867686464E-4   -7.551603856542606E-4   -6.533833555924471E-4    3.778375911914633E-1   -3.217851593015332E-1
 9.937366435875000E9     4.696867121554458E-1   -1.128827884599904E-1   -7.518607172677611E-4   -6.517249346418449E-4   -7.674843480441726E-4   -6.534043774840886E-4    3.776815545860782E-1   -3.219502370408764E-1
 9.937369176500000E9     4.698681291940560E-1   -1.129344702349162E-1   -7.476435454842798E-4   -6.686781209127819E-4   -7.893665271672392E-4   -6.530190498554442E-4    3.775146950244282E-1   -3.222980544079774E-1
 9.937371917125000E9     4.697530055214276E-1   -1.130877023011296E-1   -7.673488337488637E-4   -6.861887290098947E-4   -7.625575689171503E-4   -6.535238682545145E-4    3.772630363345039E-1   -3.224095331909283E-1
 9.937374657750000E9     4.696586639758411E-1   -1.134289849563333E-1   -7.681477846940843E-4   -6.780599647785902E-4   -8.098125361742337E-4   -6.731136876464164E-4    3.769328871763548E-1   -3.225885833200877E-1
 9.937377398375000E9     4.696132240211817E-1   -1.135132527451467E-1   -8.013009769340678E-4   -6.906329081802334E-4   -8.291781969944245E-4   -7.092808446723210E-4    3.766549321453727E-1   -3.228662270186014E-1
 9.937380139000000E9     4.695345079522279E-1   -1.136543304629975E-1   -8.035577074228654E-4   -7.242873305257683E-4   -8.157187423249950E-4   -6.867258086936384E-4    3.764661551234978E-1   -3.229976640943764E-1
 9.937382879625000E9     4.695455191663753E-1   -1.138582844467147E-1   -8.133980431113284E-4   -7.093059316686938E-4   -8.249552381571353E-4   -7.084659853691281E-4    3.764227559873350E-1   -3.233885331557599E-1
 9.937385620250000E9     4.694192498722054E-1   -1.140759981126306E-1   -8.314133946491561E-4   -7.578210172578960E-4   -8.471477089987250E-4   -7.373532496493149E-4    3.759284580627571E-1   -3.234958490857169E-1
 9.937388360875000E9     4.693960667538243E-1   -1.143170479192982E-1   -8.531536723408087E-4   -7.830693978595751E-4   -8.782561028953848E-4   -7.677933594068257E-4    3.755308375669207E-1   -3.236501585680306E-1
 9.937391101500000E9     4.693767196359502E-1   -1.145032449537958E-1   -8.641489351197987E-4   -7.765148291038490E-4   -9.225660697316794E-4   -7.433379381232408E-4    3.753337506836765E-1   -3.238486224531183E-1
 9.937393842125000E9     4.692964669115741E-1   -1.145478925323272E-1   -9.044785283994859E-4   -7.970334325383889E-4   -9.288180916982156E-4   -7.983486522803810E-4    3.750406231023787E-1   -3.242198833800812E-1
 9.937396582750000E9     4.693417109380206E-1   -1.147942232879401E-1   -9.283842722017132E-4   -7.958876428970767E-4   -9.297107422045486E-4   -7.993682216226600E-4    3.747299520773007E-1   -3.242150774200284E-1
 9.937399323375000E9     4.692860354477791E-1   -1.148700190442589E-1   -9.171637659495102E-4   -7.693333829482769E-4   -9.644651595138451E-4   -8.025115851486860E-4    3.744932261259728E-1   -3.244716960859534E-1
 9.937402064000000E9     4.692124636500065E-1   -1.153016988022133E-1   -9.544867006416111E-4   -8.363330223321523E-4   -9.677275181335125E-4   -8.012488078270607E-4    3.741992981174141E-1   -3.247948858508568E-1
 9.937404804625000E9     4.691659264562345E-1   -1.152878194444013E-1   -9.848499239960707E-4   -8.191814957345814E-4   -9.973138571917816E-4   -8.420230851143786E-4    3.738463208480446E-1   -3.250855615307405E-1
 9.937407545250000E9     4.689822356405079E-1   -1.155635126820978E-1   -9.809508504649556E-4   -8.296771445122055E-4   -1.011186015013357E-3   -8.388032605166310E-4    3.736128533401180E-1   -3.252860227703266E-1
 9.937410285875000E9     4.689234548876219E-1   -1.156769220684464E-1   -9.840416729125429E-4   -8.668824309933377E-4   -1.034924709172602E-3   -8.779252079017170E-4    3.734036914818286E-1   -3.254858428743836E-1
 9.937413026500000E9     4.688014378785140E-1   -1.157394911572442E-1   -1.013413997686726E-3   -8.779730368168185E-4   -1.059197573453915E-3   -8.735896124681081E-4    3.730143327630246E-1   -3.256863628206265E-1
 9.937415767125000E9     4.687490397294349E-1   -1.159178900303554E-1   -1.005437915667746E-3   -8.776556301209869E-4   -1.054980854599008E-3   -9.046033685688405E-4    3.727789893597417E-1   -3.260122254006632E-1
 9.937418507750000E9     4.687944896918704E-1   -1.162350302146478E-1   -1.033418456575620E-3   -9.018418063440535E-4   -1.087133841331410E-3   -9.264301793915753E-4    3.724485005479362E-1   -3.259986534219194E-1
 9.937421248375000E9     4.687468169755869E-1   -1.164355012372155E-1   -1.067697171123926E-3   -8.820516358302304E-4   -1.094372386832915E-3   -9.274581620210034E-4    3.723242391002673E-1   -3.263832823447430E-1
 9.937423989000000E9     4.685796547711901E-1   -1.165772104554562E-1   -1.102255693051606E-3   -9.169130956638808E-4   -1.101772744810540E-3   -9.173396690743497E-4    3.719963645373344E-1   -3.265159084601293E-1
 9.937426729625000E9     4.685996929077746E-1   -1.167314858694668E-1   -1.120670059841428E-3   -9.506164853661651E-4   -1.122230131131301E-3   -9.525420561540607E-4    3.715824558685326E-1   -3.267812861865118E-1
 9.937429470250000E9     4.684597419692956E-1   -1.169202488925290E-1   -1.130535311527263E-3   -9.384532504211912E-4   -1.137714212677208E-3   -9.930323363941341E-4    3.713694687311779E-1   -3.271732321855524E-1
 9.937432210875000E9     4.685337086883348E-1   -1.171714273793072E-1   -1.145577645391896E-3   -9.497999621023650E-4   -1.182125450134253E-3   -9.661530993350745E-4    3.710148360436674E-1   -3.272369601123860E-1
 9.937434951500000E9     4.683436311459661E-1   -1.173434814087951E-1   -1.165183977410173E-3   -9.514047264723565E-4   -1.193161260080490E-3   -9.869394306057035E-4    3.708746533994743E-1   -3.276607264815887E-1
 9.937437692125000E9     4.683362178646802E-1   -1.175532655194328E-1   -1.201699003797920E-3   -9.763650313157644E-4   -1.215433139940908E-3   -1.007966488693032E-3    3.702888492142959E-1   -3.274710892507058E-1
 9.937440432750000E9     4.682178333312784E-1   -1.177480193187824E-1   -1.199158408973875E-3   -1.019321408936491E-3   -1.253431406432727E-3   -1.023592820845004E-3    3.701935598060641E-1   -3.280065698004964E-1
 9.937443173375000E9     4.680531915193365E-1   -1.179881961804169E-1   -1.245596221253960E-3   -1.017801912472485E-3   -1.283291661942309E-3   -1.048810701304930E-3    3.696657665283384E-1   -3.282246865982735E-1
 9.937445914000000E9     4.681495641354453E-1   -1.179734678786111E-1   -1.265093388062229E-3   -1.067906498441400E-3   -1.287336638496935E-3   -1.023133237375356E-3    3.693929036751004E-1   -3.282799800189418E-1
 9.937448654625000E9     4.679842827416197E-1   -1.182264509050320E-1   -1.247735333343414E-3   -1.053757091466407E-3   -1.288912992737503E-3   -1.065457905836811E-3    3.692791664275878E-1   -3.287807760708038E-1
 9.937451395250000E9     4.681278803281553E-1   -1.183297662697116E-1   -1.286356493346389E-3   -1.078062839049058E-3   -1.290484748572976E-3   -1.079491871561384E-3    3.687171490201144E-1   -3.289045885724486E-1
 9.937454135875000E9     4.679518928182277E-1   -1.185915163870646E-1   -1.326737564530839E-3   -1.137782731730401E-3   -1.365224613306709E-3   -1.087976270685612E-3    3.686236166947453E-1   -3.289597317153725E-1
 9.937456876500000E9     4.679285418598552E-1   -1.187798474740109E-1   -1.347990309646032E-3   -1.136817690194021E-3   -1.394246200288189E-3   -1.131381699650702E-3    3.680329319385633E-1   -3.292141756316221E-1
 9.937459617125000E9     4.678253138581779E-1   -1.189808249075503E-1   -1.381425590341307E-3   -1.163451418621695E-3   -1.389051491062373E-3   -1.107061505865679E-3    3.678735699934134E-1   -3.294554476994366E-1
 9.937462357750000E9     4.679009196499204E-1   -1.192586223680467E-1   -1.403669736921718E-3   -1.113013664460630E-3   -1.411868582251644E-3   -1.179685181549527E-3    3.673942052983087E-1   -3.297712796878507E-1
 9.937465098375000E9     4.678430115034002E-1   -1.193968112620776E-1   -1.440829729491933E-3   -1.175670316431866E-3   -1.442556202564252E-3   -1.164723150704026E-3    3.670554382009719E-1   -3.300746655779942E-1
 9.937467839000000E9     4.677056307788076E-1   -1.195553139991250E-1   -1.419630949278673E-3   -1.204595413977267E-3   -1.505062944673443E-3   -1.199436134977140E-3    3.666802450061828E-1   -3.302757058632995E-1
 9.937470579625000E9     4.675973150176356E-1   -1.196719173166897E-1   -1.477439911754986E-3   -1.196584378851316E-3   -1.498580090911437E-3   -1.194499303629414E-3    3.661759918140446E-1   -3.304534916482821E-1
 9.937473320250000E9     4.675646849271842E-1   -1.198596328912547E-1   -1.455492140538325E-3   -1.214677244948571E-3   -1.560472090432641E-3   -1.208401109304345E-3    3.659851631967505E-1   -3.309467103442192E-1
