#  HZ   S   RI   R     50.00 
! Rohde & Schwarz Vector Network Analyzer 
! Rohde-Schwarz,ZNB20-2Port,1311601062101988,3.16
! Created: UTC 3/20/2024, 11:08:27 PM
! freq[Hz]                re:S11                  im:S11                  re:S21                  im:S21                  re:S12                  im:S12                  re:S22                  im:S22
 9.937228979000000E9     4.726146127029698E-1   -1.034864263006124E-1   -2.524000636639865E-4   -1.797051127185812E-4   -2.258231921445221E-4   -1.641624450550950E-4    3.885401353567844E-1   -3.120408392856645E-1
 9.937231731575001E9     4.725232417529955E-1   -1.037133699910751E-1   -2.549850251326077E-4   -2.024485040527468E-4   -2.865074651274696E-4   -1.836547924276492E-4    3.882615703064725E-1   -3.122228820078425E-1
 9.937234484150000E9     4.723731057894888E-1   -1.039409247279948E-1   -2.619328980460381E-4   -1.769072945535200E-4   -2.584371306074559E-4   -2.021664112154582E-4    3.881179281878752E-1   -3.125054054678071E-1
 9.937237236725000E9     4.723929318520899E-1   -1.039770187976302E-1   -2.407217414380054E-4   -2.271278078759647E-4   -2.408745093663636E-4   -2.063999131407794E-4    3.878899342874302E-1   -3.125415644050959E-1
 9.937239989299999E9     4.724990006159726E-1   -1.041365802116172E-1   -2.512889102258542E-4   -2.094693853210616E-4   -2.869271472174200E-4   -1.821544695259428E-4    3.877502790425611E-1   -3.126969726402720E-1
 9.937242741875000E9     4.722465191018121E-1   -1.044398699518660E-1   -2.775639091447048E-4   -1.970528699339767E-4   -2.744471474890307E-4   -2.069991395219665E-4    3.875892249279137E-1   -3.129126664978395E-1
 9.937245494450001E9     4.723680050640869E-1   -1.045756921947809E-1   -2.567385559465139E-4   -2.535104559475621E-4   -3.193831060392199E-4   -2.377134373546313E-4    3.874184210180332E-1   -3.130057941297965E-1
 9.937248247025000E9     4.721794404989094E-1   -1.048054328955942E-1   -2.878129732232725E-4   -2.283399274703420E-4   -2.773049353057027E-4   -2.365677151878978E-4    3.872293366673489E-1   -3.134540049325459E-1
 9.937250999600000E9     4.722090454266480E-1   -1.050008744711582E-1   -2.935053039610592E-4   -2.567637906282467E-4   -3.229375341067681E-4   -2.407097075286368E-4    3.869642141640585E-1   -3.135571891668341E-1
 9.937253752174999E9     4.721414284248658E-1   -1.052806354851152E-1   -2.818317979482955E-4   -2.547043272906451E-4   -3.085737682212768E-4   -2.168920204626610E-4    3.869017201666532E-1   -3.138115415680131E-1
 9.937256504750000E9     4.721421810381163E-1   -1.054960885720759E-1   -2.831219781200762E-4   -2.241795970323882E-4   -3.124080966197694E-4   -2.476805664339550E-4    3.866303519366271E-1   -3.138899900907570E-1
 9.937259257325001E9     4.720351246413113E-1   -1.053826357002420E-1   -3.249512677137658E-4   -2.606588999784299E-4   -3.280629870024239E-4   -2.628732504622787E-4    3.864017443165368E-1   -3.140926504115058E-1
 9.937262009900000E9     4.720720693036281E-1   -1.058315100060237E-1   -3.370767710117263E-4   -2.671645264749941E-4   -3.338510578454340E-4   -2.732197791488142E-4    3.862293136763548E-1   -3.143267347922074E-1
 9.937264762475000E9     4.719355702076951E-1   -1.060033521624192E-1   -3.155294994896368E-4   -2.685039633515315E-4   -3.396547975794251E-4   -2.833088137922583E-4    3.861522150678486E-1   -3.144675717635660E-1
 9.937267515049999E9     4.718862831341238E-1   -1.061746907076225E-1   -3.306237229064575E-4   -2.929094548797254E-4   -3.726538042780253E-4   -3.226690597518171E-4    3.858871165927988E-1   -3.146274683680265E-1
 9.937270267625000E9     4.718004890388038E-1   -1.063102728528384E-1   -3.370937160374465E-4   -3.011740340626640E-4   -3.523478607318936E-4   -2.809169139978252E-4    3.856529509680689E-1   -3.149614345381834E-1
 9.937273020200001E9     4.717228043395815E-1   -1.064437002794265E-1   -3.145797810386131E-4   -3.073211219895165E-4   -3.828540209819694E-4   -2.828882799085554E-4    3.855426079502179E-1   -3.150779772931601E-1
 9.937275772775000E9     4.716401311819345E-1   -1.067178991834542E-1   -3.616840763537710E-4   -3.029480794986631E-4   -3.660026718669853E-4   -3.320159949241396E-4    3.853860898495582E-1   -3.153266648408157E-1
 9.937278525350000E9     4.715318757953147E-1   -1.068152778918065E-1   -3.539132412307323E-4   -3.008140877353581E-4   -3.816536945809720E-4   -3.139891057522813E-4    3.850185005590228E-1   -3.154804890354123E-1
 9.937281277924999E9     4.716412585774228E-1   -1.070672629971480E-1   -3.562107795700326E-4   -3.446980456236831E-4   -3.730004835106677E-4   -3.291661044305733E-4    3.850756989104183E-1   -3.155618494490996E-1
 9.937284030500000E9     4.714543593514946E-1   -1.072878585482346E-1   -3.988376861282147E-4   -3.170358054915768E-4   -4.208772697529443E-4   -3.310679475586463E-4    3.846052687814807E-1   -3.159374451596442E-1
 9.937286783075001E9     4.714739859156801E-1   -1.074957213837581E-1   -4.026883403154924E-4   -3.274767064086445E-4   -3.830909523661821E-4   -3.552313979346759E-4    3.843688986120851E-1   -3.161278364964306E-1
 9.937289535650000E9     4.713550341608989E-1   -1.075573961947282E-1   -4.005861861312344E-4   -3.241063401465363E-4   -4.200147998448161E-4   -3.668938567683584E-4    3.843142432388391E-1   -3.163075099666388E-1
 9.937292288225000E9     4.714453396263061E-1   -1.078899141589688E-1   -4.254631902008354E-4   -3.535143923757171E-4   -4.106344621552463E-4   -3.544715263571875E-4    3.840096558353709E-1   -3.165740200370621E-1
 9.937295040799999E9     4.712762388733250E-1   -1.079333366764352E-1   -4.502144950590404E-4   -3.999127502816083E-4   -4.096616847565855E-4   -3.371068900800455E-4    3.836401010348521E-1   -3.167325422659108E-1
 9.937297793375000E9     4.711976367724868E-1   -1.082068561145886E-1   -4.309319373662099E-4   -3.754779130593644E-4   -4.369780979662334E-4   -4.003987144356372E-4    3.836125983716869E-1   -3.167762536063424E-1
 9.937300545950001E9     4.713297106839616E-1   -1.083584665038287E-1   -4.638716549956534E-4   -3.700627624797188E-4   -4.843970474577619E-4   -3.741474441078500E-4    3.834284043157453E-1   -3.171247024735725E-1
 9.937303298525000E9     4.710076859844019E-1   -1.085721818723894E-1   -4.618959179794499E-4   -3.889807550865327E-4   -4.541170689511875E-4   -3.626763859945684E-4    3.831734113630435E-1   -3.172513206222899E-1
 9.937306051100000E9     4.709967392874888E-1   -1.087830197481226E-1   -4.630044520665946E-4   -4.105618519290627E-4   -5.136058191828705E-4   -3.720379854678784E-4    3.830353278025485E-1   -3.175194612483657E-1
 9.937308803674999E9     4.709520665810349E-1   -1.089494509873155E-1   -4.715403234853616E-4   -4.144665594680813E-4   -4.669101622837675E-4   -4.247853900504625E-4    3.827292467939341E-1   -3.174814621400647E-1
 9.937311556250000E9     4.708922913404603E-1   -1.090919352346553E-1   -4.572378231318376E-4   -4.135389204666138E-4   -4.949701501277779E-4   -4.050555896815504E-4    3.823947512940200E-1   -3.179903324253330E-1
 9.937314308825001E9     4.708079269369666E-1   -1.093754091165693E-1   -4.654965341144410E-4   -4.184844869334208E-4   -4.980011223749811E-4   -4.127993448939148E-4    3.824440830142062E-1   -3.179889645465873E-1
 9.937317061400000E9     4.709094160604881E-1   -1.094266390176567E-1   -4.930139314869051E-4   -4.465772599242298E-4   -5.063412007456224E-4   -4.477211414282084E-4    3.820834350889462E-1   -3.181290465903018E-1
 9.937319813975000E9     4.708216453932849E-1   -1.096971571580689E-1   -5.240433412110679E-4   -4.280400056642240E-4   -5.237967228125007E-4   -4.667073089120987E-4    3.818686397412647E-1   -3.182918576461183E-1
 9.937322566549999E9     4.707276409895118E-1   -1.099480646813766E-1   -5.374574101254067E-4   -4.259535866745209E-4   -5.492728051099843E-4   -4.493583809155106E-4    3.815329709205391E-1   -3.185969067286619E-1
 9.937325319125000E9     4.706743492466913E-1   -1.100896768907867E-1   -5.597149125123215E-4   -5.074548989250292E-4   -5.284638628099838E-4   -4.966654201085470E-4    3.811557155867927E-1   -3.188905503853431E-1
 9.937328071700001E9     4.705991597179022E-1   -1.103079394808624E-1   -5.668070774878390E-4   -4.933247833459622E-4   -5.535067483843074E-4   -4.691166952606135E-4    3.811993460587886E-1   -3.190488247587725E-1
 9.937330824275000E9     4.706358832693693E-1   -1.102446805168390E-1   -5.588958391203432E-4   -5.196461695594395E-4   -5.495418784855513E-4   -5.031409273046837E-4    3.809936185379623E-1   -3.193017472483796E-1
 9.937333576850000E9     4.704096372630240E-1   -1.106097795025370E-1   -5.885428240027161E-4   -4.992286782181173E-4   -5.759353329164212E-4   -4.729557415727719E-4    3.808896179353400E-1   -3.193656615754928E-1
 9.937336329424999E9     4.705612875031127E-1   -1.107740960603729E-1   -5.621070439299051E-4   -5.086465158239186E-4   -5.578812576222258E-4   -4.851431629115419E-4    3.804240192346633E-1   -3.196482021905729E-1
 9.937339082000000E9     4.703822491143861E-1   -1.108915103869588E-1   -5.894688159943177E-4   -5.463323598916634E-4   -5.705368475111101E-4   -5.268957970944006E-4    3.802107445390646E-1   -3.196696524152364E-1
 9.937341834575001E9     4.703360838242815E-1   -1.111394801720944E-1   -5.973788179182769E-4   -5.339192400227171E-4   -6.222080303644169E-4   -4.981737722058918E-4    3.800378783445977E-1   -3.201262647625700E-1
 9.937344587150000E9     4.703187792263281E-1   -1.113581617446753E-1   -6.039523384284405E-4   -5.404113295282182E-4   -6.510120474579434E-4   -5.517853617783558E-4    3.796881528100342E-1   -3.203755756704456E-1
 9.937347339725000E9     4.703205108872723E-1   -1.114979891865735E-1   -6.338330840916363E-4   -5.533456525530737E-4   -6.249519811841281E-4   -5.622215099585103E-4    3.794579275018196E-1   -3.204936487737798E-1
 9.937350092299999E9     4.700177168131169E-1   -1.116393825636769E-1   -6.347943821939006E-4   -5.970722512507348E-4   -6.494672490875223E-4   -5.580583750746229E-4    3.795079660454926E-1   -3.204575665962980E-1
 9.937352844875000E9     4.700123722681521E-1   -1.118511640125683E-1   -6.423910839932238E-4   -5.520204409211822E-4   -6.722904105447529E-4   -5.685448630690499E-4    3.790549184734542E-1   -3.208300670820884E-1
 9.937355597450001E9     4.699911477492601E-1   -1.120511161630987E-1   -6.219082629889579E-4   -5.869201389943461E-4   -6.635493950280939E-4   -6.039562971191602E-4    3.789334750724645E-1   -3.209934171975222E-1
 9.937358350025000E9     4.699696644066188E-1   -1.122449795333895E-1   -6.871133286037362E-4   -6.041791108720157E-4   -6.682789504017562E-4   -6.147080357420193E-4    3.785216479975749E-1   -3.212398427004042E-1
 9.937361102600000E9     4.698825013470236E-1   -1.123879683916885E-1   -7.246323903163665E-4   -5.978927162486598E-4   -6.973091487739845E-4   -5.947371631165293E-4    3.782861997952110E-1   -3.214508979387142E-1
 9.937363855174999E9     4.698765749563317E-1   -1.127474827805645E-1   -6.816262247897613E-4   -6.554933554833543E-4   -6.972701250350534E-4   -5.992305242242291E-4    3.781969843771564E-1   -3.219215888427398E-1
 9.937366607750000E9     4.697895282912530E-1   -1.127644723063030E-1   -7.160975113322533E-4   -6.203055739251372E-4   -6.998084225280314E-4   -6.496463578867071E-4    3.778845994530601E-1   -3.221175703920123E-1
 9.937369360325001E9     4.697126334342330E-1   -1.130437425773494E-1   -7.098009253487655E-4   -6.407911300493001E-4   -7.582213898213954E-4   -6.322026025477282E-4    3.775640057221998E-1   -3.221150776782416E-1
 9.937372112900000E9     4.696826485028531E-1   -1.131775957536544E-1   -7.601671023381062E-4   -6.558819870823783E-4   -7.586324647289212E-4   -6.528008836270195E-4    3.774630280689117E-1   -3.223885859727197E-1
 9.937374865475000E9     4.695393826700194E-1   -1.133235276658020E-1   -7.809290281578512E-4   -7.152261967017347E-4   -7.831526602529156E-4   -6.382392381846400E-4    3.772342305060394E-1   -3.226343560319350E-1
 9.937377618049999E9     4.694776870273881E-1   -1.134914329537147E-1   -7.498299064030634E-4   -6.710339029600759E-4   -7.950577886095298E-4   -6.891529779263398E-4    3.769764350381545E-1   -3.226716774367689E-1
 9.937380370625000E9     4.696205993428839E-1   -1.136607079118520E-1   -8.094223098928258E-4   -7.005897081401165E-4   -8.354227872275150E-4   -6.849801619000720E-4    3.765097076917666E-1   -3.229648239889171E-1
 9.937383123200001E9     4.696177868098519E-1   -1.139235013551929E-1   -8.053017644142187E-4   -7.136479934515733E-4   -8.414290903779092E-4   -7.025190761565930E-4    3.763030546214443E-1   -3.231613168302194E-1
 9.937385875775000E9     4.694204264551288E-1   -1.138998245526291E-1   -8.440160167954931E-4   -6.836602560915713E-4   -8.364785733196550E-4   -7.040569615918603E-4    3.761798375659661E-1   -3.234380415155278E-1
 9.937388628350000E9     4.692869253808067E-1   -1.142685038116625E-1   -8.021173701161807E-4   -7.167673948973387E-4   -8.023384009057589E-4   -6.927827228359198E-4    3.757939678526684E-1   -3.234974685276826E-1
 9.937391380924999E9     4.693807369435398E-1   -1.143790657570605E-1   -8.402136668279619E-4   -7.585468625806778E-4   -8.622964454564080E-4   -7.426918264495639E-4    3.756345588533433E-1   -3.239333074644872E-1
 9.937394133500000E9     4.692784981373142E-1   -1.145292072165491E-1   -8.679678135745981E-4   -7.426501237489033E-4   -8.571195126537250E-4   -7.253933080613972E-4    3.755233214235615E-1   -3.242319022084527E-1
 9.937396886075001E9     4.691637821140264E-1   -1.148889629445574E-1   -8.789294872594313E-4   -7.581646775711439E-4   -8.972624895622360E-4   -7.837498312503081E-4    3.750403351940553E-1   -3.241167051388709E-1
 9.937399638650000E9     4.690421350618440E-1   -1.150293084592209E-1   -8.810901928538537E-4   -7.702285897210182E-4   -9.411174184716703E-4   -7.683012995935560E-4    3.748115565791440E-1   -3.246500662189433E-1
 9.937402391225000E9     4.689541122205208E-1   -1.151684182346901E-1   -9.244782344703820E-4   -8.089372215349673E-4   -9.592819976941547E-4   -7.873158283811568E-4    3.743584531476278E-1   -3.247464014385715E-1
 9.937405143799999E9     4.689988422550515E-1   -1.153070391674964E-1   -9.255290947628799E-4   -7.999230130080645E-4   -9.685900169658138E-4   -8.023534235392510E-4    3.740304887981752E-1   -3.248971596375363E-1
 9.937407896375000E9     4.690253921383385E-1   -1.155656679364959E-1   -9.544212956707742E-4   -8.152347387721362E-4   -9.604888120696401E-4   -8.086948525977488E-4    3.741505910576088E-1   -3.251276226250556E-1
 9.937410648950001E9     4.688845456681327E-1   -1.157476702430363E-1   -9.572643580181327E-4   -8.032593939274773E-4   -1.004080574930673E-3   -8.416300522775753E-4    3.737936390029865E-1   -3.252998458212143E-1
 9.937413401525000E9     4.688599868399062E-1   -1.158946507800816E-1   -9.868041950759625E-4   -8.815906351287551E-4   -9.921179778906650E-4   -8.000852445174093E-4    3.733763490968174E-1   -3.254895925063383E-1
 9.937416154100000E9     4.688324172212420E-1   -1.160420119931982E-1   -9.836602294471578E-4   -8.543455295704871E-4   -1.029076643332553E-3   -8.862237657295114E-4    3.730511067239768E-1   -3.259421469315640E-1
 9.937418906674999E9     4.687653076080781E-1   -1.162642908319591E-1   -9.923281830752772E-4   -8.942223326740797E-4   -1.047991952194883E-3   -8.763079202744994E-4    3.728111983428054E-1   -3.259483318417405E-1
 9.937421659250000E9     4.687798031371662E-1   -1.164347511150931E-1   -1.031800717962174E-3   -9.034897657221993E-4   -1.040085200008161E-3   -8.894763425129914E-4    3.725524657758725E-1   -3.263032487775561E-1
 9.937424411825001E9     4.686684407839854E-1   -1.166011002553143E-1   -1.058687806545164E-3   -9.202954197379034E-4   -1.073884256901823E-3   -9.045678253382312E-4    3.722435859311083E-1   -3.264610940363624E-1
 9.937427164400000E9     4.684607137181654E-1   -1.169038867698972E-1   -1.081599702409920E-3   -9.123457345121621E-4   -1.094472127228849E-3   -9.358324755860859E-4    3.718994190172268E-1   -3.266670624414004E-1
 9.937429916975000E9     4.684836309344845E-1   -1.170326497513022E-1   -1.118877822815492E-3   -9.191723790948318E-4   -1.102450131795405E-3   -9.168886038802018E-4    3.715415463620456E-1   -3.268430818494718E-1
 9.937432669549999E9     4.683938126540065E-1   -1.173833342033054E-1   -1.117861409299516E-3   -9.610824379155470E-4   -1.100852415507532E-3   -9.593766445923777E-4    3.712935342081055E-1   -3.270889140698344E-1
 9.937435422125000E9     4.683778110410295E-1   -1.173811174723430E-1   -1.132766871665383E-3   -9.748474969796905E-4   -1.153085309669603E-3   -9.208125581310249E-4    3.710238135945280E-1   -3.276418001284865E-1
 9.937438174700001E9     4.682925947072462E-1   -1.175371438894572E-1   -1.161775784457102E-3   -9.975084594419073E-4   -1.159954275513905E-3   -9.919499396798216E-4    3.708440418139055E-1   -3.278029972277897E-1
 9.937440927275000E9     4.682631255738577E-1   -1.178111404511296E-1   -1.144117349307543E-3   -9.926870682716686E-4   -1.188724158786148E-3   -9.877605692198729E-4    3.702595620540192E-1   -3.278985289236249E-1
 9.937443679850000E9     4.682139355057229E-1   -1.180280733127086E-1   -1.232243743711363E-3   -1.008970182512576E-3   -1.196583088976577E-3   -1.045045653899961E-3    3.700918103473365E-1   -3.281643574281942E-1
 9.937446432424999E9     4.681404806292202E-1   -1.180674594057899E-1   -1.203453458046965E-3   -1.026955867049896E-3   -1.193413041976498E-3   -9.970815353405949E-4    3.696975380519297E-1   -3.284682181144624E-1
 9.937449185000000E9     4.681584665005747E-1   -1.181770287034682E-1   -1.214527855572340E-3   -1.039500057438948E-3   -1.260814676667963E-3   -1.048667038476865E-3    3.692980383673884E-1   -3.286762480277263E-1
 9.937451937575001E9     4.679034882309788E-1   -1.184317775514256E-1   -1.245394897973103E-3   -1.088339465610026E-3   -1.300956822052869E-3   -1.052044116549015E-3    3.689452323578148E-1   -3.288033820860594E-1
 9.937454690150000E9     4.680200386787977E-1   -1.187199049620731E-1   -1.266833210090933E-3   -1.103786160669540E-3   -1.279221295391566E-3   -1.087815863580630E-3    3.686646758338426E-1   -3.290425305860795E-1
 9.937457442725000E9     4.678357870515695E-1   -1.188452612151589E-1   -1.312166928691720E-3   -1.106783651442963E-3   -1.317922813651829E-3   -1.078893198014482E-3    3.682661098236280E-1   -3.291645927469325E-1
 9.937460195299999E9     4.679100321179952E-1   -1.191574785114447E-1   -1.322279221366820E-3   -1.134526224911182E-3   -1.354096773612959E-3   -1.106859045011466E-3    3.678709216505911E-1   -3.294349089040314E-1
 9.937462947875000E9     4.676734381718865E-1   -1.193460263940352E-1   -1.363377160357744E-3   -1.150984562781138E-3   -1.385837648816078E-3   -1.142001618999310E-3    3.678419766952414E-1   -3.297714143137969E-1
 9.937465700450001E9     4.676961390430803E-1   -1.195387753248126E-1   -1.350554988782482E-3   -1.151895845725911E-3   -1.407757947447425E-3   -1.107370778504620E-3    3.676245367245404E-1   -3.301161314355343E-1
 9.937468453025000E9     4.676189074603919E-1   -1.194670826529942E-1   -1.404036462131795E-3   -1.165767447100725E-3   -1.392347387827993E-3   -1.170014696840252E-3    3.670312323862261E-1   -3.303610620328032E-1
 9.937471205600000E9     4.675333541431945E-1   -1.198067435859144E-1   -1.442567695682842E-3   -1.198545760438558E-3   -1.454262957553880E-3   -1.169335080043061E-3    3.667419297746838E-1   -3.303086501046533E-1
 9.937473958174999E9     4.676196087002006E-1   -1.199621325222366E-1   -1.435743917856392E-3   -1.204452886901804E-3   -1.483112426195147E-3   -1.229277911037644E-3    3.662976116579150E-1   -3.307882077806597E-1
 9.937476710750000E9     4.673806100303330E-1   -1.202477164163774E-1   -1.446872785654269E-3   -1.221107670558258E-3   -1.499208862227213E-3   -1.200790585617659E-3    3.660232603420558E-1   -3.309689507864373E-1
