#  HZ   S   RI   R     50.00 
! Rohde & Schwarz Vector Network Analyzer 
! Rohde-Schwarz,ZNB20-2Port,1311601062101988,3.16
! Created: UTC 3/20/2024, 11:08:50 PM
! freq[Hz]                re:S11                  im:S11                  re:S21                  im:S21                  re:S12                  im:S12                  re:S22                  im:S22
 9.937252748000000E9     4.721855893346717E-1   -1.051113487498296E-1   -2.723972001726496E-4   -2.208668643978234E-4   -2.884603070202873E-4   -2.700976391996750E-4    3.870319040147109E-1   -3.135574863301905E-1
 9.937255404325001E9     4.720237056333010E-1   -1.053515112361071E-1   -3.203128473849267E-4   -2.416425876228288E-4   -2.939900583591900E-4   -2.436611865532268E-4    3.868163637217604E-1   -3.138137231511240E-1
 9.937258060650000E9     4.720062970720484E-1   -1.054947952591806E-1   -2.995556799270272E-4   -2.226595186115507E-4   -3.084083253548650E-4   -2.738103240248609E-4    3.866799173909193E-1   -3.140555004211650E-1
 9.937260716975000E9     4.718721163322149E-1   -1.055832669045128E-1   -2.921493766258632E-4   -2.346075129801453E-4   -3.123385422881153E-4   -2.502942919048754E-4    3.864281789553811E-1   -3.141321531825431E-1
 9.937263373299999E9     4.718694325956572E-1   -1.059127414288804E-1   -3.234945809865579E-4   -2.616513431242039E-4   -3.253071022489795E-4   -2.541564681716554E-4    3.862428447983303E-1   -3.142046538956217E-1
 9.937266029625000E9     4.718885454325906E-1   -1.060320417376459E-1   -3.153538385403933E-4   -2.498437571953265E-4   -3.244365679100317E-4   -2.215521624837919E-4    3.859477746754495E-1   -3.144203361565097E-1
 9.937268685950001E9     4.718509964100114E-1   -1.063374912787519E-1   -3.692228564506655E-4   -2.790662482740498E-4   -3.124408741000415E-4   -2.782403936883850E-4    3.857400445143619E-1   -3.146286193266399E-1
 9.937271342275000E9     4.717601441070861E-1   -1.063255792609846E-1   -3.251308748104003E-4   -2.706412044712453E-4   -3.390190821757262E-4   -2.943518940830819E-4    3.855805806112779E-1   -3.149118829828751E-1
 9.937273998600000E9     4.717305108678743E-1   -1.065498455028396E-1   -3.524293817543548E-4   -2.873058504304357E-4   -3.494311420062329E-4   -2.779416114520992E-4    3.853577434796843E-1   -3.150655921980460E-1
 9.937276654924999E9     4.716136661319194E-1   -1.067150569566623E-1   -3.396849940334636E-4   -3.000695754968225E-4   -3.644690614035985E-4   -3.092581545563505E-4    3.851517691788302E-1   -3.153444462741073E-1
 9.937279311250000E9     4.716219567921345E-1   -1.069600479274272E-1   -3.638318325042219E-4   -3.226114260089018E-4   -3.984791210440529E-4   -2.976305386913422E-4    3.851002563219676E-1   -3.153773912243308E-1
 9.937281967575001E9     4.714452332268904E-1   -1.071540027065201E-1   -3.920381500593940E-4   -3.230091069171679E-4   -3.770286468971838E-4   -3.213647996350437E-4    3.849847675498744E-1   -3.157442188042741E-1
 9.937284623900000E9     4.714082631051889E-1   -1.073352657550387E-1   -3.830804886273608E-4   -3.022696821026993E-4   -3.753085971828238E-4   -3.154687098515070E-4    3.847237157679341E-1   -3.156148572881612E-1
 9.937287280225000E9     4.714306071590144E-1   -1.075512865456706E-1   -3.702918011492983E-4   -3.381683455701493E-4   -4.174412762845788E-4   -3.513264106176604E-4    3.844595775962124E-1   -3.159691178753406E-1
 9.937289936549999E9     4.714079108365429E-1   -1.076296187933192E-1   -4.022419050623898E-4   -3.618159939814469E-4   -4.371526361543279E-4   -3.511491585007388E-4    3.841754833372166E-1   -3.161065745215386E-1
 9.937292592875000E9     4.714766770482714E-1   -1.078526667652967E-1   -4.232083258509557E-4   -3.742369921880178E-4   -4.063603090791431E-4   -3.495478545103699E-4    3.840579310394270E-1   -3.165558291404163E-1
 9.937295249200001E9     4.711381844239304E-1   -1.079011474748378E-1   -4.033991228678191E-4   -3.527106602934547E-4   -4.051177705753669E-4   -3.495786453279168E-4    3.839388217630343E-1   -3.164165298374684E-1
 9.937297905525000E9     4.712238773104053E-1   -1.083015905551979E-1   -4.119320309772287E-4   -3.513809329556888E-4   -4.322705236297462E-4   -3.616039768710696E-4    3.837599785058095E-1   -3.167919724288276E-1
 9.937300561850000E9     4.711092608769229E-1   -1.083808077975426E-1   -4.010377491165911E-4   -3.777558436784863E-4   -4.435634501629863E-4   -3.740996390371769E-4    3.834898688752681E-1   -3.170652813031049E-1
 9.937303218174999E9     4.711381947074935E-1   -1.084314795614805E-1   -4.186786551055841E-4   -3.685487081527375E-4   -4.274221186091008E-4   -3.772604191784875E-4    3.833416882491309E-1   -3.171742321037068E-1
 9.937305874500000E9     4.711628524034581E-1   -1.087045954881873E-1   -4.721259697169677E-4   -3.803013036360119E-4   -4.664804361467076E-4   -3.616527805986182E-4    3.830085915624609E-1   -3.172684972614668E-1
 9.937308530825001E9     4.711829290580749E-1   -1.089067826525656E-1   -4.879584221547872E-4   -4.039142639504810E-4   -4.702706999485704E-4   -4.133594835490649E-4    3.827799955763083E-1   -3.176124044436627E-1
 9.937311187150000E9     4.709741678849592E-1   -1.090319693193124E-1   -4.555996722004735E-4   -4.048190808330593E-4   -4.911306833057042E-4   -4.091885571571415E-4    3.826246855734112E-1   -3.177434570087406E-1
 9.937313843475000E9     4.709985684765133E-1   -1.093449332355728E-1   -4.941265692089364E-4   -4.066431559073587E-4   -4.807216413038951E-4   -3.862935231370625E-4    3.825445151195286E-1   -3.180772626946891E-1
 9.937316499799999E9     4.708136713352475E-1   -1.094226292361921E-1   -4.826894289165634E-4   -4.038587981477987E-4   -4.863700492316801E-4   -4.339860848889019E-4    3.823566384005758E-1   -3.180672905055073E-1
 9.937319156125000E9     4.708568215573368E-1   -1.096221606168485E-1   -5.153510761189576E-4   -4.158711275201454E-4   -4.819050775179627E-4   -4.165471456797535E-4    3.821606007691747E-1   -3.181570315065861E-1
 9.937321812450001E9     4.707900834059647E-1   -1.098411440278703E-1   -5.036143957251349E-4   -4.390699855051362E-4   -4.906578512908647E-4   -4.445231374856550E-4    3.818547664097882E-1   -3.184745151034341E-1
 9.937324468775000E9     4.706852127406005E-1   -1.100321984634181E-1   -4.996981870939697E-4   -4.406968311071140E-4   -5.538385202686004E-4   -4.473405832214601E-4    3.816186872647813E-1   -3.188212268057132E-1
 9.937327125100000E9     4.706495549517499E-1   -1.102109871343908E-1   -4.922297720302666E-4   -4.955775086587376E-4   -5.236495776653544E-4   -4.502817142363653E-4    3.814961939141983E-1   -3.188706630747802E-1
 9.937329781424999E9     4.705093005119750E-1   -1.103515185199460E-1   -5.244434131635473E-4   -4.718290286722130E-4   -5.187453598682194E-4   -4.429103145074019E-4    3.811206968511657E-1   -3.190623653305642E-1
 9.937332437750000E9     4.705153013597823E-1   -1.105124559986620E-1   -5.608447822703152E-4   -4.802346463393535E-4   -5.530753120943914E-4   -4.247812709775956E-4    3.808698912898855E-1   -3.191081538303214E-1
 9.937335094075001E9     4.703726680126648E-1   -1.106965624750813E-1   -5.610335615869926E-4   -4.831287170560912E-4   -5.455557996690290E-4   -4.778430355961234E-4    3.808951932464429E-1   -3.195186533180913E-1
 9.937337750400000E9     4.704058599324067E-1   -1.107634338779099E-1   -5.409187732468262E-4   -4.941693190550059E-4   -5.741253650944683E-4   -5.087170142937040E-4    3.804472627562729E-1   -3.195614244007401E-1
 9.937340406725000E9     4.703621304549535E-1   -1.109834272996934E-1   -5.829339606341828E-4   -5.058227695398104E-4   -5.772186860464900E-4   -5.067716161023139E-4    3.802926619023810E-1   -3.198574475227864E-1
 9.937343063049999E9     4.703820488732919E-1   -1.112468063893559E-1   -5.714164686762050E-4   -5.324463007756750E-4   -5.693816511544766E-4   -5.217356209916167E-4    3.801660191830872E-1   -3.202263287171748E-1
 9.937345719375000E9     4.703507214939275E-1   -1.114483110567547E-1   -5.943457063491291E-4   -5.402098256970868E-4   -5.718045622805616E-4   -5.243280446085862E-4    3.798934112381691E-1   -3.202115174953695E-1
 9.937348375700001E9     4.701405903871407E-1   -1.115621225219697E-1   -6.069567621901118E-4   -5.613184594269497E-4   -6.320416014072939E-4   -5.372380392658284E-4    3.796658654590463E-1   -3.205687534859694E-1
 9.937351032025000E9     4.702654722707993E-1   -1.116984029353934E-1   -6.084301650187172E-4   -5.683716620989293E-4   -6.552321148449649E-4   -5.485641322478663E-4    3.794405536295718E-1   -3.204685274824957E-1
 9.937353688350000E9     4.701698545746473E-1   -1.118793076930634E-1   -6.274832316211093E-4   -5.654055731726666E-4   -6.378562976824041E-4   -5.294467523100180E-4    3.790925175026710E-1   -3.209229593898943E-1
 9.937356344674999E9     4.700190278533138E-1   -1.121766089253067E-1   -6.491697414450821E-4   -5.516451188035879E-4   -6.564087633783567E-4   -5.757196894624441E-4    3.790626912095127E-1   -3.210460924252942E-1
 9.937359001000000E9     4.699585868556884E-1   -1.121021341284436E-1   -6.574244782809445E-4   -6.003552604911351E-4   -6.904613716675491E-4   -6.076268429239162E-4    3.786941959973723E-1   -3.211130661303289E-1
 9.937361657325001E9     4.698305814275357E-1   -1.124855269413790E-1   -6.723991176209769E-4   -5.973865582305563E-4   -6.763799658099084E-4   -5.908383489932438E-4    3.785787612431744E-1   -3.216482770181560E-1
 9.937364313650000E9     4.698680732608639E-1   -1.126980661606489E-1   -6.568624059856083E-4   -5.996693808681028E-4   -6.842413731601054E-4   -6.242726822316957E-4    3.782687523515031E-1   -3.216895451078619E-1
 9.937366969975000E9     4.698318899474866E-1   -1.128302693576791E-1   -7.125996307658712E-4   -6.292287692938625E-4   -7.122898812970689E-4   -6.279923801815673E-4    3.781040816251845E-1   -3.218530437085107E-1
 9.937369626299999E9     4.697006730998586E-1   -1.128824665687985E-1   -6.656930180617139E-4   -6.373953151548197E-4   -7.466379776908761E-4   -6.031942282575519E-4    3.779106806979029E-1   -3.220446110688955E-1
 9.937372282625000E9     4.696940046225557E-1   -1.132462538724975E-1   -6.827914475709492E-4   -6.310130702098506E-4   -7.376797986518155E-4   -6.339766832596052E-4    3.775320271362879E-1   -3.220771810174278E-1
 9.937374938950001E9     4.697447047636164E-1   -1.132752684070696E-1   -7.087697394082287E-4   -6.426830332893147E-4   -7.077017219225591E-4   -6.465167485855860E-4    3.773157218205919E-1   -3.224017456402891E-1
 9.937377595275000E9     4.695623552171514E-1   -1.136254026530342E-1   -7.191473113566079E-4   -6.754611932486823E-4   -7.387118182302597E-4   -6.132808511084065E-4    3.769627196490288E-1   -3.226132157786690E-1
 9.937380251600000E9     4.695369175433101E-1   -1.136827426841714E-1   -7.499506271970251E-4   -6.571470062909787E-4   -7.588266719484324E-4   -6.677567868722612E-4    3.768499180766859E-1   -3.230023208516505E-1
 9.937382907924999E9     4.695709689995946E-1   -1.138255619779773E-1   -7.353373419938136E-4   -7.085970124694529E-4   -7.874929203281122E-4   -6.865700063909154E-4    3.768139842163818E-1   -3.231519942756577E-1
 9.937385564250000E9     4.692930317072444E-1   -1.140830818783783E-1   -7.754431931515613E-4   -7.130791742899277E-4   -8.243626739428220E-4   -6.949122111743758E-4    3.762922610992591E-1   -3.234252981792584E-1
 9.937388220575001E9     4.694186770303503E-1   -1.141727004178892E-1   -8.079231088954305E-4   -7.014208567147711E-4   -8.286924572744587E-4   -6.924950446962752E-4    3.761757378300034E-1   -3.235157381774802E-1
 9.937390876900000E9     4.693317403284523E-1   -1.144902717031231E-1   -8.271418516108443E-4   -7.405831911887344E-4   -8.157314480793049E-4   -7.456463762696494E-4    3.758760526616706E-1   -3.239041453223653E-1
 9.937393533225000E9     4.692240921043888E-1   -1.146439712794770E-1   -8.175211872501027E-4   -7.431900902403211E-4   -8.213200210588393E-4   -7.102131424376878E-4    3.756467740447306E-1   -3.238998050656608E-1
 9.937396189549999E9     4.691619765868321E-1   -1.148204404560321E-1   -8.139552174690059E-4   -7.718773391193631E-4   -8.757134949040245E-4   -7.675365208131815E-4    3.754741139190992E-1   -3.242228196494730E-1
 9.937398845875000E9     4.692157778687185E-1   -1.149469642787518E-1   -8.457900899218946E-4   -7.726737042061181E-4   -8.726843098753250E-4   -7.540309228899480E-4    3.751061556573321E-1   -3.244506379934817E-1
 9.937401502200001E9     4.690998869770741E-1   -1.150709962539520E-1   -8.697738556182946E-4   -8.347717725811504E-4   -8.873189314916138E-4   -7.542998967908017E-4    3.748664826920831E-1   -3.244972172159735E-1
 9.937404158525000E9     4.690127778754810E-1   -1.152222623786897E-1   -9.101297531881889E-4   -8.032827857661699E-4   -8.730778544465692E-4   -7.756339729466629E-4    3.746331026731857E-1   -3.248686377288527E-1
 9.937406814850000E9     4.687924766510443E-1   -1.154504832099295E-1   -9.076972744623770E-4   -8.097709816254696E-4   -9.071772641065139E-4   -8.216820199607114E-4    3.743344942108717E-1   -3.250798791837176E-1
 9.937409471174999E9     4.690716633544649E-1   -1.156507949465172E-1   -9.160748336269175E-4   -8.077643967346059E-4   -9.489751354765622E-4   -8.154967425046951E-4    3.740464229144814E-1   -3.251592007947129E-1
 9.937412127500000E9     4.688103666413437E-1   -1.158623271449108E-1   -9.229913907782787E-4   -8.367108342126012E-4   -9.395349290922711E-4   -8.068908456383068E-4    3.738117056987733E-1   -3.252650803256603E-1
 9.937414783825001E9     4.687664333634960E-1   -1.160598443777559E-1   -9.287713382873405E-4   -8.336448877861885E-4   -9.648968520388293E-4   -8.356192698424863E-4    3.734750188054676E-1   -3.256031545132092E-1
 9.937417440150000E9     4.686968737349293E-1   -1.162615742488727E-1   -9.919993240663958E-4   -8.420064977697199E-4   -9.778900348487393E-4   -8.335511309073573E-4    3.730598411670493E-1   -3.257760201519848E-1
 9.937420096475000E9     4.686452846590983E-1   -1.163981506149436E-1   -9.722419753692041E-4   -8.648430208951593E-4   -9.986208473643985E-4   -8.718951868314482E-4    3.727153020326005E-1   -3.260919033483425E-1
 9.937422752799999E9     4.685334136407586E-1   -1.165929386008560E-1   -1.029244340367246E-3   -8.943480395376289E-4   -1.050366313360789E-3   -8.729322935751324E-4    3.726217459258570E-1   -3.262404713476679E-1
 9.937425409125000E9     4.684895099883824E-1   -1.167490851906999E-1   -1.025433024416783E-3   -9.030184130430058E-4   -1.041073165758793E-3   -8.971620519083074E-4    3.723014474858047E-1   -3.264776267952226E-1
 9.937428065450001E9     4.684738853538342E-1   -1.169124528732880E-1   -1.012045053293489E-3   -8.766018728011275E-4   -1.038798421801414E-3   -9.046250184772714E-4    3.722134915479169E-1   -3.265246607632810E-1
 9.937430721775000E9     4.684759833994477E-1   -1.169664458203125E-1   -1.059301850112552E-3   -8.837329201843919E-4   -1.073291514091762E-3   -9.298357310250302E-4    3.719880223921158E-1   -3.269862896301302E-1
 9.937433378100000E9     4.684761713386005E-1   -1.172730576612582E-1   -1.072776741654176E-3   -9.153741777095615E-4   -1.121254911665269E-3   -9.276210412938940E-4    3.716308469330153E-1   -3.269586245538805E-1
 9.937436034424999E9     4.683934236596869E-1   -1.172944663703097E-1   -1.122107215303984E-3   -9.854007408032983E-4   -1.098470883784908E-3   -9.312797397521546E-4    3.712915671770909E-1   -3.272492319701246E-1
 9.937438690750000E9     4.683514701458485E-1   -1.175602984557435E-1   -1.105659940870658E-3   -9.939120474521832E-4   -1.174322878767508E-3   -9.556985287946890E-4    3.711116418786957E-1   -3.276291275106467E-1
 9.937441347075001E9     4.683159730237497E-1   -1.179363613774182E-1   -1.129827460119613E-3   -9.648654428934721E-4   -1.136591879830253E-3   -9.792656172977368E-4    3.709212359812269E-1   -3.278338387074187E-1
 9.937444003400000E9     4.681440632484979E-1   -1.179459094346885E-1   -1.171116318185568E-3   -1.013866447370954E-3   -1.188132913000624E-3   -9.780882319522929E-4    3.704013844660275E-1   -3.280012867168027E-1
 9.937446659725000E9     4.681941948320887E-1   -1.182399054134199E-1   -1.158962250864416E-3   -9.986521317101426E-4   -1.170423839905202E-3   -9.630211595855243E-4    3.701485100718019E-1   -3.283647966507470E-1
 9.937449316049999E9     4.679589683307366E-1   -1.183792371084423E-1   -1.193740640284043E-3   -1.006270648474214E-3   -1.243902073106584E-3   -1.000016176145101E-3    3.698453732507313E-1   -3.284590001750783E-1
 9.937451972375000E9     4.680673337997869E-1   -1.186416523070596E-1   -1.177129523907698E-3   -1.063372595802113E-3   -1.237430764091387E-3   -1.053861713231059E-3    3.694998959467106E-1   -3.288988540962070E-1
 9.937454628700001E9     4.680709388464450E-1   -1.186697728122685E-1   -1.234316521302433E-3   -1.064820881189191E-3   -1.249397475675887E-3   -1.059870468462333E-3    3.692229451809064E-1   -3.290721534492026E-1
 9.937457285025000E9     4.679603324278803E-1   -1.188672932882078E-1   -1.242191345841104E-3   -1.111323286173293E-3   -1.294225464761354E-3   -1.056642507620644E-3    3.687888509135223E-1   -3.290071777439043E-1
 9.937459941350000E9     4.678157548426188E-1   -1.191608112486816E-1   -1.285854933819828E-3   -1.080336464507257E-3   -1.302267422474677E-3   -1.085735518761969E-3    3.685839641878272E-1   -3.294330219458733E-1
 9.937462597674999E9     4.679211373509749E-1   -1.191810086475652E-1   -1.306963255696290E-3   -1.101387529631369E-3   -1.330381974344903E-3   -1.092094500657139E-3    3.683361496597340E-1   -3.297042616181935E-1
 9.937465254000000E9     4.677598571549375E-1   -1.194300895427090E-1   -1.316722118632619E-3   -1.101781949755341E-3   -1.350666099190191E-3   -1.115313889920857E-3    3.677309168052091E-1   -3.299134932320145E-1
 9.937467910325001E9     4.676969862962532E-1   -1.195803808673533E-1   -1.320365678124624E-3   -1.146174101974323E-3   -1.397139857340666E-3   -1.142119230570711E-3    3.677401068288105E-1   -3.299724642370650E-1
 9.937470566650000E9     4.675748033523925E-1   -1.196432508568391E-1   -1.351568346393258E-3   -1.154193500848320E-3   -1.382156612126698E-3   -1.131070634893671E-3    3.670674622309782E-1   -3.302504217835862E-1
 9.937473222975000E9     4.675604906854138E-1   -1.197490418392525E-1   -1.375593242301260E-3   -1.194882849086338E-3   -1.423919507798293E-3   -1.165676986547539E-3    3.670683278411503E-1   -3.306957391200867E-1
 9.937475879299999E9     4.674357734493961E-1   -1.201314172974483E-1   -1.401707019541816E-3   -1.194106064896676E-3   -1.484248712318399E-3   -1.182987880644952E-3    3.663973050438287E-1   -3.306628680154344E-1
 9.937478535625000E9     4.673814074499664E-1   -1.202683338802684E-1   -1.439142373775552E-3   -1.179466766060513E-3   -1.456751464499094E-3   -1.196018987287158E-3    3.660831591043139E-1   -3.310315968680170E-1
 9.937481191950001E9     4.674076051386366E-1   -1.205057058200191E-1   -1.455933942784182E-3   -1.228099772506407E-3   -1.465587477104320E-3   -1.226999950846634E-3    3.656830049219644E-1   -3.311881626867545E-1
 9.937483848275000E9     4.672660679022032E-1   -1.206967264999675E-1   -1.490185476875110E-3   -1.244602270709351E-3   -1.530162489975452E-3   -1.261884456769675E-3    3.654722115503619E-1   -3.316313883832461E-1
 9.937486504600000E9     4.672390373439274E-1   -1.209373909522374E-1   -1.491403367585854E-3   -1.285653019912776E-3   -1.571083858081867E-3   -1.247766514098593E-3    3.649369399432996E-1   -3.317978960433456E-1
 9.937489160924999E9     4.671214876238385E-1   -1.209262400412554E-1   -1.529380349724339E-3   -1.296323346948126E-3   -1.575740312555722E-3   -1.286137773516949E-3    3.649695731253977E-1   -3.320872773101031E-1
 9.937491817250000E9     4.670889412099556E-1   -1.211611014372657E-1   -1.587657000640226E-3   -1.337074300400690E-3   -1.640507096873359E-3   -1.311451962497979E-3    3.645040404415936E-1   -3.321758412681548E-1
