#  HZ   S   RI   R     50.00 
! Rohde & Schwarz Vector Network Analyzer 
! Rohde-Schwarz,ZNB20-2Port,1311601062101988,3.16
! Created: UTC 3/20/2024, 11:08:59 PM
! freq[Hz]                re:S11                  im:S11                  re:S21                  im:S21                  re:S12                  im:S12                  re:S22                  im:S22
 9.937258687000000E9     4.719552075738223E-1   -1.055198957050230E-1   -2.743017255101570E-4   -2.484189787633038E-4   -3.182288848576495E-4   -2.078927789023996E-4    3.866259262837941E-1   -3.139055221610637E-1
 9.937261324875000E9     4.719474550086133E-1   -1.058532493031289E-1   -3.011279067196125E-4   -2.387484004752308E-4   -2.957503060056973E-4   -2.355170178974267E-4    3.864972272844984E-1   -3.141929526963941E-1
 9.937263962750000E9     4.719091723033462E-1   -1.058755771667167E-1   -3.278541074291443E-4   -2.472083238270593E-4   -3.139549523850237E-4   -2.641266802429960E-4    3.861858019377049E-1   -3.145020127210137E-1
 9.937266600625000E9     4.719248299765268E-1   -1.061553102467027E-1   -3.341232742529792E-4   -2.664713881376466E-4   -2.899412708199774E-4   -2.687302585952501E-4    3.861199343311323E-1   -3.143948026600130E-1
 9.937269238500000E9     4.717597431152452E-1   -1.063396206553558E-1   -3.300331556271093E-4   -2.541035190698923E-4   -3.345393356226526E-4   -2.618485989731243E-4    3.860748634457959E-1   -3.150047434578355E-1
 9.937271876375000E9     4.717417971894938E-1   -1.063882581410564E-1   -3.441184662328711E-4   -2.883824289280472E-4   -3.130091309212735E-4   -2.542891301658865E-4    3.856578372031890E-1   -3.149838460377812E-1
 9.937274514250000E9     4.716852667048006E-1   -1.065542640977680E-1   -3.605471978982560E-4   -3.114891523800883E-4   -3.432634031711926E-4   -3.158757688984622E-4    3.854443253525837E-1   -3.150891974879245E-1
 9.937277152125000E9     4.715358253182628E-1   -1.069251225485092E-1   -3.504503809715417E-4   -2.947100551997533E-4   -3.485521611782183E-4   -3.094922623832425E-4    3.851692351436908E-1   -3.152837484570272E-1
 9.937279790000000E9     4.715589656537688E-1   -1.069143700449960E-1   -3.694417516067886E-4   -3.073785176274782E-4   -3.707620517769050E-4   -3.143663047036931E-4    3.849410116208745E-1   -3.154557850818580E-1
 9.937282427875000E9     4.715076046102644E-1   -1.071736359166897E-1   -3.432937311681856E-4   -2.924564954149807E-4   -3.802099089662686E-4   -2.904922933709883E-4    3.847648364526299E-1   -3.154819795682978E-1
 9.937285065750000E9     4.714521679304677E-1   -1.073845447090051E-1   -3.633052839562081E-4   -3.327138252663450E-4   -3.735366171952115E-4   -3.138575903904329E-4    3.846902467963326E-1   -3.159337649625553E-1
 9.937287703625000E9     4.712972136676578E-1   -1.074808569370863E-1   -3.862759795878997E-4   -3.427005332736629E-4   -3.896070855617498E-4   -3.364117445269218E-4    3.845491000784168E-1   -3.159802525455506E-1
 9.937290341500000E9     4.713422595567087E-1   -1.076771383475884E-1   -4.243901945858566E-4   -3.641731068027710E-4   -4.004681337252992E-4   -3.224073991988028E-4    3.843351788656720E-1   -3.162169701244861E-1
 9.937292979375000E9     4.714018232557231E-1   -1.079637672674888E-1   -3.904617599862033E-4   -3.323400115516315E-4   -3.777609320393205E-4   -3.472147315415526E-4    3.839567615535340E-1   -3.164974204901740E-1
 9.937295617250000E9     4.712764278185989E-1   -1.081241330180648E-1   -3.855052203255158E-4   -3.285167183154544E-4   -3.933757258290499E-4   -3.721272555509563E-4    3.839668811397604E-1   -3.166065623975723E-1
 9.937298255125000E9     4.713573227648115E-1   -1.081557580636376E-1   -3.978687439736264E-4   -3.683875693761475E-4   -4.166676116291167E-4   -3.275694462782399E-4    3.837406947564035E-1   -3.166741516638218E-1
 9.937300893000000E9     4.711489702247223E-1   -1.084568907931541E-1   -4.081360688425968E-4   -3.685451771186034E-4   -4.348640573624561E-4   -3.531173336501124E-4    3.836148896197082E-1   -3.170178640022595E-1
 9.937303530875000E9     4.711504662215069E-1   -1.087023066918598E-1   -3.950635992314962E-4   -3.948594330155453E-4   -4.293885484910787E-4   -3.650973215793128E-4    3.833734450119676E-1   -3.172562727328406E-1
 9.937306168750000E9     4.710427181827495E-1   -1.086767286659337E-1   -4.056146285017951E-4   -3.773622788532655E-4   -4.499576462332142E-4   -3.991197559893468E-4    3.830739264945269E-1   -3.173552472437554E-1
 9.937308806625000E9     4.709361056443749E-1   -1.089472424138535E-1   -4.438115959992609E-4   -3.711523610140367E-4   -4.193607244228702E-4   -4.024744722121961E-4    3.828798528881032E-1   -3.174915244176034E-1
 9.937311444500000E9     4.709557443878938E-1   -1.091548039791788E-1   -4.526234711051131E-4   -3.971278297897366E-4   -4.585550183107502E-4   -4.128572360734046E-4    3.827204259349176E-1   -3.177967275577798E-1
 9.937314082375000E9     4.709811759097929E-1   -1.092604757486219E-1   -4.794892289991676E-4   -3.817520552973698E-4   -4.708687661589830E-4   -3.869026043704856E-4    3.827011375397849E-1   -3.178110791452199E-1
 9.937316720250000E9     4.708305678117260E-1   -1.094494254709356E-1   -4.850385894974844E-4   -4.067147060036511E-4   -5.107580245138183E-4   -4.003493348185696E-4    3.822753113403604E-1   -3.182135292970273E-1
 9.937319358125000E9     4.707190148390076E-1   -1.096334870078341E-1   -4.873563866126050E-4   -4.102469004890843E-4   -4.900730494936697E-4   -4.506837705131571E-4    3.822281675317164E-1   -3.183451343024940E-1
 9.937321996000000E9     4.707471694073398E-1   -1.099249170945881E-1   -4.757501853006184E-4   -4.505534572589674E-4   -5.161617940599808E-4   -4.334015771489025E-4    3.820139943527617E-1   -3.185161688053137E-1
 9.937324633875000E9     4.706640024663872E-1   -1.099385009683956E-1   -4.881441665010061E-4   -4.352732596691145E-4   -5.079516148222573E-4   -4.481407058395640E-4    3.815671206987140E-1   -3.185738248834389E-1
 9.937327271750000E9     4.705479793904744E-1   -1.102253859216948E-1   -5.106535754875386E-4   -4.939519606590069E-4   -5.447133750595604E-4   -4.427448999530395E-4    3.816530417732736E-1   -3.188396549676176E-1
 9.937329909625000E9     4.705210098179171E-1   -1.105024551125064E-1   -5.045013178221384E-4   -4.499101746024122E-4   -5.248425985477449E-4   -4.778398793061375E-4    3.811721211610861E-1   -3.190625569207651E-1
 9.937332547500000E9     4.704956457758278E-1   -1.106411337009368E-1   -5.471574041214910E-4   -4.866157638242578E-4   -5.558634991817529E-4   -4.577804299023645E-4    3.811318537370388E-1   -3.193223934079504E-1
 9.937335185375000E9     4.705226816834314E-1   -1.107144086010020E-1   -5.710564224506649E-4   -4.882232060005483E-4   -5.520516720251003E-4   -4.712589972350345E-4    3.807547635647657E-1   -3.193169116837206E-1
 9.937337823250000E9     4.704288527163438E-1   -1.108818275750431E-1   -5.653952018855940E-4   -4.969192152585063E-4   -5.466451936504068E-4   -4.904285358335077E-4    3.806918925650866E-1   -3.195369430823081E-1
 9.937340461125000E9     4.703849800257027E-1   -1.109326948505985E-1   -5.590901197049352E-4   -4.994193295319526E-4   -5.839423645097721E-4   -4.752779876656724E-4    3.804648940094879E-1   -3.199800292505133E-1
 9.937343099000000E9     4.703239725680975E-1   -1.113560984153510E-1   -5.824558705835684E-4   -5.053089862310942E-4   -6.011189549788051E-4   -5.151878783000291E-4    3.802059879229754E-1   -3.201496955378998E-1
 9.937345736875000E9     4.701824013149085E-1   -1.114433477083875E-1   -5.912700107850503E-4   -5.259688936826695E-4   -6.046237158160580E-4   -5.570230979594218E-4    3.800498001010708E-1   -3.201181187566776E-1
 9.937348374750000E9     4.701268686510594E-1   -1.114831332319735E-1   -5.750058283715049E-4   -5.549080650943282E-4   -6.068016791761899E-4   -5.446386654147956E-4    3.798336017210912E-1   -3.204813296964066E-1
 9.937351012625000E9     4.702571748217539E-1   -1.118788983206267E-1   -6.182274579735784E-4   -5.582397525430566E-4   -6.193890220387491E-4   -5.426600894408502E-4    3.794033332954179E-1   -3.208226005716892E-1
 9.937353650500000E9     4.702311371930095E-1   -1.118677860380612E-1   -6.162445853999932E-4   -5.796322408870445E-4   -6.442842618672647E-4   -5.909468299893734E-4    3.793252106064713E-1   -3.208893375018979E-1
 9.937356288375000E9     4.701442042301027E-1   -1.122167557551699E-1   -6.273698878701117E-4   -5.593529140023732E-4   -6.428182232184777E-4   -5.357256386491214E-4    3.792415277502098E-1   -3.210248648411099E-1
 9.937358926250000E9     4.699213779811341E-1   -1.122033109765092E-1   -6.241136464774490E-4   -5.855501762212264E-4   -6.687511581032404E-4   -5.643219687080499E-4    3.787591017344855E-1   -3.213638611934687E-1
 9.937361564125000E9     4.699421805461442E-1   -1.125455663379821E-1   -6.400794406237108E-4   -6.030085281026373E-4   -6.468563463155336E-4   -5.962881007044989E-4    3.785862929198792E-1   -3.215530120940061E-1
 9.937364202000000E9     4.699676017473472E-1   -1.127042312925396E-1   -6.638032292606337E-4   -6.065408942944741E-4   -6.825769589696824E-4   -6.113704311023976E-4    3.784577735632104E-1   -3.217022707984786E-1
 9.937366839875000E9     4.698710172051308E-1   -1.128576365692313E-1   -6.897236999207214E-4   -6.057471535831991E-4   -6.994532313760450E-4   -6.084948935543288E-4    3.780978757702353E-1   -3.219052689347954E-1
 9.937369477750000E9     4.697807824347505E-1   -1.130964222795473E-1   -6.686231626827917E-4   -6.233427601746677E-4   -6.932847235514405E-4   -6.254200378269809E-4    3.780480450250958E-1   -3.221063722733247E-1
 9.937372115625000E9     4.696661032685036E-1   -1.132033136503829E-1   -7.033237727034137E-4   -6.463197832773331E-4   -7.237403207978300E-4   -5.991582114967719E-4    3.776938203004619E-1   -3.222206769093840E-1
 9.937374753500000E9     4.696701843016738E-1   -1.134536649492397E-1   -6.898162701616331E-4   -6.448598623880724E-4   -7.132205658600307E-4   -6.492904669918437E-4    3.774598450970563E-1   -3.225175482490456E-1
 9.937377391375000E9     4.695855658029819E-1   -1.135671192108001E-1   -7.238701911900363E-4   -6.438483353726832E-4   -7.348583326146697E-4   -6.588347823382194E-4    3.772189899385867E-1   -3.226349008977175E-1
 9.937380029250000E9     4.695222476376299E-1   -1.137048113930716E-1   -7.307951338217216E-4   -6.558767546600661E-4   -7.180793261796354E-4   -6.554693121872000E-4    3.769975762243820E-1   -3.229283794579945E-1
 9.937382667125000E9     4.694357823649969E-1   -1.138745690187940E-1   -7.699041571435790E-4   -6.461702593011031E-4   -7.802227004784308E-4   -6.587332320817837E-4    3.768502164041667E-1   -3.230223498585431E-1
 9.937385305000000E9     4.694506001439653E-1   -1.142001728537807E-1   -7.756090759324725E-4   -7.062806331486091E-4   -7.988201278632801E-4   -7.145563595412289E-4    3.762999581489586E-1   -3.233635923579990E-1
 9.937387942875000E9     4.693033309100841E-1   -1.143250996999326E-1   -7.823476916812328E-4   -7.089288881856699E-4   -7.996778205396761E-4   -6.554120670920195E-4    3.762470690251809E-1   -3.234550898377910E-1
 9.937390580750000E9     4.692379102210752E-1   -1.145138813336344E-1   -7.670317579977172E-4   -7.283037263258861E-4   -8.275428028057609E-4   -6.860022958351415E-4    3.759004908923666E-1   -3.236179959699599E-1
 9.937393218625000E9     4.692844588789089E-1   -1.145815168846596E-1   -7.869362765811709E-4   -7.200020318398554E-4   -8.359387545355633E-4   -7.419754536117578E-4    3.757778047519486E-1   -3.239840054061411E-1
 9.937395856500000E9     4.693404232768358E-1   -1.147584880274569E-1   -8.026130409021951E-4   -7.203880935307044E-4   -8.502057404568088E-4   -7.266967546249056E-4    3.756051776837883E-1   -3.241751578804313E-1
 9.937398494375000E9     4.691425140265690E-1   -1.149742563243874E-1   -8.231673218974889E-4   -7.329448336554959E-4   -8.704598016399149E-4   -7.562103146117876E-4    3.753042000969458E-1   -3.243321159930249E-1
 9.937401132250000E9     4.690510004028961E-1   -1.151146336218126E-1   -7.974917094065424E-4   -7.528465173627314E-4   -8.887673764830762E-4   -7.826253546455384E-4    3.750199540927758E-1   -3.244542984032097E-1
 9.937403770125000E9     4.690876329039646E-1   -1.153834043569933E-1   -8.594426796635383E-4   -7.669820847419550E-4   -8.702735425001387E-4   -7.615351545546628E-4    3.746573339940055E-1   -3.246278161126940E-1
 9.937406408000000E9     4.689962285093474E-1   -1.155462306018509E-1   -8.911165422046710E-4   -8.131618683337772E-4   -9.218187684992406E-4   -7.609850954427067E-4    3.745340722127415E-1   -3.247872789683249E-1
 9.937409045875000E9     4.688986083665737E-1   -1.155684253984775E-1   -8.716763906285603E-4   -7.924315140444870E-4   -9.458581833270428E-4   -8.129130050433276E-4    3.741340627588917E-1   -3.251138542044551E-1
 9.937411683750000E9     4.689082164102329E-1   -1.158738866045664E-1   -8.758837989278916E-4   -7.823135011465078E-4   -9.192749733024446E-4   -7.978855631960225E-4    3.738780228403143E-1   -3.254526282236835E-1
 9.937414321625000E9     4.688189434777059E-1   -1.160618550037828E-1   -9.374237415127399E-4   -8.166451097357867E-4   -9.730882599130286E-4   -8.437514746838117E-4    3.735775039923389E-1   -3.255947000159476E-1
 9.937416959500000E9     4.687144954026327E-1   -1.161626616311774E-1   -9.423857578435548E-4   -8.413133455865521E-4   -9.767097698934041E-4   -8.434598839938219E-4    3.734252601217395E-1   -3.258056717710300E-1
 9.937419597375000E9     4.686415514463527E-1   -1.163201164894557E-1   -9.557825013625941E-4   -8.329516207579990E-4   -9.949598937031754E-4   -8.179165552482868E-4    3.732545126812186E-1   -3.259876564911730E-1
 9.937422235250000E9     4.687217682072687E-1   -1.165224086418298E-1   -9.646239934444188E-4   -8.680529502632472E-4   -1.024270843141314E-3   -8.583161375118713E-4    3.729289309539972E-1   -3.263070745541884E-1
 9.937424873125000E9     4.685249689484517E-1   -1.167574539229790E-1   -9.589204306900489E-4   -8.795320242515514E-4   -9.984810324139711E-4   -8.476457012409405E-4    3.726446685227062E-1   -3.264178391291419E-1
 9.937427511000000E9     4.684917203115724E-1   -1.168061307167218E-1   -9.994246310323219E-4   -8.955583210145387E-4   -1.046682030841101E-3   -8.915793876377921E-4    3.724659137986354E-1   -3.266546303264517E-1
 9.937430148875000E9     4.685071229487464E-1   -1.171135916508619E-1   -1.023584276448226E-3   -8.830036845558446E-4   -1.055466566696999E-3   -9.000614078760910E-4    3.720029478714691E-1   -3.268372130726871E-1
 9.937432786750000E9     4.682612009187724E-1   -1.172374753880869E-1   -1.070132898377281E-3   -9.104326344645511E-4   -1.051575357336949E-3   -8.947341866722687E-4    3.717154036385066E-1   -3.269544206624788E-1
 9.937435424625000E9     4.684974376659458E-1   -1.173436287631724E-1   -1.052654650058599E-3   -9.350057303455124E-4   -1.090333219361378E-3   -9.355063810466565E-4    3.713450102395647E-1   -3.272745144850773E-1
 9.937438062500000E9     4.683438063665032E-1   -1.176363479126688E-1   -1.061003439044286E-3   -9.576446805965217E-4   -1.083010803365408E-3   -9.470723907028820E-4    3.712157304703810E-1   -3.274228429439571E-1
 9.937440700375000E9     4.683170129651272E-1   -1.177143210115532E-1   -1.111458522770509E-3   -9.691552743485251E-4   -1.121586177882468E-3   -9.867209824400735E-4    3.707991795015538E-1   -3.279351237848709E-1
 9.937443338250000E9     4.682828977930554E-1   -1.179874590117281E-1   -1.150465974915058E-3   -9.875784148214925E-4   -1.138244495281034E-3   -9.564294918619397E-4    3.705602883694673E-1   -3.280030757134054E-1
 9.937445976125000E9     4.680973881942154E-1   -1.181690538204665E-1   -1.127216811522905E-3   -9.969400899595439E-4   -1.158662021427887E-3   -9.909219742804086E-4    3.704118955355819E-1   -3.280986346595554E-1
 9.937448614000000E9     4.680919956032720E-1   -1.183371995609411E-1   -1.164049962327043E-3   -1.006610425860220E-3   -1.177508114405192E-3   -9.724599614901866E-4    3.699662311008646E-1   -3.282592663038064E-1
 9.937451251875000E9     4.679984520430170E-1   -1.184783922537800E-1   -1.166925961547622E-3   -1.057027446455469E-3   -1.204370974654424E-3   -1.030163516317000E-3    3.696247442022655E-1   -3.286986750164601E-1
 9.937453889750000E9     4.679547669843065E-1   -1.186420342706970E-1   -1.217464660970408E-3   -1.043905659431142E-3   -1.243418889936113E-3   -1.019970093990931E-3    3.694157820323464E-1   -3.287852617859673E-1
 9.937456527625000E9     4.680741425338865E-1   -1.187986144160584E-1   -1.204423913047816E-3   -1.059256056058397E-3   -1.265146406381191E-3   -9.929882188923723E-4    3.691315374956514E-1   -3.289600350359129E-1
 9.937459165500000E9     4.677991239808787E-1   -1.189910100642112E-1   -1.249477553998346E-3   -1.081206345130281E-3   -1.292223120456307E-3   -1.049363270103973E-3    3.687324305849494E-1   -3.294417063865063E-1
 9.937461803375000E9     4.677258094234428E-1   -1.192844547261430E-1   -1.252976583092429E-3   -1.114425238083798E-3   -1.285153956146275E-3   -1.059983714629533E-3    3.684194420208169E-1   -3.294085010874082E-1
 9.937464441250000E9     4.676710586833860E-1   -1.193788812554309E-1   -1.303209075062369E-3   -1.093782433593282E-3   -1.291224600613377E-3   -1.104940134711197E-3    3.680328504800327E-1   -3.299241284727018E-1
 9.937467079125000E9     4.676674216234500E-1   -1.194816092251120E-1   -1.328688098820051E-3   -1.132125968771955E-3   -1.342006973623285E-3   -1.117132729802004E-3    3.678320403608626E-1   -3.301796289058724E-1
 9.937469717000000E9     4.676980947371702E-1   -1.196914033832972E-1   -1.350329925228413E-3   -1.106355840810607E-3   -1.342906888807468E-3   -1.141184099921477E-3    3.677619752956352E-1   -3.301220628132489E-1
 9.937472354875000E9     4.675513151215544E-1   -1.197829845012684E-1   -1.369861447973692E-3   -1.130868592428009E-3   -1.409692544767992E-3   -1.161597081927711E-3    3.673035896042188E-1   -3.304978308973657E-1
 9.937474992750000E9     4.674603788120522E-1   -1.201224457210606E-1   -1.382718955013757E-3   -1.187579326597235E-3   -1.422283298183326E-3   -1.147697633897626E-3    3.668104351911206E-1   -3.307102330194598E-1
 9.937477630625000E9     4.674494701179889E-1   -1.201920452419590E-1   -1.434439198717093E-3   -1.190382202136757E-3   -1.457103196403954E-3   -1.181069602405795E-3    3.663502869793558E-1   -3.310192393905788E-1
 9.937480268500000E9     4.673667296492829E-1   -1.204490847888528E-1   -1.432704823927777E-3   -1.231242452571546E-3   -1.474890058651225E-3   -1.208381521659097E-3    3.662292672610087E-1   -3.312179990562340E-1
 9.937482906375000E9     4.672932121313276E-1   -1.206206843648711E-1   -1.456723762853342E-3   -1.229332610259306E-3   -1.504066104065060E-3   -1.217648598451686E-3    3.657254261377219E-1   -3.312618736604507E-1
 9.937485544250000E9     4.673315152020499E-1   -1.208327861004005E-1   -1.485239793966179E-3   -1.271888130142200E-3   -1.542114650016572E-3   -1.248349103440111E-3    3.654038907080355E-1   -3.314471503002869E-1
 9.937488182125000E9     4.671958480632289E-1   -1.210218126421086E-1   -1.484999712621655E-3   -1.263730529966857E-3   -1.544789242855526E-3   -1.234937965540703E-3    3.650233231303590E-1   -3.316049343802944E-1
 9.937490820000000E9     4.671412473852276E-1   -1.210865663743086E-1   -1.578393873203501E-3   -1.271156251054633E-3   -1.581635049445496E-3   -1.291709873649348E-3    3.647668534104577E-1   -3.320825555327581E-1
 9.937493457875000E9     4.671163582390345E-1   -1.213734930277471E-1   -1.579438405127447E-3   -1.288578036987735E-3   -1.590053072561954E-3   -1.314468827650617E-3    3.644112540609169E-1   -3.322520234543532E-1
 9.937496095750000E9     4.669979987546211E-1   -1.214790575229191E-1   -1.581052903525699E-3   -1.282413956660489E-3   -1.649288829873843E-3   -1.318641796476273E-3    3.638515937039772E-1   -3.327235765880958E-1
