#  HZ   S   RI   R     50.00 
! Rohde & Schwarz Vector Network Analyzer 
! Rohde-Schwarz,ZNB20-2Port,1311601062101988,3.16
! Created: UTC 3/20/2024, 11:09:19 PM
! freq[Hz]                re:S11                  im:S11                  re:S21                  im:S21                  re:S12                  im:S12                  re:S22                  im:S22
 9.937258678000000E9     4.720576294833219E-1   -1.055794106297542E-1   -2.770976448479147E-4   -2.400491413876512E-4   -3.063772116360646E-4   -2.491038533102558E-4    3.868457112959103E-1   -3.138282622636483E-1
 9.937261341075001E9     4.718308875188663E-1   -1.057365731119993E-1   -2.852384247637583E-4   -2.582869611503958E-4   -2.858568038350655E-4   -2.285907624766112E-4    3.864339154985043E-1   -3.142034843094010E-1
 9.937264004150000E9     4.719857273240692E-1   -1.057586382931111E-1   -3.118625896912076E-4   -2.182348429721198E-4   -2.764504721834551E-4   -2.310135485756294E-4    3.862207980990770E-1   -3.143617925157652E-1
 9.937266667225000E9     4.719652388236784E-1   -1.061937694092802E-1   -3.091111975280638E-4   -2.381833300501216E-4   -3.100806625200071E-4   -2.629407079396107E-4    3.862836652000151E-1   -3.145439727232487E-1
 9.937269330299999E9     4.718725600556791E-1   -1.063249950308514E-1   -3.005039775509432E-4   -2.519427918217055E-4   -3.350374937429440E-4   -2.681279869109782E-4    3.857800613674573E-1   -3.149170426809199E-1
 9.937271993375000E9     4.717474412795821E-1   -1.063913278178430E-1   -3.149473395202584E-4   -2.914693436202855E-4   -3.251432536348431E-4   -2.392316628679118E-4    3.856560762040840E-1   -3.149436061094156E-1
 9.937274656450001E9     4.714793677744412E-1   -1.066427560668922E-1   -3.040971124955465E-4   -2.887390931202497E-4   -2.965401127066510E-4   -2.875677974511462E-4    3.858365880260458E-1   -3.151897792165827E-1
 9.937277319525000E9     4.716936224895243E-1   -1.067838315741285E-1   -3.237386734949825E-4   -2.861597233890090E-4   -3.165448607968381E-4   -2.967006279877078E-4    3.853718002036470E-1   -3.151617451240814E-1
 9.937279982600000E9     4.715828486749455E-1   -1.070730329854216E-1   -3.405644265938226E-4   -2.462705141883650E-4   -3.295652049602733E-4   -2.775167829534724E-4    3.853316332143550E-1   -3.150855514489377E-1
 9.937282645674999E9     4.716827891801051E-1   -1.072643595573771E-1   -3.186587662177473E-4   -3.163323908072018E-4   -3.420395287861141E-4   -2.773996728644623E-4    3.850327371100694E-1   -3.155708813652712E-1
 9.937285308750000E9     4.715191160132102E-1   -1.073741342413142E-1   -3.574085541658999E-4   -2.998655685171631E-4   -3.398853603505495E-4   -2.930578293221308E-4    3.849261596712962E-1   -3.156683936500477E-1
 9.937287971825001E9     4.714472438840713E-1   -1.075985205291216E-1   -3.510196158133361E-4   -2.943785260757780E-4   -3.811313483755358E-4   -3.382300787527961E-4    3.846854801025963E-1   -3.159952878819063E-1
 9.937290634900000E9     4.713917938418374E-1   -1.076755043394782E-1   -3.701459861092995E-4   -3.065521790211153E-4   -3.692826566108989E-4   -3.171554187262101E-4    3.844764040810864E-1   -3.162980793734779E-1
 9.937293297975000E9     4.712679281886237E-1   -1.080582647788204E-1   -3.994440626428712E-4   -3.099049945349215E-4   -3.769180943831911E-4   -3.370274434265068E-4    3.842397225310776E-1   -3.163693142921288E-1
 9.937295961049999E9     4.713200108459526E-1   -1.081236341481251E-1   -4.055400261364513E-4   -3.181276033594026E-4   -3.828149088208662E-4   -3.296386956934993E-4    3.839771037086340E-1   -3.165598656477709E-1
 9.937298624125000E9     4.711932151991273E-1   -1.082092694555249E-1   -4.127227540040337E-4   -3.146161671728282E-4   -4.082442588894880E-4   -3.228527274761138E-4    3.839575262049663E-1   -3.167590147949181E-1
 9.937301287200001E9     4.712677604063326E-1   -1.083512003751150E-1   -4.113503444370372E-4   -3.855355045753583E-4   -3.987895408871053E-4   -3.555501749559492E-4    3.836843935092535E-1   -3.168787164017651E-1
 9.937303950275000E9     4.710311794185235E-1   -1.085837968718267E-1   -4.104167247671414E-4   -3.531789845359359E-4   -3.883280104419146E-4   -3.407131021265231E-4    3.832752596536496E-1   -3.172278069659344E-1
 9.937306613350000E9     4.711077190903802E-1   -1.087577366223893E-1   -4.109194067456643E-4   -3.413058856720313E-4   -4.200267989544482E-4   -3.836427388354554E-4    3.833947955533685E-1   -3.173104818588836E-1
 9.937309276424999E9     4.709822160615335E-1   -1.088981538820350E-1   -4.108899043767562E-4   -3.910808900558095E-4   -4.197271360321274E-4   -3.824599241400364E-4    3.830253916203090E-1   -3.175263715391494E-1
 9.937311939500000E9     4.709135956410461E-1   -1.090827170901706E-1   -4.362899278505062E-4   -3.996570513270914E-4   -4.551938789062277E-4   -3.938375204856107E-4    3.828063969092697E-1   -3.176814345706443E-1
 9.937314602575001E9     4.709607051236521E-1   -1.092510488895116E-1   -4.319063061052888E-4   -4.024568379592765E-4   -4.486296954103968E-4   -4.168582098432861E-4    3.825960643592978E-1   -3.178453120800747E-1
 9.937317265650000E9     4.707823125943577E-1   -1.094843605373406E-1   -4.592050464182590E-4   -4.018541125520124E-4   -4.760045756177831E-4   -3.957416200565907E-4    3.824560320278448E-1   -3.179837698301483E-1
 9.937319928725000E9     4.708074553674352E-1   -1.096897227476465E-1   -4.724672608399674E-4   -4.159971430120096E-4   -4.752563821782012E-4   -4.117555963852795E-4    3.821394433635865E-1   -3.181244389719761E-1
 9.937322591799999E9     4.707956276279004E-1   -1.098002780089583E-1   -4.936829542118375E-4   -4.207995629706614E-4   -4.922224301100413E-4   -4.346679821531015E-4    3.820963047929221E-1   -3.186972614824988E-1
 9.937325254875000E9     4.706074789262544E-1   -1.100795207514003E-1   -4.769763358129998E-4   -4.303384622124710E-4   -4.680525979187918E-4   -4.132920112737987E-4    3.818127164581517E-1   -3.185954676599503E-1
 9.937327917950001E9     4.705279265778070E-1   -1.102897031892596E-1   -4.593302171957974E-4   -4.419334022853767E-4   -4.799228821055852E-4   -4.429896153694322E-4    3.816274114362854E-1   -3.189561227116628E-1
 9.937330581025000E9     4.706237815853035E-1   -1.104814914192144E-1   -4.903809546417666E-4   -4.554218564712885E-4   -5.130712678462646E-4   -4.346922547589818E-4    3.813265958897887E-1   -3.190762683221141E-1
 9.937333244100000E9     4.705906447478534E-1   -1.105865929717691E-1   -5.028378901596799E-4   -4.456746716211619E-4   -5.145525795605131E-4   -4.656126952259631E-4    3.811588177478586E-1   -3.193617135174147E-1
 9.937335907174999E9     4.705510220714189E-1   -1.108403961534391E-1   -5.312966258673730E-4   -4.252520323192153E-4   -5.568013894883297E-4   -5.003765998945933E-4    3.808848147343921E-1   -3.194134757906746E-1
 9.937338570250000E9     4.703418821522674E-1   -1.109443406169563E-1   -5.329233083351370E-4   -4.813367100962207E-4   -5.552155143352868E-4   -4.889607994773518E-4    3.807660195031686E-1   -3.197786594182165E-1
 9.937341233325001E9     4.703013244287187E-1   -1.111361526987823E-1   -5.527780101662454E-4   -4.956519302988574E-4   -5.557609918885942E-4   -4.836701339430674E-4    3.804974054665921E-1   -3.198906181000351E-1
 9.937343896400000E9     4.702523146935326E-1   -1.111756028630531E-1   -5.287903364137602E-4   -5.138032630331245E-4   -5.570113962052508E-4   -4.835412312315848E-4    3.802587236792420E-1   -3.200681441754421E-1
 9.937346559475000E9     4.703007548778115E-1   -1.114022439728391E-1   -5.611589136890225E-4   -5.043478782970700E-4   -5.681751296403921E-4   -4.878812601569023E-4    3.802365245585673E-1   -3.201445012673098E-1
 9.937349222549999E9     4.702447261381086E-1   -1.117619090971328E-1   -5.569484765725873E-4   -5.061765079924389E-4   -5.803583897116500E-4   -5.223873339377775E-4    3.798451020996471E-1   -3.203692355208668E-1
 9.937351885625000E9     4.699991274636929E-1   -1.118043298301913E-1   -5.999070877450164E-4   -5.533204887049848E-4   -5.823172026482879E-4   -5.583067039461622E-4    3.796020354672713E-1   -3.204823094653989E-1
 9.937354548700001E9     4.700234454367443E-1   -1.119799042461020E-1   -5.953130857944552E-4   -5.631038896308351E-4   -6.163438031446827E-4   -5.263679086017596E-4    3.793314624142314E-1   -3.208068625706968E-1
 9.937357211775000E9     4.700487994156236E-1   -1.122649156286212E-1   -5.875699423154993E-4   -5.664569068201079E-4   -6.251921711781118E-4   -5.866720442173061E-4    3.791373694659076E-1   -3.212056492990099E-1
 9.937359874850000E9     4.700174973973950E-1   -1.123090077514834E-1   -6.161456650449080E-4   -5.269997125854584E-4   -6.127322669900226E-4   -5.590615166354768E-4    3.788722683030885E-1   -3.212868509191835E-1
 9.937362537924999E9     4.699797923064213E-1   -1.123598812726932E-1   -6.139595440238219E-4   -5.673960676848268E-4   -6.556962627528430E-4   -5.755168347521701E-4    3.785586352882962E-1   -3.215151501042892E-1
 9.937365201000000E9     4.699104916502010E-1   -1.126343687444442E-1   -6.512406793219338E-4   -5.981975523499292E-4   -6.549765219303491E-4   -5.671135120913317E-4    3.785145088117549E-1   -3.216321865960917E-1
 9.937367864075001E9     4.697731939291659E-1   -1.129317023517340E-1   -6.778084980891949E-4   -5.760280448534532E-4   -6.879805817975909E-4   -6.030553668597730E-4    3.782205396607717E-1   -3.219274517787756E-1
 9.937370527150000E9     4.697119004202812E-1   -1.131489593380841E-1   -6.945238000406572E-4   -6.125049620854709E-4   -6.912676488770076E-4   -6.011306426674125E-4    3.780337230395198E-1   -3.221513304048859E-1
 9.937373190225000E9     4.696383647313301E-1   -1.131857620101075E-1   -6.907013059151144E-4   -5.979602018372464E-4   -7.111641940852757E-4   -6.270207196415821E-4    3.778014336456454E-1   -3.223992883301148E-1
 9.937375853299999E9     4.696572951955686E-1   -1.133481707494890E-1   -7.043492697359637E-4   -6.295013349600082E-4   -6.969631139547187E-4   -6.075088968593356E-4    3.773195041364639E-1   -3.222887522180587E-1
 9.937378516375000E9     4.696349998174881E-1   -1.135585080483286E-1   -7.451315025282706E-4   -6.383743222008750E-4   -7.173752689548022E-4   -6.432585418692314E-4    3.773589658454270E-1   -3.227111827862867E-1
 9.937381179450001E9     4.695597417504765E-1   -1.139031285056760E-1   -7.353136964935170E-4   -6.510387795510539E-4   -7.605193356192023E-4   -6.374171611556405E-4    3.770399283174123E-1   -3.228553609401161E-1
 9.937383842525000E9     4.693235551455838E-1   -1.139127412554996E-1   -7.345546960692222E-4   -6.714413167132152E-4   -7.404803899180018E-4   -6.806122256570181E-4    3.767234108213975E-1   -3.232031406319594E-1
 9.937386505600000E9     4.693656327003521E-1   -1.141000168058066E-1   -7.638306422294118E-4   -6.726979522958348E-4   -7.694222763865167E-4   -6.745525833867143E-4    3.764076853127596E-1   -3.231363270733958E-1
 9.937389168674999E9     4.692569112750382E-1   -1.142621010836749E-1   -7.558544782789715E-4   -6.992730655354226E-4   -7.947356340244338E-4   -7.079377968177363E-4    3.761532549972705E-1   -3.236078251496763E-1
 9.937391831750000E9     4.692708671299032E-1   -1.145064793195653E-1   -7.659293386751058E-4   -6.987005325816728E-4   -7.875145593425407E-4   -6.833619547115478E-4    3.761889510121432E-1   -3.236928946605238E-1
 9.937394494825001E9     4.691683176966313E-1   -1.147685692153896E-1   -7.954868935369196E-4   -6.835086508852387E-4   -8.168044901416639E-4   -7.113257396844776E-4    3.759150041965785E-1   -3.239058835046081E-1
 9.937397157900000E9     4.692090936006404E-1   -1.148309576173593E-1   -8.307885766436365E-4   -7.334553717513746E-4   -8.426308428887230E-4   -7.239813964365477E-4    3.756056496640687E-1   -3.240017145415630E-1
 9.937399820975000E9     4.691636312011606E-1   -1.151861648700443E-1   -7.867551771756810E-4   -7.505310842008300E-4   -8.427826921693988E-4   -7.154120412665214E-4    3.752660172703912E-1   -3.243309623946740E-1
 9.937402484049999E9     4.691428804078398E-1   -1.152882841938604E-1   -8.450962361401574E-4   -7.766471947382014E-4   -8.403001577780256E-4   -7.420576568122159E-4    3.750664835038191E-1   -3.245588160222754E-1
 9.937405147125000E9     4.690775909192448E-1   -1.154312341933630E-1   -8.209331661386550E-4   -7.453097235419220E-4   -8.582863640786478E-4   -7.618115772028880E-4    3.748816279209911E-1   -3.247243447940354E-1
 9.937407810200001E9     4.689296818177070E-1   -1.156213720440919E-1   -8.564923589566098E-4   -7.899534716919098E-4   -8.656121561486443E-4   -7.939841467429398E-4    3.745414462230972E-1   -3.248817294393836E-1
 9.937410473275000E9     4.689726882739708E-1   -1.157523383731758E-1   -8.632410070443470E-4   -7.663178695531767E-4   -9.024496924138588E-4   -7.771508410852254E-4    3.743015957714239E-1   -3.248968959628362E-1
 9.937413136350000E9     4.688032313106920E-1   -1.159108507705112E-1   -9.120627608857550E-4   -8.125101020318117E-4   -9.175567431875054E-4   -7.725610808781545E-4    3.740621777522096E-1   -3.254185866190893E-1
 9.937415799424999E9     4.688289421807966E-1   -1.160744952334798E-1   -9.052885653410227E-4   -7.909695714803502E-4   -9.140310611292479E-4   -8.176807279721023E-4    3.737593888163835E-1   -3.255357623645477E-1
 9.937418462500000E9     4.688022138085441E-1   -1.163856735862295E-1   -9.186711906164170E-4   -8.178687775428696E-4   -9.118191382168292E-4   -8.106304308372368E-4    3.734351504329660E-1   -3.258038955648653E-1
 9.937421125575001E9     4.687337252566580E-1   -1.164827036110328E-1   -9.294890990355027E-4   -8.456977064404211E-4   -9.810797407707717E-4   -8.679656471838198E-4    3.732367742128903E-1   -3.259244057263393E-1
 9.937423788650000E9     4.687379859159501E-1   -1.166363302827869E-1   -9.524912593678714E-4   -8.993221814622646E-4   -9.843490668904119E-4   -8.595683771390220E-4    3.730742927694257E-1   -3.261926643038528E-1
 9.937426451725000E9     4.685519182496931E-1   -1.167547820367304E-1   -9.709298793580611E-4   -8.714115399009269E-4   -1.009968455607232E-3   -8.721177807311287E-4    3.727708419776313E-1   -3.263305839969058E-1
 9.937429114799999E9     4.685766805361712E-1   -1.170454011402995E-1   -9.837868122817587E-4   -8.728888511961518E-4   -1.008416015286082E-3   -8.762427496081821E-4    3.723977493630377E-1   -3.267703031634566E-1
 9.937431777875000E9     4.685000809081261E-1   -1.170709230918944E-1   -1.012492170141625E-3   -8.828463808003491E-4   -1.028633327499646E-3   -8.975705330414504E-4    3.722033536900929E-1   -3.269071505601972E-1
 9.937434440950001E9     4.683240696569412E-1   -1.175049805671561E-1   -1.051296481854829E-3   -8.896304591388216E-4   -1.040274133052908E-3   -8.856903234554567E-4    3.716829094398794E-1   -3.271127983429565E-1
 9.937437104025000E9     4.685122357034257E-1   -1.175762404184758E-1   -1.034913209224312E-3   -9.340894881419727E-4   -1.080070449678460E-3   -9.043537782851483E-4    3.714756660083401E-1   -3.272366707255914E-1
 9.937439767100000E9     4.682417101486489E-1   -1.178339286870552E-1   -1.064817280457030E-3   -9.275455418627513E-4   -1.101055957719604E-3   -9.283089331618728E-4    3.712641159076649E-1   -3.276657965100256E-1
 9.937442430174999E9     4.682074949108228E-1   -1.180787815446409E-1   -1.071667346697206E-3   -9.784544377370186E-4   -1.135257276239073E-3   -9.508018768499685E-4    3.709308232946358E-1   -3.277445101818982E-1
 9.937445093250000E9     4.682471060635769E-1   -1.181399224595215E-1   -1.106899512315450E-3   -9.577837947026131E-4   -1.158002444742594E-3   -9.574977855681732E-4    3.707728688576149E-1   -3.280191020546697E-1
 9.937447756325001E9     4.682263125783389E-1   -1.183130346201126E-1   -1.099141724487062E-3   -9.559363125504453E-4   -1.159228325409745E-3   -9.592977340189292E-4    3.703076203066066E-1   -3.280422680701368E-1
 9.937450419400000E9     4.680532076670438E-1   -1.184368521900570E-1   -1.141837457964232E-3   -1.003974041199100E-3   -1.187079163485913E-3   -1.022473430570960E-3    3.698556953450359E-1   -3.283797444841000E-1
 9.937453082475000E9     4.680028696707925E-1   -1.186149590048603E-1   -1.154483602369111E-3   -1.026074975351204E-3   -1.178292560494735E-3   -9.965627263517026E-4    3.698435450470168E-1   -3.286389403553909E-1
 9.937455745549999E9     4.678095865476564E-1   -1.188168007537985E-1   -1.157332965247952E-3   -1.017424808102232E-3   -1.222408353600798E-3   -9.790107373952946E-4    3.694765428174865E-1   -3.287815090234518E-1
 9.937458408625000E9     4.678702686998397E-1   -1.189962587593045E-1   -1.190677603076758E-3   -1.049882680298541E-3   -1.249547362262738E-3   -1.012667103382088E-3    3.690757075439364E-1   -3.290295242309793E-1
 9.937461071700001E9     4.678087691927775E-1   -1.192202814411226E-1   -1.224515078810775E-3   -1.057826395704133E-3   -1.252114299467427E-3   -1.051019444857313E-3    3.686475257285695E-1   -3.293450907286357E-1
 9.937463734775000E9     4.676757704587256E-1   -1.193777934402676E-1   -1.252211931877920E-3   -1.117051347091229E-3   -1.238760404632820E-3   -1.069837582307275E-3    3.687572414283219E-1   -3.294230792803302E-1
 9.937466397850000E9     4.676708330439649E-1   -1.195243861020583E-1   -1.275851091198976E-3   -1.104753659166365E-3   -1.295125614168136E-3   -1.075658408465764E-3    3.681471889840614E-1   -3.299028480045014E-1
 9.937469060924999E9     4.676141428172675E-1   -1.196938334245779E-1   -1.321584860043233E-3   -1.133443389816479E-3   -1.345230143772611E-3   -1.117980614930698E-3    3.677832491413732E-1   -3.300544890040256E-1
 9.937471724000000E9     4.674242480926240E-1   -1.199145818727118E-1   -1.338296044747715E-3   -1.116832838601673E-3   -1.340296351812706E-3   -1.115014901523650E-3    3.674526993435997E-1   -3.302738858339281E-1
 9.937474387075001E9     4.675694387859645E-1   -1.202146751430435E-1   -1.371886655548270E-3   -1.148098055736984E-3   -1.351014958568258E-3   -1.123070975838295E-3    3.673035787705313E-1   -3.305528754562244E-1
 9.937477050150000E9     4.675268292506407E-1   -1.202266052581213E-1   -1.373615264400762E-3   -1.158732594065817E-3   -1.401357096952297E-3   -1.145663595090051E-3    3.668697026340260E-1   -3.307596163731657E-1
 9.937479713225000E9     4.674762077653784E-1   -1.204115834141053E-1   -1.384269784803545E-3   -1.171565957328756E-3   -1.420310928457550E-3   -1.131171938979216E-3    3.664604009920167E-1   -3.310707792090904E-1
 9.937482376299999E9     4.672952481348976E-1   -1.204781166755662E-1   -1.383762071302870E-3   -1.205996533714644E-3   -1.437934025304178E-3   -1.179790575591228E-3    3.661861887514286E-1   -3.310985214909406E-1
 9.937485039375000E9     4.672398077539431E-1   -1.208650182074728E-1   -1.412549976600252E-3   -1.202088610104350E-3   -1.508271278001949E-3   -1.208705468374571E-3    3.658588983073709E-1   -3.312311341382526E-1
 9.937487702450001E9     4.672774115150808E-1   -1.209098358135233E-1   -1.439948238010517E-3   -1.227199695016145E-3   -1.477891621832244E-3   -1.232968207417884E-3    3.655338946461645E-1   -3.316247509882236E-1
 9.937490365525000E9     4.671496806088133E-1   -1.212189828898916E-1   -1.486204279410533E-3   -1.280348265412747E-3   -1.541930097577326E-3   -1.224051653501028E-3    3.653479117654850E-1   -3.319875360696844E-1
 9.937493028600000E9     4.672245488711024E-1   -1.213431545006134E-1   -1.496635685385879E-3   -1.279914173667719E-3   -1.536039192350740E-3   -1.258496972267602E-3    3.647420493676223E-1   -3.321528107174274E-1
 9.937495691674999E9     4.671680381105792E-1   -1.214777751780758E-1   -1.531334081589457E-3   -1.293753481010423E-3   -1.571441066257975E-3   -1.301858697176289E-3    3.643950665051340E-1   -3.323409449585684E-1
 9.937498354750000E9     4.670357391800410E-1   -1.215848690628443E-1   -1.522891882131574E-3   -1.311057088182473E-3   -1.580326550343799E-3   -1.311861956816995E-3    3.640732595502391E-1   -3.327231799635907E-1
