#  HZ   S   RI   R     50.00 
! Rohde & Schwarz Vector Network Analyzer 
! Rohde-Schwarz,ZNB20-2Port,1311601062101988,3.16
! Created: UTC 3/20/2024, 11:09:24 PM
! freq[Hz]                re:S11                  im:S11                  re:S21                  im:S21                  re:S12                  im:S12                  re:S22                  im:S22
 9.937265859000000E9     4.718347917907809E-1   -1.061554591997910E-1   -3.129099980614614E-4   -2.350189817868795E-4   -2.965615715612735E-4   -2.668959396576853E-4    3.862747110806176E-1   -3.144038951380441E-1
 9.937268492450001E9     4.718572972056511E-1   -1.062671578234228E-1   -3.059377149607036E-4   -2.926561243294058E-4   -2.967300660543660E-4   -2.466238943307237E-4    3.858818897417974E-1   -3.147624685948707E-1
 9.937271125900000E9     4.718243848564816E-1   -1.062539161957696E-1   -2.858683635417958E-4   -2.553846343329990E-4   -3.358386748903578E-4   -2.547691881368339E-4    3.857632269931666E-1   -3.149442813195777E-1
 9.937273759350000E9     4.716486948638821E-1   -1.066921072877035E-1   -2.847624268965625E-4   -2.550696572654550E-4   -3.500718365552451E-4   -2.665110274477344E-4    3.855898202152841E-1   -3.150433672153038E-1
 9.937276392799999E9     4.714419580922062E-1   -1.067702066107235E-1   -3.185603598545115E-4   -2.689921213459145E-4   -3.203862492645220E-4   -2.828060424376743E-4    3.856005687852720E-1   -3.153081937004725E-1
 9.937279026250000E9     4.716674835737834E-1   -1.067568329567060E-1   -3.138473342972828E-4   -2.934357259967883E-4   -3.298644278509047E-4   -2.989916715292374E-4    3.853294098757355E-1   -3.153634132698048E-1
 9.937281659700001E9     4.715932796079839E-1   -1.070551052803916E-1   -3.587882496850847E-4   -3.128424031284715E-4   -3.436342592578141E-4   -3.369891732858081E-4    3.851136753934888E-1   -3.155436030375491E-1
 9.937284293150000E9     4.715183162768691E-1   -1.073037387707563E-1   -3.731819982039502E-4   -2.875016882190578E-4   -3.437821148957103E-4   -2.977495491697476E-4    3.850038195970161E-1   -3.156709334285527E-1
 9.937286926600000E9     4.714902572924932E-1   -1.076546495622480E-1   -3.448612968552726E-4   -2.860464307070615E-4   -3.573144049850109E-4   -3.097682348554417E-4    3.848299449684642E-1   -3.157197941991455E-1
 9.937289560049999E9     4.714687174678801E-1   -1.076756922733870E-1   -3.521603686766592E-4   -3.128333317490189E-4   -3.693897435648669E-4   -3.109962141306546E-4    3.844966376181393E-1   -3.161282111354218E-1
 9.937292193500000E9     4.714523653093384E-1   -1.079367250088559E-1   -3.595789288234579E-4   -3.207932928542533E-4   -3.710000443011038E-4   -3.137833502138243E-4    3.844296211285722E-1   -3.162782915012651E-1
 9.937294826950001E9     4.712773630316866E-1   -1.081446754065217E-1   -3.614882046314891E-4   -3.227181319592462E-4   -3.662884215308607E-4   -3.429309018576321E-4    3.842091283260445E-1   -3.164002996857510E-1
 9.937297460400000E9     4.712976168302029E-1   -1.081796158880633E-1   -3.806828364838710E-4   -3.474671170693903E-4   -4.069390560219383E-4   -3.449310194857120E-4    3.839461536991615E-1   -3.167493343213160E-1
 9.937300093850000E9     4.710521743571976E-1   -1.084393343504317E-1   -3.763575878844380E-4   -3.563142293188234E-4   -3.883914779982938E-4   -3.486120586727235E-4    3.836219070530432E-1   -3.167858785416410E-1
 9.937302727299999E9     4.711532518618453E-1   -1.085800171500381E-1   -4.094657404908016E-4   -3.526317753431395E-4   -3.880216656594315E-4   -3.398994550214481E-4    3.833948406021200E-1   -3.168013294626241E-1
 9.937305360750000E9     4.710583551046658E-1   -1.085118379919554E-1   -4.093901842905938E-4   -3.580945730161799E-4   -4.069983980938716E-4   -3.691992732907594E-4    3.832730039683144E-1   -3.172286657977936E-1
 9.937307994200001E9     4.710859785912845E-1   -1.089650334077588E-1   -4.012963945785936E-4   -3.697689678814267E-4   -4.484166684815626E-4   -3.763513512685767E-4    3.832013873183766E-1   -3.174051024648419E-1
 9.937310627650000E9     4.709483893848986E-1   -1.091369852941018E-1   -4.369496771162083E-4   -4.076083917334469E-4   -4.343804887912896E-4   -3.917363728687796E-4    3.828634890388488E-1   -3.176861736016095E-1
 9.937313261100000E9     4.709650137245918E-1   -1.091975416845941E-1   -4.526350968160877E-4   -3.863714295122506E-4   -4.566605008163325E-4   -4.344778424232326E-4    3.827192152118551E-1   -3.179210919818821E-1
 9.937315894549999E9     4.707743762702603E-1   -1.093558083942245E-1   -4.789347818038289E-4   -3.963378456065331E-4   -4.373317335479488E-4   -4.164523419728807E-4    3.825442080267624E-1   -3.178358270235460E-1
 9.937318528000000E9     4.708543574246830E-1   -1.095946212531980E-1   -4.367259131570178E-4   -4.166361766040214E-4   -4.780812984888263E-4   -3.909817806664063E-4    3.822340394623631E-1   -3.182055749925993E-1
 9.937321161450001E9     4.706040026614848E-1   -1.098346153850810E-1   -4.522016813746497E-4   -4.350997967946779E-4   -4.835900477981608E-4   -4.032601914762206E-4    3.820820324526816E-1   -3.182631339564007E-1
 9.937323794900000E9     4.707250118752386E-1   -1.099122549575543E-1   -4.693867902204752E-4   -4.277703361495862E-4   -4.741621224861797E-4   -4.191223127514790E-4    3.817715022316258E-1   -3.185985765796084E-1
 9.937326428350000E9     4.705949146324024E-1   -1.102207985655791E-1   -4.632779036400034E-4   -4.500350652623711E-4   -4.965110512024801E-4   -4.636539902446267E-4    3.816164101721772E-1   -3.186231222576576E-1
 9.937329061799999E9     4.707043380032445E-1   -1.103036044200887E-1   -5.122715247178624E-4   -4.477798795589219E-4   -5.281925181132126E-4   -4.561632111502643E-4    3.813650125347045E-1   -3.189051756389032E-1
 9.937331695250000E9     4.706753635005581E-1   -1.104495353449137E-1   -4.801405954725187E-4   -4.801924382641634E-4   -5.207680659884539E-4   -4.322335718147907E-4    3.813590966614120E-1   -3.191453925379943E-1
 9.937334328700001E9     4.705214649779897E-1   -1.108281583878753E-1   -5.264589459476266E-4   -4.406046340271002E-4   -5.276945616054486E-4   -4.462412985617515E-4    3.810932725806781E-1   -3.192705404187726E-1
 9.937336962150000E9     4.704650633529548E-1   -1.108576110796329E-1   -5.091422658290793E-4   -4.714186192144517E-4   -5.345719780614471E-4   -4.722731613160911E-4    3.808624495321231E-1   -3.195239099114092E-1
 9.937339595600000E9     4.704257387102535E-1   -1.109850144935366E-1   -5.294721933529103E-4   -5.038819522851695E-4   -5.115580375508325E-4   -5.089222054976185E-4    3.805067750278990E-1   -3.196000136547377E-1
 9.937342229049999E9     4.702842533494178E-1   -1.111735613925466E-1   -5.274566166580727E-4   -5.139041811464785E-4   -5.427998794714331E-4   -4.909223481116440E-4    3.805415351859751E-1   -3.198039878928233E-1
 9.937344862500000E9     4.703729561324685E-1   -1.113296342928509E-1   -5.421641348170035E-4   -5.106862014194004E-4   -5.558584606392321E-4   -4.947974294154420E-4    3.801155393286094E-1   -3.200953091934168E-1
 9.937347495950001E9     4.701913785722555E-1   -1.115219702978720E-1   -5.618457569203418E-4   -5.370294245096284E-4   -5.982041705205013E-4   -5.011541493515490E-4    3.798769504489217E-1   -3.202246553967456E-1
 9.937350129400000E9     4.700123192295388E-1   -1.118293101644405E-1   -5.807877692400576E-4   -5.299117369159476E-4   -6.180530805633398E-4   -5.220796023356278E-4    3.798222127922624E-1   -3.204999121633583E-1
 9.937352762850000E9     4.700792248840838E-1   -1.119335273003797E-1   -5.907853610940859E-4   -5.296150464893542E-4   -5.974782434044244E-4   -5.187809609651330E-4    3.794602962448215E-1   -3.207133456711556E-1
 9.937355396299999E9     4.700078224899585E-1   -1.119598139513206E-1   -5.840731322398647E-4   -5.150384809168423E-4   -6.196972682412895E-4   -5.172054736858175E-4    3.794866813165303E-1   -3.207886405997484E-1
 9.937358029750000E9     4.700550361210662E-1   -1.122393234219013E-1   -6.292996008932966E-4   -5.494352877003218E-4   -6.292665609060620E-4   -5.472009699116463E-4    3.791457942679375E-1   -3.210901849465212E-1
 9.937360663200001E9     4.699255192371687E-1   -1.124165236280575E-1   -6.193347014944202E-4   -5.338441264226222E-4   -6.244618600549809E-4   -5.813801309375519E-4    3.788247716599819E-1   -3.213996550529703E-1
 9.937363296650000E9     4.697979627766099E-1   -1.125994581314122E-1   -6.068942523842780E-4   -5.567190237345275E-4   -6.460751456365666E-4   -5.454493778669745E-4    3.787189760850634E-1   -3.214245742146746E-1
 9.937365930100000E9     4.697673982591674E-1   -1.127910749195802E-1   -6.488878017891773E-4   -5.709798165149198E-4   -6.752767266318729E-4   -5.865915513771768E-4    3.784713170056498E-1   -3.217933235615431E-1
 9.937368563549999E9     4.698505167160602E-1   -1.129034682119361E-1   -6.631512421884213E-4   -5.977577781224140E-4   -6.595298678065402E-4   -5.981252639511907E-4    3.783115627014265E-1   -3.219128430491099E-1
 9.937371197000000E9     4.695167895183718E-1   -1.131749852515508E-1   -6.587966972645254E-4   -6.277420821465718E-4   -6.961629065777796E-4   -6.070123181226429E-4    3.780139816715953E-1   -3.221476923080768E-1
 9.937373830450001E9     4.696705667182948E-1   -1.132534074322480E-1   -6.493018591484128E-4   -5.962558357265513E-4   -7.071397168710896E-4   -5.884674032905666E-4    3.776836744929015E-1   -3.221427775920028E-1
 9.937376463900000E9     4.695861066570335E-1   -1.135893521514226E-1   -6.977093454921254E-4   -6.359214472261361E-4   -6.595680220904521E-4   -6.250389553913798E-4    3.774429527909512E-1   -3.223852849196721E-1
 9.937379097350000E9     4.695018107036112E-1   -1.135377549863064E-1   -6.841501850097448E-4   -6.658336397193944E-4   -7.365975398372352E-4   -6.052528979977666E-4    3.771893231905756E-1   -3.226372455605897E-1
 9.937381730799999E9     4.695633597992407E-1   -1.138145438371501E-1   -7.094835340439413E-4   -6.322413122177576E-4   -7.276963151285239E-4   -6.557917170515130E-4    3.770886741620454E-1   -3.229312339936030E-1
 9.937384364250000E9     4.694105328723437E-1   -1.139133854562489E-1   -7.272265675297794E-4   -6.610682027582216E-4   -7.416562412145150E-4   -6.847296223927745E-4    3.767226256764239E-1   -3.231516314888599E-1
 9.937386997700001E9     4.694525932248471E-1   -1.141434655567741E-1   -7.481029317725061E-4   -6.832111056282536E-4   -7.569063788573732E-4   -6.626769700234131E-4    3.766340368176835E-1   -3.230843747913228E-1
 9.937389631150000E9     4.693428303858931E-1   -1.144708913438206E-1   -7.580036257999489E-4   -6.549373506674515E-4   -7.655340047825276E-4   -6.968501766669884E-4    3.762352331844622E-1   -3.234105542368626E-1
 9.937392264600000E9     4.693012008815844E-1   -1.145767375656817E-1   -7.581207621698778E-4   -6.962084565845220E-4   -7.742425117432506E-4   -6.755610564898343E-4    3.761285358568747E-1   -3.237312844402336E-1
 9.937394898049999E9     4.692616521995432E-1   -1.146737443231300E-1   -8.122740419543226E-4   -7.013024796021787E-4   -8.002906761299693E-4   -7.051239621134446E-4    3.758900359881205E-1   -3.239640355394869E-1
 9.937397531500000E9     4.691909941760718E-1   -1.150115374920423E-1   -8.280149281252332E-4   -7.054603567491743E-4   -8.207172914441559E-4   -7.147788281210665E-4    3.756529527664070E-1   -3.240766633079969E-1
 9.937400164950001E9     4.691029078505002E-1   -1.150431714012208E-1   -8.195053574719045E-4   -7.349708851777035E-4   -8.310571435944740E-4   -7.278770790581737E-4    3.752758315143559E-1   -3.242233559472908E-1
 9.937402798400000E9     4.691432744629458E-1   -1.151778874523964E-1   -8.460219063510046E-4   -7.026492867655637E-4   -8.417421934028228E-4   -7.228473792033291E-4    3.750423146926715E-1   -3.244227962291422E-1
 9.937405431850000E9     4.689768550958152E-1   -1.155334023998348E-1   -8.364975063459359E-4   -7.518650945871019E-4   -8.869223892416121E-4   -7.605229457273294E-4    3.748403336865178E-1   -3.247239902513108E-1
 9.937408065299999E9     4.689765197020266E-1   -1.155951252194283E-1   -8.621412348353562E-4   -7.867080525720470E-4   -8.814918817727974E-4   -7.597193167477615E-4    3.746634120725534E-1   -3.248936695674536E-1
 9.937410698750000E9     4.689245655168907E-1   -1.158718142309725E-1   -8.579221291378927E-4   -8.097287641806128E-4   -9.052990000978431E-4   -7.914081515464454E-4    3.744230398522345E-1   -3.252835434067628E-1
 9.937413332200001E9     4.689475061621631E-1   -1.160911984296268E-1   -8.700191196646134E-4   -7.927158062619429E-4   -9.008456186397409E-4   -8.200008168527266E-4    3.739942739632470E-1   -3.252704386946398E-1
 9.937415965650000E9     4.688148518195261E-1   -1.161923364324719E-1   -9.153723130824926E-4   -8.150428863079366E-4   -9.597833414299105E-4   -7.962204195368326E-4    3.738473313190518E-1   -3.256063433117712E-1
 9.937418599100000E9     4.687714432235171E-1   -1.163648917102523E-1   -9.000949327060185E-4   -8.009748212222851E-4   -9.322420881912028E-4   -8.070883484879939E-4    3.736987461709512E-1   -3.258581909672923E-1
 9.937421232549999E9     4.686999897982737E-1   -1.164473887549277E-1   -9.571369934025448E-4   -8.484514650250379E-4   -9.661960201834667E-4   -8.363177375838902E-4    3.732333915858539E-1   -3.260808834532702E-1
 9.937423866000000E9     4.686136700417213E-1   -1.166360915020012E-1   -9.424716509782175E-4   -8.299812757612138E-4   -9.832476407862880E-4   -8.498890824253605E-4    3.730624144477607E-1   -3.261518569945828E-1
 9.937426499450001E9     4.686393049740413E-1   -1.169227394093108E-1   -9.768990228495890E-4   -8.677189761733422E-4   -9.816745119319262E-4   -8.870559949169755E-4    3.727312289574518E-1   -3.264764069623368E-1
 9.937429132900000E9     4.684781644467247E-1   -1.170879163292864E-1   -1.001689678224647E-3   -8.521367229126651E-4   -9.875700886886867E-4   -8.796532731231202E-4    3.723336130060749E-1   -3.264836067079348E-1
 9.937431766350000E9     4.685556531815953E-1   -1.172181036411020E-1   -1.003734872306900E-3   -8.946550478097304E-4   -1.036510174091761E-3   -8.895685583779588E-4    3.724987155646758E-1   -3.270225857342952E-1
 9.937434399799999E9     4.683857684604038E-1   -1.173321042699936E-1   -1.026146798690299E-3   -8.732492952787072E-4   -1.037588229731188E-3   -9.269245791039667E-4    3.720502403130213E-1   -3.270212281254856E-1
 9.937437033250000E9     4.683673581984583E-1   -1.175582000549255E-1   -1.026240232375573E-3   -9.051704534749601E-4   -1.077737127833589E-3   -9.207796371735185E-4    3.717781941375771E-1   -3.272867349559925E-1
 9.937439666700001E9     4.683514389560339E-1   -1.178225890138422E-1   -1.043889746564626E-3   -9.427027490519324E-4   -1.047661592077889E-3   -9.611216403694015E-4    3.715261204780616E-1   -3.274932361282265E-1
 9.937442300150000E9     4.681670443632238E-1   -1.178943168769739E-1   -1.087472499152549E-3   -9.328443295319140E-4   -1.092518697390538E-3   -9.464021885743807E-4    3.710487104195766E-1   -3.277524606970957E-1
 9.937444933600000E9     4.682454525263134E-1   -1.180638031502244E-1   -1.123737697426268E-3   -9.560061563820156E-4   -1.112956019554264E-3   -9.575055391556667E-4    3.707539096599511E-1   -3.278913964736921E-1
 9.937447567049999E9     4.681833352820065E-1   -1.182496312399624E-1   -1.099140314890246E-3   -9.897054591877941E-4   -1.129258787926570E-3   -9.715115242807761E-4    3.706529472384859E-1   -3.282051708927188E-1
 9.937450200500000E9     4.680958125975876E-1   -1.184259937899102E-1   -1.119855310834992E-3   -9.821687714580498E-4   -1.151520910030023E-3   -9.909310276126173E-4    3.700122306724852E-1   -3.285933202876611E-1
 9.937452833950001E9     4.680083913042734E-1   -1.185407724271739E-1   -1.137504702279973E-3   -9.731823388477557E-4   -1.181189218199887E-3   -1.015735309363360E-3    3.697756433187696E-1   -3.284500717908282E-1
 9.937455467400000E9     4.680051181494433E-1   -1.187419946766567E-1   -1.143273186537067E-3   -9.788413936379734E-4   -1.192978865268662E-3   -1.016606236549506E-3    3.697765640874421E-1   -3.289149397480760E-1
 9.937458100850000E9     4.678974459431368E-1   -1.190101514012299E-1   -1.186267637674903E-3   -1.038605826885680E-3   -1.201614969222941E-3   -1.019973633972015E-3    3.693022479925128E-1   -3.291277939083753E-1
 9.937460734299999E9     4.679904718763796E-1   -1.191381438568746E-1   -1.183484207817715E-3   -1.030104857884535E-3   -1.260576929747139E-3   -1.054492972747578E-3    3.690014071137018E-1   -3.291839460462279E-1
 9.937463367750000E9     4.678415905399340E-1   -1.193218953133439E-1   -1.251462873569434E-3   -1.045967029898881E-3   -1.251621773637541E-3   -1.059940331761181E-3    3.686680631033891E-1   -3.295091814809155E-1
 9.937466001200001E9     4.676438906710468E-1   -1.193748033403671E-1   -1.230384655555719E-3   -1.073820107154617E-3   -1.279396957799805E-3   -1.086401847263984E-3    3.681706013587061E-1   -3.298688553991834E-1
 9.937468634650000E9     4.676594986367397E-1   -1.196711297773459E-1   -1.256569458518026E-3   -1.116698821492028E-3   -1.285550699781369E-3   -1.090184470306074E-3    3.681149150439775E-1   -3.299751645892728E-1
 9.937471268100000E9     4.675060614776771E-1   -1.199928745913030E-1   -1.300871070733264E-3   -1.118391976101270E-3   -1.336735923002888E-3   -1.104144427336780E-3    3.676404394950933E-1   -3.301925617770853E-1
 9.937473901549999E9     4.675048099163933E-1   -1.200617008621059E-1   -1.307477044525665E-3   -1.138754706237875E-3   -1.369662881879005E-3   -1.130781666059352E-3    3.673338427473127E-1   -3.305115776914972E-1
 9.937476535000000E9     4.674854182053967E-1   -1.200892817041423E-1   -1.333065432579481E-3   -1.168856477769366E-3   -1.343193822672888E-3   -1.162902330863691E-3    3.671869188860323E-1   -3.306595194547398E-1
 9.937479168450001E9     4.674649549433663E-1   -1.202389310506562E-1   -1.374150197195746E-3   -1.152773495304233E-3   -1.416461304525215E-3   -1.178850657259021E-3    3.667600659300564E-1   -3.309221448196499E-1
 9.937481801900000E9     4.673913337066521E-1   -1.205832584530027E-1   -1.365582777113016E-3   -1.203806032689739E-3   -1.437601501414657E-3   -1.186193980282125E-3    3.662917748765211E-1   -3.309469065084790E-1
 9.937484435350000E9     4.673309663675841E-1   -1.206676313825227E-1   -1.425125786227099E-3   -1.209169719152126E-3   -1.435784006169437E-3   -1.183349430449837E-3    3.659432140134041E-1   -3.315477398614138E-1
 9.937487068799999E9     4.673892660608934E-1   -1.210030412797417E-1   -1.449611637452864E-3   -1.213793417349589E-3   -1.474688934509493E-3   -1.219533014866160E-3    3.656931897839901E-1   -3.314308495502746E-1
 9.937489702250000E9     4.672397355967662E-1   -1.212791675428967E-1   -1.457702033913181E-3   -1.273987032974739E-3   -1.518894515605567E-3   -1.221703925958801E-3    3.652856317253174E-1   -3.318154530408544E-1
 9.937492335700001E9     4.670417516680512E-1   -1.213882766837548E-1   -1.510500433093012E-3   -1.284507789553798E-3   -1.512907435025329E-3   -1.245578008096317E-3    3.650157753882965E-1   -3.320704112266418E-1
 9.937494969150000E9     4.670780327570618E-1   -1.215035166681379E-1   -1.519131991563479E-3   -1.245730042067916E-3   -1.543244138026803E-3   -1.276044256284799E-3    3.647307390794966E-1   -3.323828845748257E-1
 9.937497602600000E9     4.668455796037569E-1   -1.213664159411870E-1   -1.584928853625029E-3   -1.277746193493734E-3   -1.580028958653673E-3   -1.277052176719705E-3    3.642178548647922E-1   -3.325271774459595E-1
 9.937500236049999E9     4.668745063996822E-1   -1.217822374451920E-1   -1.577808125398344E-3   -1.321992790498874E-3   -1.626636578595995E-3   -1.289615492378678E-3    3.639061715923896E-1   -3.327864649024836E-1
 9.937502869500000E9     4.669514355968796E-1   -1.219824059577587E-1   -1.583673492825535E-3   -1.337947302922146E-3   -1.652585117655339E-3   -1.337276796216936E-3    3.634402411410608E-1   -3.329132662970549E-1
