#  HZ   S   RI   R     50.00 
! Rohde & Schwarz Vector Network Analyzer 
! Rohde-Schwarz,ZNB20-2Port,1311601062101988,3.16
! Created: UTC 3/20/2024, 11:09:34 PM
! freq[Hz]                re:S11                  im:S11                  re:S21                  im:S21                  re:S12                  im:S12                  re:S22                  im:S22
 9.937270460000000E9     4.718573663468475E-1   -1.063602853720614E-1   -2.872671034757489E-4   -2.823280010665872E-4   -3.078101366641766E-4   -2.479912941492757E-4    3.859960414494156E-1   -3.147993237773178E-1
 9.937273071049999E9     4.717538105532716E-1   -1.065683224337041E-1   -3.155831335304585E-4   -2.864296730322835E-4   -3.007519674164202E-4   -2.448685630550552E-4    3.857639466083195E-1   -3.149890159679524E-1
 9.937275682100000E9     4.717064647974349E-1   -1.067152898142079E-1   -3.074349485153805E-4   -2.654963877031773E-4   -3.469146445431160E-4   -2.453364243248981E-4    3.855856572919785E-1   -3.150901834593468E-1
 9.937278293150000E9     4.715727273675273E-1   -1.070242574537646E-1   -3.422858542158852E-4   -2.627995704355988E-4   -3.099358564312690E-4   -2.597920480826883E-4    3.855394039364642E-1   -3.153284907156250E-1
 9.937280904200001E9     4.717494531023932E-1   -1.070177313242054E-1   -3.062457646602308E-4   -2.810685597655949E-4   -3.566570950865893E-4   -3.026729923547323E-4    3.852654323581125E-1   -3.156041060650641E-1
 9.937283515250000E9     4.716516784076220E-1   -1.071571785450554E-1   -3.404100509662136E-4   -3.132106422800018E-4   -3.178483234612556E-4   -3.201154524297634E-4    3.849941475054149E-1   -3.156727631099005E-1
 9.937286126299999E9     4.714777679709405E-1   -1.074857085289406E-1   -3.544920722358272E-4   -2.886702307565545E-4   -3.509877970561302E-4   -2.738325643040193E-4    3.847454143602335E-1   -3.158297608624180E-1
 9.937288737350000E9     4.713977547368696E-1   -1.076225727482538E-1   -3.318864291762430E-4   -3.142739587208128E-4   -3.337306016564563E-4   -2.831559884247771E-4    3.846956993531687E-1   -3.158756658650278E-1
 9.937291348400000E9     4.713748565563214E-1   -1.078186558650739E-1   -3.330389839066315E-4   -3.201334064054000E-4   -3.471178057620604E-4   -3.168901467909745E-4    3.845777238998993E-1   -3.162935625809176E-1
 9.937293959450001E9     4.712109772960584E-1   -1.079599777317653E-1   -3.697365540205885E-4   -3.279988720050619E-4   -3.667884802464936E-4   -3.425729028046645E-4    3.843007207655567E-1   -3.162777476954092E-1
 9.937296570500000E9     4.712938596672174E-1   -1.080562574548416E-1   -4.159635779209902E-4   -3.396166173697283E-4   -3.923235053606822E-4   -3.211707719133045E-4    3.840305069752632E-1   -3.166585634426110E-1
 9.937299181549999E9     4.712329162539679E-1   -1.083084792099640E-1   -3.851267217394795E-4   -3.288528567682126E-4   -4.083139834118569E-4   -3.262527959884697E-4    3.838383268568536E-1   -3.168890184325527E-1
 9.937301792600000E9     4.712549334759133E-1   -1.085695981750391E-1   -4.056920012658737E-4   -3.372085564624444E-4   -3.822344196197565E-4   -3.553325699939838E-4    3.837723636129968E-1   -3.169930023022154E-1
 9.937304403650000E9     4.710606953892572E-1   -1.086865647485510E-1   -3.911053636213322E-4   -3.381013117735001E-4   -4.220226857975198E-4   -3.416037284824348E-4    3.834668080558431E-1   -3.171290087123003E-1
 9.937307014700001E9     4.710023757843171E-1   -1.087112843424030E-1   -4.000432998466864E-4   -3.562620724195299E-4   -4.059309677841896E-4   -3.738559120526777E-4    3.833427386636148E-1   -3.171951316418201E-1
 9.937309625750000E9     4.710396713038427E-1   -1.091505514955525E-1   -4.081343485031138E-4   -3.905079136230651E-4   -4.070200540654103E-4   -3.746888101511385E-4    3.830809863036165E-1   -3.173976498816076E-1
 9.937312236799999E9     4.708692555498065E-1   -1.091645734560516E-1   -4.136389329657948E-4   -3.806062423972064E-4   -4.374871949515405E-4   -4.114378340356418E-4    3.829273221945200E-1   -3.175709264874349E-1
 9.937314847850000E9     4.710738049978364E-1   -1.092955478533776E-1   -4.474262798075616E-4   -3.954161550769764E-4   -4.578541583751399E-4   -3.929393407500459E-4    3.828030334260143E-1   -3.179277412596785E-1
 9.937317458900000E9     4.707174087492066E-1   -1.095867370754430E-1   -4.547058921834387E-4   -4.122559501991974E-4   -4.785569423804118E-4   -3.879711227448496E-4    3.824035562198716E-1   -3.180230073361525E-1
 9.937320069950001E9     4.709167484074425E-1   -1.097732648158885E-1   -4.592839990132744E-4   -4.268748017932627E-4   -4.881068018589439E-4   -3.864934653276559E-4    3.820205751519312E-1   -3.181936030060123E-1
 9.937322681000000E9     4.708206864143382E-1   -1.099405313414044E-1   -4.602633658405617E-4   -4.502794819275862E-4   -4.661508129146258E-4   -4.294793381966603E-4    3.818899113102341E-1   -3.184930480536424E-1
 9.937325292049999E9     4.706481509935311E-1   -1.100212526742833E-1   -4.879740949143715E-4   -4.087751094808434E-4   -4.848717989064261E-4   -4.075722879147926E-4    3.818423121383425E-1   -3.186324087051317E-1
 9.937327903100000E9     4.706663895879133E-1   -1.102289818789346E-1   -4.824590215951370E-4   -4.294310591733857E-4   -5.061312180224895E-4   -4.589402620864146E-4    3.817186391848725E-1   -3.187804177013575E-1
 9.937330514150000E9     4.705515850373890E-1   -1.105523255847270E-1   -4.844329941127400E-4   -4.487170125973859E-4   -5.012579958555036E-4   -4.411602435228255E-4    3.815673671490173E-1   -3.189737318816497E-1
 9.937333125200001E9     4.706412630699687E-1   -1.105722905362153E-1   -4.856447494803303E-4   -4.356800807195224E-4   -4.859994383066903E-4   -4.493685575853418E-4    3.810007475808102E-1   -3.191370078923872E-1
 9.937335736250000E9     4.705627787590989E-1   -1.107652196373812E-1   -5.206492144191116E-4   -4.771716879645727E-4   -5.169365538623839E-4   -3.918690587992909E-4    3.810089457141952E-1   -3.192615450485827E-1
 9.937338347299999E9     4.705265728558798E-1   -1.109883506750259E-1   -5.250787480429672E-4   -4.511907406509240E-4   -5.084748010380158E-4   -5.035913207833043E-4    3.808693901904545E-1   -3.194341911618309E-1
 9.937340958350000E9     4.704381738470420E-1   -1.110826297753550E-1   -5.314216381520192E-4   -4.990588065802191E-4   -5.590697394978908E-4   -4.753877009823548E-4    3.805682435291159E-1   -3.199256009679458E-1
 9.937343569400000E9     4.703176110576800E-1   -1.114274082495920E-1   -5.271567446315412E-4   -5.022236135565579E-4   -5.129639318268312E-4   -4.981648808458706E-4    3.803764765599085E-1   -3.199488076075613E-1
 9.937346180450001E9     4.702134326191492E-1   -1.114607081466642E-1   -5.249397387439732E-4   -4.960322150451205E-4   -5.566265101960573E-4   -5.133371199051941E-4    3.801036292667622E-1   -3.201087263281318E-1
 9.937348791500000E9     4.702304782780065E-1   -1.116675587661373E-1   -5.401723523120956E-4   -5.268048633397561E-4   -5.759400718214353E-4   -5.002860612598621E-4    3.798901697538646E-1   -3.201841530131274E-1
 9.937351402549999E9     4.701663661994684E-1   -1.118526661310953E-1   -5.650751513465543E-4   -5.121875589129026E-4   -5.808961450762674E-4   -5.222851110325089E-4    3.798569884904132E-1   -3.205500885170259E-1
 9.937354013600000E9     4.701573379931800E-1   -1.121796368852012E-1   -5.406507297374020E-4   -5.513184448062474E-4   -5.598129431483098E-4   -5.030425250126822E-4    3.796858625019643E-1   -3.206795728147721E-1
 9.937356624650000E9     4.700157691228897E-1   -1.121807985228805E-1   -5.818174017016464E-4   -5.235186620114406E-4   -6.336773485254867E-4   -5.424578787065526E-4    3.791650754269932E-1   -3.207342387891070E-1
 9.937359235700001E9     4.699749663256721E-1   -1.122971073570276E-1   -6.056513222855992E-4   -5.673099982387696E-4   -6.159720024140426E-4   -5.746597364060236E-4    3.791582770613008E-1   -3.209300997279118E-1
 9.937361846750000E9     4.699269627737144E-1   -1.125099287393378E-1   -5.896418771414926E-4   -5.721754287662164E-4   -6.379750238661149E-4   -5.554372242885727E-4    3.788154278531351E-1   -3.213594746568564E-1
 9.937364457799999E9     4.699055625852264E-1   -1.127477389106537E-1   -5.772640910145119E-4   -5.484165355776492E-4   -6.444089647768624E-4   -5.828688244577132E-4    3.786456754514478E-1   -3.214400568660212E-1
 9.937367068850000E9     4.696848817484107E-1   -1.129489362429685E-1   -6.365509244605288E-4   -5.829529280712637E-4   -6.639803994472616E-4   -5.465242250793536E-4    3.784028214309352E-1   -3.217709970214510E-1
 9.937369679900000E9     4.696916034608427E-1   -1.131777696479267E-1   -6.350403597878645E-4   -5.766185475165668E-4   -6.677060307827342E-4   -6.039791747259861E-4    3.781932457626424E-1   -3.218915218840355E-1
 9.937372290950001E9     4.696657818505476E-1   -1.131951396343661E-1   -6.379531187724124E-4   -6.018072785850406E-4   -6.941476016332821E-4   -5.877979705213143E-4    3.780550786223468E-1   -3.221358878125256E-1
 9.937374902000000E9     4.696874638622046E-1   -1.132807312489056E-1   -6.747448786419319E-4   -5.834730897066936E-4   -6.795569576042725E-4   -6.080857113511994E-4    3.778163363269842E-1   -3.223217903502321E-1
 9.937377513049999E9     4.696750420870638E-1   -1.136552433395266E-1   -6.897698670966524E-4   -6.233375926743353E-4   -6.724132432582631E-4   -6.243617143312464E-4    3.777552490013985E-1   -3.224300036807197E-1
 9.937380124100000E9     4.695224658941555E-1   -1.139041812621789E-1   -6.905784952165879E-4   -5.984168815797768E-4   -7.254852714224242E-4   -6.204464707524998E-4    3.772952071170999E-1   -3.228151149784583E-1
 9.937382735150000E9     4.694747222309256E-1   -1.139769124771436E-1   -7.369520747761917E-4   -6.596946319156890E-4   -7.277376922780242E-4   -6.462575464537704E-4    3.771582162715814E-1   -3.229618159997504E-1
 9.937385346200001E9     4.695698469268766E-1   -1.141497971015936E-1   -7.468086812283534E-4   -6.511890411414512E-4   -7.401193873741355E-4   -6.436963442339580E-4    3.768643216006449E-1   -3.230379493853839E-1
 9.937387957250000E9     4.692438971027659E-1   -1.143227387063688E-1   -7.111649912938368E-4   -6.853605656165576E-4   -7.270726617050731E-4   -6.741494385069663E-4    3.766399177289220E-1   -3.233235138393228E-1
 9.937390568299999E9     4.693516191867430E-1   -1.144909478612700E-1   -7.427981607087934E-4   -6.883415057537753E-4   -7.757725239556289E-4   -6.625021716654109E-4    3.764592059945198E-1   -3.235029766054975E-1
 9.937393179350000E9     4.691188319919170E-1   -1.145078639613909E-1   -7.510076708772805E-4   -6.890976960947449E-4   -7.909169728630090E-4   -6.933226195414105E-4    3.758518754938219E-1   -3.238061513635498E-1
 9.937395790400000E9     4.692345912026716E-1   -1.146345223743964E-1   -7.638394001534430E-4   -7.048728558418570E-4   -7.969714612914248E-4   -7.112232177584628E-4    3.759076458369229E-1   -3.240163615200345E-1
 9.937398401450001E9     4.691659319105529E-1   -1.150048249178208E-1   -7.911699696269610E-4   -7.040095566028008E-4   -8.045387089518655E-4   -7.104638924556070E-4    3.755637734787661E-1   -3.238815057276213E-1
 9.937401012500000E9     4.690738486477701E-1   -1.151057224032492E-1   -8.084600907287450E-4   -7.255073567817712E-4   -8.207640783953592E-4   -7.275961598768494E-4    3.754619781558956E-1   -3.244327506168279E-1
 9.937403623549999E9     4.690086601610918E-1   -1.153648325179236E-1   -8.189930615945108E-4   -7.605713923124713E-4   -8.417000730439671E-4   -7.268893843306086E-4    3.751142970067804E-1   -3.245495431900028E-1
 9.937406234600000E9     4.690138820013193E-1   -1.156276813942908E-1   -8.296555605276339E-4   -7.762603915783952E-4   -8.423603070427996E-4   -7.372316364493848E-4    3.748170497367292E-1   -3.248002337208123E-1
 9.937408845650000E9     4.690297392283658E-1   -1.156789925613446E-1   -8.693957445963313E-4   -7.623073425207493E-4   -9.144550042616851E-4   -7.437577834646641E-4    3.744984632719605E-1   -3.248545677828150E-1
 9.937411456700001E9     4.689167998190264E-1   -1.158925245684998E-1   -8.638368802286097E-4   -7.943236126553961E-4   -8.768671928038850E-4   -7.739298069786261E-4    3.743074586481101E-1   -3.250663567003075E-1
 9.937414067750000E9     4.689028131323876E-1   -1.160680528938018E-1   -8.543502593067483E-4   -7.949531496887014E-4   -8.951904366308509E-4   -7.742792662008427E-4    3.739884734285827E-1   -3.253119339214255E-1
 9.937416678799999E9     4.687775554255786E-1   -1.162501485965679E-1   -9.038100358334410E-4   -8.116036670224865E-4   -9.283543954389192E-4   -7.812383570883127E-4    3.737042355099024E-1   -3.256455407184931E-1
 9.937419289850000E9     4.685532121467834E-1   -1.164149781036495E-1   -8.690403358424924E-4   -7.978093163864711E-4   -9.508274009136826E-4   -8.059401311420164E-4    3.737653653201018E-1   -3.257225752453554E-1
 9.937421900900000E9     4.685962997446556E-1   -1.166034638961373E-1   -9.319888090939928E-4   -8.712367897341039E-4   -9.611452013147157E-4   -7.886265142537125E-4    3.732275858083859E-1   -3.260534658644768E-1
 9.937424511950001E9     4.685593721673805E-1   -1.167295575302107E-1   -9.285960783565136E-4   -8.655283039983770E-4   -9.615167484487173E-4   -8.288218155595924E-4    3.731330337101134E-1   -3.261966102218763E-1
 9.937427123000000E9     4.685758852509490E-1   -1.168053828485883E-1   -9.471517411276875E-4   -8.587587193203944E-4   -9.838594151984615E-4   -8.671895764928244E-4    3.727273924338348E-1   -3.264358683743980E-1
 9.937429734049999E9     4.685720950577397E-1   -1.171867022098378E-1   -9.535216986966012E-4   -8.804259555390236E-4   -9.781714421444672E-4   -8.499216670049326E-4    3.725165622424266E-1   -3.267023378244747E-1
 9.937432345100000E9     4.684364599926544E-1   -1.173380856443237E-1   -9.801730886944968E-4   -8.767200251762389E-4   -1.034957253256211E-3   -8.639808541838617E-4    3.722208042366364E-1   -3.269070546647911E-1
 9.937434956150000E9     4.683596968264358E-1   -1.174158614868501E-1   -1.041425947161479E-3   -8.755900654460802E-4   -1.022735832979394E-3   -8.810864222868516E-4    3.719962177591836E-1   -3.270213020774137E-1
 9.937437567200001E9     4.683936743032161E-1   -1.175947512588753E-1   -1.003458399915342E-3   -8.854393918320517E-4   -1.066175002325648E-3   -9.234567833902194E-4    3.717046196037364E-1   -3.272390645286593E-1
 9.937440178250000E9     4.682970445945085E-1   -1.178560797852901E-1   -1.033455379534647E-3   -9.158313028131643E-4   -1.064233491332086E-3   -9.622441249730260E-4    3.712696729813551E-1   -3.274754457839804E-1
 9.937442789299999E9     4.681984810340114E-1   -1.179263290190033E-1   -1.057871619776614E-3   -9.493433953483462E-4   -1.104262140635451E-3   -9.400657042271839E-4    3.710427291244663E-1   -3.275633014745885E-1
 9.937445400350000E9     4.681071151594582E-1   -1.180027340674267E-1   -1.061917234876145E-3   -9.256316565057792E-4   -1.113690151803702E-3   -9.735532179302687E-4    3.708192946898335E-1   -3.280294776747422E-1
 9.937448011400000E9     4.682416014336804E-1   -1.183439618834934E-1   -1.107403127439509E-3   -9.495575598879825E-4   -1.133212858878569E-3   -9.619339485405664E-4    3.704553265713291E-1   -3.283864614398450E-1
 9.937450622450001E9     4.681451866663033E-1   -1.184254712432489E-1   -1.108346829150646E-3   -9.925505201070701E-4   -1.156286192142582E-3   -1.002389747642603E-3    3.703725605675180E-1   -3.282766404690733E-1
 9.937453233500000E9     4.679624806882817E-1   -1.185705481839776E-1   -1.104546106274154E-3   -9.774121867129398E-4   -1.140969322802861E-3   -9.931697761112596E-4    3.701609550159153E-1   -3.286693111545107E-1
 9.937455844549999E9     4.680236827304610E-1   -1.187416698865224E-1   -1.181452235745580E-3   -1.016050039498606E-3   -1.178490004282329E-3   -1.037054665799580E-3    3.696599965932137E-1   -3.287824969689733E-1
 9.937458455600000E9     4.679009076432212E-1   -1.190431825584993E-1   -1.156968434631227E-3   -1.009975622477118E-3   -1.223144090366681E-3   -1.042476781565833E-3    3.693310517196272E-1   -3.290488731464519E-1
 9.937461066650000E9     4.678345590971664E-1   -1.191162583953093E-1   -1.187761580853167E-3   -1.071179151560095E-3   -1.220780653144227E-3   -1.015145545768535E-3    3.690825718649481E-1   -3.292563210154711E-1
 9.937463677700001E9     4.677239390314366E-1   -1.193186322130096E-1   -1.203451767955362E-3   -1.044128411933308E-3   -1.226766610277050E-3   -1.055650726542264E-3    3.688240645604263E-1   -3.294042067236062E-1
 9.937466288750000E9     4.677935055136166E-1   -1.194844089165099E-1   -1.239487290050253E-3   -1.094936372532092E-3   -1.254912399440501E-3   -1.088042961655950E-3    3.683424016049232E-1   -3.296257700070045E-1
 9.937468899799999E9     4.677144663046174E-1   -1.197386730668138E-1   -1.242518909970647E-3   -1.079491286629918E-3   -1.262433970702934E-3   -1.063215532491963E-3    3.681561783207200E-1   -3.297761030085145E-1
 9.937471510850000E9     4.676289252676655E-1   -1.198076725830988E-1   -1.246227738316307E-3   -1.097889074369107E-3   -1.303935193349684E-3   -1.085009709972859E-3    3.676463497949252E-1   -3.301366456141154E-1
 9.937474121900000E9     4.675477906220777E-1   -1.200408123098410E-1   -1.277009719878738E-3   -1.154613845219441E-3   -1.338126555147243E-3   -1.127072738280260E-3    3.675044113030655E-1   -3.304437095432340E-1
 9.937476732950001E9     4.674630469392721E-1   -1.203187634926690E-1   -1.318489990708018E-3   -1.121182846445215E-3   -1.377995651601287E-3   -1.138225440325351E-3    3.673078908649884E-1   -3.307263915532446E-1
 9.937479344000000E9     4.673702101180981E-1   -1.203125025190440E-1   -1.337791259217386E-3   -1.153765699131183E-3   -1.379604243252117E-3   -1.141888442609070E-3    3.667543044523471E-1   -3.309669692246278E-1
 9.937481955049999E9     4.673205344445028E-1   -1.205504062128828E-1   -1.373363498349578E-3   -1.159020579205819E-3   -1.409245037897406E-3   -1.181039715877729E-3    3.665917900448996E-1   -3.309802250811537E-1
 9.937484566100000E9     4.672315265183454E-1   -1.207195523476116E-1   -1.400326507417454E-3   -1.163020915466407E-3   -1.420775931535269E-3   -1.187806221761790E-3    3.661780457914306E-1   -3.313806699873831E-1
 9.937487177150000E9     4.672940291970915E-1   -1.208909957329883E-1   -1.385442794417886E-3   -1.178852821258639E-3   -1.443679218399143E-3   -1.189376899399428E-3    3.657937363369315E-1   -3.316126337019580E-1
 9.937489788200001E9     4.672326825236555E-1   -1.211277620599722E-1   -1.458208208205869E-3   -1.232644024410441E-3   -1.479615170268862E-3   -1.218818259702708E-3    3.655828897519369E-1   -3.319769961794264E-1
 9.937492399250000E9     4.670501338044366E-1   -1.213313225103367E-1   -1.464509868159793E-3   -1.271165366969682E-3   -1.524213752140365E-3   -1.237195218154023E-3    3.649788486341971E-1   -3.320486688394190E-1
 9.937495010299999E9     4.670740796110199E-1   -1.213924812165423E-1   -1.502650046209368E-3   -1.293824051836124E-3   -1.511727302975716E-3   -1.265847282520735E-3    3.648130653277756E-1   -3.322067312635917E-1
 9.937497621350000E9     4.668226845402316E-1   -1.214842069430263E-1   -1.505014705407597E-3   -1.302658127078562E-3   -1.560248425528422E-3   -1.289911989246817E-3    3.647082390740649E-1   -3.323950075002560E-1
 9.937500232400000E9     4.667948295695175E-1   -1.218579857395513E-1   -1.541394125551889E-3   -1.313301116007381E-3   -1.565044449757249E-3   -1.298111501758714E-3    3.641202657141349E-1   -3.326134782747451E-1
 9.937502843450001E9     4.668385855517378E-1   -1.218927060083574E-1   -1.564937818873626E-3   -1.352078564826077E-3   -1.594550086947448E-3   -1.310986327578816E-3    3.637425930389242E-1   -3.331309852874621E-1
 9.937505454500000E9     4.668344105094683E-1   -1.221434178016317E-1   -1.618054544728304E-3   -1.353593455398030E-3   -1.619763439634024E-3   -1.349390274650748E-3    3.633704201914866E-1   -3.331614195798026E-1
