#  HZ   S   RI   R     50.00 
! Rohde & Schwarz Vector Network Analyzer 
! Rohde-Schwarz,ZNB20-2Port,1311601062101988,3.16
! Created: UTC 3/20/2024, 11:09:49 PM
! freq[Hz]                re:S11                  im:S11                  re:S21                  im:S21                  re:S12                  im:S12                  re:S22                  im:S22
 9.937272874000000E9     4.718088902123467E-1   -1.066791159535672E-1   -2.960425025961267E-4   -2.184315770162542E-4   -3.033405106153407E-4   -2.586608116646726E-4    3.857867520494145E-1   -3.149750406430268E-1
 9.937275498400000E9     4.716842421142818E-1   -1.066787743232500E-1   -2.900937681583370E-4   -2.588480999599352E-4   -2.868136758984757E-4   -2.595024162455985E-4    3.856111300862864E-1   -3.150648607379498E-1
 9.937278122799999E9     4.716602468154901E-1   -1.069452543897935E-1   -2.741691091089732E-4   -2.684436494008740E-4   -3.271790020826336E-4   -2.627899134018689E-4    3.854349803360677E-1   -3.153459637737666E-1
 9.937280747200001E9     4.715845209824935E-1   -1.070628625837419E-1   -3.312451249880557E-4   -2.825940360548341E-4   -3.155341748368040E-4   -2.752634669487593E-4    3.852971226582660E-1   -3.153349250426403E-1
 9.937283371600000E9     4.714916602673925E-1   -1.073185302420200E-1   -3.325508933289753E-4   -2.629603446093954E-4   -3.576934221759286E-4   -2.715432776579969E-4    3.851063512689793E-1   -3.157172566279045E-1
 9.937285996000000E9     4.715283782267766E-1   -1.076066221824351E-1   -3.052084582801492E-4   -3.157579005683962E-4   -3.369696280227939E-4   -2.981882570065424E-4    3.850248273899821E-1   -3.157151797089586E-1
 9.937288620400000E9     4.714080773942451E-1   -1.078155803942737E-1   -3.330490474376455E-4   -3.102196806130720E-4   -3.331718866793516E-4   -2.716226552255892E-4    3.847050791690242E-1   -3.159886501976826E-1
 9.937291244799999E9     4.713718084872386E-1   -1.078978723622218E-1   -3.410118865427641E-4   -3.198396871317510E-4   -3.501528609292172E-4   -3.274143364979328E-4    3.845040635431713E-1   -3.161043896933141E-1
 9.937293869200001E9     4.712161283733053E-1   -1.080042974761930E-1   -3.551316059801555E-4   -3.296123059799506E-4   -3.675137884785220E-4   -3.014631876798357E-4    3.844433744071240E-1   -3.163624138554677E-1
 9.937296493600000E9     4.712168467764085E-1   -1.082030355771706E-1   -3.481702394603607E-4   -3.218797823407536E-4   -3.737625150113785E-4   -3.364825716933932E-4    3.842144436828607E-1   -3.164553859709996E-1
 9.937299118000000E9     4.712332593407866E-1   -1.083414823862575E-1   -4.080092798032119E-4   -3.632491453873218E-4   -3.836794614703840E-4   -2.959862573925312E-4    3.840639284221447E-1   -3.168446262658196E-1
 9.937301742400000E9     4.712419228664115E-1   -1.085659132588858E-1   -3.828866475371666E-4   -3.274409533530775E-4   -4.059948891655574E-4   -3.027566725735591E-4    3.837236584571334E-1   -3.168545401732370E-1
 9.937304366799999E9     4.710043401867378E-1   -1.086402768737667E-1   -4.041249184942202E-4   -3.514536730484955E-4   -3.882398729437257E-4   -3.451238181667804E-4    3.835963045813672E-1   -3.171437958002981E-1
 9.937306991200001E9     4.709741913329906E-1   -1.089267326090533E-1   -3.813335279247088E-4   -3.645559917643281E-4   -3.892994695107554E-4   -3.630199939503587E-4    3.832783392324975E-1   -3.174096396713203E-1
 9.937309615600000E9     4.709251238601168E-1   -1.089491525037198E-1   -3.724258443884424E-4   -3.587777788147344E-4   -4.316727917409465E-4   -3.457806421280073E-4    3.832090225404181E-1   -3.174683583951100E-1
 9.937312240000000E9     4.709789613306191E-1   -1.092789881138676E-1   -3.966973168393921E-4   -3.751788727357607E-4   -4.137480849761622E-4   -3.816710128405267E-4    3.831453673417963E-1   -3.176884556631780E-1
 9.937314864400000E9     4.709814902941020E-1   -1.094320458345802E-1   -4.143600634835584E-4   -3.536158125440530E-4   -4.247130111628988E-4   -3.618352548501242E-4    3.827996651760829E-1   -3.178664796330159E-1
 9.937317488799999E9     4.708103311233152E-1   -1.095522943708165E-1   -4.422743580770580E-4   -3.918267691718074E-4   -4.123711344051459E-4   -3.894722581831164E-4    3.826512698519065E-1   -3.180728797672114E-1
 9.937320113200001E9     4.707345985169974E-1   -1.097405126538470E-1   -4.671173170809103E-4   -3.910444343799198E-4   -4.372590933613870E-4   -3.987592818895947E-4    3.825421283091993E-1   -3.183063959078545E-1
 9.937322737600000E9     4.707430367473978E-1   -1.100023337194864E-1   -4.782644855044252E-4   -4.016725302475657E-4   -4.439021003926182E-4   -4.064089077715914E-4    3.820651084441822E-1   -3.184750244768896E-1
 9.937325362000000E9     4.704861786606114E-1   -1.101948108541281E-1   -4.601944160138011E-4   -4.184633963223575E-4   -4.572284864086634E-4   -3.880762516343444E-4    3.820362957363196E-1   -3.186271768870053E-1
 9.937327986400000E9     4.706102488555431E-1   -1.103377348862006E-1   -4.333612593387449E-4   -4.096111017891499E-4   -4.719741240723083E-4   -3.999077483113108E-4    3.816678144748796E-1   -3.187247673484264E-1
 9.937330610799999E9     4.706245712364920E-1   -1.105541335433297E-1   -4.565394391012259E-4   -4.132374787322675E-4   -4.898600559705414E-4   -4.260767059897260E-4    3.815913173312068E-1   -3.190037101976141E-1
 9.937333235200001E9     4.705342158778619E-1   -1.107299419635582E-1   -4.457420979187292E-4   -4.318823215744885E-4   -5.036439564894742E-4   -4.302115087672819E-4    3.812703017188830E-1   -3.192209777636759E-1
 9.937335859600000E9     4.705058000309682E-1   -1.108029776520563E-1   -5.166354575866230E-4   -4.439800772164186E-4   -5.058336038072048E-4   -4.665351839037696E-4    3.811575602636962E-1   -3.194522948350421E-1
 9.937338484000000E9     4.703399318072463E-1   -1.109650958460485E-1   -4.920609283781720E-4   -4.622743809926905E-4   -5.085050924327965E-4   -4.714655179021868E-4    3.809854349436167E-1   -3.194797754450329E-1
 9.937341108400000E9     4.704039820402612E-1   -1.111042347029760E-1   -5.110053137685564E-4   -4.824741579680152E-4   -5.537501384257687E-4   -4.350019278384965E-4    3.808257799353787E-1   -3.197785163698464E-1
 9.937343732799999E9     4.702937104580885E-1   -1.113487495154898E-1   -5.026983756155769E-4   -4.869009934924497E-4   -5.377818063037875E-4   -5.003721230111496E-4    3.806604475906452E-1   -3.198442068793572E-1
 9.937346357200001E9     4.701188857697376E-1   -1.116510607036699E-1   -5.070883542865060E-4   -5.099506519121307E-4   -5.242408878112546E-4   -5.030242987530374E-4    3.804374201705039E-1   -3.202713544324645E-1
 9.937348981600000E9     4.701652270714999E-1   -1.116896705829768E-1   -5.450765721797359E-4   -4.866659943071383E-4   -5.655578956299904E-4   -4.589552062290706E-4    3.801216131409161E-1   -3.202248403935255E-1
 9.937351606000000E9     4.700412280676079E-1   -1.119278687982750E-1   -5.452734660737808E-4   -4.631761605117197E-4   -5.734577382069211E-4   -4.969610166577743E-4    3.798554456452304E-1   -3.205080322051809E-1
 9.937354230400000E9     4.699944289707546E-1   -1.120568155996905E-1   -5.747476325850858E-4   -5.209923845710819E-4   -5.673820679593552E-4   -4.919820338154099E-4    3.795837930248740E-1   -3.208017231316975E-1
 9.937356854799999E9     4.701111871425006E-1   -1.122301383933156E-1   -5.537053455517843E-4   -5.373465276420996E-4   -6.183041674448290E-4   -5.334133818244178E-4    3.794174396093292E-1   -3.206459635002234E-1
 9.937359479200001E9     4.697960389004723E-1   -1.124678815840612E-1   -5.778320879050206E-4   -5.131152617168091E-4   -6.129788053739840E-4   -5.475737019915202E-4    3.792547033413520E-1   -3.212006648316757E-1
 9.937362103600000E9     4.699100049365358E-1   -1.125717647973890E-1   -5.575243088302003E-4   -5.228871857298978E-4   -6.025261267814806E-4   -5.446021934213978E-4    3.788985241611070E-1   -3.213713055420219E-1
 9.937364728000000E9     4.697860855918890E-1   -1.128287155565701E-1   -5.921112902474570E-4   -5.634494179824830E-4   -6.191691554918523E-4   -5.525939266408442E-4    3.786892531603000E-1   -3.214067382458540E-1
 9.937367352400000E9     4.698857644971531E-1   -1.129314623834138E-1   -6.292868349347157E-4   -5.686477058296614E-4   -6.537593789131869E-4   -6.075261029500033E-4    3.785631167648487E-1   -3.216685434192376E-1
 9.937369976799999E9     4.697318458877174E-1   -1.131248124311255E-1   -6.190800608843868E-4   -5.843472217827453E-4   -6.633919760425727E-4   -6.129416501905289E-4    3.784060917413104E-1   -3.219647724699115E-1
 9.937372601200001E9     4.696592051146602E-1   -1.132723864630088E-1   -6.536768205282052E-4   -5.965245184318109E-4   -6.555270793864041E-4   -6.124054014565682E-4    3.781468194362709E-1   -3.221739894735458E-1
 9.937375225600000E9     4.696628733330440E-1   -1.134851630409084E-1   -6.641965045445792E-4   -5.883055373279144E-4   -6.608031474864930E-4   -5.906665824514673E-4    3.778825998115673E-1   -3.223915893429373E-1
 9.937377850000000E9     4.696176385175860E-1   -1.135458512409318E-1   -6.508403471726340E-4   -6.068938798672639E-4   -7.055326074778319E-4   -5.976975814224635E-4    3.775084180145820E-1   -3.226414027246724E-1
 9.937380474400000E9     4.697240026325561E-1   -1.138156599521053E-1   -6.803832704603235E-4   -6.105570599354616E-4   -6.921432142505243E-4   -6.025146745907942E-4    3.774443300988630E-1   -3.226586257271765E-1
 9.937383098799999E9     4.694627680544126E-1   -1.139247897652133E-1   -6.834714089320857E-4   -6.215326636681817E-4   -7.188370857930133E-4   -6.226816139151636E-4    3.772638054183670E-1   -3.229813750686644E-1
 9.937385723200001E9     4.693112496427864E-1   -1.141371963464102E-1   -7.042397630973413E-4   -6.630943763656117E-4   -7.133975691968495E-4   -6.188431396836202E-4    3.767800967720260E-1   -3.233235520300083E-1
 9.937388347600000E9     4.694415783186366E-1   -1.143292329115977E-1   -7.131023354827384E-4   -6.646231911390473E-4   -7.516494024102888E-4   -6.442894258124128E-4    3.766224017875110E-1   -3.233114906030687E-1
 9.937390972000000E9     4.692789666877341E-1   -1.144493901228796E-1   -7.381885317781391E-4   -6.820595157311289E-4   -7.416697197580028E-4   -6.450734424999113E-4    3.763753751283798E-1   -3.234694790360916E-1
 9.937393596400000E9     4.691252834298501E-1   -1.147502228068345E-1   -7.315201557885535E-4   -6.698601393585401E-4   -7.479007004537101E-4   -6.634227024879977E-4    3.762173907688352E-1   -3.237629843646921E-1
 9.937396220799999E9     4.691875978256693E-1   -1.149190755557005E-1   -7.545472784133168E-4   -6.920452736441355E-4   -7.977875099499090E-4   -6.933163205285571E-4    3.759838541283310E-1   -3.239353119321901E-1
 9.937398845200001E9     4.692127677223912E-1   -1.150445811980209E-1   -7.540396567959131E-4   -7.086464539226682E-4   -8.007586919765538E-4   -6.658031767417906E-4    3.757750406383263E-1   -3.238407895519770E-1
 9.937401469600000E9     4.690961130303886E-1   -1.153587268100946E-1   -7.757243748559983E-4   -7.208801937586019E-4   -8.183398447163419E-4   -7.332707938901143E-4    3.755857783815671E-1   -3.242712253925358E-1
 9.937404094000000E9     4.690378920429858E-1   -1.156360389101777E-1   -7.812995508045693E-4   -7.312541750648203E-4   -7.832882099025982E-4   -7.489680766720797E-4    3.751433776873814E-1   -3.246273804562238E-1
 9.937406718400000E9     4.689626331623292E-1   -1.155800440300408E-1   -8.333361048405774E-4   -7.361264174341815E-4   -8.415753073264529E-4   -7.253904983888757E-4    3.751011512741689E-1   -3.248360681665597E-1
 9.937409342799999E9     4.689718558434061E-1   -1.158833767811064E-1   -8.420380655895661E-4   -7.879311720848242E-4   -8.326862574366589E-4   -7.255318840303727E-4    3.746925902924900E-1   -3.249703440023717E-1
 9.937411967200001E9     4.687738582999696E-1   -1.160028365139817E-1   -8.451264068391642E-4   -7.605803958028206E-4   -8.503775453223905E-4   -7.791295826200599E-4    3.745089584974851E-1   -3.252732807005990E-1
 9.937414591600000E9     4.689354860737274E-1   -1.161380350211859E-1   -8.616521138330069E-4   -7.698142952703035E-4   -8.605611041109584E-4   -7.966665227530613E-4    3.743488803726129E-1   -3.254435660383102E-1
 9.937417216000000E9     4.687927372301544E-1   -1.163641102592561E-1   -8.755654779605322E-4   -7.869406048647099E-4   -9.018116087750483E-4   -7.625501740208067E-4    3.740141755401846E-1   -3.258088123218019E-1
 9.937419840400000E9     4.686483779252138E-1   -1.164940104218425E-1   -8.659291750665718E-4   -8.101120081521328E-4   -9.001095052902592E-4   -8.062118732168383E-4    3.735949331914659E-1   -3.257770943932509E-1
 9.937422464799999E9     4.687489335243299E-1   -1.167393378260432E-1   -8.799237222872640E-4   -7.895555756009573E-4   -9.444869943630938E-4   -8.140420107680273E-4    3.735081505768233E-1   -3.260698276308456E-1
 9.937425089200001E9     4.686356742695175E-1   -1.169659063794224E-1   -9.311296815472303E-4   -8.328602351274786E-4   -9.391728621781020E-4   -8.623646433686417E-4    3.731843154361369E-1   -3.262423428570508E-1
 9.937427713600000E9     4.685555826031922E-1   -1.170695709331821E-1   -9.218913805391651E-4   -8.413034190116639E-4   -9.632889414431259E-4   -8.319908276522520E-4    3.728856366328816E-1   -3.265375367446602E-1
 9.937430338000000E9     4.684895654177670E-1   -1.171184355917832E-1   -9.529686768325174E-4   -8.628212215903102E-4   -9.567226142314860E-4   -8.379481238600241E-4    3.724940646128313E-1   -3.269094659915534E-1
 9.937432962400000E9     4.684066690023747E-1   -1.173747922143696E-1   -9.860565326082892E-4   -8.853512838111603E-4   -1.014527672563733E-3   -8.483024750242386E-4    3.723455026247499E-1   -3.268737313279734E-1
 9.937435586799999E9     4.684201573135697E-1   -1.175564929542713E-1   -9.786628433482243E-4   -8.876343192153829E-4   -1.014903225800754E-3   -8.534003157424383E-4    3.721017984101134E-1   -3.271552576491175E-1
 9.937438211200001E9     4.683340553121478E-1   -1.177338981138841E-1   -9.897421776750171E-4   -9.102347373382087E-4   -1.048336325343446E-3   -8.914260765685745E-4    3.716865935983113E-1   -3.273622104714587E-1
 9.937440835600000E9     4.682164365859051E-1   -1.179114694739761E-1   -1.023923046742320E-3   -9.106560012044342E-4   -1.039782087646391E-3   -9.372630872069834E-4    3.716683276042328E-1   -3.275605295484501E-1
 9.937443460000000E9     4.682156317433793E-1   -1.180808870843067E-1   -1.038066461032251E-3   -9.153524035649079E-4   -1.079324569400157E-3   -9.366044575908297E-4    3.714256905261719E-1   -3.277483807086152E-1
 9.937446084400000E9     4.681620237531064E-1   -1.182411153015194E-1   -1.038917125662120E-3   -9.472056744551845E-4   -1.100653709184644E-3   -9.356306961148827E-4    3.710584670162416E-1   -3.279450124897969E-1
 9.937448708799999E9     4.680747221929265E-1   -1.184019668683612E-1   -1.079481946482145E-3   -9.345435962444111E-4   -1.063425608692788E-3   -9.208964474978652E-4    3.707705704291715E-1   -3.281110936382417E-1
 9.937451333200001E9     4.680991303560268E-1   -1.186419371726309E-1   -1.097045746423102E-3   -1.019253996305962E-3   -1.093757582628313E-3   -9.463390735823571E-4    3.703184555837208E-1   -3.283458857789917E-1
 9.937453957600000E9     4.680759690549614E-1   -1.186929543753778E-1   -1.130323260031462E-3   -9.687516606813668E-4   -1.151522044962083E-3   -9.974806846830167E-4    3.700849086624302E-1   -3.285838543401512E-1
 9.937456582000000E9     4.679811489371417E-1   -1.188280276329960E-1   -1.127804847548795E-3   -9.716202366839042E-4   -1.167663476495984E-3   -9.866448661646602E-4    3.697619884316980E-1   -3.287758564610702E-1
 9.937459206400000E9     4.678379304920551E-1   -1.192435989259665E-1   -1.153130328952177E-3   -1.014743859902170E-3   -1.177659923612080E-3   -1.017843684361844E-3    3.697174954985563E-1   -3.290449475071794E-1
 9.937461830799999E9     4.678712493269408E-1   -1.192924740587178E-1   -1.156840731342797E-3   -1.031151641864038E-3   -1.222953758737214E-3   -1.055780772898342E-3    3.692223092876095E-1   -3.291663386153493E-1
 9.937464455200001E9     4.678073558779263E-1   -1.194395845176213E-1   -1.172081215689812E-3   -1.049744232489842E-3   -1.230316963427512E-3   -1.046961271684264E-3    3.688738049257972E-1   -3.295572032009607E-1
 9.937467079600000E9     4.677860372405967E-1   -1.195625864297990E-1   -1.219810759328676E-3   -1.076345030407671E-3   -1.214636971611458E-3   -1.052573117840743E-3    3.686427312973953E-1   -3.297702236310558E-1
 9.937469704000000E9     4.675482984874688E-1   -1.197597964889180E-1   -1.240226467933919E-3   -1.080687696461122E-3   -1.255663050694878E-3   -1.080851982218254E-3    3.683771529138886E-1   -3.298193076646176E-1
 9.937472328400000E9     4.676126156474643E-1   -1.201006737799815E-1   -1.261417017410872E-3   -1.097388984403649E-3   -1.279369308067994E-3   -1.084134571984681E-3    3.677948775073158E-1   -3.301355911652641E-1
 9.937474952799999E9     4.674935354601065E-1   -1.203068403544107E-1   -1.242692538631272E-3   -1.123745051445453E-3   -1.316021523263759E-3   -1.107200626259289E-3    3.675937535084287E-1   -3.304664775801592E-1
 9.937477577200001E9     4.674012352419663E-1   -1.203173155399081E-1   -1.335724401882741E-3   -1.112695458677881E-3   -1.298512870699744E-3   -1.127738301273182E-3    3.673325292243638E-1   -3.306035416310817E-1
 9.937480201600000E9     4.673798937518874E-1   -1.205250182587486E-1   -1.324450141580229E-3   -1.137439032214138E-3   -1.374704739693765E-3   -1.142412488353915E-3    3.670465675039484E-1   -3.308509112240580E-1
 9.937482826000000E9     4.673522337905628E-1   -1.208600870019089E-1   -1.326684189442189E-3   -1.168694352091444E-3   -1.351157105185298E-3   -1.157527051986521E-3    3.667018678271122E-1   -3.310094809697322E-1
 9.937485450400000E9     4.672586269418198E-1   -1.208316617734939E-1   -1.357042414376235E-3   -1.177830372592442E-3   -1.400794965864229E-3   -1.150894246610401E-3    3.663630650499706E-1   -3.313649428280747E-1
 9.937488074799999E9     4.672883810507681E-1   -1.210105901003948E-1   -1.424354049016898E-3   -1.189471166620844E-3   -1.426723468565688E-3   -1.183855783866867E-3    3.659689024914930E-1   -3.316138824688540E-1
 9.937490699200001E9     4.672371736726237E-1   -1.211660583760564E-1   -1.412569477608818E-3   -1.220390366643087E-3   -1.440058211792038E-3   -1.200380037401039E-3    3.656365591058786E-1   -3.318631361022609E-1
 9.937493323600000E9     4.671748689338736E-1   -1.213049675244997E-1   -1.424721602282958E-3   -1.241056103749374E-3   -1.468921778763204E-3   -1.249299358918893E-3    3.653935032067093E-1   -3.320700156234962E-1
 9.937495948000000E9     4.670832807331566E-1   -1.215653469978862E-1   -1.460050926795966E-3   -1.270966544024060E-3   -1.490771716980865E-3   -1.231512411005267E-3    3.650089022435707E-1   -3.321943639552599E-1
 9.937498572400000E9     4.670037195403307E-1   -1.217853046625934E-1   -1.494751682388878E-3   -1.258553772326563E-3   -1.537105890283237E-3   -1.253478593396790E-3    3.646376091772058E-1   -3.324426937552064E-1
 9.937501196799999E9     4.667645160581659E-1   -1.219017720987145E-1   -1.512185430608730E-3   -1.302515819305078E-3   -1.544691971590167E-3   -1.256925004100041E-3    3.645658506153270E-1   -3.326194001683218E-1
 9.937503821200001E9     4.669560307317637E-1   -1.220696766707108E-1   -1.536780815300825E-3   -1.307990175117597E-3   -1.583651735636243E-3   -1.293684701960513E-3    3.638849633765345E-1   -3.329583119466338E-1
 9.937506445600000E9     4.668028841528594E-1   -1.223480697074775E-1   -1.541384933874992E-3   -1.306743552500016E-3   -1.577632539370357E-3   -1.320834710931587E-3    3.634531068774135E-1   -3.331931806357389E-1
 9.937509070000000E9     4.666860697206308E-1   -1.224709691426945E-1   -1.615256864474861E-3   -1.335128732150992E-3   -1.638787458386511E-3   -1.322189617605651E-3    3.630883628768027E-1   -3.334723083175523E-1
