#  HZ   S   RI   R     50.00 
! Rohde & Schwarz Vector Network Analyzer 
! Rohde-Schwarz,ZNB20-2Port,1311601062101988,3.16
! Created: UTC 3/20/2024, 11:09:51 PM
! freq[Hz]                re:S11                  im:S11                  re:S21                  im:S21                  re:S12                  im:S12                  re:S22                  im:S22
 9.937280597000000E9     4.715973476412839E-1   -1.071213555601735E-1   -3.309976937548226E-4   -3.000631455007755E-4   -3.254698651157548E-4   -2.287818788069731E-4    3.853030753699370E-1   -3.154302072016276E-1
 9.937283185299999E9     4.716270873544216E-1   -1.073287097038287E-1   -3.139892757303197E-4   -2.661390348258823E-4   -3.195097656458819E-4   -2.525613852763632E-4    3.851683483949488E-1   -3.155377449824172E-1
 9.937285773600000E9     4.715367804834757E-1   -1.074363603125498E-1   -3.620310186537383E-4   -2.888985848770949E-4   -3.316104598733622E-4   -2.680547734926540E-4    3.848584467522803E-1   -3.157931504395382E-1
 9.937288361900000E9     4.714211143819991E-1   -1.075510614835117E-1   -3.342345415561913E-4   -3.270677303202573E-4   -3.309186408853597E-4   -2.670171162247908E-4    3.847134765839531E-1   -3.159444166950427E-1
 9.937290950200001E9     4.713382041231194E-1   -1.079770794866023E-1   -3.363982280661849E-4   -3.195976181990914E-4   -3.434303291292621E-4   -2.947449578372047E-4    3.844084275128022E-1   -3.159857814456632E-1
 9.937293538500000E9     4.713833140886716E-1   -1.079059141945242E-1   -3.309112898511372E-4   -3.111829859457364E-4   -3.555979973898203E-4   -2.981007450677042E-4    3.843755196138077E-1   -3.164025148647822E-1
 9.937296126799999E9     4.711525369757292E-1   -1.082018416487130E-1   -3.784980330432096E-4   -3.413886776486225E-4   -3.684710877697977E-4   -2.898499061347969E-4    3.843965246537661E-1   -3.166184533794782E-1
 9.937298715100000E9     4.711115051180005E-1   -1.083622572426315E-1   -3.577029155106094E-4   -3.086528740421407E-4   -3.471033742038084E-4   -3.160017731542361E-4    3.839674091376523E-1   -3.166541572650081E-1
 9.937301303400000E9     4.712130035279058E-1   -1.086060243373732E-1   -4.020158658534365E-4   -3.143292775777671E-4   -4.013097423934239E-4   -3.227194900386067E-4    3.837580323596229E-1   -3.168137682118255E-1
 9.937303891700001E9     4.712184158668926E-1   -1.086045211492190E-1   -3.820409597621619E-4   -3.657852008388832E-4   -4.041208258156319E-4   -3.529950355704925E-4    3.838457247794110E-1   -3.170229087299383E-1
 9.937306480000000E9     4.710081701321656E-1   -1.089328214568682E-1   -3.984760769222091E-4   -3.374508323901225E-4   -3.779464343875949E-4   -3.215551298808982E-4    3.835691392103991E-1   -3.172093542054419E-1
 9.937309068299999E9     4.709715151793333E-1   -1.090687461585770E-1   -3.931599068857148E-4   -3.537979729485334E-4   -4.271284312285107E-4   -3.618402312058868E-4    3.832605258016942E-1   -3.174595919647497E-1
 9.937311656600000E9     4.708453819530906E-1   -1.092100706688331E-1   -3.813386768786092E-4   -3.762775762277338E-4   -4.045952860480342E-4   -3.702292456613528E-4    3.831309850790615E-1   -3.176428946603677E-1
 9.937314244900000E9     4.710467515757481E-1   -1.093097000210419E-1   -4.149587410465236E-4   -3.467764204158630E-4   -4.500275477960050E-4   -3.836368408630966E-4    3.828337485124337E-1   -3.179740795993279E-1
 9.937316833200001E9     4.708587435341970E-1   -1.096253628133953E-1   -4.272102443941912E-4   -3.933176704798518E-4   -4.520072923138350E-4   -4.133864924678481E-4    3.826041510294715E-1   -3.178529800010700E-1
 9.937319421500000E9     4.707332498684556E-1   -1.097724953922516E-1   -4.503522159523111E-4   -3.917758563670849E-4   -4.357441880949685E-4   -3.974426394852950E-4    3.824708180500044E-1   -3.181402915257037E-1
 9.937322009799999E9     4.708009200138763E-1   -1.098997449774490E-1   -4.073073600183130E-4   -4.055706746824029E-4   -4.350898459791540E-4   -3.882870614861613E-4    3.823507071300205E-1   -3.185702303914343E-1
 9.937324598100000E9     4.705988918219611E-1   -1.101294296011030E-1   -4.481511034123184E-4   -4.211614718158182E-4   -4.361541845847871E-4   -3.992101505757032E-4    3.822040178642015E-1   -3.186886390352782E-1
 9.937327186400000E9     4.707071132548175E-1   -1.103804437698887E-1   -4.717486287143268E-4   -4.443147264455299E-4   -4.541965549199544E-4   -4.220015088471573E-4    3.817613418701659E-1   -3.187966783262769E-1
 9.937329774700001E9     4.705828529826238E-1   -1.104194181212926E-1   -4.662348982212479E-4   -4.043450131117979E-4   -4.822750606943709E-4   -4.270767302490625E-4    3.815335460197680E-1   -3.188924280426682E-1
 9.937332363000000E9     4.704901828826634E-1   -1.105496669185939E-1   -4.801974895634687E-4   -4.257902511811666E-4   -4.832024454352537E-4   -4.247262177579245E-4    3.815352521678235E-1   -3.190982897399938E-1
 9.937334951299999E9     4.704437087947846E-1   -1.108633799612236E-1   -5.037049834465255E-4   -4.501770341935618E-4   -4.976061923748890E-4   -4.544704233098021E-4    3.813030010168844E-1   -3.192308352682218E-1
 9.937337539600000E9     4.706069280117303E-1   -1.110461931721661E-1   -5.132227054297091E-4   -4.415457651509394E-4   -4.869891364167203E-4   -4.269921476739404E-4    3.811555525750661E-1   -3.194211589569619E-1
 9.937340127900000E9     4.703638757601707E-1   -1.111157702503638E-1   -4.942367073123952E-4   -4.637335186785947E-4   -5.104284024644746E-4   -4.494124891217747E-4    3.807342566107221E-1   -3.196264705599384E-1
 9.937342716200001E9     4.702848364603420E-1   -1.112199613100936E-1   -5.330709362869122E-4   -4.496037613574062E-4   -5.366317441705734E-4   -4.766218766140013E-4    3.805695994131155E-1   -3.199183898336583E-1
 9.937345304500000E9     4.702721477889787E-1   -1.116081394611683E-1   -5.508751603857353E-4   -4.870367758674272E-4   -5.393077159062834E-4   -4.808055306755586E-4    3.804690186362946E-1   -3.201855094164442E-1
 9.937347892799999E9     4.702727545156311E-1   -1.115595502981583E-1   -4.798883367087652E-4   -4.746187682762783E-4   -5.486703503918228E-4   -4.943152451823701E-4    3.803704571327945E-1   -3.203501965948330E-1
 9.937350481100000E9     4.701606174979406E-1   -1.117741548217320E-1   -5.475653717981668E-4   -5.049003901874822E-4   -5.471791031445634E-4   -5.010205227396679E-4    3.799392703558444E-1   -3.204433783281384E-1
 9.937353069400000E9     4.700127570618763E-1   -1.122224346589852E-1   -5.680312742973909E-4   -5.327411732051534E-4   -5.803905161393507E-4   -4.617494519463669E-4    3.797923540312730E-1   -3.207041528128199E-1
 9.937355657700001E9     4.699896892828448E-1   -1.122264195132685E-1   -5.820083376108077E-4   -4.867833445990131E-4   -5.802010505872538E-4   -5.392666425124220E-4    3.795206049564656E-1   -3.208174326685970E-1
 9.937358246000000E9     4.698983634341604E-1   -1.124325734552567E-1   -5.576027773634221E-4   -5.434743570683478E-4   -5.700665792737742E-4   -5.364881967125169E-4    3.792566116430799E-1   -3.210231581718289E-1
 9.937360834299999E9     4.700158157057461E-1   -1.124938353139646E-1   -5.917108501464367E-4   -5.485263325242255E-4   -5.760961737462323E-4   -5.496153771226519E-4    3.791365907785085E-1   -3.213819516397128E-1
 9.937363422600000E9     4.699278841196702E-1   -1.128063884959639E-1   -5.842443266952860E-4   -5.634045035220162E-4   -6.152884247313256E-4   -5.692347873104013E-4    3.788738997401494E-1   -3.215009560917143E-1
 9.937366010900000E9     4.697914417690240E-1   -1.129681624247631E-1   -6.112636065439759E-4   -5.548982552301353E-4   -6.017302765537222E-4   -5.578121045323386E-4    3.787084925089799E-1   -3.217193275615879E-1
 9.937368599200001E9     4.697135867594705E-1   -1.130851021827262E-1   -6.083007354863491E-4   -5.976302246684744E-4   -6.169843278055482E-4   -5.809230590266707E-4    3.785985012138616E-1   -3.217513379990021E-1
 9.937371187500000E9     4.697456670492334E-1   -1.132159103130713E-1   -6.499601829220705E-4   -5.783664548784346E-4   -6.437060762389867E-4   -5.897830921928350E-4    3.783115635709617E-1   -3.220575480400757E-1
 9.937373775799999E9     4.696826960009944E-1   -1.133670750879614E-1   -6.373489832590258E-4   -5.600776063082941E-4   -6.849837628050904E-4   -6.044101144776167E-4    3.782267685079753E-1   -3.221828457202507E-1
 9.937376364100000E9     4.695715316823392E-1   -1.136765500583932E-1   -6.411417641902838E-4   -5.883831946420969E-4   -6.755133965241370E-4   -6.218770849117844E-4    3.777862579016386E-1   -3.223293822709338E-1
 9.937378952400000E9     4.696110406074281E-1   -1.136108769596443E-1   -6.749577946207170E-4   -6.224865572408181E-4   -6.725821478771091E-4   -6.155531820661140E-4    3.774116868775526E-1   -3.226580136314645E-1
 9.937381540700001E9     4.695169087918134E-1   -1.139495905431826E-1   -6.525184428955776E-4   -6.459148655616910E-4   -6.933186336642951E-4   -6.337627311327964E-4    3.772157095697905E-1   -3.227963933422925E-1
 9.937384129000000E9     4.694531732352686E-1   -1.140693380305117E-1   -6.896161349258485E-4   -6.542820573470666E-4   -6.908979694295636E-4   -6.249930274494302E-4    3.770477863830649E-1   -3.229317003860747E-1
 9.937386717299999E9     4.693366289301457E-1   -1.141999479737070E-1   -7.219234311989629E-4   -6.775437097898354E-4   -7.272067589178642E-4   -6.482852227385994E-4    3.769695730866149E-1   -3.232957517654368E-1
 9.937389305600000E9     4.693662121749045E-1   -1.144618335745330E-1   -7.126025926593728E-4   -6.820341605480069E-4   -7.184867132617477E-4   -6.523319869670059E-4    3.767979864282196E-1   -3.232553276101096E-1
 9.937391893900000E9     4.693572827625149E-1   -1.146989311351608E-1   -7.226484469244600E-4   -6.732963926603117E-4   -7.692439691200332E-4   -6.419337284719821E-4    3.765319832475435E-1   -3.235981519161967E-1
 9.937394482200001E9     4.691624964771218E-1   -1.147553991071602E-1   -6.932809150847666E-4   -6.551728531732100E-4   -7.770401564742043E-4   -6.731312549973805E-4    3.762203651977435E-1   -3.239048854688252E-1
 9.937397070500000E9     4.692955379902771E-1   -1.149447221148252E-1   -7.765880243355003E-4   -7.034248665665087E-4   -7.673786495630628E-4   -6.835941153323535E-4    3.758338879043066E-1   -3.238936791628028E-1
 9.937399658799999E9     4.691359480497782E-1   -1.150647014607672E-1   -7.859970244141542E-4   -7.160993251018641E-4   -7.714937287277027E-4   -7.214151042985874E-4    3.757138154079891E-1   -3.242756484665612E-1
 9.937402247100000E9     4.692380853462118E-1   -1.153005283526272E-1   -7.665934571628579E-4   -7.378207753574163E-4   -7.968901357520874E-4   -7.364853462292585E-4    3.756110398033548E-1   -3.245848420224458E-1
 9.937404835400000E9     4.690598268511406E-1   -1.154285751770286E-1   -8.238792793815440E-4   -7.368463790482830E-4   -8.245767647070227E-4   -7.280224360835696E-4    3.752304393234657E-1   -3.246741022173907E-1
 9.937407423700001E9     4.688623510992587E-1   -1.156161962995806E-1   -8.339842167078597E-4   -7.561784916338551E-4   -8.176901765369032E-4   -7.568219124683980E-4    3.750498455080561E-1   -3.249661807631540E-1
 9.937410012000000E9     4.688969175246886E-1   -1.158727350778359E-1   -8.235740233831485E-4   -7.475099128296541E-4   -8.532211880968843E-4   -7.476888476091723E-4    3.746969544254969E-1   -3.249957166809888E-1
 9.937412600299999E9     4.687202784438607E-1   -1.160143258907904E-1   -8.749979539229696E-4   -7.729659747681936E-4   -8.454138743136158E-4   -7.489341406473643E-4    3.744290671138717E-1   -3.252701489202229E-1
 9.937415188600000E9     4.687726934655649E-1   -1.161787861776808E-1   -8.559730134416938E-4   -7.751792536586031E-4   -8.564191621190469E-4   -7.835806001453377E-4    3.741697864906113E-1   -3.253729155605351E-1
 9.937417776900000E9     4.688641289762562E-1   -1.162974243478496E-1   -8.781201796676325E-4   -8.029960889538988E-4   -8.794820136434570E-4   -7.894485176566854E-4    3.740465062975053E-1   -3.254066848365906E-1
 9.937420365200001E9     4.688584244760669E-1   -1.164990970088320E-1   -8.699075631800203E-4   -8.051766962939236E-4   -8.912850568321396E-4   -8.168480846333606E-4    3.737444333980355E-1   -3.257390556038666E-1
 9.937422953500000E9     4.687769649725514E-1   -1.167461013561192E-1   -9.372413142947894E-4   -8.037070509138665E-4   -9.116560994528776E-4   -8.217976305950478E-4    3.734414195487991E-1   -3.259249597103492E-1
 9.937425541799999E9     4.686989653724552E-1   -1.168757242122519E-1   -9.318712938502341E-4   -8.346523474893663E-4   -9.187244378261515E-4   -8.319431357829189E-4    3.730622664921217E-1   -3.260596682059931E-1
 9.937428130100000E9     4.685406698520556E-1   -1.170375535074892E-1   -9.265027363550454E-4   -8.022409229157015E-4   -9.654437382636779E-4   -8.208852326005682E-4    3.729068801883668E-1   -3.264978583916299E-1
 9.937430718400000E9     4.685475488551670E-1   -1.173220010872075E-1   -9.399247638044221E-4   -8.130706557472517E-4   -9.826665795022119E-4   -8.437597032859600E-4    3.725677020239820E-1   -3.264724769227078E-1
 9.937433306700001E9     4.685901332430764E-1   -1.173774094967392E-1   -9.383126598413775E-4   -8.687982720223633E-4   -9.867380471204768E-4   -8.585043742231432E-4    3.723391935550032E-1   -3.267864400106651E-1
 9.937435895000000E9     4.684454525782051E-1   -1.176358465500160E-1   -9.898670356582836E-4   -8.695226483832142E-4   -9.931863140116590E-4   -8.609722357315730E-4    3.721613385617738E-1   -3.271601411960474E-1
 9.937438483299999E9     4.683818096922918E-1   -1.177231796263011E-1   -9.822330100670575E-4   -9.051629100940656E-4   -9.712788337420408E-4   -8.700760822188838E-4    3.717801343064607E-1   -3.273476123233309E-1
 9.937441071600000E9     4.682204032669731E-1   -1.178710493225346E-1   -9.870134180942388E-4   -9.304463567576855E-4   -1.015963782793254E-3   -9.068772037541155E-4    3.714306193603067E-1   -3.274860971841459E-1
 9.937443659900000E9     4.681675665907360E-1   -1.179867608189133E-1   -1.036215794757626E-3   -9.464036500132742E-4   -1.038322075372424E-3   -9.114766106843519E-4    3.712928481117310E-1   -3.278486687676231E-1
 9.937446248200001E9     4.682052157049741E-1   -1.183953103111325E-1   -1.051429625565073E-3   -9.484481181772416E-4   -1.086625889879044E-3   -9.152963282804583E-4    3.709508568576468E-1   -3.279127268223926E-1
 9.937448836500000E9     4.680926288444552E-1   -1.183362756554472E-1   -1.084441544229332E-3   -9.589340174873893E-4   -1.077347148603098E-3   -9.513632031221954E-4    3.705856760735749E-1   -3.281059844709258E-1
 9.937451424799999E9     4.679397473826895E-1   -1.185794622591055E-1   -1.057619007825776E-3   -9.770554728689203E-4   -1.112925564818287E-3   -9.699578076045914E-4    3.703324290726510E-1   -3.283805718077817E-1
 9.937454013100000E9     4.680086894120422E-1   -1.187866133450107E-1   -1.104260136839375E-3   -9.993065684186528E-4   -1.131582647335374E-3   -9.432460416337880E-4    3.701350365998574E-1   -3.286269782240879E-1
 9.937456601400000E9     4.680024130005317E-1   -1.188111010074369E-1   -1.134773377533193E-3   -9.733197300341814E-4   -1.178962240427421E-3   -9.943969872506946E-4    3.698237882567170E-1   -3.289218769117779E-1
 9.937459189700001E9     4.678087277380348E-1   -1.191612604046136E-1   -1.145785797086215E-3   -9.917999572585043E-4   -1.181366991251059E-3   -1.024785647201120E-3    3.697566300845044E-1   -3.289644689854656E-1
 9.937461778000000E9     4.677233982701707E-1   -1.193105084602689E-1   -1.162853307628672E-3   -1.034479025952626E-3   -1.204658654222942E-3   -9.980945680719384E-4    3.692878278162283E-1   -3.293025081690341E-1
 9.937464366299999E9     4.677463444702868E-1   -1.192823292963690E-1   -1.192891952971630E-3   -1.041269569442134E-3   -1.195465645658193E-3   -1.011687543121720E-3    3.690449480972938E-1   -3.295004339539744E-1
 9.937466954600000E9     4.676297534396346E-1   -1.195600645628216E-1   -1.149685413507942E-3   -1.072735004059667E-3   -1.237438346569434E-3   -1.052839245502022E-3    3.686990601599144E-1   -3.297330732971428E-1
 9.937469542900000E9     4.675094417476713E-1   -1.197779446108029E-1   -1.231486020059162E-3   -1.057008250479249E-3   -1.269300554659043E-3   -1.074925749204565E-3    3.683115016271724E-1   -3.302109789135503E-1
 9.937472131200001E9     4.676286168741548E-1   -1.199879798013085E-1   -1.249284166144858E-3   -1.073693214983187E-3   -1.266121936387011E-3   -1.097467326938179E-3    3.680778772095533E-1   -3.300196591698479E-1
 9.937474719500000E9     4.675607446624108E-1   -1.200741894979197E-1   -1.241004096954676E-3   -1.123041253938364E-3   -1.271414881916832E-3   -1.115565558116164E-3    3.675795153027561E-1   -3.305101760519906E-1
 9.937477307799999E9     4.675132500722657E-1   -1.203708802601391E-1   -1.291470724427636E-3   -1.149686870750858E-3   -1.311918150284079E-3   -1.130426646828707E-3    3.674492592929965E-1   -3.306331907515382E-1
 9.937479896100000E9     4.673944060676676E-1   -1.205039365784977E-1   -1.262579510423619E-3   -1.128193369135323E-3   -1.341937884080192E-3   -1.129769132453671E-3    3.671504805229193E-1   -3.308829834729767E-1
 9.937482484400000E9     4.674123969284270E-1   -1.206283254948093E-1   -1.340258231274855E-3   -1.145196082536458E-3   -1.352532205367444E-3   -1.153440079881806E-3    3.667736574755364E-1   -3.310297646294908E-1
 9.937485072700001E9     4.673420698780299E-1   -1.207820661765652E-1   -1.309191817522859E-3   -1.176261976738211E-3   -1.386629061931918E-3   -1.121921117244094E-3    3.666295981881830E-1   -3.311898324603680E-1
 9.937487661000000E9     4.672637975129958E-1   -1.209159331969042E-1   -1.336499344621079E-3   -1.223244826257188E-3   -1.390919241236529E-3   -1.213138935092390E-3    3.661267540720352E-1   -3.314481316898492E-1
 9.937490249299999E9     4.671529673329939E-1   -1.210957416821474E-1   -1.412583164920172E-3   -1.190137910286625E-3   -1.418336038706488E-3   -1.203780626546067E-3    3.659113406649556E-1   -3.316736607833256E-1
 9.937492837600000E9     4.670899071052473E-1   -1.214989968759983E-1   -1.415408103507813E-3   -1.189954779153059E-3   -1.448853214121812E-3   -1.234869154459361E-3    3.653072952449467E-1   -3.320159826493661E-1
 9.937495425900000E9     4.671603176707592E-1   -1.215292621454760E-1   -1.444153912226723E-3   -1.223702190690188E-3   -1.457356023867183E-3   -1.212412700301120E-3    3.651862178113287E-1   -3.323791322399988E-1
 9.937498014200001E9     4.669354924761378E-1   -1.216414801069355E-1   -1.497963036357258E-3   -1.289646467451676E-3   -1.523434609687387E-3   -1.237180068261570E-3    3.646550398186494E-1   -3.323699618812216E-1
 9.937500602500000E9     4.670521074935570E-1   -1.216555175966314E-1   -1.494536567705415E-3   -1.263729958278536E-3   -1.535711046581726E-3   -1.265687366239210E-3    3.642599139862647E-1   -3.325444669792762E-1
 9.937503190799999E9     4.668993101250233E-1   -1.220880242969453E-1   -1.523953636927283E-3   -1.288160801424915E-3   -1.560186178649965E-3   -1.288263524905473E-3    3.639768423574234E-1   -3.330648987941365E-1
 9.937505779100000E9     4.668719914672269E-1   -1.222817389272021E-1   -1.601740224977179E-3   -1.313666001649245E-3   -1.580520633705552E-3   -1.291652384272130E-3    3.635354316394738E-1   -3.330831911738529E-1
 9.937508367400000E9     4.667891090195471E-1   -1.224405709872980E-1   -1.597370965778402E-3   -1.337880462741252E-3   -1.665279235731517E-3   -1.331712109707242E-3    3.632674272165932E-1   -3.332858839508078E-1
 9.937510955700001E9     4.666379287901506E-1   -1.224848633928656E-1   -1.626375413439586E-3   -1.341702869856818E-3   -1.629021445415387E-3   -1.350831143690766E-3    3.629815903636631E-1   -3.335493951069051E-1
 9.937513544000000E9     4.665563725613326E-1   -1.227495356068813E-1   -1.645656706503617E-3   -1.381846323768800E-3   -1.685153149855874E-3   -1.366288122628928E-3    3.626694293437248E-1   -3.338653025461639E-1
