#  HZ   S   RI   R     50.00 
! Rohde & Schwarz Vector Network Analyzer 
! Rohde-Schwarz,ZNB20-2Port,1311601062101988,3.16
! Created: UTC 3/20/2024, 11:09:56 PM
! freq[Hz]                re:S11                  im:S11                  re:S21                  im:S21                  re:S12                  im:S12                  re:S22                  im:S22
 9.937282475000000E9     4.715356508490551E-1   -1.072613121776962E-1   -3.442368056362713E-4   -2.642982379611881E-4   -3.044469360435958E-4   -2.858407912227580E-4    3.852630056558142E-1   -3.153960568990654E-1
 9.937285061150000E9     4.715911005460555E-1   -1.073188962253835E-1   -2.802715423044584E-4   -2.762420916335016E-4   -3.271122821574508E-4   -2.974626396503194E-4    3.851191843661670E-1   -3.158828599821243E-1
 9.937287647299999E9     4.715521035610208E-1   -1.076607649332940E-1   -3.317095645128073E-4   -2.985463632701218E-4   -3.012556761026404E-4   -2.884052713231829E-4    3.847011263649890E-1   -3.159626907683187E-1
 9.937290233450001E9     4.714462541506723E-1   -1.077762268801478E-1   -3.268372972018878E-4   -2.922713924021662E-4   -3.348200642942233E-4   -3.228046606773977E-4    3.846785946164983E-1   -3.160873689412442E-1
 9.937292819600000E9     4.714159640133053E-1   -1.078869721317569E-1   -3.431606728055525E-4   -2.707788815229403E-4   -3.719300422399015E-4   -2.837985154246708E-4    3.843034491576713E-1   -3.161371951556720E-1
 9.937295405750000E9     4.714290135892394E-1   -1.082047756885885E-1   -3.421883537193318E-4   -3.158312560907890E-4   -3.580609141900751E-4   -2.906744764165865E-4    3.842889642862751E-1   -3.165258364416645E-1
 9.937297991900000E9     4.712808704489674E-1   -1.082827677796976E-1   -3.576296637069662E-4   -3.156434649823951E-4   -3.888092759188786E-4   -3.324790318051057E-4    3.841051820920737E-1   -3.165519223629544E-1
 9.937300578049999E9     4.713177712826676E-1   -1.084217694509386E-1   -3.514309468458089E-4   -3.179908205257061E-4   -3.439756316577491E-4   -3.254006883973895E-4    3.838484838810115E-1   -3.169035424020771E-1
 9.937303164200001E9     4.711949607528869E-1   -1.086447844314305E-1   -3.374079099887988E-4   -3.218534179282138E-4   -3.396256685023059E-4   -3.201978217517371E-4    3.837545007545360E-1   -3.171655777193291E-1
 9.937305750350000E9     4.710565318950451E-1   -1.088027876674854E-1   -3.923683215386430E-4   -3.571592673112281E-4   -3.825594563363456E-4   -3.456740280308618E-4    3.836794491595801E-1   -3.170804420220906E-1
 9.937308336500000E9     4.709967231621987E-1   -1.090465076368652E-1   -4.172493643455599E-4   -3.549953793530194E-4   -4.278972774218561E-4   -3.776683232196907E-4    3.833709543497936E-1   -3.174144786154844E-1
 9.937310922650000E9     4.710535147191380E-1   -1.090973200690087E-1   -4.088106645712477E-4   -3.915555156152467E-4   -4.131490006749047E-4   -3.641944070763844E-4    3.831712054821823E-1   -3.175487444445296E-1
 9.937313508799999E9     4.709832444674744E-1   -1.092912638663943E-1   -4.250296567412989E-4   -3.692820104238501E-4   -4.488946889883649E-4   -3.491847323653193E-4    3.830009716165539E-1   -3.179143437337121E-1
 9.937316094950001E9     4.709165733412695E-1   -1.095516431406549E-1   -4.104800964535335E-4   -3.970905129909841E-4   -4.197695460254905E-4   -3.853579069149263E-4    3.828587722369429E-1   -3.180353447195944E-1
 9.937318681100000E9     4.709056799534803E-1   -1.097861803941127E-1   -4.211096611867821E-4   -4.077345225407336E-4   -4.541970309659585E-4   -3.901985582792196E-4    3.826579336829876E-1   -3.180977860716122E-1
 9.937321267250000E9     4.708977551795578E-1   -1.097564776337372E-1   -4.291237325894066E-4   -4.017893004275327E-4   -4.268904813695389E-4   -3.792134202650530E-4    3.823488926394410E-1   -3.183898793548173E-1
 9.937323853400000E9     4.708280176645110E-1   -1.101394507951937E-1   -4.727112144192491E-4   -4.210917962322832E-4   -4.377812946191511E-4   -4.118437591994090E-4    3.821259242543554E-1   -3.186138811716395E-1
 9.937326439549999E9     4.707186233474753E-1   -1.101843121013892E-1   -4.447690959222158E-4   -4.551690899863633E-4   -4.584483498574649E-4   -4.111641743716067E-4    3.818516556131309E-1   -3.186498297169925E-1
 9.937329025700001E9     4.705044126908468E-1   -1.104165362967661E-1   -4.439943385870035E-4   -4.038658916959694E-4   -4.793433357107357E-4   -4.005563330346630E-4    3.817710734633607E-1   -3.189120623272054E-1
 9.937331611850000E9     4.705007335187635E-1   -1.104463462689893E-1   -5.075619303748260E-4   -4.400279781700964E-4   -4.985354693143420E-4   -4.148020682009439E-4    3.815647158915736E-1   -3.190484865793309E-1
 9.937334198000000E9     4.705654376779162E-1   -1.106898465717445E-1   -4.769834110975595E-4   -4.686189709989416E-4   -4.933752974845554E-4   -4.527824716202061E-4    3.813524266707934E-1   -3.192129570591495E-1
 9.937336784150000E9     4.704691982498071E-1   -1.108508960990286E-1   -4.892190025610373E-4   -4.518786033460708E-4   -4.829749725695942E-4   -4.633598175428382E-4    3.810723410691118E-1   -3.196140569110780E-1
 9.937339370299999E9     4.703423742575852E-1   -1.108859235776011E-1   -5.044379846756179E-4   -4.307536729827238E-4   -5.088256399789087E-4   -4.415977792563631E-4    3.810731374128433E-1   -3.196163479560605E-1
 9.937341956450001E9     4.704167759830114E-1   -1.111699336843115E-1   -5.201578205054338E-4   -4.756415069251263E-4   -5.207921704939518E-4   -4.538270796823396E-4    3.806324936439767E-1   -3.198183696258968E-1
 9.937344542600000E9     4.702823244226720E-1   -1.115352197486188E-1   -4.837411256194467E-4   -4.592650304054679E-4   -5.456014956128139E-4   -4.767938246073881E-4    3.805487383284698E-1   -3.199924836698830E-1
 9.937347128750000E9     4.702683025592466E-1   -1.115983334670037E-1   -5.448379721068802E-4   -4.827710786123687E-4   -5.465544356692296E-4   -5.132655519420992E-4    3.802986763429504E-1   -3.202228035189453E-1
 9.937349714900000E9     4.701462929171893E-1   -1.117698700679383E-1   -5.177691645963574E-4   -5.139550668994124E-4   -5.678411320302453E-4   -5.205466914056598E-4    3.801544555804409E-1   -3.204048328075698E-1
 9.937352301049999E9     4.701714674946800E-1   -1.118639235096683E-1   -5.696094484535442E-4   -5.020396121781712E-4   -5.613876919991062E-4   -4.880565232343737E-4    3.798493476106610E-1   -3.205438533034092E-1
 9.937354887200001E9     4.700701770364521E-1   -1.121119964315375E-1   -5.484415666279583E-4   -5.140103491340193E-4   -5.645629729180983E-4   -4.973204909948482E-4    3.797426532697227E-1   -3.209755563309127E-1
 9.937357473350000E9     4.699953910547277E-1   -1.122846426049560E-1   -5.807313433204148E-4   -5.125600970374225E-4   -5.988545305504577E-4   -5.320871962993383E-4    3.794834885911955E-1   -3.210167997193622E-1
 9.937360059500000E9     4.699432240821036E-1   -1.125835178180524E-1   -5.375420497275114E-4   -5.591907085292927E-4   -5.961660874057827E-4   -5.536702419009161E-4    3.794129831775436E-1   -3.212217937455849E-1
 9.937362645650000E9     4.699042087315804E-1   -1.127127604107898E-1   -5.834676244017974E-4   -5.509423916502770E-4   -5.999718403288152E-4   -5.356347596915069E-4    3.789941047180524E-1   -3.213566750747442E-1
 9.937365231799999E9     4.698559080900870E-1   -1.128261805593786E-1   -6.106143188740892E-4   -5.645502289341721E-4   -6.168235250433278E-4   -5.246887760998375E-4    3.788834360262215E-1   -3.214430912522483E-1
 9.937367817950001E9     4.698310723177788E-1   -1.130053881310750E-1   -6.157062838199625E-4   -5.841613651989602E-4   -6.436195136377018E-4   -5.549780717518547E-4    3.785477257969477E-1   -3.216807151442060E-1
 9.937370404100000E9     4.698313240863436E-1   -1.131003892240681E-1   -6.358006617032634E-4   -5.733942327243311E-4   -6.527566769798260E-4   -5.402516211289952E-4    3.783628635373353E-1   -3.219510549328695E-1
 9.937372990250000E9     4.695460614922373E-1   -1.133871323518318E-1   -6.704506337045039E-4   -5.936179705822111E-4   -6.283003089415971E-4   -5.918432374088379E-4    3.780288022476022E-1   -3.221393704299764E-1
 9.937375576400000E9     4.696934067319493E-1   -1.135827988313780E-1   -6.397917363716658E-4   -6.348762132178156E-4   -6.537431307150770E-4   -6.085977831734037E-4    3.779685025140971E-1   -3.223621374290527E-1
 9.937378162549999E9     4.695593345538304E-1   -1.137401857067366E-1   -6.543405984540441E-4   -5.968596367992399E-4   -6.746784466168423E-4   -6.031423421058506E-4    3.776171128661308E-1   -3.225862400829251E-1
 9.937380748700001E9     4.694532337707270E-1   -1.138613026477171E-1   -6.347136950901121E-4   -6.095901295486873E-4   -6.962654664515995E-4   -6.517659172865231E-4    3.773842288771247E-1   -3.226809400127896E-1
 9.937383334850000E9     4.694819167378111E-1   -1.140565349524863E-1   -6.778458639630017E-4   -6.553902650032917E-4   -7.011502803709463E-4   -6.407247618343593E-4    3.771108267106009E-1   -3.227103842233877E-1
 9.937385921000000E9     4.694678989379537E-1   -1.142697935413041E-1   -7.165784736710604E-4   -6.029637535889262E-4   -7.161668224621697E-4   -6.329407888491513E-4    3.769451338283330E-1   -3.233179562203201E-1
 9.937388507150000E9     4.693608559326634E-1   -1.143298127828059E-1   -7.063016724360574E-4   -6.540554362091034E-4   -7.280892698490106E-4   -6.082296073806981E-4    3.768734452496681E-1   -3.233127198074305E-1
 9.937391093299999E9     4.693718748972066E-1   -1.145834688722669E-1   -7.264728178565858E-4   -6.911386714703063E-4   -7.229730434951529E-4   -6.694649417740742E-4    3.763066031756941E-1   -3.235874841890186E-1
 9.937393679450001E9     4.695033987386434E-1   -1.147387037048626E-1   -7.249665768019896E-4   -6.759913667340985E-4   -7.489692993168066E-4   -6.703356836310126E-4    3.765055513578091E-1   -3.235959316488033E-1
 9.937396265600000E9     4.691186872592952E-1   -1.148992242196383E-1   -7.530345003414170E-4   -6.906339334858522E-4   -7.695456683264189E-4   -6.654055845226388E-4    3.760220867984534E-1   -3.238476969463038E-1
 9.937398851750000E9     4.692870708568023E-1   -1.153013063888796E-1   -7.707045664486504E-4   -7.016864546262729E-4   -7.642910088651285E-4   -7.048098194852929E-4    3.760085771772584E-1   -3.240289584874984E-1
 9.937401437900000E9     4.690913540816487E-1   -1.151225332270468E-1   -7.596795182525688E-4   -7.118853705056505E-4   -7.932402013818534E-4   -6.836752814279770E-4    3.756490927192968E-1   -3.243491769423930E-1
 9.937404024049999E9     4.689497471295161E-1   -1.153357330244860E-1   -7.962103026558885E-4   -7.193950090667121E-4   -7.949102767220467E-4   -7.154369803874804E-4    3.752834646322641E-1   -3.246282240835250E-1
 9.937406610200001E9     4.690624995483236E-1   -1.154419023331257E-1   -7.519938813740662E-4   -6.965563115674776E-4   -8.294116959356769E-4   -7.178872248413685E-4    3.749673053783960E-1   -3.246171721546309E-1
 9.937409196350000E9     4.689661532664530E-1   -1.157279482539332E-1   -8.183311720879951E-4   -7.356119554845927E-4   -8.535070264861050E-4   -7.644605372874801E-4    3.750378257562936E-1   -3.248200098875613E-1
 9.937411782500000E9     4.690015684678381E-1   -1.158417036636839E-1   -8.098052386696820E-4   -7.659758908124737E-4   -8.496835350370549E-4   -7.409327834438865E-4    3.745612951583854E-1   -3.253117188900380E-1
 9.937414368650000E9     4.687761272007905E-1   -1.160937480036032E-1   -8.535951281605392E-4   -8.186049308151383E-4   -8.527265381802482E-4   -7.578074658136049E-4    3.743958938530726E-1   -3.252634188269776E-1
 9.937416954799999E9     4.688141520461286E-1   -1.163139187645991E-1   -8.528818310190269E-4   -7.741550508258106E-4   -8.967743316321789E-4   -7.546122657578157E-4    3.741452387128805E-1   -3.254714940011856E-1
 9.937419540950001E9     4.687343312108870E-1   -1.164294253218119E-1   -8.121912375765719E-4   -7.829316296411086E-4   -8.896228137676477E-4   -7.815275524476278E-4    3.738269988225739E-1   -3.258101826888841E-1
 9.937422127100000E9     4.687158096490917E-1   -1.166657645799991E-1   -8.879582176396067E-4   -8.128214301951865E-4   -9.202450879015444E-4   -7.985713358370504E-4    3.736089251299355E-1   -3.260434766985433E-1
 9.937424713250000E9     4.685479965161711E-1   -1.168943240471717E-1   -9.149572813944757E-4   -8.059046054011903E-4   -9.350001617456870E-4   -8.117799239682212E-4    3.732884332271413E-1   -3.261422457545400E-1
 9.937427299400000E9     4.687264208915380E-1   -1.170501869610963E-1   -9.164149917928737E-4   -8.176165445399752E-4   -9.450145475889251E-4   -8.419517689181208E-4    3.731947570561331E-1   -3.263716896725853E-1
 9.937429885549999E9     4.684974792250158E-1   -1.170360940160298E-1   -9.437618221126021E-4   -8.219983371932472E-4   -9.517178585107437E-4   -8.371623774636980E-4    3.728049781591562E-1   -3.266555445468296E-1
 9.937432471700001E9     4.685556277701189E-1   -1.173680803823741E-1   -9.290433776628746E-4   -8.494747770018715E-4   -9.793425185940106E-4   -8.333363088900580E-4    3.724419886277788E-1   -3.267266803371126E-1
 9.937435057850000E9     4.685105244121879E-1   -1.175458395411225E-1   -9.920851454596946E-4   -8.758569869959954E-4   -9.788654659286164E-4   -8.621464600069657E-4    3.721087897019859E-1   -3.271007148862640E-1
 9.937437644000000E9     4.683052785995674E-1   -1.176420807221387E-1   -9.554967744928741E-4   -8.597459455986568E-4   -1.004690283521176E-3   -9.182039049337098E-4    3.720546846166036E-1   -3.272887258033699E-1
 9.937440230150000E9     4.682903501616479E-1   -1.178182335150829E-1   -9.825105294477788E-4   -8.999745094458184E-4   -1.029371184696065E-3   -8.839404158328180E-4    3.717342417691927E-1   -3.273662726797071E-1
 9.937442816299999E9     4.681119548786639E-1   -1.179051870252774E-1   -1.004115698720993E-3   -9.386253927133572E-4   -1.037860624439334E-3   -9.215963344770738E-4    3.715410557732055E-1   -3.276774582427006E-1
 9.937445402450001E9     4.680961189378806E-1   -1.181114644647939E-1   -1.019158650914687E-3   -9.492002624494352E-4   -1.024232720576755E-3   -9.032369144761072E-4    3.711542528139635E-1   -3.280445101732945E-1
 9.937447988600000E9     4.681834241281951E-1   -1.183841719751580E-1   -1.035174129951022E-3   -9.134756129956661E-4   -1.065224121524581E-3   -9.226300416922027E-4    3.709606066230411E-1   -3.280531175289743E-1
 9.937450574750000E9     4.681775056933633E-1   -1.184481937268514E-1   -1.098632769465292E-3   -9.481383004797942E-4   -1.107985609869552E-3   -9.658878870040339E-4    3.706874406549728E-1   -3.284183260797388E-1
 9.937453160900000E9     4.680753010273049E-1   -1.187997677036855E-1   -1.077808602152796E-3   -9.987008802371624E-4   -1.139952537054084E-3   -9.952601653348695E-4    3.702700291234182E-1   -3.286790454199481E-1
 9.937455747049999E9     4.679842426586990E-1   -1.189969731051550E-1   -1.106668523395642E-3   -1.023244777963368E-3   -1.145559905027398E-3   -9.713731385849338E-4    3.700900164772020E-1   -3.288277974202525E-1
 9.937458333200001E9     4.678421544763330E-1   -1.190773013227885E-1   -1.164074247140135E-3   -1.004445387612442E-3   -1.155931526523187E-3   -1.020675178270205E-3    3.696842398031858E-1   -3.290864695648911E-1
 9.937460919350000E9     4.677300226122949E-1   -1.191250872410847E-1   -1.140736791559296E-3   -1.001165526651647E-3   -1.169129200516584E-3   -1.013655619342934E-3    3.694955585514366E-1   -3.292221303467079E-1
 9.937463505500000E9     4.678897983452647E-1   -1.193523454533869E-1   -1.179811455566796E-3   -9.986600760016242E-4   -1.223161070307096E-3   -1.033610690614135E-3    3.692496486365278E-1   -3.293959827115401E-1
 9.937466091650000E9     4.677052803480496E-1   -1.196098555303041E-1   -1.153412523748876E-3   -1.065403691942833E-3   -1.222828718303043E-3   -1.034442921088470E-3    3.689557542843497E-1   -3.297257710257673E-1
 9.937468677799999E9     4.676438770065626E-1   -1.197389176143135E-1   -1.219419563876773E-3   -1.076866106162167E-3   -1.253678412882843E-3   -1.050798694397247E-3    3.685613754528769E-1   -3.298685882078217E-1
 9.937471263950001E9     4.676729141282747E-1   -1.200272452068421E-1   -1.187319479870054E-3   -1.098152744194693E-3   -1.266523184780832E-3   -1.067208965043478E-3    3.683396265161994E-1   -3.301152440463265E-1
 9.937473850100000E9     4.675548354714259E-1   -1.200488769740070E-1   -1.249734419967008E-3   -1.105864412081642E-3   -1.279016347234846E-3   -1.088680605930404E-3    3.679261616561338E-1   -3.303487455090138E-1
 9.937476436250000E9     4.675222631753425E-1   -1.202677939850590E-1   -1.284146886812023E-3   -1.131207044597526E-3   -1.307390749775694E-3   -1.070255955605009E-3    3.675987817436630E-1   -3.304015354848773E-1
 9.937479022400000E9     4.675917933012294E-1   -1.204875185492125E-1   -1.293673351118258E-3   -1.121903439389160E-3   -1.336525104701392E-3   -1.068303069029850E-3    3.675740917303312E-1   -3.308134455113929E-1
 9.937481608549999E9     4.674410547544017E-1   -1.206028303876736E-1   -1.322978894798223E-3   -1.151025349018584E-3   -1.373206025379183E-3   -1.116272145992049E-3    3.668510585664617E-1   -3.309131078262100E-1
 9.937484194700001E9     4.674490528573453E-1   -1.208237333661367E-1   -1.350062936612799E-3   -1.180577520076274E-3   -1.370060203353464E-3   -1.153841993579332E-3    3.666960845790543E-1   -3.310417445855369E-1
 9.937486780850000E9     4.673607010560610E-1   -1.209922219785256E-1   -1.353640714479889E-3   -1.187708842868219E-3   -1.373300509106986E-3   -1.168037164862980E-3    3.664714288999427E-1   -3.313581531338925E-1
 9.937489367000000E9     4.672343873477184E-1   -1.210419859570526E-1   -1.383117996410613E-3   -1.224000139336867E-3   -1.429296680388027E-3   -1.191107402483702E-3    3.659234535651783E-1   -3.317374695810975E-1
 9.937491953150000E9     4.671962770338255E-1   -1.211998212755884E-1   -1.409556199279687E-3   -1.204627541975114E-3   -1.423330167424698E-3   -1.213236032179419E-3    3.656438918583393E-1   -3.318585865699299E-1
 9.937494539299999E9     4.672055607938395E-1   -1.213501880401045E-1   -1.427140471492042E-3   -1.253784527127928E-3   -1.475416242814290E-3   -1.232351254632682E-3    3.653582082525411E-1   -3.319961188064359E-1
 9.937497125450001E9     4.670690245716266E-1   -1.216421447505233E-1   -1.445315353487293E-3   -1.271176441514648E-3   -1.488065201880921E-3   -1.228063672437900E-3    3.650487104622223E-1   -3.323959119883547E-1
 9.937499711600000E9     4.669683926213857E-1   -1.217264723747262E-1   -1.487924269871582E-3   -1.252954919013030E-3   -1.520803922473539E-3   -1.237106080349150E-3    3.645061362680622E-1   -3.327396554652221E-1
 9.937502297750000E9     4.668899204238089E-1   -1.220260672294390E-1   -1.505206204066023E-3   -1.271945706900398E-3   -1.563059513063618E-3   -1.276993413440958E-3    3.644146282105453E-1   -3.327438663362781E-1
 9.937504883900000E9     4.668804464908965E-1   -1.221919221493653E-1   -1.540547016360411E-3   -1.322029387824081E-3   -1.566785394893411E-3   -1.293424661476447E-3    3.638557150718117E-1   -3.332070135327770E-1
 9.937507470049999E9     4.667508848101682E-1   -1.223121326992168E-1   -1.577906143435158E-3   -1.333070808812215E-3   -1.602811433323485E-3   -1.294573009673710E-3    3.634810917275709E-1   -3.333060840423604E-1
 9.937510056200001E9     4.667464801880512E-1   -1.225921930098901E-1   -1.579817239576862E-3   -1.321888913769891E-3   -1.628598327850986E-3   -1.328649573083750E-3    3.632315119892486E-1   -3.335021338101768E-1
 9.937512642350000E9     4.667009283570405E-1   -1.225894390653762E-1   -1.616366566319535E-3   -1.352499710167196E-3   -1.670856122807753E-3   -1.368499458966947E-3    3.626665000093304E-1   -3.339185288364486E-1
 9.937515228500000E9     4.665777634418038E-1   -1.228559763115178E-1   -1.628455154080841E-3   -1.362967477553105E-3   -1.685001384774337E-3   -1.359022309643696E-3    3.624565578931822E-1   -3.340583125435106E-1
