#  HZ   S   RI   R     50.00 
! Rohde & Schwarz Vector Network Analyzer 
! Rohde-Schwarz,ZNB20-2Port,1311601062101988,3.16
! Created: UTC 3/20/2024, 11:10:11 PM
! freq[Hz]                re:S11                  im:S11                  re:S21                  im:S21                  re:S12                  im:S12                  re:S22                  im:S22
 9.937296848000000E9     4.713255931826996E-1   -1.081353196456022E-1   -3.366866383370267E-4   -2.946762739056601E-4   -3.955479131850131E-4   -3.086070617031039E-4    3.842152483935947E-1   -3.165751567146354E-1
 9.937299375325001E9     4.710483358786606E-1   -1.083670114129553E-1   -3.675445595970246E-4   -3.075613869024119E-4   -3.759636318775750E-4   -3.203325796261109E-4    3.842042279706325E-1   -3.168139402827087E-1
 9.937301902650000E9     4.712034842090508E-1   -1.084807791388908E-1   -3.508568762393593E-4   -3.314440158711230E-4   -3.559710112825042E-4   -3.417479460570714E-4    3.837174850090215E-1   -3.169848935881815E-1
 9.937304429975000E9     4.710958237470832E-1   -1.085485402351054E-1   -4.097689154036900E-4   -3.409374538362834E-4   -3.881562414762409E-4   -3.021884282858244E-4    3.837718752465467E-1   -3.168749664889073E-1
 9.937306957299999E9     4.711841389995182E-1   -1.087770732772845E-1   -3.505197821521061E-4   -3.561792357379204E-4   -3.940484527507360E-4   -2.908416886592388E-4    3.837148435175519E-1   -3.170537473370946E-1
 9.937309484625000E9     4.709413200955992E-1   -1.090958878410648E-1   -3.959409422738411E-4   -3.280065862019706E-4   -3.894602790411033E-4   -3.743060086708177E-4    3.834977103197476E-1   -3.175320425661173E-1
 9.937312011950001E9     4.711212632885698E-1   -1.091713656596177E-1   -3.649471258454736E-4   -3.519438444865697E-4   -4.113294063669790E-4   -3.617626460414768E-4    3.832591537498084E-1   -3.174686100998525E-1
 9.937314539275000E9     4.710249697693776E-1   -1.092726081333410E-1   -4.149315285671633E-4   -3.835914558003512E-4   -4.041406998405354E-4   -3.445239367179624E-4    3.829042335623268E-1   -3.175693312768085E-1
 9.937317066600000E9     4.709286478667773E-1   -1.094923090533343E-1   -3.964168334670000E-4   -3.380958612663361E-4   -4.201276410985001E-4   -3.466789594586340E-4    3.828302251237128E-1   -3.180926034808145E-1
 9.937319593924999E9     4.708872601963275E-1   -1.096339747836645E-1   -4.262858340913224E-4   -3.505043918622284E-4   -4.412688431016197E-4   -3.841463767010246E-4    3.826229946984780E-1   -3.181604407813187E-1
 9.937322121250000E9     4.706910510669070E-1   -1.098351111558408E-1   -4.388545344726235E-4   -3.935084824979986E-4   -4.499397773467880E-4   -3.669669132398853E-4    3.821235006208694E-1   -3.183509014075475E-1
 9.937324648575001E9     4.707185216168513E-1   -1.099663699407312E-1   -4.670969373596371E-4   -4.225145867849783E-4   -4.335320591364634E-4   -3.802371102202844E-4    3.822576594948542E-1   -3.185346687874945E-1
 9.937327175900000E9     4.706402834963836E-1   -1.101525741075755E-1   -4.558372419191776E-4   -4.096648988213451E-4   -4.434711863604742E-4   -4.190798789779402E-4    3.820772565992069E-1   -3.188440492481117E-1
 9.937329703225000E9     4.706463269848189E-1   -1.103475437652349E-1   -4.373966794181504E-4   -4.229889794727627E-4   -4.672171601116962E-4   -3.907465076354859E-4    3.819122010374914E-1   -3.186532762898300E-1
 9.937332230549999E9     4.704954268521601E-1   -1.107160639963583E-1   -4.279035674953593E-4   -4.058045980012317E-4   -4.778892138843671E-4   -4.041485622542109E-4    3.814825371347586E-1   -3.189994999698594E-1
 9.937334757875000E9     4.706010806978676E-1   -1.107826524686578E-1   -4.619340754570857E-4   -4.227073946122498E-4   -4.612602155497561E-4   -3.990836741895492E-4    3.815589210550602E-1   -3.194134695359366E-1
 9.937337285200001E9     4.705188464500071E-1   -1.108296789369805E-1   -4.484951871655806E-4   -4.694064503361767E-4   -5.161801863790812E-4   -4.335406704250593E-4    3.811521364998540E-1   -3.195238878142430E-1
 9.937339812525000E9     4.703240141641249E-1   -1.111957572448005E-1   -4.840101619208446E-4   -4.391090769790899E-4   -4.956225733736511E-4   -4.289720391812312E-4    3.809417773960407E-1   -3.195330008659161E-1
 9.937342339850000E9     4.703109451192899E-1   -1.113098067508619E-1   -4.920159525554704E-4   -4.976091626026203E-4   -5.359679318593416E-4   -4.203615778214389E-4    3.808464074561329E-1   -3.197034221938775E-1
 9.937344867174999E9     4.703957494308906E-1   -1.114902348585451E-1   -5.137032611825579E-4   -4.342737343690270E-4   -5.424332862298506E-4   -4.706320778117764E-4    3.804523094656026E-1   -3.198623817218458E-1
 9.937347394500000E9     4.703278059134484E-1   -1.115580818772320E-1   -5.097471745593550E-4   -4.805734530198763E-4   -5.138191360187684E-4   -4.597079500293915E-4    3.803550633112826E-1   -3.201979596761135E-1
 9.937349921825001E9     4.701874550950836E-1   -1.118801512088125E-1   -5.171480550807885E-4   -4.781446771205748E-4   -5.206262104544756E-4   -4.785408949011204E-4    3.802103598218524E-1   -3.203632182843409E-1
 9.937352449150000E9     4.702217742720208E-1   -1.119866262092836E-1   -5.764619329182638E-4   -4.970294189458006E-4   -5.615606508870748E-4   -4.836660939365912E-4    3.799648942530077E-1   -3.204332497763534E-1
 9.937354976475000E9     4.701158029866127E-1   -1.120459642819696E-1   -5.359465585268593E-4   -4.822437038576812E-4   -5.507367577272754E-4   -4.972816107855285E-4    3.798898308167897E-1   -3.207566961699570E-1
 9.937357503799999E9     4.700126265085202E-1   -1.123660360734158E-1   -5.605849652203747E-4   -5.233203919968693E-4   -5.762746633544601E-4   -5.018336192856217E-4    3.795703039307634E-1   -3.208211711962785E-1
 9.937360031125000E9     4.700684489292496E-1   -1.123851774303081E-1   -5.580587828154490E-4   -5.403780914264393E-4   -5.862278927822297E-4   -5.295125648290291E-4    3.795049014737177E-1   -3.209545378309679E-1
 9.937362558450001E9     4.699717158957800E-1   -1.126145883244959E-1   -5.846102249242170E-4   -5.292310164904991E-4   -6.029794100321106E-4   -5.616901283963530E-4    3.791723827776728E-1   -3.213541605591418E-1
 9.937365085775000E9     4.699227462023662E-1   -1.127527042093630E-1   -5.997089806572382E-4   -5.417325828475135E-4   -6.012221424528169E-4   -5.488570265621164E-4    3.790829514165860E-1   -3.216155707088038E-1
 9.937367613100000E9     4.699253366770696E-1   -1.129115300270798E-1   -6.049054040321647E-4   -5.435738931478934E-4   -6.069155700213152E-4   -5.502282239743077E-4    3.786371916782216E-1   -3.218402362292962E-1
 9.937370140424999E9     4.698742027417269E-1   -1.131055194705531E-1   -5.986810126899145E-4   -5.823360164976590E-4   -6.190206403167233E-4   -5.876677921739980E-4    3.784651144677057E-1   -3.218436148651772E-1
 9.937372667750000E9     4.697089424077632E-1   -1.133016733079052E-1   -6.064916982835294E-4   -5.740466742778722E-4   -6.162250853694113E-4   -5.932285955747383E-4    3.783930134466254E-1   -3.218994113937922E-1
 9.937375195075001E9     4.696585495414526E-1   -1.135123799339305E-1   -6.163682048016214E-4   -5.620416093354762E-4   -6.127762409000707E-4   -5.857907895517568E-4    3.780151960657497E-1   -3.223188025688552E-1
 9.937377722400000E9     4.696523245432026E-1   -1.135858546883357E-1   -6.506715537287033E-4   -5.857451612256986E-4   -6.821634927096592E-4   -5.947106204061054E-4    3.778764879953990E-1   -3.224316231184272E-1
 9.937380249725000E9     4.695946924968229E-1   -1.137721292894639E-1   -6.535439762246074E-4   -6.519721503968406E-4   -6.562386609319702E-4   -5.917113524262576E-4    3.776453227453109E-1   -3.226849878204753E-1
 9.937382777049999E9     4.695544245731607E-1   -1.139448801502762E-1   -6.644663403426741E-4   -5.988667156686526E-4   -6.845329303853541E-4   -5.984387305869573E-4    3.775672937697710E-1   -3.228591979339404E-1
 9.937385304375000E9     4.694961361946192E-1   -1.141851173624227E-1   -6.598001299934235E-4   -6.303938654745237E-4   -7.171826034652176E-4   -6.250999251987608E-4    3.771040463486627E-1   -3.231130689127220E-1
 9.937387831700001E9     4.694589737018605E-1   -1.143094480378612E-1   -6.805774537484828E-4   -6.382498400677972E-4   -7.002121220177800E-4   -6.280435077574410E-4    3.768848162809697E-1   -3.230736167387206E-1
 9.937390359025000E9     4.694096836324353E-1   -1.144721846117149E-1   -6.778448721169515E-4   -6.439485204591745E-4   -7.121377709562430E-4   -6.334285880443887E-4    3.767222256915907E-1   -3.232966128019470E-1
 9.937392886350000E9     4.692370687143437E-1   -1.145738909509009E-1   -7.317800161851405E-4   -6.639370452361286E-4   -7.207621676998742E-4   -6.615721169015611E-4    3.764787704546146E-1   -3.235436122365897E-1
 9.937395413674999E9     4.692675740782511E-1   -1.148529814840888E-1   -7.320774205656611E-4   -6.831914324927157E-4   -7.339956914796053E-4   -6.706797688194776E-4    3.762671801744918E-1   -3.237715727322159E-1
 9.937397941000000E9     4.692359972854269E-1   -1.150524704893160E-1   -7.342705490470667E-4   -6.859386846644685E-4   -7.585953683518756E-4   -6.933992501841676E-4    3.761505504504282E-1   -3.237911934479760E-1
 9.937400468325001E9     4.692227141990520E-1   -1.151488668057745E-1   -7.365597337641136E-4   -6.799939137319956E-4   -7.557601311135027E-4   -6.997113141983999E-4    3.757620340290065E-1   -3.243215278655036E-1
 9.937402995650000E9     4.691621882771123E-1   -1.152492811951077E-1   -7.699790105391150E-4   -7.293036468603116E-4   -7.700954231643589E-4   -7.052194627760323E-4    3.756767915637446E-1   -3.242661434319516E-1
 9.937405522975000E9     4.691325876478124E-1   -1.154964866958884E-1   -7.868363170687901E-4   -6.994743498414238E-4   -8.219184368538451E-4   -7.069164117013116E-4    3.753111188723461E-1   -3.244925480016059E-1
 9.937408050299999E9     4.690179937195728E-1   -1.156431570978346E-1   -8.146058758720697E-4   -7.327394537477264E-4   -8.112950576094983E-4   -7.467473790499475E-4    3.750496933392418E-1   -3.248502417884667E-1
 9.937410577625000E9     4.688298611369497E-1   -1.158362698053904E-1   -8.102758206758458E-4   -7.267206462868282E-4   -8.617895451779118E-4   -7.361590883156711E-4    3.746758396210775E-1   -3.248924175603891E-1
 9.937413104950001E9     4.687069311997020E-1   -1.159275241884338E-1   -8.408153333076414E-4   -7.478474105434603E-4   -8.346992752831019E-4   -7.190275566514807E-4    3.745933492530982E-1   -3.252413875106825E-1
 9.937415632275000E9     4.687824230892181E-1   -1.160949096410231E-1   -8.394541517158045E-4   -7.396724570034337E-4   -8.571437031697286E-4   -7.676916085538221E-4    3.744049161985503E-1   -3.253162202757744E-1
 9.937418159600000E9     4.688239428036273E-1   -1.163656624084062E-1   -8.453233395566350E-4   -7.467936467568103E-4   -8.568155346207389E-4   -7.490125804268827E-4    3.740838104488282E-1   -3.256019991981581E-1
 9.937420686924999E9     4.687786647727438E-1   -1.165424356712930E-1   -8.745546767151444E-4   -7.929309963942076E-4   -8.657120334540147E-4   -7.794850372732423E-4    3.738650699048392E-1   -3.258111097031129E-1
 9.937423214250000E9     4.687112663410199E-1   -1.166147590036139E-1   -8.618727416053640E-4   -7.968082988617350E-4   -8.671714145471699E-4   -7.974042457124664E-4    3.736260093365484E-1   -3.258873681097194E-1
 9.937425741575001E9     4.686130846057754E-1   -1.168644558166309E-1   -8.918716535197998E-4   -7.874726057463063E-4   -8.889829797734684E-4   -8.107666184296285E-4    3.733288993584826E-1   -3.262049255441645E-1
 9.937428268900000E9     4.686133660167724E-1   -1.170425118911420E-1   -9.149318447189685E-4   -8.378989801142071E-4   -9.231118159380836E-4   -7.991884282479065E-4    3.732122713296632E-1   -3.265303283517101E-1
 9.937430796225000E9     4.684081189682893E-1   -1.172301631198354E-1   -9.287787853126758E-4   -8.053484019913480E-4   -9.547880264689041E-4   -8.418331983516016E-4    3.729426803372407E-1   -3.265000583674255E-1
 9.937433323549999E9     4.684519938289771E-1   -1.172742409985184E-1   -9.150190858755292E-4   -8.727373957117101E-4   -9.499321981596174E-4   -8.594937244601835E-4    3.727728419948151E-1   -3.267804331708175E-1
 9.937435850875000E9     4.684008705985250E-1   -1.174627539912024E-1   -9.600251074580442E-4   -8.417808115338581E-4   -9.743681366988200E-4   -8.342875058955192E-4    3.722432718821619E-1   -3.269838231799689E-1
 9.937438378200001E9     4.683132475249321E-1   -1.177051838082891E-1   -9.776797032704375E-4   -8.640505042251952E-4   -9.960208526993504E-4   -8.522973985831711E-4    3.723051379916684E-1   -3.272242241536200E-1
 9.937440905525000E9     4.683875236295066E-1   -1.178462563942517E-1   -9.258577656576075E-4   -8.817084085967337E-4   -9.784405407359223E-4   -8.797560639313729E-4    3.719409874717343E-1   -3.274198026987682E-1
 9.937443432850000E9     4.682294328211970E-1   -1.180163364357894E-1   -1.003121127788644E-3   -9.084984721227401E-4   -1.002830173606507E-3   -8.887164198212016E-4    3.715287137313508E-1   -3.275480718884998E-1
 9.937445960174999E9     4.681861544908797E-1   -1.181343156272217E-1   -1.009544349470697E-3   -9.041137818925360E-4   -1.024252235045449E-3   -8.862592517058348E-4    3.714452993551888E-1   -3.277897432750572E-1
 9.937448487500000E9     4.680839374393773E-1   -1.183753797617917E-1   -1.019471479149111E-3   -9.284124781799360E-4   -1.045038740582825E-3   -9.021399226790192E-4    3.709682285298915E-1   -3.279169334294447E-1
 9.937451014825001E9     4.681079286074422E-1   -1.185139948976696E-1   -1.050996179325806E-3   -9.545561447778782E-4   -1.060553740007420E-3   -9.243866311711558E-4    3.710209791454102E-1   -3.282417569671617E-1
 9.937453542150000E9     4.679365298790077E-1   -1.187952730476501E-1   -1.052714638375805E-3   -9.855830838195910E-4   -1.112862353192486E-3   -9.561666982779121E-4    3.704053772434404E-1   -3.284950559309817E-1
 9.937456069475000E9     4.680613378628043E-1   -1.188834109638687E-1   -1.066816367576228E-3   -9.695036976427176E-4   -1.123996556595488E-3   -9.244906633217568E-4    3.702471159065555E-1   -3.284616066936724E-1
 9.937458596799999E9     4.679154610616936E-1   -1.189844928969687E-1   -1.096098552109341E-3   -9.722269751716448E-4   -1.158895456582136E-3   -9.809148671281230E-4    3.700099998845640E-1   -3.289403958105994E-1
 9.937461124125000E9     4.678755073543523E-1   -1.192304554011411E-1   -1.077468142308021E-3   -1.031150573456478E-3   -1.143044265015519E-3   -9.931975677427863E-4    3.697308973763342E-1   -3.290366968737538E-1
 9.937463651450001E9     4.677959526578304E-1   -1.194551041408472E-1   -1.107019840528524E-3   -1.006720025159104E-3   -1.172145212812497E-3   -1.046775532510086E-3    3.695029907022343E-1   -3.293805735174336E-1
 9.937466178775000E9     4.677429177135659E-1   -1.195251512275250E-1   -1.157622429365339E-3   -1.018144820386900E-3   -1.195248998060136E-3   -1.002510065406875E-3    3.692339302165341E-1   -3.296719361345113E-1
 9.937468706100000E9     4.678933610769963E-1   -1.196727621614843E-1   -1.154321425340657E-3   -1.035359400833524E-3   -1.216629266681230E-3   -1.028682575336632E-3    3.688219398505645E-1   -3.296240349330063E-1
 9.937471233424999E9     4.675239444186018E-1   -1.198778794901486E-1   -1.209503521708776E-3   -1.030223113537591E-3   -1.217097814427198E-3   -1.043534327015150E-3    3.683728202021573E-1   -3.299870848114670E-1
 9.937473760750000E9     4.676884000832511E-1   -1.200729050055825E-1   -1.220482965011083E-3   -1.086166622682783E-3   -1.245236970616657E-3   -1.084460917607482E-3    3.681687961104679E-1   -3.300526668040035E-1
 9.937476288075001E9     4.675622395299291E-1   -1.201838169981348E-1   -1.220235199500215E-3   -1.104844149918860E-3   -1.257987239155916E-3   -1.077410436821786E-3    3.678749281226012E-1   -3.303767487220338E-1
 9.937478815400000E9     4.674777292267638E-1   -1.204206659821499E-1   -1.258622996532146E-3   -1.118200437518525E-3   -1.299684377684025E-3   -1.133363733148183E-3    3.676771263730020E-1   -3.305533130943428E-1
 9.937481342725000E9     4.674301349594241E-1   -1.206769584312718E-1   -1.295014020258844E-3   -1.123439395678239E-3   -1.309424047968875E-3   -1.129322736473335E-3    3.673178118493297E-1   -3.308052569156809E-1
 9.937483870049999E9     4.673099827176839E-1   -1.206872135209621E-1   -1.272696311176791E-3   -1.154453893799476E-3   -1.351309166853766E-3   -1.121452664017763E-3    3.668083201951915E-1   -3.308961967555702E-1
 9.937486397375000E9     4.672333137203141E-1   -1.209323889344285E-1   -1.321368040621156E-3   -1.185117779254258E-3   -1.344467539454894E-3   -1.132735467981493E-3    3.668321486188487E-1   -3.313682616051734E-1
 9.937488924700001E9     4.672213995023896E-1   -1.211744373149518E-1   -1.337762145237632E-3   -1.197287834044334E-3   -1.340310610096394E-3   -1.146970230672705E-3    3.663423120165686E-1   -3.315724090819118E-1
 9.937491452025000E9     4.672202809793348E-1   -1.211897668585300E-1   -1.342793967337238E-3   -1.184049731024485E-3   -1.381533597767797E-3   -1.215364031609695E-3    3.660993647927166E-1   -3.317131321629748E-1
 9.937493979350000E9     4.672506755189426E-1   -1.214875810426890E-1   -1.404010343879788E-3   -1.188454694036815E-3   -1.419030676680361E-3   -1.173808808867595E-3    3.658584822847382E-1   -3.320086278149669E-1
 9.937496506674999E9     4.671179949617056E-1   -1.214703279907688E-1   -1.443132872918599E-3   -1.254380484934921E-3   -1.430323407527692E-3   -1.202960604850737E-3    3.653729052624240E-1   -3.323628375173878E-1
 9.937499034000000E9     4.670223678839893E-1   -1.216829456948276E-1   -1.413524858887437E-3   -1.237744276214754E-3   -1.478226595547488E-3   -1.228604290266010E-3    3.651391230511793E-1   -3.323269301713959E-1
 9.937501561325001E9     4.670624104912902E-1   -1.219090960365221E-1   -1.491191625727168E-3   -1.271965005417161E-3   -1.462892866979080E-3   -1.255145898533419E-3    3.646337403772943E-1   -3.327561698761354E-1
 9.937504088650000E9     4.669736505255295E-1   -1.219663604858273E-1   -1.497947205216680E-3   -1.284073541019845E-3   -1.516397745602802E-3   -1.277060063917268E-3    3.643895136911229E-1   -3.328842737177696E-1
 9.937506615975000E9     4.667042507415481E-1   -1.223131458664849E-1   -1.479878171919689E-3   -1.278338342141223E-3   -1.584092802211368E-3   -1.269820736118321E-3    3.640615112859092E-1   -3.331653009520281E-1
 9.937509143299999E9     4.668114565590762E-1   -1.223874062343157E-1   -1.515192556178826E-3   -1.273512766716832E-3   -1.553083328481706E-3   -1.317956460395814E-3    3.636668616237716E-1   -3.333768708270891E-1
 9.937511670625000E9     4.668077545480925E-1   -1.224757562539506E-1   -1.539349435561176E-3   -1.333997493754020E-3   -1.621147167766992E-3   -1.333619567762165E-3    3.631057927367143E-1   -3.335901939393591E-1
 9.937514197950001E9     4.667012228951302E-1   -1.227530839113288E-1   -1.564502398154292E-3   -1.363388029650085E-3   -1.660539089038965E-3   -1.335273343800672E-3    3.630456626330706E-1   -3.339850403140783E-1
 9.937516725275000E9     4.664882851085100E-1   -1.228905844947250E-1   -1.620876251945327E-3   -1.390575249622430E-3   -1.658511681696391E-3   -1.360269745239436E-3    3.625070803025446E-1   -3.341896803693672E-1
 9.937519252600000E9     4.665537288931454E-1   -1.231039029921210E-1   -1.678476940180990E-3   -1.380983440251227E-3   -1.708750862161494E-3   -1.376641423613301E-3    3.621905455644540E-1   -3.344101024638608E-1
 9.937521779924999E9     4.664696192951219E-1   -1.233664193879278E-1   -1.692996950895784E-3   -1.408077711465248E-3   -1.714797639340777E-3   -1.393739936524067E-3    3.618604412210785E-1   -3.345692909993798E-1
 9.937524307250000E9     4.663947806356240E-1   -1.234094905368731E-1   -1.718360599077863E-3   -1.425318299483064E-3   -1.772980214474930E-3   -1.410720823689301E-3    3.615062185901098E-1   -3.347894645135304E-1
