#  HZ   S   RI   R     50.00 
! Rohde & Schwarz Vector Network Analyzer 
! Rohde-Schwarz,ZNB20-2Port,1311601062101988,3.16
! Created: UTC 3/20/2024, 11:10:18 PM
! freq[Hz]                re:S11                  im:S11                  re:S21                  im:S21                  re:S12                  im:S12                  re:S22                  im:S22
 9.937301923000000E9     4.712486057720752E-1   -1.085606987754135E-1   -3.634447157451647E-4   -3.140200684412937E-4   -3.809804630843252E-4   -3.289396881983162E-4    3.839308143424315E-1   -3.167767414516543E-1
 9.937304430450001E9     4.711709907387642E-1   -1.087125235497601E-1   -3.725165842771544E-4   -3.183048857579844E-4   -3.914234468508626E-4   -3.176963855166405E-4    3.838273508224101E-1   -3.172209745365679E-1
 9.937306937900000E9     4.710980160941601E-1   -1.088116250454766E-1   -3.592756567675701E-4   -3.550145201208419E-4   -3.715520907309334E-4   -3.321594733006206E-4    3.835478385597864E-1   -3.171430864256387E-1
 9.937309445350000E9     4.710695605103490E-1   -1.090812784775749E-1   -3.810050566454333E-4   -3.192399174686522E-4   -3.932826480606992E-4   -3.346888845304212E-4    3.835389552852413E-1   -3.172429390061626E-1
 9.937311952799999E9     4.709819777685651E-1   -1.093592943122493E-1   -4.042638831954208E-4   -3.209056788436202E-4   -4.034244327438295E-4   -3.486813045419086E-4    3.831656319110196E-1   -3.175980958394641E-1
 9.937314460250000E9     4.709361220391350E-1   -1.094236593262237E-1   -4.037437224889897E-4   -3.298730661639496E-4   -3.888727074758471E-4   -3.664210578057989E-4    3.829214561429997E-1   -3.178141776306083E-1
 9.937316967700001E9     4.709898162712937E-1   -1.095671510478837E-1   -3.901391221655302E-4   -3.684383966714133E-4   -4.109560432210598E-4   -3.388600819333075E-4    3.828652104541786E-1   -3.179253200632459E-1
 9.937319475150000E9     4.708234659012392E-1   -1.097046923753132E-1   -4.082562372379813E-4   -3.813980045581705E-4   -4.305134677544570E-4   -3.478753406933678E-4    3.825043803394932E-1   -3.181381661966324E-1
 9.937321982600000E9     4.708782194507107E-1   -1.099332282195382E-1   -4.168939983281244E-4   -4.392736219396133E-4   -4.030028556103304E-4   -3.730952582053297E-4    3.823442851758944E-1   -3.184115050110204E-1
 9.937324490049999E9     4.707569231933418E-1   -1.101292438030858E-1   -4.211371868047848E-4   -4.050325794075507E-4   -4.139974605901425E-4   -3.916075260829631E-4    3.822203226433543E-1   -3.185597775410305E-1
 9.937326997500000E9     4.707110799154001E-1   -1.101781031527123E-1   -4.313759003176994E-4   -4.148757538719045E-4   -4.371597872828749E-4   -4.042803732056115E-4    3.819947331777366E-1   -3.184619868976002E-1
 9.937329504950001E9     4.706834305597744E-1   -1.104721097390099E-1   -4.445285482733485E-4   -4.178595556076317E-4   -4.545640679494782E-4   -4.136597290937894E-4    3.817327800078726E-1   -3.188790233630572E-1
 9.937332012400000E9     4.705946664094788E-1   -1.105893341673390E-1   -4.615135761835368E-4   -3.993600431397027E-4   -4.779764583800291E-4   -4.219744766941194E-4    3.815543912147120E-1   -3.191713755113446E-1
 9.937334519850000E9     4.703803661607193E-1   -1.107546493682695E-1   -4.722627579038539E-4   -4.398272113161829E-4   -4.678652912625837E-4   -3.952707944702284E-4    3.814364646563736E-1   -3.193316854679401E-1
 9.937337027299999E9     4.704101105838276E-1   -1.109401315734622E-1   -4.560397811897745E-4   -4.329385126963962E-4   -4.526780802933341E-4   -4.127505667003723E-4    3.812976618992097E-1   -3.194034411481207E-1
 9.937339534750000E9     4.705229904287215E-1   -1.109884438548722E-1   -4.773369107156299E-4   -4.425658415426355E-4   -4.999178761020445E-4   -4.358254763408203E-4    3.811266839021596E-1   -3.195508405396695E-1
 9.937342042200001E9     4.702948768852447E-1   -1.112261035966161E-1   -4.959005751539324E-4   -4.712287963545489E-4   -5.017260591990790E-4   -4.375637610730858E-4    3.809163865664156E-1   -3.196034115167096E-1
 9.937344549650000E9     4.704576766232196E-1   -1.114951962907130E-1   -5.201682393420361E-4   -4.769863760580552E-4   -5.179184761453918E-4   -4.806127205434624E-4    3.806749992831278E-1   -3.198897317620252E-1
 9.937347057100000E9     4.702431403226648E-1   -1.115261492066477E-1   -5.496561086030724E-4   -4.629251397191188E-4   -5.222389537164752E-4   -4.425847815373792E-4    3.805760004238446E-1   -3.200176943162630E-1
 9.937349564549999E9     4.701973608368191E-1   -1.117876766419329E-1   -4.955129487558342E-4   -4.659874956351424E-4   -5.290424628857754E-4   -4.772985506069090E-4    3.802220992342918E-1   -3.203219355947605E-1
 9.937352072000000E9     4.701946797636289E-1   -1.119239206905025E-1   -5.370844899772849E-4   -4.543800451308272E-4   -5.575233723815153E-4   -4.789494535451173E-4    3.802199661274195E-1   -3.204412052528064E-1
 9.937354579450001E9     4.701458065349183E-1   -1.120059027856853E-1   -5.514238981718799E-4   -4.783002885371870E-4   -5.621452884580639E-4   -4.982897585162261E-4    3.798622554613200E-1   -3.206423151840588E-1
 9.937357086900000E9     4.700039994064729E-1   -1.123528351192304E-1   -5.778012259404719E-4   -5.195666826968181E-4   -5.419546410427258E-4   -5.313945857273340E-4    3.797875146929797E-1   -3.208725136615065E-1
 9.937359594350000E9     4.699581444986111E-1   -1.123978081195856E-1   -5.559108118487848E-4   -5.324131193135884E-4   -5.494622712427582E-4   -5.116280174699020E-4    3.794477804580100E-1   -3.211376963916238E-1
 9.937362101799999E9     4.699913854525055E-1   -1.126101566493769E-1   -5.794433564345924E-4   -5.146412279027905E-4   -6.167850487959398E-4   -5.553488410740199E-4    3.792266526191718E-1   -3.211726536357170E-1
 9.937364609250000E9     4.698560189205935E-1   -1.127317694698287E-1   -6.078556173466515E-4   -5.308273328221319E-4   -5.842750983201759E-4   -5.454499672919903E-4    3.789826465284947E-1   -3.214428089698067E-1
 9.937367116700001E9     4.698520395293977E-1   -1.129666762410184E-1   -5.508222069010765E-4   -5.892313749685329E-4   -6.202119177304255E-4   -5.509827580372158E-4    3.789202910147455E-1   -3.216286542625968E-1
 9.937369624150000E9     4.698898351898115E-1   -1.131125560522813E-1   -5.784197335797096E-4   -5.524516928258439E-4   -6.205927308296890E-4   -5.631847101871864E-4    3.786008569042999E-1   -3.218265991784021E-1
 9.937372131600000E9     4.696958555739210E-1   -1.132105716165061E-1   -6.146306980120253E-4   -5.888176631464148E-4   -6.233921290384935E-4   -5.603110195858995E-4    3.784023008118043E-1   -3.218972601170143E-1
 9.937374639049999E9     4.697673325085037E-1   -1.133770768238260E-1   -6.317387181878975E-4   -5.742853307623614E-4   -6.205698870700384E-4   -5.772127586939941E-4    3.782482698011381E-1   -3.221993583028391E-1
 9.937377146500000E9     4.696625005738266E-1   -1.135760388330119E-1   -6.205466573790055E-4   -5.717754156617011E-4   -6.159935748309833E-4   -5.867984336953282E-4    3.780964881938563E-1   -3.225408089786332E-1
 9.937379653950001E9     4.695772496809640E-1   -1.136131936246864E-1   -6.441857054019968E-4   -5.911613621509250E-4   -6.356220983338147E-4   -5.857487553101121E-4    3.778980602901372E-1   -3.226849092724722E-1
 9.937382161400000E9     4.695693543788766E-1   -1.139020434719848E-1   -6.535028482600141E-4   -6.004380081370775E-4   -6.684354971301345E-4   -5.795481602254599E-4    3.776614481714671E-1   -3.227959052296200E-1
 9.937384668850000E9     4.693889967881892E-1   -1.141244022910786E-1   -6.337283365981128E-4   -5.976677939353856E-4   -6.381493533854398E-4   -6.185514796110383E-4    3.774152488526256E-1   -3.229707094894708E-1
 9.937387176299999E9     4.695029323804950E-1   -1.141590799165230E-1   -6.833269332715732E-4   -6.400997800572330E-4   -7.042921961496303E-4   -6.183020834820922E-4    3.771970608538757E-1   -3.231024373546628E-1
 9.937389683750000E9     4.693562894038312E-1   -1.145685177968601E-1   -6.854652647401782E-4   -6.259129338319320E-4   -6.983915720057820E-4   -6.009950640087815E-4    3.768558025423971E-1   -3.234084933502131E-1
 9.937392191200001E9     4.692500083381919E-1   -1.145790004373781E-1   -7.034922137695466E-4   -6.578585300455701E-4   -6.937842916468721E-4   -6.431819274137596E-4    3.764682741393732E-1   -3.235274511191795E-1
 9.937394698650000E9     4.692213047266139E-1   -1.148814050612481E-1   -7.460242832744437E-4   -6.724510869606866E-4   -7.394451523573774E-4   -6.479105583087993E-4    3.764829412424227E-1   -3.236260532556885E-1
 9.937397206100000E9     4.692811632716343E-1   -1.149761181531582E-1   -7.319591776173141E-4   -7.083158555570621E-4   -7.385538818926191E-4   -6.713058538378505E-4    3.762845338808450E-1   -3.238451587835560E-1
 9.937399713549999E9     4.691616596330360E-1   -1.151010940035949E-1   -7.248724872642045E-4   -6.890617456702602E-4   -7.709323053073396E-4   -6.674000225080036E-4    3.758597492535783E-1   -3.241163717941040E-1
 9.937402221000000E9     4.691219960837711E-1   -1.152060221159768E-1   -7.467784421290727E-4   -6.799580036572946E-4   -7.683107441205392E-4   -6.935376529433179E-4    3.757362142850547E-1   -3.243545308157817E-1
 9.937404728450001E9     4.690050532002278E-1   -1.154074235898901E-1   -7.655782862368275E-4   -6.792986466268386E-4   -7.678065854347555E-4   -6.912254079671150E-4    3.754318601278157E-1   -3.245447216756856E-1
 9.937407235900000E9     4.689917627400557E-1   -1.156372342001461E-1   -8.034202406913212E-4   -7.463461452102733E-4   -7.817523741397509E-4   -7.224218989503317E-4    3.754543584906881E-1   -3.246200198251556E-1
 9.937409743350000E9     4.689521921059083E-1   -1.158278857268836E-1   -7.650589857569638E-4   -7.387248144625842E-4   -8.176169933605972E-4   -7.018396886099352E-4    3.750458055531010E-1   -3.248888608938271E-1
 9.937412250799999E9     4.689336410855130E-1   -1.159709663908114E-1   -8.097816075769532E-4   -7.258201198413572E-4   -8.117547475312877E-4   -7.324300141031874E-4    3.748245120561693E-1   -3.251102494798834E-1
 9.937414758250000E9     4.689126547401748E-1   -1.160764261109229E-1   -8.110402245108142E-4   -7.474521564956327E-4   -7.976982190529222E-4   -7.452984548269973E-4    3.746266056475087E-1   -3.251855706187948E-1
 9.937417265700001E9     4.688839893174745E-1   -1.162453525159995E-1   -8.720210951733670E-4   -7.550433621927279E-4   -8.534918416010942E-4   -7.492654846299411E-4    3.744446259822056E-1   -3.253592232480620E-1
 9.937419773150000E9     4.687342648427952E-1   -1.164593517645496E-1   -8.265863315357361E-4   -8.067306569333556E-4   -8.480857501963168E-4   -7.586428496964262E-4    3.739609769784174E-1   -3.255562954501906E-1
 9.937422280600000E9     4.687030858403091E-1   -1.165330125665137E-1   -8.361753420445998E-4   -8.157648042998652E-4   -8.805238597047173E-4   -7.999807787414031E-4    3.738311129537387E-1   -3.258588220042036E-1
 9.937424788049999E9     4.685780409665996E-1   -1.166877063408763E-1   -8.514448225157317E-4   -7.830113232406229E-4   -8.608638807304703E-4   -7.892000914279695E-4    3.736595397173829E-1   -3.260589181980978E-1
 9.937427295500000E9     4.686134909086305E-1   -1.169890619532452E-1   -8.866769405424544E-4   -8.262538917742003E-4   -9.105490236067246E-4   -7.946028410112561E-4    3.733682475378864E-1   -3.261892274553657E-1
 9.937429802950001E9     4.685566200061236E-1   -1.170181087827236E-1   -8.994035516315857E-4   -8.405408999149697E-4   -9.222587386422528E-4   -8.550196229168584E-4    3.731009163782947E-1   -3.264323112101683E-1
 9.937432310400000E9     4.686042730495644E-1   -1.173519783002262E-1   -9.374564597685479E-4   -8.184218369032582E-4   -9.842727111282019E-4   -8.291930329467708E-4    3.727597973757867E-1   -3.267940671994655E-1
 9.937434817850000E9     4.683864961319996E-1   -1.174744898478461E-1   -9.349383713851944E-4   -8.630050549636350E-4   -1.004857075999958E-3   -8.464595340319590E-4    3.726047936674360E-1   -3.268069906262044E-1
 9.937437325299999E9     4.683717241887354E-1   -1.175776942048208E-1   -9.441011414997875E-4   -8.643721251636454E-4   -9.700786392520472E-4   -8.277573881777032E-4    3.723660358961576E-1   -3.270452446058115E-1
 9.937439832750000E9     4.683870654772342E-1   -1.176929857243015E-1   -9.561077466433020E-4   -8.982366177505782E-4   -9.607230792547778E-4   -8.674075449744892E-4    3.721766538961173E-1   -3.272002232914406E-1
 9.937442340200001E9     4.683937702290981E-1   -1.180489075517445E-1   -9.671120421768602E-4   -8.518123176797861E-4   -1.011864690120978E-3   -8.662229601731682E-4    3.718057116667960E-1   -3.276824741584267E-1
 9.937444847650000E9     4.681923447687036E-1   -1.180030432480546E-1   -9.749778262405533E-4   -8.994065866520431E-4   -1.005794371084188E-3   -9.178081387648133E-4    3.715718802053483E-1   -3.275688609176406E-1
 9.937447355100000E9     4.681670380023220E-1   -1.182388860842977E-1   -1.013058839247514E-3   -9.326195776036358E-4   -1.004880912734866E-3   -8.995923327759555E-4    3.711597472523242E-1   -3.279634165824595E-1
 9.937449862549999E9     4.681084658349474E-1   -1.185296060047347E-1   -1.009385580758714E-3   -9.198023600011685E-4   -1.053996553923124E-3   -9.415124412318025E-4    3.709798891494474E-1   -3.280644774844310E-1
 9.937452370000000E9     4.680098618664505E-1   -1.187069390654348E-1   -1.038112867866529E-3   -9.902587064795462E-4   -1.082470891457042E-3   -8.916336428895414E-4    3.707289439965700E-1   -3.281599562539644E-1
 9.937454877450001E9     4.680020486230761E-1   -1.187383145314627E-1   -1.042498305912474E-3   -9.733013044427898E-4   -1.102621090933205E-3   -9.663674642882772E-4    3.705152890798891E-1   -3.284315582688841E-1
 9.937457384900000E9     4.679164186360773E-1   -1.190083914716340E-1   -1.071322170987287E-3   -9.590980156580284E-4   -1.126188013755247E-3   -9.560433986589449E-4    3.703443723967813E-1   -3.287146089197520E-1
 9.937459892350000E9     4.678430370751033E-1   -1.191184298034791E-1   -1.091294905078794E-3   -9.727807702298288E-4   -1.104724583708720E-3   -9.650368180537457E-4    3.700363705645800E-1   -3.290706521915787E-1
 9.937462399799999E9     4.678175088287326E-1   -1.192281685180394E-1   -1.105505838309554E-3   -1.019848629536783E-3   -1.149032787769773E-3   -9.735521178180791E-4    3.697537073889625E-1   -3.291991294725357E-1
 9.937464907250000E9     4.678557072791293E-1   -1.193868845812209E-1   -1.151852865701769E-3   -1.021072836659400E-3   -1.160840211103321E-3   -1.018480641051251E-3    3.695568240253519E-1   -3.293027237864740E-1
 9.937467414700001E9     4.677396557014394E-1   -1.195542685899511E-1   -1.139125216394860E-3   -1.038316601974653E-3   -1.183250191477221E-3   -1.016763480009190E-3    3.689840860427814E-1   -3.294378705472488E-1
 9.937469922150000E9     4.676806789670395E-1   -1.199433019410961E-1   -1.154080724058931E-3   -1.055971538214273E-3   -1.199728449387948E-3   -1.035540133649715E-3    3.688762988994314E-1   -3.300223832998538E-1
 9.937472429600000E9     4.676478930960740E-1   -1.199726571780539E-1   -1.193839660496954E-3   -1.049104138323983E-3   -1.229121784545045E-3   -1.034244906892474E-3    3.686599170234729E-1   -3.300467015516755E-1
 9.937474937049999E9     4.675045592756399E-1   -1.202593788942322E-1   -1.194404734401916E-3   -1.050893521483218E-3   -1.242112079859993E-3   -1.092149611846554E-3    3.682100975361597E-1   -3.301026144246523E-1
 9.937477444500000E9     4.676098293302779E-1   -1.204104539914234E-1   -1.201533614952931E-3   -1.099900350560418E-3   -1.263945718235180E-3   -1.088039228907023E-3    3.680318487910325E-1   -3.303421927381958E-1
 9.937479951950001E9     4.675299809035897E-1   -1.204588941694426E-1   -1.255238194197730E-3   -1.108747509446738E-3   -1.282792144971501E-3   -1.131496924794181E-3    3.674250404159242E-1   -3.307466494618558E-1
 9.937482459400000E9     4.674871711221255E-1   -1.207306212183016E-1   -1.291272485086180E-3   -1.124678133036690E-3   -1.275697716618736E-3   -1.115654848507889E-3    3.673497119187584E-1   -3.309510371689659E-1
 9.937484966850000E9     4.673461623157406E-1   -1.207679948626489E-1   -1.296682044833439E-3   -1.136576694744624E-3   -1.328657063286942E-3   -1.161229812809730E-3    3.669190627956316E-1   -3.312452801044013E-1
 9.937487474299999E9     4.672737680565183E-1   -1.209496910513980E-1   -1.324006040619630E-3   -1.166927395059354E-3   -1.347685782558141E-3   -1.161388846689802E-3    3.666732022126267E-1   -3.312660020057425E-1
 9.937489981750000E9     4.672225514414814E-1   -1.211840540624125E-1   -1.321195017972677E-3   -1.160362672040977E-3   -1.374498551669033E-3   -1.166928271279977E-3    3.661368108432494E-1   -3.315612322631947E-1
 9.937492489200001E9     4.670890639738048E-1   -1.212841022246016E-1   -1.385792672730898E-3   -1.173211206770324E-3   -1.404476151890202E-3   -1.210792432717257E-3    3.659526321591439E-1   -3.318307821215308E-1
 9.937494996650000E9     4.672048280962398E-1   -1.214936315395069E-1   -1.353539524454699E-3   -1.202416613304792E-3   -1.432194862561417E-3   -1.171577955809266E-3    3.656433452647914E-1   -3.319695461250439E-1
 9.937497504100000E9     4.670003859121853E-1   -1.216483054318742E-1   -1.422315878898489E-3   -1.197499440718719E-3   -1.434315581294089E-3   -1.208281423007643E-3    3.653628682260310E-1   -3.323441566596088E-1
 9.937500011549999E9     4.669630098794701E-1   -1.218935792612831E-1   -1.419198298257881E-3   -1.264083781513038E-3   -1.443837503043041E-3   -1.246748199091383E-3    3.651935342308296E-1   -3.325118576636387E-1
 9.937502519000000E9     4.670216531165990E-1   -1.219200202074113E-1   -1.453875626932633E-3   -1.214456656752319E-3   -1.484733192072523E-3   -1.253655102306218E-3    3.648734164656645E-1   -3.326946503278778E-1
 9.937505026450001E9     4.669641841427406E-1   -1.221509903821938E-1   -1.476395737176412E-3   -1.297141950756623E-3   -1.476608873049674E-3   -1.272606299693888E-3    3.644519876597354E-1   -3.329075546661708E-1
 9.937507533900000E9     4.668452999001835E-1   -1.221990424540898E-1   -1.477941400113203E-3   -1.321308059971495E-3   -1.531465986639978E-3   -1.264408470574061E-3    3.641904840389858E-1   -3.331638093990256E-1
 9.937510041350000E9     4.667379502539019E-1   -1.224858475388351E-1   -1.497692853292515E-3   -1.304445168741298E-3   -1.529110139608436E-3   -1.320145087325813E-3    3.638442721079457E-1   -3.333954800036286E-1
 9.937512548799999E9     4.667946978083761E-1   -1.226793076665321E-1   -1.560755112405155E-3   -1.326039972719737E-3   -1.586073507414647E-3   -1.319278052605216E-3    3.634373367974598E-1   -3.333985686107725E-1
 9.937515056250000E9     4.665848937612322E-1   -1.228600878629986E-1   -1.560754562122756E-3   -1.346811491004918E-3   -1.633127555880018E-3   -1.376079452408765E-3    3.631788663451762E-1   -3.338974579016610E-1
 9.937517563700001E9     4.665453271582918E-1   -1.229968391882039E-1   -1.628331664693855E-3   -1.384262924303327E-3   -1.644291685741675E-3   -1.346129607897678E-3    3.626291195324045E-1   -3.340784216525871E-1
 9.937520071150000E9     4.664767455303713E-1   -1.232156642944037E-1   -1.633103860890998E-3   -1.374278126894258E-3   -1.671168969092425E-3   -1.315189704075562E-3    3.623630078659112E-1   -3.342013606060613E-1
 9.937522578600000E9     4.665468992303444E-1   -1.234064403712584E-1   -1.655090761743695E-3   -1.409291890234554E-3   -1.709398734116966E-3   -1.403814811803306E-3    3.619815039300798E-1   -3.344699945061544E-1
 9.937525086049999E9     4.664598223884578E-1   -1.235468346351135E-1   -1.702197308002818E-3   -1.456370885563816E-3   -1.758949918088284E-3   -1.410766711980097E-3    3.615755023414441E-1   -3.347009741878168E-1
 9.937527593500000E9     4.663560147464857E-1   -1.236951352363469E-1   -1.737975770690914E-3   -1.441161098750578E-3   -1.774839930064765E-3   -1.427052057044449E-3    3.612313206983563E-1   -3.349873402707705E-1
