#  HZ   S   RI   R     50.00 
! Rohde & Schwarz Vector Network Analyzer 
! Rohde-Schwarz,ZNB20-2Port,1311601062101988,3.16
! Created: UTC 3/20/2024, 11:10:43 PM
! freq[Hz]                re:S11                  im:S11                  re:S21                  im:S21                  re:S12                  im:S12                  re:S22                  im:S22
 9.937309319000000E9     4.710775737179675E-1   -1.090957796178070E-1   -3.272803135224972E-4   -3.100877001596237E-4   -3.956355204070897E-4   -3.345523373062735E-4    3.836563577963269E-1   -3.174279242466793E-1
 9.937311821225000E9     4.710560173785534E-1   -1.092293779105847E-1   -3.741254960480693E-4   -3.075483631411430E-4   -3.698833262062394E-4   -2.919994994598873E-4    3.834184557025304E-1   -3.174904769952793E-1
 9.937314323450001E9     4.708331925551040E-1   -1.093849599642390E-1   -3.734524648561159E-4   -3.606147609068787E-4   -3.788458137394059E-4   -3.114142651503111E-4    3.831250256983265E-1   -3.178967433385715E-1
 9.937316825674999E9     4.709279724019793E-1   -1.097219183331106E-1   -3.943279370514769E-4   -3.958146240256121E-4   -3.852756350871813E-4   -3.717975404320618E-4    3.830276342614276E-1   -3.179211812516625E-1
 9.937319327900000E9     4.707157439495088E-1   -1.097639179165830E-1   -3.821604176944930E-4   -3.479902224850018E-4   -4.034193613808873E-4   -3.979210113149402E-4    3.830167540305057E-1   -3.181321848972271E-1
 9.937321830125000E9     4.708947228117730E-1   -1.099171168660305E-1   -4.117560239085996E-4   -3.640714600973950E-4   -4.136719907365628E-4   -3.678440154560414E-4    3.825175555450893E-1   -3.182595777987207E-1
 9.937324332350000E9     4.707149876794331E-1   -1.101170857081187E-1   -4.266460937774645E-4   -3.705804307967488E-4   -4.396443501037064E-4   -3.779080176062918E-4    3.822003022820228E-1   -3.185492415410515E-1
 9.937326834575001E9     4.706344546547093E-1   -1.102447785571381E-1   -4.101456316904587E-4   -3.540675268099163E-4   -4.101827713182742E-4   -4.112038383306097E-4    3.821424602289339E-1   -3.185366819415980E-1
 9.937329336799999E9     4.706863223931648E-1   -1.104586060562606E-1   -4.440828170765189E-4   -3.938892050034336E-4   -4.386520967360921E-4   -3.840415194356626E-4    3.822052731824269E-1   -3.186610862170021E-1
 9.937331839025000E9     4.705728150979077E-1   -1.106303041019020E-1   -4.396701842047572E-4   -3.631890191615475E-4   -4.599905574452930E-4   -3.957962262876506E-4    3.819894560553364E-1   -3.189919283516852E-1
 9.937334341250000E9     4.705362278051856E-1   -1.108440263816107E-1   -4.542748773936738E-4   -4.389596118831476E-4   -4.347882448963332E-4   -4.090709699134217E-4    3.814938102784449E-1   -3.190528589510132E-1
 9.937336843475000E9     4.704793839086289E-1   -1.108746181801377E-1   -4.545345295204624E-4   -4.414560153652395E-4   -4.484980554038570E-4   -4.006029137903850E-4    3.814170882802610E-1   -3.192042362214909E-1
 9.937339345700001E9     4.704994475059404E-1   -1.111454904030484E-1   -4.612961032824686E-4   -4.106716010108666E-4   -4.761599767515340E-4   -4.286871624619123E-4    3.813522823459318E-1   -3.194237957207809E-1
 9.937341847924999E9     4.704026058240766E-1   -1.111399596169644E-1   -4.680538075964450E-4   -4.444709445102968E-4   -4.890085765615708E-4   -4.391448476266138E-4    3.809777985139655E-1   -3.196963842594622E-1
 9.937344350150000E9     4.702622642725720E-1   -1.114207236517805E-1   -4.585374619123622E-4   -4.762807800297665E-4   -4.926796526689307E-4   -4.485194772605054E-4    3.807864270956505E-1   -3.200014268806763E-1
 9.937346852375000E9     4.702243690559733E-1   -1.115278395889704E-1   -4.639965329353223E-4   -4.553756557923111E-4   -4.789987626480277E-4   -4.405189506964285E-4    3.806098807251906E-1   -3.201438207198101E-1
 9.937349354600000E9     4.702531584101141E-1   -1.118516995377993E-1   -4.659945666183996E-4   -4.291948919950555E-4   -5.278245523463497E-4   -4.448552152549600E-4    3.805355218736001E-1   -3.203791287679321E-1
 9.937351856825001E9     4.701109215854861E-1   -1.119267881422509E-1   -5.146469854663652E-4   -4.569565786027020E-4   -4.948302617156406E-4   -4.732328142500629E-4    3.803131796513644E-1   -3.204625327378235E-1
 9.937354359049999E9     4.702007575524197E-1   -1.121582997978333E-1   -5.001376202658001E-4   -4.755159124789276E-4   -5.030569724979114E-4   -4.770239410969089E-4    3.799304359840334E-1   -3.206497713215989E-1
 9.937356861275000E9     4.699478641924794E-1   -1.122552241957469E-1   -5.257710886432036E-4   -4.812516377036060E-4   -5.501626954110202E-4   -4.837702247734763E-4    3.798724017799981E-1   -3.208233168825418E-1
 9.937359363500000E9     4.700538526362203E-1   -1.124682948509882E-1   -5.354859735995167E-4   -4.870583623248306E-4   -5.771178622087018E-4   -4.923472658849106E-4    3.795656398283970E-1   -3.210105188450526E-1
 9.937361865725000E9     4.699668231829145E-1   -1.126647501913705E-1   -5.697192071190406E-4   -5.229600557970192E-4   -5.814116203662525E-4   -4.938966052257514E-4    3.795383958118106E-1   -3.211072475242552E-1
 9.937364367950001E9     4.698872491005436E-1   -1.128194423663233E-1   -5.324965432631093E-4   -4.977758345176424E-4   -5.911402654807925E-4   -5.131852490129535E-4    3.792566428278259E-1   -3.214495113184325E-1
 9.937366870174999E9     4.697597891360266E-1   -1.129001854167134E-1   -5.487617891650946E-4   -5.477541493128387E-4   -5.509403245900496E-4   -5.149026337088325E-4    3.790778593213179E-1   -3.215513533772054E-1
 9.937369372400000E9     4.697701054976757E-1   -1.130826785515335E-1   -5.726328276124843E-4   -5.502074142631592E-4   -5.784048957797666E-4   -5.332407336174498E-4    3.787588098981689E-1   -3.216163636941767E-1
 9.937371874625000E9     4.697780964923699E-1   -1.132170274770992E-1   -5.456049616239458E-4   -5.661371103221805E-4   -6.147725590014694E-4   -5.422492625274425E-4    3.787145855986536E-1   -3.220297625712767E-1
 9.937374376850000E9     4.697309498869501E-1   -1.134666015457416E-1   -5.897852109020662E-4   -5.401706961425340E-4   -5.883413789021779E-4   -5.427425523596712E-4    3.784426084336022E-1   -3.222062344514615E-1
 9.937376879075001E9     4.695557121498830E-1   -1.136708815823526E-1   -5.952892670920916E-4   -5.621937675428343E-4   -6.255324722009810E-4   -5.614490039492559E-4    3.782225544647851E-1   -3.223045637336687E-1
 9.937379381299999E9     4.694850178425857E-1   -1.136574768650382E-1   -5.967351727038060E-4   -5.662024221401208E-4   -6.433472224024985E-4   -5.758451919017036E-4    3.779631927092686E-1   -3.224344681162740E-1
 9.937381883525000E9     4.696212721103142E-1   -1.140712689119340E-1   -6.226059384224481E-4   -5.837997281223562E-4   -6.488656720646655E-4   -5.831603502193603E-4    3.779225193354032E-1   -3.227427991293614E-1
 9.937384385750000E9     4.695250848113004E-1   -1.140934955194918E-1   -6.126340400082502E-4   -5.722962065925734E-4   -6.398014168624483E-4   -5.905287662388929E-4    3.775779314408775E-1   -3.227572550522169E-1
 9.937386887975000E9     4.694751522001202E-1   -1.142085529689967E-1   -6.335799171882214E-4   -6.277938383236900E-4   -6.656024718862571E-4   -6.215269751340120E-4    3.772399788735850E-1   -3.229046009408019E-1
 9.937389390200001E9     4.693093790472125E-1   -1.143403868837862E-1   -6.262243605509803E-4   -6.225903513545063E-4   -6.511390736929439E-4   -6.059324402150469E-4    3.770723045946740E-1   -3.232156408652272E-1
 9.937391892424999E9     4.693645413683919E-1   -1.147441692217150E-1   -6.630355983878777E-4   -5.950439547497736E-4   -6.394217232685664E-4   -6.201284782923297E-4    3.769117970274923E-1   -3.234922115092881E-1
 9.937394394650000E9     4.693652507010410E-1   -1.147424025949905E-1   -6.726621477039148E-4   -6.120615629995952E-4   -7.095354076305332E-4   -5.921799831169999E-4    3.766372348819592E-1   -3.237099696049957E-1
 9.937396896875000E9     4.692404599037419E-1   -1.149320474318062E-1   -6.818892885189258E-4   -6.469371884753880E-4   -7.301951240686195E-4   -6.624329434209848E-4    3.765290636024951E-1   -3.239209910770739E-1
 9.937399399100000E9     4.692174059882305E-1   -1.150713728829623E-1   -7.238894109861554E-4   -6.716933484900093E-4   -7.282997538711551E-4   -6.564606700901683E-4    3.764173922672234E-1   -3.240749814667491E-1
 9.937401901325001E9     4.690907528440846E-1   -1.153236448446935E-1   -7.062442348625272E-4   -6.545796620579475E-4   -7.107283417115901E-4   -6.697126034818917E-4    3.759873195800653E-1   -3.243727737450603E-1
 9.937404403549999E9     4.690872170721424E-1   -1.154620171117756E-1   -7.224648537993950E-4   -6.971719566795827E-4   -7.615606489379840E-4   -6.484712201415579E-4    3.758729812739611E-1   -3.243190580441420E-1
 9.937406905775000E9     4.690337209365582E-1   -1.156024824469147E-1   -7.511257016911434E-4   -6.932199642351928E-4   -7.509626947625938E-4   -6.671957744985137E-4    3.756191047810865E-1   -3.247226126624946E-1
 9.937409408000000E9     4.688872339332325E-1   -1.158633996690912E-1   -7.777754156668896E-4   -6.988159842488003E-4   -7.728717804057278E-4   -6.806019437968734E-4    3.753887389697594E-1   -3.247974062829036E-1
 9.937411910225000E9     4.688589928512389E-1   -1.159731794355439E-1   -7.713669270432531E-4   -6.942606719118543E-4   -7.877783951941840E-4   -7.228430929703392E-4    3.749099127901133E-1   -3.251116490015312E-1
 9.937414412450001E9     4.688464936437868E-1   -1.160946343446230E-1   -7.711172026981900E-4   -7.279000486024251E-4   -7.971053083686944E-4   -7.444620222992736E-4    3.747992871934290E-1   -3.252657935510174E-1
 9.937416914674999E9     4.688170410683231E-1   -1.163019072817815E-1   -7.951845475464385E-4   -7.101420189371172E-4   -8.041830835409859E-4   -7.421621281814377E-4    3.746101158389123E-1   -3.252645986339865E-1
 9.937419416900000E9     4.687428663895870E-1   -1.163814473826228E-1   -7.941460626072299E-4   -7.082568835172689E-4   -8.024846758212553E-4   -7.499997730787826E-4    3.744644448512193E-1   -3.254790695581868E-1
 9.937421919125000E9     4.686259975985302E-1   -1.166351896746467E-1   -8.384299989671283E-4   -7.549023286471415E-4   -7.993790476338350E-4   -7.698924914214655E-4    3.742335206763725E-1   -3.258109109855022E-1
 9.937424421350000E9     4.687282807511162E-1   -1.169001783783787E-1   -8.131676047314569E-4   -7.816645674591297E-4   -8.578709371969646E-4   -7.491788804797858E-4    3.739620259686220E-1   -3.260058814904139E-1
 9.937426923575001E9     4.685286569837404E-1   -1.169839958155212E-1   -8.351415114680459E-4   -7.555171522142115E-4   -8.331527361967575E-4   -7.771359214533511E-4    3.737079999128173E-1   -3.262330402125737E-1
 9.937429425799999E9     4.685231102540096E-1   -1.171141813112731E-1   -8.751727422014374E-4   -7.994875588869767E-4   -8.475059470959658E-4   -7.941876650158103E-4    3.733915042810674E-1   -3.264166716530548E-1
 9.937431928025000E9     4.684249156885285E-1   -1.172848770323161E-1   -8.591908078802071E-4   -7.712651016919428E-4   -8.844081084586489E-4   -8.125894714788789E-4    3.729930567614347E-1   -3.264586560988351E-1
 9.937434430250000E9     4.685071864301439E-1   -1.174254054186062E-1   -8.813825125722557E-4   -8.175240664759485E-4   -9.143420711391211E-4   -8.120669704845631E-4    3.731428243975378E-1   -3.267552605406148E-1
 9.937436932475000E9     4.683428739018289E-1   -1.176104210778242E-1   -9.111226347424353E-4   -8.470542324375277E-4   -8.953781002056439E-4   -8.081683682003577E-4    3.725825621981848E-1   -3.269143787520606E-1
 9.937439434700001E9     4.684290760040505E-1   -1.177776841175208E-1   -9.541351592206815E-4   -8.566160971461150E-4   -9.449651631898690E-4   -8.288908720358665E-4    3.725859645667641E-1   -3.271845900167699E-1
 9.937441936924999E9     4.683322751754541E-1   -1.180485943889571E-1   -9.547319842121895E-4   -8.857216398440233E-4   -9.524204755060249E-4   -8.371265325624844E-4    3.721740579365980E-1   -3.273111006562298E-1
 9.937444439150000E9     4.681437464463175E-1   -1.182361644579015E-1   -9.983591152662385E-4   -8.952775213522145E-4   -9.775262108903629E-4   -8.802315684351810E-4    3.720124429789976E-1   -3.276876308319432E-1
 9.937446941375000E9     4.683443291111338E-1   -1.182884513679438E-1   -9.710331633133139E-4   -8.780142746259272E-4   -9.965406310093578E-4   -8.778654137241668E-4    3.718558065432415E-1   -3.275625830373575E-1
 9.937449443600000E9     4.680463807672688E-1   -1.185466215959162E-1   -9.888836767596603E-4   -8.969077267411535E-4   -1.012678857030532E-3   -8.815635162794904E-4    3.712788045905780E-1   -3.278178807769289E-1
 9.937451945825001E9     4.680535904737864E-1   -1.186842440502466E-1   -9.965829912611534E-4   -9.241298908681810E-4   -1.022450904299042E-3   -8.890365575065023E-4    3.711869721900834E-1   -3.282638821687427E-1
 9.937454448049999E9     4.680792454628484E-1   -1.188063058560031E-1   -9.965393541951268E-4   -9.346390148516780E-4   -1.030196366834246E-3   -9.146891521828422E-4    3.709522008273976E-1   -3.286220585015804E-1
 9.937456950275000E9     4.679393531605246E-1   -1.191666282083469E-1   -1.000724428247254E-3   -9.450169442747036E-4   -1.030666160866747E-3   -9.651302118503388E-4    3.706222895156061E-1   -3.286042585283934E-1
 9.937459452500000E9     4.678602155282293E-1   -1.192135840367622E-1   -1.051324304930387E-3   -9.394537299864321E-4   -1.081270835145648E-3   -9.440314609898488E-4    3.703364323189788E-1   -3.287760338833330E-1
 9.937461954725000E9     4.678746038403465E-1   -1.192291174083886E-1   -1.070091863749730E-3   -9.462543659148777E-4   -1.067440295417217E-3   -9.380624555852593E-4    3.698901056326178E-1   -3.290970021969079E-1
 9.937464456950001E9     4.677063518119886E-1   -1.195237668878314E-1   -1.085005420707468E-3   -9.843674458785943E-4   -1.112115872126312E-3   -9.493606352538989E-4    3.697688407634818E-1   -3.293876375067476E-1
 9.937466959174999E9     4.678020167493689E-1   -1.196082521454078E-1   -1.094947812488478E-3   -9.651439980480744E-4   -1.107970087418179E-3   -9.916522281192104E-4    3.695247744672418E-1   -3.293393192964576E-1
 9.937469461400000E9     4.676554830839132E-1   -1.197713476589644E-1   -1.095382524308214E-3   -9.974871351837462E-4   -1.150746357739574E-3   -9.675114263308406E-4    3.693488791932208E-1   -3.296243569259351E-1
 9.937471963625000E9     4.677054001405854E-1   -1.199277450982763E-1   -1.134978271710123E-3   -1.004092473256930E-3   -1.165364696136596E-3   -1.032970967649885E-3    3.687235599944622E-1   -3.299086172932016E-1
 9.937474465850000E9     4.676675224687133E-1   -1.201882315740287E-1   -1.132641179448631E-3   -1.049934994291564E-3   -1.172611162711687E-3   -1.047940206019888E-3    3.686214760082082E-1   -3.301401331470196E-1
 9.937476968075001E9     4.674830910339556E-1   -1.203158877927885E-1   -1.178912197389621E-3   -1.094810296556498E-3   -1.193213981011019E-3   -1.031062181718912E-3    3.683876662430803E-1   -3.303631012014494E-1
 9.937479470299999E9     4.674323236872658E-1   -1.203408719246919E-1   -1.198978485847991E-3   -1.073039248313912E-3   -1.225000160241348E-3   -1.051811208116283E-3    3.681859991198522E-1   -3.306627573717795E-1
 9.937481972525000E9     4.674704735565309E-1   -1.207341947227714E-1   -1.215585400153733E-3   -1.100312044511959E-3   -1.245227962914142E-3   -1.071768375483103E-3    3.678078018528375E-1   -3.307766611655355E-1
 9.937484474750000E9     4.672052112278342E-1   -1.207543031645420E-1   -1.222374839743800E-3   -1.094069837482749E-3   -1.277586630078124E-3   -1.107411628127040E-3    3.674386694396688E-1   -3.310784102309020E-1
 9.937486976975000E9     4.672582078202461E-1   -1.209322647817083E-1   -1.247306048355844E-3   -1.094881457918867E-3   -1.280862106024751E-3   -1.141079907990698E-3    3.671576888738607E-1   -3.312921698357893E-1
 9.937489479200001E9     4.672275409613502E-1   -1.212461167979269E-1   -1.282821876464468E-3   -1.115710252089229E-3   -1.296680660091772E-3   -1.112232433547195E-3    3.668668621109089E-1   -3.314304456149170E-1
 9.937491981424999E9     4.672039836496559E-1   -1.214231345539444E-1   -1.285669201540319E-3   -1.159515738166325E-3   -1.340580814516274E-3   -1.174686151623227E-3    3.666689148837059E-1   -3.316134982830825E-1
 9.937494483650000E9     4.670817581329744E-1   -1.214766234317571E-1   -1.333235372819913E-3   -1.197007807035345E-3   -1.335393828356970E-3   -1.175853323313031E-3    3.663403123248936E-1   -3.320181534222784E-1
 9.937496985875000E9     4.670950437537717E-1   -1.216791173028088E-1   -1.340911344660085E-3   -1.184226128205534E-3   -1.369630202144008E-3   -1.167271759680926E-3    3.660468300884295E-1   -3.320932126256465E-1
 9.937499488100000E9     4.671477070717562E-1   -1.217998009553302E-1   -1.376656133918859E-3   -1.222660999554239E-3   -1.390810649593307E-3   -1.180322539020185E-3    3.656900116608668E-1   -3.323746189382557E-1
 9.937501990325001E9     4.670111826088055E-1   -1.219606815491625E-1   -1.381722002253567E-3   -1.247381435762194E-3   -1.400839971106314E-3   -1.215611855796551E-3    3.652677390095565E-1   -3.325522263152184E-1
 9.937504492549999E9     4.667929832147386E-1   -1.220884096667631E-1   -1.408536586995905E-3   -1.250362629111843E-3   -1.494256072041933E-3   -1.215677662854660E-3    3.648577056203576E-1   -3.330043699992404E-1
 9.937506994775000E9     4.667381876701570E-1   -1.224224005287123E-1   -1.444655344389735E-3   -1.257930401165227E-3   -1.484131629772196E-3   -1.243846793932030E-3    3.647157414222152E-1   -3.328214171969222E-1
 9.937509497000000E9     4.667978543419784E-1   -1.224664226628068E-1   -1.478784379513540E-3   -1.236779876310516E-3   -1.499180047202869E-3   -1.283952404202231E-3    3.642853130680024E-1   -3.331787665273211E-1
 9.937511999225000E9     4.666624698771137E-1   -1.228287802519745E-1   -1.443342448356740E-3   -1.277450488440875E-3   -1.531498246793150E-3   -1.285493857498254E-3    3.640025853271993E-1   -3.334706667927850E-1
 9.937514501450001E9     4.667294911679676E-1   -1.228436398574963E-1   -1.527139194701681E-3   -1.315959889575009E-3   -1.567657921787877E-3   -1.302010500987355E-3    3.636517143466763E-1   -3.336246156897257E-1
 9.937517003674999E9     4.666396121243938E-1   -1.229882007909866E-1   -1.484095344323984E-3   -1.333679163372663E-3   -1.567344529119480E-3   -1.311962996525224E-3    3.632665467195906E-1   -3.338090060129615E-1
 9.937519505900000E9     4.664714794174920E-1   -1.232457908904583E-1   -1.570157643989529E-3   -1.348518435593106E-3   -1.590032221484685E-3   -1.369120167014433E-3    3.627235046690339E-1   -3.340197389697085E-1
 9.937522008125000E9     4.665404307959991E-1   -1.232652628435142E-1   -1.565570816806087E-3   -1.380458001821900E-3   -1.618970221708905E-3   -1.385287032408104E-3    3.627323697500144E-1   -3.343862270684740E-1
 9.937524510350000E9     4.663785384077874E-1   -1.236130884758434E-1   -1.633501664625067E-3   -1.398090984170176E-3   -1.645954754391263E-3   -1.367630628084131E-3    3.622718360222644E-1   -3.346055708209685E-1
 9.937527012575001E9     4.663133968895694E-1   -1.236376899525184E-1   -1.627874679364970E-3   -1.385645856356111E-3   -1.659721904335870E-3   -1.390801319983575E-3    3.618281193015302E-1   -3.348904092100735E-1
 9.937529514799999E9     4.663816136666136E-1   -1.238698741711272E-1   -1.673334930026740E-3   -1.414869157640530E-3   -1.699308999270886E-3   -1.388305397102109E-3    3.614205362646806E-1   -3.351533632539221E-1
 9.937532017025000E9     4.663790157092923E-1   -1.239571909164734E-1   -1.702072710837997E-3   -1.427391331350109E-3   -1.736928810665809E-3   -1.433961581244519E-3    3.610555461322463E-1   -3.354432733662187E-1
 9.937534519250000E9     4.661284603900479E-1   -1.242388776951885E-1   -1.687346305995792E-3   -1.470993428787784E-3   -1.776165071964946E-3   -1.467219669119549E-3    3.606432697688869E-1   -3.356967812707743E-1
