#  HZ   S   RI   R     50.00 
! Rohde & Schwarz Vector Network Analyzer 
! Rohde-Schwarz,ZNB20-2Port,1311601062101988,3.16
! Created: UTC 3/20/2024, 11:10:46 PM
! freq[Hz]                re:S11                  im:S11                  re:S21                  im:S21                  re:S12                  im:S12                  re:S22                  im:S22
 9.937312541000000E9     4.710878676905341E-1   -1.090946753615069E-1   -3.610851725967545E-4   -2.954380416233787E-4   -3.957876042808105E-4   -3.356476132751951E-4    3.833601134650770E-1   -3.177907830240982E-1
 9.937315031075001E9     4.709228010319820E-1   -1.092905938178386E-1   -3.415533171045938E-4   -3.142698580699271E-4   -3.660411822842034E-4   -3.400526953200933E-4    3.832174708830046E-1   -3.178760397028781E-1
 9.937317521150000E9     4.710432519534495E-1   -1.096292338351188E-1   -3.780085068278996E-4   -3.157812394660894E-4   -3.745190802030116E-4   -3.373008905519635E-4    3.827647429907102E-1   -3.181139809859704E-1
 9.937320011225000E9     4.708541386786107E-1   -1.097459453941376E-1   -4.056033337735494E-4   -3.561337736168139E-4   -3.766479532328786E-4   -3.611562815130495E-4    3.827036680986931E-1   -3.181942410195991E-1
 9.937322501299999E9     4.708168922711507E-1   -1.099963839657001E-1   -4.323263814329862E-4   -3.656458757372744E-4   -4.258518130183820E-4   -3.859757528889955E-4    3.826174097784933E-1   -3.183558343099709E-1
 9.937324991375000E9     4.708169425837256E-1   -1.100238209954475E-1   -4.050320709064622E-4   -3.724449766366957E-4   -3.976918109469795E-4   -3.700982733915935E-4    3.823125828675200E-1   -3.184361007702760E-1
 9.937327481450001E9     4.707513626314356E-1   -1.103200792331464E-1   -4.199489215378560E-4   -3.809385726282968E-4   -4.197289277749944E-4   -3.764595787651224E-4    3.821022570814150E-1   -3.188430056858941E-1
 9.937329971525000E9     4.706666867454184E-1   -1.104988920252817E-1   -4.287341511669098E-4   -3.418729829206762E-4   -4.419037942581806E-4   -3.902908973220074E-4    3.821717081072884E-1   -3.187102366553141E-1
 9.937332461600000E9     4.706275150650053E-1   -1.106183154018122E-1   -4.201831285327491E-4   -3.906394597409750E-4   -4.422661562133538E-4   -4.036511261094728E-4    3.818716988353812E-1   -3.189266299740071E-1
 9.937334951674999E9     4.705201778635411E-1   -1.107938512918813E-1   -4.515776788992489E-4   -4.052919799416740E-4   -4.323835112979300E-4   -4.037098328982963E-4    3.816151875334936E-1   -3.192531657474885E-1
 9.937337441750000E9     4.704052131322701E-1   -1.111045412763913E-1   -4.253313137065853E-4   -4.034812312916876E-4   -4.584898642852415E-4   -4.047277741864097E-4    3.813215149202505E-1   -3.194438840829116E-1
 9.937339931825001E9     4.703443184091973E-1   -1.112059591648410E-1   -4.568491372036112E-4   -4.156951057683378E-4   -4.588842207744148E-4   -4.268713859128965E-4    3.813124990786910E-1   -3.195517290138788E-1
 9.937342421900000E9     4.702473162069488E-1   -1.112892641518897E-1   -4.751720712832571E-4   -4.415503833199910E-4   -4.439083575540356E-4   -4.421294754863452E-4    3.810781881075169E-1   -3.197148816141395E-1
 9.937344911975000E9     4.702728460249946E-1   -1.113933392335349E-1   -4.701681708793394E-4   -4.407672723257132E-4   -5.045324258884679E-4   -4.276515185086367E-4    3.808262227487810E-1   -3.198579184463198E-1
 9.937347402049999E9     4.703101475889673E-1   -1.116091112252331E-1   -4.655139514821664E-4   -4.750916582898937E-4   -5.031304957339862E-4   -4.812497259627149E-4    3.807221084739245E-1   -3.199915566544990E-1
 9.937349892125000E9     4.701532466430996E-1   -1.118375729969315E-1   -4.844172264156560E-4   -4.613706584413662E-4   -5.157113720319480E-4   -4.679527978610431E-4    3.804629748622539E-1   -3.202999386066050E-1
 9.937352382200001E9     4.701858553422958E-1   -1.120266085160378E-1   -4.768546389017027E-4   -4.816929408691027E-4   -5.183816410334925E-4   -4.605421654877504E-4    3.801492601437441E-1   -3.205213776511188E-1
 9.937354872275000E9     4.700453532846864E-1   -1.121100949686980E-1   -5.017730669097338E-4   -4.746508597811246E-4   -5.503342666097982E-4   -4.623064134805065E-4    3.801922397226982E-1   -3.206025948617636E-1
 9.937357362350000E9     4.699640924093399E-1   -1.123017542464912E-1   -5.147444861051549E-4   -4.872296524479212E-4   -5.359305855258899E-4   -4.649636782932858E-4    3.798888503731026E-1   -3.208600212963478E-1
 9.937359852424999E9     4.700181697437057E-1   -1.125374220129650E-1   -5.330499205038973E-4   -5.091769964220155E-4   -5.565031985316461E-4   -4.979496613071800E-4    3.797317215358182E-1   -3.210743783074926E-1
 9.937362342500000E9     4.699633754524503E-1   -1.126494866736603E-1   -5.245439875692194E-4   -4.941336839228980E-4   -5.436758063644841E-4   -5.031034266355825E-4    3.794961280759631E-1   -3.211393556380170E-1
 9.937364832575001E9     4.698371916039709E-1   -1.127407016758854E-1   -5.476264221144683E-4   -4.997703053556668E-4   -5.366320793736546E-4   -5.138063041357134E-4    3.793002276047407E-1   -3.213688478026265E-1
 9.937367322650000E9     4.698925540670453E-1   -1.129350139701162E-1   -5.719964556422675E-4   -5.408181410155473E-4   -5.657229311018713E-4   -5.216210473614515E-4    3.789757006697478E-1   -3.215898661758537E-1
 9.937369812725000E9     4.696864489941753E-1   -1.131994019849963E-1   -5.785710056992755E-4   -5.239314405432783E-4   -5.804473434748957E-4   -5.480299073333081E-4    3.786310894062570E-1   -3.219590192039102E-1
 9.937372302799999E9     4.697299929318610E-1   -1.133591171492382E-1   -5.787286802198834E-4   -5.519727970827895E-4   -5.863199944010952E-4   -5.298874329163056E-4    3.787455915544987E-1   -3.220459252235557E-1
 9.937374792875000E9     4.697413210959719E-1   -1.134887573545545E-1   -5.884071335464827E-4   -5.839100533400906E-4   -6.051448009802372E-4   -5.478981053458287E-4    3.785667807165959E-1   -3.221195777343582E-1
 9.937377282950001E9     4.696472438134115E-1   -1.135666273473478E-1   -5.894927199211537E-4   -5.303773429098085E-4   -6.109984147989917E-4   -5.550202284046099E-4    3.781717391771336E-1   -3.220944661569545E-1
 9.937379773025000E9     4.695466342815549E-1   -1.138373501116799E-1   -6.095085669499095E-4   -5.955493437272025E-4   -6.277522219707790E-4   -5.756043834619880E-4    3.779856306324531E-1   -3.225732215160226E-1
 9.937382263100000E9     4.695420947205776E-1   -1.140206351818314E-1   -6.345289925586763E-4   -5.680718320575795E-4   -6.204790488881436E-4   -6.014077964240706E-4    3.776422542275654E-1   -3.226879327686395E-1
 9.937384753174999E9     4.694231238995801E-1   -1.141009833114791E-1   -6.084678285317579E-4   -5.821071521668062E-4   -6.322305489413017E-4   -5.682572207926547E-4    3.775818076932256E-1   -3.229402181131938E-1
 9.937387243250000E9     4.695065225532428E-1   -1.141886394369423E-1   -6.153242328722464E-4   -6.030511748183727E-4   -6.575794144889349E-4   -5.942655684369857E-4    3.772513519391119E-1   -3.229740115464878E-1
 9.937389733325001E9     4.693656371288988E-1   -1.144925831448240E-1   -6.657917788246344E-4   -6.305324048913547E-4   -6.563272330848323E-4   -6.084079113994756E-4    3.770300348701611E-1   -3.232281421018041E-1
 9.937392223400000E9     4.693023938540886E-1   -1.146891698867494E-1   -6.741252839870546E-4   -6.147432272702502E-4   -6.420469553049452E-4   -6.149903513897032E-4    3.768974382296732E-1   -3.235138212502330E-1
 9.937394713475000E9     4.691659737200549E-1   -1.148670713269139E-1   -6.955542558564757E-4   -6.243384284409211E-4   -6.833875033838757E-4   -6.434185020972147E-4    3.765623645561142E-1   -3.237922143624579E-1
 9.937397203549999E9     4.691338629028108E-1   -1.149980651987984E-1   -7.058698237532201E-4   -6.560807615302598E-4   -6.927053901962997E-4   -6.536642785505483E-4    3.765142620289281E-1   -3.237892255337258E-1
 9.937399693625000E9     4.691787759589733E-1   -1.150492827138402E-1   -6.731523405104323E-4   -6.578634101271208E-4   -7.138600347149114E-4   -6.692856298730180E-4    3.763117560273665E-1   -3.242243515272069E-1
 9.937402183700001E9     4.691290802600137E-1   -1.153536943117775E-1   -7.137378313016294E-4   -6.275965244304673E-4   -7.469834728405435E-4   -6.479093920356859E-4    3.760351415183242E-1   -3.242672033900643E-1
 9.937404673775000E9     4.690186232802966E-1   -1.154194856164993E-1   -7.096993346275998E-4   -7.163917342606391E-4   -7.554738710248432E-4   -6.969824112854115E-4    3.758407223126603E-1   -3.244219959481278E-1
 9.937407163850000E9     4.690280186252533E-1   -1.157046349479963E-1   -7.112922740149407E-4   -6.886294650538526E-4   -7.580205940685012E-4   -6.908420013226821E-4    3.757023609203495E-1   -3.246679434341661E-1
 9.937409653924999E9     4.689390393015503E-1   -1.159419518674864E-1   -7.665926986614144E-4   -6.960192449654976E-4   -7.727549459771908E-4   -7.015831015852702E-4    3.752872734976053E-1   -3.248636473410452E-1
 9.937412144000000E9     4.689799556506337E-1   -1.159167695699471E-1   -7.466608205208178E-4   -7.121612581933818E-4   -7.851367359129518E-4   -7.109024023859917E-4    3.750316551674265E-1   -3.250937514356698E-1
 9.937414634075001E9     4.688538334143443E-1   -1.161211282694835E-1   -7.726520946203152E-4   -6.981458468122660E-4   -7.916065351570695E-4   -7.018607050936933E-4    3.748159713897438E-1   -3.250958661538684E-1
 9.937417124150000E9     4.687488327653094E-1   -1.163162076959535E-1   -8.258993316916739E-4   -7.335935538519599E-4   -7.991285379540276E-4   -7.587340844643499E-4    3.744715079989094E-1   -3.255457928912484E-1
 9.937419614225000E9     4.687777140563478E-1   -1.165547052487753E-1   -7.979011814512705E-4   -7.219404862716841E-4   -8.245039722178089E-4   -7.578686153763253E-4    3.743054266183617E-1   -3.256064937277459E-1
 9.937422104299999E9     4.686746461089815E-1   -1.167993064610578E-1   -7.941322643795509E-4   -7.638726682825520E-4   -8.235552962987982E-4   -7.531299920365823E-4    3.742490772180529E-1   -3.258906818062287E-1
 9.937424594375000E9     4.686399448348653E-1   -1.168366985292441E-1   -7.961398869001985E-4   -7.681572701668838E-4   -8.492060933023370E-4   -7.655026238994993E-4    3.738563548469715E-1   -3.259788728902602E-1
 9.937427084450001E9     4.686752918175541E-1   -1.169853725347685E-1   -8.428331994887110E-4   -7.926324795923651E-4   -8.662085134119503E-4   -7.998446772909212E-4    3.736418502173685E-1   -3.262566890394626E-1
 9.937429574525000E9     4.686522984107472E-1   -1.171904980619487E-1   -8.784616733195546E-4   -8.044344922085368E-4   -8.841618628995799E-4   -7.714697445311233E-4    3.731994716649964E-1   -3.265155959070036E-1
 9.937432064600000E9     4.685173397130742E-1   -1.174035489356289E-1   -8.635265161971865E-4   -8.004634699758921E-4   -8.990845997347964E-4   -7.924606755923047E-4    3.730806541359425E-1   -3.265909889782252E-1
 9.937434554674999E9     4.684885642199422E-1   -1.175188099036879E-1   -8.838399484076808E-4   -8.211680216839299E-4   -9.062344393850505E-4   -8.285980241410037E-4    3.729279145710852E-1   -3.269303277837047E-1
 9.937437044750000E9     4.683602016081017E-1   -1.176402091160384E-1   -8.855189757489237E-4   -8.372050588707278E-4   -9.050458818207007E-4   -8.311640092360948E-4    3.727232013936167E-1   -3.268210119334380E-1
 9.937439534825001E9     4.682861878311635E-1   -1.178230553010629E-1   -9.256593953844610E-4   -8.402279329939941E-4   -9.276612699414482E-4   -8.118643499639384E-4    3.724739871405424E-1   -3.271347307128405E-1
 9.937442024900000E9     4.682289432839580E-1   -1.179694126928600E-1   -9.117605668577075E-4   -8.489134089566641E-4   -9.311863633609523E-4   -8.297901571159705E-4    3.723191553041679E-1   -3.273599060028148E-1
 9.937444514975000E9     4.682793617192466E-1   -1.181759895438082E-1   -9.418166912275578E-4   -8.795172458178376E-4   -9.836493404859520E-4   -8.697713170175126E-4    3.720145464911528E-1   -3.275759718859917E-1
 9.937447005049999E9     4.682961218499477E-1   -1.182443323860967E-1   -9.734914022229461E-4   -8.530956307343359E-4   -9.580752627406419E-4   -8.768796561122422E-4    3.717630460937538E-1   -3.277114644927958E-1
 9.937449495125000E9     4.681826632658848E-1   -1.185355569270550E-1   -9.750804524588453E-4   -8.933403109882990E-4   -9.970539009969404E-4   -8.853713485668278E-4    3.713886265107308E-1   -3.281137894231173E-1
 9.937451985200001E9     4.680265263078390E-1   -1.186074125126944E-1   -9.997143472879331E-4   -8.820655088680564E-4   -1.010041818722312E-3   -8.952037380032857E-4    3.711547443319091E-1   -3.283260732085455E-1
 9.937454475275000E9     4.680037591438100E-1   -1.187932057615844E-1   -9.934189531638619E-4   -9.565825493989781E-4   -1.005738902616707E-3   -9.218504933423119E-4    3.707477885460665E-1   -3.285118333829089E-1
 9.937456965350000E9     4.680089368808905E-1   -1.188764257369062E-1   -1.002090418413142E-3   -9.356683993419879E-4   -1.012757029052343E-3   -9.365287980833961E-4    3.704392189523577E-1   -3.286336570803222E-1
 9.937459455424999E9     4.678865713585868E-1   -1.190368550968076E-1   -1.087889092927224E-3   -9.556265353583351E-4   -1.073651000022789E-3   -9.319437847673640E-4    3.702889280990262E-1   -3.289196424605522E-1
 9.937461945500000E9     4.678418552704879E-1   -1.193787205250666E-1   -1.038370341769682E-3   -1.000451964491189E-3   -1.080860274510747E-3   -9.447527645406639E-4    3.700044452547777E-1   -3.291750703398620E-1
 9.937464435575001E9     4.679171978096905E-1   -1.195546710919116E-1   -1.046038510282938E-3   -9.818000929360409E-4   -1.114779235185412E-3   -9.523106233565869E-4    3.697691181507898E-1   -3.292410935515074E-1
 9.937466925650000E9     4.676095198331632E-1   -1.197245077602174E-1   -1.086458985697822E-3   -1.017224193772599E-3   -1.139965143581142E-3   -9.872733091064382E-4    3.693674946844407E-1   -3.294921669555811E-1
 9.937469415725000E9     4.676264274884108E-1   -1.198323969829548E-1   -1.159705065607017E-3   -9.953216036011580E-4   -1.163985220761809E-3   -1.029833401395761E-3    3.692888235214390E-1   -3.295277518629912E-1
 9.937471905799999E9     4.676755510650429E-1   -1.199876376062789E-1   -1.141512631177158E-3   -1.010980148841286E-3   -1.152899435578599E-3   -1.026365409757819E-3    3.690914546080152E-1   -3.298329010299407E-1
 9.937474395875000E9     4.677185281065808E-1   -1.202306847856115E-1   -1.147739273313760E-3   -1.059715763765689E-3   -1.191515905507467E-3   -1.049223214027262E-3    3.685977263723088E-1   -3.301183527839112E-1
 9.937476885950001E9     4.676036065507031E-1   -1.203972896021089E-1   -1.161452372438625E-3   -1.005875104016286E-3   -1.189430516024492E-3   -1.050795081210321E-3    3.684349834326350E-1   -3.302891560748831E-1
 9.937479376025000E9     4.673941483467145E-1   -1.205117752606873E-1   -1.161435899878755E-3   -1.068073869460435E-3   -1.241835509547005E-3   -1.031677591153885E-3    3.682134632881910E-1   -3.305116756471826E-1
 9.937481866100000E9     4.674736938229326E-1   -1.207963798482523E-1   -1.205038609554125E-3   -1.042689775694920E-3   -1.217601759778900E-3   -1.056406082334510E-3    3.679425388757656E-1   -3.307349529964481E-1
 9.937484356174999E9     4.673481285219774E-1   -1.207696785870251E-1   -1.241379039612108E-3   -1.107411489178578E-3   -1.232476008019666E-3   -1.134528056822832E-3    3.674860286392619E-1   -3.309771539399567E-1
 9.937486846250000E9     4.672717302712775E-1   -1.209706932463877E-1   -1.262403368947989E-3   -1.073478528245060E-3   -1.305244488263475E-3   -1.120695536035382E-3    3.672049713845386E-1   -3.310827085490774E-1
 9.937489336325001E9     4.673323904386558E-1   -1.210977233488438E-1   -1.240079910917662E-3   -1.152051240427806E-3   -1.286307742341469E-3   -1.130715954281635E-3    3.668321978773642E-1   -3.314899225963051E-1
 9.937491826400000E9     4.672506199946714E-1   -1.213620203368927E-1   -1.277567425879337E-3   -1.134852345456240E-3   -1.307022616938066E-3   -1.152142254992877E-3    3.666458006363409E-1   -3.316281070982351E-1
 9.937494316475000E9     4.671453782630614E-1   -1.215233788724645E-1   -1.293994710511750E-3   -1.178179277682120E-3   -1.354196636645492E-3   -1.163168053469631E-3    3.663322507440662E-1   -3.319365615645979E-1
 9.937496806549999E9     4.669733759470680E-1   -1.217006000028254E-1   -1.325847233622174E-3   -1.162818057366755E-3   -1.419979386417453E-3   -1.190662293289078E-3    3.660317786413906E-1   -3.320997821408705E-1
 9.937499296625000E9     4.670468603877133E-1   -1.218118863214800E-1   -1.351935424848770E-3   -1.195546290779401E-3   -1.369480828440220E-3   -1.183668548659481E-3    3.655617297879588E-1   -3.322064111159500E-1
 9.937501786700001E9     4.670698212273052E-1   -1.220523465150236E-1   -1.364959859385703E-3   -1.213034589898329E-3   -1.392171907376732E-3   -1.215252518807148E-3    3.653198210072053E-1   -3.326561609876059E-1
 9.937504276775000E9     4.669929947121799E-1   -1.222054808497206E-1   -1.411337887078444E-3   -1.241520217889099E-3   -1.430130104830772E-3   -1.252746224217520E-3    3.651247770217192E-1   -3.328981159053955E-1
 9.937506766850000E9     4.669968525247642E-1   -1.222337989059550E-1   -1.407641971871992E-3   -1.249834853271134E-3   -1.417007327909807E-3   -1.236804290020595E-3    3.647184685390077E-1   -3.328997522860718E-1
 9.937509256924999E9     4.669158155200200E-1   -1.225701836160028E-1   -1.403185393985437E-3   -1.243095146163969E-3   -1.492634113314116E-3   -1.267687577856240E-3    3.644823536256221E-1   -3.331968682712612E-1
 9.937511747000000E9     4.667769997005691E-1   -1.226279529218021E-1   -1.447594360822967E-3   -1.268531660194231E-3   -1.541621893827038E-3   -1.281959843545826E-3    3.641172899528224E-1   -3.334017807037264E-1
 9.937514237075001E9     4.666549342701112E-1   -1.227985145301679E-1   -1.493034801925223E-3   -1.316750467611066E-3   -1.522652854808634E-3   -1.297301938758935E-3    3.637299783415153E-1   -3.336764951350064E-1
 9.937516727150000E9     4.666507848271517E-1   -1.229007697012010E-1   -1.524555259574911E-3   -1.342321122480098E-3   -1.552429036856990E-3   -1.316533843493323E-3    3.634320894397385E-1   -3.339251875962835E-1
 9.937519217225000E9     4.665593141520026E-1   -1.231331578807810E-1   -1.556750444326113E-3   -1.371962988159845E-3   -1.581414763808689E-3   -1.312502409363641E-3    3.630553310854754E-1   -3.341169222016304E-1
 9.937521707299999E9     4.666605369656032E-1   -1.232152365026763E-1   -1.579804246445444E-3   -1.353716947234065E-3   -1.614711304062414E-3   -1.326072103104312E-3    3.627676846022631E-1   -3.345215441654012E-1
 9.937524197375000E9     4.665647333904701E-1   -1.234494450051617E-1   -1.553164066802145E-3   -1.392297491350970E-3   -1.653553213878787E-3   -1.363191505261365E-3    3.621896117007813E-1   -3.345768948201288E-1
 9.937526687450001E9     4.662875870304252E-1   -1.237697892459881E-1   -1.618868714540930E-3   -1.410034957583228E-3   -1.664892075006084E-3   -1.385371840307406E-3    3.617589117381489E-1   -3.348136590073106E-1
 9.937529177525000E9     4.664970105686270E-1   -1.237894451555982E-1   -1.675832424599113E-3   -1.406651425206929E-3   -1.698496631761893E-3   -1.404746586004564E-3    3.614411501554416E-1   -3.351334605492203E-1
 9.937531667600000E9     4.664004614745271E-1   -1.238489978579546E-1   -1.717148299520529E-3   -1.465070797090819E-3   -1.717728244142062E-3   -1.455386700629697E-3    3.611772037392181E-1   -3.353819174304177E-1
 9.937534157674999E9     4.662615980731738E-1   -1.242380165309615E-1   -1.694599981635078E-3   -1.485349409115980E-3   -1.758045393805366E-3   -1.455828195636943E-3    3.608082991193866E-1   -3.354347323031259E-1
 9.937536647750000E9     4.660615893523767E-1   -1.244135591557070E-1   -1.748448014573266E-3   -1.508207546788619E-3   -1.809143808669892E-3   -1.459943889633973E-3    3.605835685551957E-1   -3.357933631269492E-1
