#  HZ   S   RI   R     50.00 
! Rohde & Schwarz Vector Network Analyzer 
! Rohde-Schwarz,ZNB20-2Port,1311601062101988,3.16
! Created: UTC 3/20/2024, 10:53:54 PM
! freq[Hz]                re:S11                  im:S11                  re:S21                  im:S21                  re:S12                  im:S12                  re:S22                  im:S22
 9.937697818000000E9     4.631573640732735E-1   -1.320609931645215E-1   -2.421459202807427E-3   -2.712211647238082E-3   -2.520909440700975E-3   -2.743369051985491E-3    3.534718447075529E-1   -3.445245707713080E-1
 9.937698811525000E9     4.631439718035639E-1   -1.321050625485079E-1   -2.433263612733560E-3   -2.750981393770757E-3   -2.530824475423180E-3   -2.770003207370004E-3    3.532420411475967E-1   -3.447318859117777E-1
 9.937699805049999E9     4.630651561226453E-1   -1.322804912800499E-1   -2.448520529379304E-3   -2.764769770617486E-3   -2.526472890766670E-3   -2.783126433740293E-3    3.529539797726017E-1   -3.448920708316187E-1
 9.937700798575001E9     4.629862443060595E-1   -1.323392251828956E-1   -2.461239206732455E-3   -2.830287269489532E-3   -2.542416363379956E-3   -2.788083447466225E-3    3.525676490970231E-1   -3.449242490460270E-1
 9.937701792100000E9     4.629790195927949E-1   -1.323448496169610E-1   -2.511431545830592E-3   -2.821294533039959E-3   -2.582518702944950E-3   -2.828793793354917E-3    3.524492544545336E-1   -3.452208791067867E-1
 9.937702785625000E9     4.630324550526853E-1   -1.324898208915471E-1   -2.503776290512806E-3   -2.764613341687162E-3   -2.603412011298852E-3   -2.843241150008436E-3    3.524470962286359E-1   -3.454373528887707E-1
 9.937703779150000E9     4.629615434672908E-1   -1.326741422222539E-1   -2.509983061954204E-3   -2.843784118797933E-3   -2.619295026648106E-3   -2.855584785656599E-3    3.520793577863385E-1   -3.454752249330695E-1
 9.937704772674999E9     4.628983679415445E-1   -1.327251437962517E-1   -2.561172949234296E-3   -2.850390249254606E-3   -2.639995365141247E-3   -2.870049321010298E-3    3.514846086989327E-1   -3.459064001773494E-1
 9.937705766200001E9     4.629727122920584E-1   -1.326627934443950E-1   -2.552860301134842E-3   -2.876882835654580E-3   -2.657314064328557E-3   -2.915085559644100E-3    3.513820947724677E-1   -3.459126975426781E-1
 9.937706759725000E9     4.629355398253231E-1   -1.329385038110371E-1   -2.605268111572478E-3   -2.892549997420110E-3   -2.708778800011841E-3   -2.874014042546891E-3    3.511583668018589E-1   -3.461370617163205E-1
 9.937707753250000E9     4.628341033794346E-1   -1.330155205869284E-1   -2.608732970658148E-3   -2.908925135152978E-3   -2.724680831594268E-3   -2.915580444759469E-3    3.508658007119471E-1   -3.460182184462008E-1
 9.937708746775000E9     4.627967906129269E-1   -1.329182646293641E-1   -2.645516881871463E-3   -2.923138261466758E-3   -2.756338073596893E-3   -2.978689672022787E-3    3.506742881994113E-1   -3.465023801725308E-1
 9.937709740299999E9     4.628126879093025E-1   -1.329746975040942E-1   -2.685329862889283E-3   -2.978078581333379E-3   -2.750338443202760E-3   -2.970881826986193E-3    3.504538697132398E-1   -3.465381710207073E-1
 9.937710733825001E9     4.627180375061447E-1   -1.331626020332165E-1   -2.688580890007063E-3   -2.968973279519338E-3   -2.787743544794133E-3   -2.975698470090976E-3    3.503474529493717E-1   -3.468241241059695E-1
 9.937711727350000E9     4.628341539963103E-1   -1.331763412518472E-1   -2.711132372011526E-3   -3.023180568860987E-3   -2.777359663667886E-3   -3.006087891567620E-3    3.499442422124503E-1   -3.470863659091005E-1
 9.937712720875000E9     4.627392663581961E-1   -1.333031882882719E-1   -2.726704516248429E-3   -3.030761215470189E-3   -2.831923014696926E-3   -3.043123657239890E-3    3.497118669211757E-1   -3.472229746610213E-1
 9.937713714400000E9     4.627064186736596E-1   -1.333835412426511E-1   -2.760430480486586E-3   -3.059525770690073E-3   -2.865540329072064E-3   -3.055565083164334E-3    3.494340585009193E-1   -3.475051953200470E-1
 9.937714707924999E9     4.626948873975977E-1   -1.335263573595885E-1   -2.813422419758951E-3   -3.055081213625348E-3   -2.870131998930151E-3   -3.063366082721781E-3    3.490838004915513E-1   -3.475919856456649E-1
 9.937715701450001E9     4.627496299314485E-1   -1.334557453251150E-1   -2.771492800698706E-3   -3.104016406950146E-3   -2.897396806983748E-3   -3.109460378091503E-3    3.488475255156971E-1   -3.479714158583508E-1
 9.937716694975000E9     4.626108013956885E-1   -1.334774537889468E-1   -2.793139658586373E-3   -3.129794055046024E-3   -2.936880762954793E-3   -3.125008489893701E-3    3.482814474064674E-1   -3.480107087753325E-1
 9.937717688500000E9     4.626204570029727E-1   -1.335388452194613E-1   -2.882094901239473E-3   -3.124585502347686E-3   -2.933512437395122E-3   -3.163035490720978E-3    3.481638025593188E-1   -3.482428461699859E-1
 9.937718682025000E9     4.626743019977781E-1   -1.335458406971332E-1   -2.886066681451314E-3   -3.161012049737021E-3   -2.988892040614204E-3   -3.151421583741112E-3    3.479880094095212E-1   -3.485756289529157E-1
 9.937719675549999E9     4.625597874872416E-1   -1.337208740692145E-1   -2.843880372604833E-3   -3.179220280989741E-3   -3.008229231293615E-3   -3.180082299853748E-3    3.477302881315966E-1   -3.486573773132039E-1
 9.937720669075001E9     4.623907830403585E-1   -1.336943519003110E-1   -2.905503091968657E-3   -3.210796249986933E-3   -3.034175564836155E-3   -3.221393150749513E-3    3.474096832287308E-1   -3.487044683170720E-1
 9.937721662600000E9     4.625068568497945E-1   -1.339574463440604E-1   -2.984834720682982E-3   -3.227565381736169E-3   -3.053408769228359E-3   -3.225046187119563E-3    3.473142634645016E-1   -3.491046572382799E-1
 9.937722656125000E9     4.624463181708604E-1   -1.340443413651824E-1   -2.989956354684886E-3   -3.254041951786794E-3   -3.057458610669018E-3   -3.265729827196749E-3    3.468369116978800E-1   -3.493310678817933E-1
 9.937723649650000E9     4.623494252206198E-1   -1.339645241073173E-1   -2.976644419681221E-3   -3.260820336453947E-3   -3.116704781506163E-3   -3.250410815128949E-3    3.465737522196968E-1   -3.495773843142140E-1
 9.937724643174999E9     4.625282882558746E-1   -1.341865150786559E-1   -3.026585317294646E-3   -3.308670579325107E-3   -3.116687542569063E-3   -3.307424909148692E-3    3.462069148955809E-1   -3.497144049683298E-1
 9.937725636700001E9     4.624069390081929E-1   -1.340671121510177E-1   -3.077017434440701E-3   -3.297342204000313E-3   -3.191222216713899E-3   -3.358144074860413E-3    3.458715530868522E-1   -3.497738140258081E-1
 9.937726630225000E9     4.624622264907016E-1   -1.341651161375900E-1   -3.093421010727442E-3   -3.333453210813129E-3   -3.163833274276859E-3   -3.351170669161133E-3    3.455552132352095E-1   -3.501041450705822E-1
 9.937727623750000E9     4.623533945751410E-1   -1.342522583576080E-1   -3.105186868188299E-3   -3.370094057307411E-3   -3.234639247002688E-3   -3.359955024313360E-3    3.454171684768423E-1   -3.502904447219878E-1
 9.937728617275000E9     4.622923314356593E-1   -1.343935135691072E-1   -3.126936189479247E-3   -3.413597910439548E-3   -3.258608411144259E-3   -3.419131210810025E-3    3.450151305627893E-1   -3.504484681594894E-1
 9.937729610799999E9     4.622603828453432E-1   -1.344208808226356E-1   -3.161442798282969E-3   -3.388138790537975E-3   -3.296424514065762E-3   -3.458181722057125E-3    3.444289733694857E-1   -3.507610691926728E-1
 9.937730604325001E9     4.623069655112259E-1   -1.344710024246186E-1   -3.152222450384962E-3   -3.460404570682490E-3   -3.319358145985050E-3   -3.457366764540631E-3    3.444744481212594E-1   -3.508181777867006E-1
 9.937731597850000E9     4.622711289861092E-1   -1.346011218972838E-1   -3.225452400888679E-3   -3.458581551083481E-3   -3.338553094830016E-3   -3.456484695138945E-3    3.439373540855932E-1   -3.511313126851738E-1
 9.937732591375000E9     4.622482988022669E-1   -1.346054805544993E-1   -3.275434377194715E-3   -3.463443924871305E-3   -3.380136301271580E-3   -3.494603868902451E-3    3.436101446324547E-1   -3.514388863538115E-1
 9.937733584900000E9     4.621641278346385E-1   -1.346738324144513E-1   -3.321014706178527E-3   -3.493328145606352E-3   -3.421677552182882E-3   -3.531323420516597E-3    3.433970759302108E-1   -3.515733514140826E-1
 9.937734578424999E9     4.621413461520374E-1   -1.346761276327804E-1   -3.324900214897577E-3   -3.576999115911690E-3   -3.446275223169540E-3   -3.556550717156626E-3    3.429874317336557E-1   -3.518218792727875E-1
 9.937735571950001E9     4.621697511350426E-1   -1.348886085447159E-1   -3.383738699134779E-3   -3.578670526364840E-3   -3.442264303433127E-3   -3.580845797276242E-3    3.426726633333835E-1   -3.519742202682226E-1
 9.937736565475000E9     4.620701940014408E-1   -1.348446751644809E-1   -3.413906347116130E-3   -3.581185238487774E-3   -3.525211583179129E-3   -3.616782872570154E-3    3.422879147359211E-1   -3.521522452105437E-1
 9.937737559000000E9     4.621819896399811E-1   -1.348933603557191E-1   -3.427611749321073E-3   -3.628120383056753E-3   -3.594415055302415E-3   -3.659619241212936E-3    3.421204366827668E-1   -3.523491550238783E-1
 9.937738552525000E9     4.620351339063317E-1   -1.350757537955196E-1   -3.467044998560410E-3   -3.636231970397515E-3   -3.568526918543309E-3   -3.667615576582144E-3    3.414529387122918E-1   -3.525938471420603E-1
 9.937739546049999E9     4.620648850218704E-1   -1.350390580931440E-1   -3.504616032842919E-3   -3.675113527540876E-3   -3.589909500553967E-3   -3.722018744691796E-3    3.413548600945956E-1   -3.528785310173786E-1
 9.937740539575001E9     4.619790261182036E-1   -1.350756861644109E-1   -3.540591410524793E-3   -3.714730762712310E-3   -3.656632341125085E-3   -3.723686064421876E-3    3.410065948934917E-1   -3.529289077656085E-1
 9.937741533100000E9     4.619688711824554E-1   -1.352975571699981E-1   -3.571176456371537E-3   -3.760544090712275E-3   -3.692414785739229E-3   -3.745214277792616E-3    3.404352695803636E-1   -3.532132185116126E-1
 9.937742526625000E9     4.619533680858284E-1   -1.353099977412646E-1   -3.587674348527389E-3   -3.739271327420372E-3   -3.718820281453568E-3   -3.817098500957697E-3    3.402520491974299E-1   -3.534644408881643E-1
 9.937743520150000E9     4.618454836904687E-1   -1.354270226274790E-1   -3.608948966113785E-3   -3.767313023990363E-3   -3.758874058989114E-3   -3.809443745946035E-3    3.398274442337832E-1   -3.538275020602553E-1
 9.937744513674999E9     4.618934970991056E-1   -1.354049756713381E-1   -3.652344759334181E-3   -3.842585096153246E-3   -3.787741934759600E-3   -3.828443689613827E-3    3.395870613026164E-1   -3.538793999070687E-1
 9.937745507200001E9     4.617683559697212E-1   -1.353736190724072E-1   -3.704094957685118E-3   -3.840585393209098E-3   -3.847018759121897E-3   -3.847587470760734E-3    3.390794127746617E-1   -3.541787607708947E-1
 9.937746500725000E9     4.617900899706755E-1   -1.355870923285393E-1   -3.755163756845964E-3   -3.873024507780402E-3   -3.843198579081017E-3   -3.895993418699397E-3    3.388216047650431E-1   -3.545609971194130E-1
 9.937747494250000E9     4.617286350019203E-1   -1.357340382785314E-1   -3.790446621368954E-3   -3.914346745806381E-3   -3.930972747938902E-3   -3.916310552314757E-3    3.382823791362027E-1   -3.545775237138015E-1
 9.937748487775000E9     4.617750622567696E-1   -1.357001328428932E-1   -3.817039944572662E-3   -3.910674552854656E-3   -3.956126573427027E-3   -3.966265650564058E-3    3.378120917461722E-1   -3.549001867097803E-1
 9.937749481299999E9     4.617605251970566E-1   -1.358983483570839E-1   -3.874656467512171E-3   -3.979642013988407E-3   -3.998448612876555E-3   -3.981380552019036E-3    3.376569161674446E-1   -3.552752919373609E-1
 9.937750474825001E9     4.618144620945784E-1   -1.359140981781105E-1   -3.853115096263955E-3   -3.979162972987079E-3   -4.033910158289931E-3   -4.013942925590872E-3    3.370700718552759E-1   -3.552695368875282E-1
 9.937751468350000E9     4.616153994001716E-1   -1.359115228818275E-1   -3.921174370427062E-3   -4.027761119736224E-3   -4.063854904539112E-3   -4.084240456694082E-3    3.367673545902783E-1   -3.557268730423786E-1
 9.937752461875000E9     4.616305277069903E-1   -1.360073857773979E-1   -3.970359054402095E-3   -4.056923970846408E-3   -4.106131630301423E-3   -4.084156919855987E-3    3.362157195729620E-1   -3.558363728037778E-1
 9.937753455400000E9     4.616548019200463E-1   -1.360081956671071E-1   -3.999892253045340E-3   -4.133986879778768E-3   -4.149672679793905E-3   -4.120750082914781E-3    3.359061211680016E-1   -3.564942112971026E-1
 9.937754448924999E9     4.616374532171192E-1   -1.361104449185094E-1   -4.048904429158788E-3   -4.149519823786109E-3   -4.199442836136389E-3   -4.149055810337401E-3    3.354223828805331E-1   -3.564166557013941E-1
 9.937755442450001E9     4.616189801104273E-1   -1.362765976778510E-1   -4.087492014604053E-3   -4.170761816152537E-3   -4.242439803589061E-3   -4.193260790837343E-3    3.351160985706002E-1   -3.568450143874085E-1
 9.937756435975000E9     4.615635171390868E-1   -1.363460190289727E-1   -4.143404220315967E-3   -4.217873274841792E-3   -4.301557933907242E-3   -4.185932066461204E-3    3.344378794810262E-1   -3.570459452714940E-1
 9.937757429500000E9     4.613575605084267E-1   -1.363843353492135E-1   -4.204094483316698E-3   -4.245624571353449E-3   -4.348516432928517E-3   -4.255611020876520E-3    3.339351905959258E-1   -3.571691300548253E-1
 9.937758423025000E9     4.614716278531803E-1   -1.363879158089068E-1   -4.212739352264506E-3   -4.247598784249970E-3   -4.384071496207250E-3   -4.278688158377440E-3    3.336246427310353E-1   -3.575160951694946E-1
 9.937759416549999E9     4.613949960952438E-1   -1.364610718160907E-1   -4.279087581453770E-3   -4.302429130542238E-3   -4.423599406137942E-3   -4.304212458670331E-3    3.331033771432966E-1   -3.577668314153169E-1
 9.937760410075001E9     4.614813898241453E-1   -1.366008921692645E-1   -4.322586725113648E-3   -4.343403730596687E-3   -4.452907001831939E-3   -4.355588489174262E-3    3.327397916765988E-1   -3.579560047982309E-1
 9.937761403600000E9     4.614592655144577E-1   -1.366405372997639E-1   -4.388215784157025E-3   -4.378593751705232E-3   -4.543483002737754E-3   -4.408212395496811E-3    3.321963591441848E-1   -3.582781171407955E-1
 9.937762397125000E9     4.614598986286698E-1   -1.367220824128711E-1   -4.409189557751068E-3   -4.395895766048753E-3   -4.568781765330647E-3   -4.419069899622728E-3    3.315781342701000E-1   -3.585277983062554E-1
 9.937763390650000E9     4.614254907955179E-1   -1.366909127691663E-1   -4.451306092424702E-3   -4.422743048270570E-3   -4.621807396602813E-3   -4.466454020740042E-3    3.313089953989841E-1   -3.588863521456425E-1
 9.937764384174999E9     4.612080963861146E-1   -1.367699879051893E-1   -4.501320885643689E-3   -4.442390771129024E-3   -4.663215141555938E-3   -4.489999717514006E-3    3.306339720038135E-1   -3.591536436706598E-1
 9.937765377700001E9     4.611289398293895E-1   -1.369139365136460E-1   -4.555118472816750E-3   -4.511028971371410E-3   -4.727677316662363E-3   -4.529067870205120E-3    3.303132866721437E-1   -3.592318998254492E-1
 9.937766371225000E9     4.612711195898102E-1   -1.370219903920802E-1   -4.577782706200424E-3   -4.544727719278601E-3   -4.777266722991965E-3   -4.561621072645229E-3    3.297815015402124E-1   -3.595753830336694E-1
 9.937767364750000E9     4.611994699620678E-1   -1.370364512941332E-1   -4.635260076343855E-3   -4.571590218929735E-3   -4.810938475687415E-3   -4.585261022893542E-3    3.293096987797756E-1   -3.599730667606670E-1
 9.937768358275000E9     4.612283631550221E-1   -1.371506697271977E-1   -4.708606700672394E-3   -4.614995209035410E-3   -4.895170515139582E-3   -4.651335876124037E-3    3.287780279325380E-1   -3.602116115541764E-1
 9.937769351799999E9     4.610937981206824E-1   -1.371950416126031E-1   -4.738081385981244E-3   -4.658560277912653E-3   -4.958536441654685E-3   -4.696177355450880E-3    3.282414071577174E-1   -3.605983710423306E-1
 9.937770345325001E9     4.610951497424953E-1   -1.373171537226743E-1   -4.827988763900060E-3   -4.715731978285114E-3   -5.035421592212291E-3   -4.722581255763247E-3    3.276335663394775E-1   -3.609010714517975E-1
 9.937771338850000E9     4.611121871473171E-1   -1.373528316590819E-1   -4.884103796641174E-3   -4.758663262097260E-3   -5.054426166047356E-3   -4.770567734746915E-3    3.270565586370068E-1   -3.611455082339737E-1
 9.937772332375000E9     4.609640214694397E-1   -1.372532098023144E-1   -4.925711755247114E-3   -4.765276960256450E-3   -5.129774084352585E-3   -4.807392997768649E-3    3.264546814333248E-1   -3.613985774371536E-1
 9.937773325900000E9     4.610785885441083E-1   -1.374341337863759E-1   -4.968082255423198E-3   -4.845044515387960E-3   -5.161614275474142E-3   -4.852857723439104E-3    3.261630556109608E-1   -3.618324297472816E-1
 9.937774319424999E9     4.609687444639992E-1   -1.376505907020655E-1   -5.037039092184217E-3   -4.885886205951343E-3   -5.219961021950455E-3   -4.894352790386620E-3    3.253032857785070E-1   -3.621252624052206E-1
 9.937775312950001E9     4.608805374457414E-1   -1.375281547093475E-1   -5.122258264344307E-3   -4.877714207243374E-3   -5.286955472483109E-3   -4.924235859163211E-3    3.248403966216686E-1   -3.622915368766224E-1
 9.937776306475000E9     4.609880409069081E-1   -1.377102033580008E-1   -5.137106990830401E-3   -4.928139637543400E-3   -5.327940968768431E-3   -4.983557778908235E-3    3.242560059332264E-1   -3.628051886335807E-1
 9.937777300000000E9     4.608711597514291E-1   -1.377837596652607E-1   -5.221068952512562E-3   -4.985794141741593E-3   -5.399064140338136E-3   -5.024769662219845E-3    3.235949523237502E-1   -3.629627338664181E-1
 9.937778293525000E9     4.607761536825632E-1   -1.379065550966055E-1   -5.266932886058164E-3   -5.041195730302530E-3   -5.487413145509788E-3   -5.042929232292542E-3    3.230380325519775E-1   -3.633366219141992E-1
 9.937779287049999E9     4.608744312327133E-1   -1.379183450385223E-1   -5.365507555392781E-3   -5.045142982718452E-3   -5.494560469756690E-3   -5.093352109728460E-3    3.224046564731623E-1   -3.634789617367318E-1
 9.937780280575001E9     4.608488081616872E-1   -1.378889801168563E-1   -5.428516714329049E-3   -5.105651081870458E-3   -5.607690702639619E-3   -5.153526082024355E-3    3.216942519016072E-1   -3.637855225428918E-1
 9.937781274100000E9     4.607985419823441E-1   -1.380338080209575E-1   -5.492854036650630E-3   -5.165757276070814E-3   -5.700353988346250E-3   -5.179023938843299E-3    3.209612516613534E-1   -3.641636216580209E-1
 9.937782267625000E9     4.607702204967115E-1   -1.381897517917249E-1   -5.550037048155889E-3   -5.223435872708226E-3   -5.739455311946794E-3   -5.238579493407333E-3    3.201935798391680E-1   -3.646760234944054E-1
 9.937783261150000E9     4.607395930675801E-1   -1.380914536847249E-1   -5.613533119320203E-3   -5.264385007603210E-3   -5.838795271449801E-3   -5.275753482573487E-3    3.197732376071520E-1   -3.649006380986951E-1
 9.937784254674999E9     4.606613773453190E-1   -1.382622823325324E-1   -5.677214369763813E-3   -5.324074047297146E-3   -5.903967621217129E-3   -5.323606504508830E-3    3.189396961947708E-1   -3.653047174571030E-1
 9.937785248200001E9     4.607927365742042E-1   -1.382892522450671E-1   -5.714355091138313E-3   -5.377295329239686E-3   -5.961322853219245E-3   -5.380750741215256E-3    3.182310360790207E-1   -3.656166246287428E-1
 9.937786241725000E9     4.607485135857046E-1   -1.383410005097114E-1   -5.836159066964091E-3   -5.410205190063772E-3   -6.040468562425751E-3   -5.407607384306379E-3    3.176639131885897E-1   -3.659016688846693E-1
 9.937787235250000E9     4.605649136498873E-1   -1.384688288311944E-1   -5.897909203357619E-3   -5.459716248923436E-3   -6.112397822594641E-3   -5.475012935075550E-3    3.170283820224643E-1   -3.661712674047032E-1
