#  HZ   S   RI   R     50.00 
! Rohde & Schwarz Vector Network Analyzer 
! Rohde-Schwarz,ZNB20-2Port,1311601062101988,3.16
! Created: UTC 3/20/2024, 11:11:03 PM
! freq[Hz]                re:S11                  im:S11                  re:S21                  im:S21                  re:S12                  im:S12                  re:S22                  im:S22
 9.937329184000000E9     4.708704992778309E-1   -1.103417942710169E-1   -3.988758672906345E-4   -3.601527348442816E-4   -4.323760187178801E-4   -3.634856571353383E-4    3.821591167365190E-1   -3.187017759456183E-1
 9.937331606650000E9     4.707518200311090E-1   -1.105704393211277E-1   -4.006502450005680E-4   -3.832520186872766E-4   -4.577570966006714E-4   -4.123234566901398E-4    3.820509823009189E-1   -3.188792407262144E-1
 9.937334029299999E9     4.704600704408967E-1   -1.108230356011733E-1   -3.910238190994698E-4   -3.605075914585419E-4   -4.341596123243283E-4   -3.982240163849754E-4    3.818056760604631E-1   -3.189668308153832E-1
 9.937336451950001E9     4.705583094476182E-1   -1.109043241398109E-1   -4.401316991244024E-4   -4.056685045874295E-4   -4.382629576231905E-4   -3.743141567491419E-4    3.817289667066685E-1   -3.191891358471630E-1
 9.937338874600000E9     4.704062565505458E-1   -1.111265352094449E-1   -4.395015821597916E-4   -4.081096823315034E-4   -4.423618874849451E-4   -3.850999173454069E-4    3.812802234077673E-1   -3.192462368106060E-1
 9.937341297250000E9     4.704492773983124E-1   -1.112368158617057E-1   -4.491461101877124E-4   -4.335349684767859E-4   -4.582790662955342E-4   -4.025122745010485E-4    3.812969062325751E-1   -3.194235747784334E-1
 9.937343719900000E9     4.704354599364119E-1   -1.113811163575008E-1   -4.331734079278606E-4   -4.266824720222155E-4   -4.588064485903478E-4   -4.354910185620535E-4    3.810762065187140E-1   -3.196955263109121E-1
 9.937346142549999E9     4.702839205910929E-1   -1.115755946516078E-1   -4.859288035296444E-4   -4.532431618401162E-4   -4.601844757023253E-4   -4.124581108326777E-4    3.807792316211735E-1   -3.200209905585923E-1
 9.937348565200001E9     4.700928289783943E-1   -1.117223146070865E-1   -4.611778584618637E-4   -4.232397118524343E-4   -4.652369947952152E-4   -4.480736079347186E-4    3.807835816203162E-1   -3.199735630372594E-1
 9.937350987850000E9     4.701238269339649E-1   -1.119028654978577E-1   -4.975889715807667E-4   -4.499812832442756E-4   -4.875312639107041E-4   -4.674133039647289E-4    3.804217105686575E-1   -3.202880472083433E-1
 9.937353410500000E9     4.701472234405078E-1   -1.120478591636533E-1   -4.913256083753301E-4   -4.668760015113076E-4   -5.096823840158842E-4   -4.489449528245266E-4    3.802641538349997E-1   -3.205710524968099E-1
 9.937355833150000E9     4.701127524246249E-1   -1.122849598234238E-1   -4.947765171818673E-4   -4.818139002769323E-4   -5.373507536037763E-4   -4.636724243032691E-4    3.799866666359301E-1   -3.206385672755558E-1
 9.937358255799999E9     4.699730212315026E-1   -1.122554050811249E-1   -5.085193639042000E-4   -4.671813328943588E-4   -5.137350565591959E-4   -4.819369484164537E-4    3.798727550765272E-1   -3.208225738377247E-1
 9.937360678450001E9     4.700007555939054E-1   -1.126331128307401E-1   -5.127433140974365E-4   -5.071139196567063E-4   -4.822238892751026E-4   -4.629954061803818E-4    3.797480893385257E-1   -3.209701565314527E-1
 9.937363101100000E9     4.700560004928382E-1   -1.126407295083474E-1   -5.288591741396060E-4   -5.278203419439669E-4   -5.492219037810279E-4   -5.103842864615853E-4    3.794418689491997E-1   -3.210296775369569E-1
 9.937365523750000E9     4.698399690169089E-1   -1.128527110637529E-1   -5.265287147302396E-4   -5.517761726496417E-4   -5.383985342041071E-4   -5.000242616131696E-4    3.793922216616543E-1   -3.214578600865274E-1
 9.937367946400000E9     4.698425746871228E-1   -1.129987766506876E-1   -5.359135007728805E-4   -5.243905418757627E-4   -5.639904780735665E-4   -5.281087693464890E-4    3.790453886062052E-1   -3.215812410976671E-1
 9.937370369049999E9     4.699644676811512E-1   -1.132333802614696E-1   -5.714593864692036E-4   -5.297541666808346E-4   -5.779619440499080E-4   -5.331713157505308E-4    3.789599102958404E-1   -3.215458365733468E-1
 9.937372791700001E9     4.696841940187227E-1   -1.132700250972467E-1   -5.495771328342720E-4   -5.225027182044641E-4   -5.716140118577289E-4   -5.584504696867035E-4    3.786808298761304E-1   -3.217973356053859E-1
 9.937375214350000E9     4.697822823603869E-1   -1.135647919040710E-1   -5.847369835301664E-4   -5.556916304371684E-4   -5.856850578597300E-4   -5.321660168237189E-4    3.785175494815551E-1   -3.220000563920122E-1
 9.937377637000000E9     4.696266561462332E-1   -1.135511003183571E-1   -5.365995591579048E-4   -5.565460654620585E-4   -6.232334910246337E-4   -5.520550638841941E-4    3.783028257528480E-1   -3.223303720853932E-1
 9.937380059650000E9     4.696598455527192E-1   -1.138587668130713E-1   -5.724762107568059E-4   -5.166639881324472E-4   -6.081778941050665E-4   -5.477699056857458E-4    3.782195859773577E-1   -3.223339143139039E-1
 9.937382482299999E9     4.693574213800785E-1   -1.140297211952084E-1   -5.684259806783974E-4   -6.172270151702886E-4   -6.325178766492016E-4   -5.636169223271657E-4    3.779364200071074E-1   -3.227069167891950E-1
 9.937384904950001E9     4.696233190571036E-1   -1.141354626422349E-1   -6.182275089302673E-4   -5.588614955617238E-4   -6.243805564682688E-4   -5.867863634514640E-4    3.776930130559000E-1   -3.229049238083411E-1
 9.937387327600000E9     4.694579090860106E-1   -1.143666637602075E-1   -5.956936771590537E-4   -5.822117363094140E-4   -6.567255907152254E-4   -5.729419145267637E-4    3.774031568731565E-1   -3.231092448949964E-1
 9.937389750250000E9     4.693870372092835E-1   -1.144968214752818E-1   -6.150364804503789E-4   -6.208506733777590E-4   -6.579823053932903E-4   -6.086653879916657E-4    3.770782515943678E-1   -3.232682770950584E-1
 9.937392172900000E9     4.693182082491705E-1   -1.145876878272061E-1   -6.223389473018481E-4   -6.195657060197515E-4   -6.838375368058366E-4   -6.278428779078507E-4    3.771040840465069E-1   -3.233296025811404E-1
 9.937394595549999E9     4.692504969085171E-1   -1.147418981131478E-1   -6.601780528685894E-4   -6.600047242209696E-4   -6.613974772252000E-4   -6.197057287486381E-4    3.768334538040907E-1   -3.236465309855732E-1
 9.937397018200001E9     4.691592274467420E-1   -1.150008877367358E-1   -6.519090422047761E-4   -6.168986080321223E-4   -6.871945150765547E-4   -6.456550940460219E-4    3.765661497491530E-1   -3.236864359232253E-1
 9.937399440850000E9     4.693058689120234E-1   -1.149983581159480E-1   -6.962291762079313E-4   -6.351877229363438E-4   -6.866504321778608E-4   -6.181563607033566E-4    3.765621139253745E-1   -3.240042406787886E-1
 9.937401863500000E9     4.691337804635274E-1   -1.152143167701929E-1   -6.360989862221545E-4   -6.391297707075323E-4   -7.466834849521265E-4   -6.536083555290059E-4    3.762452887391336E-1   -3.240773083170073E-1
 9.937404286150000E9     4.691095774409694E-1   -1.154363277144970E-1   -6.820703130174370E-4   -6.772283199780089E-4   -6.984141330581796E-4   -6.548265659379771E-4    3.762414122124858E-1   -3.243510110424946E-1
 9.937406708799999E9     4.689874501874887E-1   -1.156502550957421E-1   -6.917289016148092E-4   -6.922351085463071E-4   -7.413164032043677E-4   -6.731843021827257E-4    3.758132383164389E-1   -3.244662377592867E-1
 9.937409131450001E9     4.691104818686629E-1   -1.156966650072236E-1   -7.267990929084483E-4   -6.637922530707273E-4   -7.489954589666554E-4   -6.872501922672137E-4    3.755281846457461E-1   -3.246548442203594E-1
 9.937411554100000E9     4.688669119169686E-1   -1.159410785004432E-1   -7.208458400054850E-4   -7.082695113369383E-4   -7.552461804190488E-4   -6.853755533170236E-4    3.754529075518043E-1   -3.250833191148922E-1
 9.937413976750000E9     4.688233540403802E-1   -1.160623115060283E-1   -7.576235223761191E-4   -7.165807525684591E-4   -7.589139418510226E-4   -6.743587351516814E-4    3.752880270223420E-1   -3.251828048835496E-1
 9.937416399400000E9     4.688195058130831E-1   -1.163130670989451E-1   -7.346306221107649E-4   -7.256619152963981E-4   -8.045897922838509E-4   -7.128566553163670E-4    3.749056993452594E-1   -3.252618303278693E-1
 9.937418822049999E9     4.687816433444997E-1   -1.164898434783322E-1   -7.629229102850842E-4   -7.575029352166761E-4   -8.187151080239858E-4   -7.122428419842127E-4    3.746478839826818E-1   -3.254524016506221E-1
 9.937421244700001E9     4.687200845238624E-1   -1.166677798125806E-1   -8.056617770156199E-4   -7.370076517539864E-4   -8.049807356593173E-4   -7.350754396745489E-4    3.745621223664842E-1   -3.255169198027824E-1
 9.937423667350000E9     4.686920779584035E-1   -1.167642389658677E-1   -7.846404768139430E-4   -6.994509089848271E-4   -8.107671192358624E-4   -7.375340767130827E-4    3.740731901437582E-1   -3.257632287411730E-1
 9.937426090000000E9     4.685618312218895E-1   -1.168653705507829E-1   -8.259030619454591E-4   -7.560422318879986E-4   -8.461123809057156E-4   -7.924540892363689E-4    3.741154375839129E-1   -3.260163276951887E-1
 9.937428512650000E9     4.685909803697487E-1   -1.170487867849691E-1   -8.429581166359106E-4   -7.869552821581821E-4   -8.820818562146494E-4   -7.481861441501074E-4    3.737966399663241E-1   -3.263181850546321E-1
 9.937430935299999E9     4.684616241529198E-1   -1.172965644293202E-1   -8.445332195648413E-4   -7.535972931869982E-4   -8.620109360679738E-4   -7.649102250104029E-4    3.732840144321111E-1   -3.264036462149349E-1
 9.937433357950001E9     4.683106397791038E-1   -1.173001428877558E-1   -8.521134766025615E-4   -7.838213430823669E-4   -8.719503974926279E-4   -8.076733520432266E-4    3.731932271321838E-1   -3.267482411947129E-1
 9.937435780600000E9     4.685306698180415E-1   -1.174906744340719E-1   -8.538676234129305E-4   -8.148977258552651E-4   -8.760609334014110E-4   -7.924718831445260E-4    3.730879453635428E-1   -3.269007679488267E-1
 9.937438203250000E9     4.685172705129436E-1   -1.176630329543131E-1   -8.858769317923696E-4   -8.165943690853412E-4   -8.902134004779629E-4   -8.377389240376347E-4    3.727783763354535E-1   -3.270450283208138E-1
 9.937440625900000E9     4.683164272405470E-1   -1.178347914713864E-1   -8.955037522195824E-4   -8.257696464553020E-4   -9.359040605443486E-4   -8.332095148832308E-4    3.725082451414067E-1   -3.270992210007924E-1
 9.937443048549999E9     4.681754026003475E-1   -1.179867493639634E-1   -9.074029985787517E-4   -8.300305783501043E-4   -9.433225758323462E-4   -8.557785317229255E-4    3.722025966023520E-1   -3.274714767660281E-1
 9.937445471200001E9     4.681254259079951E-1   -1.181101927518869E-1   -9.171442645221764E-4   -8.451348442290313E-4   -9.233437318871827E-4   -8.261529196270879E-4    3.722074626341844E-1   -3.275793551835857E-1
 9.937447893850000E9     4.681891795643622E-1   -1.183230991047688E-1   -9.709653640761837E-4   -8.664001543607444E-4   -9.528192424390904E-4   -8.632772984180309E-4    3.716860893314780E-1   -3.277696768786149E-1
 9.937450316500000E9     4.681033397299091E-1   -1.185630348754738E-1   -9.259026973871163E-4   -8.734894311481572E-4   -9.419683483007324E-4   -8.812479793739548E-4    3.715969430456187E-1   -3.280264740474331E-1
 9.937452739150000E9     4.679944877223784E-1   -1.186635259578029E-1   -9.763641569924585E-4   -8.984354671789680E-4   -9.902721096874281E-4   -9.073099243783490E-4    3.714118461910706E-1   -3.280632548940760E-1
 9.937455161799999E9     4.678491568063958E-1   -1.187824324931391E-1   -9.688456808059884E-4   -9.038521305182355E-4   -9.938757509617767E-4   -8.822308314927201E-4    3.709775820452298E-1   -3.283719465145016E-1
 9.937457584450001E9     4.680044364510872E-1   -1.190695985203411E-1   -1.024754614052720E-3   -9.394587336418029E-4   -1.013972287963517E-3   -9.103173958857401E-4    3.708808381196095E-1   -3.287287642668069E-1
 9.937460007100000E9     4.677359721208201E-1   -1.191547152192685E-1   -9.762914586899120E-4   -9.192373699471047E-4   -1.033887403808768E-3   -9.364803928173663E-4    3.705281321416285E-1   -3.288062959915857E-1
 9.937462429750000E9     4.679794554783811E-1   -1.194127187562456E-1   -1.051424968121180E-3   -9.627142858656236E-4   -1.035555617404160E-3   -9.239077683404647E-4    3.702613740476640E-1   -3.287833799283779E-1
 9.937464852400000E9     4.678320070113248E-1   -1.194723650953762E-1   -1.029334495472317E-3   -9.578659357498065E-4   -1.082563682475706E-3   -9.497497726733205E-4    3.701610717584320E-1   -3.292156990233851E-1
 9.937467275049999E9     4.675700138418744E-1   -1.196093728069902E-1   -1.034749043409243E-3   -9.719232416308879E-4   -1.120494222460192E-3   -9.588086400088738E-4    3.696321894870115E-1   -3.294024165506848E-1
 9.937469697700001E9     4.676255653312796E-1   -1.198241314945092E-1   -1.096422708494932E-3   -9.774009443047700E-4   -1.115985013704097E-3   -1.004803377937936E-3    3.694406081051977E-1   -3.297153476185203E-1
 9.937472120350000E9     4.676160472520228E-1   -1.199565070416927E-1   -1.078954517608442E-3   -1.009554857355633E-3   -1.140622817384870E-3   -9.723969939667284E-4    3.692915786804361E-1   -3.298066473986817E-1
 9.937474543000000E9     4.677277802964049E-1   -1.201702679518420E-1   -1.140715014225498E-3   -1.012725572696068E-3   -1.129596780009690E-3   -9.865034208490274E-4    3.689465257806731E-1   -3.300915421950191E-1
 9.937476965650000E9     4.675322576432420E-1   -1.203600969501147E-1   -1.142765480495250E-3   -1.015258087030187E-3   -1.179751543323533E-3   -9.989459242798044E-4    3.687165840949256E-1   -3.302340235930912E-1
 9.937479388299999E9     4.673089584857266E-1   -1.204473199754923E-1   -1.130071145628295E-3   -1.032789550838417E-3   -1.165046534913049E-3   -1.039957594172350E-3    3.683538501341185E-1   -3.305336180143051E-1
 9.937481810950001E9     4.673467448628145E-1   -1.206684054279939E-1   -1.196169374603486E-3   -1.054946817166447E-3   -1.208510138350146E-3   -1.071923738931951E-3    3.682176229812705E-1   -3.305035028769586E-1
 9.937484233600000E9     4.673316386210202E-1   -1.208604498906887E-1   -1.203351438739738E-3   -1.065421201813624E-3   -1.224598767028462E-3   -1.104102484160184E-3    3.678778900696453E-1   -3.307979454998463E-1
 9.937486656250000E9     4.672152504605475E-1   -1.209010690291593E-1   -1.207961001746355E-3   -1.089219864795704E-3   -1.260291545512766E-3   -1.097601779703072E-3    3.676387718261867E-1   -3.312430749999083E-1
 9.937489078900000E9     4.673304644325215E-1   -1.211365006495577E-1   -1.238358266623442E-3   -1.126139198950599E-3   -1.287254696102348E-3   -1.086135082697446E-3    3.672871954930626E-1   -3.311896335208290E-1
 9.937491501549999E9     4.672504333108441E-1   -1.212979044135142E-1   -1.234781065052127E-3   -1.141020551537495E-3   -1.281535686834192E-3   -1.143517006373142E-3    3.668357553469945E-1   -3.314038887427586E-1
 9.937493924200001E9     4.671596010957964E-1   -1.214250251481908E-1   -1.304657144585115E-3   -1.137827223242487E-3   -1.302142715403167E-3   -1.130378882705076E-3    3.666735631460984E-1   -3.317978890670628E-1
 9.937496346850000E9     4.670946784693217E-1   -1.215437167047669E-1   -1.301647863784591E-3   -1.161333476149233E-3   -1.324681509767528E-3   -1.134860572254496E-3    3.662095096541879E-1   -3.318779908649400E-1
 9.937498769500000E9     4.670176059291214E-1   -1.219374673484270E-1   -1.310500617125790E-3   -1.143282651970797E-3   -1.367106987883867E-3   -1.199325383374700E-3    3.660698222717974E-1   -3.322020331067904E-1
 9.937501192150000E9     4.668671494882914E-1   -1.221021141463718E-1   -1.347502006534844E-3   -1.180866078443086E-3   -1.371630451206432E-3   -1.125882696220072E-3    3.656199477202475E-1   -3.324443511201652E-1
 9.937503614799999E9     4.668012727136296E-1   -1.220859168935165E-1   -1.348059600561743E-3   -1.189053248901010E-3   -1.409601939322202E-3   -1.206203378702686E-3    3.655181351040221E-1   -3.326752646568253E-1
 9.937506037450001E9     4.669174321911669E-1   -1.221469732719327E-1   -1.367276025459206E-3   -1.228383326986537E-3   -1.417225250741110E-3   -1.232188518523596E-3    3.652904137978819E-1   -3.326327570309600E-1
 9.937508460100000E9     4.668749209809477E-1   -1.223787176201144E-1   -1.406419512066596E-3   -1.257562183550501E-3   -1.444581744577111E-3   -1.238810868616912E-3    3.648068931511256E-1   -3.329299974561936E-1
 9.937510882750000E9     4.666154083835730E-1   -1.224930602538495E-1   -1.437899694613177E-3   -1.266515458016620E-3   -1.469192288684938E-3   -1.242596765835506E-3    3.644224285927770E-1   -3.332288460526639E-1
 9.937513305400000E9     4.666739031659457E-1   -1.227958858512297E-1   -1.406804643851769E-3   -1.246360607752851E-3   -1.461507699474773E-3   -1.252934687484842E-3    3.641146439177089E-1   -3.334061614897387E-1
 9.937515728049999E9     4.667229563190552E-1   -1.228434480268335E-1   -1.451646737335919E-3   -1.287424166352918E-3   -1.491424168260899E-3   -1.301165207201611E-3    3.639222176809168E-1   -3.335847797246408E-1
 9.937518150700001E9     4.666103941107745E-1   -1.230082912338491E-1   -1.494766194354208E-3   -1.261327156171410E-3   -1.500109705429588E-3   -1.308325888987445E-3    3.634450451616588E-1   -3.341015651157270E-1
 9.937520573350000E9     4.666416301345764E-1   -1.232219840073759E-1   -1.531881669526674E-3   -1.297983688762288E-3   -1.550709326958215E-3   -1.319316665400237E-3    3.632222083415443E-1   -3.341004083479081E-1
 9.937522996000000E9     4.664030284702396E-1   -1.235248899901022E-1   -1.535335977613487E-3   -1.324004443124807E-3   -1.559452156944458E-3   -1.338704720671443E-3    3.630286954277680E-1   -3.343189428807286E-1
 9.937525418650000E9     4.664649007435169E-1   -1.235098273747094E-1   -1.534912532322149E-3   -1.359110662909391E-3   -1.619095300558961E-3   -1.343621494834546E-3    3.627561496944252E-1   -3.346740844248380E-1
 9.937527841299999E9     4.664034399588834E-1   -1.238106371034295E-1   -1.583471184133961E-3   -1.346720536109110E-3   -1.653254483332890E-3   -1.386251443212295E-3    3.623576427938238E-1   -3.347118620809197E-1
 9.937530263950001E9     4.663737495944187E-1   -1.239515963317004E-1   -1.653203264256819E-3   -1.413423945978555E-3   -1.671980923993486E-3   -1.368399836128849E-3    3.618931694881956E-1   -3.351279078734265E-1
 9.937532686600000E9     4.663279003195406E-1   -1.240198443720479E-1   -1.639306488462688E-3   -1.400073242102661E-3   -1.686539303994567E-3   -1.439675317510648E-3    3.614205649026227E-1   -3.352891891039482E-1
 9.937535109250000E9     4.662963107626502E-1   -1.241640257884187E-1   -1.692154202663577E-3   -1.417606779061260E-3   -1.709085858721373E-3   -1.423053822837788E-3    3.610907458514680E-1   -3.355998584648708E-1
 9.937537531900000E9     4.662498319652770E-1   -1.244325351204298E-1   -1.719350990097724E-3   -1.446930963117893E-3   -1.762392011604393E-3   -1.452970150817150E-3    3.607030488772457E-1   -3.359256503163813E-1
 9.937539954549999E9     4.661129129219148E-1   -1.245970599942161E-1   -1.703048225898627E-3   -1.496646853681583E-3   -1.765346018460264E-3   -1.482515995061778E-3    3.603915138743389E-1   -3.357650881811733E-1
 9.937542377200001E9     4.659654182020739E-1   -1.246440886866161E-1   -1.770067586939214E-3   -1.505859769252980E-3   -1.804623723060647E-3   -1.465369527031270E-3    3.599914389102353E-1   -3.361268509219265E-1
 9.937544799850000E9     4.660616968350546E-1   -1.248774722177779E-1   -1.818940978223914E-3   -1.483214505509039E-3   -1.819668607973105E-3   -1.508754363646634E-3    3.596611822511158E-1   -3.363520867621862E-1
 9.937547222500000E9     4.658449761790599E-1   -1.249632226155211E-1   -1.834543409381052E-3   -1.522209131389798E-3   -1.852592636635834E-3   -1.521849680551998E-3    3.592179965621452E-1   -3.366900937940073E-1
