#  HZ   S   RI   R     50.00 
! Rohde & Schwarz Vector Network Analyzer 
! Rohde-Schwarz,ZNB20-2Port,1311601062101988,3.16
! Created: UTC 3/20/2024, 11:11:10 PM
! freq[Hz]                re:S11                  im:S11                  re:S21                  im:S21                  re:S12                  im:S12                  re:S22                  im:S22
 9.937334216000000E9     4.705768081299466E-1   -1.106756772022423E-1   -4.114511948865958E-4   -3.841678824246883E-4   -4.258758019253169E-4   -3.883483879053311E-4    3.818429225009043E-1   -3.191882387785330E-1
 9.937336627700001E9     4.704705609898363E-1   -1.110645900925731E-1   -4.171906718383260E-4   -3.966111680541221E-4   -4.162500049764113E-4   -3.716667882893645E-4    3.816740021131033E-1   -3.190092527392897E-1
 9.937339039400000E9     4.703715164181734E-1   -1.110770992326202E-1   -4.484818619961290E-4   -4.012661759773078E-4   -4.501333051490901E-4   -3.934078646589535E-4    3.814182513802137E-1   -3.195045401635752E-1
 9.937341451100000E9     4.703377897366565E-1   -1.111685013427839E-1   -4.294902319198688E-4   -4.151266415739259E-4   -4.459058561757083E-4   -3.949304433696707E-4    3.811972654605134E-1   -3.196574184414276E-1
 9.937343862799999E9     4.703772019974004E-1   -1.114161295340837E-1   -4.777873838345005E-4   -4.406317937175640E-4   -4.478512720977671E-4   -4.164649193688971E-4    3.811503986858035E-1   -3.197730014119798E-1
 9.937346274500000E9     4.704295977960608E-1   -1.115430012862487E-1   -4.745932910170815E-4   -4.470514660230797E-4   -4.884458730401399E-4   -4.133273003927615E-4    3.809000916795659E-1   -3.200324301409478E-1
 9.937348686200001E9     4.702177707967296E-1   -1.117981323822864E-1   -4.729003238343089E-4   -4.525723341438207E-4   -4.719731580894477E-4   -4.276369549123941E-4    3.804373388112327E-1   -3.200231304088292E-1
 9.937351097900000E9     4.700726401414710E-1   -1.117914456906612E-1   -4.932848935532482E-4   -4.488442172097325E-4   -4.602405465961549E-4   -4.521255420100502E-4    3.804387625069973E-1   -3.203808444196605E-1
 9.937353509600000E9     4.701700919701244E-1   -1.120691463383078E-1   -4.580232823964616E-4   -4.423578635928728E-4   -5.084427521286412E-4   -4.560733843625122E-4    3.803466136851128E-1   -3.205735062396103E-1
 9.937355921299999E9     4.701792534470037E-1   -1.122398416711011E-1   -4.802265387435190E-4   -4.294485269113846E-4   -5.006282387396828E-4   -4.462906906528014E-4    3.800860340604040E-1   -3.206033326930114E-1
 9.937358333000000E9     4.701741291565881E-1   -1.123881726980381E-1   -4.972289773530575E-4   -4.767023996381584E-4   -5.165408217003628E-4   -4.660168026211502E-4    3.798302784856226E-1   -3.207711319759309E-1
 9.937360744700001E9     4.701429956263860E-1   -1.126201666803916E-1   -4.989153484413751E-4   -4.914611738380775E-4   -5.542625500459010E-4   -4.849651157373389E-4    3.797244905441342E-1   -3.210096248827696E-1
 9.937363156400000E9     4.699283496427939E-1   -1.127989129413985E-1   -4.966914507664727E-4   -5.119961523133111E-4   -5.182807979235336E-4   -4.893300946623016E-4    3.794594160634179E-1   -3.210539338123259E-1
 9.937365568100000E9     4.699628380727442E-1   -1.130158931692399E-1   -5.333644774850849E-4   -5.020178656628519E-4   -5.396506717860704E-4   -5.208641395418957E-4    3.795809267500317E-1   -3.213569906365216E-1
 9.937367979799999E9     4.698070708915575E-1   -1.130199032955700E-1   -5.491510391236051E-4   -4.726050803440516E-4   -5.437476915753652E-4   -4.681836369372431E-4    3.791414571455696E-1   -3.214322678737302E-1
 9.937370391500000E9     4.697424077336881E-1   -1.131678868056983E-1   -5.429865836987498E-4   -5.241338875759047E-4   -6.040452256468662E-4   -5.048859874158981E-4    3.790223291355114E-1   -3.217962633299181E-1
 9.937372803200001E9     4.696349526517523E-1   -1.133090704013471E-1   -5.492400868971101E-4   -5.250592237677969E-4   -5.569634585420634E-4   -5.470764308336274E-4    3.788633403326174E-1   -3.219727746635851E-1
 9.937375214900000E9     4.696575355333020E-1   -1.134657474078982E-1   -5.756330804753173E-4   -5.367393087067922E-4   -5.900960991250912E-4   -5.427196504603553E-4    3.784430159351403E-1   -3.220489220121101E-1
 9.937377626600000E9     4.695629407342026E-1   -1.136044479645579E-1   -5.629865594471401E-4   -5.374445178045185E-4   -5.916865401712923E-4   -5.454034288592768E-4    3.783235435045543E-1   -3.222640313523596E-1
 9.937380038299999E9     4.696010915059211E-1   -1.139089466260591E-1   -5.782671739199478E-4   -5.454723870136298E-4   -6.156723459467629E-4   -5.673462241215191E-4    3.780890835394592E-1   -3.224519302714499E-1
 9.937382450000000E9     4.695745872674512E-1   -1.139936845264373E-1   -5.651425011059287E-4   -5.464293878469508E-4   -5.998413563705539E-4   -6.025829697831296E-4    3.779085465384303E-1   -3.226685353688296E-1
 9.937384861700001E9     4.693375597952136E-1   -1.140262613955145E-1   -5.963059730933960E-4   -5.998516148622305E-4   -5.929082393843601E-4   -5.490294034009577E-4    3.776407747477855E-1   -3.227258977464681E-1
 9.937387273400000E9     4.693280435346312E-1   -1.143345842259936E-1   -5.972305021303705E-4   -5.626387574774577E-4   -6.339573051090303E-4   -5.774324968213371E-4    3.776151683545488E-1   -3.229482519652302E-1
 9.937389685100000E9     4.694717338915994E-1   -1.145677298038748E-1   -6.199236721097931E-4   -5.831322812598339E-4   -6.136576861906738E-4   -5.779383789721723E-4    3.772909077506519E-1   -3.230849835692257E-1
 9.937392096799999E9     4.694473203941483E-1   -1.145909460243798E-1   -6.215282747953503E-4   -5.728368279493170E-4   -6.309022841294195E-4   -6.452108307999813E-4    3.771105842428834E-1   -3.232258048642602E-1
 9.937394508500000E9     4.693910718859453E-1   -1.147808352155795E-1   -6.522312903025918E-4   -6.252095677639607E-4   -6.382654442957739E-4   -5.904113024212778E-4    3.770762279276376E-1   -3.235312266098394E-1
 9.937396920200001E9     4.692250970265017E-1   -1.150328358849241E-1   -6.730518221295112E-4   -6.123900020596399E-4   -6.656333374776033E-4   -6.293426681650814E-4    3.768170918887070E-1   -3.237335591894759E-1
 9.937399331900000E9     4.692718751523424E-1   -1.151449162056578E-1   -6.630295214708111E-4   -6.281960536728299E-4   -6.683504666978371E-4   -6.290449287634712E-4    3.765406734121042E-1   -3.238793093125266E-1
 9.937401743600000E9     4.691660807050548E-1   -1.153022409368388E-1   -6.826442102272247E-4   -6.427722507064872E-4   -6.850578529409412E-4   -6.248232325848603E-4    3.762929868540312E-1   -3.240984225732565E-1
 9.937404155299999E9     4.691155538230602E-1   -1.154095350190966E-1   -6.979626307618428E-4   -6.385169854823925E-4   -7.044519512860778E-4   -6.526128979694579E-4    3.760302384545209E-1   -3.243889236986812E-1
 9.937406567000000E9     4.689830399194000E-1   -1.155558607347942E-1   -6.795680003597641E-4   -6.682842594596440E-4   -7.477490708478798E-4   -6.975249780845406E-4    3.759281292564221E-1   -3.246135903042969E-1
 9.937408978700001E9     4.690353685880961E-1   -1.158384707608569E-1   -7.199710556561681E-4   -6.685774415007681E-4   -7.131449196700117E-4   -6.798921541057402E-4    3.756520110039906E-1   -3.247509294910075E-1
 9.937411390400000E9     4.689025578280798E-1   -1.160709576254581E-1   -7.354224269372313E-4   -6.876855467654591E-4   -7.476705273007236E-4   -6.687416484772140E-4    3.754969815096686E-1   -3.247149434102835E-1
 9.937413802100000E9     4.687366225705474E-1   -1.161889745889245E-1   -7.515584211287341E-4   -6.734456977028703E-4   -7.831572235128972E-4   -6.884661698170227E-4    3.753033941506101E-1   -3.251888859680741E-1
 9.937416213799999E9     4.686881565383583E-1   -1.162347087445482E-1   -7.290974131549068E-4   -7.248455032511492E-4   -7.769326374998792E-4   -7.031511114367583E-4    3.748912019573181E-1   -3.251054846072464E-1
 9.937418625500000E9     4.687805535241546E-1   -1.164453218700139E-1   -7.582223737475037E-4   -7.360715364470506E-4   -7.637510648470726E-4   -7.170940365902453E-4    3.746979974259471E-1   -3.254188938823730E-1
 9.937421037200001E9     4.688014253683934E-1   -1.165772846163920E-1   -8.009085552797067E-4   -7.645569375633743E-4   -8.011631484264837E-4   -7.595463309545677E-4    3.744662371467957E-1   -3.255781623651968E-1
 9.937423448900000E9     4.687358685854354E-1   -1.167162658949527E-1   -7.801773691591297E-4   -7.270910235424873E-4   -7.883613279630461E-4   -7.150375320764073E-4    3.741163830946124E-1   -3.257411345303288E-1
 9.937425860600000E9     4.685555060810905E-1   -1.167809433357312E-1   -8.292625136340766E-4   -7.792951769621764E-4   -8.361710000055802E-4   -7.588015823821148E-4    3.740614485665287E-1   -3.258945029296976E-1
 9.937428272299999E9     4.686443370412631E-1   -1.170452483944324E-1   -8.528361728973552E-4   -7.586935437292160E-4   -8.163292711000045E-4   -7.467870789781990E-4    3.740086179499409E-1   -3.261665343880061E-1
 9.937430684000000E9     4.685539639819387E-1   -1.172419394134921E-1   -8.382260984613903E-4   -7.690494810641376E-4   -8.262180367166897E-4   -7.497018432544810E-4    3.736364489972182E-1   -3.262924110926635E-1
 9.937433095700001E9     4.685473008103542E-1   -1.174053681352919E-1   -8.424452751332205E-4   -7.586460847398421E-4   -8.884178224556239E-4   -7.892993970583567E-4    3.734232367884208E-1   -3.263773181240454E-1
 9.937435507400000E9     4.684555838196190E-1   -1.175885008283506E-1   -8.546061243263726E-4   -7.964080634139473E-4   -8.443223734894048E-4   -8.036274487450605E-4    3.732375124756602E-1   -3.267143303961990E-1
 9.937437919100000E9     4.685210213413099E-1   -1.178499654291595E-1   -8.598677994813254E-4   -7.976537027563693E-4   -8.874250311951114E-4   -8.060512092701672E-4    3.729727517269608E-1   -3.270289002214858E-1
 9.937440330799999E9     4.683477902493435E-1   -1.178224202140881E-1   -9.049423534852503E-4   -8.520332019058643E-4   -9.217317952703979E-4   -8.015520838553490E-4    3.725893374950641E-1   -3.272898617209860E-1
 9.937442742500000E9     4.681804694940061E-1   -1.180287168011844E-1   -8.841239521745093E-4   -8.260617769906750E-4   -8.994554048604468E-4   -8.345430001009277E-4    3.723778812708164E-1   -3.273119392169522E-1
 9.937445154200001E9     4.681956457060587E-1   -1.181462792994394E-1   -8.791892962363493E-4   -8.505175571166970E-4   -9.319257892289168E-4   -8.321546139929109E-4    3.722097802736819E-1   -3.277704614310367E-1
 9.937447565900000E9     4.681513726254059E-1   -1.184672268475271E-1   -9.635003488624023E-4   -8.611931793746484E-4   -9.397242395400376E-4   -8.883113994875025E-4    3.720272437763965E-1   -3.278432255822095E-1
 9.937449977600000E9     4.680479348687865E-1   -1.184946556558617E-1   -9.484541463470521E-4   -8.818740931620650E-4   -9.578202575650549E-4   -8.520869442319191E-4    3.717398850733459E-1   -3.279670807257150E-1
 9.937452389299999E9     4.680293353393312E-1   -1.187439799847042E-1   -9.213223823593187E-4   -8.789001500373618E-4   -9.744799103641583E-4   -9.036615587116045E-4    3.713508706025175E-1   -3.280496693597754E-1
 9.937454801000000E9     4.679790774228500E-1   -1.189820201567240E-1   -9.302270910319668E-4   -8.944896234657173E-4   -1.001160480357631E-3   -9.087992532583326E-4    3.711324224539125E-1   -3.284289952894926E-1
 9.937457212700001E9     4.679250948478744E-1   -1.190152888306400E-1   -9.670885028340899E-4   -9.214324813307168E-4   -1.023882123781891E-3   -8.848452599994547E-4    3.710291068147766E-1   -3.285870111667930E-1
 9.937459624400000E9     4.679027187130868E-1   -1.191791749111118E-1   -1.015609075464808E-3   -9.409278046615277E-4   -1.058746711527349E-3   -9.352109021559240E-4    3.707810758563726E-1   -3.286930676413375E-1
 9.937462036100000E9     4.678313372658145E-1   -1.193033430725857E-1   -1.019997211466449E-3   -9.267260055426515E-4   -1.022216261536580E-3   -8.985655990386207E-4    3.703922003065636E-1   -3.289489687732279E-1
 9.937464447799999E9     4.678748461707691E-1   -1.194188734993714E-1   -1.013387269430670E-3   -9.440863762217127E-4   -1.084410052500574E-3   -9.559566148120225E-4    3.701773750623076E-1   -3.291844394414458E-1
 9.937466859500000E9     4.677270330337369E-1   -1.197311895403622E-1   -1.044316901323068E-3   -9.797629378370217E-4   -1.076407707802677E-3   -9.686436613907211E-4    3.699727537720080E-1   -3.293167981942551E-1
 9.937469271200001E9     4.677070159200843E-1   -1.197562238333683E-1   -1.059411627398230E-3   -9.747205809674738E-4   -1.087693415287871E-3   -9.877324567334356E-4    3.697725901618891E-1   -3.295181669547371E-1
 9.937471682900000E9     4.676098473171904E-1   -1.199175926360178E-1   -1.088275792503065E-3   -9.853724493096231E-4   -1.094071150822063E-3   -9.747626183268377E-4    3.694833556989231E-1   -3.298268700752528E-1
 9.937474094600000E9     4.676510134455684E-1   -1.201330731616125E-1   -1.120287740666935E-3   -1.041205879319439E-3   -1.146999467009376E-3   -1.020889171408820E-3    3.689773062273147E-1   -3.299648726264818E-1
 9.937476506299999E9     4.676037000290224E-1   -1.203168611274563E-1   -1.123448441108904E-3   -9.956617398651972E-4   -1.129645682034419E-3   -1.027797891180118E-3    3.689457905064479E-1   -3.302685829343161E-1
 9.937478918000000E9     4.674595233341469E-1   -1.204405463055531E-1   -1.147692673026623E-3   -1.050470379675861E-3   -1.185845132960599E-3   -1.011639523935439E-3    3.685084808980331E-1   -3.306142789150259E-1
 9.937481329700001E9     4.672931693273160E-1   -1.206903965442513E-1   -1.151395020687639E-3   -1.059730043358551E-3   -1.143855973611215E-3   -1.034202042474838E-3    3.683081522121842E-1   -3.305417145833622E-1
 9.937483741400000E9     4.673664728649141E-1   -1.207132612424960E-1   -1.150284755948383E-3   -1.076706745583797E-3   -1.209035259584487E-3   -1.064163301820195E-3    3.679199361924834E-1   -3.307953207840597E-1
 9.937486153100000E9     4.673266248267707E-1   -1.210263828104639E-1   -1.202162200259360E-3   -1.064256249741901E-3   -1.227829003078054E-3   -1.091412551918288E-3    3.676365998984385E-1   -3.309758269900396E-1
 9.937488564799999E9     4.671646245418483E-1   -1.211277352047837E-1   -1.227729581509705E-3   -1.075055174048829E-3   -1.259639109066377E-3   -1.096402386059830E-3    3.673825863905184E-1   -3.312264776842184E-1
 9.937490976500000E9     4.671722799620935E-1   -1.214623908481320E-1   -1.261454366084726E-3   -1.091143716774730E-3   -1.291540968190471E-3   -1.137574704917034E-3    3.672509524976917E-1   -3.314245330697083E-1
 9.937493388200001E9     4.672055785489241E-1   -1.213932891098178E-1   -1.208266256294891E-3   -1.131917466014896E-3   -1.267928544259408E-3   -1.100888413432678E-3    3.667667124171060E-1   -3.316174950136516E-1
 9.937495799900000E9     4.670502599559688E-1   -1.216243096135724E-1   -1.264081309145065E-3   -1.171032441743286E-3   -1.289439736790270E-3   -1.131513159755657E-3    3.666483682898610E-1   -3.319829201629556E-1
 9.937498211600000E9     4.670320106958013E-1   -1.217367242823222E-1   -1.291913061083523E-3   -1.141879612412635E-3   -1.329497948633848E-3   -1.165173560100092E-3    3.662584943744263E-1   -3.322150448776593E-1
 9.937500623299999E9     4.668994523449718E-1   -1.220190993587316E-1   -1.319277734200146E-3   -1.173343502682092E-3   -1.352415606923478E-3   -1.161946091631576E-3    3.659606367752501E-1   -3.321590231410649E-1
 9.937503035000000E9     4.668981322771847E-1   -1.220531682408591E-1   -1.339253480743428E-3   -1.175369648225179E-3   -1.341251068616763E-3   -1.166044022436682E-3    3.654581141996052E-1   -3.326874395955894E-1
 9.937505446700001E9     4.667918867357847E-1   -1.221937330430204E-1   -1.359297561479571E-3   -1.190925458208723E-3   -1.384207456891799E-3   -1.209910346799379E-3    3.653362638450557E-1   -3.326118248857682E-1
 9.937507858400000E9     4.667683529566737E-1   -1.224788275578883E-1   -1.372601176415897E-3   -1.197764103575502E-3   -1.391599685411932E-3   -1.220762504196836E-3    3.650149149540833E-1   -3.331414759801921E-1
 9.937510270100000E9     4.668118962873536E-1   -1.224337239629357E-1   -1.436146219919649E-3   -1.221201879569427E-3   -1.450159114172807E-3   -1.239005182751645E-3    3.648503903603250E-1   -3.330673322877197E-1
 9.937512681799999E9     4.667168028598223E-1   -1.227396745796635E-1   -1.458914361016666E-3   -1.278137479960323E-3   -1.485886271647160E-3   -1.252943774041225E-3    3.645156281307769E-1   -3.333675569396957E-1
 9.937515093500000E9     4.667185321765363E-1   -1.229463983523179E-1   -1.439928004244605E-3   -1.269781260946719E-3   -1.479752259231550E-3   -1.277483175423673E-3    3.640483960400200E-1   -3.335285816873692E-1
 9.937517505200001E9     4.666181249195972E-1   -1.229824764084074E-1   -1.476869766502694E-3   -1.275281059545182E-3   -1.493966114490427E-3   -1.269979598980882E-3    3.636586591519907E-1   -3.337738460824634E-1
 9.937519916900000E9     4.665046330410771E-1   -1.232063126342850E-1   -1.499871921796964E-3   -1.305818155765809E-3   -1.540301285418913E-3   -1.330831069745066E-3    3.634416812205922E-1   -3.338459315473445E-1
 9.937522328600000E9     4.665198866210108E-1   -1.233509437472116E-1   -1.501511222234531E-3   -1.297223953525379E-3   -1.529026809732389E-3   -1.311186698014287E-3    3.630624029413388E-1   -3.342364807555446E-1
 9.937524740299999E9     4.663865477177253E-1   -1.234420368389832E-1   -1.543321712625686E-3   -1.348202029864999E-3   -1.615812635277972E-3   -1.308249467635627E-3    3.627929489878683E-1   -3.344659166895491E-1
 9.937527152000000E9     4.664001684571548E-1   -1.236086298311251E-1   -1.542137069975301E-3   -1.323910211498879E-3   -1.582969849757290E-3   -1.344834324497588E-3    3.625112386935954E-1   -3.345864020161453E-1
 9.937529563700001E9     4.662666570018334E-1   -1.239592477328182E-1   -1.574848464619444E-3   -1.359030469605707E-3   -1.646738242900601E-3   -1.367713369715493E-3    3.619427937270125E-1   -3.349841527031371E-1
 9.937531975400000E9     4.662708517002169E-1   -1.239474250969514E-1   -1.596644897161985E-3   -1.388099659873230E-3   -1.664746428210386E-3   -1.397748181272823E-3    3.617419689227072E-1   -3.352090117003019E-1
 9.937534387100000E9     4.661606364877817E-1   -1.241447778283397E-1   -1.655333939798488E-3   -1.415911220866749E-3   -1.698522067127870E-3   -1.399893952567305E-3    3.613927257894005E-1   -3.354848223145196E-1
 9.937536798799999E9     4.660282829892051E-1   -1.244500733000214E-1   -1.656345169635924E-3   -1.455698518836369E-3   -1.727706824398602E-3   -1.442311273304236E-3    3.611294891005487E-1   -3.356041166247501E-1
 9.937539210500000E9     4.660948251765015E-1   -1.243885421660251E-1   -1.704896095376310E-3   -1.437888505194290E-3   -1.741515326012404E-3   -1.452265289943228E-3    3.606617625484048E-1   -3.359413904512558E-1
 9.937541622200001E9     4.660363485524382E-1   -1.245348407194433E-1   -1.743297715039977E-3   -1.432916778444021E-3   -1.771375766247086E-3   -1.482250806478571E-3    3.603341494143479E-1   -3.359950791605253E-1
 9.937544033900000E9     4.660426435567800E-1   -1.248936131194885E-1   -1.764184630730277E-3   -1.486525605152421E-3   -1.790005137075062E-3   -1.500922616853348E-3    3.600546120421241E-1   -3.363634208843843E-1
 9.937546445600000E9     4.660287425859544E-1   -1.249272446570142E-1   -1.773173031698151E-3   -1.499153852857337E-3   -1.824234073107745E-3   -1.541345469516545E-3    3.596368216618763E-1   -3.365968341221112E-1
 9.937548857299999E9     4.658743998927489E-1   -1.251077792371776E-1   -1.811517243521696E-3   -1.545124757830852E-3   -1.875266631680121E-3   -1.520259976417810E-3    3.592019993630502E-1   -3.368035930041772E-1
 9.937551269000000E9     4.657951547682521E-1   -1.252875811651407E-1   -1.873033577553543E-3   -1.535060685911116E-3   -1.907642505853949E-3   -1.541891324690717E-3    3.586874126507640E-1   -3.369979722251334E-1
