#  HZ   S   RI   R     50.00 
! Rohde & Schwarz Vector Network Analyzer 
! Rohde-Schwarz,ZNB20-2Port,1311601062101988,3.16
! Created: UTC 3/20/2024, 11:11:17 PM
! freq[Hz]                re:S11                  im:S11                  re:S21                  im:S21                  re:S12                  im:S12                  re:S22                  im:S22
 9.937331932000000E9     4.707513559071271E-1   -1.105254818763032E-1   -3.953569016297128E-4   -3.721396841294409E-4   -3.962569714455785E-4   -3.709161135368946E-4    3.821042041564758E-1   -3.188734340860289E-1
 9.937334358775000E9     4.704342608604078E-1   -1.108109470161814E-1   -4.298649785127041E-4   -3.805787596070201E-4   -4.029909905029872E-4   -3.662040607715863E-4    3.818070015072582E-1   -3.190603718733963E-1
 9.937336785549999E9     4.705994747496984E-1   -1.108247643671176E-1   -4.004456105437321E-4   -3.574057866041303E-4   -4.320115607131375E-4   -3.749072841107782E-4    3.816136468650664E-1   -3.193127244442355E-1
 9.937339212325001E9     4.704554601945370E-1   -1.110691566508351E-1   -4.191568543678527E-4   -3.990919385472000E-4   -4.006748175731068E-4   -3.743639134993509E-4    3.813498678383304E-1   -3.195452228171790E-1
 9.937341639100000E9     4.704162840893947E-1   -1.114008914404137E-1   -4.494552220832047E-4   -4.039400571065255E-4   -4.690204893510455E-4   -3.963358785530620E-4    3.812637215040836E-1   -3.194464599917030E-1
 9.937344065875000E9     4.703104142415487E-1   -1.113268386516922E-1   -4.486265027191498E-4   -3.803640149453734E-4   -4.832167354599604E-4   -4.076565712904349E-4    3.811155551152998E-1   -3.197886115335650E-1
 9.937346492650000E9     4.703294414440046E-1   -1.115335142663825E-1   -4.731898917315751E-4   -4.492102398277603E-4   -4.373660895716758E-4   -4.013255606769430E-4    3.809527989181691E-1   -3.200633546024933E-1
 9.937348919424999E9     4.701597971879120E-1   -1.116836618907380E-1   -4.556507557445060E-4   -4.437501836117719E-4   -4.804635498205288E-4   -4.285626568754800E-4    3.808462247494411E-1   -3.200741439820578E-1
 9.937351346200001E9     4.701867075439061E-1   -1.119581666350049E-1   -4.880130202674299E-4   -4.597097543248692E-4   -4.802537811047279E-4   -4.501735511695878E-4    3.806557292593454E-1   -3.202566520679944E-1
 9.937353772975000E9     4.701942428543823E-1   -1.120575511646604E-1   -4.491313619067519E-4   -4.383043654596257E-4   -4.678934892481313E-4   -4.263479743543537E-4    3.803887015646302E-1   -3.203713352092949E-1
 9.937356199750000E9     4.700259732126962E-1   -1.122825409802394E-1   -4.613187757408365E-4   -4.467900663900776E-4   -4.760667474297749E-4   -4.559375873060351E-4    3.800656269550914E-1   -3.206095013563915E-1
 9.937358626525000E9     4.699014476322989E-1   -1.124745724672711E-1   -5.070297507125563E-4   -4.321455196596387E-4   -5.110800357924332E-4   -4.500721067229416E-4    3.802484827714419E-1   -3.210140052158538E-1
 9.937361053299999E9     4.700153129774335E-1   -1.125201568099105E-1   -5.253760409489255E-4   -4.988138841329806E-4   -4.920081166684181E-4   -4.902423911727756E-4    3.797339543284420E-1   -3.210171616929554E-1
 9.937363480075001E9     4.698043379710173E-1   -1.127708475866741E-1   -4.880147074994556E-4   -4.785529960157218E-4   -5.406938471557666E-4   -4.885367635594680E-4    3.796011967375342E-1   -3.210563023965913E-1
 9.937365906850000E9     4.697933746688387E-1   -1.129825465013497E-1   -5.387026376514306E-4   -4.694561237505340E-4   -5.273013533437654E-4   -4.843793457101812E-4    3.793838604782876E-1   -3.213172890183189E-1
 9.937368333625000E9     4.698851018280018E-1   -1.130608378368629E-1   -5.196507222662247E-4   -5.442846794328023E-4   -5.333055444428949E-4   -4.771907637794298E-4    3.792355859623238E-1   -3.215522955749485E-1
 9.937370760400000E9     4.697234327751536E-1   -1.132367258143669E-1   -5.627515565768135E-4   -5.190699135299514E-4   -5.404939976383009E-4   -4.952580765514160E-4    3.790486140708194E-1   -3.216978952817238E-1
 9.937373187174999E9     4.695966906911252E-1   -1.133522547642688E-1   -5.498873630733194E-4   -5.156206478835433E-4   -5.511467275406713E-4   -5.204412389289112E-4    3.787313399461826E-1   -3.219819004472850E-1
 9.937375613950001E9     4.697015129610315E-1   -1.136267037496032E-1   -5.716562921861848E-4   -5.387215981385818E-4   -5.639606250798093E-4   -5.241899093009016E-4    3.787365650030234E-1   -3.222045353571382E-1
 9.937378040725000E9     4.695608964131791E-1   -1.136727889999284E-1   -5.740365281926063E-4   -5.476486838504911E-4   -5.659226319116755E-4   -5.523438705084891E-4    3.783227594383500E-1   -3.222925051198766E-1
 9.937380467500000E9     4.694961050507488E-1   -1.139986618977202E-1   -5.995121742674265E-4   -5.312849362191876E-4   -5.761962825931949E-4   -5.585354158909690E-4    3.781279472168247E-1   -3.225446123670280E-1
 9.937382894275000E9     4.695174022487288E-1   -1.140389851833523E-1   -6.006765961488192E-4   -5.783885400668687E-4   -6.031079617559721E-4   -5.386462009084715E-4    3.778786251010728E-1   -3.226884045192682E-1
 9.937385321049999E9     4.693037435957844E-1   -1.142681182338778E-1   -6.022649199324500E-4   -5.810362394091899E-4   -6.023873726311003E-4   -5.482305902862016E-4    3.780095766153332E-1   -3.228877140684742E-1
 9.937387747825001E9     4.695151827270827E-1   -1.144163961739887E-1   -6.109205110851263E-4   -5.960659589901020E-4   -6.223326464394248E-4   -5.726658782524726E-4    3.775657380249814E-1   -3.230074562009766E-1
 9.937390174600000E9     4.693542961798250E-1   -1.144928935323168E-1   -6.143502293191456E-4   -5.827391983233160E-4   -6.167497440031322E-4   -6.057746952307172E-4    3.775353749689258E-1   -3.233160543342508E-1
 9.937392601375000E9     4.693348470151648E-1   -1.147205945257827E-1   -6.322724177847111E-4   -5.821083262440793E-4   -6.390481337822546E-4   -5.878923906759233E-4    3.772973264026651E-1   -3.234781974014758E-1
 9.937395028150000E9     4.693280456308921E-1   -1.148160758461943E-1   -6.418899122501444E-4   -5.945656865084882E-4   -6.453718457535508E-4   -5.916027200955656E-4    3.771201958501316E-1   -3.234161722781913E-1
 9.937397454924999E9     4.693050454238201E-1   -1.151368210284650E-1   -6.678720357389395E-4   -6.091246943731166E-4   -6.659136153032134E-4   -6.049981403795981E-4    3.768497364937438E-1   -3.236256740917742E-1
 9.937399881700001E9     4.693021642562017E-1   -1.151811635205367E-1   -6.533179448106829E-4   -6.387164445360464E-4   -6.639003475509855E-4   -6.465025534301400E-4    3.765724220012152E-1   -3.238787456795809E-1
 9.937402308475000E9     4.690117969275105E-1   -1.154308209859225E-1   -6.965187033956030E-4   -6.279762421511009E-4   -6.682769720023123E-4   -6.244229964085302E-4    3.762110558986443E-1   -3.241608883468464E-1
 9.937404735250000E9     4.689669973791207E-1   -1.155973663550453E-1   -6.842487890064235E-4   -6.415009174496102E-4   -6.938754275913420E-4   -6.414800973375762E-4    3.761661002006155E-1   -3.242647756114951E-1
 9.937407162025000E9     4.690006469601801E-1   -1.156991209710237E-1   -7.052553226719081E-4   -6.280532537824241E-4   -7.159019785068304E-4   -6.909877340282591E-4    3.757233322182278E-1   -3.244757747416039E-1
 9.937409588799999E9     4.689353557669763E-1   -1.159718633289283E-1   -6.873420780811214E-4   -6.834681138101549E-4   -7.302091379967239E-4   -6.617100428064521E-4    3.757848844607423E-1   -3.246405595056256E-1
 9.937412015575001E9     4.690234051466092E-1   -1.159262365620551E-1   -6.947407039300247E-4   -6.595263491771560E-4   -7.292534686984876E-4   -7.160743027201026E-4    3.752704805032667E-1   -3.249669000272672E-1
 9.937414442350000E9     4.687662189794212E-1   -1.160606551022203E-1   -7.557041911119207E-4   -7.089600188455376E-4   -7.610982093202817E-4   -7.041248673773980E-4    3.752482182528931E-1   -3.250996149459701E-1
 9.937416869125000E9     4.687082807390140E-1   -1.164106444360544E-1   -7.565765652387480E-4   -7.247223575755919E-4   -7.668713060732088E-4   -7.165138805377020E-4    3.750120919911195E-1   -3.252255824882791E-1
 9.937419295900000E9     4.688488409043036E-1   -1.165253719676831E-1   -7.729026498717752E-4   -7.127805178904325E-4   -7.594394960500832E-4   -7.037551187722004E-4    3.745400369837691E-1   -3.254066540696618E-1
 9.937421722674999E9     4.687827965287460E-1   -1.166583796057635E-1   -7.845190225790886E-4   -7.566224387325224E-4   -7.830288296744147E-4   -7.299903466192913E-4    3.746056034594616E-1   -3.256566257036920E-1
 9.937424149450001E9     4.687373960166784E-1   -1.168775549218987E-1   -7.615628036388546E-4   -7.343067226099676E-4   -8.005634141335957E-4   -7.510500860442679E-4    3.743104370399314E-1   -3.258806093722127E-1
 9.937426576225000E9     4.687105542353242E-1   -1.169403081242031E-1   -8.030912301980939E-4   -7.405335538500180E-4   -8.447047680336291E-4   -7.388474815257412E-4    3.740693313120853E-1   -3.258764562772791E-1
 9.937429003000000E9     4.685908472820650E-1   -1.171799698181120E-1   -8.070636269206558E-4   -7.479021111676732E-4   -8.634267030810933E-4   -7.622550558061013E-4    3.739149420296594E-1   -3.260174400188898E-1
 9.937431429775000E9     4.685923925203822E-1   -1.173640103544533E-1   -8.068367053256536E-4   -7.904862486043102E-4   -8.365550137668581E-4   -7.788997093592881E-4    3.734953019093344E-1   -3.263913558953013E-1
 9.937433856549999E9     4.684904083391394E-1   -1.174230526916196E-1   -8.435672505659081E-4   -7.497342056998320E-4   -8.393636638394472E-4   -7.805872293603153E-4    3.733141884660831E-1   -3.265554005869134E-1
 9.937436283325001E9     4.684395540198071E-1   -1.175494855971836E-1   -8.470677529974935E-4   -8.103964260309101E-4   -8.744675028453726E-4   -7.735652864376787E-4    3.730427336795284E-1   -3.269063432358643E-1
 9.937438710100000E9     4.684289346124736E-1   -1.178552518287227E-1   -8.496525722725177E-4   -8.444790292514999E-4   -8.559360803613382E-4   -8.118848535281887E-4    3.730180620973921E-1   -3.271248737978626E-1
 9.937441136875000E9     4.683168436999608E-1   -1.178780105263914E-1   -8.719089831977210E-4   -7.706986518802460E-4   -8.913791138657750E-4   -7.950569362306882E-4    3.727340049431278E-1   -3.272708036756469E-1
 9.937443563650000E9     4.681902327381465E-1   -1.181405865605088E-1   -8.970719384055728E-4   -8.115024821270557E-4   -9.153243515477552E-4   -8.187011460662358E-4    3.723291240747446E-1   -3.275421860596757E-1
 9.937445990424999E9     4.682386166046530E-1   -1.180985869895316E-1   -8.916827742034514E-4   -8.231599124397346E-4   -9.250981598145352E-4   -8.617306959358538E-4    3.721299175427146E-1   -3.276387768129020E-1
 9.937448417200001E9     4.679786309435920E-1   -1.185398185489878E-1   -8.971053792629896E-4   -8.396032842456294E-4   -9.343427546869276E-4   -8.540495609636424E-4    3.720022712203760E-1   -3.276815449476113E-1
 9.937450843975000E9     4.681491840076629E-1   -1.185271381433898E-1   -9.226703530467094E-4   -8.883135664380928E-4   -9.447748418968540E-4   -8.613650661071373E-4    3.715875862792249E-1   -3.278886386502702E-1
 9.937453270750000E9     4.680699587897429E-1   -1.187284065245330E-1   -9.680843461080000E-4   -8.691940510369791E-4   -9.893752466185810E-4   -8.311238860252211E-4    3.712201546924369E-1   -3.282556585910290E-1
 9.937455697525000E9     4.678489830577309E-1   -1.190454323744424E-1   -9.442931464561111E-4   -8.994758397050946E-4   -9.833464276585129E-4   -8.952274388858735E-4    3.711677039161589E-1   -3.284242183705025E-1
 9.937458124299999E9     4.679846511722083E-1   -1.190890410675218E-1   -9.595216075345591E-4   -9.283545986022384E-4   -1.015702779106858E-3   -9.361704007015935E-4    3.709194057926093E-1   -3.285916350634762E-1
 9.937460551075001E9     4.677598152387336E-1   -1.192418241112003E-1   -1.005452373535788E-3   -9.238601011516482E-4   -1.018981212325295E-3   -9.225050224310064E-4    3.707060619784886E-1   -3.288484011416412E-1
 9.937462977850000E9     4.678368076474720E-1   -1.194571769859495E-1   -1.001413687929442E-3   -9.185280239895083E-4   -1.040097964456435E-3   -9.284965217913043E-4    3.704374939274385E-1   -3.289162971402755E-1
 9.937465404625000E9     4.676824524695044E-1   -1.196129620230261E-1   -1.026916484911484E-3   -9.526495772791085E-4   -1.054792929355635E-3   -9.385684032815652E-4    3.701488858550225E-1   -3.291704379930843E-1
 9.937467831400000E9     4.676609592877827E-1   -1.198328190342314E-1   -1.039023113107515E-3   -9.954666101933229E-4   -1.044946191146056E-3   -9.648889041629428E-4    3.700106395622630E-1   -3.294606982797124E-1
 9.937470258174999E9     4.677031490227610E-1   -1.200325644627279E-1   -1.092157676885925E-3   -9.665848016248391E-4   -1.105935438693946E-3   -9.491532555718249E-4    3.696201597438344E-1   -3.295899211985242E-1
 9.937472684950001E9     4.676530294316462E-1   -1.201412648722800E-1   -1.068550092158431E-3   -9.930187148110294E-4   -1.094617826987526E-3   -9.959295429810234E-4    3.694570680414874E-1   -3.298677878402013E-1
 9.937475111725000E9     4.676688655757088E-1   -1.202058756113622E-1   -1.055183625277043E-3   -1.005900355623939E-3   -1.098552122714431E-3   -1.010668348017102E-3    3.690555936992512E-1   -3.300410403096540E-1
 9.937477538500000E9     4.675154268195753E-1   -1.203247360113425E-1   -1.126870115123976E-3   -1.002355266750292E-3   -1.132791611008652E-3   -1.019359392344142E-3    3.688992431259113E-1   -3.301423599638090E-1
 9.937479965275000E9     4.673714416191586E-1   -1.205773827048681E-1   -1.145191344293940E-3   -1.018089385053743E-3   -1.175726383852074E-3   -1.014443529633115E-3    3.685870897299757E-1   -3.305027407637232E-1
 9.937482392049999E9     4.674823427400253E-1   -1.206419537999318E-1   -1.131365702569700E-3   -1.043858552859708E-3   -1.191711588450079E-3   -1.034855147490861E-3    3.682181060537669E-1   -3.304859835740123E-1
 9.937484818825001E9     4.673198172800903E-1   -1.208814258432280E-1   -1.165263981261884E-3   -1.026053993564272E-3   -1.207775286441745E-3   -1.051926420854641E-3    3.678249119762663E-1   -3.306352284096861E-1
 9.937487245600000E9     4.673902600222508E-1   -1.210309223879240E-1   -1.190755724323410E-3   -1.100317743532849E-3   -1.206217731947112E-3   -1.110113777094286E-3    3.677955410288824E-1   -3.310841667380375E-1
 9.937489672375000E9     4.671651989073615E-1   -1.211974901772807E-1   -1.208751640258526E-3   -1.105210962526379E-3   -1.234396811118435E-3   -1.074160970371609E-3    3.673614306359537E-1   -3.312557646877872E-1
 9.937492099150000E9     4.671647713146150E-1   -1.213130049918806E-1   -1.249964870256744E-3   -1.112526465754999E-3   -1.266958568375786E-3   -1.084397447666536E-3    3.669802894041496E-1   -3.313221774499734E-1
 9.937494525924999E9     4.670982377812752E-1   -1.214722463932700E-1   -1.254937151129025E-3   -1.149749582945856E-3   -1.308333558955797E-3   -1.125635017967494E-3    3.668192074215175E-1   -3.316363487938169E-1
 9.937496952700001E9     4.670571106260282E-1   -1.214660004939631E-1   -1.301863704170167E-3   -1.128155418524236E-3   -1.307854601489573E-3   -1.158006029283446E-3    3.665320491292301E-1   -3.317917624007603E-1
 9.937499379475000E9     4.671581980806868E-1   -1.218877998496666E-1   -1.248668456680973E-3   -1.161816249624259E-3   -1.311844024518304E-3   -1.161005327098653E-3    3.662481855856163E-1   -3.322752415321675E-1
 9.937501806250000E9     4.669904354300106E-1   -1.220592236450350E-1   -1.315002639319006E-3   -1.160503728460873E-3   -1.328493471169660E-3   -1.149061801187635E-3    3.660587945084414E-1   -3.324334249805233E-1
 9.937504233025000E9     4.668543344164586E-1   -1.222061768241709E-1   -1.325695638794124E-3   -1.141643385905498E-3   -1.387487301672942E-3   -1.186798721525377E-3    3.659049658706074E-1   -3.326345212056565E-1
 9.937506659799999E9     4.667776108006259E-1   -1.223176694427579E-1   -1.311862751803900E-3   -1.205066840969922E-3   -1.378110762009588E-3   -1.213296008366382E-3    3.653862657267797E-1   -3.326616951546008E-1
 9.937509086575001E9     4.667888414602240E-1   -1.223938822437657E-1   -1.359262525237651E-3   -1.236243054716052E-3   -1.407398720477259E-3   -1.188221955020036E-3    3.649613828257681E-1   -3.329717448331053E-1
 9.937511513350000E9     4.667377505404729E-1   -1.227249523536515E-1   -1.351826507825592E-3   -1.250048617725153E-3   -1.423719452762503E-3   -1.218693073663175E-3    3.647912027896173E-1   -3.332050235649930E-1
 9.937513940125000E9     4.666756166684113E-1   -1.227840991473187E-1   -1.364157654891922E-3   -1.257949345427457E-3   -1.480889667676129E-3   -1.257232965142617E-3    3.642883350822096E-1   -3.334181006270450E-1
 9.937516366900000E9     4.665251167283590E-1   -1.229127014947061E-1   -1.451612822133533E-3   -1.275570177409673E-3   -1.482703453073737E-3   -1.254345943388543E-3    3.640586053282571E-1   -3.336843992204590E-1
 9.937518793674999E9     4.665676933988793E-1   -1.231855069805387E-1   -1.457166049323586E-3   -1.259961367785812E-3   -1.510038272232466E-3   -1.272193975183606E-3    3.638797556225183E-1   -3.338708188060606E-1
 9.937521220450001E9     4.664006164488035E-1   -1.233141836242039E-1   -1.471905459074026E-3   -1.284317206432729E-3   -1.513070823061572E-3   -1.298927834507703E-3    3.633989845059354E-1   -3.340382246567943E-1
 9.937523647225000E9     4.664001396604243E-1   -1.235496182811931E-1   -1.502191436773030E-3   -1.316811549025362E-3   -1.527745022760557E-3   -1.312664074099352E-3    3.629440667197092E-1   -3.342058639708393E-1
 9.937526074000000E9     4.664255389309965E-1   -1.236741656628537E-1   -1.551260809789177E-3   -1.298327461091878E-3   -1.515880347517042E-3   -1.318205073793282E-3    3.628127934593329E-1   -3.345689382286952E-1
 9.937528500775000E9     4.662836567440491E-1   -1.238841144828415E-1   -1.592795329096633E-3   -1.339381054339495E-3   -1.632564855515777E-3   -1.349724576410825E-3    3.624064028572630E-1   -3.349126362670536E-1
 9.937530927549999E9     4.664696174017509E-1   -1.238400508226942E-1   -1.605716134078339E-3   -1.399947080101298E-3   -1.608754699930912E-3   -1.373891680563547E-3    3.620218738029779E-1   -3.351269510040235E-1
 9.937533354325001E9     4.663608644284130E-1   -1.241624519537955E-1   -1.622011805530766E-3   -1.405059057763402E-3   -1.637525312982632E-3   -1.403204111606961E-3    3.616079400789607E-1   -3.350546097641982E-1
 9.937535781100000E9     4.662400862114855E-1   -1.243861409622514E-1   -1.645472949004657E-3   -1.410206822685457E-3   -1.668723464412261E-3   -1.438540691379327E-3    3.612817649595154E-1   -3.353038388481785E-1
 9.937538207875000E9     4.660797468881238E-1   -1.245280761796238E-1   -1.638397619491683E-3   -1.427443298184266E-3   -1.704036616619974E-3   -1.434260188619349E-3    3.609289952512985E-1   -3.358052314889317E-1
 9.937540634650000E9     4.659853453677220E-1   -1.245130826723381E-1   -1.671825981656224E-3   -1.445128093448621E-3   -1.740543816997868E-3   -1.454152980322591E-3    3.606805918939084E-1   -3.359700557036668E-1
 9.937543061424999E9     4.659462600976279E-1   -1.247316650185900E-1   -1.745115058227795E-3   -1.434089770636081E-3   -1.769642737854313E-3   -1.467851568664896E-3    3.601492338826074E-1   -3.361145363656301E-1
 9.937545488200001E9     4.659500967743680E-1   -1.248459576369553E-1   -1.732771772261109E-3   -1.510830524780720E-3   -1.813672480695612E-3   -1.499470901983382E-3    3.598292657748388E-1   -3.363158445665218E-1
 9.937547914975000E9     4.659496115624604E-1   -1.250922689850790E-1   -1.798795132677146E-3   -1.511210827252969E-3   -1.790151256632865E-3   -1.523251646096564E-3    3.594168306185786E-1   -3.367825847821536E-1
 9.937550341750000E9     4.659381696624882E-1   -1.253199319943472E-1   -1.824051113149859E-3   -1.541437340277514E-3   -1.894713165561927E-3   -1.496026934089361E-3    3.590300184818395E-1   -3.367183607918152E-1
