#  HZ   S   RI   R     50.00 
! Rohde & Schwarz Vector Network Analyzer 
! Rohde-Schwarz,ZNB20-2Port,1311601062101988,3.16
! Created: UTC 3/20/2024, 11:11:38 PM
! freq[Hz]                re:S11                  im:S11                  re:S21                  im:S21                  re:S12                  im:S12                  re:S22                  im:S22
 9.937337813000000E9     4.704678189560903E-1   -1.109022280512799E-1   -3.932148244824923E-4   -3.927910674177441E-4   -4.064799705863706E-4   -4.109293850090935E-4    3.819959049768982E-1   -3.192244387653492E-1
 9.937340235299999E9     4.705328772228781E-1   -1.111088940677955E-1   -4.323579569997393E-4   -3.813289502837508E-4   -4.224202258287556E-4   -3.958180024821925E-4    3.815680126722862E-1   -3.194385587223860E-1
 9.937342657600000E9     4.703328796071045E-1   -1.113124043985449E-1   -4.148495904312167E-4   -4.124409043728615E-4   -4.280150195316709E-4   -4.001302131418272E-4    3.814307592068451E-1   -3.194834885522551E-1
 9.937345079900000E9     4.703022742681661E-1   -1.116311899856716E-1   -4.203359259690309E-4   -3.808777017357907E-4   -4.400050996421932E-4   -3.929743958176778E-4    3.811948980718747E-1   -3.195882559482808E-1
 9.937347502200001E9     4.704886915999634E-1   -1.116647499976095E-1   -4.470091146855298E-4   -4.269487759004745E-4   -4.275744693839474E-4   -3.906472109026820E-4    3.811301965690471E-1   -3.198212240565511E-1
 9.937349924500000E9     4.702906010385285E-1   -1.118365388047945E-1   -4.357348530849213E-4   -4.354925136685283E-4   -4.420065488675464E-4   -4.306264955078669E-4    3.808512276557438E-1   -3.201057532399434E-1
 9.937352346799999E9     4.703191280836656E-1   -1.118938584604988E-1   -4.317460309853542E-4   -4.330073321809330E-4   -4.712161859980036E-4   -3.950744335911258E-4    3.807783997339539E-1   -3.202478529396809E-1
 9.937354769100000E9     4.701995579641461E-1   -1.122197750794079E-1   -4.308261315178902E-4   -4.245005693078566E-4   -4.643865791985473E-4   -4.353306905881243E-4    3.805825372235541E-1   -3.203827617355161E-1
 9.937357191400000E9     4.700227966973612E-1   -1.122009470469110E-1   -4.826587521205726E-4   -4.749707771134431E-4   -4.878642214839343E-4   -4.337171852465234E-4    3.802823317029150E-1   -3.208621973707950E-1
 9.937359613700001E9     4.699048957264368E-1   -1.124024138463547E-1   -4.743737472161407E-4   -4.830453694811418E-4   -4.658855959948136E-4   -4.728843143068418E-4    3.800588585339935E-1   -3.208204767160318E-1
 9.937362036000000E9     4.700145117706854E-1   -1.126234841661963E-1   -4.842532782891168E-4   -4.304555455248368E-4   -4.870892209399622E-4   -4.829191991713858E-4    3.801015303766945E-1   -3.211736190682589E-1
 9.937364458299999E9     4.700246720112808E-1   -1.127683929357717E-1   -4.677136530615340E-4   -4.892604310204184E-4   -4.847221855109442E-4   -4.768609909655528E-4    3.796045006997000E-1   -3.212518670230665E-1
 9.937366880600000E9     4.699254773704081E-1   -1.130486513953374E-1   -4.946296331360250E-4   -4.892720261838091E-4   -5.110020423854552E-4   -4.728981731801909E-4    3.795891938098415E-1   -3.213895432282475E-1
 9.937369302900000E9     4.698805245131046E-1   -1.130833866780925E-1   -4.809411587259299E-4   -5.038404214928959E-4   -5.156477807571466E-4   -4.976239841313421E-4    3.792750962960077E-1   -3.214367139927789E-1
 9.937371725200001E9     4.697065584936357E-1   -1.132053086812115E-1   -5.180391207502656E-4   -5.203484978697193E-4   -5.162567549483500E-4   -4.972432329319921E-4    3.792953007575173E-1   -3.216550550664360E-1
 9.937374147500000E9     4.696730628501594E-1   -1.133952453101370E-1   -5.503081649601784E-4   -5.287464853827818E-4   -5.403781302145603E-4   -5.233522687378907E-4    3.789908938122908E-1   -3.219266688197885E-1
 9.937376569799999E9     4.696439557387824E-1   -1.136726581784073E-1   -5.164111337092316E-4   -4.985081233459518E-4   -5.367780840475229E-4   -5.085031576106011E-4    3.786357951103684E-1   -3.222505406733750E-1
 9.937378992100000E9     4.695393019088626E-1   -1.137081445714074E-1   -5.323763014726062E-4   -5.536333592523323E-4   -5.410911377883691E-4   -5.181441194748386E-4    3.785649023484283E-1   -3.220549846818263E-1
 9.937381414400000E9     4.697665016876870E-1   -1.139069635858104E-1   -5.586450468077918E-4   -5.464413560386650E-4   -5.379346676729929E-4   -5.201486225154772E-4    3.784491383216267E-1   -3.222833736189057E-1
 9.937383836700001E9     4.696006926267050E-1   -1.140779831778231E-1   -5.654944302421448E-4   -5.401489552227569E-4   -5.843812367818127E-4   -5.601358819807286E-4    3.780978499955434E-1   -3.228116568938492E-1
 9.937386259000000E9     4.694976398205629E-1   -1.142827094145897E-1   -5.921490948219741E-4   -5.368530403349063E-4   -5.747001598575340E-4   -5.461501181523599E-4    3.779689261220929E-1   -3.227557555201907E-1
 9.937388681299999E9     4.694940093142451E-1   -1.143759650706535E-1   -5.779050678453513E-4   -5.437218283756300E-4   -6.000814416891426E-4   -5.860675613377949E-4    3.777153401566986E-1   -3.230164236672557E-1
 9.937391103600000E9     4.692555892297341E-1   -1.146853083361945E-1   -5.936892255995599E-4   -5.665791260847291E-4   -5.731191539259263E-4   -5.599798239295169E-4    3.773800507198234E-1   -3.232407451903322E-1
 9.937393525900000E9     4.693065221648479E-1   -1.147885909838443E-1   -5.769838026478139E-4   -6.000537262818266E-4   -6.276903567149734E-4   -6.118902423866096E-4    3.773833494637460E-1   -3.233269795133519E-1
 9.937395948200001E9     4.690869741131451E-1   -1.149802244656511E-1   -5.965583626174584E-4   -6.253372273415039E-4   -6.093772962787970E-4   -5.685503107698474E-4    3.772269201398399E-1   -3.236195695522948E-1
 9.937398370500000E9     4.692237358352535E-1   -1.151322944161649E-1   -6.517878039927888E-4   -6.149659868124424E-4   -6.299963169954655E-4   -5.977419623998001E-4    3.770621582311390E-1   -3.236015101611419E-1
 9.937400792799999E9     4.691291893079059E-1   -1.153664068134834E-1   -6.373259581463593E-4   -5.954553392565462E-4   -6.543515844294162E-4   -6.240758486285370E-4    3.767880359000842E-1   -3.237526387052498E-1
 9.937403215100000E9     4.691487520037738E-1   -1.154433876217845E-1   -6.534063663336560E-4   -6.100679642192187E-4   -6.830780900570527E-4   -6.263461878650447E-4    3.764448031732774E-1   -3.241068326099504E-1
 9.937405637400000E9     4.691141323239489E-1   -1.154811724142714E-1   -6.472862905140651E-4   -6.095270590155139E-4   -6.635346373721087E-4   -6.432446331647814E-4    3.762334805943757E-1   -3.241724392004344E-1
 9.937408059700001E9     4.690443620844236E-1   -1.159010024805135E-1   -6.885553232881458E-4   -6.413559667703755E-4   -6.878285851934416E-4   -6.528890187004444E-4    3.758753110649553E-1   -3.243045140712741E-1
 9.937410482000000E9     4.689776010328308E-1   -1.158477733031788E-1   -6.748423858862209E-4   -6.466889498273529E-4   -6.705158805218378E-4   -6.717004723127336E-4    3.758643199409035E-1   -3.245952559544798E-1
 9.937412904299999E9     4.688893461293649E-1   -1.160857610349675E-1   -6.734225057911328E-4   -6.559361155352188E-4   -6.945745171086053E-4   -6.594558574185567E-4    3.756642126998419E-1   -3.248707553454132E-1
 9.937415326600000E9     4.688433672744867E-1   -1.162069537627768E-1   -7.010253197708378E-4   -6.954116825841973E-4   -7.205934554927483E-4   -6.675300332690322E-4    3.752620168972321E-1   -3.251120648453870E-1
 9.937417748900000E9     4.687709350230849E-1   -1.164571519811751E-1   -7.234433649416785E-4   -6.838075924627732E-4   -7.372621100113516E-4   -6.964416155100407E-4    3.750433923069977E-1   -3.253120839908242E-1
 9.937420171200001E9     4.689041921029935E-1   -1.166003588355217E-1   -7.172767554017925E-4   -6.976986936483518E-4   -7.395457015562829E-4   -6.491271436899361E-4    3.749836597038817E-1   -3.253354869776822E-1
 9.937422593500000E9     4.686967682076192E-1   -1.168646965457234E-1   -7.271914695671862E-4   -7.246842919230634E-4   -7.658294868368033E-4   -6.835153002735328E-4    3.748080212678366E-1   -3.254754144286671E-1
 9.937425015799999E9     4.686782336275680E-1   -1.168708486707315E-1   -7.589609466618199E-4   -7.372428713401618E-4   -7.698470563845446E-4   -7.265666141771991E-4    3.744075901797110E-1   -3.257189421894820E-1
 9.937427438100000E9     4.685580973892263E-1   -1.169850117920079E-1   -7.834324783418964E-4   -7.265501021343823E-4   -7.912508492348624E-4   -7.635054045316049E-4    3.742769820987650E-1   -3.259140111672301E-1
 9.937429860400000E9     4.686132550330149E-1   -1.171816257756108E-1   -7.843452642270942E-4   -7.797759870129992E-4   -8.158110913881212E-4   -7.196121160198586E-4    3.740637246116159E-1   -3.261901321741429E-1
 9.937432282700001E9     4.684502575707536E-1   -1.173646935413382E-1   -7.854224756801363E-4   -7.592767672219677E-4   -8.093858644098045E-4   -7.582496524052856E-4    3.739151660736162E-1   -3.264535177492732E-1
 9.937434705000000E9     4.684148913611159E-1   -1.176538983470193E-1   -8.271945555044278E-4   -7.602069899605128E-4   -8.221755070102637E-4   -7.691685098358581E-4    3.735262274431898E-1   -3.266937872927733E-1
 9.937437127299999E9     4.684101435687307E-1   -1.175306394715045E-1   -8.084272828005033E-4   -7.756832076636627E-4   -8.554630272138871E-4   -7.770744289577310E-4    3.732384929368628E-1   -3.268118663925281E-1
 9.937439549600000E9     4.682307381095446E-1   -1.180014474128897E-1   -8.273132466980990E-4   -7.942921741837339E-4   -8.453437530701223E-4   -7.621507678106917E-4    3.731179472550523E-1   -3.267874001606171E-1
 9.937441971900000E9     4.682477527752739E-1   -1.181325114982504E-1   -8.511361586403597E-4   -7.895227425533862E-4   -8.651164761444717E-4   -7.791621491141766E-4    3.729873720361929E-1   -3.270908343729106E-1
 9.937444394200001E9     4.682030298792264E-1   -1.181776359371266E-1   -8.343405815888057E-4   -8.272578430079942E-4   -8.855799467961902E-4   -8.280196927843183E-4    3.727360545788609E-1   -3.273563527213656E-1
 9.937446816500000E9     4.681520839346456E-1   -1.183723101733950E-1   -8.867190521209940E-4   -8.346798015833883E-4   -8.914166505036350E-4   -8.163366670791976E-4    3.725590588230167E-1   -3.275919018625164E-1
 9.937449238799999E9     4.682696518508373E-1   -1.185195491408803E-1   -8.750564491708703E-4   -8.614835708577636E-4   -8.887651571408843E-4   -8.306925375605915E-4    3.721216860893578E-1   -3.276309224164909E-1
 9.937451661100000E9     4.681736612094518E-1   -1.187660512257629E-1   -8.960725704471066E-4   -8.610020222836196E-4   -9.259613303295726E-4   -8.366353503243897E-4    3.718106002069538E-1   -3.280170593884330E-1
 9.937454083400000E9     4.679786029665738E-1   -1.187629165384353E-1   -8.935577854347135E-4   -8.550861171597791E-4   -9.602253489533418E-4   -8.214352502229963E-4    3.716454169097973E-1   -3.283482963217772E-1
 9.937456505700001E9     4.680595691307395E-1   -1.189959285198113E-1   -9.514689930192071E-4   -8.810886575594194E-4   -9.496423684640377E-4   -8.561133679598365E-4    3.713521480880022E-1   -3.284268327061474E-1
 9.937458928000000E9     4.678188102090417E-1   -1.192045017064258E-1   -9.459865737466807E-4   -9.034937150786139E-4   -9.646763032451920E-4   -8.915570228576760E-4    3.710525435573220E-1   -3.283367535997566E-1
 9.937461350299999E9     4.678232094732556E-1   -1.192434982323332E-1   -9.550365227403544E-4   -9.003933250963405E-4   -9.880882280263940E-4   -8.940973684836478E-4    3.709144565239053E-1   -3.286143518365485E-1
 9.937463772600000E9     4.678282927466182E-1   -1.194156218052539E-1   -9.682647134297645E-4   -9.198746946054667E-4   -1.014727746375212E-3   -9.026403332769324E-4    3.707369581208883E-1   -3.290050680159793E-1
 9.937466194900000E9     4.677716117456365E-1   -1.196173797565316E-1   -9.579894967250908E-4   -9.227232946306668E-4   -1.014159034019162E-3   -9.575896796249826E-4    3.703819520974693E-1   -3.291515666441509E-1
 9.937468617200001E9     4.676797150922860E-1   -1.196992995648548E-1   -9.892856740779060E-4   -9.476048574033050E-4   -1.017375902209158E-3   -9.358290987402099E-4    3.701084406329336E-1   -3.293776670392526E-1
 9.937471039500000E9     4.675111933467453E-1   -1.199781539222774E-1   -1.002067439410532E-3   -9.631659261260312E-4   -1.030946480331262E-3   -9.697004541435756E-4    3.698884877961068E-1   -3.295585522617245E-1
 9.937473461799999E9     4.675930874164294E-1   -1.200572335024985E-1   -1.035677801734826E-3   -9.312573892483624E-4   -1.077027669077785E-3   -9.276444603167334E-4    3.697629437816491E-1   -3.298362995428379E-1
 9.937475884100000E9     4.675960828913284E-1   -1.203325901660136E-1   -1.034984461365454E-3   -9.617144703110767E-4   -1.095562834368732E-3   -9.909633226213115E-4    3.693451502670752E-1   -3.297387362130275E-1
 9.937478306400000E9     4.673695490565831E-1   -1.203962224361182E-1   -1.070993028874827E-3   -1.024657368761272E-3   -1.124823551741979E-3   -9.524986720768465E-4    3.690509362938233E-1   -3.302052786107807E-1
 9.937480728700001E9     4.674012146003879E-1   -1.204941790099249E-1   -1.068722592718136E-3   -9.923236589176891E-4   -1.113565272137164E-3   -9.702349375777818E-4    3.689279229721870E-1   -3.303304184439749E-1
 9.937483151000000E9     4.674700444134568E-1   -1.207493263266018E-1   -1.099281445054511E-3   -1.000452354064543E-3   -1.126378457969594E-3   -1.027638689897397E-3    3.685289969875942E-1   -3.305135935199850E-1
 9.937485573299999E9     4.673069789930438E-1   -1.210322939950136E-1   -1.107186515574021E-3   -1.001234969350987E-3   -1.126142274560491E-3   -1.033110985722356E-3    3.684870866365884E-1   -3.307290285607133E-1
 9.937487995600000E9     4.673228628596580E-1   -1.210853668749057E-1   -1.136584018710402E-3   -1.057402289411581E-3   -1.211734850939304E-3   -1.064817841945863E-3    3.679745956712656E-1   -3.309313770726421E-1
 9.937490417900000E9     4.672847841160643E-1   -1.212175791045805E-1   -1.145027130805780E-3   -1.047354919611373E-3   -1.206328512639419E-3   -1.070686413463114E-3    3.676798623457309E-1   -3.310373035629974E-1
 9.937492840200001E9     4.672058669389916E-1   -1.214621170825751E-1   -1.194025196471547E-3   -1.077898435421572E-3   -1.202468123547850E-3   -1.071405884652744E-3    3.673506354748375E-1   -3.315199921830713E-1
 9.937495262500000E9     4.670607479578409E-1   -1.215581986337986E-1   -1.215195903474917E-3   -1.115048370742160E-3   -1.228515583842754E-3   -1.087872019052410E-3    3.671840637020928E-1   -3.314580076508985E-1
 9.937497684799999E9     4.670800512639302E-1   -1.218172350540089E-1   -1.225189717799801E-3   -1.119910245135006E-3   -1.292843622777331E-3   -1.111861414557951E-3    3.670874180386108E-1   -3.317091859464632E-1
 9.937500107100000E9     4.669355363933899E-1   -1.218322206300413E-1   -1.204727469595444E-3   -1.126960462330221E-3   -1.284484561093271E-3   -1.158105683676689E-3    3.666245354860049E-1   -3.320240267304234E-1
 9.937502529400000E9     4.668303298507124E-1   -1.220658072353353E-1   -1.303134095041221E-3   -1.139589614371556E-3   -1.320368384931160E-3   -1.140044547614748E-3    3.663160936252881E-1   -3.321919739826691E-1
 9.937504951700001E9     4.669349380973308E-1   -1.223192212774750E-1   -1.289972357849695E-3   -1.153479996546312E-3   -1.296416026844231E-3   -1.178828467410538E-3    3.660343307185167E-1   -3.325181178115305E-1
 9.937507374000000E9     4.669378768773900E-1   -1.223222794916721E-1   -1.328894749413255E-3   -1.166005109551782E-3   -1.369311388244602E-3   -1.194472955590183E-3    3.656383483408070E-1   -3.326443474872853E-1
 9.937509796299999E9     4.666918417704474E-1   -1.225419029638737E-1   -1.327262376024458E-3   -1.178155251439841E-3   -1.355174714475406E-3   -1.197064728222695E-3    3.655157127777794E-1   -3.329327050861782E-1
 9.937512218600000E9     4.667496049785940E-1   -1.225883979241038E-1   -1.396776959769552E-3   -1.236694607222771E-3   -1.369316225885455E-3   -1.219152379888781E-3    3.651811249381802E-1   -3.330334511615241E-1
 9.937514640900000E9     4.665898375814745E-1   -1.228283046559199E-1   -1.368210440506640E-3   -1.219246416767079E-3   -1.398241107584984E-3   -1.221883442493108E-3    3.646947675922757E-1   -3.333769446422631E-1
 9.937517063200001E9     4.666654603179748E-1   -1.230473916796292E-1   -1.391345514774714E-3   -1.259404414970668E-3   -1.410205798171523E-3   -1.242979006641650E-3    3.643259123915390E-1   -3.335815910603754E-1
 9.937519485500000E9     4.665949132341595E-1   -1.231211004498444E-1   -1.439355913001837E-3   -1.256839792751096E-3   -1.440882093737927E-3   -1.244887828546738E-3    3.643064505919688E-1   -3.336299331957540E-1
 9.937521907799999E9     4.665094038446668E-1   -1.234481258611006E-1   -1.430343349152447E-3   -1.289054797721367E-3   -1.478207009627920E-3   -1.261126463666711E-3    3.637682271746731E-1   -3.338676217174668E-1
 9.937524330100000E9     4.663979580154060E-1   -1.235106044439181E-1   -1.478755213419729E-3   -1.297020551601624E-3   -1.505489915873348E-3   -1.273005044492351E-3    3.635095387744611E-1   -3.342370717047132E-1
 9.937526752400000E9     4.663642894439672E-1   -1.236704720166400E-1   -1.448184451630562E-3   -1.302691673304662E-3   -1.520070311928375E-3   -1.296099544332337E-3    3.632210114668057E-1   -3.344430480739528E-1
 9.937529174700001E9     4.663843412220260E-1   -1.238263916946552E-1   -1.508331505842852E-3   -1.296690504088448E-3   -1.557239735411124E-3   -1.337048018742624E-3    3.629093041322169E-1   -3.348442813993390E-1
 9.937531597000000E9     4.662761822380012E-1   -1.240747459441391E-1   -1.542159818710035E-3   -1.329996769946747E-3   -1.589901150406082E-3   -1.304195735714598E-3    3.625700548953842E-1   -3.349279540961483E-1
 9.937534019299999E9     4.663127575357343E-1   -1.241121463728868E-1   -1.591500276778540E-3   -1.382831364123219E-3   -1.584511308850271E-3   -1.367042420840336E-3    3.623157423138357E-1   -3.352816000118887E-1
 9.937536441600000E9     4.661272352992681E-1   -1.242969471186213E-1   -1.594891013061383E-3   -1.376304734714726E-3   -1.629410428461349E-3   -1.365729647649601E-3    3.618631279950876E-1   -3.352331876207235E-1
 9.937538863900000E9     4.661224143041262E-1   -1.246959070351426E-1   -1.603010871592096E-3   -1.421479962749630E-3   -1.645046928161620E-3   -1.388860467180879E-3    3.615197066073234E-1   -3.356423521417889E-1
 9.937541286200001E9     4.660841012149175E-1   -1.246410991587222E-1   -1.601500933326778E-3   -1.411345370045263E-3   -1.709487801061345E-3   -1.377388945913797E-3    3.611673855290787E-1   -3.358430608271936E-1
 9.937543708500000E9     4.661475459692918E-1   -1.247523448484880E-1   -1.685102258659618E-3   -1.454656846295960E-3   -1.726529972679561E-3   -1.418528991828592E-3    3.607910314129940E-1   -3.359477309478471E-1
 9.937546130799999E9     4.659862481922725E-1   -1.248976394173570E-1   -1.709978168310971E-3   -1.510558351103166E-3   -1.717040687819818E-3   -1.461192589063386E-3    3.603836919135231E-1   -3.363604062255402E-1
 9.937548553100000E9     4.658994467157103E-1   -1.251649164125419E-1   -1.696644117965174E-3   -1.446756927149894E-3   -1.780261417160818E-3   -1.493487740694933E-3    3.600403418658923E-1   -3.365668737687453E-1
 9.937550975400000E9     4.658309189857870E-1   -1.253070157293277E-1   -1.728580130400615E-3   -1.500409033458054E-3   -1.787133552724554E-3   -1.483122619254010E-3    3.597868143587452E-1   -3.368267295076246E-1
 9.937553397700001E9     4.658942314609365E-1   -1.255513095129633E-1   -1.788785739300230E-3   -1.509358454473798E-3   -1.828955234055132E-3   -1.534798925274886E-3    3.591618022286018E-1   -3.370643073021096E-1
 9.937555820000000E9     4.657156687361257E-1   -1.257337192101388E-1   -1.816176857620859E-3   -1.585336595032571E-3   -1.845610954985846E-3   -1.562703129873308E-3    3.589089891808359E-1   -3.370938596430512E-1
