#  HZ   S   RI   R     50.00 
! Rohde & Schwarz Vector Network Analyzer 
! Rohde-Schwarz,ZNB20-2Port,1311601062101988,3.16
! Created: UTC 3/20/2024, 11:11:42 PM
! freq[Hz]                re:S11                  im:S11                  re:S21                  im:S21                  re:S12                  im:S12                  re:S22                  im:S22
 9.937345249000000E9     4.705319828743494E-1   -1.113634092990164E-1   -4.213524990780759E-4   -3.968406443708837E-4   -4.169323022578156E-4   -4.031980971752152E-4    3.812413044104263E-1   -3.195806464666824E-1
 9.937347639650000E9     4.702834704930378E-1   -1.116374289669288E-1   -4.289384448015370E-4   -3.814090884197863E-4   -4.507822170361803E-4   -4.336962093411381E-4    3.809290186696704E-1   -3.199525465856807E-1
 9.937350030299999E9     4.703210289838693E-1   -1.117328859217791E-1   -4.209270744405531E-4   -4.246353389467804E-4   -4.470510411084892E-4   -4.261463164962114E-4    3.809090187405494E-1   -3.201124043006152E-1
 9.937352420950001E9     4.701697416158519E-1   -1.118347570196626E-1   -4.591054191522664E-4   -4.177363453451600E-4   -4.415468121939383E-4   -4.011355016981060E-4    3.806358102291032E-1   -3.202870498608106E-1
 9.937354811600000E9     4.700617904581602E-1   -1.120360481169040E-1   -4.353954584990455E-4   -4.277401164521053E-4   -4.605081715547926E-4   -4.152504878265511E-4    3.805632544348128E-1   -3.205073802254134E-1
 9.937357202250000E9     4.700781876783874E-1   -1.122715100639406E-1   -4.430301943687960E-4   -4.341686057810191E-4   -4.829324205497992E-4   -4.283425579392494E-4    3.803300545125501E-1   -3.206301456028229E-1
 9.937359592900000E9     4.700838331122513E-1   -1.123490446683530E-1   -4.964485658094772E-4   -4.170984516670244E-4   -4.892692954862222E-4   -4.426760955833631E-4    3.801663929163581E-1   -3.207610078286003E-1
 9.937361983549999E9     4.700134190896957E-1   -1.125784175271110E-1   -4.585748205429669E-4   -4.471682285816276E-4   -4.668227578927403E-4   -4.670782976890956E-4    3.799394670320484E-1   -3.210078722849118E-1
 9.937364374200001E9     4.699294678565470E-1   -1.127693070705336E-1   -4.929469588428409E-4   -4.488451024591685E-4   -4.898487127607927E-4   -4.589368846447583E-4    3.798285993649227E-1   -3.209221463949403E-1
 9.937366764850000E9     4.697535527823507E-1   -1.129057507422298E-1   -4.867253189676528E-4   -4.855271078395495E-4   -4.882420125264896E-4   -5.045104254751996E-4    3.795699653270715E-1   -3.212688852543988E-1
 9.937369155500000E9     4.699782182042315E-1   -1.131242914836015E-1   -5.126032375046792E-4   -4.863860897621334E-4   -5.078004913473172E-4   -4.923590150676939E-4    3.793293561472142E-1   -3.215265442893113E-1
 9.937371546150000E9     4.697945645117056E-1   -1.132107278123809E-1   -5.143982630396172E-4   -4.839273902730393E-4   -5.287702215246117E-4   -4.994244130900290E-4    3.793097616657154E-1   -3.216991245237270E-1
 9.937373936799999E9     4.697187550610630E-1   -1.133958561959408E-1   -5.018709833136184E-4   -4.876778280965820E-4   -5.169746882351053E-4   -4.818721001976671E-4    3.789171867089337E-1   -3.218442109361307E-1
 9.937376327450001E9     4.694587165012160E-1   -1.135193964865538E-1   -4.997842396224915E-4   -4.962404072136729E-4   -5.348001583358207E-4   -5.130005737053813E-4    3.787961983853163E-1   -3.220288711222707E-1
 9.937378718100000E9     4.695697540966728E-1   -1.135882442546438E-1   -5.304850223104696E-4   -5.236453950352787E-4   -5.611706619100223E-4   -4.966632864715048E-4    3.784400971035015E-1   -3.220706558097410E-1
 9.937381108750000E9     4.695005014511638E-1   -1.138719951597598E-1   -5.289779839997596E-4   -5.037278250994578E-4   -5.782073886136246E-4   -4.966547498931037E-4    3.783685035981513E-1   -3.222485886468253E-1
 9.937383499400000E9     4.695253007166415E-1   -1.140900951015721E-1   -5.568572515275179E-4   -5.502256123298233E-4   -5.756157149578089E-4   -5.325992321181446E-4    3.783190152914868E-1   -3.227505274234365E-1
 9.937385890049999E9     4.694299892433541E-1   -1.141845210404459E-1   -5.747596922268045E-4   -5.485427009563236E-4   -5.875974985840106E-4   -5.784271981873386E-4    3.781133271116065E-1   -3.229369723228274E-1
 9.937388280700001E9     4.694769168472124E-1   -1.143481184756167E-1   -5.625017801154318E-4   -5.866559231021007E-4   -5.971921129704641E-4   -5.545175735685330E-4    3.778010115727762E-1   -3.230309355722960E-1
 9.937390671350000E9     4.693170544459129E-1   -1.145710999179089E-1   -5.970039711120666E-4   -5.977621567412973E-4   -5.945403231982652E-4   -5.755756891782441E-4    3.775585082195825E-1   -3.232516435066120E-1
 9.937393062000000E9     4.693033107294499E-1   -1.145854126129328E-1   -6.044766659790752E-4   -5.818236009913300E-4   -6.088443163369770E-4   -5.749492179632948E-4    3.774998205873212E-1   -3.233413454622869E-1
 9.937395452650000E9     4.694211646433066E-1   -1.149774179226581E-1   -6.088200175863094E-4   -6.192630137615911E-4   -6.212546997436203E-4   -5.878119307367940E-4    3.772459753555057E-1   -3.235622576711767E-1
 9.937397843299999E9     4.692427342542745E-1   -1.151074063785986E-1   -6.429808273423217E-4   -5.989762410154674E-4   -6.408142547148799E-4   -5.604889540897403E-4    3.769551487310516E-1   -3.234999537313639E-1
 9.937400233950001E9     4.691214608605650E-1   -1.151837179562434E-1   -6.404662657689981E-4   -6.239759519033194E-4   -6.355296871870171E-4   -6.245117714739708E-4    3.768389121915875E-1   -3.236871696395741E-1
 9.937402624600000E9     4.691928904345000E-1   -1.152226161938309E-1   -6.415773643355629E-4   -6.169222913340639E-4   -6.427392749025748E-4   -6.044267134560109E-4    3.765709753293257E-1   -3.239509246000056E-1
 9.937405015250000E9     4.689419358122082E-1   -1.154472265642162E-1   -6.730825062916439E-4   -6.087563573384264E-4   -6.410898594371365E-4   -6.223161768632132E-4    3.764033481984293E-1   -3.242423238960690E-1
 9.937407405900000E9     4.688965385180365E-1   -1.156639570799165E-1   -6.346779169082278E-4   -6.116286492791838E-4   -6.972190850333560E-4   -6.348957206104854E-4    3.761363334290434E-1   -3.245354777624037E-1
 9.937409796549999E9     4.689467174434053E-1   -1.156673994832429E-1   -6.795464195908402E-4   -6.470187112161324E-4   -6.927497785599779E-4   -6.675757136532792E-4    3.759649925118909E-1   -3.247842299545845E-1
 9.937412187200001E9     4.689978397895141E-1   -1.160753712942826E-1   -6.730680303740533E-4   -6.471571890697667E-4   -6.856389405927563E-4   -6.446366779531502E-4    3.758313406771386E-1   -3.247886402760364E-1
 9.937414577850000E9     4.689289953704486E-1   -1.161829884145964E-1   -7.014669769233883E-4   -6.912816160949671E-4   -7.116631202559973E-4   -6.689795983398982E-4    3.756373277685953E-1   -3.249738041035142E-1
 9.937416968500000E9     4.687610222740877E-1   -1.163778363558516E-1   -7.361668660106455E-4   -6.861976825176684E-4   -6.897093093470223E-4   -6.588009717391863E-4    3.754149875591408E-1   -3.250123709533796E-1
 9.937419359150000E9     4.688912371110885E-1   -1.164101981008757E-1   -6.876302926269252E-4   -6.957898362877299E-4   -7.045864545630136E-4   -6.930133708854581E-4    3.750281076308103E-1   -3.252947603501721E-1
 9.937421749799999E9     4.687227833777316E-1   -1.165867476531740E-1   -7.313361732187477E-4   -7.272835875254023E-4   -7.580034620017319E-4   -6.877398537430768E-4    3.747746240556522E-1   -3.254344679209852E-1
 9.937424140450001E9     4.686886512699959E-1   -1.167076688160564E-1   -7.501862703594079E-4   -7.045034075318794E-4   -7.630281730172616E-4   -6.938765658688738E-4    3.746202317128256E-1   -3.257865906229609E-1
 9.937426531100000E9     4.685957970649132E-1   -1.169557543347267E-1   -7.359881379156385E-4   -7.115977935380700E-4   -7.596655317193309E-4   -7.220746577309562E-4    3.745699060191235E-1   -3.257464678578887E-1
 9.937428921750000E9     4.685761639867862E-1   -1.170435234373879E-1   -7.931648493674776E-4   -7.147566478888862E-4   -7.730510419261742E-4   -7.491218498063399E-4    3.742252831326561E-1   -3.259583785161043E-1
 9.937431312400000E9     4.685391975564442E-1   -1.173318844426396E-1   -7.837059199199665E-4   -7.367452811337432E-4   -7.960998317225169E-4   -7.257119261231365E-4    3.738945805846337E-1   -3.262152125501833E-1
 9.937433703049999E9     4.685893168153896E-1   -1.173828693123291E-1   -7.672375814970693E-4   -7.561074862666923E-4   -8.116120339012244E-4   -7.258167274679356E-4    3.737778415016332E-1   -3.264836633583458E-1
 9.937436093700001E9     4.683672384697170E-1   -1.175451204442002E-1   -8.104871841808367E-4   -7.945766583719497E-4   -8.352104046841156E-4   -7.898048111153125E-4    3.736982729710480E-1   -3.264081528780156E-1
 9.937438484350000E9     4.684928506161686E-1   -1.178413379599507E-1   -7.930599079267751E-4   -7.726781930390378E-4   -8.405466188940754E-4   -7.835866226047988E-4    3.730988617336781E-1   -3.266814776031506E-1
 9.937440875000000E9     4.682474325720198E-1   -1.179931429207005E-1   -8.454583746552315E-4   -7.971819718557543E-4   -8.518427420575877E-4   -7.726242265642788E-4    3.730375930236572E-1   -3.269239969122020E-1
 9.937443265650000E9     4.682101945281659E-1   -1.180863136450395E-1   -8.548642048383168E-4   -8.067703039921431E-4   -8.638467455691782E-4   -7.990076271358753E-4    3.728985481008997E-1   -3.272896660748526E-1
 9.937445656299999E9     4.681726822048216E-1   -1.183577266430659E-1   -8.486869956699348E-4   -8.222716092687814E-4   -8.706174599847734E-4   -7.856795552576149E-4    3.725432221160256E-1   -3.274149255762481E-1
 9.937448046950001E9     4.680202350421463E-1   -1.184310933593088E-1   -8.575775366346101E-4   -8.253623642536327E-4   -8.827041536004917E-4   -8.251037774897638E-4    3.723154803235508E-1   -3.276651265079042E-1
 9.937450437600000E9     4.681807867324908E-1   -1.185942719550517E-1   -8.909681760024500E-4   -8.296579817066926E-4   -8.806845178824138E-4   -8.604568244085683E-4    3.723466553568135E-1   -3.276781832194114E-1
 9.937452828250000E9     4.680672445597702E-1   -1.187670539006495E-1   -8.742554111912449E-4   -8.511807256399890E-4   -9.122914170984362E-4   -8.471206662012121E-4    3.718222518427122E-1   -3.279771037052499E-1
 9.937455218900000E9     4.679150747255787E-1   -1.190488185276622E-1   -9.222171990595337E-4   -8.996721646129794E-4   -9.526149606295333E-4   -8.598267110032492E-4    3.716430222726044E-1   -3.281971621374115E-1
 9.937457609549999E9     4.679628700539808E-1   -1.191131530264614E-1   -9.085632720171541E-4   -8.889154861546748E-4   -9.384402660100635E-4   -8.657573552527598E-4    3.714580424970662E-1   -3.283485720808699E-1
 9.937460000200001E9     4.678641973651363E-1   -1.192810127050622E-1   -9.058618716092628E-4   -8.918079342767172E-4   -9.840510460482168E-4   -8.736743794099355E-4    3.711032458307115E-1   -3.285547308469027E-1
 9.937462390850000E9     4.679020842205148E-1   -1.193197186341363E-1   -9.635646100841469E-4   -8.921437975999128E-4   -9.772437451652737E-4   -8.582110556888269E-4    3.709572744988890E-1   -3.287606706723548E-1
 9.937464781500000E9     4.678438390335161E-1   -1.194557917958452E-1   -9.717931898125195E-4   -9.108739586879546E-4   -9.700003333410986E-4   -9.084682038750567E-4    3.707457902397863E-1   -3.289736621994824E-1
 9.937467172150000E9     4.678564785105087E-1   -1.196526358664053E-1   -9.934241631455181E-4   -9.377815372559951E-4   -1.003651004224656E-3   -9.372034110773601E-4    3.703980005788199E-1   -3.292154917198051E-1
 9.937469562799999E9     4.676867853490712E-1   -1.197978647113345E-1   -9.928721415476220E-4   -9.536997317707096E-4   -1.032783189246714E-3   -9.171163757435032E-4    3.699993825957130E-1   -3.294592580770472E-1
 9.937471953450001E9     4.676103562086550E-1   -1.199694946993433E-1   -1.015385138441622E-3   -9.804896355817790E-4   -1.044370963537359E-3   -9.431688904049859E-4    3.698223104002885E-1   -3.297406425623523E-1
 9.937474344100000E9     4.675191075821308E-1   -1.202181957855807E-1   -1.023849569364234E-3   -9.751594661099586E-4   -1.066488257775010E-3   -9.589573264267655E-4    3.694326196567552E-1   -3.296752139843662E-1
 9.937476734750000E9     4.674200970669292E-1   -1.205090510393366E-1   -1.023553419987267E-3   -1.008212374446099E-3   -1.086838511294675E-3   -9.522076156839020E-4    3.694697483765280E-1   -3.299742571716865E-1
 9.937479125400000E9     4.675381527630166E-1   -1.204133090359455E-1   -1.087441402324509E-3   -9.597887380996626E-4   -1.109847820887367E-3   -1.019683596459366E-3    3.689878760997066E-1   -3.300943507990542E-1
 9.937481516049999E9     4.673744516168009E-1   -1.206303539814301E-1   -1.129014044143118E-3   -1.032040559992902E-3   -1.101598558236292E-3   -1.018556390602948E-3    3.687092467879508E-1   -3.303590107696554E-1
 9.937483906700001E9     4.673577669015452E-1   -1.207722028863756E-1   -1.136074232632705E-3   -1.015572042835612E-3   -1.131689987743279E-3   -1.016434853019343E-3    3.686404038371622E-1   -3.304851570005488E-1
 9.937486297350000E9     4.673263587091412E-1   -1.210202706085039E-1   -1.141586309831200E-3   -1.034867654244597E-3   -1.132356342151647E-3   -1.005135689327322E-3    3.684588326077328E-1   -3.308519048294869E-1
 9.937488688000000E9     4.673002650008378E-1   -1.211406659476083E-1   -1.129290278433166E-3   -1.050230624827701E-3   -1.164290963653606E-3   -1.030407266983088E-3    3.680491132980475E-1   -3.311340455546798E-1
 9.937491078650000E9     4.672694046109682E-1   -1.213480023378077E-1   -1.128834897658731E-3   -1.033858766755356E-3   -1.172645985576470E-3   -1.074337528431292E-3    3.675328865424680E-1   -3.312116697542089E-1
 9.937493469299999E9     4.671071075934199E-1   -1.214383044658506E-1   -1.177180513885496E-3   -1.088926809287538E-3   -1.226722132248349E-3   -1.095752881219640E-3    3.673692160554026E-1   -3.312555169783987E-1
 9.937495859950001E9     4.670935585083769E-1   -1.214564360615478E-1   -1.225194316632180E-3   -1.072973301357065E-3   -1.221855490143962E-3   -1.084312066605010E-3    3.669974198987573E-1   -3.316777473934239E-1
 9.937498250600000E9     4.670836009687501E-1   -1.218029085551463E-1   -1.206375987127261E-3   -1.144894642069622E-3   -1.251724429152184E-3   -1.137162030015024E-3    3.668875678861171E-1   -3.317307678069621E-1
 9.937500641250000E9     4.669672545281977E-1   -1.220366004570243E-1   -1.267025808500596E-3   -1.090615458861059E-3   -1.272539594120060E-3   -1.125558496974694E-3    3.666950968354144E-1   -3.320863944794340E-1
 9.937503031900000E9     4.669597234539117E-1   -1.221199297453044E-1   -1.219413219057636E-3   -1.109320046322723E-3   -1.256810252583928E-3   -1.119966635176704E-3    3.665054477047893E-1   -3.322256259410680E-1
 9.937505422549999E9     4.668158136784296E-1   -1.223604463152293E-1   -1.255102837664939E-3   -1.174942796053947E-3   -1.300372595469844E-3   -1.174172479814152E-3    3.660065723005021E-1   -3.324434939829207E-1
 9.937507813200001E9     4.667597740780851E-1   -1.223495869996579E-1   -1.251459394393983E-3   -1.191733009432836E-3   -1.329540950972091E-3   -1.153484295247832E-3    3.656903483550570E-1   -3.326833409707327E-1
 9.937510203850000E9     4.667578212507981E-1   -1.226121526756040E-1   -1.311070899205475E-3   -1.168942764584198E-3   -1.327456924654677E-3   -1.157735780876041E-3    3.654259924758296E-1   -3.327301962701375E-1
 9.937512594500000E9     4.668142126186544E-1   -1.228823542732568E-1   -1.325020120516161E-3   -1.230255949809823E-3   -1.347530572777971E-3   -1.200269905064759E-3    3.651109456401823E-1   -3.331159167512360E-1
 9.937514985150000E9     4.667064668133250E-1   -1.229124746247863E-1   -1.349065350220664E-3   -1.241393147136953E-3   -1.397458232722840E-3   -1.222681630478537E-3    3.649047274541656E-1   -3.333052805792174E-1
 9.937517375799999E9     4.666839211654611E-1   -1.230006377009856E-1   -1.367166755741937E-3   -1.245975845781735E-3   -1.416573757807037E-3   -1.234723730244996E-3    3.644439139764034E-1   -3.332638461228901E-1
 9.937519766450001E9     4.666968368471239E-1   -1.231315125510017E-1   -1.428593939987148E-3   -1.262325141177477E-3   -1.417111665993224E-3   -1.240367168412717E-3    3.643583096761742E-1   -3.338807263326246E-1
 9.937522157100000E9     4.665599765951723E-1   -1.233503641843902E-1   -1.424177979041297E-3   -1.230084919901274E-3   -1.437543121037092E-3   -1.265076334705825E-3    3.638816745003927E-1   -3.340472617664951E-1
 9.937524547750000E9     4.665560793874727E-1   -1.235684069719452E-1   -1.440037744911866E-3   -1.325238439320727E-3   -1.471268298856909E-3   -1.285507597116535E-3    3.638419061290262E-1   -3.343878524068761E-1
 9.937526938400000E9     4.663463640009307E-1   -1.236165991968581E-1   -1.452207152824928E-3   -1.333079330665403E-3   -1.501842187855816E-3   -1.299751673243843E-3    3.632109436817414E-1   -3.342569925927155E-1
 9.937529329049999E9     4.663416644502099E-1   -1.238335530844389E-1   -1.459021093080987E-3   -1.327183119954334E-3   -1.526801950157535E-3   -1.315722799965059E-3    3.630294519172115E-1   -3.346089010263510E-1
 9.937531719700001E9     4.663619710435596E-1   -1.240054123447834E-1   -1.519249119303890E-3   -1.336433294259099E-3   -1.569170842986495E-3   -1.359013962275863E-3    3.625783697873118E-1   -3.348514236945208E-1
 9.937534110350000E9     4.662920971592264E-1   -1.241685510251121E-1   -1.524800224159050E-3   -1.373454709947139E-3   -1.553061253002472E-3   -1.356607188157190E-3    3.622328200547706E-1   -3.350801869827016E-1
 9.937536501000000E9     4.661353568991516E-1   -1.242674011277009E-1   -1.569332337346314E-3   -1.364175429370951E-3   -1.640035826426121E-3   -1.361315100066430E-3    3.619858593850551E-1   -3.352333762045443E-1
 9.937538891650000E9     4.661494618781798E-1   -1.244163327902729E-1   -1.586202987390732E-3   -1.387839435279367E-3   -1.625817057452813E-3   -1.378520804630901E-3    3.616817635701162E-1   -3.356195569982632E-1
 9.937541282299999E9     4.661120361793310E-1   -1.246813895083581E-1   -1.626162459060818E-3   -1.418784138420171E-3   -1.666135378953732E-3   -1.396919030641432E-3    3.611451089139059E-1   -3.357042262614734E-1
 9.937543672950001E9     4.659549848235419E-1   -1.247291525442820E-1   -1.629936187775124E-3   -1.400929976857940E-3   -1.684934735619513E-3   -1.469389238814169E-3    3.607669768900930E-1   -3.360867977618680E-1
 9.937546063600000E9     4.661613270982819E-1   -1.250254502773732E-1   -1.689393998849936E-3   -1.468516338124434E-3   -1.724025020236749E-3   -1.459720499501510E-3    3.605740639993522E-1   -3.362302810243216E-1
 9.937548454250000E9     4.659891369000442E-1   -1.251529773446803E-1   -1.691140469644112E-3   -1.459517354693322E-3   -1.745989602985586E-3   -1.485794066867431E-3    3.603055747545264E-1   -3.364501078084184E-1
 9.937550844900000E9     4.659919832125819E-1   -1.252906286756534E-1   -1.694684550649170E-3   -1.490252370808166E-3   -1.789055779354725E-3   -1.499122099486649E-3    3.599692181711947E-1   -3.367460215983088E-1
 9.937553235549999E9     4.658769614106764E-1   -1.255502012251593E-1   -1.776207105224149E-3   -1.521870937913435E-3   -1.807653933717074E-3   -1.510176777428293E-3    3.593988290363533E-1   -3.368170930557174E-1
 9.937555626200001E9     4.658476082489499E-1   -1.256161061846600E-1   -1.776568531767861E-3   -1.536117814823767E-3   -1.835697080953079E-3   -1.563692534161965E-3    3.592223983452791E-1   -3.372406160985690E-1
 9.937558016850000E9     4.656431477291845E-1   -1.257614898835861E-1   -1.828479141122876E-3   -1.510910965156218E-3   -1.867807599784988E-3   -1.544138633992920E-3    3.586342728873878E-1   -3.373936930648699E-1
 9.937560407500000E9     4.657414518011533E-1   -1.259507690166050E-1   -1.840585720574844E-3   -1.570719534921181E-3   -1.900208783287334E-3   -1.563806379191029E-3    3.581910040621517E-1   -3.375106261812631E-1
