#  HZ   S   RI   R     50.00 
! Rohde & Schwarz Vector Network Analyzer 
! Rohde-Schwarz,ZNB20-2Port,1311601062101988,3.16
! Created: UTC 3/20/2024, 11:11:57 PM
! freq[Hz]                re:S11                  im:S11                  re:S21                  im:S21                  re:S12                  im:S12                  re:S22                  im:S22
 9.937357072000000E9     4.701106602253646E-1   -1.121913706077564E-1   -4.370663895370152E-4   -4.365625345894193E-4   -4.600221696585357E-4   -4.545093822475273E-4    3.804222496675547E-1   -3.204192746752039E-1
 9.937359424299999E9     4.699693506263776E-1   -1.125302297716242E-1   -4.329182640398314E-4   -4.408297275393862E-4   -4.454592509124064E-4   -4.554881731277391E-4    3.802770001624814E-1   -3.206907982870353E-1
 9.937361776600000E9     4.700365564003370E-1   -1.125493350020998E-1   -4.798667814699142E-4   -4.297801769737024E-4   -4.685632191452960E-4   -4.530891664500658E-4    3.803213976359477E-1   -3.209642503629430E-1
 9.937364128900000E9     4.698491515192912E-1   -1.126503538423102E-1   -4.696659185650446E-4   -4.768868429718824E-4   -4.903550169584305E-4   -4.213503329029857E-4    3.798522666289516E-1   -3.211508910200309E-1
 9.937366481200001E9     4.699313038995789E-1   -1.128598591849519E-1   -4.731744962514168E-4   -4.629193150236599E-4   -4.764409673111345E-4   -4.312912974286142E-4    3.799254660271641E-1   -3.212446651241552E-1
 9.937368833500000E9     4.699314557717550E-1   -1.130044989147602E-1   -4.734143120664160E-4   -4.711392047288434E-4   -4.866322203973333E-4   -4.986861213848743E-4    3.796480950884059E-1   -3.214766604899555E-1
 9.937371185799999E9     4.697131471658514E-1   -1.132193596919156E-1   -4.745904185256626E-4   -4.781556204260254E-4   -5.128239440917451E-4   -5.029316508482136E-4    3.794169100042460E-1   -3.214816962477099E-1
 9.937373538100000E9     4.696396763315251E-1   -1.133089244068811E-1   -4.800607301160245E-4   -4.806803927115206E-4   -5.063861428050242E-4   -4.759149862970650E-4    3.792905045633002E-1   -3.217626629114560E-1
 9.937375890400000E9     4.697600800163771E-1   -1.136220325497060E-1   -5.077289918464358E-4   -4.481752283474799E-4   -5.144579115946296E-4   -4.754659804910048E-4    3.790728934386478E-1   -3.219904466040432E-1
 9.937378242700001E9     4.697158215777452E-1   -1.135691505747268E-1   -5.088780394465186E-4   -5.129007117684034E-4   -5.282227495202365E-4   -5.144853527997709E-4    3.787157714774574E-1   -3.221279917248929E-1
 9.937380595000000E9     4.695806140163061E-1   -1.139647287276232E-1   -5.374337730618905E-4   -5.175206551244354E-4   -5.599715357252909E-4   -4.793896436402151E-4    3.786110033048048E-1   -3.223266468009606E-1
 9.937382947299999E9     4.696330625215355E-1   -1.139835897425544E-1   -5.451961370089299E-4   -5.368573241330389E-4   -5.321564281726831E-4   -5.508792464260686E-4    3.786239014138278E-1   -3.223684211823585E-1
 9.937385299600000E9     4.694780288780043E-1   -1.141519828362951E-1   -5.943074782767646E-4   -5.379396530559357E-4   -5.548511681335299E-4   -5.156926288589730E-4    3.782816863807765E-1   -3.226105011532972E-1
 9.937387651900000E9     4.694854227449686E-1   -1.142719021531693E-1   -5.461428617861371E-4   -5.410472640205240E-4   -5.847109360789658E-4   -4.987658419738239E-4    3.782146762841576E-1   -3.227933581477193E-1
 9.937390004200001E9     4.693793862136040E-1   -1.145606139783425E-1   -5.722953543935650E-4   -5.336542912824828E-4   -5.642112987076463E-4   -5.379873087181701E-4    3.778206689590582E-1   -3.229816516321021E-1
 9.937392356500000E9     4.692907453320380E-1   -1.147964427041035E-1   -5.685349439143006E-4   -5.696575107665878E-4   -5.916651011972570E-4   -5.845324682236257E-4    3.776130874276160E-1   -3.231898249955475E-1
 9.937394708799999E9     4.693795096924222E-1   -1.147990927638633E-1   -5.746829913966673E-4   -5.616703656937105E-4   -6.102343575519908E-4   -5.803115363306855E-4    3.772398128382005E-1   -3.233779615038281E-1
 9.937397061100000E9     4.693038251963570E-1   -1.150537470614645E-1   -5.987295303051242E-4   -5.857523709047082E-4   -6.163000821803883E-4   -5.821012850446955E-4    3.771228739420068E-1   -3.235690646475893E-1
 9.937399413400000E9     4.692431995800246E-1   -1.151705385652746E-1   -6.372798815111129E-4   -5.700953637745780E-4   -6.180159513389071E-4   -5.774413554577036E-4    3.771265175748018E-1   -3.236857638102301E-1
 9.937401765700001E9     4.692450206833932E-1   -1.153580840096932E-1   -6.236385630455609E-4   -5.956000844836016E-4   -6.311256958862109E-4   -5.878327110408470E-4    3.769243956744835E-1   -3.239202608310648E-1
 9.937404118000000E9     4.690730959334252E-1   -1.155433188508210E-1   -6.267764195019866E-4   -5.991186092915930E-4   -6.190993465944798E-4   -5.933326882939760E-4    3.765709079006114E-1   -3.240727359265904E-1
 9.937406470299999E9     4.690655544266003E-1   -1.156898036722084E-1   -6.552752573155635E-4   -6.099580232278568E-4   -6.159665016153643E-4   -6.204774362192461E-4    3.763981310452124E-1   -3.242440551920420E-1
 9.937408822600000E9     4.690376699272558E-1   -1.158881665275870E-1   -6.720185855883438E-4   -6.267916096259133E-4   -6.494754948223995E-4   -5.953358895790820E-4    3.762611179480719E-1   -3.244129101490852E-1
 9.937411174900000E9     4.688190269538300E-1   -1.158021886908826E-1   -6.713551850384005E-4   -6.336548100663811E-4   -6.503380635707994E-4   -6.241248049582627E-4    3.759772962911940E-1   -3.245348398451797E-1
 9.937413527200001E9     4.688836181534331E-1   -1.160775481881191E-1   -6.630948930267067E-4   -6.343666154169140E-4   -7.064782915139368E-4   -6.336386003235358E-4    3.758825028951187E-1   -3.247361659954694E-1
 9.937415879500000E9     4.688778970297363E-1   -1.162918363568499E-1   -6.881174936665814E-4   -6.680747925992317E-4   -6.720888228067624E-4   -6.688345610300210E-4    3.756938156840426E-1   -3.250002252726605E-1
 9.937418231799999E9     4.688962103694968E-1   -1.164355622901938E-1   -6.529623584330071E-4   -6.794271355417903E-4   -7.379298108885578E-4   -6.776995971725015E-4    3.754216662268844E-1   -3.251524930529999E-1
 9.937420584100000E9     4.687257246756631E-1   -1.164851509869422E-1   -7.019633318780717E-4   -6.654776211985682E-4   -7.391156951549265E-4   -6.770090866763719E-4    3.750834564358670E-1   -3.255395074128024E-1
 9.937422936400000E9     4.686459584418266E-1   -1.166964092252342E-1   -7.314033216672529E-4   -6.940322163009600E-4   -7.191061497811333E-4   -6.531283062874481E-4    3.750151729234260E-1   -3.255011449242884E-1
 9.937425288700001E9     4.686944925804353E-1   -1.169360621974730E-1   -7.243124367514780E-4   -6.886684414541320E-4   -7.036461100482840E-4   -6.989076595162098E-4    3.747452347492469E-1   -3.257409576005272E-1
 9.937427641000000E9     4.686237991172455E-1   -1.170345426889562E-1   -7.271930443878555E-4   -6.842968044156682E-4   -7.208739257774317E-4   -6.870371329526581E-4    3.744898510605620E-1   -3.258251138589177E-1
 9.937429993299999E9     4.684996385471459E-1   -1.172201139781530E-1   -7.364953581174540E-4   -6.885143986831346E-4   -7.946185703042056E-4   -7.459314635032946E-4    3.742322539292984E-1   -3.258320389601314E-1
 9.937432345600000E9     4.685670753694698E-1   -1.173489565965586E-1   -7.713245072726063E-4   -7.464990440047793E-4   -7.980472282619335E-4   -7.311406151735886E-4    3.742613278580060E-1   -3.262744517248340E-1
 9.937434697900000E9     4.684579309505524E-1   -1.174834287728440E-1   -7.921243862500455E-4   -7.423074817317018E-4   -8.095240325541213E-4   -7.370418136739797E-4    3.738983934312725E-1   -3.262982477126278E-1
 9.937437050200001E9     4.684443140867208E-1   -1.176988491193277E-1   -8.163085968298662E-4   -7.594571731571315E-4   -8.011780330234434E-4   -7.642678173388845E-4    3.735859446959079E-1   -3.265452674825607E-1
 9.937439402500000E9     4.684485311023958E-1   -1.177223941877240E-1   -7.733004463203055E-4   -7.359510259937117E-4   -8.364142860324201E-4   -7.738018409867340E-4    3.734424869695796E-1   -3.268641233043147E-1
 9.937441754799999E9     4.682748598810806E-1   -1.180960854342148E-1   -8.503856703717052E-4   -7.628718334493589E-4   -8.393353176192409E-4   -8.105426934657198E-4    3.732099299538235E-1   -3.269399316494722E-1
 9.937444107100000E9     4.682691857504353E-1   -1.180641009415026E-1   -8.422438740866561E-4   -7.823020913674700E-4   -8.331384757769449E-4   -7.667872211740445E-4    3.729422950334788E-1   -3.270528761208673E-1
 9.937446459400000E9     4.682381308260662E-1   -1.183014572601099E-1   -8.345366120310915E-4   -7.907553342763259E-4   -8.845520395605306E-4   -7.836292513457645E-4    3.726835873105009E-1   -3.274233612718699E-1
 9.937448811700001E9     4.682073939503958E-1   -1.185106978197118E-1   -8.730036365567038E-4   -8.448322470969742E-4   -8.884385341101554E-4   -8.188560510569177E-4    3.724039147262085E-1   -3.275924792051230E-1
 9.937451164000000E9     4.680191249943967E-1   -1.186327963446852E-1   -8.752590879708326E-4   -7.993949862283047E-4   -9.072045858949855E-4   -8.232067656271897E-4    3.720288464859956E-1   -3.276595299632446E-1
 9.937453516299999E9     4.680153891712411E-1   -1.188466249158086E-1   -8.838309925602482E-4   -8.345050615513170E-4   -8.955258295855636E-4   -8.202569518868602E-4    3.719957516549194E-1   -3.278676258494073E-1
 9.937455868600000E9     4.679581586648445E-1   -1.189470345711241E-1   -8.826793886580510E-4   -8.932831051572094E-4   -9.044525525677128E-4   -8.259019625805739E-4    3.717756703304825E-1   -3.282560396790574E-1
 9.937458220900000E9     4.678897975119191E-1   -1.191168866443484E-1   -8.744739775154759E-4   -8.735904786858225E-4   -9.148553253305421E-4   -8.713553893614411E-4    3.716936341487929E-1   -3.285427028034039E-1
 9.937460573200001E9     4.678865672947075E-1   -1.192244678910953E-1   -8.849528189643871E-4   -8.588837396524239E-4   -9.512061697840212E-4   -8.550026724012044E-4    3.712767431229271E-1   -3.286330063994102E-1
 9.937462925500000E9     4.678749208285216E-1   -1.193510405997214E-1   -9.576125239929948E-4   -9.003439775104865E-4   -9.635847247155687E-4   -8.545809169427212E-4    3.712634317277314E-1   -3.286986144441489E-1
 9.937465277799999E9     4.677523952868279E-1   -1.195935486067602E-1   -9.490732547612886E-4   -9.051601703605161E-4   -9.675526737830635E-4   -8.991927528613580E-4    3.708819672815720E-1   -3.289358933765095E-1
 9.937467630100000E9     4.677232856485515E-1   -1.196318157243340E-1   -9.444382831882845E-4   -9.289752817148760E-4   -9.725488006831607E-4   -9.159363064641777E-4    3.706559068712135E-1   -3.291836086501990E-1
 9.937469982400000E9     4.677006931491764E-1   -1.199008448482060E-1   -9.967264190776689E-4   -9.354418741895261E-4   -1.023682333634138E-3   -9.138734602328381E-4    3.703809041135530E-1   -3.293250859492862E-1
 9.937472334700001E9     4.676550598133630E-1   -1.199809595575745E-1   -9.950600465302901E-4   -9.513121605871705E-4   -1.020401585418114E-3   -9.276937045026258E-4    3.701627760936113E-1   -3.294762877827700E-1
 9.937474687000000E9     4.675958275717317E-1   -1.201335120890746E-1   -1.013386861899990E-3   -9.147161297446949E-4   -1.021918010381980E-3   -9.339454548264996E-4    3.696076021294245E-1   -3.297668443541345E-1
 9.937477039299999E9     4.675536461558486E-1   -1.203234108333070E-1   -1.002605346403551E-3   -9.516422414228543E-4   -1.050697896734236E-3   -9.411535370237324E-4    3.695301039595785E-1   -3.298552495330632E-1
 9.937479391600000E9     4.674170968228771E-1   -1.205128131930843E-1   -1.031424861698858E-3   -9.603223429434969E-4   -1.074092304928932E-3   -9.632928570443087E-4    3.692286107271344E-1   -3.302767328318041E-1
 9.937481743900000E9     4.673462794449347E-1   -1.206841554124826E-1   -1.052223183811925E-3   -9.696765212069364E-4   -1.069325431937676E-3   -9.924883799632056E-4    3.690319335478264E-1   -3.301880423233898E-1
 9.937484096200001E9     4.674638392184981E-1   -1.208113334836331E-1   -1.073555082638169E-3   -9.979544513236179E-4   -1.100587975734930E-3   -1.010266605234526E-3    3.687743045967173E-1   -3.305655660697883E-1
 9.937486448500000E9     4.673508234516315E-1   -1.209228837459682E-1   -1.068176497923397E-3   -1.022401927198120E-3   -1.104608928549897E-3   -9.996284829905573E-4    3.686615955707687E-1   -3.307515769490665E-1
 9.937488800799999E9     4.673735099749289E-1   -1.210348356524006E-1   -1.105697373428492E-3   -1.052469975335605E-3   -1.164955793984371E-3   -1.018686066479274E-3    3.681600275335008E-1   -3.309049695765071E-1
 9.937491153100000E9     4.671687193157647E-1   -1.212383282093462E-1   -1.129204744714227E-3   -1.064781347108671E-3   -1.170029566316338E-3   -1.070163292808385E-3    3.679647244356778E-1   -3.312099626097386E-1
 9.937493505400000E9     4.672773572892624E-1   -1.212883089743227E-1   -1.154224742385417E-3   -1.053437735520730E-3   -1.191085499434999E-3   -1.050823687640235E-3    3.677500879450151E-1   -3.312756439923560E-1
 9.937495857700001E9     4.669743935114513E-1   -1.216422965823680E-1   -1.176359013888310E-3   -1.076967639087738E-3   -1.194506540567640E-3   -1.052888189931681E-3    3.674928508327335E-1   -3.313865194953144E-1
 9.937498210000000E9     4.670630594808938E-1   -1.216619160351866E-1   -1.186268924138329E-3   -1.087599982533464E-3   -1.210484072138218E-3   -1.120041424818960E-3    3.669036798017783E-1   -3.316830787945748E-1
 9.937500562299999E9     4.670453620641793E-1   -1.219812454150764E-1   -1.211028806447590E-3   -1.097639941523951E-3   -1.211712631265895E-3   -1.100914375039462E-3    3.667717167602395E-1   -3.319061108829909E-1
 9.937502914600000E9     4.669308119309521E-1   -1.221019483329178E-1   -1.217705739965188E-3   -1.082579468049240E-3   -1.253208336355949E-3   -1.114031097808803E-3    3.666898190398039E-1   -3.320322268350366E-1
 9.937505266900000E9     4.667718390592510E-1   -1.221884403640423E-1   -1.224154014976593E-3   -1.142678561670759E-3   -1.290043547006760E-3   -1.130665991768306E-3    3.664402063104818E-1   -3.324758226698048E-1
 9.937507619200001E9     4.669259591942629E-1   -1.224682327878017E-1   -1.240574894675999E-3   -1.136622958477795E-3   -1.292022633625093E-3   -1.116755815936396E-3    3.660424941621908E-1   -3.325250589390586E-1
 9.937509971500000E9     4.668636813384187E-1   -1.225192975228667E-1   -1.259523734223788E-3   -1.164801673024293E-3   -1.281003040047386E-3   -1.165657481778350E-3    3.657199996393143E-1   -3.327840953174414E-1
 9.937512323799999E9     4.666133122947637E-1   -1.227092051173645E-1   -1.295781504365849E-3   -1.182674164169968E-3   -1.321981500879338E-3   -1.196287687278019E-3    3.655845928181534E-1   -3.329269879987160E-1
 9.937514676100000E9     4.665512937548517E-1   -1.228486304121118E-1   -1.304945033613340E-3   -1.207260091570787E-3   -1.404128263320045E-3   -1.174714866359793E-3    3.653111799413804E-1   -3.332367993962916E-1
 9.937517028400000E9     4.667213561500669E-1   -1.229969979086604E-1   -1.312217203603084E-3   -1.192800175351114E-3   -1.392717161759841E-3   -1.211845904504464E-3    3.650525808759443E-1   -3.337263846547682E-1
 9.937519380700001E9     4.665809425099811E-1   -1.231426462838032E-1   -1.353216142208763E-3   -1.238964549689170E-3   -1.443205906608913E-3   -1.221899533810003E-3    3.645902904450064E-1   -3.337877268233895E-1
 9.937521733000000E9     4.664060268580457E-1   -1.233622779577780E-1   -1.365695705019795E-3   -1.226745803982528E-3   -1.443790663062226E-3   -1.221934188521967E-3    3.642371739992835E-1   -3.338286136091259E-1
 9.937524085299999E9     4.665047176379724E-1   -1.235231643206541E-1   -1.394003533996634E-3   -1.249227644033129E-3   -1.443499883988445E-3   -1.248168586021453E-3    3.640791301717545E-1   -3.340070197101692E-1
 9.937526437600000E9     4.663901436527449E-1   -1.235924812028567E-1   -1.411821183074379E-3   -1.271886901610836E-3   -1.469299571296019E-3   -1.247819558046832E-3    3.636424616442050E-1   -3.341522375834048E-1
 9.937528789900000E9     4.663439219369666E-1   -1.238445573762744E-1   -1.435586561183406E-3   -1.290306049238840E-3   -1.496800842355202E-3   -1.263163133510205E-3    3.634543352010993E-1   -3.345166149370393E-1
 9.937531142200001E9     4.662935397639588E-1   -1.239828853296025E-1   -1.490770842380612E-3   -1.319579190634482E-3   -1.497649107778914E-3   -1.287496269244048E-3    3.630567206563537E-1   -3.347776947991141E-1
 9.937533494500000E9     4.663058216092961E-1   -1.241262171794365E-1   -1.494581314326944E-3   -1.299842138198888E-3   -1.541017547269789E-3   -1.296907354350994E-3    3.627333138463135E-1   -3.349626304382138E-1
 9.937535846799999E9     4.662577108512190E-1   -1.242125614183994E-1   -1.508375866223026E-3   -1.357419384025329E-3   -1.541330651137058E-3   -1.340173204233605E-3    3.622913074572268E-1   -3.352788265946018E-1
 9.937538199100000E9     4.662038378507311E-1   -1.243359773579101E-1   -1.514755486546885E-3   -1.367648817731548E-3   -1.568851858016080E-3   -1.339393046445897E-3    3.620788663181044E-1   -3.354138331141370E-1
 9.937540551400000E9     4.660921045395151E-1   -1.245357454310088E-1   -1.577546101217364E-3   -1.380915507370040E-3   -1.608274531681408E-3   -1.374474334282216E-3    3.615521719349435E-1   -3.357313797880428E-1
 9.937542903700001E9     4.659793487328278E-1   -1.248228579605736E-1   -1.625381861785863E-3   -1.384956507604999E-3   -1.660627429633267E-3   -1.396404833084358E-3    3.613935699360740E-1   -3.357750491653634E-1
 9.937545256000000E9     4.659642709544621E-1   -1.248948879472833E-1   -1.631124219660494E-3   -1.415159704922177E-3   -1.687065281704645E-3   -1.421692206413543E-3    3.611533963415871E-1   -3.360662257631494E-1
 9.937547608299999E9     4.660656312268827E-1   -1.250847920654563E-1   -1.641759255338787E-3   -1.434276173965233E-3   -1.670355191125856E-3   -1.413961873411577E-3    3.608391061162537E-1   -3.363048188733984E-1
 9.937549960600000E9     4.658199780063266E-1   -1.250672259303885E-1   -1.656538612272019E-3   -1.467999946723997E-3   -1.726643996278512E-3   -1.438145269315059E-3    3.605140036421278E-1   -3.364537508976104E-1
 9.937552312900000E9     4.657546489712495E-1   -1.252231421699136E-1   -1.726474518362634E-3   -1.482082016667702E-3   -1.738082144415273E-3   -1.467948517823174E-3    3.598562201760087E-1   -3.367099206285944E-1
 9.937554665200001E9     4.657910036950071E-1   -1.255331530838023E-1   -1.746121639294335E-3   -1.500697130666086E-3   -1.782737154216418E-3   -1.516968067881305E-3    3.596333837803191E-1   -3.371405440328093E-1
 9.937557017500000E9     4.657039624795967E-1   -1.257015741807460E-1   -1.743587850406414E-3   -1.510678350411145E-3   -1.804622728205569E-3   -1.484585746196429E-3    3.593043853418729E-1   -3.371964696748553E-1
 9.937559369799999E9     4.657161609409266E-1   -1.257382366653080E-1   -1.767708397604355E-3   -1.516703638237705E-3   -1.829287961427515E-3   -1.526094969471144E-3    3.587809401801856E-1   -3.373029102133127E-1
 9.937561722100000E9     4.655318873788082E-1   -1.260307394000149E-1   -1.812252715726233E-3   -1.563840268390378E-3   -1.886005217282045E-3   -1.543780150372894E-3    3.584996571967450E-1   -3.377473843217478E-1
 9.937564074400000E9     4.656488211081928E-1   -1.261941013147724E-1   -1.838164112426500E-3   -1.570961858947062E-3   -1.884050955985573E-3   -1.566547337045306E-3    3.581759541753400E-1   -3.378300771836062E-1
 9.937566426700001E9     4.654786646882040E-1   -1.262743110227815E-1   -1.887133707516966E-3   -1.593209728754847E-3   -1.920200909812128E-3   -1.582980138931157E-3    3.577860204933129E-1   -3.381340848601553E-1
 9.937568779000000E9     4.655333232808245E-1   -1.264648445139225E-1   -1.926042856441192E-3   -1.603881115227399E-3   -1.967597196890176E-3   -1.608359266488094E-3    3.575705513019836E-1   -3.382919395940038E-1
