#  HZ   S   RI   R     50.00 
! Rohde & Schwarz Vector Network Analyzer 
! Rohde-Schwarz,ZNB20-2Port,1311601062101988,3.16
! Created: UTC 3/20/2024, 11:12:00 PM
! freq[Hz]                re:S11                  im:S11                  re:S21                  im:S21                  re:S12                  im:S12                  re:S22                  im:S22
 9.937353727000000E9     4.702779422850655E-1   -1.120316284140199E-1   -4.152825111520683E-4   -3.811378812277184E-4   -4.742874171963644E-4   -4.196170630385794E-4    3.806477793618671E-1   -3.203152356791906E-1
 9.937356097650000E9     4.703082219312201E-1   -1.121788858346896E-1   -4.512801606106854E-4   -4.322241528732177E-4   -4.604693025694158E-4   -4.374727086226074E-4    3.806356132986902E-1   -3.204230399024673E-1
 9.937358468299999E9     4.701685271793073E-1   -1.123608465592814E-1   -4.770361945242884E-4   -4.292478956994179E-4   -4.758268804186520E-4   -4.494418710776719E-4    3.803860946448161E-1   -3.204577639574889E-1
 9.937360838950001E9     4.698970285086287E-1   -1.124675861971845E-1   -4.733363034145180E-4   -4.364586576832746E-4   -4.893259079880689E-4   -4.380598528598185E-4    3.801941127770853E-1   -3.210136168006695E-1
 9.937363209600000E9     4.699861598507488E-1   -1.126238581658594E-1   -4.551931788286770E-4   -4.455564017320411E-4   -4.492337846367155E-4   -4.658147678826575E-4    3.801486890862780E-1   -3.209535031734184E-1
 9.937365580250000E9     4.699998600159746E-1   -1.128559357779259E-1   -4.468580248041946E-4   -4.465254438177779E-4   -4.716005982465791E-4   -4.752482318541727E-4    3.798465270773428E-1   -3.211473420596360E-1
 9.937367950900000E9     4.698779653811810E-1   -1.131041814862056E-1   -4.895501574762680E-4   -4.358573974029168E-4   -4.866614605156594E-4   -4.563679422997687E-4    3.797013602586908E-1   -3.214445610424589E-1
 9.937370321549999E9     4.696876756748696E-1   -1.131230309468535E-1   -4.857695071808417E-4   -4.596819561929283E-4   -4.775857851352423E-4   -4.806074290457410E-4    3.793169609352051E-1   -3.215673033113485E-1
 9.937372692200001E9     4.697648782900093E-1   -1.132295746947962E-1   -4.702399035225753E-4   -4.862275210337823E-4   -4.565599302880274E-4   -4.795186477800030E-4    3.792675168052917E-1   -3.217177121617425E-1
 9.937375062850000E9     4.696881778545038E-1   -1.134591921480468E-1   -4.928111364295902E-4   -4.904991171622852E-4   -4.976759141325866E-4   -4.794190646309668E-4    3.792421712902963E-1   -3.219325805350607E-1
 9.937377433500000E9     4.697261099288931E-1   -1.137582232131143E-1   -5.443913208636873E-4   -4.985774110080873E-4   -5.074549240261934E-4   -4.930452745423043E-4    3.787862501329823E-1   -3.218871603613671E-1
 9.937379804150000E9     4.695791312187456E-1   -1.137381510992771E-1   -4.840264329846477E-4   -5.203934311153319E-4   -5.230815751587730E-4   -5.105584406816212E-4    3.787205329401431E-1   -3.223117441412314E-1
 9.937382174799999E9     4.696897663209980E-1   -1.140152460549381E-1   -5.572823497459134E-4   -5.471697246902369E-4   -5.662976691709718E-4   -5.517536427612955E-4    3.785035043143035E-1   -3.223845376493287E-1
 9.937384545450001E9     4.695086084770073E-1   -1.139213952327491E-1   -5.538666259740203E-4   -5.172920957881670E-4   -5.178490049496417E-4   -5.164950049847759E-4    3.784054882641891E-1   -3.225940287701647E-1
 9.937386916100000E9     4.694172165746648E-1   -1.144173321098595E-1   -5.417377595970440E-4   -5.087390810556452E-4   -5.621539665170097E-4   -5.405845748255136E-4    3.780402634825334E-1   -3.225897599273819E-1
 9.937389286750000E9     4.694311099089265E-1   -1.143932981241170E-1   -5.643518828904996E-4   -5.488601597818041E-4   -5.485276862815445E-4   -5.264455827584294E-4    3.779558911696323E-1   -3.229316468608008E-1
 9.937391657400000E9     4.692463356444366E-1   -1.146785393527234E-1   -5.643116385279458E-4   -5.438010095414368E-4   -5.974771032554523E-4   -5.680113714841470E-4    3.778494571842378E-1   -3.230289880966825E-1
 9.937394028049999E9     4.693387629243095E-1   -1.147804403239677E-1   -5.827547595034138E-4   -5.715493844614504E-4   -6.096561658311399E-4   -5.595313806571581E-4    3.775436867433640E-1   -3.232629923674048E-1
 9.937396398700001E9     4.692220300520176E-1   -1.148803188209547E-1   -5.340211065716854E-4   -5.547474886421861E-4   -6.238845271087845E-4   -5.534378595714428E-4    3.772645171687043E-1   -3.233691912827223E-1
 9.937398769350000E9     4.693150046277125E-1   -1.148026578272906E-1   -5.870714200515724E-4   -5.879207666451512E-4   -6.328132377873099E-4   -5.882045214394902E-4    3.769998298074135E-1   -3.235291404489256E-1
 9.937401140000000E9     4.691757689304143E-1   -1.152271537491272E-1   -6.067535483647512E-4   -5.751984624734470E-4   -6.038788908536800E-4   -5.892945854487646E-4    3.768172473311938E-1   -3.236599824452204E-1
 9.937403510650000E9     4.690991310732716E-1   -1.152628775472956E-1   -6.291477452948929E-4   -5.861758023527573E-4   -6.174904955634304E-4   -6.077360563615981E-4    3.766623930986705E-1   -3.239103012280120E-1
 9.937405881299999E9     4.691784107293812E-1   -1.155465884960697E-1   -6.399816165513387E-4   -6.082017320051130E-4   -6.353632516098608E-4   -6.029295114719805E-4    3.763639384661953E-1   -3.242717480816532E-1
 9.937408251950001E9     4.689196212081595E-1   -1.157401419642258E-1   -6.308770881646191E-4   -6.136775116443553E-4   -6.577415415797264E-4   -5.984499321826685E-4    3.763413646691101E-1   -3.243723199535285E-1
 9.937410622600000E9     4.688996467658283E-1   -1.158676098898794E-1   -6.312808790572602E-4   -6.423345341912356E-4   -6.693224936796318E-4   -6.055550777676763E-4    3.759728402427407E-1   -3.244125597048039E-1
 9.937412993250000E9     4.687055920020463E-1   -1.160477757346697E-1   -6.617415926345438E-4   -6.127681694526314E-4   -6.872369858765614E-4   -6.346258242713196E-4    3.757569366279507E-1   -3.246814353811220E-1
 9.937415363900000E9     4.688036612108071E-1   -1.162470128256809E-1   -6.267159904872560E-4   -6.912550912895391E-4   -7.119129542500280E-4   -6.553659229116122E-4    3.757231140406184E-1   -3.250388135017332E-1
 9.937417734549999E9     4.689063691931093E-1   -1.163638351162271E-1   -6.771538698583879E-4   -6.705188360250752E-4   -7.178498904823817E-4   -6.593372010497518E-4    3.755317299339854E-1   -3.250602209934602E-1
 9.937420105200001E9     4.688026200028458E-1   -1.165650957941616E-1   -6.669410921020975E-4   -6.931633655236548E-4   -7.022563400956695E-4   -6.857063188172626E-4    3.751921158370219E-1   -3.253030854355650E-1
 9.937422475850000E9     4.687598191479926E-1   -1.167013497782386E-1   -6.756945443524553E-4   -6.725502366975015E-4   -7.109452625891835E-4   -6.983326514967961E-4    3.750891069065134E-1   -3.254011341334526E-1
 9.937424846500000E9     4.686020398360164E-1   -1.170580466904012E-1   -7.291063475626117E-4   -6.854480799423035E-4   -7.172205291403622E-4   -7.037667634648025E-4    3.746943291177482E-1   -3.255132509416065E-1
 9.937427217150000E9     4.686971364109987E-1   -1.170392762974089E-1   -7.473886473114894E-4   -7.012494557864541E-4   -7.428112899303774E-4   -7.120539361912953E-4    3.745956154356227E-1   -3.257985284792161E-1
 9.937429587799999E9     4.685867366535195E-1   -1.171458288037306E-1   -7.291506604002473E-4   -7.159082207904266E-4   -7.716683584072651E-4   -7.284699459402933E-4    3.744151839705758E-1   -3.259247054726144E-1
 9.937431958450001E9     4.684992508010390E-1   -1.172917210210165E-1   -7.410162698154008E-4   -7.302443308691782E-4   -7.915478893646331E-4   -7.347446739239556E-4    3.739926335886910E-1   -3.261811664310648E-1
 9.937434329100000E9     4.684542150644387E-1   -1.173614960529971E-1   -7.688165936064280E-4   -7.539853177995290E-4   -8.106035843809177E-4   -7.290466733218057E-4    3.740305984600549E-1   -3.264268226517974E-1
 9.937436699750000E9     4.683840562755452E-1   -1.175044741881581E-1   -7.816564702959774E-4   -7.476368663384688E-4   -8.191114102492577E-4   -7.466112912272148E-4    3.735790117283376E-1   -3.266629040850327E-1
 9.937439070400000E9     4.683657639203063E-1   -1.176742257366553E-1   -7.894778854164135E-4   -7.683677709525947E-4   -8.297592640541646E-4   -7.651817971358924E-4    3.735066998442966E-1   -3.267859361345267E-1
 9.937441441049999E9     4.684099524273908E-1   -1.179041158333696E-1   -7.914795392383497E-4   -7.691593536071558E-4   -8.242484453810821E-4   -7.559874319562374E-4    3.733263111649730E-1   -3.268541097735336E-1
 9.937443811700001E9     4.682728071357696E-1   -1.181213776864891E-1   -8.281385462098261E-4   -7.920196468373133E-4   -8.321131979034770E-4   -7.761596365187616E-4    3.730282082290290E-1   -3.272422893457592E-1
 9.937446182350000E9     4.683226819923464E-1   -1.182680635391580E-1   -8.218695403567125E-4   -7.877571488461844E-4   -8.730016782246768E-4   -7.877501247648541E-4    3.728095329704454E-1   -3.274145493237600E-1
 9.937448553000000E9     4.683156938460805E-1   -1.183887348711768E-1   -7.986260549225709E-4   -7.926090441199408E-4   -8.520937887793935E-4   -7.794188944552988E-4    3.726173715349497E-1   -3.276081285421533E-1
 9.937450923650000E9     4.680844118689145E-1   -1.185520684711382E-1   -8.693574658185205E-4   -8.222344314792192E-4   -9.026366232470495E-4   -8.154074156668037E-4    3.724476989618534E-1   -3.278045237237925E-1
 9.937453294299999E9     4.680883685770704E-1   -1.186918124473115E-1   -8.805060931740078E-4   -8.560050240864026E-4   -8.981454735438587E-4   -8.154599094283912E-4    3.722682187590453E-1   -3.278281043261773E-1
 9.937455664950001E9     4.679770634027088E-1   -1.188991916989579E-1   -9.179961805259346E-4   -8.397792989900064E-4   -9.454975274100451E-4   -8.437268739618382E-4    3.718779909106137E-1   -3.279965039245296E-1
 9.937458035600000E9     4.680133834649733E-1   -1.191027161423324E-1   -9.040525387354056E-4   -8.537426125407827E-4   -9.524418236321764E-4   -8.482343700896518E-4    3.715654493361181E-1   -3.282069662430425E-1
 9.937460406250000E9     4.678285419930912E-1   -1.190726574272049E-1   -9.017877323469770E-4   -8.535181731230204E-4   -9.234779338777605E-4   -8.710867506179752E-4    3.713334128159704E-1   -3.286744205962176E-1
 9.937462776900000E9     4.678075177129178E-1   -1.194360731725088E-1   -9.284769360383135E-4   -8.841537349210003E-4   -9.512127586454965E-4   -8.782960365266874E-4    3.709746631822000E-1   -3.286175151783292E-1
 9.937465147549999E9     4.678325895881500E-1   -1.195964780180876E-1   -9.264994925333650E-4   -8.944200215053347E-4   -9.933559528130670E-4   -9.146617094672849E-4    3.707362351461544E-1   -3.287936393177736E-1
 9.937467518200001E9     4.676796491212916E-1   -1.196593160527877E-1   -9.526321059238730E-4   -9.013032917326422E-4   -9.558760970219578E-4   -9.279417372826140E-4    3.705331677033436E-1   -3.289040217786707E-1
 9.937469888850000E9     4.676075398977193E-1   -1.199312320311550E-1   -9.811165449409584E-4   -9.097099934661764E-4   -1.017988683209934E-3   -9.299703322539640E-4    3.703199743069793E-1   -3.292779130149752E-1
 9.937472259500000E9     4.676105526605520E-1   -1.199304918352866E-1   -9.687447483583507E-4   -9.411702304831044E-4   -9.985541723129684E-4   -9.076028244532067E-4    3.702301129348571E-1   -3.294285296501372E-1
 9.937474630150000E9     4.676175293325960E-1   -1.202051375492230E-1   -1.025323102543699E-3   -9.392585528166810E-4   -1.037016291888168E-3   -9.062801848717028E-4    3.700025316437593E-1   -3.296762857993761E-1
 9.937477000799999E9     4.675130244601380E-1   -1.204311352831392E-1   -9.999762793807805E-4   -9.572182013433194E-4   -1.056116608836597E-3   -9.265917576692442E-4    3.697662081620591E-1   -3.296265887922624E-1
 9.937479371450001E9     4.675579370464023E-1   -1.205077405500543E-1   -1.084709970088254E-3   -9.476603900346665E-4   -1.037808740141205E-3   -9.935432392983478E-4    3.694289409121265E-1   -3.301358710789542E-1
 9.937481742100000E9     4.674110238762876E-1   -1.206295959906015E-1   -1.050643227064727E-3   -9.980120700406831E-4   -1.070941560036432E-3   -9.777189503474249E-4    3.690692089889541E-1   -3.302177857833663E-1
 9.937484112750000E9     4.673486870685891E-1   -1.207019304056818E-1   -1.083003770897596E-3   -1.001099452238731E-3   -1.102720308624956E-3   -9.970508768869029E-4    3.686383712124621E-1   -3.304586488753574E-1
 9.937486483400000E9     4.672732838889049E-1   -1.209863933477115E-1   -1.073008750295320E-3   -9.861222218623337E-4   -1.092750821318883E-3   -1.002115678454136E-3    3.685567930060162E-1   -3.307635447853408E-1
 9.937488854049999E9     4.672870123815358E-1   -1.210790080947710E-1   -1.086336498970168E-3   -1.044787179445582E-3   -1.163016748401333E-3   -1.030718679921689E-3    3.683477976834628E-1   -3.310774485669749E-1
 9.937491224700001E9     4.671799710665192E-1   -1.213312023274083E-1   -1.115554173497277E-3   -1.064018205766932E-3   -1.160493568925071E-3   -1.026992091050083E-3    3.681381030130589E-1   -3.311691712625991E-1
 9.937493595350000E9     4.671467831362799E-1   -1.216053280205752E-1   -1.143427192963559E-3   -1.054478900519075E-3   -1.188580122626525E-3   -1.051281520327252E-3    3.678683363546488E-1   -3.312892295217739E-1
 9.937495966000000E9     4.671356695431698E-1   -1.216665414054656E-1   -1.184844410801580E-3   -1.059789531751901E-3   -1.199839782332227E-3   -1.077998242504367E-3    3.677493529037884E-1   -3.314769219281539E-1
 9.937498336650000E9     4.669064112862559E-1   -1.217323203636643E-1   -1.132988619131377E-3   -1.085139381079667E-3   -1.209414783667605E-3   -1.080668688609391E-3    3.672153045925287E-1   -3.317621654171562E-1
 9.937500707299999E9     4.670460736382465E-1   -1.220570335296037E-1   -1.201612098986435E-3   -1.094631445216722E-3   -1.220140158916035E-3   -1.093308470612611E-3    3.668499308167021E-1   -3.319283509840930E-1
 9.937503077950001E9     4.670550748763657E-1   -1.219844617623140E-1   -1.203077412421814E-3   -1.127877655025468E-3   -1.253627732574382E-3   -1.102962643991665E-3    3.666039842170891E-1   -3.321420504267441E-1
 9.937505448600000E9     4.669355325205216E-1   -1.222773915037272E-1   -1.259226955424007E-3   -1.102939645668978E-3   -1.261817020247482E-3   -1.122674808480860E-3    3.663661202527125E-1   -3.323933998468417E-1
 9.937507819250000E9     4.668482932294924E-1   -1.222696308335299E-1   -1.206404646904961E-3   -1.160083399015117E-3   -1.286305323483577E-3   -1.173937857379291E-3    3.660258572922368E-1   -3.325850715932721E-1
 9.937510189900000E9     4.666439881210155E-1   -1.224841253521023E-1   -1.253177055517345E-3   -1.163613721063835E-3   -1.311544857805443E-3   -1.163850932278269E-3    3.657788219215637E-1   -3.328011256454960E-1
 9.937512560549999E9     4.666826587786464E-1   -1.225696671262770E-1   -1.272810787061821E-3   -1.190063529760251E-3   -1.312408794997618E-3   -1.156511432282381E-3    3.655197708027721E-1   -3.329755707720355E-1
 9.937514931200001E9     4.667927868160756E-1   -1.229001937854804E-1   -1.326489405691959E-3   -1.222801314248084E-3   -1.343382424853256E-3   -1.191841297126086E-3    3.652666919746630E-1   -3.332637836033710E-1
 9.937517301850000E9     4.666436506024697E-1   -1.229968519481206E-1   -1.335517449135889E-3   -1.213184331750379E-3   -1.384278139444866E-3   -1.226328996129993E-3    3.648833650700499E-1   -3.334137675416036E-1
 9.937519672500000E9     4.666151672705182E-1   -1.231895316634155E-1   -1.333821682953484E-3   -1.214536079384789E-3   -1.388321936594837E-3   -1.212416426448251E-3    3.647574600134044E-1   -3.337825626670116E-1
 9.937522043150000E9     4.665196327630767E-1   -1.233562740158905E-1   -1.368018071349614E-3   -1.221737755762493E-3   -1.396059648845318E-3   -1.241792314546592E-3    3.644797906788543E-1   -3.337176672171989E-1
 9.937524413799999E9     4.664440777963595E-1   -1.235166454299150E-1   -1.424793076310776E-3   -1.268303395310878E-3   -1.432588196887734E-3   -1.253999113606166E-3    3.641162008854579E-1   -3.339076280606407E-1
 9.937526784450001E9     4.663499616355765E-1   -1.237169061363927E-1   -1.419986323943752E-3   -1.287687509834005E-3   -1.432976469192250E-3   -1.267968430735068E-3    3.636754275849572E-1   -3.344841009248286E-1
 9.937529155100000E9     4.663438929917123E-1   -1.238691283569151E-1   -1.427720909295940E-3   -1.328196368673849E-3   -1.493098304520724E-3   -1.300379360448082E-3    3.634082135620133E-1   -3.343750122976797E-1
 9.937531525750000E9     4.662954590557098E-1   -1.240621401656327E-1   -1.453306565068561E-3   -1.309758070981069E-3   -1.508803930123877E-3   -1.292615514873776E-3    3.629012588411839E-1   -3.348395726092505E-1
 9.937533896400000E9     4.662801123469768E-1   -1.240980814052194E-1   -1.494820462274883E-3   -1.351989207592321E-3   -1.523061998710781E-3   -1.358724609935495E-3    3.626779091894676E-1   -3.349748487862178E-1
 9.937536267049999E9     4.661538491765702E-1   -1.243099005129302E-1   -1.508943554909392E-3   -1.375839399332075E-3   -1.527259358247666E-3   -1.354452668755253E-3    3.623653308523472E-1   -3.351560423720433E-1
 9.937538637700001E9     4.662935068599379E-1   -1.244990334048082E-1   -1.542669817887183E-3   -1.395212083301359E-3   -1.588965738740935E-3   -1.367564226431940E-3    3.620235265675583E-1   -3.352704674161817E-1
 9.937541008350000E9     4.661679254154290E-1   -1.245969030501376E-1   -1.567753010545610E-3   -1.375279655113883E-3   -1.622888663469654E-3   -1.378308017311869E-3    3.618192895222538E-1   -3.355768340483327E-1
 9.937543379000000E9     4.659139095609157E-1   -1.248962376012350E-1   -1.612538004404831E-3   -1.412679993035068E-3   -1.619135072520664E-3   -1.401046985148076E-3    3.615431893947854E-1   -3.356489367123509E-1
 9.937545749650000E9     4.660856059282364E-1   -1.249388816145116E-1   -1.631832706244607E-3   -1.452071945436619E-3   -1.685637736974772E-3   -1.390547445755436E-3    3.609090534267729E-1   -3.361069512658804E-1
 9.937548120299999E9     4.660134852211940E-1   -1.250432706009236E-1   -1.639870689911946E-3   -1.471967144705685E-3   -1.699896597450774E-3   -1.433005417823019E-3    3.606099898255289E-1   -3.362154417738972E-1
 9.937550490950001E9     4.660471637185209E-1   -1.252437778774356E-1   -1.653990197699781E-3   -1.475402809958667E-3   -1.714374195230466E-3   -1.459496892802892E-3    3.603370674148679E-1   -3.366081597362487E-1
 9.937552861600000E9     4.658310898963652E-1   -1.254026404704620E-1   -1.675895645997782E-3   -1.471580861690743E-3   -1.739650596755005E-3   -1.469496845262358E-3    3.598905911059245E-1   -3.367368278190032E-1
 9.937555232250000E9     4.657269085288014E-1   -1.256445136243948E-1   -1.720840816600373E-3   -1.487418587721980E-3   -1.769505209547534E-3   -1.482745474466819E-3    3.596072475877004E-1   -3.369845723315087E-1
 9.937557602900000E9     4.656544269056063E-1   -1.255675860480317E-1   -1.766290548973455E-3   -1.504128799956474E-3   -1.822003939076379E-3   -1.518955187863950E-3    3.591926012608894E-1   -3.373876065442860E-1
 9.937559973549999E9     4.656747254496086E-1   -1.258906682049882E-1   -1.773228668361170E-3   -1.566640507066259E-3   -1.846082710895742E-3   -1.501945271078824E-3    3.589811301945263E-1   -3.376107922402969E-1
 9.937562344200001E9     4.656069549028564E-1   -1.260620856356163E-1   -1.817031449282764E-3   -1.602746661297284E-3   -1.851256906722569E-3   -1.542830956391171E-3    3.583706940846052E-1   -3.376988522231062E-1
 9.937564714850000E9     4.656797716794172E-1   -1.262478822503385E-1   -1.865154788873203E-3   -1.599927021940676E-3   -1.893846588236635E-3   -1.572560763489060E-3    3.582773310101845E-1   -3.378274438715164E-1
 9.937567085500000E9     4.655388473817177E-1   -1.263124874096006E-1   -1.870906711508571E-3   -1.587131262250957E-3   -1.912929578890196E-3   -1.608807859591823E-3    3.575218369397287E-1   -3.381464841914992E-1
