#  HZ   S   RI   R     50.00 
! Rohde & Schwarz Vector Network Analyzer 
! Rohde-Schwarz,ZNB20-2Port,1311601062101988,3.16
! Created: UTC 3/20/2024, 11:12:09 PM
! freq[Hz]                re:S11                  im:S11                  re:S21                  im:S21                  re:S12                  im:S12                  re:S22                  im:S22
 9.937355324000000E9     4.702253913248747E-1   -1.121056049466051E-1   -4.031287232347636E-4   -4.066404865786112E-4   -4.318494389170482E-4   -4.083513623957644E-4    3.807981163916232E-1   -3.204543276569676E-1
 9.937357697875000E9     4.702221699554119E-1   -1.122959575159139E-1   -4.445106903739146E-4   -4.007328161076888E-4   -4.649992866795652E-4   -4.231604292927749E-4    3.806225687836838E-1   -3.207019119634103E-1
 9.937360071750000E9     4.700132975527581E-1   -1.125432311386511E-1   -4.305842220870568E-4   -3.936486853250448E-4   -4.601844754860332E-4   -4.001940298091901E-4    3.802125014629680E-1   -3.206453909043414E-1
 9.937362445625000E9     4.699454168915341E-1   -1.125673118062877E-1   -4.933452711035683E-4   -4.368460724416187E-4   -4.528444720679651E-4   -4.409162046304653E-4    3.803421035057118E-1   -3.207738023161547E-1
 9.937364819500000E9     4.698693467808269E-1   -1.127995765119698E-1   -4.848644738525107E-4   -4.417760531625574E-4   -4.755001360438852E-4   -4.505940102588587E-4    3.799897494739886E-1   -3.210780482974640E-1
 9.937367193375000E9     4.698596207319063E-1   -1.128798126810999E-1   -4.523751793346516E-4   -4.262081139781314E-4   -4.844668212949257E-4   -4.615620309080696E-4    3.798403608960473E-1   -3.212772956734340E-1
 9.937369567250000E9     4.698035362283777E-1   -1.130001673036352E-1   -4.805425713194966E-4   -4.342849510627816E-4   -5.048247313496403E-4   -4.646593953651288E-4    3.794350049930918E-1   -3.214305192670656E-1
 9.937371941125000E9     4.697076717601394E-1   -1.131771096547321E-1   -4.709843380866059E-4   -4.673034052199094E-4   -4.737083101546497E-4   -4.630388415438491E-4    3.793420123921364E-1   -3.215809291635230E-1
 9.937374315000000E9     4.697519129577148E-1   -1.134684184167056E-1   -5.012135115080095E-4   -5.137790828315156E-4   -4.899382717927953E-4   -4.393449679015094E-4    3.792017472188898E-1   -3.217308649979755E-1
 9.937376688875000E9     4.698259211852863E-1   -1.136322218415541E-1   -5.168639016760889E-4   -4.825206654155244E-4   -5.296958688646245E-4   -4.774374217268464E-4    3.790588562479404E-1   -3.219560347038353E-1
 9.937379062750000E9     4.696574041780642E-1   -1.137028340476259E-1   -4.944908050795570E-4   -4.864644738551390E-4   -5.240220950348444E-4   -4.937937765854867E-4    3.788414571814758E-1   -3.220027142984503E-1
 9.937381436625000E9     4.695415497258176E-1   -1.139577463466036E-1   -5.410313774142550E-4   -5.206405394199195E-4   -5.169110723488117E-4   -4.724063542858574E-4    3.787039243447422E-1   -3.223449211867218E-1
 9.937383810500000E9     4.695649934564893E-1   -1.142484610109118E-1   -5.309259501090453E-4   -5.217119389012550E-4   -5.399936374425043E-4   -4.888290371491504E-4    3.785594519286958E-1   -3.226027991898109E-1
 9.937386184375000E9     4.694274916284628E-1   -1.142421821651007E-1   -5.281549757802015E-4   -4.977795346656034E-4   -5.426064214398631E-4   -5.045834127562931E-4    3.782442005428283E-1   -3.226587620208730E-1
 9.937388558250000E9     4.693973209457015E-1   -1.142929268896265E-1   -5.304201058505195E-4   -5.290303548368069E-4   -5.760181891067308E-4   -5.171232951812290E-4    3.781455607467922E-1   -3.227988970109922E-1
 9.937390932125000E9     4.694409255443829E-1   -1.144704853634312E-1   -5.894557158002501E-4   -5.203062999269186E-4   -5.707904007671954E-4   -5.343754300356833E-4    3.779697928221046E-1   -3.229788725919120E-1
 9.937393306000000E9     4.693681337688267E-1   -1.147704831767312E-1   -5.601465733696924E-4   -5.566889387159172E-4   -5.582657163347956E-4   -5.293248031095162E-4    3.775502204816168E-1   -3.231831838464670E-1
 9.937395679875000E9     4.693427715124996E-1   -1.148693057233308E-1   -5.995948874904809E-4   -5.443229596405658E-4   -6.000573850860209E-4   -5.491895571555211E-4    3.773135881365264E-1   -3.233380306576478E-1
 9.937398053750000E9     4.693517185236261E-1   -1.149457838436940E-1   -5.607310552195849E-4   -5.676309411751807E-4   -5.961408807856005E-4   -6.122866014038636E-4    3.772575156272775E-1   -3.234222540113973E-1
 9.937400427625000E9     4.692867179798761E-1   -1.151841725945606E-1   -5.992016861826938E-4   -5.476191146351746E-4   -6.101156219828628E-4   -5.920145974359580E-4    3.770025739121995E-1   -3.236301844984135E-1
 9.937402801500000E9     4.690869962968446E-1   -1.152777208775010E-1   -5.837344941434491E-4   -6.224118043627638E-4   -6.391813135968970E-4   -5.903029900691268E-4    3.768172124899487E-1   -3.237674872978879E-1
 9.937405175375000E9     4.690024789790731E-1   -1.155760036203383E-1   -6.046276088023105E-4   -6.172137693753510E-4   -6.413081254380467E-4   -6.174177935516952E-4    3.766079231583341E-1   -3.241266525052099E-1
 9.937407549250000E9     4.690120437815942E-1   -1.157130571509992E-1   -6.561501617371149E-4   -6.272471419715766E-4   -6.583195629738788E-4   -5.902426755700570E-4    3.765579937861697E-1   -3.241241924278890E-1
 9.937409923125000E9     4.690745509393844E-1   -1.158375112432896E-1   -6.449521709042019E-4   -6.541768598446719E-4   -6.554365832905826E-4   -6.077319672831554E-4    3.763435738740075E-1   -3.244478515356989E-1
 9.937412297000000E9     4.687830507914546E-1   -1.160131379463538E-1   -6.603483303157218E-4   -5.998415453218461E-4   -6.600181640654786E-4   -6.118287199098573E-4    3.761560116798370E-1   -3.246524800659399E-1
 9.937414670875000E9     4.689157274863542E-1   -1.161399134136314E-1   -6.789468210282955E-4   -6.456679112842071E-4   -6.438891014871652E-4   -6.405992162341008E-4    3.758843120009969E-1   -3.247215681497475E-1
 9.937417044750000E9     4.690181425973334E-1   -1.161833239187809E-1   -6.785872919867858E-4   -6.758459407795176E-4   -7.016259631744606E-4   -6.384164350101270E-4    3.756853768743441E-1   -3.248182741804923E-1
 9.937419418625000E9     4.689111238678855E-1   -1.162849459313274E-1   -6.876193311811318E-4   -6.739347015277076E-4   -6.894606265551978E-4   -6.516603636152834E-4    3.755054490853658E-1   -3.252691092674039E-1
 9.937421792500000E9     4.687351770551888E-1   -1.166364428453398E-1   -7.154189025085322E-4   -6.358304997958156E-4   -6.926663873638370E-4   -6.530250017975191E-4    3.754307667394491E-1   -3.252365390619450E-1
 9.937424166375000E9     4.686571683385606E-1   -1.167703328432283E-1   -6.673292923693746E-4   -7.208809517580061E-4   -7.391954649252097E-4   -6.760917936438072E-4    3.749618261832215E-1   -3.255464156863691E-1
 9.937426540250000E9     4.685856186896143E-1   -1.168689632784490E-1   -7.213005870032130E-4   -6.566602718259457E-4   -7.325953133405269E-4   -6.974187401234992E-4    3.747596089272315E-1   -3.257117285407297E-1
 9.937428914125000E9     4.685491274217234E-1   -1.171554500757747E-1   -7.144084304304449E-4   -6.904954619535848E-4   -7.566167717117361E-4   -6.960149522624276E-4    3.744503661444280E-1   -3.259315322669453E-1
 9.937431288000000E9     4.685530302527829E-1   -1.173360173379247E-1   -7.569541949121738E-4   -7.127085169532090E-4   -7.770300718635323E-4   -7.234163755501490E-4    3.742767052155673E-1   -3.260982514116983E-1
 9.937433661875000E9     4.684710133325722E-1   -1.173057843168859E-1   -7.322814059973592E-4   -7.661971957990451E-4   -7.533845209063656E-4   -7.117346444946143E-4    3.742327426755931E-1   -3.262148568119327E-1
 9.937436035750000E9     4.683554069455197E-1   -1.174787175947755E-1   -7.517580171049967E-4   -7.449915501063048E-4   -7.843049426566393E-4   -7.360479054447362E-4    3.738347854097914E-1   -3.265073054653852E-1
 9.937438409625000E9     4.683032103962075E-1   -1.177469448856706E-1   -7.759123651705037E-4   -7.389326214311639E-4   -7.850332652994646E-4   -7.489531805478558E-4    3.738086416616027E-1   -3.268007510453290E-1
 9.937440783500000E9     4.683752066807488E-1   -1.178053965231915E-1   -8.090901670777173E-4   -7.403118872694635E-4   -8.058039322572213E-4   -7.593763632241625E-4    3.735710684118927E-1   -3.267667834376186E-1
 9.937443157375000E9     4.682598821533031E-1   -1.179643229138951E-1   -7.923540703508023E-4   -7.488987622512243E-4   -7.951813550255553E-4   -7.680035093678996E-4    3.732591581289771E-1   -3.271441828535947E-1
 9.937445531250000E9     4.682492397321812E-1   -1.181539702898017E-1   -8.487952580473175E-4   -7.540743071936748E-4   -8.514574257346841E-4   -7.784726137276767E-4    3.729361984153908E-1   -3.272737414288010E-1
 9.937447905125000E9     4.681653448411576E-1   -1.183134092938063E-1   -8.204916097885019E-4   -8.005152195255511E-4   -8.472602506322453E-4   -8.063328454590634E-4    3.726990871923423E-1   -3.274009734362055E-1
 9.937450279000000E9     4.681205811625196E-1   -1.185346649111219E-1   -8.403581057580806E-4   -8.262527373800748E-4   -8.801809402538507E-4   -8.001860302826978E-4    3.725398599894443E-1   -3.274128982664855E-1
 9.937452652875000E9     4.680886072950611E-1   -1.186781072506678E-1   -8.656272974492277E-4   -8.073888087285237E-4   -8.806408861680856E-4   -8.412541971094258E-4    3.724194274450615E-1   -3.277710945150483E-1
 9.937455026750000E9     4.680482631074510E-1   -1.188877484906518E-1   -8.569059512752255E-4   -8.740082222500712E-4   -9.315589235758918E-4   -8.257733425258518E-4    3.721708086107201E-1   -3.279114570405301E-1
 9.937457400625000E9     4.680505288849968E-1   -1.187791397626777E-1   -8.960222354140853E-4   -8.594878930229782E-4   -9.100424067316064E-4   -8.401192602976490E-4    3.718403681305926E-1   -3.281123809228602E-1
 9.937459774500000E9     4.679021617393899E-1   -1.191285117189047E-1   -8.963475906066974E-4   -8.197138840248177E-4   -9.015574898145694E-4   -8.476409256877186E-4    3.714573671832441E-1   -3.283873699009167E-1
 9.937462148375000E9     4.678368436018812E-1   -1.193200830348210E-1   -9.532735854474885E-4   -8.457157564701719E-4   -9.164864482158493E-4   -8.673165071160260E-4    3.712857795500569E-1   -3.287518349489663E-1
 9.937464522250000E9     4.679026704852820E-1   -1.195579472483404E-1   -9.249588565273961E-4   -8.435604296127028E-4   -9.479696786809220E-4   -8.637947400499214E-4    3.710879419066540E-1   -3.287875799311531E-1
 9.937466896125000E9     4.677241120214548E-1   -1.196086015549833E-1   -9.415452782475388E-4   -8.919824012450750E-4   -9.743160997997727E-4   -8.956713069302655E-4    3.709493601730919E-1   -3.288168741056117E-1
 9.937469270000000E9     4.678052692300516E-1   -1.197367168503019E-1   -9.640716335251762E-4   -9.110005358217230E-4   -9.848725822308871E-4   -9.047077860424972E-4    3.707652425624658E-1   -3.291864577003871E-1
 9.937471643875000E9     4.676143548684181E-1   -1.200455610636192E-1   -9.480179356370409E-4   -9.544958156126207E-4   -9.899626272223338E-4   -9.172945422944159E-4    3.705109751685108E-1   -3.293609026666218E-1
 9.937474017750000E9     4.676158582218277E-1   -1.201047176596807E-1   -1.013715592153545E-3   -9.553876527187587E-4   -9.988407177742129E-4   -9.055056276961105E-4    3.702973424602958E-1   -3.296421847304240E-1
 9.937476391625000E9     4.676502771218637E-1   -1.202869552021709E-1   -1.007645294064807E-3   -9.128516085140024E-4   -1.029848411757554E-3   -9.389441751750212E-4    3.698708842674756E-1   -3.297878899070701E-1
 9.937478765500000E9     4.674938403211501E-1   -1.205080620763970E-1   -9.978313923977328E-4   -9.595134563176289E-4   -1.027523298337251E-3   -9.412600438903002E-4    3.696296009563620E-1   -3.297895203851763E-1
 9.937481139375000E9     4.675998135709636E-1   -1.207262169691508E-1   -1.037843885529803E-3   -9.819768761718316E-4   -1.060084583610139E-3   -9.979199901910994E-4    3.691547023164249E-1   -3.302978985576190E-1
 9.937483513250000E9     4.673399198712518E-1   -1.207344935008363E-1   -1.063689409920388E-3   -1.025961994740899E-3   -1.078371386986697E-3   -9.807055854517707E-4    3.689932016838423E-1   -3.305178138198782E-1
 9.937485887125000E9     4.673668379044969E-1   -1.208965507217143E-1   -1.080206272035137E-3   -1.018835163591599E-3   -1.097148008301817E-3   -9.696913000559503E-4    3.686793191394090E-1   -3.306565481617414E-1
 9.937488261000000E9     4.673445370622579E-1   -1.211613392369544E-1   -1.069857653406931E-3   -1.022618034835737E-3   -1.129369365283220E-3   -1.002613309690374E-3    3.685168948814985E-1   -3.309318620176385E-1
 9.937490634875000E9     4.672747335693068E-1   -1.211945551083749E-1   -1.106685546256183E-3   -1.029785714658242E-3   -1.134775191814404E-3   -1.008627172669884E-3    3.683601514462064E-1   -3.310128955850156E-1
 9.937493008750000E9     4.671300679660014E-1   -1.213252186144249E-1   -1.142499794261966E-3   -1.063622533903709E-3   -1.144158344903079E-3   -1.044605623163531E-3    3.679234650905915E-1   -3.312363449865071E-1
 9.937495382625000E9     4.671334861474287E-1   -1.215599178584359E-1   -1.135919323243916E-3   -1.050485564987737E-3   -1.190428765053129E-3   -1.031819758302233E-3    3.677782531137863E-1   -3.313326022142690E-1
 9.937497756500000E9     4.672368827018186E-1   -1.217106615191900E-1   -1.123224659273215E-3   -1.038487493506067E-3   -1.187232248433648E-3   -1.068963213914026E-3    3.673230814740294E-1   -3.314747059689293E-1
 9.937500130375000E9     4.669880613671574E-1   -1.220295587625582E-1   -1.159035284060935E-3   -1.097209358047677E-3   -1.213236875570114E-3   -1.084680513185745E-3    3.673029264721479E-1   -3.317722347061043E-1
 9.937502504250000E9     4.669595056379801E-1   -1.220914114916514E-1   -1.194254640031427E-3   -1.106025071814879E-3   -1.219877862968095E-3   -1.104205258175896E-3    3.670271360370806E-1   -3.320248040451348E-1
 9.937504878125000E9     4.668805194842184E-1   -1.221483729073126E-1   -1.193091539413132E-3   -1.125321821433044E-3   -1.225565455150666E-3   -1.133836997781000E-3    3.667252630603744E-1   -3.320538283665403E-1
 9.937507252000000E9     4.668906740404242E-1   -1.223059856585640E-1   -1.197721704735623E-3   -1.131690497851757E-3   -1.279446385642168E-3   -1.136248469472781E-3    3.663441212354311E-1   -3.323916338821411E-1
 9.937509625875000E9     4.669280053383754E-1   -1.225010716785175E-1   -1.260667443467120E-3   -1.164012070322100E-3   -1.275302518665222E-3   -1.146116619785855E-3    3.661811759815947E-1   -3.325625812430716E-1
 9.937511999750000E9     4.666941157463550E-1   -1.226817036961695E-1   -1.262235830155635E-3   -1.179418141416397E-3   -1.275752034170411E-3   -1.133853065924115E-3    3.657920490349733E-1   -3.328270021826782E-1
 9.937514373625000E9     4.666531650481237E-1   -1.230253374065827E-1   -1.299572861420685E-3   -1.198650969905509E-3   -1.304951278625263E-3   -1.172183979284985E-3    3.654315437044062E-1   -3.331845594350339E-1
 9.937516747500000E9     4.667085596320726E-1   -1.230493446509594E-1   -1.333186847722907E-3   -1.185550828137033E-3   -1.333270464344315E-3   -1.231642739305975E-3    3.650807816896817E-1   -3.330862414555157E-1
 9.937519121375000E9     4.663964168196245E-1   -1.231341849903671E-1   -1.362610881690463E-3   -1.202270202010161E-3   -1.389836983050865E-3   -1.195020866554283E-3    3.650174092609003E-1   -3.334946715547999E-1
 9.937521495250000E9     4.665428206498820E-1   -1.233445337000120E-1   -1.355656369254974E-3   -1.219854465886065E-3   -1.391634830641151E-3   -1.212585262850152E-3    3.645196117301938E-1   -3.337949068045818E-1
 9.937523869125000E9     4.665478974965749E-1   -1.235842676267964E-1   -1.391635298637282E-3   -1.240781951400758E-3   -1.399609727346098E-3   -1.262005519925725E-3    3.643444173110719E-1   -3.338808792544963E-1
 9.937526243000000E9     4.663177864682658E-1   -1.236040170679206E-1   -1.420877205576614E-3   -1.266461995181093E-3   -1.459316924352223E-3   -1.240908720913991E-3    3.638677595622796E-1   -3.340984695689700E-1
 9.937528616875000E9     4.662884412042527E-1   -1.237850773725978E-1   -1.424053325102635E-3   -1.314389792161759E-3   -1.460674457834589E-3   -1.245118470105317E-3    3.637015624287959E-1   -3.343720686162937E-1
 9.937530990750000E9     4.662851001537438E-1   -1.239054142650216E-1   -1.437685385241888E-3   -1.282910429860058E-3   -1.458655317345582E-3   -1.275504517007415E-3    3.634436299117224E-1   -3.345430744675007E-1
 9.937533364625000E9     4.662270295783376E-1   -1.241689868473147E-1   -1.429868433480346E-3   -1.297572472079125E-3   -1.486434932968406E-3   -1.295513141726298E-3    3.630076234146551E-1   -3.348926863343741E-1
 9.937535738500000E9     4.662443219135688E-1   -1.242444852531202E-1   -1.500753841401049E-3   -1.294586259052973E-3   -1.549783119040594E-3   -1.325601416726671E-3    3.627762599030139E-1   -3.351216839845984E-1
 9.937538112375000E9     4.661638214344923E-1   -1.243762803780648E-1   -1.502202502260866E-3   -1.336395923699659E-3   -1.544771823367871E-3   -1.343712139357291E-3    3.623281355155711E-1   -3.352461199432304E-1
 9.937540486250000E9     4.661129642380660E-1   -1.245239952707944E-1   -1.520799464649007E-3   -1.373390897652113E-3   -1.576490956700175E-3   -1.363479706867616E-3    3.620777185843288E-1   -3.354113419621101E-1
 9.937542860125000E9     4.660620205614323E-1   -1.247842641945089E-1   -1.553895835075552E-3   -1.395233179153004E-3   -1.586369680438113E-3   -1.380595417795525E-3    3.616707240459797E-1   -3.358715739228474E-1
 9.937545234000000E9     4.659632627435590E-1   -1.250278544212367E-1   -1.564770414432467E-3   -1.407900663378919E-3   -1.643129112879946E-3   -1.407558009494856E-3    3.613966941599898E-1   -3.359365354322661E-1
 9.937547607875000E9     4.660656537196076E-1   -1.249976282490655E-1   -1.610490284869222E-3   -1.418845825420996E-3   -1.658230603174160E-3   -1.400404141541982E-3    3.611037228824874E-1   -3.362790778971571E-1
 9.937549981750000E9     4.659200866844093E-1   -1.250923212336709E-1   -1.593719362131164E-3   -1.438311808405609E-3   -1.712256913404298E-3   -1.442529318688905E-3    3.606589964470593E-1   -3.364227248758447E-1
 9.937552355625000E9     4.658974576406982E-1   -1.253897874000414E-1   -1.670544187207511E-3   -1.476022826779252E-3   -1.676065241171838E-3   -1.472355053448044E-3    3.601245884223037E-1   -3.367067608643752E-1
 9.937554729500000E9     4.657062141390176E-1   -1.254684624689640E-1   -1.696262062915079E-3   -1.517651065967407E-3   -1.735194774777542E-3   -1.469748361037388E-3    3.600339464335144E-1   -3.368089347105305E-1
 9.937557103375000E9     4.657187198311792E-1   -1.256994609209625E-1   -1.737692006988355E-3   -1.509332427369752E-3   -1.752109172608736E-3   -1.492680965963629E-3    3.596870783487070E-1   -3.373072081997892E-1
 9.937559477250000E9     4.656591366910258E-1   -1.256918013293667E-1   -1.706496881969477E-3   -1.535337171273304E-3   -1.789965322298703E-3   -1.517231669278252E-3    3.592687818882644E-1   -3.373452578380386E-1
 9.937561851125000E9     4.656071688164694E-1   -1.259776565633355E-1   -1.779072033344595E-3   -1.549301261377056E-3   -1.822716203694896E-3   -1.551221619153138E-3    3.587464228143803E-1   -3.376339778980086E-1
 9.937564225000000E9     4.656710319208403E-1   -1.261132104109957E-1   -1.807892996222498E-3   -1.559926728324023E-3   -1.844897072471107E-3   -1.585765721100827E-3    3.586114722677786E-1   -3.379380930923159E-1
 9.937566598875000E9     4.654701610475424E-1   -1.262771086485238E-1   -1.843732174146779E-3   -1.561815100435577E-3   -1.852596273148887E-3   -1.590544281852179E-3    3.581213190731782E-1   -3.381207007290398E-1
 9.937568972750000E9     4.653701763140543E-1   -1.264107758296794E-1   -1.869988244643236E-3   -1.585887025426411E-3   -1.902840795699867E-3   -1.578447140750169E-3    3.575350522788945E-1   -3.382627870379420E-1
