#  HZ   S   RI   R     50.00 
! Rohde & Schwarz Vector Network Analyzer 
! Rohde-Schwarz,ZNB20-2Port,1311601062101988,3.16
! Created: UTC 3/20/2024, 11:12:17 PM
! freq[Hz]                re:S11                  im:S11                  re:S21                  im:S21                  re:S12                  im:S12                  re:S22                  im:S22
 9.937373963000000E9     4.697832957181486E-1   -1.133049862148787E-1   -4.358437657962788E-4   -4.791313445177432E-4   -4.944701288942178E-4   -4.826441729057911E-4    3.793174679160434E-1   -3.216244698570805E-1
 9.937376250625000E9     4.697383340479642E-1   -1.133562814296784E-1   -4.766869528567565E-4   -4.883279891440156E-4   -4.869473471927493E-4   -4.596278755613639E-4    3.791317280363042E-1   -3.220074513741998E-1
 9.937378538250000E9     4.697395396771784E-1   -1.136753227223641E-1   -4.987254324829516E-4   -5.027126957043770E-4   -5.142575279948576E-4   -4.829768628233061E-4    3.789396662050316E-1   -3.221434743756316E-1
 9.937380825875000E9     4.696032253019855E-1   -1.138356791695485E-1   -5.040444115918891E-4   -4.907890377508969E-4   -5.123964101942209E-4   -5.156430684026935E-4    3.787012873826512E-1   -3.223165845400038E-1
 9.937383113500000E9     4.696895374771381E-1   -1.139857683055226E-1   -5.102983551906519E-4   -5.017220702157793E-4   -5.117457631556521E-4   -5.103250855642584E-4    3.785844782839716E-1   -3.224351390328411E-1
 9.937385401125000E9     4.695122240554603E-1   -1.140486549885419E-1   -4.884265030175213E-4   -5.163868015235645E-4   -5.489673313778850E-4   -5.125223314208699E-4    3.784456386596276E-1   -3.224552507207289E-1
 9.937387688750000E9     4.694083550055944E-1   -1.142907038305757E-1   -5.201862208223481E-4   -5.218717417398836E-4   -5.661004010538397E-4   -5.249501771232803E-4    3.782254595608129E-1   -3.226563922607588E-1
 9.937389976375000E9     4.694825374171543E-1   -1.144426595847705E-1   -5.668424514850854E-4   -5.460267905128297E-4   -5.642536111500171E-4   -5.239115748485370E-4    3.777822608842291E-1   -3.227868978266445E-1
 9.937392264000000E9     4.693463544044797E-1   -1.144417736949292E-1   -5.621678086542725E-4   -5.277743711280860E-4   -5.796927889391545E-4   -5.565436098003666E-4    3.776159262593023E-1   -3.231738280981885E-1
 9.937394551625000E9     4.692963410237972E-1   -1.147173992977945E-1   -5.399556982264381E-4   -5.511045595445379E-4   -5.805447392455334E-4   -5.765433493799921E-4    3.777647581576724E-1   -3.232025472675349E-1
 9.937396839250000E9     4.692100236149959E-1   -1.149323277400977E-1   -6.130142718778197E-4   -5.530673672742607E-4   -5.668032658445687E-4   -5.447569864774919E-4    3.773761148867358E-1   -3.234347320057270E-1
 9.937399126875000E9     4.691541544746003E-1   -1.151079946609267E-1   -6.253585925124120E-4   -5.870397222426226E-4   -5.931964068026917E-4   -5.623039095008569E-4    3.773789949880628E-1   -3.236433920756118E-1
 9.937401414500000E9     4.692181385881207E-1   -1.151728957149388E-1   -5.592577792956636E-4   -5.677997722495454E-4   -6.324673182049540E-4   -5.705812845535642E-4    3.770192531877420E-1   -3.236594905925050E-1
 9.937403702125000E9     4.691645215175190E-1   -1.153903317495711E-1   -5.749559270442073E-4   -5.679399556344962E-4   -6.089095252672906E-4   -5.628001992933087E-4    3.769661976748994E-1   -3.239304538147067E-1
 9.937405989750000E9     4.690886302879708E-1   -1.154240421470040E-1   -6.298746955191991E-4   -5.783855191806642E-4   -6.035005705683259E-4   -5.857137110777236E-4    3.766587109811165E-1   -3.239600380956520E-1
 9.937408277375000E9     4.689934922632862E-1   -1.157072166100042E-1   -6.356299436478241E-4   -5.889790419814373E-4   -6.317270779559515E-4   -6.000445506790421E-4    3.763184625911752E-1   -3.242301396706357E-1
 9.937410565000000E9     4.690863426259705E-1   -1.157858027365856E-1   -6.263292855623005E-4   -6.245470399723777E-4   -6.329022599273329E-4   -6.377248154969263E-4    3.762612377806874E-1   -3.244255878894379E-1
 9.937412852625000E9     4.688925163802186E-1   -1.158432457370905E-1   -6.556319297623494E-4   -6.631317703043198E-4   -6.524293042283686E-4   -6.154616217133777E-4    3.760515145420016E-1   -3.246505602634273E-1
 9.937415140250000E9     4.688844628585941E-1   -1.160355516412454E-1   -6.567264051753285E-4   -6.363564519484249E-4   -6.497913102324137E-4   -6.202188230020406E-4    3.759000077577838E-1   -3.248417459332010E-1
 9.937417427875000E9     4.689002519028163E-1   -1.164264270421645E-1   -6.649574766600037E-4   -6.140869862920023E-4   -6.678794629325097E-4   -6.579296990816873E-4    3.758165776039393E-1   -3.249229164097234E-1
 9.937419715500000E9     4.685340180236243E-1   -1.165475839491461E-1   -6.443850398884098E-4   -6.491130392203438E-4   -6.950219525899718E-4   -6.696113732907536E-4    3.755045922557034E-1   -3.252541318402010E-1
 9.937422003125000E9     4.688090301458284E-1   -1.166612985537906E-1   -7.001017233843298E-4   -6.421341772233985E-4   -7.310673871280957E-4   -6.872707686757759E-4    3.753061532883903E-1   -3.254916996864788E-1
 9.937424290750000E9     4.687621320081692E-1   -1.166577943443965E-1   -7.281178062814740E-4   -6.886112869589373E-4   -6.869444582839846E-4   -6.677297212331039E-4    3.749872828581683E-1   -3.255143549090542E-1
 9.937426578375000E9     4.686415358758437E-1   -1.168962729549375E-1   -6.951250618318148E-4   -6.766014922126565E-4   -7.205106328379350E-4   -6.605389416602500E-4    3.747086931008871E-1   -3.257061919783424E-1
 9.937428866000000E9     4.684637340021185E-1   -1.170977340255226E-1   -6.871790331430979E-4   -6.709336134669645E-4   -7.386963979448963E-4   -7.167363884649648E-4    3.744878820764148E-1   -3.257625128479113E-1
 9.937431153625000E9     4.685336811834644E-1   -1.172530428503992E-1   -7.469207716955297E-4   -7.127770828373421E-4   -7.815820237117724E-4   -6.996471854659379E-4    3.743052398661934E-1   -3.259492628080456E-1
 9.937433441250000E9     4.684616085635658E-1   -1.174521675708057E-1   -7.322823381197896E-4   -7.152618122447176E-4   -7.482239961896227E-4   -7.410421815125773E-4    3.744497067551893E-1   -3.262240209308692E-1
 9.937435728875000E9     4.684832499594487E-1   -1.176438258551507E-1   -7.458505677602280E-4   -7.410382164233922E-4   -8.008786797536490E-4   -7.275048412223126E-4    3.740537265990002E-1   -3.263053800861652E-1
 9.937438016500000E9     4.684001357606339E-1   -1.176675470971922E-1   -7.285437335378156E-4   -7.453018542963120E-4   -7.708841755167482E-4   -7.327683169933474E-4    3.738124388339004E-1   -3.267366349957960E-1
 9.937440304125000E9     4.684253715216044E-1   -1.179540870764925E-1   -7.658173599589079E-4   -7.386445556786311E-4   -8.120287727011499E-4   -7.341785700230416E-4    3.735293204238672E-1   -3.267650934175401E-1
 9.937442591750000E9     4.683341464468149E-1   -1.179536908986235E-1   -7.998113611287910E-4   -7.891887783405050E-4   -7.995653165103552E-4   -7.300235852066122E-4    3.734185860952772E-1   -3.270852872782772E-1
 9.937444879375000E9     4.681873438748076E-1   -1.180995768948518E-1   -7.688798255186592E-4   -7.648114381687985E-4   -8.368521968784915E-4   -7.678926798466864E-4    3.732186416135411E-1   -3.270467458316411E-1
 9.937447167000000E9     4.681442612837161E-1   -1.182740334925992E-1   -8.048374963764115E-4   -7.700460941684233E-4   -8.371264638655392E-4   -8.010908265712114E-4    3.729855782739029E-1   -3.272850969709194E-1
 9.937449454625000E9     4.680629047389733E-1   -1.183749346277814E-1   -7.901708076774302E-4   -7.676649982136803E-4   -8.351413988802974E-4   -7.909645802146325E-4    3.726308439742942E-1   -3.274243416102764E-1
 9.937451742250000E9     4.680167904605037E-1   -1.186521157187484E-1   -8.306590968027213E-4   -8.096959819663301E-4   -8.667163558057159E-4   -7.924072562930757E-4    3.723090689947572E-1   -3.276598991110110E-1
 9.937454029875000E9     4.679306449759332E-1   -1.188090963221744E-1   -8.514982473172226E-4   -8.032974911450558E-4   -8.413364638536508E-4   -8.032878510926734E-4    3.722025801832831E-1   -3.278876933705724E-1
 9.937456317500000E9     4.680787995341020E-1   -1.190572934619820E-1   -8.515460824742546E-4   -8.443820649056061E-4   -8.949967376547973E-4   -8.550020588659235E-4    3.719912040854593E-1   -3.279371951867123E-1
 9.937458605125000E9     4.680495779323456E-1   -1.190385113811772E-1   -8.968555724360045E-4   -8.420384930481492E-4   -8.829610591778416E-4   -8.728489730866101E-4    3.720071151412301E-1   -3.281801198656287E-1
 9.937460892750000E9     4.679515972720737E-1   -1.193593116799628E-1   -8.695104058145930E-4   -8.351888271492448E-4   -8.999625889887006E-4   -8.594063592458449E-4    3.715535102755826E-1   -3.285283270298904E-1
 9.937463180375000E9     4.680086975142406E-1   -1.193502864416253E-1   -8.941070009415026E-4   -8.746434362351422E-4   -9.256450920299327E-4   -8.581511688800204E-4    3.713450667707686E-1   -3.285502459651864E-1
 9.937465468000000E9     4.676455457811277E-1   -1.193622529599421E-1   -9.059163985008150E-4   -8.872839636789453E-4   -9.349014079381945E-4   -8.885245247518345E-4    3.712811046952866E-1   -3.287564940076814E-1
 9.937467755625000E9     4.678790686375147E-1   -1.196178188131059E-1   -9.058163175999855E-4   -9.044703932363917E-4   -9.640542957365275E-4   -8.706691730855407E-4    3.708805398902053E-1   -3.291543335588436E-1
 9.937470043250000E9     4.676850426528081E-1   -1.197423477375624E-1   -9.021463457109205E-4   -9.246699430141844E-4   -9.818603927656496E-4   -9.031534796390777E-4    3.706200299893228E-1   -3.293292155475989E-1
 9.937472330875000E9     4.675704676417799E-1   -1.199830558997244E-1   -9.547931014217674E-4   -9.361595604320572E-4   -9.779702668858321E-4   -9.306419584885398E-4    3.705606488014180E-1   -3.293108574436434E-1
 9.937474618500000E9     4.676361325245751E-1   -1.200584868638859E-1   -9.917862920636987E-4   -9.333138222504171E-4   -9.786359227706516E-4   -9.059270984193947E-4    3.702032326056565E-1   -3.295644481514601E-1
 9.937476906125000E9     4.675010887113651E-1   -1.203174226193307E-1   -9.703624363616508E-4   -9.314066282317678E-4   -1.027324639516127E-3   -9.373929112342004E-4    3.697906185203592E-1   -3.297677018858531E-1
 9.937479193750000E9     4.675473475567613E-1   -1.204096419585306E-1   -1.000695836317274E-3   -9.431470583971835E-4   -1.050530856586460E-3   -9.643543169360164E-4    3.696694320232619E-1   -3.301741160606788E-1
 9.937481481375000E9     4.673810120338222E-1   -1.206264855088228E-1   -1.010422681906100E-3   -9.560231388804281E-4   -1.042789387292718E-3   -9.630567376694769E-4    3.695043096500008E-1   -3.303157926111542E-1
 9.937483769000000E9     4.673856733972553E-1   -1.207008682163031E-1   -1.008849512994454E-3   -9.851328263642105E-4   -1.067716002560503E-3   -1.007889639394633E-3    3.691847793089280E-1   -3.302139987603369E-1
 9.937486056625000E9     4.673986279449874E-1   -1.208249441809934E-1   -1.030150933219065E-3   -9.999196222288485E-4   -1.088653480653024E-3   -9.677496081197962E-4    3.689493165814795E-1   -3.304600469621811E-1
 9.937488344250000E9     4.673528258611891E-1   -1.210404897367089E-1   -1.078887049327124E-3   -1.025643954428274E-3   -1.107509799655117E-3   -9.985991695194421E-4    3.688047686027115E-1   -3.309498372495029E-1
 9.937490631875000E9     4.671946940921810E-1   -1.212019416865349E-1   -1.094907224549127E-3   -9.955549233217587E-4   -1.108903541993458E-3   -1.012581054543697E-3    3.683446277710597E-1   -3.308472209068348E-1
 9.937492919500000E9     4.671704028940975E-1   -1.213531946992396E-1   -1.101766176715985E-3   -1.056525480482025E-3   -1.128034313462527E-3   -1.011398032196980E-3    3.681023446625128E-1   -3.310671879470153E-1
 9.937495207125000E9     4.670855569255732E-1   -1.214892653575678E-1   -1.130265724380250E-3   -1.067424795180426E-3   -1.137414084538942E-3   -1.050141351903215E-3    3.678569645470495E-1   -3.313405250615471E-1
 9.937497494750000E9     4.670112545429140E-1   -1.215754136442706E-1   -1.165326972093808E-3   -1.071832918168972E-3   -1.158582179432601E-3   -1.032234855976540E-3    3.674870505010173E-1   -3.316350979719083E-1
 9.937499782375000E9     4.672115038305782E-1   -1.218797923891756E-1   -1.134582295262377E-3   -1.079712347105137E-3   -1.183603960614400E-3   -1.062453409591620E-3    3.673749362438051E-1   -3.318632587465949E-1
 9.937502070000000E9     4.670541575562881E-1   -1.219841448321606E-1   -1.119570342968808E-3   -1.057323895593870E-3   -1.201285833860261E-3   -1.085178572355414E-3    3.671446421422748E-1   -3.318002855123438E-1
 9.937504357625000E9     4.669316120569158E-1   -1.222044384304890E-1   -1.177537489155906E-3   -1.122224467650009E-3   -1.233937706157079E-3   -1.066906393771777E-3    3.669601959377400E-1   -3.321658377476447E-1
 9.937506645250000E9     4.668078508080301E-1   -1.221686126901847E-1   -1.190260104838070E-3   -1.116995785521556E-3   -1.240215459168695E-3   -1.124089215295883E-3    3.665709026676059E-1   -3.324605057166754E-1
 9.937508932875000E9     4.668481712444312E-1   -1.224440012477265E-1   -1.219896725013288E-3   -1.136361478943667E-3   -1.271110632813460E-3   -1.117937609323679E-3    3.665044730280548E-1   -3.327823188175389E-1
 9.937511220500000E9     4.668254908549779E-1   -1.225447244388318E-1   -1.251680382047053E-3   -1.133774712959302E-3   -1.296674086510536E-3   -1.154824827895362E-3    3.658689978037171E-1   -3.326279702989989E-1
 9.937513508125000E9     4.666735271168923E-1   -1.227524193397445E-1   -1.272771814523690E-3   -1.159886416954335E-3   -1.292977033343073E-3   -1.187781793529533E-3    3.657624719541263E-1   -3.329321072198935E-1
 9.937515795750000E9     4.666431596368225E-1   -1.229501588922394E-1   -1.322234940522561E-3   -1.155559044335826E-3   -1.293216305979880E-3   -1.168828628172765E-3    3.653465184585970E-1   -3.332664909920564E-1
 9.937518083375000E9     4.666862252168036E-1   -1.230227001011212E-1   -1.320022252364896E-3   -1.186513946527957E-3   -1.339835672189866E-3   -1.171018020636205E-3    3.652389440638204E-1   -3.333798048757827E-1
 9.937520371000000E9     4.666557230626600E-1   -1.233270821110417E-1   -1.344389505705288E-3   -1.234208827984836E-3   -1.359960382568750E-3   -1.211116856820012E-3    3.649022194763309E-1   -3.334634067554604E-1
 9.937522658625000E9     4.664783336102375E-1   -1.233528791350282E-1   -1.337875165725020E-3   -1.273810084821699E-3   -1.377084586916684E-3   -1.201859615868416E-3    3.646391926579107E-1   -3.337388597719894E-1
 9.937524946250000E9     4.665699513631574E-1   -1.235556610198749E-1   -1.376055963360025E-3   -1.245530435991784E-3   -1.387092987940548E-3   -1.252703964699470E-3    3.643507052233336E-1   -3.340232979943099E-1
 9.937527233875000E9     4.663491423903356E-1   -1.237317638451014E-1   -1.414158491025873E-3   -1.248670517081120E-3   -1.424049333706922E-3   -1.253542776478156E-3    3.640224212440826E-1   -3.342482231192407E-1
 9.937529521500000E9     4.664258764660201E-1   -1.237889843691190E-1   -1.385909464853864E-3   -1.271606825976486E-3   -1.431705292648394E-3   -1.240673238744750E-3    3.636804621147373E-1   -3.345357758764513E-1
 9.937531809125000E9     4.663171438202535E-1   -1.239656037266226E-1   -1.413469263395489E-3   -1.289868634449506E-3   -1.465202657294455E-3   -1.283495164907085E-3    3.635725271952321E-1   -3.346465159765050E-1
 9.937534096750000E9     4.664344998093476E-1   -1.240072274735711E-1   -1.484276086082214E-3   -1.310313946935606E-3   -1.477575288850702E-3   -1.307177249400071E-3    3.629102136957237E-1   -3.348205011470484E-1
 9.937536384375000E9     4.662818836821906E-1   -1.242672544332320E-1   -1.441412723080376E-3   -1.348466908581349E-3   -1.486224908167611E-3   -1.321233603159256E-3    3.626778249029374E-1   -3.349797909993929E-1
 9.937538672000000E9     4.661887729975212E-1   -1.244049369446233E-1   -1.501199241405993E-3   -1.352115817686985E-3   -1.508084206069687E-3   -1.355170879088447E-3    3.623875510992205E-1   -3.353528607946980E-1
 9.937540959625000E9     4.660936766831724E-1   -1.244800699222370E-1   -1.514571816167055E-3   -1.398706460713547E-3   -1.560491847633704E-3   -1.347592920298819E-3    3.621945765796301E-1   -3.354212917416758E-1
 9.937543247250000E9     4.661194739629848E-1   -1.247425573505015E-1   -1.521947142569011E-3   -1.384912642817685E-3   -1.582184735305328E-3   -1.351294206502884E-3    3.619238604478668E-1   -3.355601323636041E-1
 9.937545534875000E9     4.659798464241868E-1   -1.248462751296774E-1   -1.574687117340813E-3   -1.390490140685948E-3   -1.587605436196643E-3   -1.382372281939460E-3    3.614045529708475E-1   -3.358695717177699E-1
 9.937547822500000E9     4.658685649260312E-1   -1.250551866066145E-1   -1.599381408391499E-3   -1.418465134292852E-3   -1.608474752988407E-3   -1.377245531036047E-3    3.612316145899137E-1   -3.362291051514119E-1
 9.937550110125000E9     4.657856566808936E-1   -1.251073135561241E-1   -1.612717437754920E-3   -1.423038959847383E-3   -1.641574162994736E-3   -1.424731653016314E-3    3.609419131823431E-1   -3.363003442779539E-1
 9.937552397750000E9     4.658659752177419E-1   -1.253905532559214E-1   -1.626756465883726E-3   -1.424323937689044E-3   -1.671750757763066E-3   -1.432262325154299E-3    3.604455218535796E-1   -3.365201145863656E-1
 9.937554685375000E9     4.658478176631938E-1   -1.254440916846104E-1   -1.679082084309516E-3   -1.483086849998054E-3   -1.725773277029838E-3   -1.462436191748867E-3    3.600781051766562E-1   -3.366064905164299E-1
 9.937556973000000E9     4.657504334913816E-1   -1.256505130335885E-1   -1.682941328261285E-3   -1.503045820564960E-3   -1.735491661881821E-3   -1.470660464742986E-3    3.597887050015803E-1   -3.370283387563169E-1
 9.937559260625000E9     4.657019560266835E-1   -1.257766844371586E-1   -1.716641366749333E-3   -1.483264007580488E-3   -1.769090968098153E-3   -1.503695531689857E-3    3.595674889030438E-1   -3.370921216176877E-1
 9.937561548250000E9     4.657277738076157E-1   -1.259904356905639E-1   -1.738130264705206E-3   -1.505673975695566E-3   -1.789587657570683E-3   -1.507035330264782E-3    3.592504675497238E-1   -3.375630445791002E-1
 9.937563835875000E9     4.656004990748003E-1   -1.260432607538862E-1   -1.744776121484925E-3   -1.543003026621000E-3   -1.814455841910716E-3   -1.517199897386614E-3    3.588161758819169E-1   -3.378164098994914E-1
 9.937566123500000E9     4.655872101544151E-1   -1.261576387782985E-1   -1.785467749443614E-3   -1.569334352621357E-3   -1.876759267064173E-3   -1.558545099378456E-3    3.584129345808362E-1   -3.379142055286788E-1
 9.937568411125000E9     4.655460178964034E-1   -1.264291026714374E-1   -1.794573776600743E-3   -1.553811501655626E-3   -1.855204418255726E-3   -1.569706965401000E-3    3.580110243045244E-1   -3.382346605618769E-1
 9.937570698750000E9     4.655851478102326E-1   -1.266407358439570E-1   -1.877662630769722E-3   -1.585867477221782E-3   -1.895032697662807E-3   -1.599616303160295E-3    3.576456113999191E-1   -3.384619411329112E-1
 9.937572986375000E9     4.652962698615155E-1   -1.269372631930513E-1   -1.875644300592196E-3   -1.622584776567922E-3   -1.937815210753143E-3   -1.611908834079142E-3    3.572790180490447E-1   -3.385584169788539E-1
 9.937575274000000E9     4.651702351788238E-1   -1.268111760566243E-1   -1.915296457253064E-3   -1.642731992532775E-3   -1.955518684579428E-3   -1.633442595575303E-3    3.570742412185536E-1   -3.388234288799497E-1
 9.937577561625000E9     4.653445880435591E-1   -1.269611458401207E-1   -1.944916363798362E-3   -1.679754650293834E-3   -2.014652239795731E-3   -1.654242639858290E-3    3.564568786502331E-1   -3.391564106517375E-1
 9.937579849250000E9     4.652790058761320E-1   -1.272218441422562E-1   -1.980746897734542E-3   -1.723842183001473E-3   -2.028310560867568E-3   -1.677783347547728E-3    3.560020383993489E-1   -3.391796818645593E-1
