#  HZ   S   RI   R     50.00 
! Rohde & Schwarz Vector Network Analyzer 
! Rohde-Schwarz,ZNB20-2Port,1311601062101988,3.16
! Created: UTC 3/20/2024, 11:12:35 PM
! freq[Hz]                re:S11                  im:S11                  re:S21                  im:S21                  re:S12                  im:S12                  re:S22                  im:S22
 9.937370830000000E9     4.700074556682398E-1   -1.132236414971100E-1   -4.526895979502870E-4   -4.450616952701050E-4   -4.691356428923209E-4   -4.471583696893987E-4    3.797079311860051E-1   -3.211877158724462E-1
 9.937373149924999E9     4.698537317698993E-1   -1.132118853471555E-1   -4.792629070295003E-4   -4.661655921114503E-4   -4.894287615155873E-4   -4.734967819979463E-4    3.794415316743692E-1   -3.216003435781921E-1
 9.937375469850000E9     4.697454175037256E-1   -1.134410444309246E-1   -4.424156365584441E-4   -4.492839912971242E-4   -4.841503912085518E-4   -4.703001177329830E-4    3.792707551930482E-1   -3.217739753426025E-1
 9.937377789775000E9     4.697662688327427E-1   -1.136191701169848E-1   -4.473066545529464E-4   -4.717765460999473E-4   -4.872819847540807E-4   -4.457357454957542E-4    3.791981525149928E-1   -3.218912750466495E-1
 9.937380109700001E9     4.695406729811887E-1   -1.138628651773005E-1   -4.857442743088469E-4   -4.638054123822862E-4   -4.873693056407067E-4   -4.657905576311326E-4    3.787794550444448E-1   -3.218367898540710E-1
 9.937382429625000E9     4.695831720711129E-1   -1.139765782609685E-1   -4.884852106821300E-4   -4.834913974090190E-4   -4.990669154864323E-4   -4.873695579892760E-4    3.786135260545596E-1   -3.222824501827486E-1
 9.937384749549999E9     4.695218961888734E-1   -1.140901670812023E-1   -5.066636112900155E-4   -5.178132937510288E-4   -5.135578308164873E-4   -4.820809395089589E-4    3.784928447754116E-1   -3.225673499965605E-1
 9.937387069475000E9     4.693650006030308E-1   -1.142203089244053E-1   -5.130914665792155E-4   -4.741505720694889E-4   -5.069189603328028E-4   -4.794955141217302E-4    3.783775385246288E-1   -3.225595361538615E-1
 9.937389389400000E9     4.693946456932059E-1   -1.142750995056200E-1   -5.301991331418337E-4   -4.945718216522171E-4   -5.216893388952188E-4   -5.394454128058770E-4    3.782258171747275E-1   -3.227780947008916E-1
 9.937391709325001E9     4.692639363087192E-1   -1.146213336107847E-1   -5.112681230695750E-4   -5.146684528017041E-4   -5.570954405900115E-4   -5.256672797597401E-4    3.779928783377288E-1   -3.230232638589927E-1
 9.937394029250000E9     4.692290139859390E-1   -1.147379876408005E-1   -5.517315520803730E-4   -4.859020451923486E-4   -5.679392641763304E-4   -5.330562640426616E-4    3.779762049600032E-1   -3.231133646120798E-1
 9.937396349174999E9     4.693299994564136E-1   -1.148916218247562E-1   -5.521377805725479E-4   -5.622857484433044E-4   -5.511271740754513E-4   -5.482944876458570E-4    3.776343880660243E-1   -3.231526456574872E-1
 9.937398669100000E9     4.692315779457737E-1   -1.150782828049414E-1   -5.631883805954417E-4   -5.602231670517133E-4   -5.698931788308616E-4   -5.631956115155459E-4    3.774963284263160E-1   -3.232562438634813E-1
 9.937400989025000E9     4.692468902152157E-1   -1.151670233747330E-1   -5.425305530295606E-4   -5.507229612346512E-4   -5.991035493748847E-4   -5.744085986545790E-4    3.773275766827661E-1   -3.237036158125010E-1
 9.937403308950001E9     4.691522011479560E-1   -1.152848382583034E-1   -5.837365227182194E-4   -5.625272911378191E-4   -6.167093237835540E-4   -5.865778220921439E-4    3.772331864088440E-1   -3.239172501561245E-1
 9.937405628875000E9     4.690793142645405E-1   -1.155431401417458E-1   -5.446241596027841E-4   -5.726206973609355E-4   -6.159186724046827E-4   -5.726400217319449E-4    3.768962304792073E-1   -3.239604822482829E-1
 9.937407948799999E9     4.689868850427653E-1   -1.156841309675797E-1   -5.744213689035367E-4   -5.768546945986203E-4   -5.961170795788859E-4   -5.932517357491333E-4    3.765421152157078E-1   -3.242561523975653E-1
 9.937410268725000E9     4.690126339609775E-1   -1.158633577589802E-1   -5.817653871199699E-4   -5.980738608310861E-4   -6.020054444935899E-4   -5.595761343332491E-4    3.764258727278175E-1   -3.241885394480010E-1
 9.937412588650000E9     4.688921592279695E-1   -1.157566016841606E-1   -6.157621261295292E-4   -6.044026040072543E-4   -6.249172160468197E-4   -6.004660723128207E-4    3.763365187892300E-1   -3.244227582076449E-1
 9.937414908575001E9     4.689880347710076E-1   -1.161810888143478E-1   -6.448886076352453E-4   -6.232780560312045E-4   -6.311446326099430E-4   -6.281825837951361E-4    3.760140987602645E-1   -3.247805110044775E-1
 9.937417228500000E9     4.688091040120041E-1   -1.162471029809167E-1   -6.408977390668910E-4   -6.471868628666140E-4   -6.560926553305945E-4   -5.980528993444013E-4    3.757670935103217E-1   -3.249937635024433E-1
 9.937419548424999E9     4.687585692120625E-1   -1.164026304573439E-1   -6.553008774699353E-4   -6.488306310420790E-4   -6.648590288197975E-4   -6.287799686029275E-4    3.757670085320343E-1   -3.250608887416364E-1
 9.937421868350000E9     4.687810201672395E-1   -1.165020998605403E-1   -6.734290947327633E-4   -6.812190974279495E-4   -6.912085557336356E-4   -6.393757972923610E-4    3.754049306595358E-1   -3.253459445080739E-1
 9.937424188275000E9     4.687005784487509E-1   -1.167882986520271E-1   -6.494182442458836E-4   -6.860213033810984E-4   -7.004365320520119E-4   -6.499038084001622E-4    3.752913163628232E-1   -3.254006082945793E-1
 9.937426508200001E9     4.686898347547266E-1   -1.168878507358565E-1   -6.792907976349015E-4   -6.653549492901996E-4   -6.923332543338771E-4   -6.454172207852348E-4    3.748387895967549E-1   -3.254891401422008E-1
 9.937428828125000E9     4.687494996518712E-1   -1.171244264975357E-1   -7.226750173990672E-4   -6.341147268670821E-4   -6.985941477261364E-4   -6.630711820548071E-4    3.747543484904302E-1   -3.256269137614902E-1
 9.937431148049999E9     4.685822619156977E-1   -1.172142055846149E-1   -6.789901792726484E-4   -6.794964669028826E-4   -7.529964007283903E-4   -6.991865774350517E-4    3.745053923132824E-1   -3.259139972402355E-1
 9.937433467975000E9     4.686253481949439E-1   -1.173857635734939E-1   -7.065247544611532E-4   -6.819146488572707E-4   -7.400812828505982E-4   -6.859865381366881E-4    3.745135601248729E-1   -3.261961038502795E-1
 9.937435787900000E9     4.684319002852089E-1   -1.175172043382098E-1   -7.162004637980080E-4   -6.932766749805663E-4   -7.550075020108544E-4   -6.977662895249436E-4    3.741747850679747E-1   -3.262616432726886E-1
 9.937438107825001E9     4.685452576750291E-1   -1.175713476602497E-1   -7.487298103637263E-4   -7.109714141857771E-4   -7.543359259003672E-4   -7.354545040511763E-4    3.739397359175871E-1   -3.266589490679546E-1
 9.937440427750000E9     4.684736067706561E-1   -1.180027289032194E-1   -7.587158935247876E-4   -7.426417099046799E-4   -7.607013961214385E-4   -7.583161573182285E-4    3.738916614130978E-1   -3.267264506686262E-1
 9.937442747674999E9     4.683253353500213E-1   -1.179942524017735E-1   -7.472848093603551E-4   -7.496268268606115E-4   -7.730487829232293E-4   -7.475244024005456E-4    3.737338958154049E-1   -3.268572766866922E-1
 9.937445067600000E9     4.682120112364573E-1   -1.180873470830500E-1   -7.450056898037279E-4   -7.385400048123111E-4   -8.234225947468503E-4   -7.738407788923697E-4    3.733518387367915E-1   -3.271665088447686E-1
 9.937447387525000E9     4.682996226697291E-1   -1.182910519763846E-1   -7.801339553759236E-4   -7.488590591099911E-4   -8.437339902775418E-4   -7.625581382460270E-4    3.728872100227620E-1   -3.271937635072126E-1
 9.937449707450001E9     4.680494082346839E-1   -1.185006328655194E-1   -7.818928302899503E-4   -7.533278987962557E-4   -8.073998532267327E-4   -7.441739102791008E-4    3.728344357087753E-1   -3.275660720481242E-1
 9.937452027375000E9     4.681482163308691E-1   -1.185239352725161E-1   -8.134891712914975E-4   -7.825579343026120E-4   -8.222456164839894E-4   -7.894026167208988E-4    3.725844254548245E-1   -3.274170302917459E-1
 9.937454347299999E9     4.680521497998065E-1   -1.187406097406730E-1   -8.080479823377296E-4   -7.978622747787866E-4   -8.424507458144572E-4   -8.129960087606045E-4    3.725017636044430E-1   -3.277449077985046E-1
 9.937456667225000E9     4.679479967452059E-1   -1.188691190459346E-1   -8.430105900333206E-4   -8.109048463294410E-4   -8.729575544431868E-4   -8.155094477981721E-4    3.720764033424134E-1   -3.280165683859862E-1
 9.937458987150000E9     4.679470438065082E-1   -1.191102627524393E-1   -8.214457435100047E-4   -8.422207490781002E-4   -8.862839717067443E-4   -8.498327668255571E-4    3.720810018661430E-1   -3.283230880639976E-1
 9.937461307075001E9     4.678900825908513E-1   -1.192085611787579E-1   -8.401018804272338E-4   -8.288867145618405E-4   -8.895776324920363E-4   -8.426815786664997E-4    3.716758763651404E-1   -3.283612962724984E-1
 9.937463627000000E9     4.677670742827583E-1   -1.193267820985187E-1   -8.707324030468395E-4   -8.471140713794853E-4   -9.324931577006753E-4   -8.263872217516740E-4    3.714494277063968E-1   -3.285695196516472E-1
 9.937465946924999E9     4.678526969235018E-1   -1.196388952548349E-1   -8.912037170665329E-4   -8.720122419600531E-4   -9.181660298010349E-4   -8.632156873451106E-4    3.711762482574102E-1   -3.287603280049237E-1
 9.937468266850000E9     4.678052947654970E-1   -1.196685744558775E-1   -8.992313231473584E-4   -8.785221325127225E-4   -9.351811059923695E-4   -8.485928295327128E-4    3.712112794745495E-1   -3.289652082725372E-1
 9.937470586775000E9     4.677051551960799E-1   -1.198627450024708E-1   -9.291746161240754E-4   -8.666732851057706E-4   -9.550628791358929E-4   -8.796429575455869E-4    3.708343428814978E-1   -3.291417947883484E-1
 9.937472906700001E9     4.675777996556160E-1   -1.198644001377459E-1   -9.116412647397431E-4   -9.110880091858065E-4   -9.484932371469437E-4   -9.037411887862008E-4    3.704348664404611E-1   -3.294034720245568E-1
 9.937475226625000E9     4.674372645570528E-1   -1.202077891169566E-1   -9.577817930228593E-4   -8.887871790698648E-4   -9.880442603732078E-4   -8.965815220403414E-4    3.704133762793723E-1   -3.294456192045376E-1
 9.937477546549999E9     4.675141469059549E-1   -1.204168716920352E-1   -9.516994197860353E-4   -9.164019717383236E-4   -9.987642003052909E-4   -8.969605961407090E-4    3.700270263849407E-1   -3.297023802603637E-1
 9.937479866475000E9     4.674680276362546E-1   -1.205077659788988E-1   -9.533258901698031E-4   -9.417563903487533E-4   -9.556346972163920E-4   -9.205586668848305E-4    3.698590115742957E-1   -3.296586826187543E-1
 9.937482186400000E9     4.674772537337407E-1   -1.204482442891974E-1   -9.915113135567180E-4   -9.463767820487347E-4   -1.031813259089062E-3   -9.590643022480890E-4    3.697287828774173E-1   -3.300255382943353E-1
 9.937484506325001E9     4.674782308673828E-1   -1.208042923415916E-1   -9.994929398686248E-4   -9.304330799900503E-4   -1.017206722659706E-3   -9.470211307699611E-4    3.692087272416839E-1   -3.302813001870409E-1
 9.937486826250000E9     4.673282670796624E-1   -1.210217468223582E-1   -1.008255968884202E-3   -9.724536481546864E-4   -1.031142087728774E-3   -9.638499745515521E-4    3.692041330981580E-1   -3.305673733183056E-1
 9.937489146174999E9     4.673938952496058E-1   -1.209344627092058E-1   -1.030727460400805E-3   -9.865602770649203E-4   -1.068185034891281E-3   -9.867084652703357E-4    3.688206857186745E-1   -3.305664871443257E-1
 9.937491466100000E9     4.671447167095651E-1   -1.212180881420007E-1   -1.042942529148657E-3   -1.030240621256389E-3   -1.065335421022352E-3   -9.743785229644482E-4    3.685345096055778E-1   -3.309047657740646E-1
 9.937493786025000E9     4.670845523271360E-1   -1.213907137408946E-1   -1.100264522898725E-3   -1.025477786713261E-3   -1.066067474188624E-3   -1.002093335232873E-3    3.682626157892255E-1   -3.311476522541069E-1
 9.937496105950001E9     4.671835688415483E-1   -1.214449060655999E-1   -1.053750090339968E-3   -1.042125399055646E-3   -1.108335230309156E-3   -1.009994991338634E-3    3.680642598677114E-1   -3.311171503964002E-1
 9.937498425875000E9     4.670305367739943E-1   -1.217823216686057E-1   -1.128363925609672E-3   -1.057416495158335E-3   -1.136225470443068E-3   -1.029530857317818E-3    3.678286275784855E-1   -3.314209885062313E-1
 9.937500745799999E9     4.670052948342458E-1   -1.218516667734550E-1   -1.113250548988785E-3   -1.053256550912765E-3   -1.129215212585961E-3   -1.052589600142558E-3    3.675416356284480E-1   -3.317618856614050E-1
 9.937503065725000E9     4.668744825710047E-1   -1.219909423400052E-1   -1.140104529953797E-3   -1.105208445657212E-3   -1.169116882383858E-3   -1.067372276675402E-3    3.672778282966087E-1   -3.318581085807463E-1
 9.937505385650000E9     4.669484454864980E-1   -1.221366102810145E-1   -1.150022717961605E-3   -1.068041573865968E-3   -1.188141258832289E-3   -1.090684639971186E-3    3.669997084539918E-1   -3.320959403705395E-1
 9.937507705575001E9     4.668748014459040E-1   -1.222352737234228E-1   -1.205357630221622E-3   -1.102720725248206E-3   -1.226891848580922E-3   -1.082852267161425E-3    3.666835734368129E-1   -3.321468576076946E-1
 9.937510025500000E9     4.667885710478324E-1   -1.226190023455968E-1   -1.198699070420265E-3   -1.104244207314710E-3   -1.217642515232363E-3   -1.113206048672810E-3    3.664881212747342E-1   -3.324973368957745E-1
 9.937512345424999E9     4.667853849200341E-1   -1.226451158476986E-1   -1.237897687639035E-3   -1.110141895966058E-3   -1.248527446567756E-3   -1.122452257628575E-3    3.662251962961782E-1   -3.326333481263070E-1
 9.937514665350000E9     4.667918126114677E-1   -1.227259493274164E-1   -1.244323162239993E-3   -1.196590890122515E-3   -1.280712013215475E-3   -1.106368610963084E-3    3.659843531474472E-1   -3.330222074455577E-1
 9.937516985275000E9     4.666968835034331E-1   -1.230247661065955E-1   -1.235236832238417E-3   -1.166593664893494E-3   -1.289000940687195E-3   -1.122712694914949E-3    3.654989840203031E-1   -3.330518614414505E-1
 9.937519305200001E9     4.665569739882147E-1   -1.231467518931159E-1   -1.253985493613346E-3   -1.188266301569579E-3   -1.302728621482445E-3   -1.161546285166274E-3    3.652744213119503E-1   -3.331528266984169E-1
 9.937521625125000E9     4.665758233170673E-1   -1.233336442091363E-1   -1.263061797790146E-3   -1.223730719844961E-3   -1.334238634504449E-3   -1.187683870583567E-3    3.652106084234951E-1   -3.335921659405015E-1
 9.937523945049999E9     4.667618352194011E-1   -1.234760489564122E-1   -1.322857216647752E-3   -1.182972218373451E-3   -1.345784386267772E-3   -1.176811675622605E-3    3.646540424014323E-1   -3.338717133479838E-1
 9.937526264975000E9     4.664081940757319E-1   -1.234397083051520E-1   -1.342502829533854E-3   -1.204843178547120E-3   -1.357062596462983E-3   -1.232892971599220E-3    3.645407141917026E-1   -3.338654053152674E-1
 9.937528584900000E9     4.663198094838431E-1   -1.238203905083138E-1   -1.306819831319383E-3   -1.217499769410664E-3   -1.387527264799558E-3   -1.234646478046395E-3    3.642964535386661E-1   -3.342001607622106E-1
 9.937530904825001E9     4.663703905989216E-1   -1.239199438235896E-1   -1.365467396569589E-3   -1.276189187098595E-3   -1.414387053975691E-3   -1.277474174704638E-3    3.639406873046060E-1   -3.343957957298515E-1
 9.937533224750000E9     4.663140038518001E-1   -1.241204239967358E-1   -1.382415219593256E-3   -1.301630956696326E-3   -1.412518463443208E-3   -1.287582960192477E-3    3.636343666714550E-1   -3.345445444127709E-1
 9.937535544674999E9     4.661980891784840E-1   -1.241904366240851E-1   -1.387904576644727E-3   -1.283683444003001E-3   -1.482287380336091E-3   -1.289384079424350E-3    3.635130705524142E-1   -3.348392343745364E-1
 9.937537864600000E9     4.661767130421058E-1   -1.244807750374105E-1   -1.445758465122476E-3   -1.340384471317099E-3   -1.500437553529960E-3   -1.284599996352543E-3    3.629657135696525E-1   -3.350029259567590E-1
 9.937540184525000E9     4.662162888529499E-1   -1.245231326447206E-1   -1.466214971525136E-3   -1.301847125844481E-3   -1.466377794802037E-3   -1.319910599415782E-3    3.626727730271366E-1   -3.353537737525916E-1
 9.937542504450001E9     4.661302838560390E-1   -1.247499357707951E-1   -1.486145503244837E-3   -1.326471347014945E-3   -1.526009266946376E-3   -1.300807349090306E-3    3.625098789067855E-1   -3.354289707455900E-1
 9.937544824375000E9     4.660409251854815E-1   -1.246662949807781E-1   -1.515947955415916E-3   -1.356473072075351E-3   -1.546350473225964E-3   -1.351099051760993E-3    3.619194468311104E-1   -3.358066387345490E-1
 9.937547144299999E9     4.660220920873591E-1   -1.250655945356689E-1   -1.508994052126640E-3   -1.382414058013369E-3   -1.573177234884957E-3   -1.366809249602035E-3    3.617395582930828E-1   -3.357250549216188E-1
 9.937549464225000E9     4.660238211858103E-1   -1.251654315491853E-1   -1.532090238057718E-3   -1.374772316760118E-3   -1.591533513193988E-3   -1.396201702462984E-3    3.611859644115941E-1   -3.362019640462608E-1
 9.937551784150000E9     4.659476108374482E-1   -1.252683364561324E-1   -1.577302799460353E-3   -1.406590901492730E-3   -1.616965177608534E-3   -1.416266265742029E-3    3.610450785179415E-1   -3.364128240704251E-1
 9.937554104075001E9     4.657682002617705E-1   -1.254141704692123E-1   -1.638005134506292E-3   -1.426531364686333E-3   -1.648919950629375E-3   -1.423208284307336E-3    3.606739349944654E-1   -3.364670581269988E-1
 9.937556424000000E9     4.658083306830325E-1   -1.255945229367057E-1   -1.594399071465507E-3   -1.460240716737221E-3   -1.679712121173767E-3   -1.431798289893589E-3    3.602932476708073E-1   -3.369460875226931E-1
 9.937558743924999E9     4.657341066696151E-1   -1.258375523591429E-1   -1.675836539536542E-3   -1.470676493134190E-3   -1.709664646463973E-3   -1.481487494068752E-3    3.599776650648794E-1   -3.370310232123152E-1
 9.937561063850000E9     4.655842773133812E-1   -1.258366371495419E-1   -1.681361825433368E-3   -1.480138934917045E-3   -1.733327080635977E-3   -1.472297335664971E-3    3.595277602586281E-1   -3.371675397956896E-1
 9.937563383775000E9     4.655939087410167E-1   -1.261296062048880E-1   -1.707354995370952E-3   -1.453281735984567E-3   -1.777623243119178E-3   -1.480771466203137E-3    3.595013569025653E-1   -3.375092471797550E-1
 9.937565703700001E9     4.654873527289237E-1   -1.261780529734771E-1   -1.734959615820171E-3   -1.535015271688197E-3   -1.777537904616515E-3   -1.527768118315260E-3    3.590865209765400E-1   -3.377983294986107E-1
 9.937568023625000E9     4.654063635722956E-1   -1.263802004838438E-1   -1.780761386763924E-3   -1.549668552687606E-3   -1.827607547354812E-3   -1.560595831295534E-3    3.585217631605476E-1   -3.379827312761860E-1
 9.937570343549999E9     4.653984232231886E-1   -1.266218933927831E-1   -1.809396279698039E-3   -1.570811033801939E-3   -1.841171189491780E-3   -1.552115743634297E-3    3.582283902970121E-1   -3.381754748576137E-1
 9.937572663475000E9     4.653999128583836E-1   -1.266289017540539E-1   -1.827186075421636E-3   -1.538902659159477E-3   -1.860915425163649E-3   -1.574972427379667E-3    3.581390803584480E-1   -3.383227566537679E-1
 9.937574983400000E9     4.653409534452368E-1   -1.268121875000470E-1   -1.867603378450624E-3   -1.621309565884347E-3   -1.901116902312169E-3   -1.628508127528328E-3    3.574615789889175E-1   -3.385790630926883E-1
 9.937577303325001E9     4.653254222706720E-1   -1.269269490170242E-1   -1.867096080673267E-3   -1.619720075413881E-3   -1.914284126876782E-3   -1.667973124321484E-3    3.570510765812078E-1   -3.389108673515730E-1
 9.937579623250000E9     4.651927044728142E-1   -1.271379638339574E-1   -1.927833330856635E-3   -1.611415003440418E-3   -1.993804271662679E-3   -1.673880181876877E-3    3.567263328953196E-1   -3.392316168815333E-1
