#  HZ   S   RI   R     50.00 
! Rohde & Schwarz Vector Network Analyzer 
! Rohde-Schwarz,ZNB20-2Port,1311601062101988,3.16
! Created: UTC 3/20/2024, 11:12:42 PM
! freq[Hz]                re:S11                  im:S11                  re:S21                  im:S21                  re:S12                  im:S12                  re:S22                  im:S22
 9.937390010000000E9     4.695761079179320E-1   -1.144770763411516E-1   -5.158892216319896E-4   -5.018837368739249E-4   -5.124518561365754E-4   -5.330172103040684E-4    3.781808173687304E-1   -3.227315390657716E-1
 9.937392250049999E9     4.693880366603349E-1   -1.147180591755969E-1   -5.304231940373724E-4   -5.277744154980545E-4   -5.520984823201425E-4   -5.190865105184235E-4    3.780671258268900E-1   -3.231248931088879E-1
 9.937394490100000E9     4.693721865345976E-1   -1.146427316352039E-1   -5.653100776975022E-4   -5.308679245668577E-4   -5.406627173426679E-4   -5.461777066054692E-4    3.780095374234174E-1   -3.231279521229237E-1
 9.937396730150000E9     4.692635213003924E-1   -1.148610453389552E-1   -5.493964890142230E-4   -5.204121220265547E-4   -5.924294957217203E-4   -5.592094940023018E-4    3.775542600641120E-1   -3.231592011902978E-1
 9.937398970200001E9     4.692328431032675E-1   -1.150272139261241E-1   -5.556304355618113E-4   -5.461471967492832E-4   -5.655083421388139E-4   -5.586459611582017E-4    3.774354988129022E-1   -3.235785827424112E-1
 9.937401210250000E9     4.691713664074985E-1   -1.150961532955728E-1   -5.482985516680344E-4   -5.455747443974418E-4   -5.750621926495457E-4   -5.413112906667251E-4    3.771859407760199E-1   -3.236163436337829E-1
 9.937403450299999E9     4.690871269883592E-1   -1.152771329996857E-1   -5.429983271858265E-4   -5.721850784076277E-4   -6.051666470173459E-4   -5.684134916238520E-4    3.772637710127174E-1   -3.238661640776325E-1
 9.937405690350000E9     4.689862411370306E-1   -1.155584866637207E-1   -5.659447897199905E-4   -5.322894382510179E-4   -5.999173175353125E-4   -5.955825086014521E-4    3.768650568384805E-1   -3.238969603257862E-1
 9.937407930400000E9     4.690908727317897E-1   -1.157069500649051E-1   -5.709780304603338E-4   -5.638234504772957E-4   -6.483613752125726E-4   -5.857640491994711E-4    3.765691188334797E-1   -3.240456385706486E-1
 9.937410170450001E9     4.689522204472247E-1   -1.159218784870682E-1   -6.087101015512267E-4   -5.973189044931358E-4   -6.062948401370152E-4   -5.680187422639528E-4    3.766341300852289E-1   -3.241249840365104E-1
 9.937412410500000E9     4.690311752288588E-1   -1.160518462832092E-1   -5.895185614660667E-4   -5.831930464196841E-4   -6.054331073748283E-4   -5.875626761694603E-4    3.763470787487074E-1   -3.244268979590640E-1
 9.937414650549999E9     4.688684004361240E-1   -1.161860482484709E-1   -6.306148260208828E-4   -6.181147040067399E-4   -6.208549084082787E-4   -6.072691298383793E-4    3.761624761333743E-1   -3.245412705664095E-1
 9.937416890600000E9     4.687835150349188E-1   -1.162271799943902E-1   -6.430293695482968E-4   -6.182656145590254E-4   -6.564437627398745E-4   -6.112985371182229E-4    3.758632810742968E-1   -3.248648336964113E-1
 9.937419130650000E9     4.688492141834125E-1   -1.163142261219280E-1   -6.507391098369793E-4   -6.401762998115858E-4   -6.488528232846093E-4   -6.448784730224096E-4    3.756946059233264E-1   -3.251010739034161E-1
 9.937421370700001E9     4.687556275513485E-1   -1.165707471874907E-1   -6.106468497198780E-4   -6.277362680363951E-4   -6.693078450494269E-4   -6.287248020245597E-4    3.753879646117418E-1   -3.252933825966696E-1
 9.937423610750000E9     4.687698595243544E-1   -1.168072602560001E-1   -6.497183138019634E-4   -6.244253479290504E-4   -6.678759998486228E-4   -6.305704436374503E-4    3.754391899495461E-1   -3.253191178310383E-1
 9.937425850799999E9     4.687010638762637E-1   -1.166373592266354E-1   -6.752622375279655E-4   -6.350531745175059E-4   -6.853825635412996E-4   -6.294345028226545E-4    3.750943312858996E-1   -3.254368411588074E-1
 9.937428090850000E9     4.685643977320755E-1   -1.168862176620964E-1   -6.682357591056798E-4   -6.938716816903323E-4   -6.822568391926621E-4   -6.665162452727561E-4    3.747616641045426E-1   -3.257199226911088E-1
 9.937430330900000E9     4.684224530802462E-1   -1.172021970813426E-1   -6.861556493912247E-4   -6.837727358643004E-4   -7.054093878172255E-4   -6.577837062469440E-4    3.748429384279507E-1   -3.257427001694930E-1
 9.937432570950001E9     4.685138768954814E-1   -1.172668105924300E-1   -7.030973818120288E-4   -7.187021510193927E-4   -7.284984020465751E-4   -7.022684332432864E-4    3.746590439118975E-1   -3.261507103933469E-1
 9.937434811000000E9     4.685078219786304E-1   -1.174035318891271E-1   -7.297915797099961E-4   -6.741152330514003E-4   -7.291070127032790E-4   -6.759181450834627E-4    3.745108129065696E-1   -3.261960043350751E-1
 9.937437051049999E9     4.683862444740271E-1   -1.174304677012326E-1   -7.558586065727162E-4   -7.046544331897022E-4   -7.314819077563208E-4   -7.062130944674148E-4    3.741717461751689E-1   -3.264135898308880E-1
 9.937439291100000E9     4.683371022528827E-1   -1.179190126243419E-1   -7.553254084740355E-4   -6.878093440299533E-4   -7.579856634320849E-4   -6.972468457550646E-4    3.739681524554743E-1   -3.265414461423267E-1
 9.937441531150000E9     4.682166889830303E-1   -1.178430717313031E-1   -7.206304443924435E-4   -7.410800741280151E-4   -7.618267831346972E-4   -7.199406891353517E-4    3.737046367708133E-1   -3.267225279401327E-1
 9.937443771200001E9     4.682616169760354E-1   -1.180640408001566E-1   -7.471338793159891E-4   -7.406462634860816E-4   -7.597689074988258E-4   -7.662155608591329E-4    3.737323537960092E-1   -3.269345978393636E-1
 9.937446011250000E9     4.682851496222137E-1   -1.182919572812919E-1   -7.592282708873272E-4   -7.221150643048662E-4   -7.807463895704766E-4   -7.253315596864367E-4    3.733730313214000E-1   -3.269664082504819E-1
 9.937448251299999E9     4.680760269764218E-1   -1.182130999043627E-1   -7.887939051710014E-4   -7.298147957347131E-4   -8.102749018876244E-4   -7.269706931520266E-4    3.732112058495581E-1   -3.274742454041500E-1
 9.937450491350000E9     4.681982946772921E-1   -1.185493338326911E-1   -8.199671009547956E-4   -7.848049426769236E-4   -8.416046887329878E-4   -7.541943529175741E-4    3.727114088048482E-1   -3.271229582186456E-1
 9.937452731400000E9     4.681865028244543E-1   -1.184686708587624E-1   -7.998619738933797E-4   -7.828721532205939E-4   -7.946810260767934E-4   -7.809307421392474E-4    3.726576812049147E-1   -3.274022649611318E-1
 9.937454971450001E9     4.680541249636649E-1   -1.189149597722794E-1   -7.940436656882759E-4   -7.796726429873329E-4   -8.639366329344095E-4   -7.913131292074490E-4    3.724659770524820E-1   -3.278825053979582E-1
 9.937457211500000E9     4.679780045808860E-1   -1.189549825055343E-1   -8.043998877807151E-4   -7.898100830517469E-4   -8.274923619145070E-4   -8.177469946604063E-4    3.721948517247611E-1   -3.278657062932009E-1
 9.937459451549999E9     4.679626394151760E-1   -1.191944030331717E-1   -8.553421373642689E-4   -7.706366669222201E-4   -8.654856216947255E-4   -8.082710010193659E-4    3.719494421268859E-1   -3.281711443625665E-1
 9.937461691600000E9     4.678930189537630E-1   -1.192059362714674E-1   -8.747352594560099E-4   -8.372964196310144E-4   -8.787003761003197E-4   -8.281813037241157E-4    3.719109385302351E-1   -3.283729781920109E-1
 9.937463931650000E9     4.677921097501994E-1   -1.193883533601775E-1   -8.671383647073881E-4   -8.355915986614476E-4   -8.774269151678805E-4   -8.461326277021510E-4    3.717316449482693E-1   -3.286158233815989E-1
 9.937466171700001E9     4.678003200835724E-1   -1.196283407886734E-1   -8.610390100332218E-4   -8.592435272978099E-4   -9.033406134660786E-4   -8.339421269461193E-4    3.713378633570298E-1   -3.286423689730051E-1
 9.937468411750000E9     4.676418913916439E-1   -1.197726509285796E-1   -8.744597566011341E-4   -8.624500617441532E-4   -9.482335306412166E-4   -8.288666028448921E-4    3.710525191091075E-1   -3.291195412709872E-1
 9.937470651799999E9     4.676961242822432E-1   -1.198670431632564E-1   -9.093424530909619E-4   -8.551981006031961E-4   -9.181969556563085E-4   -8.817946397426611E-4    3.708482477543399E-1   -3.290292016729955E-1
 9.937472891850000E9     4.676263025980870E-1   -1.199886290092238E-1   -9.043664143450090E-4   -8.947915057094170E-4   -9.329612514560081E-4   -8.766078291348013E-4    3.706902185624357E-1   -3.291810908576191E-1
 9.937475131900000E9     4.676285965730684E-1   -1.202416728934246E-1   -9.290465874567151E-4   -8.966774734473973E-4   -9.641667412682513E-4   -9.049984360059958E-4    3.703099666748592E-1   -3.295091220836890E-1
 9.937477371950001E9     4.676676155884701E-1   -1.203274484269954E-1   -9.329918753528635E-4   -9.311496773187106E-4   -9.623441487431488E-4   -9.016930345410223E-4    3.701670308585405E-1   -3.294274004368179E-1
 9.937479612000000E9     4.674539649359389E-1   -1.205295132738088E-1   -9.354887517074620E-4   -9.422554281888521E-4   -9.911309579065614E-4   -9.233111866739577E-4    3.700677817743912E-1   -3.299166110641524E-1
 9.937481852049999E9     4.674584178140264E-1   -1.204976195761772E-1   -9.892744307214601E-4   -9.553514036412188E-4   -1.011205478592934E-3   -9.239750219244162E-4    3.698205292130436E-1   -3.300493669086714E-1
 9.937484092100000E9     4.675295306967609E-1   -1.207417252840755E-1   -9.862035099848020E-4   -9.306448250546587E-4   -1.000872770473693E-3   -9.400907264237338E-4    3.696372565873777E-1   -3.301859904851838E-1
 9.937486332150000E9     4.674288101244461E-1   -1.210303908347076E-1   -1.015301356122161E-3   -9.443434364050318E-4   -1.046735034916766E-3   -9.241628073274945E-4    3.693640443985866E-1   -3.303946105461763E-1
 9.937488572200001E9     4.673676779400348E-1   -1.210673216546878E-1   -1.016100832576240E-3   -9.687825469897521E-4   -1.035413382368557E-3   -9.607626454638183E-4    3.691575192826226E-1   -3.305667087094984E-1
 9.937490812250000E9     4.673094477511378E-1   -1.211777490339960E-1   -1.040482348046947E-3   -1.001020188611157E-3   -1.052843286151493E-3   -9.873321632556675E-4    3.687098486312146E-1   -3.306680412885829E-1
 9.937493052299999E9     4.671351418945402E-1   -1.213078250111556E-1   -1.043126562695012E-3   -9.986646700117896E-4   -1.063423986627332E-3   -9.829849849681367E-4    3.685949612931313E-1   -3.309119221788948E-1
 9.937495292350000E9     4.671958197961675E-1   -1.217006264282142E-1   -1.053830178937828E-3   -1.012304533524660E-3   -1.088222921854367E-3   -1.022602874831190E-3    3.682301237235967E-1   -3.310291058789053E-1
 9.937497532400000E9     4.670781757365343E-1   -1.217346640886811E-1   -1.104472665855710E-3   -1.029599127923371E-3   -1.113102704437604E-3   -1.058293620122780E-3    3.681795007611726E-1   -3.314838628999378E-1
 9.937499772450001E9     4.670544509056180E-1   -1.218546978028708E-1   -1.096043690462066E-3   -1.049200350562520E-3   -1.143797553099026E-3   -1.045938527383086E-3    3.677795595452353E-1   -3.313946779143415E-1
 9.937502012500000E9     4.669516709535777E-1   -1.218319210739764E-1   -1.106438828847494E-3   -1.051063770494913E-3   -1.144802070797629E-3   -1.038610585625343E-3    3.676536104552225E-1   -3.315629228051004E-1
 9.937504252549999E9     4.669503636213688E-1   -1.221547809245717E-1   -1.131070843634526E-3   -1.056515847371141E-3   -1.144873402603495E-3   -1.062353612205073E-3    3.673638121434143E-1   -3.318940265288371E-1
 9.937506492600000E9     4.669821630163906E-1   -1.222637714688171E-1   -1.140511113805733E-3   -1.087353089121417E-3   -1.189853275715918E-3   -1.063156989191333E-3    3.669835233454054E-1   -3.320073073853000E-1
 9.937508732650000E9     4.668044962640078E-1   -1.225468045973366E-1   -1.189997509076155E-3   -1.091005078301106E-3   -1.196487877390926E-3   -1.089020687301985E-3    3.667673686693830E-1   -3.323034456365579E-1
 9.937510972700001E9     4.667932677777744E-1   -1.226224145452419E-1   -1.146820925281676E-3   -1.115010427969185E-3   -1.220079922551399E-3   -1.104534239633628E-3    3.663990786979869E-1   -3.326550781777081E-1
 9.937513212750000E9     4.666828644233882E-1   -1.227471504457458E-1   -1.191789557743205E-3   -1.105396890112066E-3   -1.190783881133100E-3   -1.141381539806529E-3    3.662382381647228E-1   -3.326918260997068E-1
 9.937515452799999E9     4.666568776290685E-1   -1.229959772057983E-1   -1.223249157788144E-3   -1.138553757104967E-3   -1.256983407988004E-3   -1.123519133664071E-3    3.661214050935730E-1   -3.329678047794601E-1
 9.937517692850000E9     4.666380134907940E-1   -1.229764283834408E-1   -1.234511294079997E-3   -1.160450151629138E-3   -1.308193291489030E-3   -1.129644066627195E-3    3.656148319318305E-1   -3.329637098396323E-1
 9.937519932900000E9     4.666224659166171E-1   -1.230780949051585E-1   -1.270628971055423E-3   -1.174049883239344E-3   -1.284711992281545E-3   -1.177282419360944E-3    3.654392025128019E-1   -3.333055970991219E-1
 9.937522172950001E9     4.666692937436784E-1   -1.233936196771458E-1   -1.292302531462422E-3   -1.187477864240746E-3   -1.305219635221361E-3   -1.178521112632155E-3    3.651691410250538E-1   -3.335102846021523E-1
 9.937524413000000E9     4.664183672943403E-1   -1.234845624198791E-1   -1.282366908845352E-3   -1.196177199056577E-3   -1.336397927417536E-3   -1.201867275613634E-3    3.646806037768525E-1   -3.336835387990465E-1
 9.937526653049999E9     4.663905903933832E-1   -1.235047617738003E-1   -1.304718594154149E-3   -1.227919871335766E-3   -1.342882146895816E-3   -1.186869729069410E-3    3.644568619655785E-1   -3.342362715412424E-1
 9.937528893100000E9     4.663615668602576E-1   -1.238015735166390E-1   -1.332896939242327E-3   -1.237365227215687E-3   -1.348631190313983E-3   -1.240296136391532E-3    3.644146081044383E-1   -3.342312728828066E-1
 9.937531133150000E9     4.663040415861414E-1   -1.240448591816824E-1   -1.347199023761891E-3   -1.245389504150619E-3   -1.409576437791998E-3   -1.220199609655894E-3    3.640410655594125E-1   -3.342285460479805E-1
 9.937533373200001E9     4.662601665976519E-1   -1.241402241175932E-1   -1.377500942586820E-3   -1.238782513673089E-3   -1.392707076849127E-3   -1.282467214195026E-3    3.638769014233801E-1   -3.344674008151969E-1
 9.937535613250000E9     4.661910868169021E-1   -1.242244253118765E-1   -1.381856940578905E-3   -1.272977607456412E-3   -1.440938760393488E-3   -1.278940428931298E-3    3.633793610354730E-1   -3.346492554176934E-1
 9.937537853299999E9     4.661378751315500E-1   -1.243701582894680E-1   -1.400082447679882E-3   -1.318480742397300E-3   -1.442305710462833E-3   -1.297865710679743E-3    3.629706729881086E-1   -3.348110882218934E-1
 9.937540093350000E9     4.661064223003382E-1   -1.245773968151949E-1   -1.450160000708817E-3   -1.297528476642617E-3   -1.464066675205362E-3   -1.315158511629262E-3    3.628991710833654E-1   -3.351341184777069E-1
 9.937542333400000E9     4.661771276459353E-1   -1.247161144361239E-1   -1.492015187701382E-3   -1.324331004801437E-3   -1.492648756763361E-3   -1.321489545496124E-3    3.624790099402163E-1   -3.355068267063806E-1
 9.937544573450001E9     4.660116074047210E-1   -1.247794647801370E-1   -1.484709074915495E-3   -1.333988228628133E-3   -1.535501988752710E-3   -1.312274911026521E-3    3.622630311709304E-1   -3.355302055873218E-1
 9.937546813500000E9     4.659477289257664E-1   -1.250106166049225E-1   -1.534251570425918E-3   -1.361371402752032E-3   -1.556051882207468E-3   -1.360046021081376E-3    3.618516706067971E-1   -3.358087159713264E-1
 9.937549053549999E9     4.659220620229335E-1   -1.251661515918233E-1   -1.508161691836411E-3   -1.355447193421150E-3   -1.561234757816767E-3   -1.362761661422690E-3    3.617282796689410E-1   -3.360773070990072E-1
 9.937551293600000E9     4.659013784863272E-1   -1.252271144266657E-1   -1.534347232160575E-3   -1.395091660394504E-3   -1.616615169101895E-3   -1.384784375332476E-3    3.612561293167089E-1   -3.362835061459023E-1
 9.937553533650000E9     4.659418743940577E-1   -1.254523451284082E-1   -1.540033139947236E-3   -1.408563550038919E-3   -1.634179289034320E-3   -1.432115034890473E-3    3.609987282287239E-1   -3.365124442966489E-1
 9.937555773700001E9     4.658101057223343E-1   -1.254835923706568E-1   -1.603561925785101E-3   -1.419722288794049E-3   -1.660499640156186E-3   -1.405241437091854E-3    3.608555137829735E-1   -3.367279101205017E-1
 9.937558013750000E9     4.655706031911184E-1   -1.256510983231431E-1   -1.614022163937208E-3   -1.455408023765086E-3   -1.679865688303775E-3   -1.461094729506693E-3    3.604059263804109E-1   -3.369357764646133E-1
 9.937560253799999E9     4.657355261826532E-1   -1.258334347922885E-1   -1.604208315644159E-3   -1.462965142988740E-3   -1.685302453487547E-3   -1.460105429859072E-3    3.601476882016614E-1   -3.370961985471603E-1
 9.937562493850000E9     4.656964293589941E-1   -1.259814366656666E-1   -1.659679740893186E-3   -1.467575214091789E-3   -1.700549627152024E-3   -1.446129697169671E-3    3.597813913694126E-1   -3.372400986529208E-1
 9.937564733900000E9     4.656201524931638E-1   -1.262903363884109E-1   -1.692665060141750E-3   -1.477156178315502E-3   -1.719262507087177E-3   -1.477956289582068E-3    3.593089700134890E-1   -3.375197050722045E-1
 9.937566973950001E9     4.655753479495051E-1   -1.263936110535128E-1   -1.732452432644872E-3   -1.515280085363125E-3   -1.774097404985524E-3   -1.523848393984895E-3    3.591607825439088E-1   -3.378395254448331E-1
 9.937569214000000E9     4.653839585617673E-1   -1.264956338430284E-1   -1.741771418945090E-3   -1.528385033754534E-3   -1.771619714191095E-3   -1.524596095686485E-3    3.586147723793687E-1   -3.380737143988077E-1
 9.937571454049999E9     4.654921768570593E-1   -1.265941178494777E-1   -1.788273297681906E-3   -1.567297649342667E-3   -1.800152998042272E-3   -1.550495851475604E-3    3.582953563775473E-1   -3.381625398926274E-1
 9.937573694100000E9     4.654604985942777E-1   -1.267897633974284E-1   -1.804874930181777E-3   -1.587257937280714E-3   -1.880669785778823E-3   -1.575929327843110E-3    3.579055567707837E-1   -3.385521526291828E-1
 9.937575934150000E9     4.653229086163432E-1   -1.269873059673685E-1   -1.827808709390580E-3   -1.551245804028027E-3   -1.876433720732735E-3   -1.598251763916701E-3    3.576425340659631E-1   -3.387856767412176E-1
 9.937578174200001E9     4.653171143882880E-1   -1.270787835905238E-1   -1.879240314786680E-3   -1.623152036337080E-3   -1.917303587486682E-3   -1.577930888675712E-3    3.570828895425924E-1   -3.388023067251781E-1
 9.937580414250000E9     4.652509985559361E-1   -1.273053995492132E-1   -1.915968213843880E-3   -1.589509282415966E-3   -1.937372606039505E-3   -1.639825718918901E-3    3.568852766596642E-1   -3.391201195970074E-1
 9.937582654299999E9     4.651619715452722E-1   -1.272947868257687E-1   -1.932218510427034E-3   -1.647659497336852E-3   -1.974643724555837E-3   -1.642908230024353E-3    3.567238162766651E-1   -3.392351804087749E-1
 9.937584894350000E9     4.651602195967671E-1   -1.275539231682873E-1   -1.955899599215133E-3   -1.652504261621071E-3   -2.002373878970583E-3   -1.675184975461249E-3    3.560035479768795E-1   -3.397907342751633E-1
 9.937587134400000E9     4.650846692074942E-1   -1.277736122951903E-1   -1.973832542881580E-3   -1.698942580899618E-3   -2.046855845217269E-3   -1.707116811054196E-3    3.557376491509567E-1   -3.399061729648506E-1
 9.937589374450001E9     4.650600733346060E-1   -1.277755395361063E-1   -2.043100584777175E-3   -1.738217253335110E-3   -2.073895575173404E-3   -1.720396289482784E-3    3.552454730139264E-1   -3.399768173773214E-1
 9.937591614500000E9     4.648566983937659E-1   -1.279728949520350E-1   -2.077983719851352E-3   -1.732126275412415E-3   -2.132481278059169E-3   -1.738084990026530E-3    3.549205554876652E-1   -3.402881301594746E-1
