#  HZ   S   RI   R     50.00 
! Rohde & Schwarz Vector Network Analyzer 
! Rohde-Schwarz,ZNB20-2Port,1311601062101988,3.16
! Created: UTC 3/20/2024, 11:13:11 PM
! freq[Hz]                re:S11                  im:S11                  re:S21                  im:S21                  re:S12                  im:S12                  re:S22                  im:S22
 9.937403797000000E9     4.690906130890624E-1   -1.153289552091510E-1   -5.424451725042121E-4   -5.309988708449944E-4   -5.415655414639516E-4   -5.657144292606931E-4    3.772977127069796E-1   -3.234669555158564E-1
 9.937406005350000E9     4.691595340987124E-1   -1.155170483674497E-1   -5.512997627596971E-4   -5.435486954837057E-4   -5.589414728203936E-4   -5.739515821675450E-4    3.771989876307041E-1   -3.238788298790715E-1
 9.937408213700001E9     4.691215721305424E-1   -1.156863110674648E-1   -5.317002534621666E-4   -5.416957778106758E-4   -5.893723191261975E-4   -5.498759619946474E-4    3.768860828658449E-1   -3.238609343842231E-1
 9.937410422049999E9     4.690207706879812E-1   -1.158048696697764E-1   -5.363635759792800E-4   -5.814288766839942E-4   -6.082529703759865E-4   -5.740131876330649E-4    3.768073606664089E-1   -3.242356553860258E-1
 9.937412630400000E9     4.690188197525849E-1   -1.160592478436685E-1   -5.617929839687564E-4   -5.795104976281057E-4   -5.953113601295131E-4   -5.714541756844933E-4    3.765525611216113E-1   -3.242972155139102E-1
 9.937414838750000E9     4.688210286746212E-1   -1.160332507240263E-1   -5.655810340562178E-4   -5.549923137938508E-4   -5.719877791864503E-4   -5.409852294050210E-4    3.765207161214659E-1   -3.244371389936967E-1
 9.937417047100000E9     4.688564884367061E-1   -1.163138646753716E-1   -5.687327053138797E-4   -5.885235473384293E-4   -6.287765907416049E-4   -5.863806019431310E-4    3.760937763942390E-1   -3.246783731686920E-1
 9.937419255450001E9     4.688571831651530E-1   -1.164196334754571E-1   -6.220360025283162E-4   -5.883102476592138E-4   -5.867793785523328E-4   -5.847980374213169E-4    3.759035893928321E-1   -3.249655617528312E-1
 9.937421463799999E9     4.687374193198714E-1   -1.165088598665096E-1   -6.374924444541507E-4   -5.945657310053816E-4   -6.213758652877096E-4   -5.992630297342207E-4    3.758047082119357E-1   -3.249332491561471E-1
 9.937423672150000E9     4.686711218396607E-1   -1.168155526602120E-1   -6.267569562110664E-4   -6.174611008417184E-4   -6.380188825146335E-4   -6.321131053038993E-4    3.758013624977690E-1   -3.251772040420746E-1
 9.937425880500000E9     4.687178210431528E-1   -1.168344376392806E-1   -6.104630514824498E-4   -6.222136305259602E-4   -6.335189973823073E-4   -6.320894291696419E-4    3.755202316270269E-1   -3.255482076760333E-1
 9.937428088850000E9     4.685821621161793E-1   -1.170678927773665E-1   -6.266957789392536E-4   -6.623979111812647E-4   -6.942985319258711E-4   -6.414765016094425E-4    3.752297221836164E-1   -3.253858984730936E-1
 9.937430297200001E9     4.684683454215404E-1   -1.172140252731574E-1   -6.402352214919007E-4   -6.565340380654550E-4   -6.404005031965732E-4   -6.829241725991589E-4    3.751489316841236E-1   -3.257841835509214E-1
 9.937432505549999E9     4.684018775333005E-1   -1.171829764078989E-1   -6.471240543368466E-4   -6.265235993786827E-4   -6.703085151477913E-4   -6.367497231611956E-4    3.746462119647606E-1   -3.258357495407377E-1
 9.937434713900000E9     4.683904991933183E-1   -1.174005732120871E-1   -6.744606405891426E-4   -6.639225716636462E-4   -6.894608603708230E-4   -7.099704433883582E-4    3.747626724013750E-1   -3.258922060996063E-1
 9.937436922250000E9     4.684148818579412E-1   -1.175979283014861E-1   -6.533181222417836E-4   -6.606586976795050E-4   -7.181685129712032E-4   -6.813484413790328E-4    3.745064442810390E-1   -3.261768284238770E-1
 9.937439130600000E9     4.683641989687475E-1   -1.178155560776443E-1   -6.612256058378441E-4   -6.701021286340530E-4   -6.950447733043134E-4   -6.745348610381582E-4    3.742615359422122E-1   -3.262459916485284E-1
 9.937441338950001E9     4.682245687234637E-1   -1.179125677299671E-1   -7.151612135691758E-4   -6.925498873788686E-4   -7.103579230757378E-4   -7.016403326213016E-4    3.742410941608520E-1   -3.265524166934650E-1
 9.937443547299999E9     4.682809799722787E-1   -1.180527946419452E-1   -7.222690365283544E-4   -7.134947627295744E-4   -7.199136903827329E-4   -6.858284355509605E-4    3.738433882511660E-1   -3.265998974615675E-1
 9.937445755650000E9     4.682093645635529E-1   -1.182497778098194E-1   -7.348367623891063E-4   -6.935039189620222E-4   -7.366126216038486E-4   -7.521363864102496E-4    3.737782355036190E-1   -3.270488228033543E-1
 9.937447964000000E9     4.682299054608596E-1   -1.182918254716162E-1   -7.250347355050854E-4   -7.025220880427847E-4   -7.467084947774780E-4   -7.412157670331113E-4    3.733618423090576E-1   -3.272791404573865E-1
 9.937450172350000E9     4.680599854247918E-1   -1.183774036350259E-1   -7.231091944681666E-4   -7.372403183564014E-4   -7.716047019322220E-4   -7.178802202286180E-4    3.733836656932952E-1   -3.273493053681694E-1
 9.937452380700001E9     4.680728164005082E-1   -1.186882717548532E-1   -7.591042571173587E-4   -7.149463857666447E-4   -7.673846625900512E-4   -7.329773289337573E-4    3.730275399854672E-1   -3.274277696014561E-1
 9.937454589049999E9     4.681453147882524E-1   -1.188425946161088E-1   -7.672926652515326E-4   -7.481582764045564E-4   -7.835831350381371E-4   -7.465518408131406E-4    3.727127297890596E-1   -3.274801965782629E-1
 9.937456797400000E9     4.679170264630343E-1   -1.189606861294390E-1   -7.805215997895148E-4   -7.726885865356638E-4   -7.657131006199962E-4   -7.772900428633980E-4    3.726452731261432E-1   -3.278983714028196E-1
 9.937459005750000E9     4.680320413288029E-1   -1.190989003292528E-1   -7.823444135718959E-4   -7.607739736300662E-4   -8.099283924538045E-4   -7.572327816324579E-4    3.724727276851645E-1   -3.278612433119323E-1
 9.937461214100000E9     4.678995892344981E-1   -1.193076132186212E-1   -8.230755137105348E-4   -7.466089920681669E-4   -8.125678994196202E-4   -7.850615271189899E-4    3.722772579998784E-1   -3.281013771828067E-1
 9.937463422450001E9     4.678591829753456E-1   -1.193493670526650E-1   -8.203381172336077E-4   -7.983734506114321E-4   -8.384124344419940E-4   -7.843873840544451E-4    3.720912703338561E-1   -3.283921492587832E-1
 9.937465630799999E9     4.678763853948780E-1   -1.195011946239030E-1   -8.019186742740698E-4   -7.780082887595256E-4   -8.910974544177324E-4   -8.058070685529418E-4    3.718119274838675E-1   -3.286303264970841E-1
 9.937467839150000E9     4.678051928498221E-1   -1.196307348219411E-1   -8.279999208235535E-4   -8.428583077154679E-4   -8.485210106511286E-4   -8.009675969728792E-4    3.716529174480178E-1   -3.287319411103037E-1
 9.937470047500000E9     4.676448710960568E-1   -1.197980289645666E-1   -8.594854211692722E-4   -8.253108638681364E-4   -8.775544937244351E-4   -8.067853275657547E-4    3.711810493146585E-1   -3.288829538389099E-1
 9.937472255850000E9     4.677884697582374E-1   -1.200202155253640E-1   -8.628264237319625E-4   -8.322774876148837E-4   -8.980110956756020E-4   -8.336793143322477E-4    3.712546019467354E-1   -3.290470685880876E-1
 9.937474464200001E9     4.675917440169747E-1   -1.200754843544324E-1   -8.604133137543122E-4   -8.715990602966865E-4   -8.954576639811051E-4   -8.449239291884411E-4    3.710019796102667E-1   -3.291646503029274E-1
 9.937476672549999E9     4.675935106792805E-1   -1.202709572040862E-1   -8.785009477710424E-4   -9.102665638251407E-4   -9.186202083157133E-4   -8.362576032433535E-4    3.707049587518258E-1   -3.293965324325401E-1
 9.937478880900000E9     4.676392200428731E-1   -1.204726425224553E-1   -8.951911127966376E-4   -8.698560948318612E-4   -9.256763473207706E-4   -8.457516296930429E-4    3.703985183738189E-1   -3.296513569815549E-1
 9.937481089250000E9     4.674085946928717E-1   -1.204753895884802E-1   -9.340849080071490E-4   -8.861322993175239E-4   -9.300961620502435E-4   -8.598098848647137E-4    3.702160589592148E-1   -3.298169904511259E-1
 9.937483297600000E9     4.675166591791535E-1   -1.206571152939162E-1   -9.368413035963420E-4   -8.937108426267585E-4   -9.529788506079996E-4   -9.095340613567663E-4    3.700509867061773E-1   -3.299873942043223E-1
 9.937485505950001E9     4.674692886367474E-1   -1.209227248208186E-1   -9.426780147090578E-4   -8.964689969230855E-4   -9.446097086210061E-4   -9.306191968745435E-4    3.697630365088685E-1   -3.302887679650697E-1
 9.937487714299999E9     4.675342288812008E-1   -1.209811089052032E-1   -9.526577318137792E-4   -8.919619068479398E-4   -9.791055017284043E-4   -9.071314531006785E-4    3.695549274791544E-1   -3.302368267878628E-1
 9.937489922650000E9     4.672257058981482E-1   -1.212628486125514E-1   -9.763672939606948E-4   -9.574009192181122E-4   -9.942828739641276E-4   -9.474873630726721E-4    3.693187104788749E-1   -3.306927933968330E-1
 9.937492131000000E9     4.672684300522544E-1   -1.213663946304999E-1   -9.837899699965257E-4   -9.576869013707755E-4   -1.013618619713313E-3   -9.363393304427883E-4    3.691203353533821E-1   -3.308810306792561E-1
 9.937494339350000E9     4.671548229484977E-1   -1.215371660054736E-1   -9.863072170219979E-4   -9.439257552308315E-4   -1.027884849897588E-3   -9.732173296694989E-4    3.689697949443687E-1   -3.310280089834087E-1
 9.937496547700001E9     4.671451687124892E-1   -1.215375640110714E-1   -1.002442357963216E-3   -9.829207493649913E-4   -1.052398095019538E-3   -9.880350012034136E-4    3.685278705525286E-1   -3.308596295079891E-1
 9.937498756049999E9     4.672389972678461E-1   -1.218463017596088E-1   -1.005945652800063E-3   -9.843334406178215E-4   -1.036346679895644E-3   -9.626533982381661E-4    3.684079492146046E-1   -3.314149931624923E-1
 9.937500964400000E9     4.671541655417701E-1   -1.219508237851517E-1   -1.006668779717173E-3   -9.895310448463342E-4   -1.048005905087053E-3   -9.969115770767311E-4    3.682812274775703E-1   -3.313505303482692E-1
 9.937503172750000E9     4.669661794247621E-1   -1.219818075302391E-1   -1.056129797432062E-3   -1.046066517328050E-3   -1.082557084644595E-3   -1.023824305430280E-3    3.679068690303687E-1   -3.318991770968832E-1
 9.937505381100000E9     4.669464439791542E-1   -1.221686635532819E-1   -1.083410863802388E-3   -1.037426412415619E-3   -1.102884433533413E-3   -1.002395832511131E-3    3.676101396969726E-1   -3.318826824888663E-1
 9.937507589450001E9     4.669148392345544E-1   -1.222682690711131E-1   -1.072829617596481E-3   -1.046343513502805E-3   -1.135696399303402E-3   -1.049060970951134E-3    3.675156520292446E-1   -3.320240164802223E-1
 9.937509797799999E9     4.669639387388119E-1   -1.224176820156868E-1   -1.097760274215829E-3   -1.059015573735762E-3   -1.178675830179755E-3   -1.058357696139497E-3    3.671516507309531E-1   -3.322686897820023E-1
 9.937512006150000E9     4.667950838895961E-1   -1.225727448166956E-1   -1.094304419329027E-3   -1.060638885683719E-3   -1.176643117510434E-3   -1.051639394163514E-3    3.669052611812237E-1   -3.324365606408598E-1
 9.937514214500000E9     4.667004221053448E-1   -1.228221602576965E-1   -1.148937756090138E-3   -1.089680766565957E-3   -1.181427757329672E-3   -1.082779114073387E-3    3.665666963190763E-1   -3.326547870016948E-1
 9.937516422850000E9     4.666062080110905E-1   -1.229429895471493E-1   -1.191024023321628E-3   -1.098612400024906E-3   -1.198293522355117E-3   -1.077911195965292E-3    3.662934878685225E-1   -3.327810467568310E-1
 9.937518631200001E9     4.665485959684678E-1   -1.230566508169477E-1   -1.167590229878156E-3   -1.114693348673518E-3   -1.189292486573033E-3   -1.109128140305608E-3    3.662231295443971E-1   -3.327766082221899E-1
 9.937520839549999E9     4.666011213225937E-1   -1.233716984487993E-1   -1.202029526861398E-3   -1.129518369521849E-3   -1.249269107098440E-3   -1.130750295349222E-3    3.658729671681177E-1   -3.330670680793963E-1
 9.937523047900000E9     4.664693858197851E-1   -1.234065433695688E-1   -1.190689467330000E-3   -1.144766750947152E-3   -1.223270098518837E-3   -1.117375861004798E-3    3.657291693370330E-1   -3.335202562521706E-1
 9.937525256250000E9     4.664446466512513E-1   -1.234708074935262E-1   -1.215106811509652E-3   -1.170228074855300E-3   -1.269377038729549E-3   -1.155409395598261E-3    3.653139329519084E-1   -3.335874006976077E-1
 9.937527464600000E9     4.665158613923375E-1   -1.236734277545781E-1   -1.239823994785800E-3   -1.159746655277441E-3   -1.286446243697338E-3   -1.167059392582350E-3    3.651786572852189E-1   -3.336381984595052E-1
 9.937529672950001E9     4.663257861396684E-1   -1.238673463650850E-1   -1.244475430209486E-3   -1.150933479417206E-3   -1.283409092958786E-3   -1.194287168869822E-3    3.646072389281753E-1   -3.341726677126083E-1
 9.937531881299999E9     4.663799628731233E-1   -1.240597292662157E-1   -1.263563796367677E-3   -1.184944922745424E-3   -1.297410443816098E-3   -1.217290486118566E-3    3.645630934581955E-1   -3.342221254440819E-1
 9.937534089650000E9     4.662859492605689E-1   -1.240232919030593E-1   -1.298772490747626E-3   -1.214323239326507E-3   -1.317577203677171E-3   -1.210280404108336E-3    3.641640022981455E-1   -3.343877455630776E-1
 9.937536298000000E9     4.664648520875511E-1   -1.242901092118780E-1   -1.339448489451163E-3   -1.249943730797932E-3   -1.332092671554836E-3   -1.223110999807173E-3    3.638109598878978E-1   -3.344800305876456E-1
 9.937538506350000E9     4.661214751824149E-1   -1.243765330444591E-1   -1.368812284133540E-3   -1.230174832910103E-3   -1.371661313001597E-3   -1.292269063075362E-3    3.635111507547285E-1   -3.347515067551340E-1
 9.937540714700001E9     4.660723943684371E-1   -1.245629959393425E-1   -1.359977308450533E-3   -1.244242710514443E-3   -1.398414117218470E-3   -1.270348065759784E-3    3.632260576508305E-1   -3.349286327482711E-1
 9.937542923049999E9     4.660720424482632E-1   -1.246037680336118E-1   -1.366179148822787E-3   -1.272683598261859E-3   -1.437585435849288E-3   -1.288356495771680E-3    3.629768249302633E-1   -3.351970404148980E-1
 9.937545131400000E9     4.661446623523566E-1   -1.248174959732832E-1   -1.395597585707966E-3   -1.294481288504711E-3   -1.428779239067060E-3   -1.302056294025371E-3    3.628434425394076E-1   -3.352843196207763E-1
 9.937547339750000E9     4.659921982823417E-1   -1.250432754245992E-1   -1.387497845187554E-3   -1.297604328461465E-3   -1.491773439209729E-3   -1.314770600350223E-3    3.626045491789776E-1   -3.355222802227519E-1
 9.937549548100000E9     4.658224827141712E-1   -1.251644086313689E-1   -1.446370319862867E-3   -1.334086230764390E-3   -1.491117499628606E-3   -1.314882661060621E-3    3.624345267516653E-1   -3.360291335686035E-1
 9.937551756450001E9     4.660265586495831E-1   -1.252302180315060E-1   -1.469469742110882E-3   -1.334141585914017E-3   -1.533325472452883E-3   -1.344473354384818E-3    3.619493011499142E-1   -3.359730386775783E-1
 9.937553964799999E9     4.658435492996604E-1   -1.255318664369686E-1   -1.493978438981230E-3   -1.367481723184004E-3   -1.506934478593354E-3   -1.364491912644770E-3    3.615486086389054E-1   -3.362304455254734E-1
 9.937556173150000E9     4.657428221369978E-1   -1.256296051638642E-1   -1.534694062161886E-3   -1.370261565863570E-3   -1.579631378994848E-3   -1.366445032743784E-3    3.612390554509852E-1   -3.365382668313274E-1
 9.937558381500000E9     4.658070699176370E-1   -1.256851257762167E-1   -1.547380172224309E-3   -1.394972561914275E-3   -1.583960338059458E-3   -1.398775237482760E-3    3.611560580200587E-1   -3.367131418111207E-1
 9.937560589850000E9     4.657215037604080E-1   -1.258347585232426E-1   -1.560581039855228E-3   -1.413302176070795E-3   -1.590295539707604E-3   -1.432017560759235E-3    3.607217217919809E-1   -3.369477224231401E-1
 9.937562798200001E9     4.656970329803137E-1   -1.259133409488803E-1   -1.605387754038016E-3   -1.433409745881325E-3   -1.602401318048141E-3   -1.415330239127526E-3    3.604190854686848E-1   -3.369735421987353E-1
 9.937565006549999E9     4.656910371666839E-1   -1.261667467413168E-1   -1.606064152742213E-3   -1.447642850944383E-3   -1.638283242539509E-3   -1.437716145645240E-3    3.599856481754462E-1   -3.371794408898458E-1
 9.937567214900000E9     4.655958486718131E-1   -1.263490152864089E-1   -1.619234125950845E-3   -1.490952235921805E-3   -1.680461678951416E-3   -1.448001063045997E-3    3.598332627203980E-1   -3.375814619114710E-1
 9.937569423250000E9     4.656160662850978E-1   -1.265334976833280E-1   -1.662955420269849E-3   -1.522158066921233E-3   -1.688703997811698E-3   -1.478725496397440E-3    3.594222077589411E-1   -3.378604653171682E-1
 9.937571631600000E9     4.654221275103699E-1   -1.266158536586567E-1   -1.690565693506589E-3   -1.514441611916915E-3   -1.750165875863193E-3   -1.509570761640024E-3    3.590542392325257E-1   -3.380924696486013E-1
 9.937573839950001E9     4.653455397664628E-1   -1.268410313488477E-1   -1.673383420653527E-3   -1.516414125002996E-3   -1.744949423736233E-3   -1.544961046366139E-3    3.587101439447059E-1   -3.382912369827968E-1
 9.937576048299999E9     4.652499409832507E-1   -1.269372579188039E-1   -1.721324431214928E-3   -1.570088164482122E-3   -1.779375350407181E-3   -1.512635336923404E-3    3.583488695145044E-1   -3.385511732191098E-1
 9.937578256650000E9     4.652888300201604E-1   -1.270615419675233E-1   -1.784810840131312E-3   -1.599760633532154E-3   -1.792239027426093E-3   -1.540828685845461E-3    3.581871869847214E-1   -3.387254439735066E-1
 9.937580465000000E9     4.652061629924417E-1   -1.272030829690476E-1   -1.795882244775295E-3   -1.594775301125140E-3   -1.837532133544618E-3   -1.580444846066096E-3    3.577795844686329E-1   -3.388258678690485E-1
 9.937582673350000E9     4.649931135396622E-1   -1.273789782873805E-1   -1.821457540806153E-3   -1.614981151339777E-3   -1.873462124705910E-3   -1.598495068814725E-3    3.572898183862199E-1   -3.390783414668668E-1
 9.937584881700001E9     4.652031313327408E-1   -1.274348814301156E-1   -1.837120281579255E-3   -1.620032448823411E-3   -1.906259225855985E-3   -1.616538012580021E-3    3.569328496638725E-1   -3.394126042085558E-1
 9.937587090049999E9     4.649712160712833E-1   -1.277810670466985E-1   -1.875139784632880E-3   -1.615255234450042E-3   -1.932296003457207E-3   -1.666825114527551E-3    3.566853118052523E-1   -3.393815484556051E-1
 9.937589298400000E9     4.650663038959761E-1   -1.278149728377507E-1   -1.898756555785587E-3   -1.658944556987019E-3   -1.972324201653541E-3   -1.657712409290150E-3    3.563780768367685E-1   -3.398844409116215E-1
 9.937591506750000E9     4.649920259420616E-1   -1.278898129652294E-1   -1.957313310218691E-3   -1.656514184007003E-3   -1.977353442764957E-3   -1.705917710976342E-3    3.559823741286062E-1   -3.399512886795330E-1
 9.937593715100000E9     4.650002227198518E-1   -1.281015597617676E-1   -1.965191577793541E-3   -1.698036367512664E-3   -1.983360897905936E-3   -1.705782551393536E-3    3.554329369493894E-1   -3.401607452788653E-1
 9.937595923450001E9     4.648538579299477E-1   -1.282996173914680E-1   -2.007888998143414E-3   -1.730110453179375E-3   -2.064830564194874E-3   -1.718262842498973E-3    3.550124724997274E-1   -3.404483823349295E-1
 9.937598131799999E9     4.648875274622927E-1   -1.284472681138294E-1   -2.033732867563077E-3   -1.760312998705180E-3   -2.094708424041727E-3   -1.734317492330945E-3    3.547793179842118E-1   -3.407403230935372E-1
 9.937600340150000E9     4.646559211373880E-1   -1.285631633530737E-1   -2.077287329389926E-3   -1.785386564448072E-3   -2.120420508386395E-3   -1.740019039534069E-3    3.543399788686278E-1   -3.408547165194815E-1
 9.937602548500000E9     4.646692369030209E-1   -1.286025003698504E-1   -2.109476657614030E-3   -1.814555981500721E-3   -2.157213479025123E-3   -1.791362932197590E-3    3.539548767806243E-1   -3.413279858557057E-1
