#  HZ   S   RI   R     50.00 
! Rohde & Schwarz Vector Network Analyzer 
! Rohde-Schwarz,ZNB20-2Port,1311601062101988,3.16
! Created: UTC 3/20/2024, 11:13:21 PM
! freq[Hz]                re:S11                  im:S11                  re:S21                  im:S21                  re:S12                  im:S12                  re:S22                  im:S22
 9.937409373000000E9     4.690612131697071E-1   -1.156475106832082E-1   -5.550017317910418E-4   -5.757335100082770E-4   -5.621950323865878E-4   -5.402906736336583E-4    3.769790372158100E-1   -3.240619951664261E-1
 9.937411566250000E9     4.690468850984892E-1   -1.159942179071325E-1   -5.607192189656479E-4   -5.645029796677296E-4   -5.630617794416642E-4   -5.750475682149171E-4    3.768751376129590E-1   -3.242172410302323E-1
 9.937413759500000E9     4.689459383330423E-1   -1.161155658528599E-1   -5.683380217016687E-4   -5.262102224630196E-4   -5.788486338795416E-4   -5.821224598556925E-4    3.766729681314397E-1   -3.243554220233388E-1
 9.937415952750000E9     4.689096262468371E-1   -1.162970195405457E-1   -5.794039228589625E-4   -5.850984588420221E-4   -5.721000911555213E-4   -5.758272995532400E-4    3.763502329671182E-1   -3.244870687965328E-1
 9.937418146000000E9     4.687596824459497E-1   -1.162506383538977E-1   -6.019414163893984E-4   -6.001044341061707E-4   -5.739355341218055E-4   -6.015968525758726E-4    3.761279262632191E-1   -3.247203151208648E-1
 9.937420339250000E9     4.688228354602080E-1   -1.164033215392264E-1   -5.868447599509544E-4   -5.735371103517750E-4   -6.013883352161143E-4   -6.008800101098360E-4    3.760358560035496E-1   -3.249600329730734E-1
 9.937422532500000E9     4.686203442217524E-1   -1.165669332852272E-1   -5.717807824254786E-4   -6.166247447817348E-4   -6.346354549737301E-4   -5.860466586142578E-4    3.760558800533980E-1   -3.250082543376081E-1
 9.937424725750000E9     4.686466905207359E-1   -1.167777978025853E-1   -5.865514920271015E-4   -6.145034670518101E-4   -6.176470424820767E-4   -6.056215710817473E-4    3.756507908982878E-1   -3.252510026018566E-1
 9.937426919000000E9     4.685977507383389E-1   -1.168255818873814E-1   -6.478018197071502E-4   -6.265449020638621E-4   -6.386021984553368E-4   -6.097762268541420E-4    3.755849424065119E-1   -3.254166938478438E-1
 9.937429112250000E9     4.687154001574539E-1   -1.171433517109670E-1   -6.437400721266235E-4   -6.497170102798236E-4   -6.185669236860742E-4   -6.331727283559840E-4    3.754305579099783E-1   -3.255156703897445E-1
 9.937431305500000E9     4.686012689564423E-1   -1.172249134275690E-1   -6.461614467573621E-4   -6.431516654111469E-4   -6.614968987229926E-4   -6.371219151004231E-4    3.751248310324644E-1   -3.256821043833001E-1
 9.937433498750000E9     4.684899561866133E-1   -1.174191618738043E-1   -6.666436210506187E-4   -6.457134363011857E-4   -6.787168165554803E-4   -6.731058314118228E-4    3.749243652581797E-1   -3.258203913093098E-1
 9.937435692000000E9     4.685859012782169E-1   -1.174949891280044E-1   -6.966503754939502E-4   -6.616600475113852E-4   -6.787242178588373E-4   -6.687089856434960E-4    3.746352424779242E-1   -3.263377866091839E-1
 9.937437885250000E9     4.684519194229428E-1   -1.176527001196347E-1   -6.691735719242786E-4   -6.567241021292004E-4   -7.027039015785026E-4   -6.709361594771937E-4    3.744167305316424E-1   -3.262351999461323E-1
 9.937440078500000E9     4.683088397269111E-1   -1.177866119047683E-1   -6.838974296033807E-4   -6.760926372956634E-4   -6.766022578659013E-4   -6.685470174513642E-4    3.744381543188356E-1   -3.264722651096160E-1
 9.937442271750000E9     4.683644981628990E-1   -1.178359560994559E-1   -6.668371474851035E-4   -6.587648814496079E-4   -6.868983013774565E-4   -6.717954319166483E-4    3.740080933399211E-1   -3.264818779426948E-1
 9.937444465000000E9     4.683604199207902E-1   -1.182195693981889E-1   -6.979678136781372E-4   -7.101794281168123E-4   -7.215243989583666E-4   -7.075205309393651E-4    3.738567183194557E-1   -3.265308078777677E-1
 9.937446658250000E9     4.683439096619457E-1   -1.182189173638963E-1   -7.232019018474989E-4   -6.941319762144521E-4   -7.275113028965506E-4   -7.009813387189799E-4    3.737483044994920E-1   -3.269306017070331E-1
 9.937448851500000E9     4.683416727572477E-1   -1.184802482598333E-1   -6.945413160687506E-4   -7.124746173070300E-4   -7.404022840836687E-4   -6.918655293711483E-4    3.735055516428161E-1   -3.269395463795282E-1
 9.937451044750000E9     4.682596405832668E-1   -1.185315769928393E-1   -7.207861644675307E-4   -7.288882443550686E-4   -7.401231630411363E-4   -7.373823800053190E-4    3.733661514643661E-1   -3.272360896720255E-1
 9.937453238000000E9     4.680898581138310E-1   -1.186475958948657E-1   -7.108808324720748E-4   -7.407810410912772E-4   -7.681369986709242E-4   -7.499536074542680E-4    3.730639913567428E-1   -3.275712965132924E-1
 9.937455431250000E9     4.680823299817826E-1   -1.188598279742465E-1   -7.630635435608617E-4   -7.500738432058413E-4   -8.056597561971301E-4   -7.278470258826377E-4    3.729902993079772E-1   -3.275719318996570E-1
 9.937457624500000E9     4.680208414729574E-1   -1.190594290474420E-1   -7.637858074068845E-4   -7.700887342023127E-4   -7.989912341610474E-4   -7.777545840825004E-4    3.727164187692665E-1   -3.277593063182761E-1
 9.937459817750000E9     4.679866423275737E-1   -1.191576901537542E-1   -7.512870082572943E-4   -7.410724580738642E-4   -7.894901378773114E-4   -7.592098356596267E-4    3.724366289441904E-1   -3.281254409169576E-1
 9.937462011000000E9     4.678091672196785E-1   -1.191486687939409E-1   -7.806186831700779E-4   -7.757542891070239E-4   -7.994671062848820E-4   -7.664043221122130E-4    3.724431830388576E-1   -3.281625469196144E-1
 9.937464204250000E9     4.678175991943027E-1   -1.193095696972006E-1   -8.204131024417420E-4   -7.902471443284073E-4   -7.881202530528256E-4   -7.997799622577019E-4    3.719856613172567E-1   -3.283781518349154E-1
 9.937466397500000E9     4.677233563308943E-1   -1.197093973757781E-1   -8.357930380040906E-4   -8.228195470444385E-4   -8.482113365495414E-4   -8.008233215808982E-4    3.717725113080302E-1   -3.283816634326965E-1
 9.937468590750000E9     4.677064519253005E-1   -1.197765810671655E-1   -8.480940153594213E-4   -8.090694367452522E-4   -8.250510844576805E-4   -7.911661574827192E-4    3.715162153830181E-1   -3.286358411636772E-1
 9.937470784000000E9     4.677567373767663E-1   -1.198353236145486E-1   -8.331591825660338E-4   -8.125508098924638E-4   -8.661706448197498E-4   -8.020207694061109E-4    3.714198352717212E-1   -3.289211964487476E-1
 9.937472977250000E9     4.675299630630546E-1   -1.200479963775259E-1   -8.285043004114997E-4   -8.070024156118854E-4   -8.770216133986775E-4   -8.551068268572560E-4    3.711769493021826E-1   -3.290248297560293E-1
 9.937475170500000E9     4.676270383090054E-1   -1.201989924417291E-1   -8.630434655777989E-4   -8.325449082533176E-4   -8.834191985393434E-4   -8.528171845863205E-4    3.708161614363431E-1   -3.292815052373227E-1
 9.937477363750000E9     4.675838459907851E-1   -1.202658878195748E-1   -8.440585864303206E-4   -8.747188913794453E-4   -8.870004864789685E-4   -8.507127762174781E-4    3.707056237621873E-1   -3.296016636449015E-1
 9.937479557000000E9     4.675065877398292E-1   -1.205588695637271E-1   -8.670934929471168E-4   -8.812884063881390E-4   -8.991892467974674E-4   -8.410629578210065E-4    3.705628238495826E-1   -3.296513913582702E-1
 9.937481750250000E9     4.674199941353527E-1   -1.205401765478998E-1   -8.837518489372509E-4   -8.892869434105389E-4   -9.309481998553263E-4   -8.746654490385508E-4    3.704513341709453E-1   -3.298358777970418E-1
 9.937483943500000E9     4.674052917804855E-1   -1.207564898219683E-1   -9.230033902948581E-4   -9.036059625413683E-4   -9.349349547467193E-4   -8.717876308752405E-4    3.701348930321514E-1   -3.300093687800248E-1
 9.937486136750000E9     4.673622414377476E-1   -1.208212017921405E-1   -9.356903764146686E-4   -8.949353393650720E-4   -9.297834072584896E-4   -9.087036887419375E-4    3.699602330928397E-1   -3.302184004828484E-1
 9.937488330000000E9     4.674849211090055E-1   -1.210319023544756E-1   -9.004357527467198E-4   -9.322528170383432E-4   -9.543329039994354E-4   -9.158710763497863E-4    3.696304872089551E-1   -3.303092299808452E-1
 9.937490523250000E9     4.670778115774198E-1   -1.212161530362462E-1   -9.386567918799983E-4   -9.268776745697708E-4   -1.013714749982485E-3   -9.202714358867420E-4    3.693095490423668E-1   -3.305808459083175E-1
 9.937492716500000E9     4.672319078253795E-1   -1.213873737930610E-1   -9.693974519823724E-4   -9.137962965735315E-4   -9.966594933881725E-4   -9.418995817794010E-4    3.692097025808878E-1   -3.307489332607494E-1
 9.937494909750000E9     4.670792730497656E-1   -1.216299679122119E-1   -9.946117004016363E-4   -9.610235474884751E-4   -1.021837192670611E-3   -9.627056032631378E-4    3.691431748460220E-1   -3.309968249738350E-1
 9.937497103000000E9     4.670818684713034E-1   -1.216067710414642E-1   -9.774295227689591E-4   -9.814408997046516E-4   -1.015726245222669E-3   -9.658247159259238E-4    3.687222093697911E-1   -3.310962999242809E-1
 9.937499296250000E9     4.670901607706808E-1   -1.217244845365345E-1   -1.010080574733270E-3   -9.853592992315396E-4   -1.018291181935358E-3   -9.704732275087740E-4    3.683813357115943E-1   -3.312861238376505E-1
 9.937501489500000E9     4.669729316528539E-1   -1.218051164244683E-1   -1.017090414055418E-3   -9.959574905676974E-4   -1.057850457128235E-3   -9.913676439759025E-4    3.681140616890163E-1   -3.313604618866980E-1
 9.937503682750000E9     4.670071429134059E-1   -1.221457578400819E-1   -1.046001198855979E-3   -9.811675319986309E-4   -1.066487817808734E-3   -1.015715443292441E-3    3.680231785133362E-1   -3.317357053489472E-1
 9.937505876000000E9     4.669310768094487E-1   -1.221376043612861E-1   -1.079045938165869E-3   -9.964151337017012E-4   -1.103845600714344E-3   -1.022062407996798E-3    3.679219233191126E-1   -3.319771183341007E-1
 9.937508069250000E9     4.669076295815041E-1   -1.224594563270161E-1   -1.093754962558930E-3   -1.027719110488834E-3   -1.093262339882436E-3   -1.053542193265655E-3    3.674418919390638E-1   -3.318903190886673E-1
 9.937510262500000E9     4.668911978117510E-1   -1.225463318675669E-1   -1.105313462119682E-3   -1.032919714037689E-3   -1.109638835497014E-3   -1.037913311009475E-3    3.673525109370826E-1   -3.322733618352167E-1
 9.937512455750000E9     4.668570494751783E-1   -1.226589315762503E-1   -1.100706705331491E-3   -1.055299590853926E-3   -1.131345309426162E-3   -1.049936967075705E-3    3.671856130283044E-1   -3.324321141092172E-1
 9.937514649000000E9     4.668106064681259E-1   -1.228031798945844E-1   -1.098356434795521E-3   -1.096301245704278E-3   -1.161761287311656E-3   -1.094430002703977E-3    3.666825639205087E-1   -3.325280852256890E-1
 9.937516842250000E9     4.666736517099883E-1   -1.230259462763635E-1   -1.142475883726334E-3   -1.076825182605497E-3   -1.154544920852534E-3   -1.075987189418390E-3    3.665975493758872E-1   -3.328558045162490E-1
 9.937519035500000E9     4.666063167578640E-1   -1.230295497763887E-1   -1.191264289566637E-3   -1.092302921661096E-3   -1.165919096780549E-3   -1.117138213329796E-3    3.663883425504642E-1   -3.329037299283664E-1
 9.937521228750000E9     4.666746140741855E-1   -1.232600606003219E-1   -1.170274831619447E-3   -1.117382773375312E-3   -1.215879907811712E-3   -1.118993139977977E-3    3.659059458613005E-1   -3.334283353010754E-1
 9.937523422000000E9     4.665157624179130E-1   -1.233776230440683E-1   -1.205196592629303E-3   -1.102228639518369E-3   -1.239253049550102E-3   -1.125385223828221E-3    3.658233488284836E-1   -3.333598748741504E-1
 9.937525615250000E9     4.664663182476790E-1   -1.235825170177239E-1   -1.210966844501563E-3   -1.138962814664652E-3   -1.211765113052509E-3   -1.159941404643769E-3    3.654263590044041E-1   -3.335160764162092E-1
 9.937527808500000E9     4.663756564236857E-1   -1.237027888080449E-1   -1.219772689772229E-3   -1.159000026489987E-3   -1.284129164695195E-3   -1.174619227008855E-3    3.651545731554364E-1   -3.338086824946220E-1
 9.937530001750000E9     4.665003963596861E-1   -1.238316319557400E-1   -1.238308957575327E-3   -1.217154418387090E-3   -1.282788353391188E-3   -1.186699246817482E-3    3.648755197143059E-1   -3.341165716505171E-1
 9.937532195000000E9     4.662922738833199E-1   -1.240681148312756E-1   -1.268707298085329E-3   -1.194325827656988E-3   -1.301967813589152E-3   -1.190713979612569E-3    3.647879119661676E-1   -3.341226129348502E-1
 9.937534388250000E9     4.662585933307010E-1   -1.241387939614028E-1   -1.293392604012730E-3   -1.176114669164210E-3   -1.333939167966253E-3   -1.200508643389665E-3    3.643293005384651E-1   -3.343798089925736E-1
 9.937536581500000E9     4.661376234531954E-1   -1.243035605704302E-1   -1.268252187899251E-3   -1.217060656635256E-3   -1.331373343469166E-3   -1.213796174497488E-3    3.640123541801411E-1   -3.345651521559633E-1
 9.937538774750000E9     4.662765458456028E-1   -1.244448772145538E-1   -1.378087163447421E-3   -1.224662866345328E-3   -1.357538502053748E-3   -1.231857501404187E-3    3.638925166058465E-1   -3.347509424557471E-1
 9.937540968000000E9     4.661698914664995E-1   -1.246665549630204E-1   -1.326990130066958E-3   -1.240747994258398E-3   -1.353845096080114E-3   -1.266923858588676E-3    3.635225429842998E-1   -3.349244648327612E-1
 9.937543161250000E9     4.660788253881383E-1   -1.247592048909296E-1   -1.353876428475657E-3   -1.270896265935080E-3   -1.382260415588339E-3   -1.224518753120441E-3    3.633478928166319E-1   -3.352102832688990E-1
 9.937545354500000E9     4.661263972252759E-1   -1.247917058872263E-1   -1.404032655168907E-3   -1.269506253645102E-3   -1.418965741248764E-3   -1.250711404968902E-3    3.630630993326375E-1   -3.353248281096786E-1
 9.937547547750000E9     4.659612057378926E-1   -1.251242054149913E-1   -1.379301479230510E-3   -1.280577425720985E-3   -1.441961304380933E-3   -1.302745897617862E-3    3.627467931424526E-1   -3.356407513389053E-1
 9.937549741000000E9     4.659418083197935E-1   -1.251654180011943E-1   -1.410996524206913E-3   -1.339954566034050E-3   -1.467274998764453E-3   -1.297592748103422E-3    3.623863853869848E-1   -3.358978590202143E-1
 9.937551934250000E9     4.658867928781513E-1   -1.252962912737427E-1   -1.450998118233981E-3   -1.315645729387071E-3   -1.481260654239917E-3   -1.350864353482556E-3    3.621974319332414E-1   -3.361048543548434E-1
 9.937554127500000E9     4.658058249945007E-1   -1.253795848045860E-1   -1.459791505970321E-3   -1.344537930313397E-3   -1.503895926916095E-3   -1.347245951443034E-3    3.618309523524899E-1   -3.362518517162836E-1
 9.937556320750000E9     4.657816364192066E-1   -1.254679760313316E-1   -1.510968014242654E-3   -1.365929388191874E-3   -1.532244335827657E-3   -1.344837861719171E-3    3.615599713828859E-1   -3.364756569824861E-1
 9.937558514000000E9     4.657108947577213E-1   -1.257205363013667E-1   -1.485959759726250E-3   -1.393444331511378E-3   -1.529829531275869E-3   -1.379521194662536E-3    3.612057265877594E-1   -3.365928298694371E-1
 9.937560707250000E9     4.657657110980641E-1   -1.259815618407672E-1   -1.536098385048607E-3   -1.408837010489118E-3   -1.586065865301028E-3   -1.406926915801047E-3    3.607908167316602E-1   -3.369236386057818E-1
 9.937562900500000E9     4.656105108296280E-1   -1.261217034369130E-1   -1.571356763352992E-3   -1.435352273204665E-3   -1.578125105536230E-3   -1.402657714207149E-3    3.605670308537682E-1   -3.370320425284597E-1
 9.937565093750000E9     4.655791526139483E-1   -1.263094675889480E-1   -1.587935661593092E-3   -1.419030004500360E-3   -1.592060958311224E-3   -1.468483292952594E-3    3.602191025621847E-1   -3.372009479792784E-1
 9.937567287000000E9     4.656788495522063E-1   -1.262864770258717E-1   -1.592186704325422E-3   -1.446879337688345E-3   -1.623422933638372E-3   -1.430711339215024E-3    3.599155159070426E-1   -3.375354308021608E-1
 9.937569480250000E9     4.655667131749319E-1   -1.263855558803472E-1   -1.626413768379398E-3   -1.457396284479196E-3   -1.657214452363622E-3   -1.465761876042016E-3    3.597483878368694E-1   -3.378435397875572E-1
 9.937571673500000E9     4.654875198686956E-1   -1.267556104366716E-1   -1.643371290672060E-3   -1.470081290545641E-3   -1.710849877455342E-3   -1.486559244110045E-3    3.592854945376131E-1   -3.378879530905733E-1
 9.937573866750000E9     4.653659335743168E-1   -1.267811548034342E-1   -1.683510246877672E-3   -1.535568591749152E-3   -1.701871483303646E-3   -1.497675635229855E-3    3.588577813737771E-1   -3.380586682775436E-1
 9.937576060000000E9     4.653212860413570E-1   -1.269788317942384E-1   -1.726651320058305E-3   -1.533234433919809E-3   -1.739285244319754E-3   -1.539234298640645E-3    3.586807132169930E-1   -3.381895924161697E-1
 9.937578253250000E9     4.652160822376714E-1   -1.271002046712100E-1   -1.710542591348747E-3   -1.503088860002376E-3   -1.755167127383238E-3   -1.552608611758736E-3    3.582860808249598E-1   -3.386316142625160E-1
 9.937580446500000E9     4.652476899981605E-1   -1.270911861963346E-1   -1.758813034600966E-3   -1.568193069138136E-3   -1.794924405962840E-3   -1.561021290095469E-3    3.578794139441894E-1   -3.389704775399801E-1
 9.937582639750000E9     4.652825011868830E-1   -1.273454210162918E-1   -1.768788403301876E-3   -1.588747440374441E-3   -1.824662810204864E-3   -1.545388433823479E-3    3.576172796101670E-1   -3.389960788865258E-1
 9.937584833000000E9     4.650896755865726E-1   -1.275292145024680E-1   -1.797429226709989E-3   -1.568689838049948E-3   -1.842674358318431E-3   -1.605265038050459E-3    3.574542926786998E-1   -3.392147218609265E-1
 9.937587026250000E9     4.650948886481662E-1   -1.276436375441500E-1   -1.842215976610928E-3   -1.606121453966634E-3   -1.881861946394562E-3   -1.624739589381851E-3    3.570778248879340E-1   -3.395858002905334E-1
 9.937589219500000E9     4.648560538809583E-1   -1.276860853160467E-1   -1.848021886531597E-3   -1.645170278159283E-3   -1.933091491889071E-3   -1.639408004580465E-3    3.563414048387064E-1   -3.398716113488944E-1
 9.937591412750000E9     4.648870105286013E-1   -1.280155261169389E-1   -1.883888878443344E-3   -1.640299688357340E-3   -1.912729938456520E-3   -1.655698263179161E-3    3.562446072668322E-1   -3.398791370435542E-1
 9.937593606000000E9     4.647413230880602E-1   -1.281474060486367E-1   -1.926249737750996E-3   -1.703398449337907E-3   -1.942565800229498E-3   -1.682938267695915E-3    3.559274477979005E-1   -3.402108265367295E-1
 9.937595799250000E9     4.649030364294771E-1   -1.281059800286588E-1   -1.968384025678097E-3   -1.709358222490768E-3   -1.988309301668993E-3   -1.690123338213211E-3    3.555910600071542E-1   -3.406037368405521E-1
 9.937597992500000E9     4.648636294138476E-1   -1.283789134471823E-1   -1.945674051394673E-3   -1.685402959010888E-3   -2.047025550843277E-3   -1.724970236845595E-3    3.552550505883968E-1   -3.407031263472357E-1
 9.937600185750000E9     4.648164755459825E-1   -1.285248966612448E-1   -2.005901364394004E-3   -1.729799578068639E-3   -2.043134215089336E-3   -1.725574271569921E-3    3.548119668262695E-1   -3.405964714523136E-1
 9.937602379000000E9     4.646884425710152E-1   -1.285987002662958E-1   -2.020260836812220E-3   -1.766428628348568E-3   -2.116171037046190E-3   -1.749462020115451E-3    3.541071618496859E-1   -3.409787941245687E-1
 9.937604572250000E9     4.646171116456633E-1   -1.287447115889883E-1   -2.108872076433300E-3   -1.794239070174064E-3   -2.130056537889887E-3   -1.777635510988928E-3    3.539045773456298E-1   -3.414005020544609E-1
 9.937606765500000E9     4.645181132467698E-1   -1.290394570257253E-1   -2.133825649177150E-3   -1.816133678935601E-3   -2.167511112085282E-3   -1.833406352601451E-3    3.534744018220279E-1   -3.414532404224596E-1
