#  HZ   S   RI   R     50.00 
! Rohde & Schwarz Vector Network Analyzer 
! Rohde-Schwarz,ZNB20-2Port,1311601062101988,3.16
! Created: UTC 3/20/2024, 11:14:08 PM
! freq[Hz]                re:S11                  im:S11                  re:S21                  im:S21                  re:S12                  im:S12                  re:S22                  im:S22
 9.937440396000000E9     4.684531123906486E-1   -1.177848673967249E-1   -5.861656578814015E-4   -6.317044645601494E-4   -6.148082539154129E-4   -6.261769197832222E-4    3.749293163468156E-1   -3.261100119479022E-1
 9.937442498225000E9     4.684414218401700E-1   -1.178734824292319E-1   -6.243797008653411E-4   -6.396842132197866E-4   -6.428002639022562E-4   -6.365085029212460E-4    3.744968509147782E-1   -3.263038986653417E-1
 9.937444600450001E9     4.682690679534134E-1   -1.179758533723043E-1   -6.494984128307050E-4   -6.227699990813356E-4   -6.449044166937290E-4   -6.678701565327767E-4    3.744484230259403E-1   -3.264144000885960E-1
 9.937446702674999E9     4.682339048946419E-1   -1.181145384468914E-1   -6.505078158590354E-4   -6.699065039269171E-4   -6.504984813951352E-4   -6.372580303793749E-4    3.743508998234945E-1   -3.266002638962199E-1
 9.937448804900000E9     4.681648599261227E-1   -1.182825126966613E-1   -6.524232271331865E-4   -6.378575707519057E-4   -6.589757227754211E-4   -6.737356087623560E-4    3.742334000333067E-1   -3.266761724597492E-1
 9.937450907125000E9     4.683056669740683E-1   -1.184457188982603E-1   -6.836065634057859E-4   -6.860671437881237E-4   -6.782125946596597E-4   -6.440564371385849E-4    3.739586813089459E-1   -3.270697642139579E-1
 9.937453009350000E9     4.680523260863310E-1   -1.186461599964145E-1   -6.571026576945116E-4   -7.037538753111489E-4   -6.903484303949356E-4   -6.719165687861568E-4    3.737463559315006E-1   -3.271065090409913E-1
 9.937455111575001E9     4.680776454811804E-1   -1.186484066167309E-1   -7.070647312985506E-4   -7.007544925468803E-4   -7.074016482145854E-4   -7.075607643945364E-4    3.737342640954410E-1   -3.273300799586212E-1
 9.937457213799999E9     4.679294062770373E-1   -1.188555527436258E-1   -6.725848547905361E-4   -7.388216391321717E-4   -7.126914563301455E-4   -7.124807797503445E-4    3.734776932796845E-1   -3.273193448218032E-1
 9.937459316025000E9     4.680239820848949E-1   -1.190267742201744E-1   -6.939563076124600E-4   -7.329302457675913E-4   -6.901132210281502E-4   -7.032104664717627E-4    3.729800689623194E-1   -3.278422825802008E-1
 9.937461418250000E9     4.679423392344234E-1   -1.190886776308711E-1   -7.435674231246580E-4   -7.076098122066317E-4   -7.199390543434195E-4   -7.182564800020647E-4    3.729076195868727E-1   -3.277661445771399E-1
 9.937463520475000E9     4.678842847353034E-1   -1.192471437616668E-1   -6.940680606380966E-4   -7.332952788923539E-4   -7.687337593723219E-4   -7.137060539039231E-4    3.728046178925802E-1   -3.278170761294670E-1
 9.937465622700001E9     4.679106644649069E-1   -1.194083524388078E-1   -7.099305308895592E-4   -7.332562581910260E-4   -7.700461285091332E-4   -7.327068193365868E-4    3.725755851504068E-1   -3.280681731664195E-1
 9.937467724924999E9     4.678465871483952E-1   -1.195337381583280E-1   -7.256750340052762E-4   -7.645216668766035E-4   -7.658646456462949E-4   -7.521185349233422E-4    3.722898505738988E-1   -3.282886350618092E-1
 9.937469827150000E9     4.678553761631674E-1   -1.197290870977511E-1   -7.700482074058244E-4   -7.691973891840366E-4   -7.933907872577626E-4   -7.604705645315993E-4    3.721969468177295E-1   -3.283543955256140E-1
 9.937471929375000E9     4.676662110566888E-1   -1.197417014464183E-1   -8.040451503073461E-4   -7.857083911233527E-4   -7.894695191285052E-4   -7.690054660668993E-4    3.719786933808280E-1   -3.286685799078564E-1
 9.937474031600000E9     4.675935445736482E-1   -1.199550173221470E-1   -7.876692064541546E-4   -7.448697871463437E-4   -7.730242599354243E-4   -7.861882881808091E-4    3.717229738194273E-1   -3.287112956487143E-1
 9.937476133825001E9     4.677509316176875E-1   -1.200290330973373E-1   -7.709333579293365E-4   -8.135216220433911E-4   -7.847405201676705E-4   -8.024073222356058E-4    3.716323353413124E-1   -3.288594936150098E-1
 9.937478236049999E9     4.675664357779761E-1   -1.203626058317763E-1   -8.143969197380749E-4   -8.196719823903909E-4   -8.041137937797433E-4   -8.130087742969249E-4    3.713021047300671E-1   -3.290657481137592E-1
 9.937480338275000E9     4.674415748069690E-1   -1.204730457235389E-1   -7.949440119182411E-4   -8.145852514945800E-4   -8.409217440685199E-4   -8.089584853824181E-4    3.712147065980185E-1   -3.294216168935951E-1
 9.937482440500000E9     4.674855206787756E-1   -1.205366345135268E-1   -8.204098475605777E-4   -8.294905877723804E-4   -8.371115035417923E-4   -8.039526587043181E-4    3.709552250270466E-1   -3.294226180767234E-1
 9.937484542725000E9     4.673966011881447E-1   -1.206430745177160E-1   -8.282575599430275E-4   -8.018128372440442E-4   -8.800179699054054E-4   -8.554173518603190E-4    3.707530530126225E-1   -3.296868336780659E-1
 9.937486644950001E9     4.673849050563824E-1   -1.207486704157328E-1   -8.381558866633820E-4   -8.499495651406768E-4   -8.881594559929562E-4   -8.433708806967672E-4    3.706094438395652E-1   -3.297988409988918E-1
 9.937488747174999E9     4.674618178570547E-1   -1.210527195703019E-1   -8.794644845965768E-4   -8.396773924675029E-4   -8.704315358110439E-4   -8.338896342866425E-4    3.702888198715259E-1   -3.302567199631505E-1
 9.937490849400000E9     4.672991673834477E-1   -1.211194574385206E-1   -8.823182021340962E-4   -8.487585844621030E-4   -8.913102496077595E-4   -8.693094520045493E-4    3.702538949498030E-1   -3.302301421292602E-1
 9.937492951625000E9     4.672931680493399E-1   -1.213071764807448E-1   -8.572849335090335E-4   -9.144050456416133E-4   -9.529817995066796E-4   -9.081945823402299E-4    3.699279321103731E-1   -3.304625959866369E-1
 9.937495053850000E9     4.670920192953229E-1   -1.213259650192510E-1   -8.698774272518251E-4   -9.125985938890906E-4   -9.323513316315945E-4   -9.112679519412857E-4    3.697946360622982E-1   -3.305817160525579E-1
 9.937497156075001E9     4.670867147823990E-1   -1.215547453362893E-1   -8.920413398582998E-4   -9.060936396419945E-4   -9.548298065457866E-4   -8.955664997774795E-4    3.694089914874715E-1   -3.305574290162617E-1
 9.937499258299999E9     4.671239160115166E-1   -1.217596385438186E-1   -9.272745835572734E-4   -9.238772545435955E-4   -9.502466951846427E-4   -9.098364227482158E-4    3.691969755408279E-1   -3.311182364920586E-1
 9.937501360525000E9     4.671429826684508E-1   -1.219169301534393E-1   -9.596943993159998E-4   -9.420125512213937E-4   -9.689481643467193E-4   -9.348207573470890E-4    3.689795331458592E-1   -3.310524428955358E-1
 9.937503462750000E9     4.670176552724392E-1   -1.219380239538020E-1   -9.216304606778237E-4   -9.570716632353954E-4   -9.288721682529642E-4   -9.282853179294650E-4    3.689010000737758E-1   -3.312721602262330E-1
 9.937505564975000E9     4.669343344272734E-1   -1.221451350162920E-1   -9.454329052628944E-4   -9.714326181254809E-4   -1.005720349777210E-3   -9.403822777756284E-4    3.685028408167861E-1   -3.313135121436950E-1
 9.937507667200001E9     4.669904174263176E-1   -1.222106102536066E-1   -9.536882206221964E-4   -9.592830695410641E-4   -9.875082518353701E-4   -9.716571447581544E-4    3.682826198585122E-1   -3.316730286965251E-1
 9.937509769424999E9     4.667776323973635E-1   -1.223797270791850E-1   -1.002298825371298E-3   -9.556776995647466E-4   -1.008590146296988E-3   -9.507433236691276E-4    3.681553063857652E-1   -3.317158030546932E-1
 9.937511871650000E9     4.667735318349362E-1   -1.225075043410161E-1   -1.039871299654522E-3   -1.002955074630688E-3   -1.035171655370826E-3   -9.719499928063221E-4    3.679429265683011E-1   -3.319540388964556E-1
 9.937513973875000E9     4.667819636745058E-1   -1.225914408919495E-1   -1.020369708359661E-3   -9.855865465669953E-4   -1.040533552922700E-3   -1.007475060674191E-3    3.677928178486861E-1   -3.319568586145481E-1
 9.937516076100000E9     4.667631033925638E-1   -1.227738410398270E-1   -1.050072886094021E-3   -1.008908559090835E-3   -1.050863989685724E-3   -9.903757378559054E-4    3.674657498966628E-1   -3.323731087827694E-1
 9.937518178325001E9     4.666659938964615E-1   -1.230885805579689E-1   -1.047937903712471E-3   -1.028174963595064E-3   -1.099928317089128E-3   -1.021633695991630E-3    3.673240179793347E-1   -3.323512764290010E-1
 9.937520280549999E9     4.666284450121309E-1   -1.230606993447388E-1   -1.044192843550712E-3   -1.005406225827836E-3   -1.089550665409526E-3   -1.066036304898671E-3    3.669112975419764E-1   -3.326711425358166E-1
 9.937522382775000E9     4.665329866672441E-1   -1.232693358129930E-1   -1.045395244973333E-3   -1.044251016773654E-3   -1.070759588463131E-3   -1.062409957335594E-3    3.667450498931258E-1   -3.328352744872641E-1
 9.937524485000000E9     4.665788985928366E-1   -1.234249652233770E-1   -1.102998722432363E-3   -1.047284960794674E-3   -1.114259371796887E-3   -1.076912893508648E-3    3.665602526281577E-1   -3.329272253796189E-1
 9.937526587225000E9     4.665353464595404E-1   -1.234896297781277E-1   -1.129570388751039E-3   -1.101778143144032E-3   -1.145953488203380E-3   -1.065039101496020E-3    3.663776142630926E-1   -3.331979285114289E-1
 9.937528689450001E9     4.664874358821382E-1   -1.237177683123704E-1   -1.117528877119551E-3   -1.090893311671642E-3   -1.182163366796625E-3   -1.096819417665154E-3    3.659881531651997E-1   -3.334819991438609E-1
 9.937530791674999E9     4.664103350927082E-1   -1.237749914621630E-1   -1.135471359140867E-3   -1.113798233563448E-3   -1.157481869620677E-3   -1.130405708763045E-3    3.656184341719845E-1   -3.336336728493320E-1
 9.937532893900000E9     4.661903322030949E-1   -1.239472960226697E-1   -1.169953790764375E-3   -1.059864086436801E-3   -1.196174895340093E-3   -1.129520224775666E-3    3.657152319451817E-1   -3.339837999041350E-1
 9.937534996125000E9     4.662846876834050E-1   -1.240082569737658E-1   -1.199113774372667E-3   -1.146553975086336E-3   -1.208756420445805E-3   -1.144981107583124E-3    3.653592379922778E-1   -3.338155280449605E-1
 9.937537098350000E9     4.662990664556541E-1   -1.243063057779182E-1   -1.186419469893361E-3   -1.162957125492736E-3   -1.227099605832697E-3   -1.128053969022687E-3    3.650176083431476E-1   -3.341719172638741E-1
 9.937539200575001E9     4.662037565465659E-1   -1.242767134265839E-1   -1.226745539683854E-3   -1.174713934035422E-3   -1.212934913393333E-3   -1.164053259520481E-3    3.647612214925895E-1   -3.342975682455713E-1
 9.937541302799999E9     4.661597183224674E-1   -1.243728414339255E-1   -1.218657904884023E-3   -1.150059560257943E-3   -1.252619641244717E-3   -1.157232381871763E-3    3.646314586225456E-1   -3.346839256624950E-1
 9.937543405025000E9     4.661391166332113E-1   -1.246844975813658E-1   -1.240061129298436E-3   -1.195521342706169E-3   -1.235730531388543E-3   -1.198038926650389E-3    3.642209020578071E-1   -3.347372975193706E-1
 9.937545507250000E9     4.661166242031114E-1   -1.248259883554420E-1   -1.202307581858036E-3   -1.218380016975793E-3   -1.265645895676312E-3   -1.172886452666303E-3    3.641815729303925E-1   -3.349264231568137E-1
 9.937547609475000E9     4.660344453339226E-1   -1.248194702101586E-1   -1.261700177864801E-3   -1.220047655132672E-3   -1.316958217036782E-3   -1.223092006103872E-3    3.637636867031583E-1   -3.352797436658794E-1
 9.937549711700001E9     4.659803537158871E-1   -1.252233812694096E-1   -1.274789515249315E-3   -1.244919544356728E-3   -1.355176135009978E-3   -1.233277475515792E-3    3.635302275798352E-1   -3.352924507138554E-1
 9.937551813924999E9     4.658957202289480E-1   -1.252181822624207E-1   -1.320161311548565E-3   -1.264916401094661E-3   -1.366134664324623E-3   -1.234110135893640E-3    3.633164823360372E-1   -3.355339174756198E-1
 9.937553916150000E9     4.657687638984708E-1   -1.253581798128250E-1   -1.330524141245996E-3   -1.246572485609908E-3   -1.354771094477271E-3   -1.252563608362293E-3    3.631352483278072E-1   -3.356776943100804E-1
 9.937556018375000E9     4.658421439288729E-1   -1.254528662630254E-1   -1.351473060452037E-3   -1.265508534211817E-3   -1.376239781740494E-3   -1.277189385324377E-3    3.626039576788411E-1   -3.360658761509653E-1
 9.937558120600000E9     4.658203640433238E-1   -1.255305780162545E-1   -1.358914322812741E-3   -1.326196016989172E-3   -1.393649895905840E-3   -1.285809100534020E-3    3.625510318983903E-1   -3.362975851492999E-1
 9.937560222825001E9     4.656359661691892E-1   -1.258310428335218E-1   -1.348433613691261E-3   -1.308321433385856E-3   -1.412280799499500E-3   -1.299534185118001E-3    3.621613472079285E-1   -3.362404698277880E-1
 9.937562325049999E9     4.656415472479328E-1   -1.259683717849189E-1   -1.406192821318925E-3   -1.327506082019313E-3   -1.450214715149881E-3   -1.292405273761792E-3    3.618508939368252E-1   -3.366172519653242E-1
 9.937564427275000E9     4.655249219214936E-1   -1.260514006042456E-1   -1.413427399569834E-3   -1.340819391750660E-3   -1.471557921121668E-3   -1.340108119359320E-3    3.615576614743546E-1   -3.369945251788226E-1
 9.937566529500000E9     4.656279959974039E-1   -1.260379193555243E-1   -1.454743865277275E-3   -1.347735350252641E-3   -1.477912824089125E-3   -1.324241483330462E-3    3.614991680271539E-1   -3.368305552253115E-1
 9.937568631725000E9     4.655093862415979E-1   -1.263845730842839E-1   -1.423856743973099E-3   -1.357207780417135E-3   -1.520808925202771E-3   -1.386674658031478E-3    3.609973178676552E-1   -3.370230339639697E-1
 9.937570733950001E9     4.655068930410269E-1   -1.266180885181759E-1   -1.461103200528184E-3   -1.403271621794177E-3   -1.541583325319240E-3   -1.393128608709316E-3    3.608769738545134E-1   -3.373770907583510E-1
 9.937572836174999E9     4.653208651371253E-1   -1.266539480397960E-1   -1.514470533152943E-3   -1.416603839980790E-3   -1.519874813400911E-3   -1.402090299727058E-3    3.605917843973631E-1   -3.375844539554927E-1
 9.937574938400000E9     4.654261882026064E-1   -1.268505780263303E-1   -1.523663967899771E-3   -1.433911200678951E-3   -1.585737987555444E-3   -1.426492093765244E-3    3.600387437181230E-1   -3.377145428612771E-1
 9.937577040625000E9     4.652616591699221E-1   -1.268362180688096E-1   -1.552689917266284E-3   -1.445952632628133E-3   -1.558465394703102E-3   -1.447994365200810E-3    3.599294945657613E-1   -3.379421071039586E-1
 9.937579142850000E9     4.652224636637275E-1   -1.272158946038456E-1   -1.565024051602181E-3   -1.449264796414339E-3   -1.614419005525534E-3   -1.458695562838887E-3    3.596564405988237E-1   -3.383444156948621E-1
 9.937581245075001E9     4.651913115069343E-1   -1.272338658589298E-1   -1.623151231641458E-3   -1.462494342444094E-3   -1.641962368844842E-3   -1.469809759181355E-3    3.593294377681150E-1   -3.383831031121191E-1
 9.937583347299999E9     4.652383329468504E-1   -1.273501624602521E-1   -1.612469590669952E-3   -1.500128013840181E-3   -1.654623214447312E-3   -1.497454671346614E-3    3.589733778701270E-1   -3.385704238591350E-1
 9.937585449525000E9     4.651079076366029E-1   -1.274569888287196E-1   -1.645158531623971E-3   -1.513225583006508E-3   -1.680941619125489E-3   -1.477979421468224E-3    3.587186140788143E-1   -3.387113551322741E-1
 9.937587551750000E9     4.650894895480844E-1   -1.275306514233956E-1   -1.674387623205024E-3   -1.500884969545701E-3   -1.707954062431084E-3   -1.519641562298109E-3    3.584224512658971E-1   -3.389590122443884E-1
 9.937589653975000E9     4.650060902097314E-1   -1.276455987582435E-1   -1.699298452514066E-3   -1.524842729585648E-3   -1.723726936733648E-3   -1.559156418978768E-3    3.579732336354785E-1   -3.394428102829230E-1
 9.937591756200001E9     4.650980033559751E-1   -1.277712758958204E-1   -1.678688970093467E-3   -1.567063539620067E-3   -1.740282217531999E-3   -1.589915661507539E-3    3.577010757530574E-1   -3.393843382251431E-1
 9.937593858424999E9     4.649937246632745E-1   -1.281099654948678E-1   -1.737827722557694E-3   -1.586870880264412E-3   -1.810330304349862E-3   -1.573219815865092E-3    3.573850095667859E-1   -3.397293133318549E-1
 9.937595960650000E9     4.649565390655692E-1   -1.280752364570172E-1   -1.773946433328132E-3   -1.620490864491145E-3   -1.817070931431956E-3   -1.613236577796718E-3    3.571441286480800E-1   -3.398696662180082E-1
 9.937598062875000E9     4.648879941626539E-1   -1.282736612428127E-1   -1.785198716934843E-3   -1.638971956677925E-3   -1.827286930265067E-3   -1.619088624963633E-3    3.567555900453314E-1   -3.400570749481922E-1
 9.937600165100000E9     4.648918427991895E-1   -1.283448019922433E-1   -1.800852514510964E-3   -1.629165404207416E-3   -1.876203632568758E-3   -1.662381392697120E-3    3.562950089964041E-1   -3.403090565238533E-1
 9.937602267325001E9     4.646286632976674E-1   -1.285887018882397E-1   -1.886987514258431E-3   -1.686545727472258E-3   -1.894185253928911E-3   -1.663963069812001E-3    3.560516102277477E-1   -3.404757104022640E-1
 9.937604369549999E9     4.646789403724743E-1   -1.286362823641322E-1   -1.879652220309663E-3   -1.692593003549367E-3   -1.939040436040602E-3   -1.685317469829705E-3    3.555229677189480E-1   -3.408400353993808E-1
 9.937606471775000E9     4.645101843594399E-1   -1.289780547991169E-1   -1.896029185984635E-3   -1.737854774159683E-3   -1.970891343925740E-3   -1.704054445697451E-3    3.553127396142780E-1   -3.410192314647374E-1
 9.937608574000000E9     4.645045721490931E-1   -1.288952430811047E-1   -1.908828434749170E-3   -1.777766493960953E-3   -1.987912165661948E-3   -1.734433676888874E-3    3.550241884924794E-1   -3.413140657334067E-1
 9.937610676225000E9     4.645808316510320E-1   -1.292035776963821E-1   -1.975155471654562E-3   -1.746452713254970E-3   -2.010146834311892E-3   -1.713161790865386E-3    3.548664738778426E-1   -3.413628962333777E-1
 9.937612778450001E9     4.643769972364046E-1   -1.292086092639531E-1   -1.990994319857354E-3   -1.757469247765636E-3   -2.043346753549590E-3   -1.747304668691605E-3    3.542806273147229E-1   -3.416549137574759E-1
 9.937614880674999E9     4.644605967574905E-1   -1.294271462274323E-1   -2.027881106312174E-3   -1.812644469653428E-3   -2.089778615036760E-3   -1.779896526528129E-3    3.540319545505133E-1   -3.419770469888349E-1
 9.937616982900000E9     4.643240955784765E-1   -1.295474901663529E-1   -2.067836482257503E-3   -1.822343728289840E-3   -2.099352342392836E-3   -1.798021257735354E-3    3.536693612950963E-1   -3.421607752087202E-1
 9.937619085125000E9     4.644099462182906E-1   -1.296799565243522E-1   -2.106584933215805E-3   -1.813914221223670E-3   -2.125080220516901E-3   -1.818709925727777E-3    3.531925918565603E-1   -3.422734572300952E-1
 9.937621187350000E9     4.643947573683109E-1   -1.299458691074236E-1   -2.113695146941273E-3   -1.839036281327708E-3   -2.152840019470089E-3   -1.849531333650820E-3    3.527083944179236E-1   -3.425454346369950E-1
 9.937623289575001E9     4.642570022786842E-1   -1.300170480437354E-1   -2.149250998158042E-3   -1.873187105516171E-3   -2.213850365263690E-3   -1.881069883626978E-3    3.523136544005570E-1   -3.427949190144661E-1
 9.937625391799999E9     4.642746552740271E-1   -1.299740678567624E-1   -2.196506209932326E-3   -1.893851828751325E-3   -2.201524118686917E-3   -1.874382433841534E-3    3.520522231676281E-1   -3.428501099644141E-1
 9.937627494025000E9     4.641130050564631E-1   -1.302395789527253E-1   -2.229767454935107E-3   -1.906327085648078E-3   -2.264630158206909E-3   -1.929581802701199E-3    3.514938915404431E-1   -3.431486944214087E-1
 9.937629596250000E9     4.642004262328910E-1   -1.303724134534419E-1   -2.267334700127663E-3   -1.944890224723164E-3   -2.335889260527634E-3   -1.929833385094014E-3    3.508731357722596E-1   -3.434859319514511E-1
