#  HZ   S   RI   R     50.00 
! Rohde & Schwarz Vector Network Analyzer 
! Rohde-Schwarz,ZNB20-2Port,1311601062101988,3.16
! Created: UTC 3/20/2024, 11:14:23 PM
! freq[Hz]                re:S11                  im:S11                  re:S21                  im:S21                  re:S12                  im:S12                  re:S22                  im:S22
 9.937451015000000E9     4.682694628044280E-1   -1.183777566232673E-1   -6.214297799096765E-4   -6.410720020240298E-4   -6.465386960503144E-4   -6.748204447942951E-4    3.740712475901207E-1   -3.270644838080626E-1
 9.937453080174999E9     4.681395955449641E-1   -1.184925374634235E-1   -6.495511581444163E-4   -6.548253977928620E-4   -6.467773905088622E-4   -6.558223365656091E-4    3.740153906181345E-1   -3.271120275685022E-1
 9.937455145350000E9     4.681466717723750E-1   -1.186440895322649E-1   -6.396420723656002E-4   -7.174131743261552E-4   -6.796213964249790E-4   -6.955662602530443E-4    3.736511321426639E-1   -3.271465848648469E-1
 9.937457210525000E9     4.680748990945768E-1   -1.188470924030888E-1   -6.668567061298408E-4   -6.681458846444742E-4   -6.949784572704969E-4   -6.624959279762574E-4    3.735516127210688E-1   -3.274484841784708E-1
 9.937459275700001E9     4.680472671895951E-1   -1.187944107266510E-1   -6.775482386126202E-4   -6.857788583080949E-4   -7.170574543380882E-4   -7.057459332086372E-4    3.732493132071282E-1   -3.274919237725931E-1
 9.937461340875000E9     4.680986565431934E-1   -1.191691673691058E-1   -6.822111460530906E-4   -6.992559327709805E-4   -7.050952662844156E-4   -6.905299812213068E-4    3.732813611712398E-1   -3.275875656904947E-1
 9.937463406049999E9     4.679670134289854E-1   -1.190999403202057E-1   -6.772924811999421E-4   -7.006520850425547E-4   -7.005485263246351E-4   -7.324425864069813E-4    3.729702688695707E-1   -3.277183760904037E-1
 9.937465471225000E9     4.678770621224999E-1   -1.194071116412961E-1   -6.999621526069110E-4   -7.441052455219730E-4   -7.270299729837732E-4   -7.215316474287696E-4    3.729427767641502E-1   -3.280124397399186E-1
 9.937467536400000E9     4.677273826735086E-1   -1.193957911610489E-1   -6.876593368153955E-4   -6.970379838386033E-4   -7.419306896144698E-4   -7.265760572839919E-4    3.725375477232118E-1   -3.281048117906351E-1
 9.937469601575001E9     4.677913607364154E-1   -1.197282617800021E-1   -7.435122691198494E-4   -7.469345258509321E-4   -7.058339936833605E-4   -7.651846240791831E-4    3.724032757538228E-1   -3.282208221800045E-1
 9.937471666750000E9     4.678694215526569E-1   -1.197743003681540E-1   -7.261693601721795E-4   -7.337257921108991E-4   -7.899142667729742E-4   -7.626012944015094E-4    3.721414603061517E-1   -3.286743391934391E-1
 9.937473731924999E9     4.676204781964557E-1   -1.198920717061100E-1   -7.183528193378957E-4   -7.770409211927032E-4   -7.682764341360999E-4   -7.627031731518913E-4    3.720026921293965E-1   -3.287418529189449E-1
 9.937475797100000E9     4.676262458313615E-1   -1.200386046421180E-1   -7.515951045955800E-4   -7.837136149428341E-4   -8.021330526908294E-4   -7.551599499172093E-4    3.719024072035136E-1   -3.287283186172350E-1
 9.937477862275000E9     4.676320786657777E-1   -1.200526241827264E-1   -7.497192801422670E-4   -7.894442161490518E-4   -8.032277190154882E-4   -7.946108608901255E-4    3.716628859511004E-1   -3.289488799793341E-1
 9.937479927450001E9     4.675392548364282E-1   -1.204281694543950E-1   -7.902029488491482E-4   -7.759741702516865E-4   -7.893448954014781E-4   -8.060956594376394E-4    3.711912374944826E-1   -3.294880961642103E-1
 9.937481992625000E9     4.673921910159549E-1   -1.205378472546386E-1   -8.003671751415099E-4   -8.081060995231788E-4   -8.194641291445389E-4   -7.923132787541693E-4    3.713679467162672E-1   -3.294706980418298E-1
 9.937484057799999E9     4.674296706181972E-1   -1.206279145161445E-1   -7.492315496726600E-4   -8.152331574399108E-4   -8.323588267940563E-4   -8.549172865562040E-4    3.710233537886850E-1   -3.294536031805155E-1
 9.937486122975000E9     4.673962148916713E-1   -1.207508952643335E-1   -8.363047377046292E-4   -8.436972652269734E-4   -8.330536047080028E-4   -8.098004265726984E-4    3.709272795353057E-1   -3.297031727238822E-1
 9.937488188150000E9     4.673257278210485E-1   -1.209587665720147E-1   -8.241679425236569E-4   -8.273755628614200E-4   -8.272198396624183E-4   -8.401387819376640E-4    3.705148047762758E-1   -3.298814587615133E-1
 9.937490253325001E9     4.672551713623461E-1   -1.209833087011136E-1   -8.548262576459816E-4   -8.536770151517470E-4   -8.455661315158025E-4   -8.422094338463025E-4    3.703388840694486E-1   -3.299404275462790E-1
 9.937492318500000E9     4.672576381779465E-1   -1.211179478826673E-1   -8.704457251715357E-4   -8.709227914998553E-4   -8.521649818668849E-4   -8.511499188202359E-4    3.702450813435820E-1   -3.301249450487846E-1
 9.937494383674999E9     4.672541871046333E-1   -1.213123968890457E-1   -8.451928978625557E-4   -8.871457009462931E-4   -8.804111874813569E-4   -8.512157333723942E-4    3.699962891937026E-1   -3.303794199937530E-1
 9.937496448850000E9     4.671476915182863E-1   -1.213764807279721E-1   -8.963636145489167E-4   -8.675872875262520E-4   -8.912528989278201E-4   -8.635139932509947E-4    3.699151868528193E-1   -3.305388653835469E-1
 9.937498514025000E9     4.671196658683533E-1   -1.215582053782303E-1   -8.946548468588091E-4   -9.245151161468704E-4   -9.498335629164796E-4   -8.918723498081174E-4    3.696742561958997E-1   -3.306991690022861E-1
 9.937500579200001E9     4.672094306452812E-1   -1.216346998991069E-1   -8.980840400268594E-4   -9.146825651106332E-4   -8.998002968425783E-4   -9.293861600239043E-4    3.695101263669148E-1   -3.309604161368884E-1
 9.937502644375000E9     4.669103126797209E-1   -1.218874469119920E-1   -9.298243722699962E-4   -9.328107851633698E-4   -9.256084517910620E-4   -8.814870867441822E-4    3.693907774384116E-1   -3.310577444007159E-1
 9.937504709549999E9     4.670840660330216E-1   -1.220289968977559E-1   -9.188259840162173E-4   -9.016885223579759E-4   -9.598288615238334E-4   -8.753148094278593E-4    3.687833470253975E-1   -3.312415661355949E-1
 9.937506774725000E9     4.669186312112197E-1   -1.221163434457259E-1   -9.106737119463085E-4   -9.288228745853481E-4   -9.898774285149428E-4   -9.357709552167788E-4    3.686598337304495E-1   -3.314685321441260E-1
 9.937508839900000E9     4.669935262610913E-1   -1.224355532638783E-1   -9.236359721528891E-4   -9.526180195747543E-4   -9.577415294839011E-4   -9.549407154296578E-4    3.684683664361725E-1   -3.315925900392654E-1
 9.937510905075001E9     4.669200824236627E-1   -1.223716213130865E-1   -9.471182277577144E-4   -9.597424685088184E-4   -9.861841471751928E-4   -9.601079125221110E-4    3.683913786762941E-1   -3.318084405376132E-1
 9.937512970250000E9     4.667326611432424E-1   -1.224766077670054E-1   -9.734582943822712E-4   -9.900253326056360E-4   -1.000161315029496E-3   -9.713577787860215E-4    3.680858801617233E-1   -3.319718030327561E-1
 9.937515035424999E9     4.669304579809533E-1   -1.226797574054578E-1   -9.940290869168919E-4   -9.805417110006088E-4   -1.042475180091652E-3   -9.567955570096986E-4    3.678213326631120E-1   -3.321199895357576E-1
 9.937517100600000E9     4.666555172342239E-1   -1.227787266458353E-1   -9.986926994348395E-4   -1.020189319435234E-3   -1.025306954927077E-3   -9.946790485942706E-4    3.677176381658858E-1   -3.323189753669695E-1
 9.937519165775000E9     4.667412783887209E-1   -1.229521070507878E-1   -1.020050493108747E-3   -1.009621922639058E-3   -1.009728241116955E-3   -1.022630589984197E-3    3.675011075935912E-1   -3.325290442436564E-1
 9.937521230950001E9     4.667191696260296E-1   -1.231398018148121E-1   -1.007133665344958E-3   -1.030332144786311E-3   -1.063372896822702E-3   -9.968954560994464E-4    3.671339877040490E-1   -3.325211961095831E-1
 9.937523296125000E9     4.665764274473543E-1   -1.232460806827848E-1   -1.043697456212247E-3   -1.030767035402739E-3   -1.090391196683018E-3   -1.016255575083166E-3    3.668355329348255E-1   -3.327921127104853E-1
 9.937525361299999E9     4.666335140849225E-1   -1.234926506318145E-1   -1.079755385111647E-3   -1.053514450988501E-3   -1.072696286169769E-3   -1.044948257017028E-3    3.667221533931564E-1   -3.330418841211458E-1
 9.937527426475000E9     4.664805110360526E-1   -1.235466144013374E-1   -1.077811919958630E-3   -1.049474206145736E-3   -1.070917863797883E-3   -1.066247204693450E-3    3.665663491127434E-1   -3.331628014005200E-1
 9.937529491650000E9     4.664533348617608E-1   -1.235518061759836E-1   -1.098242824113913E-3   -1.092081916758364E-3   -1.104768364282829E-3   -1.050697206601836E-3    3.663816674147938E-1   -3.334245813090399E-1
 9.937531556825001E9     4.662652799356464E-1   -1.237422061041385E-1   -1.117999296001755E-3   -1.080191422838404E-3   -1.124845785892418E-3   -1.071251896129344E-3    3.659618951990807E-1   -3.335674637115636E-1
 9.937533622000000E9     4.663032255343758E-1   -1.237857805086866E-1   -1.105928842621448E-3   -1.075635718022642E-3   -1.140361503605841E-3   -1.084115636875414E-3    3.658014368520345E-1   -3.338495861770761E-1
 9.937535687174999E9     4.663387291226040E-1   -1.240327463988881E-1   -1.150880555442314E-3   -1.114552691680263E-3   -1.168302006791668E-3   -1.114194277401343E-3    3.654412717668781E-1   -3.338934019076715E-1
 9.937537752350000E9     4.661799836772745E-1   -1.242182510859198E-1   -1.165592540851780E-3   -1.133249665880556E-3   -1.167271582366067E-3   -1.107400585166609E-3    3.652686235949447E-1   -3.339900566732902E-1
 9.937539817525000E9     4.662304635577387E-1   -1.242814984293824E-1   -1.181065563262922E-3   -1.128125415858216E-3   -1.203264782312937E-3   -1.156515291003963E-3    3.652351203856771E-1   -3.342791714251288E-1
 9.937541882700001E9     4.661669068817477E-1   -1.245925888560410E-1   -1.157978903460371E-3   -1.129441204093740E-3   -1.198223133340419E-3   -1.141603631574032E-3    3.647555327512206E-1   -3.344941619720157E-1
 9.937543947875000E9     4.661535922454682E-1   -1.246462417496291E-1   -1.195963578443759E-3   -1.192196614360886E-3   -1.228066195599106E-3   -1.178460547795856E-3    3.645374146277988E-1   -3.346968736237290E-1
 9.937546013049999E9     4.659779813634941E-1   -1.247389122377540E-1   -1.218034575504593E-3   -1.183071029169690E-3   -1.242328636838653E-3   -1.197930565155516E-3    3.642886143182472E-1   -3.348707254698446E-1
 9.937548078225000E9     4.660987273143858E-1   -1.248791637083925E-1   -1.213127615579868E-3   -1.198178642481450E-3   -1.261422609244886E-3   -1.176759151195495E-3    3.643653205825282E-1   -3.349908992613508E-1
 9.937550143400000E9     4.659695765800926E-1   -1.251291770595633E-1   -1.257537290662079E-3   -1.196261068371341E-3   -1.309270515728162E-3   -1.195779652317782E-3    3.638701599422376E-1   -3.350815006200802E-1
 9.937552208575001E9     4.660225417974506E-1   -1.250969768987237E-1   -1.263873098856234E-3   -1.219077283816737E-3   -1.317720335328674E-3   -1.212297960805118E-3    3.634839662269971E-1   -3.355491073041474E-1
 9.937554273750000E9     4.659907369843845E-1   -1.252683495009888E-1   -1.276560895657422E-3   -1.259094397028519E-3   -1.352869371095478E-3   -1.249883302092351E-3    3.634072690654450E-1   -3.356092344405889E-1
 9.937556338924999E9     4.657004402814248E-1   -1.256065046417557E-1   -1.293266178712262E-3   -1.270132029550143E-3   -1.321297965724138E-3   -1.253010127598874E-3    3.631896926613250E-1   -3.358216494695069E-1
 9.937558404100000E9     4.657693996195593E-1   -1.256313517570783E-1   -1.318393120645904E-3   -1.302928440751826E-3   -1.345705518599137E-3   -1.260133184579859E-3    3.628402454251494E-1   -3.361392997979720E-1
 9.937560469275000E9     4.658514716350510E-1   -1.258963410427223E-1   -1.356494521031302E-3   -1.242738291617889E-3   -1.369433458309297E-3   -1.295112065460173E-3    3.625581391891703E-1   -3.359876234330896E-1
 9.937562534450001E9     4.655881454486457E-1   -1.258652887807845E-1   -1.373202307815319E-3   -1.285168980406231E-3   -1.414318184542607E-3   -1.314872356459710E-3    3.621748207931659E-1   -3.366333865339021E-1
 9.937564599625000E9     4.657218686084416E-1   -1.260385611504712E-1   -1.353797967572387E-3   -1.296045740226935E-3   -1.415402687638964E-3   -1.307357933787110E-3    3.622545666424818E-1   -3.366635019969731E-1
 9.937566664799999E9     4.655726855560513E-1   -1.261827754961554E-1   -1.408283176149127E-3   -1.356808230429063E-3   -1.437646502394401E-3   -1.310762460985414E-3    3.617079071187573E-1   -3.368666633139223E-1
 9.937568729975000E9     4.655424294711790E-1   -1.262340277266105E-1   -1.412075053099955E-3   -1.378979698154854E-3   -1.423838575566535E-3   -1.353107441624017E-3    3.613896797552983E-1   -3.370162090022336E-1
 9.937570795150000E9     4.655424443115156E-1   -1.264369336936560E-1   -1.417650824123270E-3   -1.385330998758537E-3   -1.491930579295298E-3   -1.373291483792437E-3    3.613258655945177E-1   -3.371145466578810E-1
 9.937572860325001E9     4.654300744521901E-1   -1.264910101449868E-1   -1.445879593019732E-3   -1.360717803107294E-3   -1.493121277233588E-3   -1.377275005648070E-3    3.610276507439883E-1   -3.373761379333312E-1
 9.937574925500000E9     4.654730778379465E-1   -1.267759204811506E-1   -1.471991399391863E-3   -1.397127317562357E-3   -1.505574329015486E-3   -1.404878156036121E-3    3.604955928942490E-1   -3.375471796575387E-1
 9.937576990674999E9     4.653580076967749E-1   -1.268785975929391E-1   -1.520585001297606E-3   -1.436826003773875E-3   -1.549090968346322E-3   -1.418274197780085E-3    3.603153467519277E-1   -3.379055188972338E-1
 9.937579055850000E9     4.653797978019315E-1   -1.270301183975263E-1   -1.503392356194337E-3   -1.421796645014233E-3   -1.563219989598305E-3   -1.418616027395697E-3    3.601142825560614E-1   -3.379967226791311E-1
 9.937581121025000E9     4.653418466835402E-1   -1.270786840146996E-1   -1.543764895801105E-3   -1.428006043927250E-3   -1.574468421005626E-3   -1.440440337585546E-3    3.597653624418726E-1   -3.382741510960672E-1
 9.937583186200001E9     4.651489955077468E-1   -1.271639253628525E-1   -1.559039519144883E-3   -1.462111954730754E-3   -1.607241526191694E-3   -1.444545855891233E-3    3.594589062498043E-1   -3.385000812554559E-1
 9.937585251375000E9     4.651834538974859E-1   -1.274274515869586E-1   -1.580886007084478E-3   -1.484630584546409E-3   -1.639524552284851E-3   -1.482162958388051E-3    3.592492352222488E-1   -3.387762563169111E-1
 9.937587316549999E9     4.651760968659605E-1   -1.276679751807013E-1   -1.611549723322397E-3   -1.495094682677164E-3   -1.648823742987039E-3   -1.498352525717460E-3    3.589183458593831E-1   -3.387401248948829E-1
 9.937589381725000E9     4.649137417119407E-1   -1.277221777017190E-1   -1.623262045932457E-3   -1.549930365626871E-3   -1.702839247407794E-3   -1.539116545269915E-3    3.584552270467580E-1   -3.390893825445349E-1
 9.937591446900000E9     4.648572118646779E-1   -1.278058289691599E-1   -1.672205300659599E-3   -1.529019507039726E-3   -1.686921556896250E-3   -1.522413898261145E-3    3.582454667898702E-1   -3.393887491628163E-1
 9.937593512075001E9     4.649233776316654E-1   -1.279041100140186E-1   -1.682234465763387E-3   -1.548645430916502E-3   -1.719941006152804E-3   -1.530324314783233E-3    3.580597978614757E-1   -3.395037518552338E-1
 9.937595577250000E9     4.649297680675013E-1   -1.281590416473676E-1   -1.716344140339802E-3   -1.578017125113219E-3   -1.756455697837844E-3   -1.578007165673898E-3    3.573645321913613E-1   -3.398103985275883E-1
 9.937597642424999E9     4.649205137148300E-1   -1.281915420714333E-1   -1.706107054751156E-3   -1.610062256713281E-3   -1.793854864563442E-3   -1.572835713681820E-3    3.573160341164480E-1   -3.400050580687068E-1
 9.937599707600000E9     4.647536774685448E-1   -1.284206189011309E-1   -1.746992106212408E-3   -1.645386646591622E-3   -1.795501545281269E-3   -1.562895500846396E-3    3.567148215300707E-1   -3.400774056932814E-1
 9.937601772775000E9     4.648010490640290E-1   -1.285091306810229E-1   -1.786204599028128E-3   -1.641310781635333E-3   -1.842645915415325E-3   -1.659594591657861E-3    3.565253321092793E-1   -3.402233797867388E-1
 9.937603837950001E9     4.647246617681118E-1   -1.286046322609395E-1   -1.777723565631889E-3   -1.624944762546678E-3   -1.866691611548020E-3   -1.634454660457954E-3    3.560863844245130E-1   -3.405823586746257E-1
 9.937605903125000E9     4.647034973606122E-1   -1.288596115020409E-1   -1.839683105748676E-3   -1.668634316843660E-3   -1.927573001266449E-3   -1.660736374213163E-3    3.557999069097632E-1   -3.406196438480991E-1
 9.937607968299999E9     4.646658164956085E-1   -1.288892619072736E-1   -1.845286159221795E-3   -1.684856161490272E-3   -1.908511708325669E-3   -1.670154500030878E-3    3.556074859170898E-1   -3.409984551262209E-1
 9.937610033475000E9     4.646896463570716E-1   -1.290322132801008E-1   -1.868761803443048E-3   -1.696489845551240E-3   -1.936335343159105E-3   -1.701182682309106E-3    3.552657561863316E-1   -3.411785128816067E-1
 9.937612098650000E9     4.645674553745452E-1   -1.292675789119044E-1   -1.911190802282606E-3   -1.753500806837074E-3   -1.948163728401143E-3   -1.702175540785607E-3    3.549719299943177E-1   -3.412740129846103E-1
 9.937614163825001E9     4.644097179018796E-1   -1.294394512109390E-1   -1.966185983087046E-3   -1.765508571862121E-3   -1.993092894430224E-3   -1.724556655757561E-3    3.546106073016429E-1   -3.415067321595328E-1
 9.937616229000000E9     4.644178209170134E-1   -1.295661700171466E-1   -1.991944630067886E-3   -1.790677075339370E-3   -2.041528688672792E-3   -1.790782167410512E-3    3.541803972948930E-1   -3.418932858558524E-1
 9.937618294174999E9     4.643466387607986E-1   -1.296031937220132E-1   -2.009931163708517E-3   -1.755442203088708E-3   -2.084579377481324E-3   -1.785909320714879E-3    3.536552715872660E-1   -3.419053335598170E-1
 9.937620359350000E9     4.643577434851796E-1   -1.298354806452816E-1   -2.038043920164864E-3   -1.821722572204764E-3   -2.094659390466261E-3   -1.828801805895314E-3    3.535061598387605E-1   -3.424271141970299E-1
 9.937622424525000E9     4.642208098543381E-1   -1.297957287990584E-1   -2.096222535302976E-3   -1.818478294817312E-3   -2.112058305767442E-3   -1.811973074619899E-3    3.532195288632016E-1   -3.425249741220722E-1
 9.937624489700001E9     4.642146841132766E-1   -1.299482514865646E-1   -2.090185023419763E-3   -1.835578570015591E-3   -2.175449035325824E-3   -1.869001064840245E-3    3.526966936912874E-1   -3.427841554384990E-1
 9.937626554875000E9     4.641270818860129E-1   -1.301683498111415E-1   -2.123970123031553E-3   -1.849323705750499E-3   -2.176723430170414E-3   -1.863594385025615E-3    3.524647783496049E-1   -3.429969103890896E-1
 9.937628620049999E9     4.641626517660530E-1   -1.303509241434165E-1   -2.146217516004344E-3   -1.886138275393504E-3   -2.243255548068862E-3   -1.898750216271676E-3    3.518164288260864E-1   -3.432503135898843E-1
 9.937630685225000E9     4.640680873925288E-1   -1.304281913656797E-1   -2.193234213459491E-3   -1.929344369278422E-3   -2.268332318278684E-3   -1.902268407428955E-3    3.514377976309306E-1   -3.434929283631385E-1
 9.937632750400000E9     4.640241033244225E-1   -1.307031546342582E-1   -2.221884566796398E-3   -1.941905363480722E-3   -2.322641274378855E-3   -1.931257697750758E-3    3.511265154855977E-1   -3.437314451151832E-1
 9.937634815575001E9     4.639576642287911E-1   -1.307023681073084E-1   -2.251161471543186E-3   -1.926004228373006E-3   -2.335194818251263E-3   -1.931313724617364E-3    3.506561768321888E-1   -3.439015815567293E-1
 9.937636880750000E9     4.637531248255780E-1   -1.309533661229975E-1   -2.288989637548670E-3   -2.029441949060914E-3   -2.375735103901599E-3   -1.969755816862796E-3    3.504580414145873E-1   -3.442333498444748E-1
