#  HZ   S   RI   R     50.00 
! Rohde & Schwarz Vector Network Analyzer 
! Rohde-Schwarz,ZNB20-2Port,1311601062101988,3.16
! Created: UTC 3/20/2024, 10:54:14 PM
! freq[Hz]                re:S11                  im:S11                  re:S21                  im:S21                  re:S12                  im:S12                  re:S22                  im:S22
 9.937670208000000E9     4.637790715953381E-1   -1.305200120480126E-1   -2.247042484871639E-3   -2.536162056072325E-3   -2.315846916158681E-3   -2.560113460373529E-3    3.563870037788269E-1   -3.418984680845841E-1
 9.937671252375000E9     4.636842356390635E-1   -1.304687477097360E-1   -2.276720214824700E-3   -2.584519141260522E-3   -2.320936949784796E-3   -2.572841892777390E-3    3.562321013676367E-1   -3.421808411538211E-1
 9.937672296750000E9     4.636168460217036E-1   -1.305631592494175E-1   -2.275939613104191E-3   -2.590631620985861E-3   -2.334924772262428E-3   -2.601591410464390E-3    3.558044477998542E-1   -3.423492837250199E-1
 9.937673341125000E9     4.636305442088067E-1   -1.305173115976563E-1   -2.300169467249113E-3   -2.568775273846600E-3   -2.397815900038640E-3   -2.570156175330425E-3    3.558143522072417E-1   -3.424389617981413E-1
 9.937674385500000E9     4.637430266820234E-1   -1.307419687783338E-1   -2.309852952872582E-3   -2.613979765881189E-3   -2.349004430590280E-3   -2.614952615770025E-3    3.555452657823779E-1   -3.426303660582264E-1
 9.937675429875000E9     4.636712459368303E-1   -1.306477575482300E-1   -2.345972298108024E-3   -2.612782219194790E-3   -2.395404945052117E-3   -2.618349908756637E-3    3.552769971202629E-1   -3.429215705778331E-1
 9.937676474250000E9     4.635454905882239E-1   -1.307629493519279E-1   -2.330133215425988E-3   -2.625587352180455E-3   -2.418629860539295E-3   -2.653322045974638E-3    3.549885243729913E-1   -3.430849230673737E-1
 9.937677518625000E9     4.635557268874683E-1   -1.309455343605564E-1   -2.386879277422898E-3   -2.659309342355566E-3   -2.451303906990011E-3   -2.684971673621319E-3    3.546648316302293E-1   -3.431559341201877E-1
 9.937678563000000E9     4.635531427794836E-1   -1.308970479316890E-1   -2.375872378526108E-3   -2.689130990856276E-3   -2.500661781718501E-3   -2.715651617080801E-3    3.545815274575987E-1   -3.431830193948993E-1
 9.937679607375000E9     4.636216427058856E-1   -1.309562861006622E-1   -2.436688070966876E-3   -2.717768489014926E-3   -2.460429231239054E-3   -2.706863314962869E-3    3.544592384871963E-1   -3.434765961996507E-1
 9.937680651750000E9     4.633832914157934E-1   -1.310406760417005E-1   -2.439026325217656E-3   -2.722900378572190E-3   -2.520207887199879E-3   -2.713155911112858E-3    3.539852834032425E-1   -3.435793827061612E-1
 9.937681696125000E9     4.635715883146045E-1   -1.310266755628954E-1   -2.432650866190369E-3   -2.746933654322678E-3   -2.540450892488390E-3   -2.765453637259339E-3    3.539349893240462E-1   -3.437530617548257E-1
 9.937682740500000E9     4.634572473577644E-1   -1.311804842959857E-1   -2.461580723836171E-3   -2.740588223380189E-3   -2.540545189145857E-3   -2.755149203733382E-3    3.534489389379894E-1   -3.440614410632222E-1
 9.937683784875000E9     4.634174830433940E-1   -1.313717438651526E-1   -2.497112159874128E-3   -2.798877188143109E-3   -2.549600742813692E-3   -2.809105759068130E-3    3.533446401741401E-1   -3.441748463890924E-1
 9.937684829250000E9     4.633521867958719E-1   -1.314862356199366E-1   -2.506580127751473E-3   -2.797265016733180E-3   -2.613902702707960E-3   -2.802183293547418E-3    3.531232337081650E-1   -3.443996225144748E-1
 9.937685873625000E9     4.633874099558112E-1   -1.314475963735779E-1   -2.537547640648450E-3   -2.814386071982313E-3   -2.611098359931796E-3   -2.862562696704987E-3    3.527716708388071E-1   -3.444871939637867E-1
 9.937686918000000E9     4.633572461529147E-1   -1.315180931554374E-1   -2.549836019840868E-3   -2.819635054705380E-3   -2.630814700407907E-3   -2.851090718982274E-3    3.525241493438671E-1   -3.445233425527950E-1
 9.937687962375000E9     4.633174899613154E-1   -1.316207263497060E-1   -2.594939916887831E-3   -2.863314138930737E-3   -2.655574859846209E-3   -2.862677045731880E-3    3.521078655986711E-1   -3.450062138106584E-1
 9.937689006750000E9     4.633443831152370E-1   -1.316218095480325E-1   -2.596312829498314E-3   -2.873700517716508E-3   -2.714581312743093E-3   -2.882495163626994E-3    3.521720365511895E-1   -3.452415378854061E-1
 9.937690051125000E9     4.631752556671279E-1   -1.317517522441278E-1   -2.610888814621088E-3   -2.920764403318579E-3   -2.707202660516419E-3   -2.909410616940911E-3    3.517727216956623E-1   -3.452782739124444E-1
 9.937691095500000E9     4.631868755390428E-1   -1.318667147987607E-1   -2.644679793811380E-3   -2.906622599159276E-3   -2.736484981169180E-3   -2.946228626748783E-3    3.515441631999032E-1   -3.454322700817520E-1
 9.937692139875000E9     4.632516376291684E-1   -1.317943084504379E-1   -2.646252982210186E-3   -2.937729493404088E-3   -2.780045552622788E-3   -2.953957104699440E-3    3.511432932509952E-1   -3.455285564678313E-1
 9.937693184250000E9     4.631476021395983E-1   -1.319388904425731E-1   -2.686411534080261E-3   -2.978824680056536E-3   -2.763317056930292E-3   -2.990169001072116E-3    3.510052864974567E-1   -3.459103071420661E-1
 9.937694228625000E9     4.630733455581050E-1   -1.320608340480783E-1   -2.718001813781581E-3   -2.995369881719922E-3   -2.819841783383954E-3   -2.992854595899451E-3    3.504757805811328E-1   -3.460044039684585E-1
 9.937695273000000E9     4.631176153657796E-1   -1.321535491304091E-1   -2.787836748562901E-3   -2.997521482562050E-3   -2.854717540202306E-3   -2.996683143114015E-3    3.505986751105684E-1   -3.460663021005358E-1
 9.937696317375000E9     4.631618583718297E-1   -1.322320235470758E-1   -2.807091143407380E-3   -3.025765723143497E-3   -2.860946502075068E-3   -3.017716110636380E-3    3.500495536130245E-1   -3.464677342963994E-1
 9.937697361750000E9     4.630576611024297E-1   -1.322856737420569E-1   -2.810629529396206E-3   -3.054543513506578E-3   -2.901352050681020E-3   -3.086789689764817E-3    3.499707225818783E-1   -3.466589685951277E-1
 9.937698406125000E9     4.629763563039916E-1   -1.324263039676767E-1   -2.806685849643279E-3   -3.053884696246176E-3   -2.919967212549739E-3   -3.089117255737206E-3    3.495624631239684E-1   -3.467456001856855E-1
 9.937699450500000E9     4.629755299493304E-1   -1.323559926562441E-1   -2.837188509492249E-3   -3.090404957511715E-3   -2.914843099167715E-3   -3.092198503173923E-3    3.492732913725637E-1   -3.470247002451885E-1
 9.937700494875000E9     4.629364162113732E-1   -1.324206491851300E-1   -2.891791059074003E-3   -3.092608112113737E-3   -2.974494632034333E-3   -3.130158477170042E-3    3.489087106693632E-1   -3.473457216610695E-1
 9.937701539250000E9     4.629529469063642E-1   -1.326128877060781E-1   -2.932282319403039E-3   -3.147793164573302E-3   -3.009592160478390E-3   -3.158684453667429E-3    3.488337295559436E-1   -3.473239088146072E-1
 9.937702583625000E9     4.629730608917578E-1   -1.326519663895365E-1   -2.942130572987748E-3   -3.187296235959167E-3   -3.027441101112531E-3   -3.176426616270944E-3    3.482755068395298E-1   -3.475659546493610E-1
 9.937703628000000E9     4.629020499717868E-1   -1.327465388273224E-1   -2.949984870457253E-3   -3.197158122810696E-3   -3.057783954867084E-3   -3.199409025011409E-3    3.482083629316185E-1   -3.477031359613572E-1
 9.937704672375000E9     4.628955272180454E-1   -1.326260093632282E-1   -2.973180474709220E-3   -3.174565471988966E-3   -3.083391873282394E-3   -3.228162336784393E-3    3.476235775350384E-1   -3.478538201522405E-1
 9.937705716750000E9     4.628691546475140E-1   -1.327626231021439E-1   -3.024285894513754E-3   -3.223068538740972E-3   -3.102309396854728E-3   -3.244701521190474E-3    3.475408016234481E-1   -3.482573533163440E-1
 9.937706761125000E9     4.627662010760454E-1   -1.328746699535464E-1   -3.027327371240144E-3   -3.244655099896514E-3   -3.154594622912374E-3   -3.254748298028826E-3    3.472735539081378E-1   -3.484648459083050E-1
 9.937707805500000E9     4.627650870248681E-1   -1.330067578823650E-1   -3.057944225823741E-3   -3.294250214958670E-3   -3.189208681014763E-3   -3.332251476639796E-3    3.466891659243695E-1   -3.487951050600201E-1
 9.937708849875000E9     4.628428131020251E-1   -1.331140780641301E-1   -3.118450142064028E-3   -3.326494814375758E-3   -3.185968026162907E-3   -3.307332001310246E-3    3.464432221578428E-1   -3.488095394233695E-1
 9.937709894250000E9     4.626054551753804E-1   -1.330739629254289E-1   -3.108691574243030E-3   -3.349835903075021E-3   -3.213657474182737E-3   -3.355097559956487E-3    3.461790353063179E-1   -3.492659991718387E-1
 9.937710938625000E9     4.627085265331221E-1   -1.332025632170358E-1   -3.167970194784186E-3   -3.338040771142298E-3   -3.241895409787428E-3   -3.366317908852632E-3    3.457953961729089E-1   -3.494193150760380E-1
 9.937711983000000E9     4.625866852591422E-1   -1.332278385799933E-1   -3.184115878215667E-3   -3.372914098154997E-3   -3.311153211908237E-3   -3.403146927277409E-3    3.456126219351158E-1   -3.495863318040021E-1
 9.937713027375000E9     4.627440039606643E-1   -1.333467111559032E-1   -3.245263375365448E-3   -3.414484245549349E-3   -3.346859279645866E-3   -3.412515013779910E-3    3.452245382141133E-1   -3.495167850495073E-1
 9.937714071750000E9     4.625958006658010E-1   -1.333793495744310E-1   -3.269564109847441E-3   -3.437762546563177E-3   -3.357070788393643E-3   -3.451778053860037E-3    3.446497892155665E-1   -3.499877541273452E-1
 9.937715116125000E9     4.625663022631246E-1   -1.334715429080109E-1   -3.266557893330429E-3   -3.441262759023215E-3   -3.376478353766547E-3   -3.476485796630773E-3    3.445534719951768E-1   -3.501382192704264E-1
 9.937716160500000E9     4.626567269159554E-1   -1.335739671357729E-1   -3.354893688541041E-3   -3.475739118440554E-3   -3.431439889846497E-3   -3.540436946324206E-3    3.441711891490481E-1   -3.504442937742190E-1
 9.937717204875000E9     4.626175309422473E-1   -1.336564707659330E-1   -3.305294163869050E-3   -3.544465710672705E-3   -3.492241252554677E-3   -3.531436810928081E-3    3.437135120326069E-1   -3.506045246607529E-1
 9.937718249250000E9     4.624539600666932E-1   -1.336622122379281E-1   -3.369998203296469E-3   -3.551847453594948E-3   -3.514485972857918E-3   -3.596664964963692E-3    3.433605947618456E-1   -3.508549578240535E-1
 9.937719293625000E9     4.624905637132183E-1   -1.337951631795641E-1   -3.412783446888703E-3   -3.552923828180484E-3   -3.552716441735272E-3   -3.583549149886291E-3    3.431620346293935E-1   -3.512581163381519E-1
 9.937720338000000E9     4.625235390780059E-1   -1.338358032582141E-1   -3.424354884295959E-3   -3.571372869192881E-3   -3.598690383246177E-3   -3.621065806265164E-3    3.427419753979669E-1   -3.512630140233108E-1
 9.937721382375000E9     4.623846699359178E-1   -1.340232924655841E-1   -3.494286274178162E-3   -3.617371846104275E-3   -3.601824832704490E-3   -3.664696818867866E-3    3.424444096400516E-1   -3.516457422446126E-1
 9.937722426750000E9     4.624602151598648E-1   -1.340167780492462E-1   -3.552943297103430E-3   -3.650286986611239E-3   -3.655930323270541E-3   -3.685291225229561E-3    3.419168785720616E-1   -3.518343049087040E-1
 9.937723471125000E9     4.623887800702563E-1   -1.340029426672721E-1   -3.558951303803136E-3   -3.679320913391392E-3   -3.678312388242923E-3   -3.716347656279134E-3    3.415833460023610E-1   -3.520369270503505E-1
 9.937724515500000E9     4.624441555773294E-1   -1.341879617898094E-1   -3.561956078365396E-3   -3.743218340915014E-3   -3.717486873553106E-3   -3.717424878728235E-3    3.413560980884915E-1   -3.522578718792206E-1
 9.937725559875000E9     4.623787918600823E-1   -1.340942865151873E-1   -3.653582375263576E-3   -3.751593607002625E-3   -3.743456574827954E-3   -3.770905550628166E-3    3.407845950827414E-1   -3.523827072350703E-1
 9.937726604250000E9     4.622945343466263E-1   -1.341849179113638E-1   -3.673221662578077E-3   -3.770410456202398E-3   -3.791587177974943E-3   -3.800769980102597E-3    3.405773664524304E-1   -3.528565843566005E-1
 9.937727648625000E9     4.621100418526889E-1   -1.342290112462672E-1   -3.728610430560081E-3   -3.805878386519278E-3   -3.855614489384867E-3   -3.829050982022712E-3    3.400600319694455E-1   -3.529737868615325E-1
 9.937728693000000E9     4.622489625766432E-1   -1.343629625228280E-1   -3.756444528973875E-3   -3.828337387485648E-3   -3.888758733306245E-3   -3.829607544249511E-3    3.396285166516946E-1   -3.531612301612538E-1
 9.937729737375000E9     4.621869308628882E-1   -1.344406297421409E-1   -3.784796247367763E-3   -3.849993909867173E-3   -3.908288129427014E-3   -3.878937888271863E-3    3.391749277024103E-1   -3.534119226484301E-1
 9.937730781750000E9     4.622515467342885E-1   -1.346090128339950E-1   -3.802810377508915E-3   -3.894596105759738E-3   -3.946519701356177E-3   -3.920191129893975E-3    3.387494863205380E-1   -3.537481398728212E-1
 9.937731826125000E9     4.621465157744972E-1   -1.346278526129587E-1   -3.864750627519138E-3   -3.942043775214013E-3   -4.010413821455295E-3   -3.944298655805740E-3    3.383868044161633E-1   -3.539347060055116E-1
 9.937732870500000E9     4.620688894815112E-1   -1.346342969423040E-1   -3.889190564732616E-3   -4.005898128615852E-3   -4.069960417411985E-3   -3.962943059948320E-3    3.378910316060763E-1   -3.542432863282856E-1
 9.937733914875000E9     4.620987868654970E-1   -1.347008586238785E-1   -3.963055487367739E-3   -4.000180007900854E-3   -4.066295023879644E-3   -4.009507921185986E-3    3.373191552474399E-1   -3.544862797530965E-1
 9.937734959250000E9     4.620903584720271E-1   -1.348541095240925E-1   -4.035072539898217E-3   -4.051429387942508E-3   -4.121243115089231E-3   -4.044378133074502E-3    3.371959102197354E-1   -3.547859913858792E-1
 9.937736003625000E9     4.620694346752498E-1   -1.348455289328407E-1   -4.021549709375502E-3   -4.041689300877546E-3   -4.151018805045722E-3   -4.070756800005415E-3    3.366784642932418E-1   -3.547853360977047E-1
 9.937737048000000E9     4.622672628937196E-1   -1.351123954600764E-1   -4.042258948797906E-3   -4.103409168931654E-3   -4.221576916812690E-3   -4.110820271462087E-3    3.360581791345762E-1   -3.553407343092703E-1
 9.937738092375000E9     4.619589396303144E-1   -1.351327574518749E-1   -4.136361795907687E-3   -4.130370578936898E-3   -4.256999792201750E-3   -4.127073068261503E-3    3.357683577120292E-1   -3.555128396014032E-1
 9.937739136750000E9     4.619503217562256E-1   -1.351205169806192E-1   -4.132436316061534E-3   -4.167028961686257E-3   -4.313945002897647E-3   -4.192823994038022E-3    3.353676636916383E-1   -3.558610996345614E-1
 9.937740181125000E9     4.618978682043438E-1   -1.351930366310470E-1   -4.191885557039574E-3   -4.184861620420369E-3   -4.355672176575075E-3   -4.221327656117151E-3    3.348014998082202E-1   -3.562889417444774E-1
 9.937741225500000E9     4.617901216650955E-1   -1.353386857377614E-1   -4.261987570982796E-3   -4.227899712532712E-3   -4.411646500991889E-3   -4.270065324652443E-3    3.341753718626911E-1   -3.562459929379105E-1
 9.937742269875000E9     4.617624385489689E-1   -1.353443308681185E-1   -4.306052574553659E-3   -4.281315599840990E-3   -4.456860212622468E-3   -4.268390704986443E-3    3.339346210807094E-1   -3.566704098136572E-1
 9.937743314250000E9     4.617563216630577E-1   -1.355593532461743E-1   -4.360517024848958E-3   -4.337732382054555E-3   -4.528874260652349E-3   -4.343271638158207E-3    3.332794149703292E-1   -3.569799399705015E-1
 9.937744358625000E9     4.616789813531971E-1   -1.355429674009167E-1   -4.379156070537397E-3   -4.337367995230007E-3   -4.574706369389348E-3   -4.340597299190012E-3    3.324896696619326E-1   -3.570871278981712E-1
 9.937745403000000E9     4.617986245310186E-1   -1.355962892151519E-1   -4.416801690347273E-3   -4.394105698522298E-3   -4.606883211326719E-3   -4.397084751232381E-3    3.321464301727390E-1   -3.572497327326989E-1
 9.937746447375000E9     4.616299300674744E-1   -1.357604802461872E-1   -4.520793924572849E-3   -4.418646899153805E-3   -4.702987228023408E-3   -4.453002924751859E-3    3.320313011171246E-1   -3.577002580273909E-1
 9.937747491750000E9     4.616327928870013E-1   -1.357185335080349E-1   -4.557691522485203E-3   -4.468987970574705E-3   -4.704898005027546E-3   -4.488407037051634E-3    3.311724258898073E-1   -3.579671731749293E-1
 9.937748536125000E9     4.616226531678937E-1   -1.358625038867752E-1   -4.581251765825026E-3   -4.494759115492217E-3   -4.785772856940860E-3   -4.516013833922134E-3    3.306208535960077E-1   -3.582306570457660E-1
 9.937749580500000E9     4.616720185351511E-1   -1.359046354990052E-1   -4.684657348474333E-3   -4.524294779847809E-3   -4.829301228271935E-3   -4.565385176432613E-3    3.300984887106312E-1   -3.585248457661535E-1
 9.937750624875000E9     4.615995812681344E-1   -1.359882041944954E-1   -4.705035887660036E-3   -4.588137853928369E-3   -4.893751288414369E-3   -4.594669574752528E-3    3.296676164127025E-1   -3.588960492161196E-1
 9.937751669250000E9     4.616276980623001E-1   -1.359876167763537E-1   -4.753041687075890E-3   -4.610167793741030E-3   -4.937970513115491E-3   -4.630605615214286E-3    3.290067041600206E-1   -3.593749916603415E-1
 9.937752713625000E9     4.615884302450901E-1   -1.361787947185719E-1   -4.830380349097684E-3   -4.617517576562403E-3   -5.016586118498420E-3   -4.649608721222630E-3    3.284796692833108E-1   -3.593976786503504E-1
 9.937753758000000E9     4.613729558440263E-1   -1.361768098473951E-1   -4.871021259896610E-3   -4.664540999444841E-3   -5.077838934081595E-3   -4.707796333065403E-3    3.278269000073007E-1   -3.598686495297103E-1
 9.937754802375000E9     4.614691361526376E-1   -1.363535348775392E-1   -4.925156030776590E-3   -4.739062410967725E-3   -5.126294883783554E-3   -4.746605797801486E-3    3.275440862974875E-1   -3.600557816002765E-1
 9.937755846750000E9     4.614805601095666E-1   -1.364822859473964E-1   -5.018231812716963E-3   -4.791295521770453E-3   -5.186444037426702E-3   -4.803520897165610E-3    3.268038885259071E-1   -3.603372578316373E-1
 9.937756891125000E9     4.614710075097105E-1   -1.363627953111138E-1   -5.077929512272024E-3   -4.831237683624538E-3   -5.257002639788629E-3   -4.834785487315676E-3    3.260985829891699E-1   -3.606889640365160E-1
 9.937757935500000E9     4.614706164724237E-1   -1.365120660718695E-1   -5.118015100513079E-3   -4.846624450314502E-3   -5.320806045482357E-3   -4.893338873136003E-3    3.254955618748617E-1   -3.610990315962301E-1
 9.937758979875000E9     4.613044427261496E-1   -1.365107661458148E-1   -5.203328098369125E-3   -4.896230302566952E-3   -5.375291689060620E-3   -4.939312665294225E-3    3.250892289927768E-1   -3.612725179270330E-1
 9.937760024250000E9     4.613394797056564E-1   -1.366104062552311E-1   -5.266009233838556E-3   -4.938932430792030E-3   -5.478640380176541E-3   -4.961765147169744E-3    3.242450461190154E-1   -3.616407958921528E-1
 9.937761068625000E9     4.614554592123227E-1   -1.366875701876095E-1   -5.309638960847173E-3   -4.980643279400815E-3   -5.522438148840407E-3   -5.009154169525567E-3    3.235427685686477E-1   -3.619543079779848E-1
 9.937762113000000E9     4.612674984620326E-1   -1.367450876101019E-1   -5.398621990281853E-3   -5.026399235638974E-3   -5.550211890621336E-3   -5.020006862628068E-3    3.228084581178742E-1   -3.622728593955407E-1
 9.937763157375000E9     4.612794765153264E-1   -1.367435451273377E-1   -5.438062732081439E-3   -5.068935356887710E-3   -5.689622004821468E-3   -5.102447940055509E-3    3.222562205419126E-1   -3.626781958974780E-1
 9.937764201750000E9     4.611731655185660E-1   -1.367372215454656E-1   -5.546163121560755E-3   -5.076731816579218E-3   -5.727211563972667E-3   -5.169044851335262E-3    3.215423984367629E-1   -3.629343479657736E-1
