#  HZ   S   RI   R     50.00 
! Rohde & Schwarz Vector Network Analyzer 
! Rohde-Schwarz,ZNB20-2Port,1311601062101988,3.16
! Created: UTC 3/20/2024, 11:15:35 PM
! freq[Hz]                re:S11                  im:S11                  re:S21                  im:S21                  re:S12                  im:S12                  re:S22                  im:S22
 9.937498204000000E9     4.671929364459478E-1   -1.213843960305240E-1   -7.851275072227520E-4   -8.123442104290041E-4   -7.721971102824417E-4   -7.820999114687400E-4    3.705818612978797E-1   -3.300999132351441E-1
 9.937500123525000E9     4.671775328254795E-1   -1.215937211433818E-1   -7.656483601165651E-4   -7.840029493944806E-4   -7.880237573858917E-4   -8.141839597044836E-4    3.705038731467669E-1   -3.303025370138958E-1
 9.937502043049999E9     4.671193398848184E-1   -1.215876129148022E-1   -7.692787586530231E-4   -8.291405652083892E-4   -8.130119955433327E-4   -8.117723230007841E-4    3.705329611678980E-1   -3.303464044007219E-1
 9.937503962575001E9     4.670715819303959E-1   -1.218592768154217E-1   -7.935019774395186E-4   -8.064761045540415E-4   -8.098200802464777E-4   -8.019325273652201E-4    3.702961819546405E-1   -3.306574770480472E-1
 9.937505882100000E9     4.669601017024897E-1   -1.217997469170444E-1   -7.727482567464437E-4   -8.277676936110143E-4   -8.272805461330069E-4   -8.256512642241999E-4    3.699806408811318E-1   -3.309661464154461E-1
 9.937507801625000E9     4.670357747245214E-1   -1.219042244358000E-1   -8.003074549941095E-4   -8.351876292590548E-4   -8.229891660393448E-4   -8.384860828873363E-4    3.697989564288604E-1   -3.311147785204534E-1
 9.937509721150000E9     4.667921036717772E-1   -1.222349162463618E-1   -8.120875804707608E-4   -8.841606967180604E-4   -8.291648580001125E-4   -8.059802730618992E-4    3.695304878179613E-1   -3.311893117576502E-1
 9.937511640674999E9     4.667811604263336E-1   -1.222070417004808E-1   -8.067217860506296E-4   -8.792355943321796E-4   -8.569837624127358E-4   -8.732425736499172E-4    3.694012975396990E-1   -3.314168668375141E-1
 9.937513560200001E9     4.669073904199808E-1   -1.224408164689483E-1   -8.281882227335777E-4   -8.586700781782334E-4   -8.736202648764644E-4   -8.506750361852231E-4    3.693460016181721E-1   -3.315595894962195E-1
 9.937515479725000E9     4.668663026653322E-1   -1.225009295330286E-1   -8.202683495655240E-4   -9.160374026993130E-4   -8.966459398655118E-4   -8.869905473425787E-4    3.690534717124961E-1   -3.315401222456137E-1
 9.937517399250000E9     4.668239328385806E-1   -1.227796033916657E-1   -8.399920537111978E-4   -9.033394277100196E-4   -8.924519092065506E-4   -9.093283514380419E-4    3.689024186899185E-1   -3.317412497710306E-1
 9.937519318775000E9     4.667431987935947E-1   -1.228585013407522E-1   -8.712673782661509E-4   -9.165439029930653E-4   -9.191962946018160E-4   -9.246732775351220E-4    3.684753049813541E-1   -3.320556448735753E-1
 9.937521238299999E9     4.668001301269693E-1   -1.228447681481044E-1   -8.922436405301539E-4   -9.043487169772379E-4   -9.200982332037094E-4   -9.493417859464024E-4    3.685037679257994E-1   -3.320150689549136E-1
 9.937523157825001E9     4.667283209415433E-1   -1.231785703303543E-1   -8.828993092117801E-4   -9.434968918641115E-4   -9.336501094452579E-4   -9.645591924798573E-4    3.681987399022883E-1   -3.321528026313026E-1
 9.937525077350000E9     4.665407657650867E-1   -1.232298381954822E-1   -9.189233718024351E-4   -9.630232435747257E-4   -9.523446401845221E-4   -9.472840155073479E-4    3.678019449572159E-1   -3.325331955213550E-1
 9.937526996875000E9     4.665313901841874E-1   -1.234387945701553E-1   -8.953621922827528E-4   -9.306089086450744E-4   -9.426364849601428E-4   -9.578652910938974E-4    3.677795388525179E-1   -3.325233543288480E-1
 9.937528916400000E9     4.665336574898011E-1   -1.235266605154997E-1   -9.451048938876642E-4   -9.744572341896273E-4   -9.271942319465750E-4   -9.817156824001754E-4    3.676647892498400E-1   -3.329327385435540E-1
 9.937530835924999E9     4.664290437932417E-1   -1.237176015185792E-1   -9.772907804239744E-4   -9.534634326255251E-4   -9.722704854098391E-4   -9.885020233581720E-4    3.674344758180884E-1   -3.329317541794518E-1
 9.937532755450001E9     4.664839639082705E-1   -1.237015739282434E-1   -9.300268464645372E-4   -9.925311009102626E-4   -9.500636341980458E-4   -9.960307506506802E-4    3.671624956644368E-1   -3.332228544861692E-1
 9.937534674975000E9     4.663735503250869E-1   -1.239375388272261E-1   -9.531584663166848E-4   -9.480343783593530E-4   -1.008283663019855E-3   -1.002912163633291E-3    3.671121054199599E-1   -3.333730461873944E-1
 9.937536594500000E9     4.664053358393130E-1   -1.239799627473505E-1   -9.439345090013837E-4   -1.035929025050619E-3   -1.026651760733445E-3   -1.007135953001264E-3    3.668434222053142E-1   -3.335181499464125E-1
 9.937538514025000E9     4.662603360051176E-1   -1.240844262336653E-1   -1.006471587984677E-3   -1.010480238196270E-3   -1.009664764188370E-3   -1.042807650911652E-3    3.665653884260720E-1   -3.336146438149165E-1
 9.937540433549999E9     4.662419989269145E-1   -1.242672926376070E-1   -1.015164030647979E-3   -1.024078949733263E-3   -1.012581556890354E-3   -1.006980643786309E-3    3.663645656882304E-1   -3.337519364447750E-1
 9.937542353075001E9     4.662764366875772E-1   -1.243498484423636E-1   -1.027948215371790E-3   -1.034208675346567E-3   -1.054735420165921E-3   -1.043008386728309E-3    3.662191947823473E-1   -3.337675781826931E-1
 9.937544272600000E9     4.661857141850085E-1   -1.245524268345108E-1   -1.019040952020808E-3   -1.095548236953301E-3   -1.071238985007428E-3   -1.066235724070691E-3    3.662094054018777E-1   -3.340593678441346E-1
 9.937546192125000E9     4.660628261274765E-1   -1.246852549432931E-1   -1.051783274822130E-3   -1.042859947632534E-3   -1.060748625078651E-3   -1.084136382346347E-3    3.657778666501355E-1   -3.341515019231728E-1
 9.937548111650000E9     4.661119429957236E-1   -1.247360413746188E-1   -1.072687108095994E-3   -1.112799929090985E-3   -1.115057334239025E-3   -1.090199737197987E-3    3.657289113811599E-1   -3.343532523348292E-1
 9.937550031174999E9     4.661150637413862E-1   -1.249369338700330E-1   -1.074127420420344E-3   -1.089403160334329E-3   -1.097146276181237E-3   -1.090475373333475E-3    3.653948356576075E-1   -3.345244685931381E-1
 9.937551950700001E9     4.661342312899319E-1   -1.251275577144532E-1   -1.095288961935280E-3   -1.154323445797107E-3   -1.108427632148387E-3   -1.121912272643769E-3    3.651527393829204E-1   -3.349096856675478E-1
 9.937553870225000E9     4.659825655264263E-1   -1.251590949689267E-1   -1.086438562786336E-3   -1.093551315810675E-3   -1.153528026424875E-3   -1.111891615280023E-3    3.649502967101489E-1   -3.350517101420682E-1
 9.937555789750000E9     4.659436698260312E-1   -1.253242674111938E-1   -1.166176977385877E-3   -1.119498062791885E-3   -1.127215452376682E-3   -1.125232567734651E-3    3.646347715099627E-1   -3.351724119921433E-1
 9.937557709275000E9     4.659113983369959E-1   -1.255371114721252E-1   -1.141938850035415E-3   -1.129622136385823E-3   -1.149387037729743E-3   -1.140846380345272E-3    3.645215512136423E-1   -3.352187731984061E-1
 9.937559628799999E9     4.658962938349137E-1   -1.254960911933702E-1   -1.137161899840910E-3   -1.156022465938443E-3   -1.190024571670836E-3   -1.148617542053465E-3    3.641467606571507E-1   -3.354222943391296E-1
 9.937561548325001E9     4.658252137635676E-1   -1.257539658326485E-1   -1.160301057425455E-3   -1.143097705387479E-3   -1.203573367801176E-3   -1.204322725974250E-3    3.640587473826307E-1   -3.355031886948295E-1
 9.937563467850000E9     4.657396565010922E-1   -1.256476196141255E-1   -1.222963147099176E-3   -1.178810237996211E-3   -1.186979152768423E-3   -1.199588584489116E-3    3.638109466862226E-1   -3.358105631514097E-1
 9.937565387375000E9     4.656722592218839E-1   -1.259288655650795E-1   -1.184578012449937E-3   -1.203571305464834E-3   -1.206416803359324E-3   -1.196694299678917E-3    3.636437082629953E-1   -3.361050459385272E-1
 9.937567306900000E9     4.656904225332394E-1   -1.262319333447059E-1   -1.189761844676007E-3   -1.235899766168201E-3   -1.230834791139832E-3   -1.215283205500984E-3    3.631764862425064E-1   -3.361917692109813E-1
 9.937569226424999E9     4.656175024510146E-1   -1.261838995433561E-1   -1.242248189553265E-3   -1.189652192341895E-3   -1.282563127565506E-3   -1.217753975824021E-3    3.630169522770189E-1   -3.360767376994112E-1
 9.937571145950001E9     4.655739187562657E-1   -1.264052493444157E-1   -1.226873584631843E-3   -1.237427992454329E-3   -1.258228774185137E-3   -1.229157087254427E-3    3.628431499714845E-1   -3.365739761357137E-1
 9.937573065475000E9     4.655524845290299E-1   -1.264072229225117E-1   -1.250577671898119E-3   -1.253313486324068E-3   -1.310345230951947E-3   -1.236060005340569E-3    3.624914984578793E-1   -3.366519947525402E-1
 9.937574985000000E9     4.655075463796697E-1   -1.265434597995191E-1   -1.262469540567579E-3   -1.265302234306758E-3   -1.268188055691142E-3   -1.274333155954516E-3    3.624655805501906E-1   -3.368891123597830E-1
 9.937576904525000E9     4.654592533473623E-1   -1.267134164624227E-1   -1.283149103949076E-3   -1.306318152801490E-3   -1.340655831337439E-3   -1.292017913679712E-3    3.621577909560734E-1   -3.369587570765938E-1
 9.937578824049999E9     4.653330815591328E-1   -1.268110466497234E-1   -1.298685693367334E-3   -1.269658131116692E-3   -1.339090146855180E-3   -1.259695425888469E-3    3.618238842857071E-1   -3.373505865507848E-1
 9.937580743575001E9     4.653139772871094E-1   -1.270874625192692E-1   -1.299434833873096E-3   -1.308241515697685E-3   -1.375084331644647E-3   -1.311878829632696E-3    3.617053316271994E-1   -3.375389527553509E-1
 9.937582663100000E9     4.652973914957726E-1   -1.271103023004154E-1   -1.315314424242231E-3   -1.310511624666100E-3   -1.341097398619471E-3   -1.322687022654813E-3    3.612444294819293E-1   -3.376418511748896E-1
 9.937584582625000E9     4.651340094265082E-1   -1.271909602550297E-1   -1.353935708051851E-3   -1.352456433290274E-3   -1.378509545089576E-3   -1.331323697883358E-3    3.611673313702508E-1   -3.380051794743626E-1
 9.937586502150000E9     4.652655481602312E-1   -1.272256761541296E-1   -1.366312783084248E-3   -1.357370818356698E-3   -1.407718528248816E-3   -1.337095742784568E-3    3.609387109802796E-1   -3.378688487617740E-1
 9.937588421674999E9     4.651275520967812E-1   -1.274702343308475E-1   -1.417414339141290E-3   -1.352296439830512E-3   -1.428610523284496E-3   -1.325731221288630E-3    3.607022371372751E-1   -3.382397711798842E-1
 9.937590341200001E9     4.652186382347465E-1   -1.275359780225976E-1   -1.414668789668600E-3   -1.404128053021803E-3   -1.479882445313419E-3   -1.384133351674797E-3    3.604782040368478E-1   -3.383461327302417E-1
 9.937592260725000E9     4.651022418967225E-1   -1.277340627832711E-1   -1.427781041411640E-3   -1.402305297104436E-3   -1.456886617196793E-3   -1.398606628540565E-3    3.600882792111110E-1   -3.384793590564504E-1
 9.937594180250000E9     4.650374869724113E-1   -1.277584056106860E-1   -1.414410646439602E-3   -1.445266956002413E-3   -1.477939998480645E-3   -1.413093689746045E-3    3.600757807647054E-1   -3.388546371741509E-1
 9.937596099775000E9     4.650010877024540E-1   -1.279300916032839E-1   -1.465849972774394E-3   -1.430254533236140E-3   -1.501429858146082E-3   -1.414112872121266E-3    3.596968704760930E-1   -3.389283324785714E-1
 9.937598019299999E9     4.649657877195086E-1   -1.282213686392407E-1   -1.500611428249708E-3   -1.425950279474298E-3   -1.541633327689989E-3   -1.471770333741225E-3    3.593347881492758E-1   -3.390373943783622E-1
 9.937599938825001E9     4.649014037012409E-1   -1.283248444154746E-1   -1.499519784039076E-3   -1.469708737266305E-3   -1.549234050048639E-3   -1.450741527378299E-3    3.588031161065355E-1   -3.394872980891578E-1
 9.937601858350000E9     4.648787075488072E-1   -1.282874019007250E-1   -1.509069809817140E-3   -1.491465332994431E-3   -1.574659667206170E-3   -1.456419073917652E-3    3.587581534066674E-1   -3.395351519703311E-1
 9.937603777875000E9     4.648041583399715E-1   -1.284536718909789E-1   -1.517202489854874E-3   -1.461544254079136E-3   -1.628769638015433E-3   -1.461455892835301E-3    3.583417714120928E-1   -3.397235394525588E-1
 9.937605697400000E9     4.647956403551666E-1   -1.287559295694651E-1   -1.585562886170124E-3   -1.531024530880203E-3   -1.626486544675314E-3   -1.544155003253589E-3    3.581410913623044E-1   -3.398671733171010E-1
 9.937607616924999E9     4.647928063932641E-1   -1.288059446195136E-1   -1.577749082994803E-3   -1.490576875834503E-3   -1.644248539803313E-3   -1.550291524515109E-3    3.578955642048111E-1   -3.400527576471647E-1
 9.937609536450001E9     4.646430956310786E-1   -1.289478341930351E-1   -1.596062638949513E-3   -1.548582589465623E-3   -1.654015797093364E-3   -1.544060849754165E-3    3.576640903750371E-1   -3.404578116583338E-1
 9.937611455975000E9     4.647262553342612E-1   -1.290314522446408E-1   -1.634290130015419E-3   -1.570037197394314E-3   -1.686054417313413E-3   -1.588507313556054E-3    3.573329200414622E-1   -3.406681529647400E-1
 9.937613375500000E9     4.646607683881083E-1   -1.290768816352582E-1   -1.647933549979535E-3   -1.602371597624735E-3   -1.724618032151553E-3   -1.590101504778860E-3    3.569583833635181E-1   -3.407397091543334E-1
 9.937615295025000E9     4.645126323477116E-1   -1.292465086171567E-1   -1.707549799218308E-3   -1.597452462646690E-3   -1.716142887835504E-3   -1.622081967885210E-3    3.567719159857817E-1   -3.408845941707389E-1
 9.937617214549999E9     4.645339148886888E-1   -1.295135339321763E-1   -1.707515146221643E-3   -1.614732835962028E-3   -1.767255964004828E-3   -1.638378127096582E-3    3.565730663225988E-1   -3.412146272959116E-1
 9.937619134075001E9     4.643948171118603E-1   -1.296306675164173E-1   -1.733018586025067E-3   -1.586920843600667E-3   -1.791304814317875E-3   -1.639085981340261E-3    3.562427623346747E-1   -3.412675008943964E-1
 9.937621053600000E9     4.644353593811361E-1   -1.296854066540299E-1   -1.757531148446057E-3   -1.653738473368558E-3   -1.802525440416722E-3   -1.625106993601345E-3    3.559076676115078E-1   -3.416820109810040E-1
 9.937622973125000E9     4.642335926828473E-1   -1.300185282778275E-1   -1.769099723072581E-3   -1.698462581511225E-3   -1.841264521141080E-3   -1.682374633720951E-3    3.555472758338744E-1   -3.417831685299244E-1
 9.937624892650000E9     4.643458581383049E-1   -1.300167676954740E-1   -1.774359779910294E-3   -1.652146984951656E-3   -1.854639724328419E-3   -1.699861341738612E-3    3.553187695578146E-1   -3.419967008804546E-1
 9.937626812174999E9     4.642731011914699E-1   -1.302091272131763E-1   -1.812728022578304E-3   -1.707773190789053E-3   -1.839471396988851E-3   -1.702198978796306E-3    3.547230766475609E-1   -3.421720894424582E-1
 9.937628731700001E9     4.642133704937512E-1   -1.301556351337818E-1   -1.846906609617885E-3   -1.749470609065072E-3   -1.878263039658321E-3   -1.737641352693833E-3    3.547219999765840E-1   -3.423800326085797E-1
 9.937630651225000E9     4.642123669763983E-1   -1.303317959900858E-1   -1.871582394385789E-3   -1.772578576045259E-3   -1.920346470742881E-3   -1.726949751968173E-3    3.544014060760130E-1   -3.425704965283440E-1
 9.937632570750000E9     4.642074267761951E-1   -1.304078208547888E-1   -1.890815908571228E-3   -1.760162296194418E-3   -1.951837509045600E-3   -1.791281779257474E-3    3.539235488248093E-1   -3.426251484754351E-1
 9.937634490275000E9     4.641617661639472E-1   -1.306616077182211E-1   -1.963967225874179E-3   -1.755298253828031E-3   -1.999259846304767E-3   -1.774018922673177E-3    3.537217919403851E-1   -3.429295089478498E-1
 9.937636409799999E9     4.640020004510554E-1   -1.307225228432269E-1   -1.942970874295383E-3   -1.830620364182299E-3   -2.010541734542711E-3   -1.784129674561660E-3    3.533374824570404E-1   -3.432221290824169E-1
 9.937638329325001E9     4.639806227395092E-1   -1.308330931868211E-1   -1.992866541989769E-3   -1.799885719978474E-3   -2.036554580673200E-3   -1.823024685487854E-3    3.528732663179198E-1   -3.433741464047238E-1
 9.937640248850000E9     4.639600086917708E-1   -1.309300027839165E-1   -2.000189882662404E-3   -1.855326459351292E-3   -2.057399101392330E-3   -1.831468790155559E-3    3.525506892237628E-1   -3.437467742084023E-1
 9.937642168375000E9     4.639767376247531E-1   -1.310934727321302E-1   -1.996675243347157E-3   -1.847164985384909E-3   -2.089035794556320E-3   -1.880325876689087E-3    3.523563444008799E-1   -3.438242357981465E-1
 9.937644087900000E9     4.638161288972629E-1   -1.312407303194014E-1   -2.040724849612585E-3   -1.886623210137349E-3   -2.139562554848708E-3   -1.886503278723702E-3    3.518981899030003E-1   -3.442822417287304E-1
 9.937646007424999E9     4.637880356027597E-1   -1.312532614701307E-1   -2.078630441069308E-3   -1.904980227152827E-3   -2.133101972612948E-3   -1.873861258770221E-3    3.516774081691788E-1   -3.442380614749567E-1
 9.937647926950001E9     4.637256318607525E-1   -1.315354509096577E-1   -2.114684258596929E-3   -1.897203751308661E-3   -2.200029968819943E-3   -1.926082983452587E-3    3.513709337353119E-1   -3.445689411921991E-1
 9.937649846475000E9     4.636127487335703E-1   -1.314991972380865E-1   -2.139551083753508E-3   -1.949323012290908E-3   -2.228498249129685E-3   -1.937467226677855E-3    3.508731295149416E-1   -3.447556965191518E-1
 9.937651766000000E9     4.635297350873093E-1   -1.317857212478751E-1   -2.199048913567407E-3   -1.963961345939059E-3   -2.243935057732499E-3   -1.957964062827001E-3    3.504984721401649E-1   -3.450552183844844E-1
 9.937653685525000E9     4.636703013425866E-1   -1.319629687933339E-1   -2.185052680673134E-3   -1.978540662186180E-3   -2.278287495866694E-3   -1.960493795044847E-3    3.500772855023672E-1   -3.451645168095429E-1
 9.937655605049999E9     4.635930719009340E-1   -1.320052627551652E-1   -2.255665010458252E-3   -2.027515301950617E-3   -2.298963764457235E-3   -2.035731429329507E-3    3.498054826143521E-1   -3.453422119775335E-1
 9.937657524575001E9     4.634181728402089E-1   -1.321414861416250E-1   -2.283334902351582E-3   -2.046647535358895E-3   -2.351640550248111E-3   -2.062214186745607E-3    3.495056347854180E-1   -3.455997995638544E-1
 9.937659444100000E9     4.635522144768605E-1   -1.322331830853366E-1   -2.306560181555045E-3   -2.072077012131640E-3   -2.346633756349029E-3   -2.045639567128035E-3    3.488486211586238E-1   -3.459285457803356E-1
 9.937661363625000E9     4.634001676012067E-1   -1.323253442419786E-1   -2.340183081194615E-3   -2.082076525152047E-3   -2.434244906335191E-3   -2.087141393557726E-3    3.485874490303579E-1   -3.461137633708628E-1
 9.937663283150000E9     4.634246474645785E-1   -1.324765992536381E-1   -2.362027021401714E-3   -2.119377170040396E-3   -2.469691659565805E-3   -2.104337712837990E-3    3.481948997469042E-1   -3.462228358177347E-1
 9.937665202674999E9     4.634035496670167E-1   -1.325456698288438E-1   -2.431760132038546E-3   -2.152542356729818E-3   -2.506192917100196E-3   -2.148798900956509E-3    3.476758684474988E-1   -3.465654153019104E-1
 9.937667122200001E9     4.633051659080737E-1   -1.327208815972794E-1   -2.454866706860081E-3   -2.145890940921798E-3   -2.532754488866818E-3   -2.147361817191966E-3    3.474817689038944E-1   -3.468831005457741E-1
 9.937669041725000E9     4.632170034043607E-1   -1.329439418500887E-1   -2.496013013683964E-3   -2.168339026755197E-3   -2.542872848641836E-3   -2.182114578092537E-3    3.469824786194357E-1   -3.470124016087923E-1
 9.937670961250000E9     4.633181865497136E-1   -1.330173536804434E-1   -2.524221148054921E-3   -2.221522638506224E-3   -2.624012545508669E-3   -2.194844515000312E-3    3.466247757096098E-1   -3.472611386121265E-1
