#  HZ   S   RI   R     50.00 
! Rohde & Schwarz Vector Network Analyzer 
! Rohde-Schwarz,ZNB20-2Port,1311601062101988,3.16
! Created: UTC 3/20/2024, 11:15:45 PM
! freq[Hz]                re:S11                  im:S11                  re:S21                  im:S21                  re:S12                  im:S12                  re:S22                  im:S22
 9.937509210000000E9     4.670471390789876E-1   -1.222510884860754E-1   -8.048898374704859E-4   -8.391529243432798E-4   -8.236411747885575E-4   -8.199494668697581E-4    3.699845096733564E-1   -3.310272844677040E-1
 9.937511095100000E9     4.670215614633639E-1   -1.222916654318225E-1   -8.132891170661733E-4   -8.424144305781824E-4   -8.506266757954604E-4   -8.492080610641683E-4    3.696722014383462E-1   -3.312004922522665E-1
 9.937512980200001E9     4.669057489269859E-1   -1.223232264226228E-1   -8.546418160098248E-4   -8.554658088099294E-4   -8.408019518481691E-4   -8.503771946636113E-4    3.695177377357616E-1   -3.314582587603042E-1
 9.937514865299999E9     4.668254103794197E-1   -1.224257768372226E-1   -8.251652237160356E-4   -8.997547996554564E-4   -8.455020495969351E-4   -8.689956694005194E-4    3.691147858412316E-1   -3.313590480739909E-1
 9.937516750400000E9     4.668323548394347E-1   -1.227583631974459E-1   -8.356957932816191E-4   -8.536934365037478E-4   -8.647629348943158E-4   -8.880757024329273E-4    3.690041747604685E-1   -3.315449394469248E-1
 9.937518635500000E9     4.667547760191182E-1   -1.227860789326007E-1   -8.650511794965882E-4   -8.850092100336497E-4   -8.983432475582180E-4   -8.719092800559749E-4    3.689373076895430E-1   -3.317177972334773E-1
 9.937520520600000E9     4.666624129031939E-1   -1.229392562158447E-1   -8.592294134124479E-4   -8.979814921964148E-4   -8.855637057096473E-4   -8.913467263036571E-4    3.685861192095122E-1   -3.319472187402833E-1
 9.937522405700001E9     4.668960642921121E-1   -1.231143133997249E-1   -8.864451237450445E-4   -9.271291496581968E-4   -9.043278133793419E-4   -9.370352396211544E-4    3.685281882967206E-1   -3.322250375521226E-1
 9.937524290799999E9     4.667467077252392E-1   -1.230513158684977E-1   -8.739312926113041E-4   -9.184957889365065E-4   -9.091815508138053E-4   -9.070029496902746E-4    3.683456315106886E-1   -3.323271912570870E-1
 9.937526175900000E9     4.665566191807418E-1   -1.232555212056333E-1   -8.748452580398607E-4   -9.485129105826298E-4   -9.355199236205986E-4   -9.424937518280499E-4    3.680398259912466E-1   -3.324790877708397E-1
 9.937528061000000E9     4.666875387857898E-1   -1.234614972976657E-1   -8.596477598624535E-4   -9.673379111094352E-4   -9.192607182643964E-4   -9.487855387414990E-4    3.679868856995633E-1   -3.326684371447569E-1
 9.937529946100000E9     4.665521575133068E-1   -1.236240884864788E-1   -9.228651862065775E-4   -9.788943323448709E-4   -9.536789783096144E-4   -9.442478208048002E-4    3.677780112603464E-1   -3.329576341995210E-1
 9.937531831200001E9     4.664672700551190E-1   -1.238230035500059E-1   -9.419705812194800E-4   -9.725505017194246E-4   -9.367499906451482E-4   -9.754520402747723E-4    3.675240414312679E-1   -3.328186531006409E-1
 9.937533716299999E9     4.665851043991799E-1   -1.237818861851982E-1   -9.190452790395647E-4   -9.679513830919886E-4   -9.603178673310639E-4   -9.976581394995940E-4    3.673779046350202E-1   -3.331856941270660E-1
 9.937535601400000E9     4.665317354702702E-1   -1.239504312640690E-1   -9.373566956103656E-4   -1.016490652860010E-3   -1.003466966906247E-3   -9.664896072026868E-4    3.673033820792626E-1   -3.332019515267168E-1
 9.937537486500000E9     4.662578002969967E-1   -1.241496892000722E-1   -9.901053482143454E-4   -1.005573342096529E-3   -9.866603868047806E-4   -1.018954291997047E-3    3.670639870506062E-1   -3.334128246766161E-1
 9.937539371600000E9     4.662747268009676E-1   -1.241548244598907E-1   -9.973828687465467E-4   -1.005405595488721E-3   -9.789184112804462E-4   -9.955596603288216E-4    3.666298260580295E-1   -3.335953905495498E-1
 9.937541256700001E9     4.664586442366213E-1   -1.242111562523210E-1   -9.983963385715177E-4   -1.016734959717436E-3   -1.017233503715962E-3   -9.977168228656279E-4    3.665159130485673E-1   -3.336357582589668E-1
 9.937543141799999E9     4.661380005782390E-1   -1.242873059293422E-1   -9.724511887998342E-4   -1.025197282431421E-3   -1.040823556562899E-3   -1.041130023983275E-3    3.664382552974201E-1   -3.340601597319341E-1
 9.937545026900000E9     4.662306398155078E-1   -1.245330987219052E-1   -1.021824092909300E-3   -1.028143904792149E-3   -1.043467965571546E-3   -1.058663048714630E-3    3.660287865282982E-1   -3.339887524520520E-1
 9.937546912000000E9     4.660318696451073E-1   -1.246623531918303E-1   -1.058035818759476E-3   -1.058725112444445E-3   -1.053543550835256E-3   -1.060768600375740E-3    3.658545382611858E-1   -3.342721349345594E-1
 9.937548797100000E9     4.659719448259822E-1   -1.247635447344664E-1   -1.066044670104366E-3   -1.043397884510566E-3   -1.068670357431731E-3   -1.068218460221048E-3    3.654688121766947E-1   -3.345478016275842E-1
 9.937550682200001E9     4.661306985307746E-1   -1.249635417492963E-1   -1.058130012181204E-3   -1.109285118444674E-3   -1.088841477187325E-3   -1.096028270869605E-3    3.653761545292390E-1   -3.346489030493987E-1
 9.937552567299999E9     4.660304584326593E-1   -1.250688005234846E-1   -1.061852607087459E-3   -1.069526376384071E-3   -1.087041331409002E-3   -1.112650324675394E-3    3.652120185714022E-1   -3.347820605626636E-1
 9.937554452400000E9     4.661430934510207E-1   -1.253053274093476E-1   -1.072391195309832E-3   -1.056993046182365E-3   -1.131648270818356E-3   -1.121639102792029E-3    3.647914815213362E-1   -3.348925996627696E-1
 9.937556337500000E9     4.658810820029770E-1   -1.253468343765035E-1   -1.093288826724433E-3   -1.125245000938660E-3   -1.125421012082149E-3   -1.121501926686777E-3    3.648529062614866E-1   -3.351050507477056E-1
 9.937558222600000E9     4.659231255229844E-1   -1.254712637100642E-1   -1.113751140125939E-3   -1.141376214267836E-3   -1.144024123836989E-3   -1.125999879861647E-3    3.646462944397361E-1   -3.351468904235026E-1
 9.937560107700001E9     4.658510264404992E-1   -1.254755348755818E-1   -1.153995721938363E-3   -1.139783279387837E-3   -1.152721194915483E-3   -1.162164506653612E-3    3.644375023961411E-1   -3.355240007645137E-1
 9.937561992799999E9     4.657945782090356E-1   -1.255835371725899E-1   -1.142499941308962E-3   -1.184309782510364E-3   -1.152387553924269E-3   -1.155728976833532E-3    3.641297033556820E-1   -3.355045227041338E-1
 9.937563877900000E9     4.657785482538927E-1   -1.256992743497996E-1   -1.144678092396553E-3   -1.172115961853246E-3   -1.215541901322478E-3   -1.182602173021362E-3    3.639945283688771E-1   -3.358454256991195E-1
 9.937565763000000E9     4.656573580242194E-1   -1.259752353193211E-1   -1.163949636809801E-3   -1.147750305137443E-3   -1.210449562892236E-3   -1.177746325770820E-3    3.637907411475420E-1   -3.358368612828060E-1
 9.937567648100000E9     4.657135061156746E-1   -1.260769207359302E-1   -1.160747398219935E-3   -1.199567828228561E-3   -1.225796299817222E-3   -1.210093786680656E-3    3.634115509873557E-1   -3.361397450555220E-1
 9.937569533200001E9     4.656723160677990E-1   -1.261674908050965E-1   -1.208249661685336E-3   -1.178985366841888E-3   -1.225059014569340E-3   -1.187766188163260E-3    3.632551596905105E-1   -3.362865455369216E-1
 9.937571418299999E9     4.657060756828279E-1   -1.262244219418880E-1   -1.212390016442168E-3   -1.216673068197628E-3   -1.236802418127210E-3   -1.229400723148910E-3    3.629314460318237E-1   -3.365203516598632E-1
 9.937573303400000E9     4.655103605652654E-1   -1.264373390765580E-1   -1.236505047077967E-3   -1.256382988625511E-3   -1.250554671997558E-3   -1.221423991680762E-3    3.627552749340300E-1   -3.365347914647037E-1
 9.937575188500000E9     4.654859153669474E-1   -1.265781404727532E-1   -1.247448806550997E-3   -1.239069489714856E-3   -1.282284808801264E-3   -1.257676807841597E-3    3.626481370173987E-1   -3.368906968702024E-1
 9.937577073600000E9     4.653614594627034E-1   -1.266864840190041E-1   -1.250564024526120E-3   -1.264038566796843E-3   -1.299775024086621E-3   -1.253666603408156E-3    3.622162826980672E-1   -3.368853278584439E-1
 9.937578958700001E9     4.653784954856805E-1   -1.268898590806158E-1   -1.292914889716616E-3   -1.271984892215457E-3   -1.316701310278115E-3   -1.284466770686254E-3    3.621679086873027E-1   -3.370878729867142E-1
 9.937580843799999E9     4.654618297190853E-1   -1.268480238983802E-1   -1.284240798426875E-3   -1.285153220065086E-3   -1.308463355229391E-3   -1.255287909349465E-3    3.620185394247724E-1   -3.374700276955181E-1
 9.937582728900000E9     4.654023836434248E-1   -1.270460866301087E-1   -1.302750267134006E-3   -1.322883506440717E-3   -1.352383591332597E-3   -1.291329472963073E-3    3.614068370454562E-1   -3.375365604759938E-1
 9.937584614000000E9     4.653097441548970E-1   -1.271508758265476E-1   -1.328321128911682E-3   -1.300175302545947E-3   -1.362405697587791E-3   -1.325228088877895E-3    3.612393397064824E-1   -3.376002129221629E-1
 9.937586499100000E9     4.651858139417320E-1   -1.273255630177588E-1   -1.342818053337679E-3   -1.329383510976787E-3   -1.378824513579356E-3   -1.300052631594088E-3    3.613103184594922E-1   -3.379806221689546E-1
 9.937588384200001E9     4.652838000219204E-1   -1.274150207672459E-1   -1.357573376840329E-3   -1.326443780431565E-3   -1.393159262490330E-3   -1.354113829441332E-3    3.609410860110138E-1   -3.381116261479619E-1
 9.937590269299999E9     4.651596086363963E-1   -1.276914889035125E-1   -1.407774291245982E-3   -1.371505829942989E-3   -1.393874662463180E-3   -1.363305865608355E-3    3.605595161983648E-1   -3.381898056976082E-1
 9.937592154400000E9     4.650017298787975E-1   -1.277146196708362E-1   -1.404337935300469E-3   -1.402848575854385E-3   -1.429184448694889E-3   -1.356326425619312E-3    3.603867682920510E-1   -3.384752182633549E-1
 9.937594039500000E9     4.651207384346360E-1   -1.278808739520401E-1   -1.463222229073080E-3   -1.429356294324646E-3   -1.454065775322218E-3   -1.387987495203530E-3    3.602092032568640E-1   -3.386178710814383E-1
 9.937595924600000E9     4.650602393171917E-1   -1.279857652244912E-1   -1.434316212181483E-3   -1.409732966053438E-3   -1.463475221221758E-3   -1.415654524728584E-3    3.597562020430156E-1   -3.387570476737044E-1
 9.937597809700001E9     4.649610501887862E-1   -1.280160250611303E-1   -1.434300106256314E-3   -1.460046165548579E-3   -1.530725453835120E-3   -1.415730678894312E-3    3.595532702902097E-1   -3.390675059273046E-1
 9.937599694799999E9     4.649094943168190E-1   -1.281579039591527E-1   -1.472964910765415E-3   -1.459346824487207E-3   -1.524483865780509E-3   -1.433898736434340E-3    3.593984568206352E-1   -3.391240555393897E-1
 9.937601579900000E9     4.650153513071285E-1   -1.284066597442890E-1   -1.501482996454185E-3   -1.456288047092176E-3   -1.539049318783863E-3   -1.451298782256236E-3    3.591675652501647E-1   -3.391500717505454E-1
 9.937603465000000E9     4.647860439093525E-1   -1.285500100100857E-1   -1.550158927375482E-3   -1.517070369344788E-3   -1.572212625154617E-3   -1.493967402986574E-3    3.586081131354923E-1   -3.395216358784956E-1
 9.937605350100000E9     4.647735142894430E-1   -1.285710107481241E-1   -1.536282173243216E-3   -1.480546167676855E-3   -1.581326049330572E-3   -1.489188185889665E-3    3.584030187927978E-1   -3.398547732705583E-1
 9.937607235200001E9     4.647501972162498E-1   -1.287542682360003E-1   -1.572758795702802E-3   -1.516819814915156E-3   -1.614294393626915E-3   -1.486768652761014E-3    3.582204385937309E-1   -3.398064202804670E-1
 9.937609120299999E9     4.647393896903031E-1   -1.288781491216982E-1   -1.580437092126172E-3   -1.534806138871450E-3   -1.615567131808272E-3   -1.506029866845239E-3    3.579480333822332E-1   -3.401817803886560E-1
 9.937611005400000E9     4.646362063504780E-1   -1.290195649630207E-1   -1.610698633578136E-3   -1.533545201457121E-3   -1.613150954363385E-3   -1.539991348561252E-3    3.578672406207071E-1   -3.404462021614114E-1
 9.937612890500000E9     4.646147879126410E-1   -1.290466874187363E-1   -1.609564354055752E-3   -1.540187108636404E-3   -1.652667786412803E-3   -1.540112254534264E-3    3.575147878790138E-1   -3.403330314720703E-1
 9.937614775600000E9     4.645407696906084E-1   -1.292032934567158E-1   -1.622671311210459E-3   -1.580376175736798E-3   -1.658253137165798E-3   -1.579313086028204E-3    3.568939093542100E-1   -3.408496895111918E-1
 9.937616660700001E9     4.643666811214297E-1   -1.293725783092073E-1   -1.632787601812182E-3   -1.586715241071119E-3   -1.711812534835204E-3   -1.598015331060546E-3    3.569466824257680E-1   -3.410903791870527E-1
 9.937618545799999E9     4.645003407551576E-1   -1.293831332120798E-1   -1.638286766505916E-3   -1.581449132101214E-3   -1.745274781729362E-3   -1.637096995263224E-3    3.566643598513714E-1   -3.409509153891664E-1
 9.937620430900000E9     4.643858941825965E-1   -1.295935588012251E-1   -1.671836680172960E-3   -1.592298186269527E-3   -1.754210194216403E-3   -1.637670921511819E-3    3.564456501822485E-1   -3.411483062385165E-1
 9.937622316000000E9     4.643708220852361E-1   -1.298043977339223E-1   -1.746640396450702E-3   -1.647812543665493E-3   -1.784446584439048E-3   -1.672221503902337E-3    3.558350051495222E-1   -3.414006865241779E-1
 9.937624201100000E9     4.643842862828056E-1   -1.298443739987524E-1   -1.736803135900349E-3   -1.662539098874347E-3   -1.800288573276517E-3   -1.650041756118214E-3    3.556973556953568E-1   -3.417635227165385E-1
 9.937626086200001E9     4.642511089253967E-1   -1.299891598339935E-1   -1.739916581729804E-3   -1.676629131506863E-3   -1.836289475580839E-3   -1.694566502560323E-3    3.555233928438850E-1   -3.418402658923904E-1
 9.937627971299999E9     4.642986673909478E-1   -1.302187461888048E-1   -1.772511502129454E-3   -1.703857456039478E-3   -1.832549167771772E-3   -1.659064188353286E-3    3.551585948625125E-1   -3.421599752836367E-1
 9.937629856400000E9     4.643222529357212E-1   -1.303074024722901E-1   -1.831516946086030E-3   -1.719683512253445E-3   -1.886914991513466E-3   -1.701617334435551E-3    3.548657170606357E-1   -3.423359717576402E-1
 9.937631741500000E9     4.642366368912004E-1   -1.304131591252354E-1   -1.857202475729430E-3   -1.725807158583045E-3   -1.877685789576071E-3   -1.722601751192588E-3    3.544644002149239E-1   -3.426657968416268E-1
 9.937633626600000E9     4.641682497269855E-1   -1.304791122807755E-1   -1.857119150845753E-3   -1.753105068746395E-3   -1.915407521477453E-3   -1.748333360972798E-3    3.541657153635525E-1   -3.427278611257381E-1
 9.937635511700001E9     4.639404506829433E-1   -1.305946430677040E-1   -1.897459313029431E-3   -1.774594845981008E-3   -1.963581038258091E-3   -1.790201121137482E-3    3.539224401923912E-1   -3.430115879599183E-1
 9.937637396799999E9     4.640539681634073E-1   -1.307582058212353E-1   -1.900974964349509E-3   -1.757783083982141E-3   -2.014226392107911E-3   -1.789484388405371E-3    3.534100748621345E-1   -3.431550057987039E-1
 9.937639281900000E9     4.640238580935939E-1   -1.310130747908250E-1   -1.909423131911582E-3   -1.792386923959661E-3   -2.005900470383095E-3   -1.789717400403127E-3    3.531694637178848E-1   -3.434069966546530E-1
 9.937641167000000E9     4.639657142121542E-1   -1.310045346803984E-1   -1.963558926618740E-3   -1.845627769870812E-3   -2.023592294658890E-3   -1.865338644235386E-3    3.526892538378034E-1   -3.436283614671511E-1
 9.937643052100000E9     4.638746917374124E-1   -1.312182741951713E-1   -1.984387274804662E-3   -1.854588629806946E-3   -2.040798262355049E-3   -1.876626551938825E-3    3.524744110085012E-1   -3.437383165473596E-1
 9.937644937200001E9     4.638467592902347E-1   -1.312620027655150E-1   -2.065122449475412E-3   -1.898622793547090E-3   -2.101388304789321E-3   -1.858019689548573E-3    3.521180073976078E-1   -3.439590368896113E-1
 9.937646822299999E9     4.637290235159451E-1   -1.314637167962357E-1   -2.034147811711613E-3   -1.885533360641253E-3   -2.135439105239496E-3   -1.864950434853470E-3    3.517085993731767E-1   -3.441613846817400E-1
 9.937648707400000E9     4.636929821235523E-1   -1.315481076609089E-1   -2.101880656075776E-3   -1.913602438939392E-3   -2.136210942344347E-3   -1.906593544610392E-3    3.514486057631074E-1   -3.445024485703075E-1
 9.937650592500000E9     4.636048176294210E-1   -1.316322138627950E-1   -2.122941610751313E-3   -1.939540262340750E-3   -2.211629818306116E-3   -1.950439617614306E-3    3.512589499330215E-1   -3.446593069320691E-1
 9.937652477600000E9     4.638749202821550E-1   -1.318288907902165E-1   -2.152969800174201E-3   -1.980324785969455E-3   -2.223682809540566E-3   -1.944906341136828E-3    3.508742490288939E-1   -3.447997368848887E-1
 9.937654362700001E9     4.634999750282692E-1   -1.319427907046737E-1   -2.177008998064424E-3   -1.989016066051243E-3   -2.237664956647848E-3   -1.971438879709220E-3    3.504241225896687E-1   -3.451453614055990E-1
 9.937656247799999E9     4.635411236957874E-1   -1.320660487346171E-1   -2.190798100753939E-3   -2.030903834394543E-3   -2.296999892067809E-3   -1.973484906800551E-3    3.501278051854871E-1   -3.453224844737672E-1
 9.937658132900000E9     4.634580815557210E-1   -1.320837326899956E-1   -2.242361130865111E-3   -2.011289092141263E-3   -2.334380526584901E-3   -2.025287664786256E-3    3.497078776014371E-1   -3.454913330237238E-1
 9.937660018000000E9     4.634318578005537E-1   -1.322114340216063E-1   -2.256204701788488E-3   -2.059584516464845E-3   -2.337136477394625E-3   -2.026991403366551E-3    3.492529669218247E-1   -3.459000083560589E-1
 9.937661903100000E9     4.633875640600027E-1   -1.324872487190962E-1   -2.304246523334644E-3   -2.051309203781688E-3   -2.385121947805179E-3   -2.053695976370360E-3    3.490435688585741E-1   -3.459848070709878E-1
 9.937663788200001E9     4.634666227328531E-1   -1.325642929463038E-1   -2.345092258098427E-3   -2.094516554641231E-3   -2.410689355040198E-3   -2.092255439002881E-3    3.484984395180360E-1   -3.462225715650223E-1
 9.937665673299999E9     4.632545559387305E-1   -1.326851472513624E-1   -2.386446519493314E-3   -2.112351779456631E-3   -2.417564314346600E-3   -2.108402657624542E-3    3.479624306345562E-1   -3.464722857276820E-1
 9.937667558400000E9     4.633108861831944E-1   -1.328332579404587E-1   -2.413423407311286E-3   -2.154798106064160E-3   -2.494392545225941E-3   -2.115106568469710E-3    3.476565683049809E-1   -3.466916133966386E-1
 9.937669443500000E9     4.631798498358861E-1   -1.329144077903423E-1   -2.470453362180355E-3   -2.192402734514254E-3   -2.496342811743659E-3   -2.164153870606484E-3    3.473196703587472E-1   -3.468872746801117E-1
 9.937671328600000E9     4.632723916373694E-1   -1.329601167555342E-1   -2.467380429335975E-3   -2.219953184202028E-3   -2.536911887320196E-3   -2.189052505735245E-3    3.469093563852173E-1   -3.472320839739488E-1
 9.937673213700001E9     4.631161363372870E-1   -1.331676317195199E-1   -2.528985408752800E-3   -2.208968959646914E-3   -2.575282029173287E-3   -2.199929159899891E-3    3.463988549056229E-1   -3.472809907887666E-1
 9.937675098799999E9     4.631808185414172E-1   -1.333762897575863E-1   -2.564388823014770E-3   -2.247309390843116E-3   -2.611689969079143E-3   -2.262500500379255E-3    3.463159831789774E-1   -3.476126187774581E-1
 9.937676983900000E9     4.630216621523681E-1   -1.334523523184145E-1   -2.591194835364078E-3   -2.226525707771967E-3   -2.664053044005902E-3   -2.267655426732485E-3    3.457521858675199E-1   -3.479490259638851E-1
 9.937678869000000E9     4.629288370169559E-1   -1.335169925639948E-1   -2.637505577713994E-3   -2.307063294690703E-3   -2.714365818644238E-3   -2.278895442359779E-3    3.450682008465563E-1   -3.481853193901571E-1
