#  HZ   S   RI   R     50.00 
! Rohde & Schwarz Vector Network Analyzer 
! Rohde-Schwarz,ZNB20-2Port,1311601062101988,3.16
! Created: UTC 3/20/2024, 11:15:57 PM
! freq[Hz]                re:S11                  im:S11                  re:S21                  im:S21                  re:S12                  im:S12                  re:S22                  im:S22
 9.937517554000000E9     4.667808191981444E-1   -1.226371256328270E-1   -8.058875642429013E-4   -8.693102702280755E-4   -8.594978910705781E-4   -8.711669930541088E-4    3.693658857745863E-1   -3.315839334237671E-1
 9.937519411725000E9     4.669611825566157E-1   -1.227200923292006E-1   -8.214136054576854E-4   -9.057660928373214E-4   -8.713416607388185E-4   -8.807284662215319E-4    3.688736292340198E-1   -3.318660265715063E-1
 9.937521269450001E9     4.666541672681586E-1   -1.228069007440263E-1   -8.614215779807173E-4   -9.216630038234459E-4   -8.291491736135413E-4   -8.641270176872334E-4    3.689249216190493E-1   -3.319795147928047E-1
 9.937523127174999E9     4.666380541090317E-1   -1.229749944825569E-1   -8.687112958714194E-4   -9.284820911644514E-4   -8.623877139252340E-4   -8.919341324093125E-4    3.684126299636903E-1   -3.322287898991982E-1
 9.937524984900000E9     4.666417244882656E-1   -1.233023555989281E-1   -8.787888871850996E-4   -9.562137630107661E-4   -8.838639211045529E-4   -9.104222296801474E-4    3.683077050414550E-1   -3.320461837052575E-1
 9.937526842625000E9     4.666632793861559E-1   -1.232531566503020E-1   -8.581909716067434E-4   -9.345488038613007E-4   -9.137004077302196E-4   -9.461531439728406E-4    3.682171753856751E-1   -3.323242820414488E-1
 9.937528700350000E9     4.664910210483362E-1   -1.234173534370815E-1   -8.572455123456349E-4   -9.300829145037213E-4   -9.360411602210718E-4   -9.221605760840913E-4    3.680616848618609E-1   -3.325588380921297E-1
 9.937530558075001E9     4.666369055089358E-1   -1.235635939869544E-1   -8.920617593183329E-4   -9.545346579555254E-4   -9.351183253557897E-4   -9.583196131285463E-4    3.676912596447409E-1   -3.327766786138806E-1
 9.937532415799999E9     4.665316966880220E-1   -1.236479213664029E-1   -9.092136526238394E-4   -9.426565588551430E-4   -9.295513018654179E-4   -9.252646536552734E-4    3.675784929180228E-1   -3.327983303020771E-1
 9.937534273525000E9     4.663796348561879E-1   -1.237481467485998E-1   -9.028693427841346E-4   -9.674437322305674E-4   -9.226203643134663E-4   -9.748196842162710E-4    3.674879146118496E-1   -3.330319472634422E-1
 9.937536131250000E9     4.663591861099924E-1   -1.239176610795309E-1   -8.931983496321295E-4   -9.736975290039136E-4   -9.800572302572537E-4   -9.669570915868023E-4    3.673155884139407E-1   -3.332403283880663E-1
 9.937537988975000E9     4.662815037759911E-1   -1.240888125769980E-1   -9.572979226289402E-4   -1.015176222501365E-3   -9.859499680851564E-4   -9.951783477887425E-4    3.670557535860411E-1   -3.333868599543954E-1
 9.937539846700001E9     4.663856664070735E-1   -1.241878289846524E-1   -9.633309301952404E-4   -9.881875362679194E-4   -9.722351347527485E-4   -9.864638050555491E-4    3.669981518696609E-1   -3.336567792230692E-1
 9.937541704424999E9     4.662505801433265E-1   -1.242239537736012E-1   -9.622606930186992E-4   -9.968360614099681E-4   -1.018622053508417E-3   -9.931402644032920E-4    3.665593156618835E-1   -3.336445815190237E-1
 9.937543562150000E9     4.662672149956130E-1   -1.243014819657938E-1   -9.799803186996765E-4   -1.020866824704063E-3   -1.034643511059465E-3   -1.021134370257513E-3    3.663805612612977E-1   -3.339885304852739E-1
 9.937545419875000E9     4.661203386229436E-1   -1.245225939684549E-1   -9.832222533718827E-4   -1.038246659025415E-3   -1.009427257342939E-3   -1.035939618271481E-3    3.662992967538460E-1   -3.342438299377563E-1
 9.937547277600000E9     4.662614089942216E-1   -1.247430282668144E-1   -1.013237599586964E-3   -1.058044443926701E-3   -1.004746220467652E-3   -1.034285425143564E-3    3.660824548188144E-1   -3.341112738537919E-1
 9.937549135325001E9     4.660719687518206E-1   -1.247705324621996E-1   -1.024422976947619E-3   -1.073554585349330E-3   -1.066263115806507E-3   -1.078050462937631E-3    3.659161215371980E-1   -3.342874780921848E-1
 9.937550993049999E9     4.661366575354987E-1   -1.249310565893111E-1   -1.088011347712893E-3   -1.066408930971955E-3   -1.059537402130571E-3   -1.073198825930622E-3    3.657308933117196E-1   -3.345361693226588E-1
 9.937552850775000E9     4.662133750051724E-1   -1.250302055086092E-1   -1.054240199626705E-3   -1.048188951794526E-3   -1.050314668280075E-3   -1.086010393334851E-3    3.654847894768266E-1   -3.346217699879817E-1
 9.937554708500000E9     4.659703722977383E-1   -1.251403829072442E-1   -1.042045469288015E-3   -1.113794576454395E-3   -1.088106548747954E-3   -1.084952994999642E-3    3.653651224380239E-1   -3.348234439441128E-1
 9.937556566225000E9     4.658009688891060E-1   -1.251787502233555E-1   -1.056831737330123E-3   -1.094192823463949E-3   -1.077788137609970E-3   -1.100248170556955E-3    3.649058612620909E-1   -3.347381347158838E-1
 9.937558423950001E9     4.658961352782471E-1   -1.254678780682464E-1   -1.057613961689935E-3   -1.123022459596381E-3   -1.111853735377900E-3   -1.109823288661017E-3    3.648084292934728E-1   -3.351435167496740E-1
 9.937560281674999E9     4.658700093972957E-1   -1.255095358265921E-1   -1.078643661961776E-3   -1.151535128589217E-3   -1.135217995307149E-3   -1.091257490105143E-3    3.646271503871497E-1   -3.354617445789808E-1
 9.937562139400000E9     4.658999912780490E-1   -1.256925370526302E-1   -1.103982587334377E-3   -1.178150805539152E-3   -1.132562048133791E-3   -1.135860274522037E-3    3.645363039370745E-1   -3.354403763426357E-1
 9.937563997125000E9     4.657611067588175E-1   -1.257988810341528E-1   -1.151376519794067E-3   -1.174002678160502E-3   -1.153419716525569E-3   -1.127775249819500E-3    3.642102034362851E-1   -3.356583453807829E-1
 9.937565854850000E9     4.656696100405663E-1   -1.258611368410645E-1   -1.141957013747567E-3   -1.156123273008975E-3   -1.182125265916548E-3   -1.152114777835555E-3    3.639861440921250E-1   -3.358595985873187E-1
 9.937567712575001E9     4.656416794176004E-1   -1.260104558624467E-1   -1.134343741935687E-3   -1.168485501828126E-3   -1.203872914328566E-3   -1.185488853344988E-3    3.637263387388360E-1   -3.360092920510563E-1
 9.937569570299999E9     4.656672148046857E-1   -1.262387319082190E-1   -1.189528944808434E-3   -1.190712042035563E-3   -1.182610859689442E-3   -1.212110610376513E-3    3.636238104762328E-1   -3.361754843666434E-1
 9.937571428025000E9     4.656351190214236E-1   -1.263066800194476E-1   -1.152451157917126E-3   -1.214670825850717E-3   -1.210748267659223E-3   -1.194380474871066E-3    3.632841437891748E-1   -3.362710387559359E-1
 9.937573285750000E9     4.656652971751759E-1   -1.264139446999756E-1   -1.206005826805500E-3   -1.230103205611315E-3   -1.246267457780773E-3   -1.181425811607266E-3    3.630075895671457E-1   -3.367044169297509E-1
 9.937575143475000E9     4.654600112255945E-1   -1.264862726616999E-1   -1.206038335595535E-3   -1.215985860009833E-3   -1.274237415319034E-3   -1.232758266822710E-3    3.627207222213361E-1   -3.367162434211056E-1
 9.937577001200001E9     4.653818364107208E-1   -1.266562982735105E-1   -1.225686689015784E-3   -1.291667295868034E-3   -1.265931169065167E-3   -1.252155878725092E-3    3.626533244980168E-1   -3.369164061422980E-1
 9.937578858924999E9     4.654552523879477E-1   -1.267159557119975E-1   -1.239093392481530E-3   -1.243883130589992E-3   -1.284834344965438E-3   -1.244927018086357E-3    3.623732722992449E-1   -3.370457401511719E-1
 9.937580716650000E9     4.652970926790913E-1   -1.268843175019146E-1   -1.232105161700168E-3   -1.267124682225360E-3   -1.280185798517588E-3   -1.269646149317076E-3    3.620601549032300E-1   -3.370932819089484E-1
 9.937582574375000E9     4.653035657005590E-1   -1.270115381377920E-1   -1.292481038021105E-3   -1.282518541074491E-3   -1.322543167778090E-3   -1.271363178419286E-3    3.620128351128125E-1   -3.374573635092780E-1
 9.937584432100000E9     4.653988668144322E-1   -1.272412220255144E-1   -1.245730902435779E-3   -1.293731330021752E-3   -1.310863334645084E-3   -1.286819939772048E-3    3.617107097631484E-1   -3.375201857624157E-1
 9.937586289825001E9     4.652575533072879E-1   -1.272425791239956E-1   -1.311355460335935E-3   -1.283320617183134E-3   -1.354273528450961E-3   -1.324501262744284E-3    3.615039138281002E-1   -3.378243535038801E-1
 9.937588147549999E9     4.651014749324407E-1   -1.275034493155887E-1   -1.336614729269127E-3   -1.331131668090472E-3   -1.353996541921709E-3   -1.317121906737190E-3    3.611480788921295E-1   -3.380208867744472E-1
 9.937590005275000E9     4.651104389379226E-1   -1.276283360036322E-1   -1.326662761816056E-3   -1.336516411859094E-3   -1.412849040366315E-3   -1.356762599204623E-3    3.611676788210257E-1   -3.381667939829310E-1
 9.937591863000000E9     4.649506006088404E-1   -1.276829823852895E-1   -1.341176270992130E-3   -1.363952234017176E-3   -1.387804757793991E-3   -1.365858271346880E-3    3.606788685030283E-1   -3.383030864958161E-1
 9.937593720725000E9     4.649769461116190E-1   -1.277814559561294E-1   -1.368896958006293E-3   -1.346660455466832E-3   -1.402980492754806E-3   -1.364551053975199E-3    3.603650389307919E-1   -3.384431996228836E-1
 9.937595578450001E9     4.649923336922842E-1   -1.279226593908901E-1   -1.411681693663883E-3   -1.378830401831779E-3   -1.443462936240112E-3   -1.367590916231435E-3    3.602283361026879E-1   -3.386259580585384E-1
 9.937597436174999E9     4.649551350520586E-1   -1.279726554570652E-1   -1.401949948342325E-3   -1.419083260636451E-3   -1.493542522683176E-3   -1.421506427024940E-3    3.599326136764706E-1   -3.389862686855288E-1
 9.937599293900000E9     4.649702927100381E-1   -1.281414697523106E-1   -1.435004597182714E-3   -1.429965485753796E-3   -1.465112632555092E-3   -1.430584181821663E-3    3.599104623410268E-1   -3.390998379643287E-1
 9.937601151625000E9     4.649095780873970E-1   -1.282990640891018E-1   -1.457866267436837E-3   -1.428277177987601E-3   -1.496903209368964E-3   -1.436378125470693E-3    3.594825184578695E-1   -3.391886060875041E-1
 9.937603009350000E9     4.648869049564746E-1   -1.285887505237788E-1   -1.426081283741167E-3   -1.444153290116074E-3   -1.489015966003162E-3   -1.478212420218602E-3    3.592850456142697E-1   -3.393675511131007E-1
 9.937604867075001E9     4.648618585167585E-1   -1.285736506003024E-1   -1.449618872556464E-3   -1.438262972706303E-3   -1.509495375761498E-3   -1.438436402223727E-3    3.589426306198495E-1   -3.395671265324239E-1
 9.937606724799999E9     4.647382016166252E-1   -1.286480227445446E-1   -1.510865148718629E-3   -1.469374939900121E-3   -1.553509973635197E-3   -1.491390499161696E-3    3.588617980959266E-1   -3.396756924572383E-1
 9.937608582525000E9     4.648124394539207E-1   -1.288736596764307E-1   -1.510171134087357E-3   -1.485813227674992E-3   -1.576896602681173E-3   -1.496147256611976E-3    3.584442659918722E-1   -3.399693468927047E-1
 9.937610440250000E9     4.645513027703170E-1   -1.289817515018175E-1   -1.572693262301658E-3   -1.528320738441313E-3   -1.596974227250519E-3   -1.520163084120107E-3    3.583156051731886E-1   -3.402394751950584E-1
 9.937612297975000E9     4.645171093613505E-1   -1.291011025356059E-1   -1.562656494225736E-3   -1.505363854272493E-3   -1.573610251553562E-3   -1.531557768542744E-3    3.580971841340864E-1   -3.402439932203224E-1
 9.937614155700001E9     4.645351256570420E-1   -1.291674802852324E-1   -1.609099033829877E-3   -1.514699696391944E-3   -1.612663881839277E-3   -1.563201217621686E-3    3.577402795943104E-1   -3.406211825781986E-1
 9.937616013424999E9     4.645067587817610E-1   -1.292612537114937E-1   -1.605282986209215E-3   -1.543401916124332E-3   -1.675711451227295E-3   -1.571962058840314E-3    3.572682062254257E-1   -3.405601104477795E-1
 9.937617871150000E9     4.644514130353637E-1   -1.295096770710804E-1   -1.628697306703014E-3   -1.590429951228837E-3   -1.687700648232414E-3   -1.576605753542195E-3    3.573986171954019E-1   -3.407974175493428E-1
 9.937619728875000E9     4.645320598774116E-1   -1.294916014556588E-1   -1.652783454321502E-3   -1.576438568156222E-3   -1.673812928883401E-3   -1.600532919984849E-3    3.568465212195016E-1   -3.411940327020473E-1
 9.937621586600000E9     4.642771916171509E-1   -1.296689715883339E-1   -1.673254705152542E-3   -1.618948009734098E-3   -1.698541779523021E-3   -1.645775845628285E-3    3.565744310431153E-1   -3.414454156108810E-1
 9.937623444325001E9     4.643927556135652E-1   -1.298349892437181E-1   -1.679994768045824E-3   -1.631095517907143E-3   -1.734872787604005E-3   -1.621652238271165E-3    3.561855574032010E-1   -3.413134195238612E-1
 9.937625302049999E9     4.643287698424735E-1   -1.299869352047864E-1   -1.721156290409698E-3   -1.650768255735643E-3   -1.763034968802405E-3   -1.660027774634037E-3    3.559583417778324E-1   -3.418453121032636E-1
 9.937627159775000E9     4.642520529065637E-1   -1.299334571911083E-1   -1.740937202184738E-3   -1.661805637963272E-3   -1.752955392093913E-3   -1.635263967433780E-3    3.556238640652204E-1   -3.420082349322913E-1
 9.937629017500000E9     4.642607126791953E-1   -1.301178082063432E-1   -1.741098387312749E-3   -1.673565397212286E-3   -1.809004411665458E-3   -1.659895777834699E-3    3.553531672088640E-1   -3.419580325705441E-1
 9.937630875225000E9     4.640918765523888E-1   -1.303066122796886E-1   -1.791341819830349E-3   -1.714191178125019E-3   -1.827193068792331E-3   -1.668371854610761E-3    3.549410647357685E-1   -3.422796015339100E-1
 9.937632732950001E9     4.640656560426945E-1   -1.303089942610280E-1   -1.823418420298957E-3   -1.707258672125006E-3   -1.854902486563237E-3   -1.705900484333572E-3    3.545867394035764E-1   -3.424537771581024E-1
 9.937634590674999E9     4.641592737871492E-1   -1.305115038189728E-1   -1.880550905629318E-3   -1.715104180774626E-3   -1.902455014697146E-3   -1.720149219710305E-3    3.544551672443209E-1   -3.427270415173265E-1
 9.937636448400000E9     4.640343774485983E-1   -1.306236949000498E-1   -1.863480655377678E-3   -1.793876530210172E-3   -1.894502774978566E-3   -1.764677669294890E-3    3.539969288793842E-1   -3.429929461198557E-1
 9.937638306125000E9     4.639055324473834E-1   -1.309033198249192E-1   -1.884645865819789E-3   -1.778273446283368E-3   -1.927190414597578E-3   -1.777417686952068E-3    3.534990147444977E-1   -3.430096854256202E-1
 9.937640163850000E9     4.639571994219450E-1   -1.307960314660080E-1   -1.918302797997231E-3   -1.807172119083532E-3   -1.970238313517247E-3   -1.792102291522792E-3    3.536222396695799E-1   -3.433477040694802E-1
 9.937642021575001E9     4.638515221003971E-1   -1.311084135668162E-1   -1.922100295371579E-3   -1.793362587380061E-3   -1.971888096735052E-3   -1.803962839868232E-3    3.532462648620018E-1   -3.435326374988916E-1
 9.937643879299999E9     4.638188970363272E-1   -1.311553252399973E-1   -1.964752697168363E-3   -1.846456861454398E-3   -2.019866525954359E-3   -1.805644540900872E-3    3.526697880310986E-1   -3.436751413203873E-1
 9.937645737025000E9     4.638304640491890E-1   -1.313031201876365E-1   -1.983370517955551E-3   -1.867583546122755E-3   -2.047837248659438E-3   -1.848636114178313E-3    3.524981959887843E-1   -3.439923396247332E-1
 9.937647594750000E9     4.638893702270910E-1   -1.314964809896221E-1   -2.044510942482793E-3   -1.890438412881297E-3   -2.029862438603057E-3   -1.830881034639561E-3    3.522206825876503E-1   -3.440676997342300E-1
 9.937649452475000E9     4.637801291065771E-1   -1.315151415954621E-1   -1.984784093455545E-3   -1.902813380960338E-3   -2.091848079090246E-3   -1.917871592977026E-3    3.517638022385631E-1   -3.443051385682211E-1
 9.937651310200001E9     4.637153055400013E-1   -1.316266424590632E-1   -2.047129558387980E-3   -1.878198026118063E-3   -2.145067176359593E-3   -1.932003697391677E-3    3.515490203277890E-1   -3.447733817804630E-1
 9.937653167924999E9     4.635166683899065E-1   -1.317125332738110E-1   -2.129930263593829E-3   -1.920400640555823E-3   -2.138692322307374E-3   -1.944759774370659E-3    3.510596041088951E-1   -3.449844427256816E-1
 9.937655025650000E9     4.635781324179898E-1   -1.319522393078468E-1   -2.152632944393182E-3   -1.976767715895736E-3   -2.179345225137894E-3   -1.953724419710886E-3    3.507769489886675E-1   -3.450584561398234E-1
 9.937656883375000E9     4.635493194707535E-1   -1.320106319127367E-1   -2.165268678485298E-3   -1.965387509817424E-3   -2.187855138737049E-3   -1.957467967767477E-3    3.504227395271613E-1   -3.452166950903941E-1
 9.937658741100000E9     4.635999462323624E-1   -1.320547445031529E-1   -2.200782676104166E-3   -2.016981320516472E-3   -2.232244320051284E-3   -2.023956752145005E-3    3.501382521721311E-1   -3.455178711082219E-1
 9.937660598825001E9     4.634203504480077E-1   -1.322555738057530E-1   -2.225526110564077E-3   -2.025531683235000E-3   -2.311104384800579E-3   -2.007390280806698E-3    3.497333017280800E-1   -3.457334889077954E-1
 9.937662456549999E9     4.633307984314590E-1   -1.324037865791288E-1   -2.239917643973585E-3   -2.040472011139631E-3   -2.295385146434793E-3   -2.032749102625948E-3    3.494203664494057E-1   -3.458489129404654E-1
 9.937664314275000E9     4.633727374799577E-1   -1.325505286521595E-1   -2.278854098938059E-3   -2.067969618438050E-3   -2.334547762321721E-3   -2.053670110469721E-3    3.490895708204623E-1   -3.463619438052518E-1
 9.937666172000000E9     4.633963074025697E-1   -1.326668577828325E-1   -2.322356254790553E-3   -2.081662363641613E-3   -2.396117348094517E-3   -2.089465653588522E-3    3.485278456915097E-1   -3.463073192918573E-1
 9.937668029725000E9     4.633239774925865E-1   -1.328226686168737E-1   -2.339346734412032E-3   -2.115649442056217E-3   -2.402543833386197E-3   -2.113961221498037E-3    3.480616824750318E-1   -3.467368419581448E-1
 9.937669887450001E9     4.631838113479095E-1   -1.327813650385687E-1   -2.336899919364490E-3   -2.119870184797013E-3   -2.447240480831334E-3   -2.113672858103525E-3    3.478840684209545E-1   -3.467265477099512E-1
 9.937671745174999E9     4.631872648271077E-1   -1.330822282395387E-1   -2.435794132438054E-3   -2.165980293417399E-3   -2.500287336076243E-3   -2.139282121603192E-3    3.475057993163671E-1   -3.469352964887759E-1
 9.937673602900000E9     4.631850500938728E-1   -1.331100735336401E-1   -2.449997589423387E-3   -2.187984478337363E-3   -2.518405755136436E-3   -2.156593742418475E-3    3.471915576871550E-1   -3.474250373295325E-1
 9.937675460625000E9     4.631287300657512E-1   -1.332836753827687E-1   -2.479062780645836E-3   -2.195119504314918E-3   -2.558810957608739E-3   -2.216743353980840E-3    3.468438149582586E-1   -3.474669999420992E-1
 9.937677318350000E9     4.631199431738203E-1   -1.334129661414799E-1   -2.502595782141472E-3   -2.210537022652348E-3   -2.598114774108556E-3   -2.214820752424755E-3    3.462954390030387E-1   -3.477973452215375E-1
 9.937679176075001E9     4.629205490138122E-1   -1.336541178497107E-1   -2.541261106147847E-3   -2.249446370128547E-3   -2.636606298785929E-3   -2.250031598954043E-3    3.455345201053518E-1   -3.480666225243839E-1
 9.937681033799999E9     4.629315958586995E-1   -1.337347935989168E-1   -2.610179490783517E-3   -2.259765055183491E-3   -2.644660633697237E-3   -2.263820674697084E-3    3.454064790441799E-1   -3.479702714303868E-1
 9.937682891525000E9     4.629576512586567E-1   -1.336625528181904E-1   -2.632896548920603E-3   -2.309573132320803E-3   -2.692696897067157E-3   -2.298988471043334E-3    3.449990178601258E-1   -3.484763097959881E-1
 9.937684749250000E9     4.628835093761118E-1   -1.338596836737241E-1   -2.689498605075904E-3   -2.334794728376631E-3   -2.754873653292118E-3   -2.305186761025900E-3    3.444190834252098E-1   -3.487503722836299E-1
