#  HZ   S   RI   R     50.00 
! Rohde & Schwarz Vector Network Analyzer 
! Rohde-Schwarz,ZNB20-2Port,1311601062101988,3.16
! Created: UTC 3/20/2024, 11:16:02 PM
! freq[Hz]                re:S11                  im:S11                  re:S21                  im:S21                  re:S12                  im:S12                  re:S22                  im:S22
 9.937522358000000E9     4.666411805945827E-1   -1.229643793677906E-1   -8.846547287465203E-4   -8.993753190306014E-4   -8.540481723924644E-4   -8.813306647360503E-4    3.689265544532450E-1   -3.320305511607280E-1
 9.937524200150000E9     4.666529952940271E-1   -1.230538251849585E-1   -8.300325725172383E-4   -8.989327368755624E-4   -8.813494955637630E-4   -9.308667440891781E-4    3.685453348452840E-1   -3.321393485563601E-1
 9.937526042299999E9     4.666353208878346E-1   -1.232226123207215E-1   -8.740360592205055E-4   -9.030486565953677E-4   -8.774800540348847E-4   -9.223961818666751E-4    3.684086448825415E-1   -3.322489298890753E-1
 9.937527884450001E9     4.666525432996952E-1   -1.232799074724878E-1   -8.580392365571624E-4   -9.053543029398306E-4   -9.159347251780346E-4   -9.034211774405893E-4    3.683726205019214E-1   -3.324174286895772E-1
 9.937529726600000E9     4.666075752836770E-1   -1.234718275754975E-1   -8.832208207156000E-4   -9.091758337141109E-4   -8.981550020809283E-4   -9.334664391152714E-4    3.679728415703042E-1   -3.325067972708973E-1
 9.937531568750000E9     4.665054286013626E-1   -1.234898014256941E-1   -9.036198881010222E-4   -9.595691260223984E-4   -9.504625778933208E-4   -9.350995905420068E-4    3.678591983456296E-1   -3.328174929356632E-1
 9.937533410900000E9     4.665217656131518E-1   -1.235780602511016E-1   -8.962424619643498E-4   -9.420339297382383E-4   -9.013940731310417E-4   -9.626897307614648E-4    3.676720785401453E-1   -3.330925139639583E-1
 9.937535253049999E9     4.663258273972584E-1   -1.239180017241101E-1   -9.028445119784426E-4   -9.792433546751049E-4   -9.513479095250329E-4   -9.864772537104762E-4    3.676023684603230E-1   -3.330770112377540E-1
 9.937537095200001E9     4.663169327432355E-1   -1.239869127931708E-1   -8.931853571874941E-4   -9.660360911835029E-4   -9.460135175396126E-4   -9.786595632340440E-4    3.675720963393277E-1   -3.332803941352981E-1
 9.937538937350000E9     4.662954967219701E-1   -1.240643515072015E-1   -9.520483606743371E-4   -9.651545090672612E-4   -9.970500188850920E-4   -9.985720021188798E-4    3.672437221994188E-1   -3.332727002392105E-1
 9.937540779500000E9     4.663193859715291E-1   -1.241468358130892E-1   -9.718736932723943E-4   -1.001380290232865E-3   -9.610322342183089E-4   -1.010806520196778E-3    3.667998490010064E-1   -3.336161653544437E-1
 9.937542621650000E9     4.662170620737214E-1   -1.243767796585613E-1   -9.345820824632314E-4   -1.003797966894136E-3   -9.869786613591637E-4   -1.014583382936378E-3    3.666500809177443E-1   -3.337102282464093E-1
 9.937544463799999E9     4.661726260785233E-1   -1.244045256018924E-1   -9.694404015317080E-4   -1.056901516227608E-3   -1.026567281634904E-3   -1.007089092227325E-3    3.664090484626861E-1   -3.339112555806647E-1
 9.937546305950001E9     4.660911095065259E-1   -1.245541584413036E-1   -1.011140695465302E-3   -1.060195524389499E-3   -1.010883103661296E-3   -1.027450339950736E-3    3.660889451104186E-1   -3.340114342548074E-1
 9.937548148100000E9     4.660478941475465E-1   -1.247932702205719E-1   -1.002440160433227E-3   -1.043958963320335E-3   -1.014166200060075E-3   -1.046379993232895E-3    3.661899167006099E-1   -3.341398453487535E-1
 9.937549990250000E9     4.660805965779795E-1   -1.248188118357939E-1   -1.031681125140045E-3   -1.053462824090994E-3   -1.019423629158656E-3   -1.068543107859931E-3    3.658740811933253E-1   -3.346130563526771E-1
 9.937551832400000E9     4.660234499381336E-1   -1.250084267466605E-1   -1.045622341532051E-3   -1.082693969514143E-3   -1.033852224973313E-3   -1.068833327919116E-3    3.656827925158473E-1   -3.342867902114067E-1
 9.937553674549999E9     4.659760864367009E-1   -1.250305804599496E-1   -1.048240497853499E-3   -1.089188434673423E-3   -1.023735733243689E-3   -1.052952047831602E-3    3.653540158583510E-1   -3.347932024612060E-1
 9.937555516700001E9     4.660237132528897E-1   -1.251817128537606E-1   -1.028184961756184E-3   -1.084876767472019E-3   -1.055594276009662E-3   -1.065198369296244E-3    3.652216600709639E-1   -3.349282952827543E-1
 9.937557358850000E9     4.659350315872640E-1   -1.253725767161455E-1   -1.064650736257390E-3   -1.082612052108609E-3   -1.092985857169417E-3   -1.096616970923008E-3    3.650674893250750E-1   -3.349250163214844E-1
 9.937559201000000E9     4.658278734348968E-1   -1.255093538320479E-1   -1.104637548741767E-3   -1.091599735333836E-3   -1.114159161146635E-3   -1.095592713962721E-3    3.648777742346530E-1   -3.350185972862955E-1
 9.937561043150000E9     4.658413041702706E-1   -1.256502828069001E-1   -1.099625194846322E-3   -1.123353442252339E-3   -1.127172681286252E-3   -1.102020309977547E-3    3.646179087700315E-1   -3.353635065051143E-1
 9.937562885299999E9     4.657225947777819E-1   -1.257355709939585E-1   -1.101608604763340E-3   -1.134405514287037E-3   -1.140513013638950E-3   -1.102254208196010E-3    3.644388179609178E-1   -3.354664874212817E-1
 9.937564727450001E9     4.656843566438389E-1   -1.258080442097870E-1   -1.086465408537557E-3   -1.145789678503698E-3   -1.126708608421249E-3   -1.147481729939568E-3    3.642901621843174E-1   -3.357007495206215E-1
 9.937566569600000E9     4.658126697399177E-1   -1.259423347235764E-1   -1.152980396446126E-3   -1.144524249222445E-3   -1.170070182764251E-3   -1.156872361433851E-3    3.638838923812627E-1   -3.357589026994510E-1
 9.937568411750000E9     4.656674642930975E-1   -1.261159910593257E-1   -1.139620666715445E-3   -1.188103041813496E-3   -1.177622172245676E-3   -1.143713586254273E-3    3.639332828618105E-1   -3.360836683281351E-1
 9.937570253900000E9     4.655800665812663E-1   -1.261688015074427E-1   -1.139551293786343E-3   -1.192726518690875E-3   -1.189959821995481E-3   -1.164661299707025E-3    3.634940242708500E-1   -3.361084711472238E-1
 9.937572096049999E9     4.657007455773596E-1   -1.263015358087728E-1   -1.202481710043448E-3   -1.173485197483689E-3   -1.179209201747379E-3   -1.216444796987781E-3    3.632155982131278E-1   -3.364058782978044E-1
 9.937573938200001E9     4.656744840491300E-1   -1.264167150310222E-1   -1.198228694187503E-3   -1.199287377328279E-3   -1.213815166534673E-3   -1.232067505065024E-3    3.630337245572596E-1   -3.364834311356301E-1
 9.937575780350000E9     4.654300171484375E-1   -1.266738723034412E-1   -1.198540702641957E-3   -1.259134438877504E-3   -1.235885716385044E-3   -1.222968796526858E-3    3.628549881520947E-1   -3.366722706993945E-1
 9.937577622500000E9     4.654639849230766E-1   -1.266763765946591E-1   -1.220701996289420E-3   -1.233690069122515E-3   -1.240305458381284E-3   -1.253659153269951E-3    3.624311982970096E-1   -3.370616935718377E-1
 9.937579464650000E9     4.654202329337734E-1   -1.268531476692681E-1   -1.230375066795009E-3   -1.260368331104168E-3   -1.284037634498353E-3   -1.253430121545598E-3    3.624443405521195E-1   -3.370311571789384E-1
 9.937581306799999E9     4.653581063939758E-1   -1.269372651449235E-1   -1.277041914435829E-3   -1.277846471878245E-3   -1.290379188685098E-3   -1.248424351003545E-3    3.620324005988184E-1   -3.374727171356591E-1
 9.937583148950001E9     4.653223458483643E-1   -1.271537270636384E-1   -1.287229560640889E-3   -1.246002425775867E-3   -1.327461016236721E-3   -1.265620274681484E-3    3.620661736536402E-1   -3.374096711031984E-1
 9.937584991100000E9     4.651761964164238E-1   -1.273177885913761E-1   -1.288451777573573E-3   -1.286305776072394E-3   -1.310434488375678E-3   -1.313113165819362E-3    3.614605096610755E-1   -3.375979803028855E-1
 9.937586833250000E9     4.651678177538714E-1   -1.273958844517171E-1   -1.267345902996749E-3   -1.279747049025226E-3   -1.331698727814403E-3   -1.311381335979330E-3    3.616283870080663E-1   -3.379449445827744E-1
 9.937588675400000E9     4.652450478344051E-1   -1.274745906001389E-1   -1.281433971253636E-3   -1.324288268257171E-3   -1.365084142236576E-3   -1.313126027639113E-3    3.612610146688404E-1   -3.378826239148898E-1
 9.937590517549999E9     4.652024333714819E-1   -1.275936437683077E-1   -1.343237882208090E-3   -1.324488022828639E-3   -1.364793071846669E-3   -1.304336815848467E-3    3.609087075547673E-1   -3.380337681828707E-1
 9.937592359700001E9     4.651078133581114E-1   -1.276904025138728E-1   -1.365142922932586E-3   -1.358916609786122E-3   -1.401993068408455E-3   -1.352084441341956E-3    3.606619820249314E-1   -3.384426981232066E-1
 9.937594201850000E9     4.650322483235491E-1   -1.276865177685545E-1   -1.350895540959762E-3   -1.354891178249783E-3   -1.392068108989506E-3   -1.346089091238159E-3    3.604059198905759E-1   -3.385686554997872E-1
 9.937596044000000E9     4.649446667801866E-1   -1.280562911465994E-1   -1.394388469577340E-3   -1.374726845443675E-3   -1.425893105740015E-3   -1.356617334408480E-3    3.604390737708933E-1   -3.387750288727516E-1
 9.937597886150000E9     4.650820249508024E-1   -1.281601805459164E-1   -1.383254885997284E-3   -1.432270025655875E-3   -1.430312496058001E-3   -1.379468933101978E-3    3.600856791117561E-1   -3.387599375583253E-1
 9.937599728299999E9     4.648045439341980E-1   -1.282000292128249E-1   -1.418227323028540E-3   -1.417393668282432E-3   -1.478781823544454E-3   -1.393403461739191E-3    3.597685303791743E-1   -3.390216664742950E-1
 9.937601570450001E9     4.648408004001682E-1   -1.283632127211415E-1   -1.422275841690297E-3   -1.416194430867702E-3   -1.481501952540301E-3   -1.414572536491852E-3    3.595564673946232E-1   -3.391484309164921E-1
 9.937603412600000E9     4.647791231497009E-1   -1.285319843912306E-1   -1.459280754906307E-3   -1.452202579873841E-3   -1.473413482927110E-3   -1.450886564011274E-3    3.592977161892778E-1   -3.393417244647645E-1
 9.937605254750000E9     4.647070645308711E-1   -1.286186011122401E-1   -1.504790422429737E-3   -1.439587546914562E-3   -1.496278894793202E-3   -1.442611877360244E-3    3.590488557597191E-1   -3.395371617396337E-1
 9.937607096900000E9     4.646673827472855E-1   -1.287061982279499E-1   -1.507062273334003E-3   -1.460165256177324E-3   -1.573306691144560E-3   -1.471851780849580E-3    3.587570197056762E-1   -3.396713077718044E-1
 9.937608939049999E9     4.647298538619738E-1   -1.287786518888287E-1   -1.527262821069261E-3   -1.496711852463781E-3   -1.540864922143730E-3   -1.484379256180219E-3    3.584835991460634E-1   -3.399994222778152E-1
 9.937610781200001E9     4.646874065786138E-1   -1.289838031697350E-1   -1.535020197807306E-3   -1.529306270106381E-3   -1.608430090149188E-3   -1.513995764120843E-3    3.584284348680861E-1   -3.400006502042913E-1
 9.937612623350000E9     4.646309686884162E-1   -1.290594192895606E-1   -1.566499878594290E-3   -1.523012708256745E-3   -1.599964644094109E-3   -1.541561515077860E-3    3.579359023772175E-1   -3.404153543387427E-1
 9.937614465500000E9     4.646005907992204E-1   -1.291595377932631E-1   -1.563986358763633E-3   -1.503025317034060E-3   -1.607591783960568E-3   -1.531583467291271E-3    3.577776862029854E-1   -3.405679699419769E-1
 9.937616307650000E9     4.644666641681561E-1   -1.292430188250465E-1   -1.603584500719046E-3   -1.540408461431452E-3   -1.634677135090889E-3   -1.574196833354807E-3    3.572947948912820E-1   -3.406940958664186E-1
 9.937618149799999E9     4.644936468522071E-1   -1.294651750804515E-1   -1.585267716641175E-3   -1.553010413940180E-3   -1.680139992591189E-3   -1.541378775146291E-3    3.570763277869262E-1   -3.409596008192335E-1
 9.937619991950001E9     4.643776165203685E-1   -1.295893873116938E-1   -1.610133206946753E-3   -1.598703428756337E-3   -1.653982488348318E-3   -1.584031000276954E-3    3.568120582501863E-1   -3.409948360102568E-1
 9.937621834100000E9     4.644631957731450E-1   -1.296396208981982E-1   -1.651061642464991E-3   -1.626786859168503E-3   -1.701823625462101E-3   -1.606650471761057E-3    3.566538993767345E-1   -3.413376825646235E-1
 9.937623676250000E9     4.644361522351544E-1   -1.297717908858677E-1   -1.688868048397551E-3   -1.626299067396444E-3   -1.728907545694793E-3   -1.651043388034783E-3    3.563949520142398E-1   -3.416982729042644E-1
 9.937625518400000E9     4.643676451703018E-1   -1.298769552823651E-1   -1.695188605723846E-3   -1.642957513879923E-3   -1.778024482610288E-3   -1.642213118596095E-3    3.560218359325280E-1   -3.415823209762193E-1
 9.937627360549999E9     4.642041029268860E-1   -1.299684266405742E-1   -1.734691846694039E-3   -1.675288228233658E-3   -1.771501871299197E-3   -1.633164400239775E-3    3.555960874450514E-1   -3.417984238973671E-1
 9.937629202700001E9     4.641689291000218E-1   -1.301892757504306E-1   -1.768671327485889E-3   -1.680549113955520E-3   -1.787312599479162E-3   -1.650677975850857E-3    3.553976113382779E-1   -3.421715286276079E-1
 9.937631044850000E9     4.641014212313488E-1   -1.303832291120159E-1   -1.774700808492085E-3   -1.685799816612317E-3   -1.828788668777724E-3   -1.655780159832534E-3    3.551674489600961E-1   -3.423236186704254E-1
 9.937632887000000E9     4.640589489995062E-1   -1.302980631342958E-1   -1.749595951785029E-3   -1.685185327795167E-3   -1.824874688976534E-3   -1.715749765073977E-3    3.550086097215377E-1   -3.424405612097755E-1
 9.937634729150000E9     4.641082728223103E-1   -1.305307870476146E-1   -1.817303042060036E-3   -1.701995491164903E-3   -1.853190856664014E-3   -1.734244983455398E-3    3.546828618251916E-1   -3.426212405971525E-1
 9.937636571299999E9     4.640361427897157E-1   -1.308552861420104E-1   -1.814179481338901E-3   -1.751525241456074E-3   -1.886913169378740E-3   -1.712773639172923E-3    3.542910588955644E-1   -3.429576583510917E-1
 9.937638413450001E9     4.639396854440545E-1   -1.307967631249952E-1   -1.824091303972847E-3   -1.760285547462952E-3   -1.955198481008285E-3   -1.776130437846160E-3    3.538667977957082E-1   -3.430971447469161E-1
 9.937640255600000E9     4.639188539908181E-1   -1.308567455512498E-1   -1.881328318184985E-3   -1.772099121630738E-3   -1.929136276358849E-3   -1.753914246949518E-3    3.535959623316479E-1   -3.432870345369788E-1
 9.937642097750000E9     4.638129866370561E-1   -1.311631250348861E-1   -1.896935388122342E-3   -1.815715785687230E-3   -1.951707254504449E-3   -1.808768423836803E-3    3.533817496860727E-1   -3.436785306928314E-1
 9.937643939900000E9     4.639534919791254E-1   -1.311868128447755E-1   -1.924611524743680E-3   -1.850674768551902E-3   -1.996669735569562E-3   -1.825109949919291E-3    3.529408435578618E-1   -3.435687798399060E-1
 9.937645782049999E9     4.637086553291900E-1   -1.313421057389545E-1   -1.989436335896353E-3   -1.881669371691401E-3   -2.028449042540593E-3   -1.819444765620139E-3    3.527326373798763E-1   -3.438574029748822E-1
 9.937647624200001E9     4.637090139718361E-1   -1.314712044370273E-1   -1.989180196750835E-3   -1.878116581631520E-3   -2.057968239400831E-3   -1.876815162183920E-3    3.524231563531015E-1   -3.441286123829937E-1
 9.937649466350000E9     4.637243478410710E-1   -1.315761668987706E-1   -1.999756571006080E-3   -1.883959827987953E-3   -2.061395508357998E-3   -1.886094048312408E-3    3.519589563488392E-1   -3.443745868881377E-1
 9.937651308500000E9     4.637756439892131E-1   -1.316919211015733E-1   -2.053847415494862E-3   -1.899938317186981E-3   -2.106692261841228E-3   -1.897488037469350E-3    3.518223160566289E-1   -3.444800420374872E-1
 9.937653150650000E9     4.636801159275925E-1   -1.317790920422668E-1   -2.076837436674775E-3   -1.931905870587282E-3   -2.105375529179249E-3   -1.920115830683071E-3    3.513690710994608E-1   -3.448615255336072E-1
 9.937654992799999E9     4.635512678917282E-1   -1.318716636677661E-1   -2.114014356458350E-3   -1.958956292884267E-3   -2.170563093827599E-3   -1.925878105492522E-3    3.510797157066582E-1   -3.450527469898585E-1
 9.937656834950001E9     4.634346244362213E-1   -1.319325061985711E-1   -2.118486088293151E-3   -1.970242164312852E-3   -2.177554279366783E-3   -1.962092865908858E-3    3.508420275474385E-1   -3.452399240003441E-1
 9.937658677100000E9     4.634642406313169E-1   -1.319820522566146E-1   -2.172509083336422E-3   -1.966357847672669E-3   -2.227947869108558E-3   -1.991688340241242E-3    3.501271644579329E-1   -3.454495982908668E-1
 9.937660519250000E9     4.634263075095218E-1   -1.321474595990986E-1   -2.149513521168898E-3   -2.032177538968860E-3   -2.252866783774919E-3   -1.993163221543596E-3    3.498083992178664E-1   -3.456790095159532E-1
 9.937662361400000E9     4.634231671519571E-1   -1.323802592478967E-1   -2.231417859789995E-3   -2.053559644176380E-3   -2.294322960789254E-3   -2.003438279875220E-3    3.495773177455708E-1   -3.459015897494754E-1
 9.937664203549999E9     4.633596172224967E-1   -1.325501263966105E-1   -2.210829539218543E-3   -2.080406070816168E-3   -2.299913960028007E-3   -2.022490634000302E-3    3.493203327541081E-1   -3.459984255967379E-1
 9.937666045700001E9     4.633408808460989E-1   -1.326462548371397E-1   -2.252882825305018E-3   -2.032729900104635E-3   -2.342331121113913E-3   -2.089494974005386E-3    3.487908808811252E-1   -3.462190138079415E-1
 9.937667887850000E9     4.631798104504801E-1   -1.327577628450917E-1   -2.348942030144189E-3   -2.086933236659290E-3   -2.406901205407085E-3   -2.079603441045459E-3    3.484525008140271E-1   -3.465230916773899E-1
 9.937669730000000E9     4.630037868908807E-1   -1.328043692387901E-1   -2.366577829097833E-3   -2.121954515882002E-3   -2.429167600039621E-3   -2.125762273653051E-3    3.481005863437673E-1   -3.466814482275301E-1
 9.937671572150000E9     4.630750074822447E-1   -1.329929366239563E-1   -2.391953330762068E-3   -2.133169960091009E-3   -2.456338507048079E-3   -2.136702520149254E-3    3.475862189404287E-1   -3.469824823391279E-1
 9.937673414299999E9     4.631413367329589E-1   -1.331792037146954E-1   -2.423625870027348E-3   -2.158732524153530E-3   -2.497701891432902E-3   -2.175745643320673E-3    3.471495455906844E-1   -3.470978122068359E-1
 9.937675256450001E9     4.631145622060007E-1   -1.332435184902548E-1   -2.468795769391743E-3   -2.192291000533287E-3   -2.522637339656264E-3   -2.204831830816534E-3    3.467765020924655E-1   -3.474357043850271E-1
 9.937677098600000E9     4.630012801785326E-1   -1.334262278013454E-1   -2.498127305153952E-3   -2.226592112666754E-3   -2.549443786177026E-3   -2.227802547792904E-3    3.466979895156276E-1   -3.475503116431219E-1
 9.937678940750000E9     4.630030884413495E-1   -1.334960503919131E-1   -2.531945837483504E-3   -2.222237990531776E-3   -2.588767627298624E-3   -2.246238700450800E-3    3.461513794937913E-1   -3.477715883284958E-1
 9.937680782900000E9     4.630224518376501E-1   -1.338181092119640E-1   -2.565860540977499E-3   -2.242163739413343E-3   -2.673576491423833E-3   -2.263588725746508E-3    3.456981197311882E-1   -3.480957660113084E-1
 9.937682625049999E9     4.628351093645328E-1   -1.338079979033057E-1   -2.592148234940834E-3   -2.292862098886548E-3   -2.666896501694346E-3   -2.283543394572004E-3    3.452317557423660E-1   -3.484156856832258E-1
 9.937684467200001E9     4.627708970487178E-1   -1.338604610500761E-1   -2.646284351109459E-3   -2.292644253665518E-3   -2.726103127174362E-3   -2.325490245284268E-3    3.448048306240326E-1   -3.486623695636762E-1
 9.937686309350000E9     4.628901289080709E-1   -1.339746780024846E-1   -2.670137459937722E-3   -2.337038142228680E-3   -2.747047148432526E-3   -2.331718377152428E-3    3.442429272341871E-1   -3.485881053473727E-1
 9.937688151500000E9     4.627502228744846E-1   -1.342313922773024E-1   -2.732426247736102E-3   -2.392358930314988E-3   -2.788352269818306E-3   -2.384998995763426E-3    3.437934491081491E-1   -3.490623803322355E-1
