#  HZ   S   RI   R     50.00 
! Rohde & Schwarz Vector Network Analyzer 
! Rohde-Schwarz,ZNB20-2Port,1311601062101988,3.16
! Created: UTC 3/20/2024, 11:16:05 PM
! freq[Hz]                re:S11                  im:S11                  re:S21                  im:S21                  re:S12                  im:S12                  re:S22                  im:S22
 9.937524255000000E9     4.666954208088573E-1   -1.231051690476775E-1   -8.711036328250934E-4   -8.875593179508231E-4   -8.830336699574259E-4   -9.052638280362992E-4    3.685677839347392E-1   -3.321386339178055E-1
 9.937526090875000E9     4.665645192188571E-1   -1.232619999750816E-1   -8.554317543826210E-4   -9.154649566787261E-4   -8.943266437110408E-4   -9.163124604895618E-4    3.685542877412042E-1   -3.321101695184975E-1
 9.937527926750000E9     4.665604413173540E-1   -1.233406018080988E-1   -8.848341803966778E-4   -8.978428106567226E-4   -8.883324422059309E-4   -9.494531212819995E-4    3.684781176306184E-1   -3.324259817679185E-1
 9.937529762625000E9     4.666266849180389E-1   -1.234925045420430E-1   -8.584132473974968E-4   -9.126313101931315E-4   -8.939176776099391E-4   -9.179484741379862E-4    3.679765090697241E-1   -3.326518559240308E-1
 9.937531598500000E9     4.665098133613891E-1   -1.235961002103961E-1   -8.553773881682990E-4   -9.251685854010739E-4   -9.255566935706319E-4   -9.331612321277245E-4    3.679418752042323E-1   -3.329242091101184E-1
 9.937533434375000E9     4.663882627533459E-1   -1.237805878829542E-1   -9.197413741595516E-4   -9.399492868648354E-4   -9.238320103485524E-4   -9.595094384963479E-4    3.676684666005272E-1   -3.329114695060066E-1
 9.937535270250000E9     4.663713030855210E-1   -1.240224876582531E-1   -9.027051004153667E-4   -9.633488597273150E-4   -9.322026910060603E-4   -9.610526304596502E-4    3.672743848936671E-1   -3.332043084753450E-1
 9.937537106125000E9     4.664192868224140E-1   -1.239754605392840E-1   -9.457736001462054E-4   -9.791827336402105E-4   -9.576303161998313E-4   -9.662801409490279E-4    3.670870038268517E-1   -3.331996631422681E-1
 9.937538942000000E9     4.661741495747860E-1   -1.240106673199653E-1   -9.459391019543227E-4   -9.875430815576203E-4   -9.692995196522896E-4   -9.800306173042700E-4    3.670902862906477E-1   -3.332682953266748E-1
 9.937540777875000E9     4.663533488166391E-1   -1.242126470924381E-1   -9.809805798909224E-4   -1.025334235013048E-3   -9.805951194939546E-4   -1.008497907756584E-3    3.669598642809423E-1   -3.334758689186235E-1
 9.937542613750000E9     4.662061357525711E-1   -1.244280159115509E-1   -9.727785352963258E-4   -1.030706071005894E-3   -9.527690762078866E-4   -9.879424782657149E-4    3.667651904088586E-1   -3.336574525280290E-1
 9.937544449625000E9     4.661524466069669E-1   -1.244595421982637E-1   -9.713672199102549E-4   -9.967364748836587E-4   -1.008608245296514E-3   -1.016834289359033E-3    3.665458886725007E-1   -3.337470666538485E-1
 9.937546285500000E9     4.661734322294547E-1   -1.245814180167785E-1   -9.879608136541687E-4   -1.017945415815814E-3   -1.023771764203577E-3   -1.033129871149223E-3    3.662579204662584E-1   -3.340974250530468E-1
 9.937548121375000E9     4.660162015713693E-1   -1.246957046249910E-1   -1.008735661692949E-3   -1.023974133378037E-3   -1.030431729754606E-3   -1.036722532279346E-3    3.662291005168048E-1   -3.341666021230351E-1
 9.937549957250000E9     4.661082938982510E-1   -1.248257672653354E-1   -9.913063882241672E-4   -1.061078709788895E-3   -1.056227637078037E-3   -1.040915514277556E-3    3.658847289040538E-1   -3.344418667285082E-1
 9.937551793125000E9     4.660379495966293E-1   -1.248775280434738E-1   -1.037689927890235E-3   -1.073790611801250E-3   -1.064043970035528E-3   -1.058558886108869E-3    3.657870299471596E-1   -3.343926346371968E-1
 9.937553629000000E9     4.660052538614716E-1   -1.250541870231809E-1   -1.041896087879393E-3   -1.083267994498343E-3   -1.078949533169225E-3   -1.095033981854940E-3    3.656292787429820E-1   -3.345646118412735E-1
 9.937555464875000E9     4.659402998300513E-1   -1.252586004131159E-1   -1.050199790523790E-3   -1.068152610369701E-3   -1.088764899569630E-3   -1.103557298720962E-3    3.653829769065469E-1   -3.349071252950444E-1
 9.937557300750000E9     4.658688669981657E-1   -1.253746806975529E-1   -1.094095990132174E-3   -1.100090164400544E-3   -1.057162906729502E-3   -1.120174332332038E-3    3.649616388465887E-1   -3.349966020570203E-1
 9.937559136625000E9     4.659451514067907E-1   -1.254468028573263E-1   -1.067492154523302E-3   -1.096247063587573E-3   -1.088422949276876E-3   -1.095963023057856E-3    3.649903598735208E-1   -3.352648786574972E-1
 9.937560972500000E9     4.658756964601846E-1   -1.255334314276788E-1   -1.081338197204644E-3   -1.121003316418903E-3   -1.119140047312230E-3   -1.119190157151141E-3    3.646851565388826E-1   -3.351517381720928E-1
 9.937562808375000E9     4.656844186524228E-1   -1.257304622301267E-1   -1.093372847771077E-3   -1.083705818731936E-3   -1.117646288088097E-3   -1.108481149670229E-3    3.644322377206132E-1   -3.354406963866329E-1
 9.937564644250000E9     4.658319744944458E-1   -1.258352057835866E-1   -1.125988404678171E-3   -1.175325186412968E-3   -1.149437937724893E-3   -1.136121741938279E-3    3.642160425324702E-1   -3.357843068863842E-1
 9.937566480125000E9     4.656824754668267E-1   -1.258865434436237E-1   -1.143762712015285E-3   -1.176443948460027E-3   -1.158781982546647E-3   -1.140043282180055E-3    3.640197651990132E-1   -3.359844515662352E-1
 9.937568316000000E9     4.658603582580779E-1   -1.261321550096530E-1   -1.125146460365467E-3   -1.171770251263174E-3   -1.163460200751170E-3   -1.180510672450349E-3    3.638312272282231E-1   -3.360088442369880E-1
 9.937570151875000E9     4.656121843248887E-1   -1.263021859116621E-1   -1.149047297963795E-3   -1.211786005956245E-3   -1.204833389072821E-3   -1.195830874249789E-3    3.635290501424999E-1   -3.363215583588390E-1
 9.937571987750000E9     4.655591049830074E-1   -1.262613275099032E-1   -1.184802051886278E-3   -1.207208319686695E-3   -1.182460871909503E-3   -1.198469181972524E-3    3.634971977570464E-1   -3.361747624135478E-1
 9.937573823625000E9     4.655183686798626E-1   -1.264628942140256E-1   -1.181048054771911E-3   -1.212979111951291E-3   -1.230536298525090E-3   -1.194466379094849E-3    3.632149859518259E-1   -3.364264632629722E-1
 9.937575659500000E9     4.653896124623560E-1   -1.267135448086787E-1   -1.207889994464182E-3   -1.223144265605352E-3   -1.237366478656970E-3   -1.214802951113622E-3    3.628926680152714E-1   -3.367229596095637E-1
 9.937577495375000E9     4.655001462290771E-1   -1.266717137107787E-1   -1.201925557755888E-3   -1.238679091880089E-3   -1.237678617459912E-3   -1.247694812931628E-3    3.627742540934789E-1   -3.369024774528497E-1
 9.937579331250000E9     4.653231460182765E-1   -1.268042363340934E-1   -1.243795497489433E-3   -1.285923551708084E-3   -1.267326546433337E-3   -1.264168482250506E-3    3.626278169524896E-1   -3.372310086501853E-1
 9.937581167125000E9     4.653621820969793E-1   -1.270503013719868E-1   -1.238637825544985E-3   -1.233943062488474E-3   -1.286987986999067E-3   -1.239703709755004E-3    3.623563374680493E-1   -3.372190157027768E-1
 9.937583003000000E9     4.653160876749552E-1   -1.270438904483086E-1   -1.271098099464105E-3   -1.282618663676313E-3   -1.281905138472272E-3   -1.278903271889032E-3    3.619295967434475E-1   -3.374610284046721E-1
 9.937584838875000E9     4.652980512304312E-1   -1.271555500859873E-1   -1.268294532309315E-3   -1.278343759455698E-3   -1.322887622985366E-3   -1.280943759347542E-3    3.619607637911845E-1   -3.375348425705910E-1
 9.937586674750000E9     4.651492420603371E-1   -1.273534927774950E-1   -1.286004607992613E-3   -1.339039549420446E-3   -1.292203285011918E-3   -1.276588141940930E-3    3.614949312260340E-1   -3.377837482476588E-1
 9.937588510625000E9     4.649583877110061E-1   -1.274600567642679E-1   -1.326249274755422E-3   -1.328609967834812E-3   -1.352621813692051E-3   -1.317453585687297E-3    3.613863128277957E-1   -3.379779339149462E-1
 9.937590346500000E9     4.651192028882827E-1   -1.273984532619829E-1   -1.316532052380341E-3   -1.368232352771499E-3   -1.364604090536273E-3   -1.297530044011969E-3    3.610670472556090E-1   -3.380509634835681E-1
 9.937592182375000E9     4.651790678432744E-1   -1.277049326020911E-1   -1.371773257873951E-3   -1.334860428576543E-3   -1.380693989517670E-3   -1.361992026821014E-3    3.609120976316245E-1   -3.381635247452220E-1
 9.937594018250000E9     4.649350534039410E-1   -1.279084497876055E-1   -1.407570430523698E-3   -1.374546341587850E-3   -1.401794793517553E-3   -1.375120897898712E-3    3.605108200077630E-1   -3.384474537494945E-1
 9.937595854125000E9     4.649895891807596E-1   -1.278590734346840E-1   -1.395290280282361E-3   -1.381434977716660E-3   -1.410693072515713E-3   -1.370407167308509E-3    3.603573087300967E-1   -3.386718869086780E-1
 9.937597690000000E9     4.649701976016450E-1   -1.279891034925684E-1   -1.374111986254291E-3   -1.383277287612010E-3   -1.452995891111231E-3   -1.413448013740587E-3    3.600814820112434E-1   -3.387948602185787E-1
 9.937599525875000E9     4.649112145698280E-1   -1.282665752860205E-1   -1.424063023386490E-3   -1.435166444022691E-3   -1.457057613481978E-3   -1.376409107530962E-3    3.599281920131734E-1   -3.391056427750787E-1
 9.937601361750000E9     4.649099181676656E-1   -1.282867894906955E-1   -1.408024431757748E-3   -1.422358511966269E-3   -1.451043642716447E-3   -1.403038881982836E-3    3.596323945119073E-1   -3.391878373147287E-1
 9.937603197625000E9     4.649621741552632E-1   -1.284182009660525E-1   -1.450414612596255E-3   -1.426262042030384E-3   -1.474676641387198E-3   -1.461416229358218E-3    3.592894184516957E-1   -3.395012252607155E-1
 9.937605033500000E9     4.648159675847003E-1   -1.285539231643028E-1   -1.472200657422732E-3   -1.447962524581520E-3   -1.510975198925951E-3   -1.419286309106605E-3    3.590614858120658E-1   -3.395601426740934E-1
 9.937606869375000E9     4.646626229882996E-1   -1.286970741947837E-1   -1.515346504599324E-3   -1.456340290003702E-3   -1.505833950698058E-3   -1.465885894649441E-3    3.588164980580804E-1   -3.399596016004964E-1
 9.937608705250000E9     4.646612101434966E-1   -1.288238487953797E-1   -1.482011583267702E-3   -1.509402990959479E-3   -1.550186234233476E-3   -1.483279520341275E-3    3.586024267645800E-1   -3.399695699305572E-1
 9.937610541125000E9     4.646617793329099E-1   -1.290081673504778E-1   -1.538455071530718E-3   -1.515766922329649E-3   -1.563533402017035E-3   -1.495928007037197E-3    3.581485702858509E-1   -3.401510184347682E-1
 9.937612377000000E9     4.645705992470505E-1   -1.290412055196297E-1   -1.547344936206004E-3   -1.531043035870991E-3   -1.570370573698489E-3   -1.543411128002870E-3    3.581954833601574E-1   -3.403067984062952E-1
 9.937614212875000E9     4.645344562807369E-1   -1.291339913014885E-1   -1.550054204388982E-3   -1.543237097965739E-3   -1.608693350695606E-3   -1.515292045539679E-3    3.577661978786030E-1   -3.403412174218793E-1
 9.937616048750000E9     4.645087950238065E-1   -1.293256703355289E-1   -1.604462070538886E-3   -1.548943359030131E-3   -1.615486104115279E-3   -1.533062491669119E-3    3.575071382283386E-1   -3.407755235624159E-1
 9.937617884625000E9     4.644715699587750E-1   -1.292900223272743E-1   -1.607482285840563E-3   -1.548712801910372E-3   -1.639312204216551E-3   -1.551923500646734E-3    3.573239723828787E-1   -3.407190999820052E-1
 9.937619720500000E9     4.644527622128641E-1   -1.295665167437463E-1   -1.620787484464735E-3   -1.547558224334580E-3   -1.665818930153998E-3   -1.581277918587647E-3    3.570124401403708E-1   -3.409381006510431E-1
 9.937621556375000E9     4.643722777380258E-1   -1.296568142011603E-1   -1.647220090660083E-3   -1.583375356664565E-3   -1.679124835239096E-3   -1.591372055206249E-3    3.567451751265296E-1   -3.414146620663995E-1
 9.937623392250000E9     4.643003321457966E-1   -1.298135838533845E-1   -1.652895113954696E-3   -1.621436674044846E-3   -1.693816931174993E-3   -1.608606438432826E-3    3.566035297028479E-1   -3.414307001168596E-1
 9.937625228125000E9     4.642559135070805E-1   -1.297909766747271E-1   -1.729182466293698E-3   -1.638070066678779E-3   -1.725805728320286E-3   -1.642536808534045E-3    3.560690955943497E-1   -3.417509829283089E-1
 9.937627064000000E9     4.643362477149516E-1   -1.301347067381513E-1   -1.703532889263224E-3   -1.598102377754017E-3   -1.737039836304383E-3   -1.637598999875853E-3    3.558868573320150E-1   -3.419210142180266E-1
 9.937628899875000E9     4.641731289434883E-1   -1.301491734834125E-1   -1.737405210700493E-3   -1.711249200340575E-3   -1.766696194401255E-3   -1.650830532684938E-3    3.555944739660526E-1   -3.418560309538757E-1
 9.937630735750000E9     4.642457234415744E-1   -1.303128362159354E-1   -1.768648707525696E-3   -1.702066303882116E-3   -1.780946810673663E-3   -1.674903599958118E-3    3.554894083356551E-1   -3.423885632748750E-1
 9.937632571625000E9     4.641698143491208E-1   -1.304105870562988E-1   -1.778412877928159E-3   -1.708062662957092E-3   -1.811074365080421E-3   -1.687873991450644E-3    3.549430480801898E-1   -3.424743740536831E-1
 9.937634407500000E9     4.641775040639421E-1   -1.304374742886202E-1   -1.830056849149047E-3   -1.719762324059731E-3   -1.841131324772057E-3   -1.750815213814890E-3    3.544722529517454E-1   -3.425627679276279E-1
 9.937636243375000E9     4.641210834239817E-1   -1.306885720719179E-1   -1.849699816288082E-3   -1.721419624108384E-3   -1.870204997927568E-3   -1.767564460295213E-3    3.543225469439077E-1   -3.426627126695434E-1
 9.937638079250000E9     4.640376188463404E-1   -1.308339783257168E-1   -1.839351245865555E-3   -1.736069522072549E-3   -1.911576454298820E-3   -1.762671382169160E-3    3.542154120338463E-1   -3.429699319050313E-1
 9.937639915125000E9     4.639277275522272E-1   -1.310541575218229E-1   -1.884586501932557E-3   -1.750295097507150E-3   -1.928550045382152E-3   -1.756285099669338E-3    3.537257739754822E-1   -3.431486061107907E-1
 9.937641751000000E9     4.638186167867528E-1   -1.310318546482718E-1   -1.841949660788838E-3   -1.792025314130409E-3   -1.971858304505144E-3   -1.772021128410215E-3    3.534872496363138E-1   -3.432447224226034E-1
 9.937643586875000E9     4.638787892740722E-1   -1.311677138595067E-1   -1.945325308208678E-3   -1.803186864776019E-3   -1.971335522797486E-3   -1.820536583739544E-3    3.530002526792059E-1   -3.437085271028918E-1
 9.937645422750000E9     4.638449052796606E-1   -1.312351289047661E-1   -1.938672267528842E-3   -1.828832995150032E-3   -1.965063086782513E-3   -1.836705162772852E-3    3.530476474200764E-1   -3.437073699848808E-1
 9.937647258625000E9     4.638835574808118E-1   -1.314614079186613E-1   -1.960096966273361E-3   -1.862105617873546E-3   -2.028815088870158E-3   -1.850993623620816E-3    3.524315063936247E-1   -3.441756100928249E-1
 9.937649094500000E9     4.637755371534978E-1   -1.314516203223744E-1   -1.991785160868648E-3   -1.873839236506281E-3   -2.068404350603167E-3   -1.869530982672159E-3    3.522608868077804E-1   -3.443141648456964E-1
 9.937650930375000E9     4.637718470510757E-1   -1.315880542150581E-1   -2.045268427104635E-3   -1.899160175878342E-3   -2.087641068744182E-3   -1.867650458453638E-3    3.518181798794930E-1   -3.443717586060556E-1
 9.937652766250000E9     4.637178520513836E-1   -1.317556913945267E-1   -2.047552185022959E-3   -1.922375048649196E-3   -2.127257158957595E-3   -1.897152759481287E-3    3.515131615826436E-1   -3.447126012397882E-1
 9.937654602125000E9     4.635322817928963E-1   -1.317419701801618E-1   -2.068585096029794E-3   -1.915993555069528E-3   -2.141678179076492E-3   -1.935353229503083E-3    3.511491415790238E-1   -3.448915155256639E-1
 9.937656438000000E9     4.635833687880597E-1   -1.320468852104894E-1   -2.142100760159611E-3   -1.965961228214927E-3   -2.196295944012648E-3   -1.948017322898329E-3    3.507414824599597E-1   -3.450533198677413E-1
 9.937658273875000E9     4.636052285926880E-1   -1.319461863785318E-1   -2.127270410296994E-3   -1.973995735402067E-3   -2.207324350404382E-3   -1.951093629609271E-3    3.504144421611422E-1   -3.451869892013093E-1
 9.937660109750000E9     4.636418088024685E-1   -1.320836886352635E-1   -2.168338928116170E-3   -1.988120598077479E-3   -2.217311934030152E-3   -2.007887911342703E-3    3.501666554126346E-1   -3.456029841228510E-1
 9.937661945625000E9     4.634314411440012E-1   -1.324568919855799E-1   -2.210842539684569E-3   -2.042295674432857E-3   -2.265371863677855E-3   -2.032482936670014E-3    3.498284269694369E-1   -3.457781289990855E-1
 9.937663781500000E9     4.634628649472361E-1   -1.325938157679493E-1   -2.247172210390911E-3   -2.063409337585104E-3   -2.303521037386409E-3   -2.039045598740775E-3    3.493017152670164E-1   -3.459977073354636E-1
 9.937665617375000E9     4.633904225344366E-1   -1.325517132785523E-1   -2.261269485174471E-3   -2.052383302494264E-3   -2.351044192585566E-3   -2.047183603262184E-3    3.490134979755609E-1   -3.463007891466716E-1
 9.937667453250000E9     4.633087222386363E-1   -1.326103976169136E-1   -2.297924603939078E-3   -2.080361758225638E-3   -2.351368279665816E-3   -2.051456596043123E-3    3.486160996356343E-1   -3.462279400493096E-1
 9.937669289125000E9     4.632433041949791E-1   -1.327859221121217E-1   -2.341007202182596E-3   -2.086192570956612E-3   -2.404511893324223E-3   -2.088886808639812E-3    3.484099670669779E-1   -3.467566689899558E-1
 9.937671125000000E9     4.632032962043121E-1   -1.331637681705187E-1   -2.378631456839294E-3   -2.122005839957571E-3   -2.440261131285984E-3   -2.109589599111718E-3    3.479004763384059E-1   -3.467667099202077E-1
 9.937672960875000E9     4.631443013200758E-1   -1.333133417785481E-1   -2.397954769305671E-3   -2.149961752402422E-3   -2.475551351099444E-3   -2.140606781302489E-3    3.474976890891467E-1   -3.471153297170780E-1
 9.937674796750000E9     4.630179876259387E-1   -1.330421401712378E-1   -2.437891696296175E-3   -2.184924741417860E-3   -2.515497809737324E-3   -2.195394996594873E-3    3.470466252566450E-1   -3.473120218014358E-1
 9.937676632625000E9     4.631079392048419E-1   -1.333075095092218E-1   -2.425149403382958E-3   -2.191807755803733E-3   -2.556564002673199E-3   -2.205338569601148E-3    3.467161115506079E-1   -3.474770117010836E-1
 9.937678468500000E9     4.629519206446236E-1   -1.334525206283378E-1   -2.479270464282325E-3   -2.232883475657860E-3   -2.576401937264936E-3   -2.218880590146645E-3    3.463328878258912E-1   -3.477167299194150E-1
 9.937680304375000E9     4.629994787737502E-1   -1.335612931082183E-1   -2.554074716013233E-3   -2.237385881544515E-3   -2.613183549163542E-3   -2.239522537777311E-3    3.458784720845567E-1   -3.479847243492378E-1
 9.937682140250000E9     4.629275185897720E-1   -1.338222392564102E-1   -2.583702123001295E-3   -2.285628454385684E-3   -2.638575555690417E-3   -2.259893504775135E-3    3.453844035879652E-1   -3.482398667779023E-1
 9.937683976125000E9     4.628927145719307E-1   -1.337379451816659E-1   -2.620307471521592E-3   -2.303965567096758E-3   -2.701207445840020E-3   -2.271861345321460E-3    3.451772644228165E-1   -3.485297029380188E-1
 9.937685812000000E9     4.628074465193944E-1   -1.340372204582901E-1   -2.663231235157713E-3   -2.330382513136883E-3   -2.720936034964196E-3   -2.319866194407846E-3    3.445237018907275E-1   -3.486778251838358E-1
 9.937687647875000E9     4.627795038458836E-1   -1.340748748900244E-1   -2.656013551149437E-3   -2.349259892570970E-3   -2.743728571875536E-3   -2.336682546842670E-3    3.440726053861764E-1   -3.490385831614013E-1
 9.937689483750000E9     4.627158393486869E-1   -1.342085514050690E-1   -2.726420250090912E-3   -2.382361156594940E-3   -2.813567878328773E-3   -2.381029910582453E-3    3.437191822057457E-1   -3.492305068244058E-1
