#  HZ   S   RI   R     50.00 
! Rohde & Schwarz Vector Network Analyzer 
! Rohde-Schwarz,ZNB20-2Port,1311601062101988,3.16
! Created: UTC 3/20/2024, 11:16:22 PM
! freq[Hz]                re:S11                  im:S11                  re:S21                  im:S21                  re:S12                  im:S12                  re:S22                  im:S22
 9.937533774000000E9     4.665314547434396E-1   -1.237348473579011E-1   -8.525220615865759E-4   -9.390168904459987E-4   -8.994513777417981E-4   -9.508593596502260E-4    3.676493199047604E-1   -3.328325882141583E-1
 9.937535584100000E9     4.664423908127487E-1   -1.239004946426831E-1   -8.946404176803776E-4   -9.623033270520609E-4   -9.178726531893033E-4   -9.211902008547984E-4    3.675409478108662E-1   -3.330466810302573E-1
 9.937537394200001E9     4.665363123673968E-1   -1.240313487915148E-1   -9.030593252671982E-4   -9.545602332539555E-4   -9.017263654219866E-4   -9.084146530566155E-4    3.676093222778721E-1   -3.330262573370019E-1
 9.937539204299999E9     4.663386865592287E-1   -1.240947233920913E-1   -9.304735423268745E-4   -9.285128405643430E-4   -9.271242196909424E-4   -9.648709326787594E-4    3.674095054634832E-1   -3.332118595333003E-1
 9.937541014400000E9     4.663864145941951E-1   -1.242057356436309E-1   -9.119007177195828E-4   -9.350365283738211E-4   -9.281200666865148E-4   -9.496130151548613E-4    3.671426353060615E-1   -3.333690445789524E-1
 9.937542824500000E9     4.661980308030965E-1   -1.243388876621795E-1   -9.316637633697526E-4   -1.001579739271312E-3   -9.715891844715848E-4   -9.849230608220271E-4    3.668988015971679E-1   -3.336125080137714E-1
 9.937544634600000E9     4.661586895954451E-1   -1.244388918862020E-1   -9.354512315760671E-4   -9.936950957304107E-4   -9.786502980266589E-4   -9.894774053070393E-4    3.667919850931552E-1   -3.336991512161594E-1
 9.937546444700001E9     4.661129801641898E-1   -1.245085468127819E-1   -9.493649369796339E-4   -9.770302049393522E-4   -9.780124898398181E-4   -1.045865521769507E-3    3.665513381240846E-1   -3.337737162910235E-1
 9.937548254799999E9     4.661714632662911E-1   -1.247348469963783E-1   -9.541337355685163E-4   -1.015447622284567E-3   -9.928405887281971E-4   -1.045447615101039E-3    3.663348247760824E-1   -3.340389626660879E-1
 9.937550064900000E9     4.660133661931213E-1   -1.248869669551577E-1   -9.702044771110269E-4   -1.030922217405313E-3   -1.011922709088054E-3   -1.027527156541582E-3    3.660020986156611E-1   -3.341410656655898E-1
 9.937551875000000E9     4.660508594436295E-1   -1.249034419065439E-1   -9.835043066332096E-4   -1.034685787355380E-3   -1.039370379589325E-3   -1.038403116013230E-3    3.660716686194841E-1   -3.342659433986104E-1
 9.937553685100000E9     4.658306355477204E-1   -1.251776191497057E-1   -9.924646687153105E-4   -1.056774838092640E-3   -1.028945311354422E-3   -1.074982599720803E-3    3.659432537765298E-1   -3.344717652744449E-1
 9.937555495200001E9     4.658502113903905E-1   -1.252865004161407E-1   -1.042192677991794E-3   -1.059265962034188E-3   -1.039299644061087E-3   -1.036228010831315E-3    3.655685570102535E-1   -3.345793295482297E-1
 9.937557305299999E9     4.658378558241218E-1   -1.253346342669024E-1   -1.012106072299361E-3   -1.064492968983703E-3   -1.057077924243748E-3   -1.075704847646300E-3    3.652860723117580E-1   -3.348624932499863E-1
 9.937559115400000E9     4.659041175414904E-1   -1.254537448153836E-1   -1.058069112582909E-3   -1.106620204945120E-3   -1.065437962902648E-3   -1.058900033057463E-3    3.653026726305375E-1   -3.349361362916917E-1
 9.937560925500000E9     4.658154919352007E-1   -1.254401707506355E-1   -1.026366775916651E-3   -1.030073627689647E-3   -1.051391857889209E-3   -1.095912259551685E-3    3.649314264030298E-1   -3.351147356632331E-1
 9.937562735600000E9     4.657811018121899E-1   -1.257425603254538E-1   -1.061561665190693E-3   -1.067276264584954E-3   -1.076905995229294E-3   -1.125238437055801E-3    3.648926039331414E-1   -3.352741601547669E-1
 9.937564545700001E9     4.657608493682973E-1   -1.258128141156101E-1   -1.060871121075384E-3   -1.113744687623309E-3   -1.123612511202104E-3   -1.108024217656657E-3    3.647701531540679E-1   -3.353404921039615E-1
 9.937566355799999E9     4.658016635342390E-1   -1.260506919555681E-1   -1.094860526250786E-3   -1.129924914919825E-3   -1.100978961759894E-3   -1.130972570347195E-3    3.643510389812487E-1   -3.357069242307832E-1
 9.937568165900000E9     4.656053225529422E-1   -1.260490916398845E-1   -1.082962641756885E-3   -1.104791030053506E-3   -1.127544748761995E-3   -1.174808743695773E-3    3.640809265325804E-1   -3.358960599688921E-1
 9.937569976000000E9     4.655011020790842E-1   -1.261571520800184E-1   -1.129071852441495E-3   -1.138746065532697E-3   -1.119589339535212E-3   -1.144756786900332E-3    3.640516518830523E-1   -3.360052709734891E-1
 9.937571786100000E9     4.655533843123175E-1   -1.263542980265094E-1   -1.118335010227071E-3   -1.149294176329163E-3   -1.162047352158700E-3   -1.190023449728535E-3    3.637077909123869E-1   -3.361301237936710E-1
 9.937573596200001E9     4.655829089863592E-1   -1.263142208577450E-1   -1.117693566770821E-3   -1.150717579232179E-3   -1.148349506256070E-3   -1.178590404966481E-3    3.637084675789413E-1   -3.362339972102136E-1
 9.937575406299999E9     4.654203409434177E-1   -1.265228377965989E-1   -1.123352591526872E-3   -1.190798400298701E-3   -1.152289137464298E-3   -1.183887060660984E-3    3.632792050009745E-1   -3.366582216204623E-1
 9.937577216400000E9     4.655180478727472E-1   -1.266724173386368E-1   -1.153349719253269E-3   -1.208676631349630E-3   -1.221896779552176E-3   -1.205860696278180E-3    3.630952316897936E-1   -3.367022598978179E-1
 9.937579026500000E9     4.654904669616632E-1   -1.266864651416439E-1   -1.222743636454345E-3   -1.198407234934248E-3   -1.199189386461309E-3   -1.219160226292651E-3    3.628942402357160E-1   -3.368670089492751E-1
 9.937580836600000E9     4.653635625438852E-1   -1.268479945077750E-1   -1.201564183870977E-3   -1.199972694670631E-3   -1.233834621409509E-3   -1.233078773195637E-3    3.626901138375432E-1   -3.370662315397085E-1
 9.937582646700001E9     4.653037822489536E-1   -1.271653490996176E-1   -1.207778007284307E-3   -1.233027210597366E-3   -1.221463608518839E-3   -1.260111303562698E-3    3.626320280824063E-1   -3.373244588768113E-1
 9.937584456799999E9     4.652969242114900E-1   -1.271327915237620E-1   -1.218443556748282E-3   -1.234507651717375E-3   -1.250703338721502E-3   -1.247297576318014E-3    3.621306759934729E-1   -3.374565720791849E-1
 9.937586266900000E9     4.650835049589771E-1   -1.272512174555802E-1   -1.249863986638917E-3   -1.229564167228685E-3   -1.295259333064721E-3   -1.247847659605577E-3    3.621859721490323E-1   -3.374879303906840E-1
 9.937588077000000E9     4.650735499674533E-1   -1.273321866865662E-1   -1.262263873920274E-3   -1.314708078850286E-3   -1.326224944124681E-3   -1.279128213606325E-3    3.618077639632543E-1   -3.377210051875179E-1
 9.937589887100000E9     4.652057281463785E-1   -1.276101829397904E-1   -1.295856939826279E-3   -1.271607582667368E-3   -1.313352786948741E-3   -1.316071960380439E-3    3.614426734382450E-1   -3.378543981896040E-1
 9.937591697200001E9     4.651438369023924E-1   -1.277233492370207E-1   -1.302790428225316E-3   -1.343602459643665E-3   -1.340793883187231E-3   -1.283937344608504E-3    3.614106017375416E-1   -3.380697627679144E-1
 9.937593507299999E9     4.650548714548976E-1   -1.277209032155749E-1   -1.301092403860785E-3   -1.326954012713522E-3   -1.350238212456951E-3   -1.311599705523855E-3    3.610773460540730E-1   -3.382022293339191E-1
 9.937595317400000E9     4.650416588541674E-1   -1.277612735991406E-1   -1.299575776353256E-3   -1.354501233554332E-3   -1.355691901080058E-3   -1.352753279289579E-3    3.609639736802024E-1   -3.386586025747919E-1
 9.937597127500000E9     4.649124646820587E-1   -1.279855919294130E-1   -1.335221851723221E-3   -1.359189444908500E-3   -1.361153695316822E-3   -1.350365716937365E-3    3.603551711162517E-1   -3.386241300913591E-1
 9.937598937600000E9     4.649527031826425E-1   -1.281683317042795E-1   -1.383608796606035E-3   -1.375507930366123E-3   -1.382754572367434E-3   -1.366860113945747E-3    3.604153805288733E-1   -3.389195539784295E-1
 9.937600747700001E9     4.648873535129902E-1   -1.282504651180912E-1   -1.384648858136288E-3   -1.414477795082826E-3   -1.420386642913966E-3   -1.403971121768282E-3    3.602387394850982E-1   -3.390095896419226E-1
 9.937602557799999E9     4.648685290858506E-1   -1.284003216269952E-1   -1.365020125672781E-3   -1.372889515276915E-3   -1.430777396942953E-3   -1.371937795453098E-3    3.599192187249583E-1   -3.389472139348193E-1
 9.937604367900000E9     4.648721961428174E-1   -1.283680151277116E-1   -1.389460707502888E-3   -1.367893382787037E-3   -1.406216202432465E-3   -1.407313360766189E-3    3.597057420687300E-1   -3.396128634539780E-1
 9.937606178000000E9     4.649326863625148E-1   -1.286202118957504E-1   -1.431098439699029E-3   -1.472924250472960E-3   -1.453455356642011E-3   -1.420788332000308E-3    3.594084556406861E-1   -3.394769780871144E-1
 9.937607988100000E9     4.647299063129526E-1   -1.286121205141808E-1   -1.420839092780216E-3   -1.422545608493643E-3   -1.468065541961352E-3   -1.420133242299887E-3    3.592263658332159E-1   -3.397956672113560E-1
 9.937609798200001E9     4.645995431784392E-1   -1.288348305524169E-1   -1.457932543931238E-3   -1.409424541406191E-3   -1.510437988103642E-3   -1.464443959433234E-3    3.589272849881287E-1   -3.398822436210067E-1
 9.937611608299999E9     4.646430002765932E-1   -1.288840415092268E-1   -1.487439958013929E-3   -1.473345489955391E-3   -1.483556452370088E-3   -1.485716960722034E-3    3.587412858292582E-1   -3.400713716691242E-1
 9.937613418400000E9     4.645675813616229E-1   -1.291758952296398E-1   -1.510369402176393E-3   -1.485124082016703E-3   -1.534060201581342E-3   -1.501333078365714E-3    3.583684854959409E-1   -3.401748905415592E-1
 9.937615228500000E9     4.645959794919556E-1   -1.292133023283552E-1   -1.496428816625568E-3   -1.515831096362832E-3   -1.556597876819063E-3   -1.487117286921515E-3    3.581086113647276E-1   -3.401972516912043E-1
 9.937617038600000E9     4.645620779774831E-1   -1.294307508153496E-1   -1.496704757451927E-3   -1.501428731155674E-3   -1.590876420605956E-3   -1.487231717190176E-3    3.579382450939059E-1   -3.405892029258955E-1
 9.937618848700001E9     4.645819241712981E-1   -1.294692395109368E-1   -1.543987375419775E-3   -1.522635981753941E-3   -1.593581271294155E-3   -1.522423323762851E-3    3.576476164047210E-1   -3.407887717038203E-1
 9.937620658799999E9     4.644799542765086E-1   -1.294673209909598E-1   -1.591472232363954E-3   -1.563446753470583E-3   -1.613469351043095E-3   -1.529649944336393E-3    3.572188810359564E-1   -3.409752045857425E-1
 9.937622468900000E9     4.643389170047631E-1   -1.298269784328163E-1   -1.601980394720177E-3   -1.562383675301140E-3   -1.632197516077118E-3   -1.573690116135914E-3    3.570836686637384E-1   -3.411065423668780E-1
 9.937624279000000E9     4.642310246446270E-1   -1.298232417737953E-1   -1.627467940666371E-3   -1.571687027284887E-3   -1.662680272758477E-3   -1.569040963005653E-3    3.567602734133623E-1   -3.413063160881916E-1
 9.937626089100000E9     4.642996441497685E-1   -1.300318321459658E-1   -1.631864395623210E-3   -1.609288318633114E-3   -1.684001203792675E-3   -1.597158833853644E-3    3.564245193333840E-1   -3.417047697850136E-1
 9.937627899200001E9     4.643187398597461E-1   -1.299967732652968E-1   -1.662624636737523E-3   -1.609877246007073E-3   -1.705227765977090E-3   -1.588502699141170E-3    3.561591437993327E-1   -3.416291855895205E-1
 9.937629709299999E9     4.643914742449725E-1   -1.301095017528417E-1   -1.667898044629880E-3   -1.632213151163775E-3   -1.731840645909527E-3   -1.613884732803544E-3    3.561265235600995E-1   -3.420902731663084E-1
 9.937631519400000E9     4.642545871259336E-1   -1.303479614996981E-1   -1.709815505150201E-3   -1.629014574000758E-3   -1.736719991951496E-3   -1.653932251520117E-3    3.559089188618954E-1   -3.422105997212463E-1
 9.937633329500000E9     4.642148117448449E-1   -1.304109387535382E-1   -1.718410634307870E-3   -1.680820428163986E-3   -1.792488122936395E-3   -1.675155580584453E-3    3.554628640225751E-1   -3.423591567266023E-1
 9.937635139600000E9     4.640736117543429E-1   -1.304902318101323E-1   -1.712900519063604E-3   -1.710083211264139E-3   -1.750274537304016E-3   -1.694036105588626E-3    3.551880141406110E-1   -3.425263481647838E-1
 9.937636949700001E9     4.641153883001911E-1   -1.306844727880548E-1   -1.703790838991440E-3   -1.751762586312714E-3   -1.792017206624361E-3   -1.679994119148685E-3    3.548744404436051E-1   -3.427905051147164E-1
 9.937638759799999E9     4.640583897260054E-1   -1.306906363551735E-1   -1.808408094398897E-3   -1.719391923317210E-3   -1.831117099687425E-3   -1.700586093747939E-3    3.545083043083758E-1   -3.428773654632016E-1
 9.937640569900000E9     4.639820070533157E-1   -1.308685530127356E-1   -1.794373924218080E-3   -1.739342990181935E-3   -1.851509271122642E-3   -1.743392164811649E-3    3.543558079466587E-1   -3.432403602912823E-1
 9.937642380000000E9     4.639596012817942E-1   -1.309821111869012E-1   -1.832275522496268E-3   -1.734483399299527E-3   -1.900411054906343E-3   -1.768494639411249E-3    3.539814055957406E-1   -3.433762777557713E-1
 9.937644190100000E9     4.638520540128276E-1   -1.311419463902683E-1   -1.843668508669878E-3   -1.748574332828637E-3   -1.912600294104256E-3   -1.764086142371876E-3    3.536693823671439E-1   -3.435085436499535E-1
 9.937646000200001E9     4.638274286653448E-1   -1.312314348667430E-1   -1.893089096772687E-3   -1.775784977790251E-3   -1.900945809513264E-3   -1.796515098923842E-3    3.532202316897154E-1   -3.437836076742779E-1
 9.937647810299999E9     4.637326700990069E-1   -1.314008485066842E-1   -1.933753754959336E-3   -1.826046197811057E-3   -1.983082296979038E-3   -1.815970776611369E-3    3.530371977523237E-1   -3.438815904721666E-1
 9.937649620400000E9     4.638250166292489E-1   -1.315912720311044E-1   -1.960669216464977E-3   -1.836408665788261E-3   -1.971619838629301E-3   -1.865068557864041E-3    3.526292258824945E-1   -3.440366921516529E-1
 9.937651430500000E9     4.637452915450605E-1   -1.317033722294664E-1   -1.933134193640151E-3   -1.835819349294862E-3   -2.015606482854808E-3   -1.861432816113047E-3    3.522843347519909E-1   -3.444693588621086E-1
 9.937653240600000E9     4.637413716720601E-1   -1.318931892304052E-1   -1.951895276081497E-3   -1.889490185685029E-3   -2.054395312344564E-3   -1.849772991715392E-3    3.520249830079242E-1   -3.445671666090624E-1
 9.937655050700001E9     4.635054648682469E-1   -1.317033125895293E-1   -2.029838170285831E-3   -1.877371447175994E-3   -2.078619786813571E-3   -1.934427141648892E-3    3.516272388876406E-1   -3.448071694997202E-1
 9.937656860799999E9     4.635961009538621E-1   -1.321375565133299E-1   -2.035229106120138E-3   -1.903440155487347E-3   -2.090486558623772E-3   -1.940673101317265E-3    3.514117425671113E-1   -3.449374986123372E-1
 9.937658670900000E9     4.635772483412136E-1   -1.320661980234340E-1   -2.073779383494885E-3   -1.963456966851872E-3   -2.118515180144733E-3   -1.916168899383390E-3    3.510455100228506E-1   -3.452297027319821E-1
 9.937660481000000E9     4.636394142761480E-1   -1.323484720015735E-1   -2.060379827816127E-3   -1.941079040947148E-3   -2.156447919795712E-3   -1.961883083374876E-3    3.507371351760546E-1   -3.452867919933951E-1
 9.937662291100000E9     4.633605328379510E-1   -1.325062224492242E-1   -2.145382323762629E-3   -1.983974876772916E-3   -2.161301428085990E-3   -1.958606213955107E-3    3.505048890369677E-1   -3.456362446835677E-1
 9.937664101200001E9     4.634227643568021E-1   -1.324263204646515E-1   -2.137835935711728E-3   -1.976918075262116E-3   -2.240848881918066E-3   -1.988996774617200E-3    3.499096223371964E-1   -3.456923929227980E-1
 9.937665911299999E9     4.633959250010111E-1   -1.327114863474530E-1   -2.185619131483495E-3   -2.023921718965516E-3   -2.230318574875313E-3   -1.994348345047626E-3    3.495852861013481E-1   -3.460459239098235E-1
 9.937667721400000E9     4.632186655467457E-1   -1.327706641001808E-1   -2.217635847565224E-3   -2.022537307747522E-3   -2.304006447126299E-3   -2.022806240175914E-3    3.494238522113112E-1   -3.463194279878731E-1
 9.937669531500000E9     4.633038424937812E-1   -1.330053106949702E-1   -2.253224415208423E-3   -2.063524804320145E-3   -2.317123343253627E-3   -2.027733959128141E-3    3.490593322572186E-1   -3.465378399601912E-1
 9.937671341600000E9     4.630882640440708E-1   -1.329778358457404E-1   -2.287309055051894E-3   -2.086738337095674E-3   -2.350723295799587E-3   -2.094292861144478E-3    3.486696315763045E-1   -3.468510984339511E-1
 9.937673151700001E9     4.631710664561027E-1   -1.331484514540729E-1   -2.300206071063798E-3   -2.111826890074984E-3   -2.389376043578399E-3   -2.101073598798088E-3    3.481992371449268E-1   -3.468004706723227E-1
 9.937674961799999E9     4.632534767814701E-1   -1.332432315337745E-1   -2.345779511764721E-3   -2.162940194393042E-3   -2.395123650672230E-3   -2.130865225398556E-3    3.477897871788341E-1   -3.470412762082900E-1
 9.937676771900000E9     4.630559290945859E-1   -1.332628063634624E-1   -2.374058791625043E-3   -2.158587842461180E-3   -2.457033161883827E-3   -2.135007563994909E-3    3.474891122758041E-1   -3.473665346836298E-1
 9.937678582000000E9     4.630202663314163E-1   -1.334449166286510E-1   -2.438782401155903E-3   -2.172120990557840E-3   -2.486555911910989E-3   -2.177167090311784E-3    3.469343594365592E-1   -3.476699367801009E-1
 9.937680392100000E9     4.627553874443838E-1   -1.336465952346776E-1   -2.463153661397032E-3   -2.204789358777901E-3   -2.498359116531151E-3   -2.223792075952614E-3    3.468731072044985E-1   -3.479442716631954E-1
 9.937682202200001E9     4.629044792756188E-1   -1.336909283864471E-1   -2.472724202330464E-3   -2.225283707753443E-3   -2.528097257599097E-3   -2.222425073600806E-3    3.463456580400986E-1   -3.480250972812867E-1
 9.937684012299999E9     4.628655989495006E-1   -1.338687841672102E-1   -2.476910597805069E-3   -2.228664219475733E-3   -2.582485142618283E-3   -2.229029922323834E-3    3.459110821601836E-1   -3.482579248166940E-1
 9.937685822400000E9     4.627370248970523E-1   -1.338720010549792E-1   -2.521538401499910E-3   -2.298404820654650E-3   -2.623508993325667E-3   -2.285338250522975E-3    3.456195105441658E-1   -3.482282395393841E-1
 9.937687632500000E9     4.628029087286235E-1   -1.340766819026732E-1   -2.561852081023576E-3   -2.313924428377087E-3   -2.647085815415944E-3   -2.322471333359276E-3    3.450051461718162E-1   -3.488433227413872E-1
 9.937689442600000E9     4.627525664318479E-1   -1.341792226967666E-1   -2.604589398741931E-3   -2.324242044783794E-3   -2.671786044011356E-3   -2.301651437272299E-3    3.446415446569086E-1   -3.489561923378777E-1
 9.937691252700001E9     4.626888896234793E-1   -1.344132184126663E-1   -2.657050347969983E-3   -2.316496082161896E-3   -2.752158660677530E-3   -2.362842062204038E-3    3.442192152214635E-1   -3.491846540909590E-1
 9.937693062799999E9     4.628181543182392E-1   -1.343932856507525E-1   -2.676760325233432E-3   -2.384537351600379E-3   -2.735740465612755E-3   -2.377455695525329E-3    3.440036574151688E-1   -3.495306445819872E-1
 9.937694872900000E9     4.626533908312348E-1   -1.347283800533055E-1   -2.770802312991490E-3   -2.398203248182311E-3   -2.837930293961926E-3   -2.404701110806524E-3    3.435102903919942E-1   -3.495867919719070E-1
 9.937696683000000E9     4.625305873394074E-1   -1.347075194898500E-1   -2.776136804644263E-3   -2.463435006426545E-3   -2.854671711115820E-3   -2.450123661498037E-3    3.430032584575997E-1   -3.499896147663052E-1
