#  HZ   S   RI   R     50.00 
! Rohde & Schwarz Vector Network Analyzer 
! Rohde-Schwarz,ZNB20-2Port,1311601062101988,3.16
! Created: UTC 3/20/2024, 11:16:59 PM
! freq[Hz]                re:S11                  im:S11                  re:S21                  im:S21                  re:S12                  im:S12                  re:S22                  im:S22
 9.937562384000000E9     4.657323586407629E-1   -1.255977389159613E-1   -9.813327883006124E-4   -1.040643181859330E-3   -9.974885283752866E-4   -1.045894755695522E-3    3.654368722829825E-1   -3.350603909219472E-1
 9.937564100875000E9     4.656090109846387E-1   -1.256944219092005E-1   -9.894819507075734E-4   -1.001765033629032E-3   -1.038998938907949E-3   -1.053892530499313E-3    3.652209659115637E-1   -3.350938764377300E-1
 9.937565817750000E9     4.659043523566194E-1   -1.258585657329553E-1   -9.920223087447474E-4   -1.062507250948542E-3   -1.003384458930073E-3   -1.082894429695890E-3    3.651934462238254E-1   -3.352733199812443E-1
 9.937567534625000E9     4.655921264575886E-1   -1.259617929086455E-1   -1.005624213283831E-3   -1.088695598428795E-3   -1.029186249484389E-3   -1.104509009630474E-3    3.649168148834294E-1   -3.354534343169709E-1
 9.937569251500000E9     4.655857011800311E-1   -1.260634155507636E-1   -1.017562102449640E-3   -1.077741054495491E-3   -1.048034451944778E-3   -1.067774265531981E-3    3.647150490057485E-1   -3.356611518204567E-1
 9.937570968375000E9     4.656157329044039E-1   -1.261298750827629E-1   -1.029982002582520E-3   -1.117949047257952E-3   -1.083962866507220E-3   -1.114992028170987E-3    3.648398045449867E-1   -3.359041510910659E-1
 9.937572685250000E9     4.655741807720976E-1   -1.262552206237703E-1   -1.068063359980052E-3   -1.150372747297751E-3   -1.055689044806159E-3   -1.065688158414340E-3    3.644255774320591E-1   -3.360281077278034E-1
 9.937574402125000E9     4.655858968127152E-1   -1.264161266263706E-1   -1.015614449015722E-3   -1.106366752409149E-3   -1.101326070192246E-3   -1.115628585908444E-3    3.640007163007207E-1   -3.362740165950457E-1
 9.937576119000000E9     4.654666345612609E-1   -1.264864923606434E-1   -1.032274539908732E-3   -1.124481169231006E-3   -1.091525411864055E-3   -1.106137438299782E-3    3.637945258547145E-1   -3.361143622605675E-1
 9.937577835875000E9     4.654690293745087E-1   -1.267076603310578E-1   -1.079751872575787E-3   -1.130676893533793E-3   -1.109648295633354E-3   -1.154551270808964E-3    3.637166568377018E-1   -3.365267735794495E-1
 9.937579552750000E9     4.654905193046826E-1   -1.268844547611122E-1   -1.087661297070697E-3   -1.155073835172939E-3   -1.153368821255660E-3   -1.169680653390286E-3    3.635722454930144E-1   -3.365149608901519E-1
 9.937581269625000E9     4.653438150168590E-1   -1.268858214877276E-1   -1.106080966428613E-3   -1.179423500271090E-3   -1.133684418018619E-3   -1.138103085521820E-3    3.635067656439707E-1   -3.367788207220024E-1
 9.937582986500000E9     4.653922357385598E-1   -1.270468684664490E-1   -1.129687203846614E-3   -1.219145826572738E-3   -1.156769959934522E-3   -1.178057285858324E-3    3.629834825968392E-1   -3.369180305075350E-1
 9.937584703375000E9     4.652478454999245E-1   -1.271300738394427E-1   -1.161393173926676E-3   -1.190873992403297E-3   -1.169452396152830E-3   -1.200873136597560E-3    3.628818178329154E-1   -3.371674362943210E-1
 9.937586420250000E9     4.651627956990256E-1   -1.270899941708832E-1   -1.124075385214362E-3   -1.191027460583161E-3   -1.156644702804803E-3   -1.201775477353658E-3    3.625146597246502E-1   -3.373071035765102E-1
 9.937588137125000E9     4.651495232001895E-1   -1.273277398832590E-1   -1.157346047827001E-3   -1.203370346842366E-3   -1.220045580751096E-3   -1.210428923935820E-3    3.626052243695070E-1   -3.374405002686935E-1
 9.937589854000000E9     4.651384639139727E-1   -1.274836443077764E-1   -1.157602994060156E-3   -1.228985363003165E-3   -1.218970829926985E-3   -1.235830506103231E-3    3.623587874698424E-1   -3.376081231514118E-1
 9.937591570875000E9     4.651781606096351E-1   -1.274621132173773E-1   -1.206181709206033E-3   -1.228886638236138E-3   -1.230025756568497E-3   -1.253216254566683E-3    3.622029692590646E-1   -3.377479650773009E-1
 9.937593287750000E9     4.650774999419105E-1   -1.277335378488796E-1   -1.201562350417106E-3   -1.249126746908734E-3   -1.225909716981576E-3   -1.274222609555575E-3    3.620756852445323E-1   -3.378833949699067E-1
 9.937595004625000E9     4.650920271962676E-1   -1.280100217099745E-1   -1.250982804594074E-3   -1.281596031257932E-3   -1.272917305079384E-3   -1.256690199604521E-3    3.617810875576854E-1   -3.379612751841138E-1
 9.937596721500000E9     4.649766779949137E-1   -1.279583983356931E-1   -1.269839623219957E-3   -1.321028415431211E-3   -1.266026134568460E-3   -1.285657097406011E-3    3.616762971116606E-1   -3.381629424465346E-1
 9.937598438375000E9     4.650021848260147E-1   -1.281417450643589E-1   -1.227267576146960E-3   -1.271936647384281E-3   -1.290477818985214E-3   -1.285164881281854E-3    3.612374497866810E-1   -3.384119748025428E-1
 9.937600155250000E9     4.650237666223895E-1   -1.281793233941902E-1   -1.244653466081464E-3   -1.295904302258043E-3   -1.305643243219940E-3   -1.314469633513639E-3    3.608734368052757E-1   -3.386703687748345E-1
 9.937601872125000E9     4.650034628097177E-1   -1.283171269047174E-1   -1.278653877333266E-3   -1.322486200794582E-3   -1.262829301901414E-3   -1.295393056443931E-3    3.607673501945471E-1   -3.387034557004773E-1
 9.937603589000000E9     4.649023467282975E-1   -1.284342314793421E-1   -1.278306590339911E-3   -1.341146597833440E-3   -1.318579759622847E-3   -1.318072514224007E-3    3.605921289525085E-1   -3.388044694541145E-1
 9.937605305875000E9     4.647914590610501E-1   -1.284535443313218E-1   -1.310586366692692E-3   -1.362509623754851E-3   -1.333477411863086E-3   -1.339202122889336E-3    3.604202725700749E-1   -3.388758820228360E-1
 9.937607022750000E9     4.646580907300820E-1   -1.285586407743842E-1   -1.315793435831330E-3   -1.392489981359255E-3   -1.343680419269252E-3   -1.360821363295232E-3    3.601668694114830E-1   -3.390421229474773E-1
 9.937608739625000E9     4.647057391031305E-1   -1.288066036006501E-1   -1.344861592644755E-3   -1.371377043521209E-3   -1.373043366723321E-3   -1.375757030469385E-3    3.599867937324005E-1   -3.392648539284362E-1
 9.937610456500000E9     4.647085464207820E-1   -1.288099020287312E-1   -1.347308427622835E-3   -1.401575115484353E-3   -1.353833100446129E-3   -1.377930985591564E-3    3.596719949128892E-1   -3.395233121285241E-1
 9.937612173375000E9     4.646788189447703E-1   -1.289430656047086E-1   -1.359684503304417E-3   -1.384214152008659E-3   -1.383155002106914E-3   -1.437526926242189E-3    3.595373538432858E-1   -3.396884555487407E-1
 9.937613890250000E9     4.646856973996444E-1   -1.291978284693554E-1   -1.391740172706536E-3   -1.409475245537179E-3   -1.416478183282515E-3   -1.420196678940656E-3    3.594506577126911E-1   -3.399299543918923E-1
 9.937615607125000E9     4.645287404581969E-1   -1.293361331816880E-1   -1.420845667815148E-3   -1.424085741769266E-3   -1.430408960855622E-3   -1.454469121689077E-3    3.590514713177555E-1   -3.400435979226731E-1
 9.937617324000000E9     4.645834900764743E-1   -1.292548046000883E-1   -1.415245360492848E-3   -1.417205995368740E-3   -1.432083543580123E-3   -1.438051552699663E-3    3.587816950567279E-1   -3.401304347919941E-1
 9.937619040875000E9     4.645630253884319E-1   -1.293695567206258E-1   -1.401700959080885E-3   -1.445023821012012E-3   -1.503674750235565E-3   -1.457515559948294E-3    3.584411835345649E-1   -3.402796707297355E-1
 9.937620757750000E9     4.644789729274525E-1   -1.296514328088983E-1   -1.440682452404747E-3   -1.463144127025575E-3   -1.523840463112019E-3   -1.479698325970141E-3    3.583278870836909E-1   -3.405467627109593E-1
 9.937622474625000E9     4.643033801780297E-1   -1.296679689799975E-1   -1.476035844219455E-3   -1.523768160551486E-3   -1.524085484470567E-3   -1.498655309174697E-3    3.582886769658541E-1   -3.407637558035429E-1
 9.937624191500000E9     4.644736505202656E-1   -1.298369200055079E-1   -1.473354556634255E-3   -1.502166850524102E-3   -1.521994377201043E-3   -1.510061507320780E-3    3.581165120257533E-1   -3.408478447348515E-1
 9.937625908375000E9     4.642822993781546E-1   -1.299397685729073E-1   -1.508451134228338E-3   -1.530270193471316E-3   -1.524814297104378E-3   -1.518170410106764E-3    3.577257894405961E-1   -3.410178951609812E-1
 9.937627625250000E9     4.643115037024054E-1   -1.299786133399873E-1   -1.510650851990648E-3   -1.540965092623570E-3   -1.561855092055747E-3   -1.535240712686206E-3    3.572285239642886E-1   -3.409644354233400E-1
 9.937629342125000E9     4.643815797868410E-1   -1.301402110584286E-1   -1.537146443662868E-3   -1.556030632271597E-3   -1.562303363171503E-3   -1.527438199426771E-3    3.570098634831615E-1   -3.415081237701997E-1
 9.937631059000000E9     4.641863740415069E-1   -1.303060346381529E-1   -1.532901473265666E-3   -1.528472566454025E-3   -1.583207896968284E-3   -1.559658563938947E-3    3.569386661717077E-1   -3.416600305275282E-1
 9.937632775875000E9     4.641313200651109E-1   -1.303950743970831E-1   -1.600765311277621E-3   -1.582599711102011E-3   -1.602005174675263E-3   -1.603367194573974E-3    3.566355927911800E-1   -3.418443718976231E-1
 9.937634492750000E9     4.641283355759901E-1   -1.305343326038184E-1   -1.593272705483610E-3   -1.577894135431411E-3   -1.635191613874951E-3   -1.589643372517074E-3    3.565484847467760E-1   -3.418544696067184E-1
 9.937636209625000E9     4.640884130246896E-1   -1.304686040776291E-1   -1.630293590870650E-3   -1.617732640024155E-3   -1.663549136725045E-3   -1.587196248285164E-3    3.560319057809659E-1   -3.421182776027101E-1
 9.937637926500000E9     4.640324193460758E-1   -1.307803177830282E-1   -1.678239934092201E-3   -1.619817250877013E-3   -1.663781585115343E-3   -1.625752124960850E-3    3.558279956282550E-1   -3.423935051437181E-1
 9.937639643375000E9     4.639986810045162E-1   -1.309188983414647E-1   -1.655039982880512E-3   -1.653585978382886E-3   -1.706420639422933E-3   -1.654921637603449E-3    3.555231273560495E-1   -3.423328725209171E-1
 9.937641360250000E9     4.639392437964090E-1   -1.309045602423577E-1   -1.673164428499206E-3   -1.703586856842398E-3   -1.731101037443128E-3   -1.651599000185913E-3    3.553385176863579E-1   -3.426881789680532E-1
 9.937643077125000E9     4.640083502129043E-1   -1.309472602314673E-1   -1.674301668529276E-3   -1.636997811852370E-3   -1.735408261140230E-3   -1.675976359861906E-3    3.550856900098148E-1   -3.430040113318026E-1
 9.937644794000000E9     4.638484493529483E-1   -1.312420225623878E-1   -1.741975568304180E-3   -1.712962704973609E-3   -1.768819101020824E-3   -1.698362171860530E-3    3.548712290811092E-1   -3.430772495760491E-1
 9.937646510875000E9     4.637433892616494E-1   -1.312933081871184E-1   -1.739431608011079E-3   -1.714232970732234E-3   -1.813482797258143E-3   -1.716613937718263E-3    3.546074611315348E-1   -3.431478544884748E-1
 9.937648227750000E9     4.638422059970184E-1   -1.313746146443540E-1   -1.775155604716768E-3   -1.756178538628784E-3   -1.833087805997273E-3   -1.703427041607740E-3    3.542108446020440E-1   -3.434619346286706E-1
 9.937649944625000E9     4.638185391594812E-1   -1.315066941328015E-1   -1.787000873256216E-3   -1.766254428703976E-3   -1.818602236754140E-3   -1.752053923120778E-3    3.538603915927503E-1   -3.434958584353507E-1
 9.937651661500000E9     4.637059681900031E-1   -1.315789521076421E-1   -1.802879060672084E-3   -1.792426684728579E-3   -1.877704124234477E-3   -1.747131453756751E-3    3.536528274715636E-1   -3.439460728986623E-1
 9.937653378375000E9     4.635872976202076E-1   -1.315871157448918E-1   -1.803337396473297E-3   -1.739294154021519E-3   -1.853433418823853E-3   -1.766738939983308E-3    3.533594145701351E-1   -3.439967979235674E-1
 9.937655095250000E9     4.635778723801635E-1   -1.320013078038018E-1   -1.837837986416113E-3   -1.807011396266754E-3   -1.871336995195971E-3   -1.809225020092425E-3    3.533355231048599E-1   -3.443950813567963E-1
 9.937656812125000E9     4.635825760995571E-1   -1.320486645819625E-1   -1.871915505702105E-3   -1.810035018782050E-3   -1.944904742662411E-3   -1.820799614769319E-3    3.530224237409044E-1   -3.444609447547590E-1
 9.937658529000000E9     4.635307572493587E-1   -1.321131128719898E-1   -1.924068048114977E-3   -1.849810520604500E-3   -1.912640671321113E-3   -1.842163678111609E-3    3.524943441270607E-1   -3.446504039842259E-1
 9.937660245875000E9     4.634060391918617E-1   -1.322281973662943E-1   -1.935902544726459E-3   -1.831664059699279E-3   -2.000681362570786E-3   -1.899826173345665E-3    3.521381860266301E-1   -3.447762317341943E-1
 9.937661962750000E9     4.634552684718976E-1   -1.323718028543834E-1   -1.961651321058730E-3   -1.867220271809272E-3   -1.976541578359542E-3   -1.862589498526008E-3    3.519583729552178E-1   -3.451596037529016E-1
 9.937663679625000E9     4.633917338120256E-1   -1.324189335504718E-1   -1.973349665425050E-3   -1.901674988275471E-3   -1.995582039183375E-3   -1.909552547084113E-3    3.515291875769853E-1   -3.451465192871152E-1
 9.937665396500000E9     4.633347457161701E-1   -1.326556376792437E-1   -1.979770379678765E-3   -1.920336084885504E-3   -2.039965906769844E-3   -1.875828542811266E-3    3.512356457547383E-1   -3.455827023619664E-1
 9.937667113375000E9     4.632993676780409E-1   -1.326836746180623E-1   -1.990262348875890E-3   -1.909677276744875E-3   -2.078264977784457E-3   -1.912380383478329E-3    3.508672826039936E-1   -3.456273453555055E-1
 9.937668830250000E9     4.633107954192155E-1   -1.327281100144456E-1   -2.080780800051589E-3   -1.978983463094233E-3   -2.106459278476683E-3   -1.954337397255340E-3    3.506636843146925E-1   -3.457810971466493E-1
 9.937670547125000E9     4.633391168292150E-1   -1.329807985617810E-1   -2.104970818436920E-3   -1.990026669867336E-3   -2.097158581590781E-3   -1.960320711498406E-3    3.503880275788967E-1   -3.460348709092503E-1
 9.937672264000000E9     4.631989655005654E-1   -1.330300293271010E-1   -2.078541368766583E-3   -2.011455155323651E-3   -2.144904539059841E-3   -1.993583565550783E-3    3.502298740321462E-1   -3.461694732297718E-1
 9.937673980875000E9     4.632236948376428E-1   -1.331190133126214E-1   -2.126444522259972E-3   -2.001388459985738E-3   -2.193458512107522E-3   -2.000492553683294E-3    3.498169360716931E-1   -3.465124387941266E-1
 9.937675697750000E9     4.630563886752001E-1   -1.332904311619648E-1   -2.150584210419463E-3   -2.023894989109124E-3   -2.223243163941676E-3   -2.025388676395341E-3    3.493961810918712E-1   -3.465797422582756E-1
 9.937677414625000E9     4.631772891030692E-1   -1.334721663963682E-1   -2.187870420320881E-3   -2.007394484560819E-3   -2.228467992057428E-3   -2.051561008739005E-3    3.491097497975688E-1   -3.466932267695682E-1
 9.937679131500000E9     4.629357445258069E-1   -1.335072608048780E-1   -2.212924148134655E-3   -2.062805961755359E-3   -2.258567920708229E-3   -2.091504223627202E-3    3.487417819882970E-1   -3.472183748823174E-1
 9.937680848375000E9     4.629800715271325E-1   -1.336956001313607E-1   -2.230567082668893E-3   -2.113208505740237E-3   -2.290140213144639E-3   -2.088530009293077E-3    3.484070231229624E-1   -3.471737917959318E-1
 9.937682565250000E9     4.629598406536017E-1   -1.337830420841387E-1   -2.258350374834442E-3   -2.117930189472628E-3   -2.351543237687971E-3   -2.101125470547033E-3    3.479197428216360E-1   -3.473957453113190E-1
 9.937684282125000E9     4.630493170397851E-1   -1.337724234646900E-1   -2.290953969939594E-3   -2.164478226543447E-3   -2.360861932123177E-3   -2.128401162149877E-3    3.476804603005141E-1   -3.478139608913750E-1
 9.937685999000000E9     4.628439663502115E-1   -1.339491431009878E-1   -2.318878877715222E-3   -2.135823570830644E-3   -2.388129699381146E-3   -2.175710237132406E-3    3.471011291244867E-1   -3.477834051641614E-1
 9.937687715875000E9     4.629113169094899E-1   -1.342040475596120E-1   -2.341444801308456E-3   -2.226672006190783E-3   -2.444192823954704E-3   -2.171754657619747E-3    3.468270041189772E-1   -3.481450874912583E-1
 9.937689432750000E9     4.627670404393122E-1   -1.341735774670372E-1   -2.390183417874818E-3   -2.199242928464267E-3   -2.460990301094717E-3   -2.192756227285710E-3    3.465630294591859E-1   -3.482438445831862E-1
 9.937691149625000E9     4.626563584949855E-1   -1.342599069478377E-1   -2.428575381661113E-3   -2.205137346276963E-3   -2.502567559095693E-3   -2.237642780875228E-3    3.461437467627771E-1   -3.483475970612712E-1
 9.937692866500000E9     4.626619628119127E-1   -1.343963633821191E-1   -2.425201857565334E-3   -2.268405952102505E-3   -2.503543652053976E-3   -2.215669855100136E-3    3.457407310535192E-1   -3.487256009305322E-1
 9.937694583375000E9     4.627492675981013E-1   -1.344286008888515E-1   -2.499265112362448E-3   -2.295746197191067E-3   -2.557848148429601E-3   -2.295018761716466E-3    3.453494594537925E-1   -3.490534371898666E-1
 9.937696300250000E9     4.625724200036847E-1   -1.344995937019545E-1   -2.550919568136660E-3   -2.303261360188934E-3   -2.599995258413955E-3   -2.305932763915433E-3    3.450995529937430E-1   -3.493293790535881E-1
 9.937698017125000E9     4.624006993929775E-1   -1.347438943199252E-1   -2.581955964161457E-3   -2.290715755564163E-3   -2.622985089232429E-3   -2.329163405989636E-3    3.447304426173116E-1   -3.494152834548733E-1
 9.937699734000000E9     4.624485611737129E-1   -1.348780076066702E-1   -2.580355037775530E-3   -2.344668961946669E-3   -2.661802966719362E-3   -2.342668305579063E-3    3.442203373283528E-1   -3.497099762347834E-1
 9.937701450875000E9     4.624937886847645E-1   -1.350431570846146E-1   -2.622967039345980E-3   -2.360588278588269E-3   -2.684888715849821E-3   -2.392083621402785E-3    3.437653919582281E-1   -3.499764334135000E-1
 9.937703167750000E9     4.623275282797683E-1   -1.351890179918560E-1   -2.661821152627199E-3   -2.394979709631728E-3   -2.755896741378308E-3   -2.407046430025853E-3    3.435501842116230E-1   -3.502319029715278E-1
 9.937704884625000E9     4.624699810340544E-1   -1.352785384414756E-1   -2.672214514989054E-3   -2.415748715223268E-3   -2.785400781094308E-3   -2.421313542907717E-3    3.431563317266244E-1   -3.504691380435006E-1
 9.937706601500000E9     4.623978417006120E-1   -1.353903713045126E-1   -2.762260412804914E-3   -2.479726871064330E-3   -2.814071447032240E-3   -2.449763044056145E-3    3.427429927715771E-1   -3.507350876885330E-1
 9.937708318375000E9     4.624319389848876E-1   -1.353672406731917E-1   -2.770880390047790E-3   -2.477131825762494E-3   -2.854099763312110E-3   -2.452875793423737E-3    3.421778037390921E-1   -3.508664253249149E-1
 9.937710035250000E9     4.622258978304206E-1   -1.356104678117255E-1   -2.835625689011876E-3   -2.510688124506735E-3   -2.890464066758627E-3   -2.512532982751589E-3    3.416761026061795E-1   -3.511290757266600E-1
 9.937711752125000E9     4.621492516886337E-1   -1.355917485771039E-1   -2.844630373470981E-3   -2.540808658788796E-3   -2.944870534131499E-3   -2.517075802228114E-3    3.413704770468433E-1   -3.514826828454000E-1
 9.937713469000000E9     4.620734364349176E-1   -1.356507341527161E-1   -2.888154961123638E-3   -2.544314567037760E-3   -2.944680193702877E-3   -2.532328623839505E-3    3.409249488166622E-1   -3.516862186320860E-1
 9.937715185875000E9     4.620765110118639E-1   -1.359050546427193E-1   -2.924452989231074E-3   -2.557834098199312E-3   -3.027263388717215E-3   -2.584086294885818E-3    3.404762413140560E-1   -3.516104770030291E-1
 9.937716902750000E9     4.620634064740363E-1   -1.360623226074701E-1   -2.980500978073674E-3   -2.615324008411780E-3   -3.070525609608956E-3   -2.604971237387447E-3    3.399412346574934E-1   -3.523319189061763E-1
