#  HZ   S   RI   R     50.00 
! Rohde & Schwarz Vector Network Analyzer 
! Rohde-Schwarz,ZNB20-2Port,1311601062101988,3.16
! Created: UTC 3/20/2024, 11:17:06 PM
! freq[Hz]                re:S11                  im:S11                  re:S21                  im:S21                  re:S12                  im:S12                  re:S22                  im:S22
 9.937569968000000E9     4.658384345228512E-1   -1.260375089055270E-1   -9.618281479267422E-4   -1.060388336351176E-3   -1.039352925102813E-3   -1.078583440027059E-3    3.648290764446109E-1   -3.356109822158410E-1
 9.937571658450001E9     4.656432061110235E-1   -1.263482898473164E-1   -1.042516255622149E-3   -1.100970760451052E-3   -1.055277618214881E-3   -1.107369998431147E-3    3.646484927413747E-1   -3.359088782919455E-1
 9.937573348900000E9     4.656442481052046E-1   -1.264557247128364E-1   -1.074643835037353E-3   -1.112696096310568E-3   -1.061204132565179E-3   -1.120562927465786E-3    3.645493764527886E-1   -3.359271338685371E-1
 9.937575039350000E9     4.656085345797684E-1   -1.263167982590338E-1   -1.047242168407772E-3   -1.124140153271988E-3   -1.075301981430546E-3   -1.136628542520529E-3    3.641970660376033E-1   -3.360662177883939E-1
 9.937576729799999E9     4.654745698803524E-1   -1.266781803818537E-1   -1.043307875741263E-3   -1.123494036655725E-3   -1.089530451858235E-3   -1.105261032507118E-3    3.641310803186246E-1   -3.363704990945424E-1
 9.937578420250000E9     4.654829819097580E-1   -1.265434184294043E-1   -1.068335007747566E-3   -1.193895460056800E-3   -1.094263603402156E-3   -1.130937285449268E-3    3.637215731083625E-1   -3.363491222755894E-1
 9.937580110700001E9     4.653624266639655E-1   -1.267613521605624E-1   -1.102984432319950E-3   -1.142316277121300E-3   -1.107181036679067E-3   -1.164441128028968E-3    3.637677637711846E-1   -3.366561921812861E-1
 9.937581801150000E9     4.653730347137649E-1   -1.269588290409151E-1   -1.110475232552194E-3   -1.164429241652475E-3   -1.139720869330634E-3   -1.143669297211194E-3    3.635622592029792E-1   -3.368944831077599E-1
 9.937583491600000E9     4.653107680487439E-1   -1.268492920870620E-1   -1.129149974375980E-3   -1.168915325669395E-3   -1.114349385610523E-3   -1.178898686550169E-3    3.632404465939089E-1   -3.369482001306107E-1
 9.937585182049999E9     4.652162459670774E-1   -1.271497804079927E-1   -1.142953730965079E-3   -1.170615228464978E-3   -1.140739260196735E-3   -1.190438230859712E-3    3.630887484202071E-1   -3.368946320906280E-1
 9.937586872500000E9     4.653289447551873E-1   -1.272095199518254E-1   -1.122236553786355E-3   -1.205482647703940E-3   -1.158361167221462E-3   -1.199842198620774E-3    3.627004741799950E-1   -3.372082005116894E-1
 9.937588562950001E9     4.651576674121683E-1   -1.272077993781587E-1   -1.131106932992746E-3   -1.217498305309630E-3   -1.164269976808192E-3   -1.216742235889812E-3    3.626887491155572E-1   -3.373338989146208E-1
 9.937590253400000E9     4.652292185369991E-1   -1.274519541896652E-1   -1.166568666095352E-3   -1.219370797234984E-3   -1.173461615730482E-3   -1.208234812877261E-3    3.624844101387866E-1   -3.374054957691603E-1
 9.937591943850000E9     4.651451160338619E-1   -1.275181720691461E-1   -1.178336003970586E-3   -1.248732504696467E-3   -1.187099383287317E-3   -1.230041684058882E-3    3.622771722450472E-1   -3.377226805096074E-1
 9.937593634299999E9     4.651262975563117E-1   -1.277299992142130E-1   -1.169947225733476E-3   -1.239213247448817E-3   -1.234116485342705E-3   -1.240720295998102E-3    3.620587811840057E-1   -3.377378199983381E-1
 9.937595324750000E9     4.650230073434000E-1   -1.277781957312852E-1   -1.183748942173749E-3   -1.275542044772067E-3   -1.247712578785359E-3   -1.262679597757378E-3    3.618083360800261E-1   -3.378476274768858E-1
 9.937597015200001E9     4.648581902269546E-1   -1.278990303688962E-1   -1.196656244882428E-3   -1.295832055244328E-3   -1.260162406982155E-3   -1.308342088513278E-3    3.616201988260321E-1   -3.380257688338904E-1
 9.937598705650000E9     4.650815762416060E-1   -1.280641581071390E-1   -1.228011572947341E-3   -1.274869653721585E-3   -1.295211867829665E-3   -1.277097417922839E-3    3.615206452176817E-1   -3.381622991570409E-1
 9.937600396100000E9     4.649437250641444E-1   -1.281997993248422E-1   -1.219776784839474E-3   -1.286160853204017E-3   -1.245643811058202E-3   -1.289020931887120E-3    3.613279440548821E-1   -3.384254729646379E-1
 9.937602086549999E9     4.648857068789299E-1   -1.283020510730460E-1   -1.250158793412430E-3   -1.304534175441756E-3   -1.308140896467473E-3   -1.328251748054949E-3    3.609970059799981E-1   -3.386779058998900E-1
 9.937603777000000E9     4.647422906839681E-1   -1.282968134956608E-1   -1.259449805920709E-3   -1.301842054590005E-3   -1.290069421435209E-3   -1.344530624945383E-3    3.607935438204316E-1   -3.387979811712155E-1
 9.937605467450001E9     4.649359161569828E-1   -1.286073851351338E-1   -1.281191171387661E-3   -1.313874140551246E-3   -1.299872766561879E-3   -1.332472059400515E-3    3.605684249874765E-1   -3.393679928956588E-1
 9.937607157900000E9     4.648420657807775E-1   -1.287393137682114E-1   -1.289327762789716E-3   -1.339605646710418E-3   -1.325599477649262E-3   -1.326027692244169E-3    3.604460577238464E-1   -3.392170657939472E-1
 9.937608848350000E9     4.647177901785249E-1   -1.287662769821518E-1   -1.325009309932182E-3   -1.372742730237794E-3   -1.358280502897416E-3   -1.348027161924601E-3    3.600653554531054E-1   -3.392415274806010E-1
 9.937610538799999E9     4.647256568690762E-1   -1.288555587535183E-1   -1.353596539804214E-3   -1.379759105479996E-3   -1.384209158223110E-3   -1.359765307388215E-3    3.599438546138873E-1   -3.395073234500537E-1
 9.937612229250000E9     4.646341518111879E-1   -1.288750907485038E-1   -1.335067416524097E-3   -1.371186324933730E-3   -1.382485185972796E-3   -1.362238259818093E-3    3.597057593876095E-1   -3.397710477329890E-1
 9.937613919700001E9     4.646020763975764E-1   -1.290751372130214E-1   -1.363514201132731E-3   -1.381765102573713E-3   -1.415200918158957E-3   -1.387326714233892E-3    3.594106279838941E-1   -3.397267857270109E-1
 9.937615610150000E9     4.646984247531424E-1   -1.293527383240369E-1   -1.394342287324158E-3   -1.435765643514723E-3   -1.415585232334040E-3   -1.413069020682256E-3    3.593457082740528E-1   -3.400358181063463E-1
 9.937617300600000E9     4.646013571357588E-1   -1.293079027562580E-1   -1.396583011112482E-3   -1.434000200847418E-3   -1.395609137029113E-3   -1.446418713493414E-3    3.588838204391238E-1   -3.401397144046216E-1
 9.937618991049999E9     4.644188013751406E-1   -1.295589883954303E-1   -1.429227150443055E-3   -1.449832219166952E-3   -1.443861550671676E-3   -1.434356358642945E-3    3.587887682972096E-1   -3.403507886415785E-1
 9.937620681500000E9     4.645081215986385E-1   -1.295126560399505E-1   -1.426017374087530E-3   -1.477259113971091E-3   -1.475858258945643E-3   -1.437631223962473E-3    3.585618613848038E-1   -3.404622918805032E-1
 9.937622371950001E9     4.643842627561422E-1   -1.297071380430210E-1   -1.456580737045722E-3   -1.419637191930659E-3   -1.458505123439697E-3   -1.470644012500163E-3    3.582576015072569E-1   -3.406612567852020E-1
 9.937624062400000E9     4.644509131367844E-1   -1.298530912789844E-1   -1.437759631339213E-3   -1.466072743545003E-3   -1.514039586851845E-3   -1.503576870707473E-3    3.581783198778680E-1   -3.408042939265499E-1
 9.937625752850000E9     4.643695658881630E-1   -1.297935806108222E-1   -1.458662416674043E-3   -1.508382849260345E-3   -1.525198393915686E-3   -1.491414189176533E-3    3.579092130114522E-1   -3.410776164417748E-1
 9.937627443299999E9     4.642837935426241E-1   -1.299875088499030E-1   -1.522477482906358E-3   -1.528162214982935E-3   -1.543516595127613E-3   -1.497831888881343E-3    3.575831261987923E-1   -3.410870898179272E-1
 9.937629133750000E9     4.643248237053174E-1   -1.299984883193385E-1   -1.501649905024082E-3   -1.537582006744109E-3   -1.575383213847071E-3   -1.546208064018111E-3    3.572210219627761E-1   -3.413974796892003E-1
 9.937630824200001E9     4.642421952008349E-1   -1.302111251229175E-1   -1.525997906955128E-3   -1.524797545401834E-3   -1.572812675435503E-3   -1.564631245913454E-3    3.571569425439619E-1   -3.415193453378431E-1
 9.937632514650000E9     4.642421119283236E-1   -1.303610301513536E-1   -1.519680322705132E-3   -1.573714810834701E-3   -1.573064410498431E-3   -1.551235224013654E-3    3.567634233003792E-1   -3.418284252236500E-1
 9.937634205100000E9     4.640212748813333E-1   -1.303870215350599E-1   -1.531080329041300E-3   -1.596508031545767E-3   -1.615730205271736E-3   -1.596200984368147E-3    3.565237275099336E-1   -3.418703284442363E-1
 9.937635895549999E9     4.641679207572618E-1   -1.306201992680024E-1   -1.564322748850629E-3   -1.600852428270311E-3   -1.619144309341571E-3   -1.587313991171151E-3    3.563618597332890E-1   -3.419593599168037E-1
 9.937637586000000E9     4.640135137492360E-1   -1.305953911096765E-1   -1.634774512096382E-3   -1.635491854499111E-3   -1.625697251993248E-3   -1.607337879446946E-3    3.562124176575605E-1   -3.424009324346429E-1
 9.937639276450001E9     4.640087725441259E-1   -1.308511741209856E-1   -1.607812025680956E-3   -1.646940253142062E-3   -1.646191018837625E-3   -1.604992709266818E-3    3.559660234569936E-1   -3.423188000179405E-1
 9.937640966900000E9     4.640113032997962E-1   -1.308788620139933E-1   -1.656535290274784E-3   -1.630236258002286E-3   -1.664245438169267E-3   -1.637218690574506E-3    3.555457668691367E-1   -3.425062606567583E-1
 9.937642657350000E9     4.637796889594868E-1   -1.309959475957414E-1   -1.682708820511301E-3   -1.640120514520752E-3   -1.729298827115828E-3   -1.647116624504770E-3    3.552721777434070E-1   -3.428258120292996E-1
 9.937644347799999E9     4.638698007253829E-1   -1.311331937023689E-1   -1.700454302784658E-3   -1.670108091021132E-3   -1.717102193756037E-3   -1.684305018061756E-3    3.551330892224164E-1   -3.428893176069665E-1
 9.937646038250000E9     4.638775434587277E-1   -1.312335296160043E-1   -1.685701056056927E-3   -1.712235834614493E-3   -1.787448902357996E-3   -1.690144234113510E-3    3.547570941192045E-1   -3.432814906412606E-1
 9.937647728700001E9     4.637948330975280E-1   -1.313911798135363E-1   -1.731898686024059E-3   -1.704267431494104E-3   -1.793093848933783E-3   -1.685057075812207E-3    3.545630078682900E-1   -3.434078783207206E-1
 9.937649419150000E9     4.637983176421450E-1   -1.315170684524657E-1   -1.729130960033239E-3   -1.719521998116034E-3   -1.793366215643226E-3   -1.725463549509892E-3    3.541918178565123E-1   -3.434413274446079E-1
 9.937651109600000E9     4.638636894740137E-1   -1.315248767985451E-1   -1.747987538875926E-3   -1.705052543756284E-3   -1.829062460331365E-3   -1.747642892490852E-3    3.540589682554096E-1   -3.435836767952384E-1
 9.937652800049999E9     4.636350474194531E-1   -1.316975109941620E-1   -1.799109745252833E-3   -1.797084446068105E-3   -1.812143847885441E-3   -1.749897902765394E-3    3.538481638418785E-1   -3.439483132271346E-1
 9.937654490500000E9     4.637009427358380E-1   -1.318069805917070E-1   -1.819460258439265E-3   -1.759915035798128E-3   -1.883197508046050E-3   -1.763294350060938E-3    3.535040466689147E-1   -3.440550961324691E-1
 9.937656180950001E9     4.635913031066881E-1   -1.319763180265417E-1   -1.837191361973910E-3   -1.791118798983007E-3   -1.888931250800785E-3   -1.793916465469766E-3    3.530330385718683E-1   -3.442018165491653E-1
 9.937657871400000E9     4.635569022287069E-1   -1.320496874754455E-1   -1.810446491863591E-3   -1.811779079498964E-3   -1.895919124380852E-3   -1.810121952021756E-3    3.530248547139653E-1   -3.445952947893077E-1
 9.937659561850000E9     4.635788188686951E-1   -1.322368598634094E-1   -1.849957715348837E-3   -1.824976397271574E-3   -1.940658465984805E-3   -1.818080875687042E-3    3.524341238712937E-1   -3.445557106700696E-1
 9.937661252299999E9     4.635308008093910E-1   -1.321864996361953E-1   -1.868668120910299E-3   -1.867807082718700E-3   -1.958295790732671E-3   -1.857593595636850E-3    3.523371158429038E-1   -3.448208467674055E-1
 9.937662942750000E9     4.635467619878525E-1   -1.323638524190717E-1   -1.922382557574398E-3   -1.895241608185330E-3   -1.989302948836790E-3   -1.846963618037854E-3    3.520478406175029E-1   -3.448731305090885E-1
 9.937664633200001E9     4.634111009206184E-1   -1.324167047676880E-1   -1.956818844406597E-3   -1.872756834547818E-3   -1.999583590241124E-3   -1.899657049698932E-3    3.514979047650833E-1   -3.455321994120931E-1
 9.937666323650000E9     4.633496582981673E-1   -1.325890577131840E-1   -1.976517888945686E-3   -1.884508602239867E-3   -2.037122610482949E-3   -1.907768487259284E-3    3.514625655119468E-1   -3.454208877673973E-1
 9.937668014100000E9     4.633275306983710E-1   -1.328226204863457E-1   -1.993942989363474E-3   -1.941583908243317E-3   -2.043891579249050E-3   -1.933270723320110E-3    3.510148763741922E-1   -3.455384010892427E-1
 9.937669704549999E9     4.633116148103156E-1   -1.327787003069897E-1   -2.036714026501503E-3   -1.947424476747749E-3   -2.067232130247766E-3   -1.963021264192242E-3    3.508646031956218E-1   -3.458792071824887E-1
 9.937671395000000E9     4.631196659391894E-1   -1.330291577067999E-1   -2.040216454771322E-3   -1.972093421081552E-3   -2.072041387612603E-3   -1.929029839461731E-3    3.504744416059433E-1   -3.460820671299893E-1
 9.937673085450001E9     4.631486555576673E-1   -1.330153987509644E-1   -2.103262645591304E-3   -1.964791349757953E-3   -2.133333767802326E-3   -2.008184571735995E-3    3.502666972097537E-1   -3.461851360033180E-1
 9.937674775900000E9     4.630334776798707E-1   -1.330698199007402E-1   -2.096448374587680E-3   -1.990958332215880E-3   -2.163723195944225E-3   -1.991270832373987E-3    3.500543269424022E-1   -3.464743745778674E-1
 9.937676466350000E9     4.632594877442708E-1   -1.332802692269174E-1   -2.134120469460107E-3   -1.993437325290735E-3   -2.200655808607148E-3   -2.002065088049484E-3    3.494341448591760E-1   -3.468317090297242E-1
 9.937678156799999E9     4.630621034954137E-1   -1.334077801842345E-1   -2.151310369120446E-3   -2.034081005609949E-3   -2.224093269475792E-3   -2.056974354228548E-3    3.491840678137217E-1   -3.468614314034406E-1
 9.937679847250000E9     4.630519296324327E-1   -1.335258012651193E-1   -2.163199592743027E-3   -2.070074384084797E-3   -2.271171361036623E-3   -2.062523395988220E-3    3.488792814733176E-1   -3.471160241552436E-1
 9.937681537700001E9     4.628496386903762E-1   -1.335732252894149E-1   -2.208702950212289E-3   -2.079175314710324E-3   -2.297292574216730E-3   -2.093176381033453E-3    3.485052356226282E-1   -3.472637212436860E-1
 9.937683228150000E9     4.629795012457993E-1   -1.338133548010304E-1   -2.250904930439277E-3   -2.112450304129961E-3   -2.308090449955150E-3   -2.125181983550890E-3    3.482231347039068E-1   -3.474977447610353E-1
 9.937684918600000E9     4.630750815649356E-1   -1.338252716514643E-1   -2.270722058339933E-3   -2.174218450878604E-3   -2.340203824547620E-3   -2.112855771644276E-3    3.478115994716972E-1   -3.475650783534229E-1
 9.937686609049999E9     4.629932342710360E-1   -1.339342036815839E-1   -2.279085557776982E-3   -2.169768032872803E-3   -2.338658507652207E-3   -2.186937042316476E-3    3.475398469440900E-1   -3.478842405153730E-1
 9.937688299500000E9     4.627704135172647E-1   -1.340940670661415E-1   -2.340004397273307E-3   -2.183988785152896E-3   -2.390018365124043E-3   -2.204203373538952E-3    3.472216968550531E-1   -3.481781054641210E-1
 9.937689989950001E9     4.628669203026298E-1   -1.342157856397314E-1   -2.352220618772994E-3   -2.198356173818096E-3   -2.446418088588289E-3   -2.183830310197371E-3    3.468369866949161E-1   -3.484011882529952E-1
 9.937691680400000E9     4.627878131788750E-1   -1.344248118867860E-1   -2.390665633711917E-3   -2.211152145620713E-3   -2.475224362712104E-3   -2.201155254927735E-3    3.464424870336138E-1   -3.485878975750318E-1
 9.937693370850000E9     4.626672568471019E-1   -1.343812591235788E-1   -2.409048136092307E-3   -2.247330434033394E-3   -2.518446364255198E-3   -2.232823474763029E-3    3.461797721693938E-1   -3.488377552268512E-1
 9.937695061299999E9     4.626428611697622E-1   -1.346499350075483E-1   -2.453851811072561E-3   -2.212226008414829E-3   -2.538225079820850E-3   -2.245358526019286E-3    3.457838402287075E-1   -3.490067375932730E-1
 9.937696751750000E9     4.625612065987594E-1   -1.345686028615814E-1   -2.491050916851296E-3   -2.315512155430731E-3   -2.583478732168359E-3   -2.304518272079632E-3    3.454120968489154E-1   -3.490977625947833E-1
 9.937698442200001E9     4.623838617640754E-1   -1.347212848506488E-1   -2.532161922900117E-3   -2.302053568173550E-3   -2.574709097556973E-3   -2.286866380737052E-3    3.448998413342828E-1   -3.494970325891178E-1
 9.937700132650000E9     4.625186173153931E-1   -1.348917667059092E-1   -2.575944392693073E-3   -2.372626127771107E-3   -2.621911480132878E-3   -2.345218786495265E-3    3.444365832533590E-1   -3.496204464922117E-1
 9.937701823100000E9     4.624540618208911E-1   -1.350519026625614E-1   -2.571835971334075E-3   -2.369918451251721E-3   -2.647375869395833E-3   -2.373215726732186E-3    3.440444783061657E-1   -3.499444207079122E-1
 9.937703513549999E9     4.623247917401916E-1   -1.351844668663714E-1   -2.589947809561645E-3   -2.405692612930564E-3   -2.704423786706693E-3   -2.375169119984810E-3    3.438027950685101E-1   -3.502120535311696E-1
 9.937705204000000E9     4.623256729550794E-1   -1.353033541519335E-1   -2.665932795472238E-3   -2.380060369765889E-3   -2.736897359143348E-3   -2.417015435321697E-3    3.433284719631421E-1   -3.502762931525840E-1
 9.937706894450001E9     4.623669469407971E-1   -1.353267947776668E-1   -2.703024159340890E-3   -2.398965832726582E-3   -2.736721573710151E-3   -2.410826352512491E-3    3.429555387219256E-1   -3.503346403705238E-1
 9.937708584900000E9     4.623017225301695E-1   -1.354026623171539E-1   -2.741918620857665E-3   -2.461413418889281E-3   -2.790013345960382E-3   -2.463298044896396E-3    3.424855425394316E-1   -3.508240445062819E-1
 9.937710275350000E9     4.623002559199862E-1   -1.355485579164553E-1   -2.760576254607262E-3   -2.496128930842938E-3   -2.862276365928799E-3   -2.432902542088588E-3    3.422017141713835E-1   -3.511479742108531E-1
 9.937711965799999E9     4.621309347588727E-1   -1.357564737118004E-1   -2.811487773064530E-3   -2.506732767215694E-3   -2.851157563539310E-3   -2.500516446753724E-3    3.418605515977787E-1   -3.512080897039149E-1
 9.937713656250000E9     4.622578062297411E-1   -1.358054263247959E-1   -2.861567348455273E-3   -2.543479985894501E-3   -2.923260328066924E-3   -2.538939347011541E-3    3.412074996241113E-1   -3.513813734292076E-1
 9.937715346700001E9     4.621786233116968E-1   -1.359962514017144E-1   -2.883020736520188E-3   -2.551938490844214E-3   -2.977028531596117E-3   -2.560966669449515E-3    3.408388391927493E-1   -3.517078075358614E-1
 9.937717037150000E9     4.619679498803346E-1   -1.360377838147223E-1   -2.930313279765073E-3   -2.603860369933575E-3   -3.001416782162172E-3   -2.594591611573693E-3    3.406386535094202E-1   -3.519363675512550E-1
 9.937718727600000E9     4.621380353419772E-1   -1.362909882872908E-1   -2.957171781177244E-3   -2.598263716352799E-3   -3.096267226438307E-3   -2.602881919727441E-3    3.401205106436736E-1   -3.522452980288945E-1
 9.937720418049999E9     4.620672505861010E-1   -1.362094565203182E-1   -3.047686848411941E-3   -2.611102905199445E-3   -3.097611348251751E-3   -2.631472624771568E-3    3.393691510171575E-1   -3.524649520801946E-1
 9.937722108500000E9     4.620206109573177E-1   -1.364407157696502E-1   -3.038052470920496E-3   -2.654115822676493E-3   -3.167480208121773E-3   -2.670538665073453E-3    3.389680413112275E-1   -3.527776883130096E-1
