#  HZ   S   RI   R     50.00 
! Rohde & Schwarz Vector Network Analyzer 
! Rohde-Schwarz,ZNB20-2Port,1311601062101988,3.16
! Created: UTC 3/20/2024, 11:17:28 PM
! freq[Hz]                re:S11                  im:S11                  re:S21                  im:S21                  re:S12                  im:S12                  re:S22                  im:S22
 9.937585340000000E9     4.654860082821846E-1   -1.271657256461583E-1   -1.080071472524570E-3   -1.159453833838005E-3   -1.092462202527473E-3   -1.151813058924417E-3    3.634961459273332E-1   -3.367376097174928E-1
 9.937586980400000E9     4.653925984706543E-1   -1.271575351323205E-1   -1.080999159472973E-3   -1.194376025024657E-3   -1.107237878763695E-3   -1.150579698687900E-3    3.632782786459682E-1   -3.369568369341788E-1
 9.937588620799999E9     4.652274027954707E-1   -1.273104535334802E-1   -1.136407325538661E-3   -1.177619273432444E-3   -1.128380690662935E-3   -1.166282194156714E-3    3.631676815946278E-1   -3.370539119907994E-1
 9.937590261200001E9     4.651547457096760E-1   -1.274715854595245E-1   -1.126091446080934E-3   -1.204761783927543E-3   -1.156817008929139E-3   -1.192064380836310E-3    3.629013643974059E-1   -3.372131567320887E-1
 9.937591901600000E9     4.651689205645039E-1   -1.275030494558043E-1   -1.138715258182758E-3   -1.184992124719659E-3   -1.158989719038239E-3   -1.207965891970243E-3    3.626393082442805E-1   -3.375218760378812E-1
 9.937593542000000E9     4.652032359077333E-1   -1.276227041415925E-1   -1.141029043798151E-3   -1.247776203084954E-3   -1.166019323641444E-3   -1.187352460463889E-3    3.627247703181121E-1   -3.375396821836217E-1
 9.937595182400000E9     4.651796344679882E-1   -1.276892697885315E-1   -1.157757099585016E-3   -1.207497125872593E-3   -1.185735781923420E-3   -1.198911261927414E-3    3.622792958854202E-1   -3.378236077562565E-1
 9.937596822799999E9     4.649599057765791E-1   -1.278582168924187E-1   -1.142808687745850E-3   -1.231086707985083E-3   -1.172991843970461E-3   -1.223482944349287E-3    3.620027921569962E-1   -3.380333219975544E-1
 9.937598463200001E9     4.649752937146996E-1   -1.278964707892687E-1   -1.175244465386474E-3   -1.226643552719976E-3   -1.192398003701241E-3   -1.248762288524999E-3    3.621149718489798E-1   -3.381088023298991E-1
 9.937600103600000E9     4.650786135068228E-1   -1.281099896429365E-1   -1.194400208857114E-3   -1.244016111350611E-3   -1.225942605220045E-3   -1.285885820081933E-3    3.616577920214432E-1   -3.382546564160459E-1
 9.937601744000000E9     4.649752982836706E-1   -1.282004572416049E-1   -1.209000216475223E-3   -1.251226814190683E-3   -1.232019761441983E-3   -1.262457158204176E-3    3.615756159334527E-1   -3.383725480574777E-1
 9.937603384400000E9     4.648822714020013E-1   -1.283678099539286E-1   -1.192548129584101E-3   -1.312412369504737E-3   -1.253696655953548E-3   -1.291587627719534E-3    3.613319322942802E-1   -3.386241432809151E-1
 9.937605024799999E9     4.649015456305565E-1   -1.284377826076117E-1   -1.204325779030289E-3   -1.273856413122777E-3   -1.264811126159074E-3   -1.277245741431953E-3    3.613323035725664E-1   -3.387642258087779E-1
 9.937606665200001E9     4.648434912748359E-1   -1.285408126038634E-1   -1.222735020504383E-3   -1.301905353631009E-3   -1.310537311820963E-3   -1.309187539163879E-3    3.609767986426017E-1   -3.389051788375245E-1
 9.937608305600000E9     4.647947614481501E-1   -1.286282058640148E-1   -1.223536817185130E-3   -1.310746356115684E-3   -1.269096368407769E-3   -1.342136575257183E-3    3.608518955412094E-1   -3.391054000435750E-1
 9.937609946000000E9     4.648026841144757E-1   -1.289401088368627E-1   -1.256442066766508E-3   -1.326299184949065E-3   -1.298935579642670E-3   -1.305385841034083E-3    3.605690442515782E-1   -3.392860763557691E-1
 9.937611586400000E9     4.646865500740893E-1   -1.290115056546113E-1   -1.248079560943177E-3   -1.332956503171078E-3   -1.321974539781646E-3   -1.365434276295164E-3    3.604427590759798E-1   -3.394208842087596E-1
 9.937613226799999E9     4.647336161243739E-1   -1.289855547765508E-1   -1.310287268985270E-3   -1.390894145437792E-3   -1.318777772501232E-3   -1.360437112436035E-3    3.600986013920848E-1   -3.394506559711691E-1
 9.937614867200001E9     4.647711994923074E-1   -1.291407970729421E-1   -1.328063634626276E-3   -1.390745393503909E-3   -1.342014590091790E-3   -1.383175110572433E-3    3.598455778060928E-1   -3.397266981552076E-1
 9.937616507600000E9     4.645400727656466E-1   -1.292253014678627E-1   -1.326470219138580E-3   -1.371098264774966E-3   -1.369326809157695E-3   -1.385693463897895E-3    3.594322642168495E-1   -3.399106656830491E-1
 9.937618148000000E9     4.646556147219533E-1   -1.293089201451721E-1   -1.311371790499996E-3   -1.382787245307219E-3   -1.379008653954631E-3   -1.365630824859456E-3    3.593716495634908E-1   -3.398526500201248E-1
 9.937619788400000E9     4.645732699543446E-1   -1.294276353361884E-1   -1.355589581419902E-3   -1.407002194192027E-3   -1.396757343605016E-3   -1.389144221497220E-3    3.590840047238225E-1   -3.402450913105206E-1
 9.937621428799999E9     4.645708735217367E-1   -1.295153807447509E-1   -1.354630364785539E-3   -1.443390547270591E-3   -1.433711738996562E-3   -1.412818817909923E-3    3.591431130531244E-1   -3.402632550223504E-1
 9.937623069200001E9     4.644833161790532E-1   -1.297653362063783E-1   -1.370016778340148E-3   -1.453360774308185E-3   -1.413122422066304E-3   -1.434783263703987E-3    3.588305597584463E-1   -3.406359995261751E-1
 9.937624709600000E9     4.642419945711419E-1   -1.298508125093518E-1   -1.412691290491828E-3   -1.453755280801827E-3   -1.425373354144528E-3   -1.439219235420725E-3    3.587332636213769E-1   -3.406065492426668E-1
 9.937626350000000E9     4.642680012932902E-1   -1.299362169693936E-1   -1.425611929588286E-3   -1.449252050118609E-3   -1.450354415887585E-3   -1.448152624348347E-3    3.583329502160503E-1   -3.408385362725957E-1
 9.937627990400000E9     4.643275769065726E-1   -1.298983144478890E-1   -1.424573210996749E-3   -1.494405885099554E-3   -1.472333503864184E-3   -1.490737143320293E-3    3.580445711702575E-1   -3.408109259149407E-1
 9.937629630799999E9     4.643854610378043E-1   -1.301538505035700E-1   -1.430884049392669E-3   -1.523752648127968E-3   -1.499306748311513E-3   -1.514129354821481E-3    3.578825379265960E-1   -3.413015967766282E-1
 9.937631271200001E9     4.643047233035116E-1   -1.302490808459255E-1   -1.468752439380874E-3   -1.514153592582880E-3   -1.483794190538032E-3   -1.496486474069301E-3    3.576859830950344E-1   -3.416248726288750E-1
 9.937632911600000E9     4.641526369994233E-1   -1.303236453103767E-1   -1.477474923980643E-3   -1.533140191137849E-3   -1.524213327295167E-3   -1.521464662414650E-3    3.575798770512172E-1   -3.414405566905426E-1
 9.937634552000000E9     4.642361450224816E-1   -1.302869774991563E-1   -1.517259202373919E-3   -1.520978388694299E-3   -1.546022952796257E-3   -1.525327195203747E-3    3.573318072253455E-1   -3.417142517696664E-1
 9.937636192400000E9     4.641762173869777E-1   -1.305409471686904E-1   -1.494201096330525E-3   -1.539114577838490E-3   -1.550031934698398E-3   -1.579226967830385E-3    3.570138711075619E-1   -3.419739017409918E-1
 9.937637832799999E9     4.640976263539823E-1   -1.307569842275960E-1   -1.532041332887879E-3   -1.500272980199949E-3   -1.557911247450113E-3   -1.550017397119053E-3    3.567715286774817E-1   -3.420718459178761E-1
 9.937639473200001E9     4.640774424076295E-1   -1.308355507910828E-1   -1.558614542535062E-3   -1.578644313291895E-3   -1.598976594356161E-3   -1.613730743468582E-3    3.564938039670640E-1   -3.422740149837932E-1
 9.937641113600000E9     4.639916572311786E-1   -1.307136727638998E-1   -1.567441496967453E-3   -1.564251219214740E-3   -1.646662751992821E-3   -1.596275726544477E-3    3.563856388324639E-1   -3.424073132893543E-1
 9.937642754000000E9     4.640700383784435E-1   -1.308321345908633E-1   -1.589060070231415E-3   -1.608230692652046E-3   -1.620966545812481E-3   -1.604920810821942E-3    3.559932959669244E-1   -3.424615062201715E-1
 9.937644394400000E9     4.640116201002472E-1   -1.311529585176941E-1   -1.599309099815646E-3   -1.636615626685783E-3   -1.663447424658746E-3   -1.625322669442133E-3    3.559460229627905E-1   -3.427717222062657E-1
 9.937646034799999E9     4.637651549763140E-1   -1.312543065157088E-1   -1.632781258932391E-3   -1.640155393476763E-3   -1.663352018427665E-3   -1.630471676160758E-3    3.556194399565629E-1   -3.429904201541301E-1
 9.937647675200001E9     4.638911008800846E-1   -1.312409307373429E-1   -1.611512906165228E-3   -1.665587099349749E-3   -1.687602583251581E-3   -1.666594947651254E-3    3.552117861471695E-1   -3.430863442380256E-1
 9.937649315600000E9     4.639130505086794E-1   -1.313025008723435E-1   -1.654254410671789E-3   -1.677227998998100E-3   -1.710568504450532E-3   -1.651206301992910E-3    3.551223379413131E-1   -3.433973176034141E-1
 9.937650956000000E9     4.638279105274490E-1   -1.314853573171714E-1   -1.675220602196272E-3   -1.676623940284316E-3   -1.752082117596580E-3   -1.702483061087889E-3    3.548383979600102E-1   -3.433250849103913E-1
 9.937652596400000E9     4.635235302929961E-1   -1.317775713429711E-1   -1.749473734688543E-3   -1.704243861405795E-3   -1.745651440394808E-3   -1.708642296390719E-3    3.546676425283802E-1   -3.435831404285106E-1
 9.937654236799999E9     4.636811060287533E-1   -1.316697474541070E-1   -1.689606499422044E-3   -1.735839380316360E-3   -1.784794905855726E-3   -1.742595650933570E-3    3.544617494344099E-1   -3.437910002060767E-1
 9.937655877200001E9     4.637013440837875E-1   -1.319992788890661E-1   -1.728855376569624E-3   -1.733627624854261E-3   -1.796775179685570E-3   -1.726221058175172E-3    3.539030575601341E-1   -3.442483870531619E-1
 9.937657517600000E9     4.635685776917615E-1   -1.319138640651341E-1   -1.761784123970293E-3   -1.739070115395908E-3   -1.838323645011367E-3   -1.768217463057915E-3    3.535577562841510E-1   -3.441153945803112E-1
 9.937659158000000E9     4.635839739599465E-1   -1.320679431298231E-1   -1.763648972959148E-3   -1.783321315957105E-3   -1.795435104398779E-3   -1.782318621295896E-3    3.534115465594638E-1   -3.443035938724777E-1
 9.937660798400000E9     4.635231683409125E-1   -1.322089432130794E-1   -1.791516253920356E-3   -1.804669255035071E-3   -1.869554040597997E-3   -1.797694882359759E-3    3.530977027404850E-1   -3.445567590277031E-1
 9.937662438799999E9     4.635182958232550E-1   -1.324220211227085E-1   -1.817206126949730E-3   -1.801832028547341E-3   -1.866059625007450E-3   -1.805939192616461E-3    3.528922662597959E-1   -3.448158030946080E-1
 9.937664079200001E9     4.634230494336725E-1   -1.324427736328276E-1   -1.822081263911445E-3   -1.825473983280986E-3   -1.877222758945013E-3   -1.827774105196160E-3    3.525440748983014E-1   -3.450376787139520E-1
 9.937665719600000E9     4.633982708102749E-1   -1.325512538050430E-1   -1.857285454220577E-3   -1.831688514220540E-3   -1.956207492268450E-3   -1.819073767631747E-3    3.523605676466633E-1   -3.451465496450462E-1
 9.937667360000000E9     4.634469999425815E-1   -1.326606671220184E-1   -1.887264933412522E-3   -1.887414813679654E-3   -1.932773822700651E-3   -1.873805918389362E-3    3.521878768789254E-1   -3.452040060056005E-1
 9.937669000400000E9     4.631528683996516E-1   -1.329643575724253E-1   -1.927323649141045E-3   -1.889567450300920E-3   -1.961079271576105E-3   -1.863450880555778E-3    3.517766709240883E-1   -3.455897358551809E-1
 9.937670640799999E9     4.634823622492364E-1   -1.329132314227184E-1   -1.939546584195732E-3   -1.901951441525292E-3   -1.976280792705214E-3   -1.901367354133315E-3    3.514877150362260E-1   -3.455797658209248E-1
 9.937672281200001E9     4.634247179071224E-1   -1.330219025031401E-1   -1.960169273749648E-3   -1.930567289691304E-3   -2.028548213205745E-3   -1.898880523197913E-3    3.513505238112172E-1   -3.457486010142923E-1
 9.937673921600000E9     4.632025720163325E-1   -1.329702480509992E-1   -2.010143533315438E-3   -1.922603609478932E-3   -2.059255160314891E-3   -1.907273549403755E-3    3.508883712870339E-1   -3.460752327965377E-1
 9.937675562000000E9     4.631759505502500E-1   -1.332747867041540E-1   -2.033549539980140E-3   -1.980954916901209E-3   -2.056946451769488E-3   -1.959433028233091E-3    3.506352713622824E-1   -3.460841233150599E-1
 9.937677202400000E9     4.631212001178664E-1   -1.331394787410443E-1   -2.050933252121404E-3   -1.990789220463307E-3   -2.074621624838407E-3   -1.982010591179949E-3    3.503379451817668E-1   -3.465023775959598E-1
 9.937678842799999E9     4.630357815354878E-1   -1.334118802525441E-1   -2.044877240816310E-3   -2.024292582968554E-3   -2.096681257647780E-3   -2.006285590945034E-3    3.499815898576959E-1   -3.465592439464913E-1
 9.937680483200001E9     4.630531180203882E-1   -1.336457973405321E-1   -2.081489048792944E-3   -2.055369043514461E-3   -2.147799523901935E-3   -2.004340962574297E-3    3.496953825007107E-1   -3.468115597100110E-1
 9.937682123600000E9     4.630032705050590E-1   -1.337201306254007E-1   -2.112927660662903E-3   -2.027123025593749E-3   -2.198453006931142E-3   -2.039180855485939E-3    3.494996474301950E-1   -3.471534975125345E-1
 9.937683764000000E9     4.629912052595229E-1   -1.337498144733276E-1   -2.134770607497145E-3   -2.074349206688153E-3   -2.200314443423708E-3   -2.072902326940370E-3    3.491337372553278E-1   -3.471202156334701E-1
 9.937685404400000E9     4.629692574037305E-1   -1.338641019692496E-1   -2.170371916510328E-3   -2.076986650405112E-3   -2.223003751793123E-3   -2.092285557846643E-3    3.487705614655253E-1   -3.474749812401062E-1
 9.937687044799999E9     4.628646773709153E-1   -1.339391085339544E-1   -2.182636899622155E-3   -2.060531630460542E-3   -2.237411569072299E-3   -2.088518269232984E-3    3.485147574004872E-1   -3.477344519192214E-1
 9.937688685200001E9     4.627314022078007E-1   -1.340608554818123E-1   -2.185928193653128E-3   -2.092733768191162E-3   -2.300125344872852E-3   -2.118005888184820E-3    3.478950654777909E-1   -3.478421860661746E-1
 9.937690325600000E9     4.628795257500039E-1   -1.341520839575760E-1   -2.254204019613321E-3   -2.137483323750303E-3   -2.284385949909871E-3   -2.135036499975032E-3    3.477685388434606E-1   -3.481412443174059E-1
 9.937691966000000E9     4.626806267332466E-1   -1.342089548983978E-1   -2.258551546744411E-3   -2.160341098707387E-3   -2.323976856309688E-3   -2.150601798185200E-3    3.474372434302994E-1   -3.484821691551941E-1
 9.937693606400000E9     4.627118493972869E-1   -1.344076115867225E-1   -2.310453158644257E-3   -2.208476432155668E-3   -2.384395578520291E-3   -2.130322780569166E-3    3.471665019549024E-1   -3.484266907385660E-1
 9.937695246799999E9     4.627333528075169E-1   -1.346180082378268E-1   -2.334504925585964E-3   -2.221755502113221E-3   -2.401539246083346E-3   -2.219501972931351E-3    3.468544031132519E-1   -3.486650691641501E-1
 9.937696887200001E9     4.625575839851296E-1   -1.346271909125965E-1   -2.360430495687297E-3   -2.217057763429507E-3   -2.436331876077408E-3   -2.229769251137000E-3    3.463134027546787E-1   -3.490425977327246E-1
 9.937698527600000E9     4.626439580727469E-1   -1.346881953008108E-1   -2.370765933911658E-3   -2.254192968718950E-3   -2.454488067923435E-3   -2.239810353271813E-3    3.460015076604622E-1   -3.491443618098748E-1
 9.937700168000000E9     4.625036949088216E-1   -1.349041269251934E-1   -2.432306185859227E-3   -2.289455068573021E-3   -2.456732596346533E-3   -2.257300696930704E-3    3.458392577463661E-1   -3.491987745935489E-1
 9.937701808400000E9     4.625309029614690E-1   -1.349322361622852E-1   -2.411748629157698E-3   -2.241885575512123E-3   -2.538982128605112E-3   -2.309862364485296E-3    3.455310868283581E-1   -3.494409739623232E-1
 9.937703448799999E9     4.624141125643570E-1   -1.349817143395681E-1   -2.454525641805007E-3   -2.309019085659553E-3   -2.549165725135343E-3   -2.313642695103745E-3    3.451242900066221E-1   -3.497312962126901E-1
 9.937705089200001E9     4.625299989213016E-1   -1.351433281244442E-1   -2.528184944896264E-3   -2.333708988401510E-3   -2.575813669926958E-3   -2.339685052387588E-3    3.445706605703911E-1   -3.500912525010014E-1
 9.937706729600000E9     4.624818274686452E-1   -1.352320584345207E-1   -2.557456439320862E-3   -2.344523735154412E-3   -2.620915504888667E-3   -2.361848150713134E-3    3.442199111537367E-1   -3.501889098835306E-1
 9.937708370000000E9     4.623108588121198E-1   -1.353845325525685E-1   -2.557222825233323E-3   -2.380015480189945E-3   -2.651428228656611E-3   -2.393387555995740E-3    3.439271562828851E-1   -3.504190412161319E-1
 9.937710010400000E9     4.623560405137852E-1   -1.355581367304265E-1   -2.625016394461873E-3   -2.419968471269423E-3   -2.697051581521039E-3   -2.397634858839764E-3    3.436212575776647E-1   -3.506465226978800E-1
 9.937711650799999E9     4.623356290115750E-1   -1.356460468481107E-1   -2.652111838012034E-3   -2.447385849442467E-3   -2.745655443696296E-3   -2.423757110556505E-3    3.431024453314602E-1   -3.509899922522003E-1
 9.937713291200001E9     4.622006915456022E-1   -1.357351330429877E-1   -2.666341489761798E-3   -2.475305469160953E-3   -2.746736445135397E-3   -2.446427669675142E-3    3.427996226662398E-1   -3.511764346906586E-1
 9.937714931600000E9     4.621197215540183E-1   -1.359614704098707E-1   -2.720805642643600E-3   -2.458516775453508E-3   -2.828249023354264E-3   -2.464047124872300E-3    3.421391271776258E-1   -3.514510304976808E-1
 9.937716572000000E9     4.620955890200018E-1   -1.359072736755166E-1   -2.734062059071022E-3   -2.535053467962554E-3   -2.809374488959161E-3   -2.520556853752996E-3    3.417514207062540E-1   -3.517878643231611E-1
 9.937718212400000E9     4.620671215508445E-1   -1.359900974726931E-1   -2.784831957703793E-3   -2.545701760273203E-3   -2.870737838838122E-3   -2.523908998366455E-3    3.413405382156220E-1   -3.518965976023366E-1
 9.937719852799999E9     4.620559066894835E-1   -1.360973941180442E-1   -2.802560179639720E-3   -2.554915826606231E-3   -2.938969282018570E-3   -2.547919932985161E-3    3.409920360833293E-1   -3.520491710959461E-1
 9.937721493200001E9     4.619411342962423E-1   -1.362954853790651E-1   -2.854459905885171E-3   -2.636830611472817E-3   -2.951898294587747E-3   -2.596299795173829E-3    3.407435449233076E-1   -3.522546248915197E-1
 9.937723133600000E9     4.619407911675966E-1   -1.363791715781217E-1   -2.898968733441432E-3   -2.606633985507571E-3   -3.000425764432306E-3   -2.586392135056717E-3    3.401164779966635E-1   -3.526268022852995E-1
 9.937724774000000E9     4.618932671380657E-1   -1.365114339570860E-1   -2.949358564896767E-3   -2.662800030067774E-3   -3.057330990361083E-3   -2.636498642214579E-3    3.397401791355641E-1   -3.528419128918330E-1
 9.937726414400000E9     4.618615148564082E-1   -1.366568543526194E-1   -2.976170723061806E-3   -2.661939515681069E-3   -3.070516739640347E-3   -2.672924170162558E-3    3.393085559058829E-1   -3.530504292920860E-1
 9.937728054799999E9     4.618235552583299E-1   -1.368718662712811E-1   -3.031174592501747E-3   -2.717676601341019E-3   -3.149986566833172E-3   -2.715602554980695E-3    3.387390175531468E-1   -3.533455685955727E-1
 9.937729695200001E9     4.618367648757164E-1   -1.369244574375101E-1   -3.062185947495244E-3   -2.730780533728184E-3   -3.164035767201855E-3   -2.708315138766312E-3    3.383526312206365E-1   -3.533335277849106E-1
 9.937731335600000E9     4.618588706905409E-1   -1.368958686974819E-1   -3.145440877430561E-3   -2.740433886844813E-3   -3.215781060600932E-3   -2.768031049004353E-3    3.378681951644048E-1   -3.538345459525155E-1
 9.937732976000000E9     4.616927425803910E-1   -1.371985201605565E-1   -3.215826086410035E-3   -2.770101203196394E-3   -3.247032372615597E-3   -2.810899424029954E-3    3.374865703929003E-1   -3.539794947645996E-1
