#  HZ   S   RI   R     50.00 
! Rohde & Schwarz Vector Network Analyzer 
! Rohde-Schwarz,ZNB20-2Port,1311601062101988,3.16
! Created: UTC 3/20/2024, 10:54:37 PM
! freq[Hz]                re:S11                  im:S11                  re:S21                  im:S21                  re:S12                  im:S12                  re:S22                  im:S22
 9.937639739000000E9     4.646155548018574E-1   -1.283074094406533E-1   -2.004873613062834E-3   -2.318917301851148E-3   -2.127302642690396E-3   -2.318834335527676E-3    3.597896450000929E-1   -3.388779819749940E-1
 9.937640854400000E9     4.644802878972520E-1   -1.284334607991255E-1   -2.050601143432815E-3   -2.363729479466580E-3   -2.124452484977730E-3   -2.354825658822792E-3    3.594993294378392E-1   -3.390773421464705E-1
 9.937641969799999E9     4.644850391359374E-1   -1.286666232612407E-1   -2.062637066405738E-3   -2.350044080802093E-3   -2.146588876663680E-3   -2.345338810154923E-3    3.592757727362469E-1   -3.392781914500334E-1
 9.937643085200001E9     4.644014480421063E-1   -1.284607530048850E-1   -2.089349667509860E-3   -2.328762241524599E-3   -2.160064482150504E-3   -2.374677067016385E-3    3.592950162345511E-1   -3.393748707798526E-1
 9.937644200600000E9     4.643298596108063E-1   -1.286921215813835E-1   -2.084079322293671E-3   -2.368090266091068E-3   -2.165374491187531E-3   -2.391278657632685E-3    3.589232968956445E-1   -3.394304528947998E-1
 9.937645316000000E9     4.642697041470681E-1   -1.286833763483445E-1   -2.138650424268723E-3   -2.447828125605225E-3   -2.202830179564011E-3   -2.425672000928188E-3    3.585673195338198E-1   -3.396705788079653E-1
 9.937646431400000E9     4.642835548771375E-1   -1.288486491454835E-1   -2.119964572238079E-3   -2.427387287724520E-3   -2.216208006079595E-3   -2.429628179685617E-3    3.585249839600472E-1   -3.399564394523474E-1
 9.937647546799999E9     4.642934417152086E-1   -1.287681273221608E-1   -2.158175887765785E-3   -2.428909678477028E-3   -2.261592586263765E-3   -2.433238534042998E-3    3.582844659773143E-1   -3.400856255471211E-1
 9.937648662200001E9     4.642638245310406E-1   -1.289069129003119E-1   -2.166628260651462E-3   -2.448968646973931E-3   -2.263884754620900E-3   -2.486970486224379E-3    3.579105967718690E-1   -3.402143393645519E-1
 9.937649777600000E9     4.641280882791327E-1   -1.290411082603402E-1   -2.198309302179594E-3   -2.501123085192699E-3   -2.289232602601489E-3   -2.501500366738308E-3    3.576037471066387E-1   -3.404943797297236E-1
 9.937650893000000E9     4.642323609206480E-1   -1.291185996197864E-1   -2.227527331260924E-3   -2.501005881303538E-3   -2.303555556722882E-3   -2.516007622511487E-3    3.573707695743031E-1   -3.405162235384424E-1
 9.937652008400000E9     4.641905351418997E-1   -1.290962539445310E-1   -2.253723920572385E-3   -2.515319997199882E-3   -2.330147827326584E-3   -2.492429868158053E-3    3.572140860400978E-1   -3.408715130529070E-1
 9.937653123799999E9     4.641430890584454E-1   -1.293611816481932E-1   -2.299808115437870E-3   -2.525903260537705E-3   -2.345255336207257E-3   -2.534855461634280E-3    3.571097066402592E-1   -3.408981652497048E-1
 9.937654239200001E9     4.641848732487224E-1   -1.294300528359522E-1   -2.290618772173869E-3   -2.532279498813515E-3   -2.347437273232007E-3   -2.561803944972246E-3    3.567843370440135E-1   -3.410597222525265E-1
 9.937655354600000E9     4.640894786417666E-1   -1.294685574471574E-1   -2.301397477317087E-3   -2.582807776076948E-3   -2.411809757920747E-3   -2.585603979724626E-3    3.565858341148795E-1   -3.413311398418953E-1
 9.937656470000000E9     4.641023656236610E-1   -1.294858543511166E-1   -2.350143130982166E-3   -2.561308799836295E-3   -2.390193220689899E-3   -2.584654283351869E-3    3.564139803795004E-1   -3.415078107453723E-1
 9.937657585400000E9     4.640778442693238E-1   -1.296137096101306E-1   -2.330540106615080E-3   -2.612162215873820E-3   -2.384336358691490E-3   -2.591103651367160E-3    3.559385654651037E-1   -3.418807777876545E-1
 9.937658700799999E9     4.639272566740663E-1   -1.296138449665079E-1   -2.361990008110870E-3   -2.621759240334449E-3   -2.458246404113682E-3   -2.642136773920245E-3    3.558612314553407E-1   -3.418716482048196E-1
 9.937659816200001E9     4.640144144405333E-1   -1.297065805156979E-1   -2.358862509406248E-3   -2.649855670429742E-3   -2.478542617873961E-3   -2.648665668097570E-3    3.555229768396545E-1   -3.420485240115141E-1
 9.937660931600000E9     4.639336051001910E-1   -1.297407736081961E-1   -2.384534129691225E-3   -2.674632576339671E-3   -2.511970077407498E-3   -2.677850368928973E-3    3.554158632030868E-1   -3.422064735484202E-1
 9.937662047000000E9     4.638806408142216E-1   -1.298805776340944E-1   -2.407075379558447E-3   -2.688548813185830E-3   -2.510999364156392E-3   -2.710588250466649E-3    3.549360728966935E-1   -3.424893945008831E-1
 9.937663162400000E9     4.639791289605997E-1   -1.299070658695500E-1   -2.449141512521289E-3   -2.688384642053763E-3   -2.588043605235060E-3   -2.711827629944964E-3    3.550279022675772E-1   -3.425635725093862E-1
 9.937664277799999E9     4.639547581317327E-1   -1.301314769142238E-1   -2.490711620120464E-3   -2.709885990942736E-3   -2.561392629434704E-3   -2.726143091779448E-3    3.545372648621202E-1   -3.427641475419304E-1
 9.937665393200001E9     4.637783352353851E-1   -1.300395205114218E-1   -2.522289298024193E-3   -2.754199628358179E-3   -2.594319268561873E-3   -2.789621763703299E-3    3.543388962071319E-1   -3.430092651225599E-1
 9.937666508600000E9     4.637637501502967E-1   -1.301669757836302E-1   -2.522730929834183E-3   -2.792825233513997E-3   -2.592612138937897E-3   -2.763783280589538E-3    3.539863281916478E-1   -3.430901450103049E-1
 9.937667624000000E9     4.637751172488582E-1   -1.302498701014575E-1   -2.546735474993679E-3   -2.761524840081163E-3   -2.654763777212106E-3   -2.805920961595083E-3    3.535660083382453E-1   -3.434231743017137E-1
 9.937668739400000E9     4.637988979077125E-1   -1.303268273222280E-1   -2.572718237355657E-3   -2.780245821968004E-3   -2.649588890456840E-3   -2.840445483685951E-3    3.534828369378553E-1   -3.434132486886420E-1
 9.937669854799999E9     4.636853938009395E-1   -1.303969907905848E-1   -2.638996663358885E-3   -2.826305590804952E-3   -2.719208239397680E-3   -2.826418850073881E-3    3.531732758794704E-1   -3.437109609064062E-1
 9.937670970200001E9     4.636820326568890E-1   -1.304662804156824E-1   -2.593202526741104E-3   -2.857905439325980E-3   -2.718760864978292E-3   -2.882339935174402E-3    3.528719064892648E-1   -3.438038337853953E-1
 9.937672085600000E9     4.637168413016661E-1   -1.306512568020665E-1   -2.637792746923914E-3   -2.897158737865501E-3   -2.722453504004110E-3   -2.888033435454798E-3    3.526893035997001E-1   -3.441232999423564E-1
 9.937673201000000E9     4.637105570907617E-1   -1.306876891812326E-1   -2.661199676856456E-3   -2.893237236190789E-3   -2.795151972248069E-3   -2.882576683343689E-3    3.523229653720474E-1   -3.442134386151137E-1
 9.937674316400000E9     4.636229967124602E-1   -1.308070551514303E-1   -2.730699717903729E-3   -2.944155687337134E-3   -2.778045876139147E-3   -2.919812308022801E-3    3.520188149933521E-1   -3.442895965480107E-1
 9.937675431799999E9     4.635495355801343E-1   -1.307665224844978E-1   -2.734271371454660E-3   -2.948271399497305E-3   -2.806918981335013E-3   -2.918315287775082E-3    3.516575966797003E-1   -3.448690810247543E-1
 9.937676547200001E9     4.635005631630002E-1   -1.308678887347014E-1   -2.772469470703942E-3   -2.969534908819441E-3   -2.822151744744687E-3   -2.995453909743706E-3    3.510708064392594E-1   -3.448981468555675E-1
 9.937677662600000E9     4.634380060943254E-1   -1.308983172040827E-1   -2.760911575669721E-3   -2.979719080862763E-3   -2.874726788032222E-3   -3.006111065494645E-3    3.511747655104238E-1   -3.451064514285616E-1
 9.937678778000000E9     4.634631732437500E-1   -1.310697252417383E-1   -2.806277058869283E-3   -2.990483313582395E-3   -2.875312939657481E-3   -3.038692892062420E-3    3.509548788874857E-1   -3.452634105501592E-1
 9.937679893400000E9     4.635137065060240E-1   -1.311470965422442E-1   -2.819067403128017E-3   -3.018966675577985E-3   -2.909596916467469E-3   -3.049281766104725E-3    3.505913948429585E-1   -3.454546104999770E-1
 9.937681008799999E9     4.633937569941460E-1   -1.311942281544872E-1   -2.867877955119746E-3   -3.042904337766619E-3   -2.940970708227464E-3   -3.075584623875907E-3    3.500244772005868E-1   -3.455953519911882E-1
 9.937682124200001E9     4.634979412869210E-1   -1.312770300672202E-1   -2.881994971334765E-3   -3.104496169064046E-3   -2.963915481639920E-3   -3.104301405525949E-3    3.499555677527894E-1   -3.458571902186213E-1
 9.937683239600000E9     4.633638834717907E-1   -1.314198008994761E-1   -2.890562143172332E-3   -3.072164951419867E-3   -2.999833655826630E-3   -3.087819255026368E-3    3.495895466869908E-1   -3.458599384156514E-1
 9.937684355000000E9     4.631518858972790E-1   -1.313510246698370E-1   -2.923225362394168E-3   -3.124240069231478E-3   -3.050101527326836E-3   -3.160659290238141E-3    3.492382352722606E-1   -3.463616869008350E-1
 9.937685470400000E9     4.633055095984435E-1   -1.316230982130905E-1   -2.994150206497144E-3   -3.175507690991998E-3   -3.066985678132241E-3   -3.178744104088081E-3    3.489236852789387E-1   -3.464871952056529E-1
 9.937686585799999E9     4.632434929205365E-1   -1.315018581990834E-1   -2.981396167412177E-3   -3.176270276111230E-3   -3.109378177240488E-3   -3.159881079833064E-3    3.486356155740968E-1   -3.467096661614599E-1
 9.937687701200001E9     4.631885712822729E-1   -1.316792001799417E-1   -3.046724718204230E-3   -3.201864255420284E-3   -3.153093329040547E-3   -3.188421586863547E-3    3.484111409048989E-1   -3.469704041318840E-1
 9.937688816600000E9     4.632111243317066E-1   -1.317113076803575E-1   -3.036467503091544E-3   -3.221094368580872E-3   -3.129221048026684E-3   -3.232755062230408E-3    3.480306754149133E-1   -3.470679790222831E-1
 9.937689932000000E9     4.631217978189759E-1   -1.318425376971988E-1   -3.082150325082239E-3   -3.242908679494250E-3   -3.213268053782328E-3   -3.237207164490350E-3    3.478110512854679E-1   -3.472781081230167E-1
 9.937691047400000E9     4.631037317847610E-1   -1.318544398232016E-1   -3.128887330033809E-3   -3.277821521007585E-3   -3.242636255418470E-3   -3.302692602607438E-3    3.473376104072677E-1   -3.476449708037870E-1
 9.937692162799999E9     4.630164845690403E-1   -1.318499730163969E-1   -3.146348087631473E-3   -3.335405566064358E-3   -3.243504498480868E-3   -3.351552372946150E-3    3.469038578679414E-1   -3.479348286844939E-1
 9.937693278200001E9     4.631403790811469E-1   -1.321485607344587E-1   -3.226250688441374E-3   -3.332010373837600E-3   -3.295957673682886E-3   -3.360937599712442E-3    3.464688186310724E-1   -3.480986223128125E-1
 9.937694393600000E9     4.632178420204262E-1   -1.320678451100043E-1   -3.231692531221624E-3   -3.371860208860070E-3   -3.336577805153441E-3   -3.338866412567070E-3    3.461226184366706E-1   -3.483183796858071E-1
 9.937695509000000E9     4.631164653744093E-1   -1.321832264416384E-1   -3.259859052461548E-3   -3.380015136968933E-3   -3.355050613803435E-3   -3.412785061871385E-3    3.459231062413258E-1   -3.483761999621441E-1
 9.937696624400000E9     4.630306948214963E-1   -1.323587520251701E-1   -3.272361784580402E-3   -3.411241018224758E-3   -3.417279996191851E-3   -3.439892613806033E-3    3.455115290445103E-1   -3.488520499218067E-1
 9.937697739799999E9     4.629794402596646E-1   -1.323792477315063E-1   -3.317548918610501E-3   -3.476967535843212E-3   -3.416103184699623E-3   -3.477596783399384E-3    3.453167337351219E-1   -3.491823097754918E-1
 9.937698855200001E9     4.629307882069029E-1   -1.324225833930016E-1   -3.380879423445401E-3   -3.480207601562829E-3   -3.451687888678922E-3   -3.500525036718989E-3    3.446753900677831E-1   -3.493193996060773E-1
 9.937699970600000E9     4.629797175823909E-1   -1.324675664251778E-1   -3.399978467392406E-3   -3.507581348323332E-3   -3.490458162665831E-3   -3.505355630923712E-3    3.443156158269616E-1   -3.494801823120415E-1
 9.937701086000000E9     4.628217734781245E-1   -1.327234707209992E-1   -3.453585063792086E-3   -3.530160168959682E-3   -3.557631665873611E-3   -3.541743713547693E-3    3.439952345535049E-1   -3.496337145083178E-1
 9.937702201400000E9     4.628019236478016E-1   -1.326366727240192E-1   -3.476753360586073E-3   -3.530331743521235E-3   -3.595457105936162E-3   -3.575808626115134E-3    3.435194690345605E-1   -3.499539616967074E-1
 9.937703316799999E9     4.627378546417321E-1   -1.327892940667011E-1   -3.498747421809615E-3   -3.646312290222251E-3   -3.611418448371997E-3   -3.625246255670960E-3    3.432541920980938E-1   -3.500703167497891E-1
 9.937704432200001E9     4.627068299174876E-1   -1.328045467010892E-1   -3.522237167671649E-3   -3.628658759887350E-3   -3.658493454763595E-3   -3.649269505005815E-3    3.427357644045823E-1   -3.506084695420775E-1
 9.937705547600000E9     4.626515644134629E-1   -1.328321167570964E-1   -3.583726976390022E-3   -3.624079534817078E-3   -3.717084034779989E-3   -3.652054810758710E-3    3.423971280208699E-1   -3.506795831838620E-1
 9.937706663000000E9     4.627689514803204E-1   -1.329215155821564E-1   -3.631092939665558E-3   -3.681663288524591E-3   -3.754392953702917E-3   -3.712311555328920E-3    3.420384929065799E-1   -3.507888744177760E-1
 9.937707778400000E9     4.627730063662797E-1   -1.331245291533756E-1   -3.694749133789700E-3   -3.717796148821488E-3   -3.783871114523253E-3   -3.720146764841427E-3    3.415723392356491E-1   -3.513538766480271E-1
 9.937708893799999E9     4.625296513905242E-1   -1.331733572925448E-1   -3.711441433173680E-3   -3.719843780623451E-3   -3.838795300657471E-3   -3.764153408216734E-3    3.411429895300416E-1   -3.514992209060742E-1
 9.937710009200001E9     4.625222438334740E-1   -1.332641567406991E-1   -3.749011860715973E-3   -3.783930592980012E-3   -3.874949479528119E-3   -3.747651022918575E-3    3.409244135505443E-1   -3.516895615624867E-1
 9.937711124600000E9     4.625423749129604E-1   -1.332616147818593E-1   -3.807861650430737E-3   -3.833682909873377E-3   -3.923118439762873E-3   -3.803796079988076E-3    3.402005710702470E-1   -3.519543512312696E-1
 9.937712240000000E9     4.627056778125342E-1   -1.333570185342330E-1   -3.817257767371838E-3   -3.831623249427637E-3   -3.962307818566962E-3   -3.853201136831450E-3    3.397460819917582E-1   -3.521297795338081E-1
 9.937713355400000E9     4.625559131566866E-1   -1.334470890188238E-1   -3.844429045023059E-3   -3.878759779960073E-3   -3.997437098709578E-3   -3.864741392731439E-3    3.393848025451253E-1   -3.525026890541048E-1
 9.937714470799999E9     4.624678813765152E-1   -1.334536538627338E-1   -3.937576471098026E-3   -3.918549249576730E-3   -4.038344338924863E-3   -3.912785009711228E-3    3.389721131874175E-1   -3.527439520330523E-1
 9.937715586200001E9     4.624475469787878E-1   -1.335347730363449E-1   -3.947436473182940E-3   -3.939835402492788E-3   -4.093062092810676E-3   -3.968716030707577E-3    3.384167622069777E-1   -3.529860520421127E-1
 9.937716701600000E9     4.626674651736455E-1   -1.337915561946635E-1   -3.993211177749758E-3   -4.014464703624838E-3   -4.137566812589984E-3   -3.987997620480088E-3    3.380206293161560E-1   -3.530790647848766E-1
 9.937717817000000E9     4.624840143349067E-1   -1.337229181447842E-1   -4.047094591946131E-3   -3.974673124284582E-3   -4.181854257637199E-3   -4.031191892358399E-3    3.375504039233712E-1   -3.533839696594819E-1
 9.937718932400000E9     4.624655017600427E-1   -1.339869475025713E-1   -4.088001246601723E-3   -4.055216988112684E-3   -4.240268335108235E-3   -4.040057144533201E-3    3.369815185939557E-1   -3.537724986221082E-1
 9.937720047799999E9     4.622827392326689E-1   -1.340059390112335E-1   -4.132811875230867E-3   -4.096232539666807E-3   -4.278488232893561E-3   -4.092078205762366E-3    3.366180883348559E-1   -3.541862374015985E-1
 9.937721163200001E9     4.624181880500453E-1   -1.339234229559472E-1   -4.221844396084457E-3   -4.131063091846218E-3   -4.351944241968712E-3   -4.113146525057582E-3    3.359838140839504E-1   -3.544604129686306E-1
 9.937722278600000E9     4.623341104139211E-1   -1.340873360526735E-1   -4.240686656776138E-3   -4.127316537099614E-3   -4.379528870994535E-3   -4.168675147760501E-3    3.355171207616479E-1   -3.546400367098024E-1
 9.937723394000000E9     4.622865833226004E-1   -1.341649138126111E-1   -4.301544626728961E-3   -4.184504362065484E-3   -4.475368944935028E-3   -4.195279408344334E-3    3.349992727207686E-1   -3.547526120183153E-1
 9.937724509400000E9     4.622095101054072E-1   -1.343792871894772E-1   -4.338904605960228E-3   -4.234935965838584E-3   -4.488767732878979E-3   -4.197848109305837E-3    3.345881417459064E-1   -3.551244989978457E-1
 9.937725624799999E9     4.622792139243198E-1   -1.343078107748250E-1   -4.412454607284095E-3   -4.238115043694366E-3   -4.522415852805364E-3   -4.282517509228235E-3    3.340120732807157E-1   -3.553787225986652E-1
 9.937726740200001E9     4.621651457293001E-1   -1.344284615716745E-1   -4.445577936484116E-3   -4.268827677362529E-3   -4.602512400619657E-3   -4.355759429111139E-3    3.335320942409726E-1   -3.556579750412549E-1
 9.937727855600000E9     4.622199624404583E-1   -1.344068661884868E-1   -4.475086286761546E-3   -4.351691980257380E-3   -4.636887598610086E-3   -4.360276026343591E-3    3.329630934279961E-1   -3.560791557810336E-1
 9.937728971000000E9     4.622269210094053E-1   -1.345330446773234E-1   -4.558863417745510E-3   -4.372813311068089E-3   -4.708072417564859E-3   -4.392595170303430E-3    3.323110956118511E-1   -3.563699641616428E-1
 9.937730086400000E9     4.620681236461222E-1   -1.346284570649643E-1   -4.616227290213591E-3   -4.385006317671420E-3   -4.768098786458105E-3   -4.410042734597594E-3    3.317097947891073E-1   -3.565629553801352E-1
 9.937731201799999E9     4.619872466624819E-1   -1.348428617945902E-1   -4.691139908800655E-3   -4.444679974748215E-3   -4.831867498650342E-3   -4.453556737769124E-3    3.313508283339220E-1   -3.567499029786021E-1
 9.937732317200001E9     4.620267872422242E-1   -1.347980822978874E-1   -4.723608948472534E-3   -4.481103910861860E-3   -4.900980290341938E-3   -4.498860685183287E-3    3.308391163185864E-1   -3.573133998960208E-1
 9.937733432600000E9     4.619606557753790E-1   -1.348412262632682E-1   -4.781386882297507E-3   -4.518928491925198E-3   -4.963665438694442E-3   -4.533002094074659E-3    3.299299706443563E-1   -3.574710643583200E-1
 9.937734548000000E9     4.619096811589468E-1   -1.349633947621035E-1   -4.866235536203578E-3   -4.569491130163908E-3   -5.026137951212280E-3   -4.606889814513264E-3    3.294364498066537E-1   -3.578124831465027E-1
 9.937735663400000E9     4.618433172755713E-1   -1.350335978100824E-1   -4.899135289313510E-3   -4.578902652107237E-3   -5.083417968061317E-3   -4.643090822719353E-3    3.287485622931995E-1   -3.581120567548451E-1
 9.937736778799999E9     4.618758086079661E-1   -1.350915774716960E-1   -4.972855975691437E-3   -4.630128972090824E-3   -5.144752356320737E-3   -4.650037156402614E-3    3.281991556496734E-1   -3.586649770070540E-1
 9.937737894200001E9     4.618440085987399E-1   -1.352251668693211E-1   -5.039234213781616E-3   -4.678260325281450E-3   -5.198109579912627E-3   -4.723976611695587E-3    3.274932477766678E-1   -3.587626645724210E-1
 9.937739009600000E9     4.618273169321934E-1   -1.352503724379652E-1   -5.121362852751736E-3   -4.708141189885707E-3   -5.274353376808647E-3   -4.753251189463067E-3    3.269807940724405E-1   -3.590089834219153E-1
 9.937740125000000E9     4.619100560983657E-1   -1.353663989552816E-1   -5.168144178053241E-3   -4.774716944109929E-3   -5.336889042757263E-3   -4.792256766647342E-3    3.263381023278982E-1   -3.594415358122605E-1
