#  HZ   S   RI   R     50.00 
! Rohde & Schwarz Vector Network Analyzer 
! Rohde-Schwarz,ZNB20-2Port,1311601062101988,3.16
! Created: UTC 3/20/2024, 11:17:56 PM
! freq[Hz]                re:S11                  im:S11                  re:S21                  im:S21                  re:S12                  im:S12                  re:S22                  im:S22
 9.937608875000000E9     4.649475183040372E-1   -1.285122730874247E-1   -1.179381037166738E-3   -1.269511497115211E-3   -1.230127911257344E-3   -1.285282704764383E-3    3.611820272412452E-1   -3.386803474551925E-1
 9.937610439125000E9     4.646771400330426E-1   -1.286666656066209E-1   -1.210766068203951E-3   -1.297752225221120E-3   -1.231446578088272E-3   -1.298010823008918E-3    3.611972533038230E-1   -3.389351586165173E-1
 9.937612003250000E9     4.645954502183633E-1   -1.288644180166270E-1   -1.185657982807907E-3   -1.278709238281456E-3   -1.211546485816661E-3   -1.271955701480794E-3    3.609432235736008E-1   -3.390291256328204E-1
 9.937613567375000E9     4.646839704325654E-1   -1.289175941652564E-1   -1.203198479313146E-3   -1.318133172957193E-3   -1.244342291961733E-3   -1.291233857493614E-3    3.608346377438462E-1   -3.393356529968908E-1
 9.937615131500000E9     4.648373964696683E-1   -1.291271756660171E-1   -1.216995143565367E-3   -1.324014909001448E-3   -1.266269547331617E-3   -1.294397743652154E-3    3.606052682967868E-1   -3.392582075501057E-1
 9.937616695625000E9     4.645381530367556E-1   -1.292080342970630E-1   -1.237655023728149E-3   -1.330452978202486E-3   -1.251289084838572E-3   -1.320429279838740E-3    3.601808062172174E-1   -3.394865287797190E-1
 9.937618259750000E9     4.645840864169319E-1   -1.292863484944177E-1   -1.250507047631418E-3   -1.348274998815107E-3   -1.309046247194625E-3   -1.362304765734636E-3    3.604785667079903E-1   -3.396547423273739E-1
 9.937619823875000E9     4.644115188971228E-1   -1.292833321555077E-1   -1.254538177263031E-3   -1.342687323862438E-3   -1.315954564518453E-3   -1.345318593829215E-3    3.597321480374177E-1   -3.399006954981416E-1
 9.937621388000000E9     4.644418580591826E-1   -1.295120215314716E-1   -1.262689609574576E-3   -1.352139193088081E-3   -1.343969788081547E-3   -1.382829278801459E-3    3.598442015478528E-1   -3.399498286078586E-1
 9.937622952125000E9     4.644135279052737E-1   -1.295872538966459E-1   -1.302552122267538E-3   -1.366053889792819E-3   -1.314158502984451E-3   -1.342373682197092E-3    3.595492130042255E-1   -3.401498625825654E-1
 9.937624516250000E9     4.644365496197411E-1   -1.297620012022491E-1   -1.302363039675801E-3   -1.389226292290332E-3   -1.357147833484783E-3   -1.385658797751272E-3    3.593420171549784E-1   -3.403798627276489E-1
 9.937626080375000E9     4.643189326400055E-1   -1.299153666526646E-1   -1.336463156817783E-3   -1.403418373554778E-3   -1.373875363103431E-3   -1.387098367883461E-3    3.591615017446070E-1   -3.403657972319638E-1
 9.937627644500000E9     4.644655897129895E-1   -1.299013325696706E-1   -1.361114488137718E-3   -1.447235519578469E-3   -1.376069982099500E-3   -1.409432054048571E-3    3.588404137055011E-1   -3.405826865975083E-1
 9.937629208625000E9     4.642261220521213E-1   -1.299665025499744E-1   -1.337889877027342E-3   -1.409595584563469E-3   -1.406160017891813E-3   -1.405221113007759E-3    3.587483975500684E-1   -3.407244395927602E-1
 9.937630772750000E9     4.642635616440182E-1   -1.300619408096386E-1   -1.353924213861352E-3   -1.452837982913251E-3   -1.416220870319041E-3   -1.429910752733498E-3    3.585753802978872E-1   -3.408567258859818E-1
 9.937632336875000E9     4.642418410649476E-1   -1.302360843424695E-1   -1.446225769419165E-3   -1.443582093902152E-3   -1.416057573114523E-3   -1.439334283801383E-3    3.584154434416467E-1   -3.411301508379397E-1
 9.937633901000000E9     4.640961186964049E-1   -1.304211160655952E-1   -1.399154662612268E-3   -1.445989184531639E-3   -1.457545405334290E-3   -1.465194780096588E-3    3.580983372143579E-1   -3.412745053171594E-1
 9.937635465125000E9     4.640750143861558E-1   -1.304796019386965E-1   -1.407207742017928E-3   -1.490185973974339E-3   -1.406929692111949E-3   -1.461315029746488E-3    3.579018187591588E-1   -3.414686877778714E-1
 9.937637029250000E9     4.642561401864007E-1   -1.305214587622396E-1   -1.438992512655650E-3   -1.478411325460489E-3   -1.474492676810828E-3   -1.464529087094064E-3    3.578057632593181E-1   -3.415589391082282E-1
 9.937638593375000E9     4.641556131736204E-1   -1.306371992155117E-1   -1.426638856336853E-3   -1.518634174140735E-3   -1.516005123299554E-3   -1.506924284494274E-3    3.576336300236914E-1   -3.417382047672891E-1
 9.937640157500000E9     4.639491844685053E-1   -1.307950370917773E-1   -1.462773172244646E-3   -1.548184367907146E-3   -1.499531681497932E-3   -1.491922681719264E-3    3.573216046922112E-1   -3.418717468470276E-1
 9.937641721625000E9     4.640550563819844E-1   -1.306677718258694E-1   -1.490992245529305E-3   -1.540410672981014E-3   -1.489625217949887E-3   -1.531385512047580E-3    3.569797448159096E-1   -3.420233582296199E-1
 9.937643285750000E9     4.640129437004768E-1   -1.309925513048798E-1   -1.515125817904179E-3   -1.536231930208931E-3   -1.505305516341914E-3   -1.545419334395623E-3    3.567294951474105E-1   -3.422404063697837E-1
 9.937644849875000E9     4.639242391673827E-1   -1.310868683643720E-1   -1.504981290197929E-3   -1.550551347285656E-3   -1.518016620237752E-3   -1.576111193301548E-3    3.564825008326247E-1   -3.426236446266256E-1
 9.937646414000000E9     4.638994709312805E-1   -1.313057844622882E-1   -1.491064535202566E-3   -1.566688304169013E-3   -1.561526969381341E-3   -1.584432164736633E-3    3.565045774441185E-1   -3.425634329799287E-1
 9.937647978125000E9     4.638181916189926E-1   -1.313895833691568E-1   -1.552855238987774E-3   -1.589771782103268E-3   -1.572813160275507E-3   -1.586539824274696E-3    3.560945836247049E-1   -3.428840506267339E-1
 9.937649542250000E9     4.637915304522174E-1   -1.313847366595724E-1   -1.579660365269085E-3   -1.591217264321558E-3   -1.572099557378928E-3   -1.598678373545596E-3    3.560108445166837E-1   -3.428931372125587E-1
 9.937651106375000E9     4.637378497461921E-1   -1.315026689667216E-1   -1.557535376162887E-3   -1.598175533883843E-3   -1.618341841167379E-3   -1.610467370119658E-3    3.557628171432734E-1   -3.432691673865212E-1
 9.937652670500000E9     4.637766100872263E-1   -1.315690780012908E-1   -1.580851502766891E-3   -1.667220133965302E-3   -1.630979687619146E-3   -1.656727988642860E-3    3.554537007213218E-1   -3.429371567878403E-1
 9.937654234625000E9     4.637622888668068E-1   -1.315877834405416E-1   -1.605290512379366E-3   -1.650557725057075E-3   -1.650640156354198E-3   -1.667741911683843E-3    3.553253961551368E-1   -3.433960866428207E-1
 9.937655798750000E9     4.636949605024687E-1   -1.318689442391079E-1   -1.606561811612290E-3   -1.678201930317853E-3   -1.669778904923195E-3   -1.664006545731928E-3    3.548842779394357E-1   -3.436215003816609E-1
 9.937657362875000E9     4.634927991832870E-1   -1.320040726255681E-1   -1.627483079776005E-3   -1.696121720380967E-3   -1.692950979639221E-3   -1.721528655921252E-3    3.546997271063385E-1   -3.438258890110044E-1
 9.937658927000000E9     4.635404800670500E-1   -1.319753150414514E-1   -1.650472064287954E-3   -1.746946940100259E-3   -1.684040722064328E-3   -1.697907295349777E-3    3.547180019245409E-1   -3.441845956164990E-1
 9.937660491125000E9     4.634683591602274E-1   -1.322323324611527E-1   -1.687866757057834E-3   -1.741549311264502E-3   -1.689863383639845E-3   -1.713733166817969E-3    3.542260454956655E-1   -3.441929088859840E-1
 9.937662055250000E9     4.636364737112527E-1   -1.322647045519687E-1   -1.684201560534584E-3   -1.733047875047932E-3   -1.733295091191104E-3   -1.736207961036046E-3    3.539250154412948E-1   -3.443296414619493E-1
 9.937663619375000E9     4.635032761490406E-1   -1.323885365842502E-1   -1.720267760492645E-3   -1.757962033544510E-3   -1.783512460520852E-3   -1.758936911529402E-3    3.537525000777564E-1   -3.443824811009132E-1
 9.937665183500000E9     4.635100720152476E-1   -1.324554728250541E-1   -1.742315399777735E-3   -1.759857980579234E-3   -1.815216406943923E-3   -1.774678861524083E-3    3.535708547497597E-1   -3.446641488176821E-1
 9.937666747625000E9     4.634800570722509E-1   -1.326230000829872E-1   -1.775587316501729E-3   -1.800367316836262E-3   -1.816409664837136E-3   -1.801135347640050E-3    3.533439791630484E-1   -3.448424242192851E-1
 9.937668311750000E9     4.634066164138343E-1   -1.326943429226922E-1   -1.790046894538060E-3   -1.776844144312274E-3   -1.821568611578724E-3   -1.780613236648944E-3    3.530413168218627E-1   -3.450503763053093E-1
 9.937669875875000E9     4.632166942296091E-1   -1.326784197074715E-1   -1.796126164749837E-3   -1.809580166447281E-3   -1.840568378148470E-3   -1.812076821985186E-3    3.525205054598634E-1   -3.451833551973467E-1
 9.937671440000000E9     4.631641870999816E-1   -1.328698455557999E-1   -1.814457264408092E-3   -1.832974624749584E-3   -1.867330985036420E-3   -1.844016980330205E-3    3.523267368275215E-1   -3.453332473164030E-1
 9.937673004125000E9     4.633465907509340E-1   -1.330593281985434E-1   -1.864886660094302E-3   -1.844621316720807E-3   -1.861847989417524E-3   -1.854062318139312E-3    3.520201400365280E-1   -3.455452932252913E-1
 9.937674568250000E9     4.632862362082371E-1   -1.329538575379061E-1   -1.875133275918258E-3   -1.907398679401865E-3   -1.906093833124410E-3   -1.874451612561129E-3    3.518432303562253E-1   -3.456441022859791E-1
 9.937676132375000E9     4.632695355584976E-1   -1.331670407593422E-1   -1.881009428557443E-3   -1.889209187737037E-3   -1.932712985475462E-3   -1.888303246072166E-3    3.514893639210856E-1   -3.458300677889131E-1
 9.937677696500000E9     4.632023142134979E-1   -1.332574234724245E-1   -1.906299648929077E-3   -1.914038303591131E-3   -1.989759830493154E-3   -1.891820793825290E-3    3.513902266679111E-1   -3.461945313806805E-1
 9.937679260625000E9     4.630861512809564E-1   -1.333032919151814E-1   -1.952524810174796E-3   -1.924488240466646E-3   -1.975163394533885E-3   -1.887213649980575E-3    3.509706231883862E-1   -3.462109082193827E-1
 9.937680824750000E9     4.630129657900142E-1   -1.335761848694401E-1   -1.960649685731500E-3   -1.916444742307586E-3   -1.984705488594142E-3   -1.949972420182266E-3    3.508042141008008E-1   -3.463999419546374E-1
 9.937682388875000E9     4.629268991314017E-1   -1.336237740630810E-1   -1.992805204826418E-3   -1.974998191605689E-3   -2.026038576961173E-3   -1.953157706391121E-3    3.506055310201827E-1   -3.467011491573380E-1
 9.937683953000000E9     4.630163898746998E-1   -1.337460624959634E-1   -1.973695260753229E-3   -1.937002473688918E-3   -2.051914296318442E-3   -1.934213296490546E-3    3.502823261575927E-1   -3.467941923046927E-1
 9.937685517125000E9     4.629762680269582E-1   -1.337506953706781E-1   -2.025300521001554E-3   -2.000249546630303E-3   -2.073056190878397E-3   -2.007501825760099E-3    3.498430121163782E-1   -3.469915984952324E-1
 9.937687081250000E9     4.629690864500398E-1   -1.340248934072585E-1   -2.054618851196694E-3   -2.025829206167845E-3   -2.096961760987527E-3   -2.015997644633830E-3    3.498015557474828E-1   -3.472423000116194E-1
 9.937688645375000E9     4.628072324598539E-1   -1.340335096743489E-1   -2.052216828854550E-3   -2.028320922385762E-3   -2.130946646031119E-3   -2.029637829567087E-3    3.494101096441530E-1   -3.473201179622723E-1
 9.937690209500000E9     4.627643415432611E-1   -1.341504115789539E-1   -2.098872202653917E-3   -2.024521542714985E-3   -2.164218442923812E-3   -2.042815556462048E-3    3.490743174650544E-1   -3.475164111407136E-1
 9.937691773625000E9     4.626609386417138E-1   -1.342299502073232E-1   -2.103213262629845E-3   -2.029153859896306E-3   -2.186833453455939E-3   -2.062543550873892E-3    3.487237825421459E-1   -3.479890061358843E-1
 9.937693337750000E9     4.626785340624400E-1   -1.342511709373658E-1   -2.135681211189783E-3   -2.083445028458916E-3   -2.188576525754593E-3   -2.109494516184373E-3    3.485097878598035E-1   -3.479393812907534E-1
 9.937694901875000E9     4.627156794968933E-1   -1.344253938402846E-1   -2.175094697720471E-3   -2.137699554342369E-3   -2.238031594478128E-3   -2.127902614755086E-3    3.482072236473513E-1   -3.483072846397192E-1
 9.937696466000000E9     4.626724163679302E-1   -1.346349472869205E-1   -2.183897693029917E-3   -2.115532017386873E-3   -2.239875778554467E-3   -2.137849031849146E-3    3.479358044422481E-1   -3.484190511018169E-1
 9.937698030125000E9     4.627801339968965E-1   -1.348041180404736E-1   -2.212865605732626E-3   -2.151769045024740E-3   -2.297419029866289E-3   -2.153797033205497E-3    3.475861769632749E-1   -3.484315117828367E-1
 9.937699594250000E9     4.624680307337204E-1   -1.347440678995326E-1   -2.266901653349212E-3   -2.189800234830374E-3   -2.303841907147850E-3   -2.189585340107731E-3    3.472741077554466E-1   -3.487811151428598E-1
 9.937701158375000E9     4.625436176557643E-1   -1.348058728967772E-1   -2.266301110710371E-3   -2.168238487401424E-3   -2.365678268995320E-3   -2.205348618362154E-3    3.470155792656281E-1   -3.490236788535429E-1
 9.937702722500000E9     4.624649825707857E-1   -1.349857705280025E-1   -2.276714655281204E-3   -2.213724986742059E-3   -2.355063935668618E-3   -2.206941052135265E-3    3.464955686557844E-1   -3.493270238835758E-1
 9.937704286625000E9     4.623373300968612E-1   -1.351665824007391E-1   -2.308403432128492E-3   -2.242162392572975E-3   -2.393537031434328E-3   -2.243203812698865E-3    3.463158838077531E-1   -3.494077336196068E-1
 9.937705850750000E9     4.625117161642404E-1   -1.351067422609601E-1   -2.332692450728599E-3   -2.244267516613962E-3   -2.419764871192298E-3   -2.254985549478422E-3    3.460659336731229E-1   -3.495421296761645E-1
 9.937707414875000E9     4.623361178606104E-1   -1.352855011810944E-1   -2.414761588672663E-3   -2.285871311177612E-3   -2.430283104204572E-3   -2.261821582859435E-3    3.456142536385655E-1   -3.498461086953952E-1
 9.937708979000000E9     4.623751882841163E-1   -1.352617873094132E-1   -2.413290334638549E-3   -2.280547693647331E-3   -2.487263709270798E-3   -2.298461129996120E-3    3.453890887316697E-1   -3.500784458830624E-1
 9.937710543125000E9     4.622513980200088E-1   -1.354972487627893E-1   -2.453957480887477E-3   -2.284256224468697E-3   -2.489577542674482E-3   -2.301093371146274E-3    3.450010136397429E-1   -3.501871949236711E-1
 9.937712107250000E9     4.622305527266916E-1   -1.356495356491266E-1   -2.479535087446039E-3   -2.374316486483381E-3   -2.554791097321496E-3   -2.332582283697352E-3    3.446120384345460E-1   -3.505579286430379E-1
 9.937713671375000E9     4.622555267125561E-1   -1.357319971230759E-1   -2.473543951866349E-3   -2.405336192509945E-3   -2.561574422423532E-3   -2.391942251259912E-3    3.443788650707741E-1   -3.507870079271288E-1
 9.937715235500000E9     4.623047982696148E-1   -1.357752945605563E-1   -2.515467301216152E-3   -2.392065639308898E-3   -2.574099345339130E-3   -2.394412373890858E-3    3.437201505677965E-1   -3.508707962946797E-1
 9.937716799625000E9     4.619355871531142E-1   -1.359794487249611E-1   -2.567245951376318E-3   -2.405054941300975E-3   -2.684550713099448E-3   -2.410156674037817E-3    3.434542925069344E-1   -3.512311501340992E-1
 9.937718363750000E9     4.619890032292247E-1   -1.361309179403898E-1   -2.577800264586705E-3   -2.444379530320192E-3   -2.667881905077188E-3   -2.453414878887081E-3    3.431761740466210E-1   -3.514108808324901E-1
 9.937719927875000E9     4.621291794021141E-1   -1.362055436271265E-1   -2.633803062957578E-3   -2.464886648877206E-3   -2.681829557302444E-3   -2.457714119002137E-3    3.427370889709280E-1   -3.515522838386287E-1
 9.937721492000000E9     4.619297637545123E-1   -1.363161894053638E-1   -2.689890107629571E-3   -2.482948748445556E-3   -2.739904305130635E-3   -2.472960041713386E-3    3.424872069666886E-1   -3.517638093756261E-1
 9.937723056125000E9     4.620451552586747E-1   -1.364013473152898E-1   -2.680845534722474E-3   -2.520570231937684E-3   -2.757567971350086E-3   -2.512412854553624E-3    3.420731198987387E-1   -3.520345140483463E-1
 9.937724620250000E9     4.618759413262872E-1   -1.364814729097550E-1   -2.713552419165253E-3   -2.523736758152982E-3   -2.799008394143570E-3   -2.544638444765308E-3    3.415398327329874E-1   -3.521843481364914E-1
 9.937726184375000E9     4.620509183001806E-1   -1.365621522000349E-1   -2.753793291475384E-3   -2.529705346790690E-3   -2.874938611145940E-3   -2.539409073153242E-3    3.414178549911627E-1   -3.523534798136972E-1
 9.937727748500000E9     4.617867812104948E-1   -1.367395652946974E-1   -2.807156191971572E-3   -2.556676601948948E-3   -2.883873331923884E-3   -2.587084655309591E-3    3.408225932203175E-1   -3.525771284314625E-1
 9.937729312625000E9     4.618019581554146E-1   -1.367859567463751E-1   -2.801231306426163E-3   -2.571277747667039E-3   -2.928368739455334E-3   -2.623084509342960E-3    3.405072041432761E-1   -3.528527268681708E-1
 9.937730876750000E9     4.616698299614164E-1   -1.370124292498122E-1   -2.854026457816935E-3   -2.602758840640497E-3   -2.983702400021626E-3   -2.664886915113169E-3    3.399589966635121E-1   -3.532029849629417E-1
 9.937732440875000E9     4.617393195765455E-1   -1.368992773386907E-1   -2.940776253810021E-3   -2.656830896634552E-3   -2.990540540482219E-3   -2.682098393719358E-3    3.396754489233028E-1   -3.532182775670119E-1
 9.937734005000000E9     4.618191721263732E-1   -1.370609302686500E-1   -2.940016813032551E-3   -2.685250579062508E-3   -3.064544147187378E-3   -2.699809699524326E-3    3.391235902555715E-1   -3.535500081575939E-1
 9.937735569125000E9     4.616656638691639E-1   -1.371400903361938E-1   -2.976560428131368E-3   -2.711111270937482E-3   -3.071066499623399E-3   -2.701624117619159E-3    3.386352075441883E-1   -3.538378498807557E-1
 9.937737133250000E9     4.616135713584316E-1   -1.372747627885429E-1   -3.027926121446528E-3   -2.762103935795992E-3   -3.130230622433985E-3   -2.737408563573407E-3    3.383295877447480E-1   -3.540382907906694E-1
 9.937738697375000E9     4.614841635712394E-1   -1.374955445175726E-1   -3.066700879035055E-3   -2.740171605321045E-3   -3.179921695986557E-3   -2.774766070068730E-3    3.378114168115799E-1   -3.542585502005166E-1
 9.937740261500000E9     4.616068863026402E-1   -1.374890908343910E-1   -3.131718681325422E-3   -2.794462427270985E-3   -3.221089561754301E-3   -2.801135029988151E-3    3.373169012795549E-1   -3.544216500954422E-1
 9.937741825625000E9     4.616047964443328E-1   -1.376027942873055E-1   -3.145489717562352E-3   -2.820428192395017E-3   -3.276397200108621E-3   -2.812735189117771E-3    3.371905239949845E-1   -3.546632709760183E-1
 9.937743389750000E9     4.614700898784054E-1   -1.377865298918780E-1   -3.193889884960234E-3   -2.862004892086104E-3   -3.308902645410719E-3   -2.861793268202598E-3    3.363838643872664E-1   -3.549893720081371E-1
 9.937744953875000E9     4.613801694830345E-1   -1.377856974593023E-1   -3.234735455175543E-3   -2.904656651725328E-3   -3.362492160630576E-3   -2.909678145969075E-3    3.358602105738793E-1   -3.553207818826254E-1
 9.937746518000000E9     4.613145207868781E-1   -1.380430120943612E-1   -3.264453311215196E-3   -2.929531472904310E-3   -3.364143815406235E-3   -2.916016775989730E-3    3.355178419941723E-1   -3.557288738505667E-1
 9.937748082125000E9     4.613145911039017E-1   -1.380851706909071E-1   -3.297897839870038E-3   -2.942340565906170E-3   -3.438380535472161E-3   -2.932268275407655E-3    3.351899243308971E-1   -3.556954897056143E-1
 9.937749646250000E9     4.612881652969644E-1   -1.381533776292199E-1   -3.372273474390517E-3   -2.947314848778775E-3   -3.487029608682577E-3   -2.970742343133136E-3    3.347389014003511E-1   -3.559370013961650E-1
