#  HZ   S   RI   R     50.00 
! Rohde & Schwarz Vector Network Analyzer 
! Rohde-Schwarz,ZNB20-2Port,1311601062101988,3.16
! Created: UTC 3/20/2024, 11:17:58 PM
! freq[Hz]                re:S11                  im:S11                  re:S21                  im:S21                  re:S12                  im:S12                  re:S22                  im:S22
 9.937609998000000E9     4.646362900619393E-1   -1.286808332586400E-1   -1.195707602566590E-3   -1.263197677411173E-3   -1.218736553648936E-3   -1.284671291276225E-3    3.611408537803256E-1   -3.388695869878517E-1
 9.937611558650000E9     4.647054060232878E-1   -1.287219539059786E-1   -1.178126451166434E-3   -1.247009580778477E-3   -1.225824748867392E-3   -1.265704075895461E-3    3.610329290429213E-1   -3.388670060050946E-1
 9.937613119299999E9     4.647946582458436E-1   -1.288733198802945E-1   -1.185890253604588E-3   -1.313163482322213E-3   -1.236825974149080E-3   -1.311316663278879E-3    3.609010008549951E-1   -3.390298728953903E-1
 9.937614679950001E9     4.645878050884686E-1   -1.292172089276981E-1   -1.189779941143628E-3   -1.305596990137513E-3   -1.263469939642495E-3   -1.294840860734585E-3    3.607600421531193E-1   -3.391925105754485E-1
 9.937616240600000E9     4.645814775492824E-1   -1.291524967282112E-1   -1.212551692558726E-3   -1.297270760865956E-3   -1.262272851297123E-3   -1.303561164248289E-3    3.605363308081517E-1   -3.393492685237042E-1
 9.937617801250000E9     4.645382937671016E-1   -1.291525454617195E-1   -1.208774408540344E-3   -1.310393512709916E-3   -1.286920437122301E-3   -1.336013232213688E-3    3.601390997364053E-1   -3.398375991539007E-1
 9.937619361900000E9     4.644670920832484E-1   -1.293954558662622E-1   -1.249296391591233E-3   -1.325568406785005E-3   -1.303721829467306E-3   -1.345862152334608E-3    3.602016722472727E-1   -3.398034048826206E-1
 9.937620922549999E9     4.644805634683229E-1   -1.293680261836678E-1   -1.278649037002342E-3   -1.348276979679158E-3   -1.274395167945663E-3   -1.357472432770053E-3    3.598866836824330E-1   -3.398057977144029E-1
 9.937622483200001E9     4.644277599147353E-1   -1.295317289972688E-1   -1.266376865881935E-3   -1.359437216589311E-3   -1.313032137616067E-3   -1.379430285042397E-3    3.598086251821176E-1   -3.401859852573075E-1
 9.937624043850000E9     4.644594452942581E-1   -1.296901524196030E-1   -1.273234327322713E-3   -1.391973044384836E-3   -1.331075395847005E-3   -1.366438113267281E-3    3.595761521678577E-1   -3.403401172022079E-1
 9.937625604500000E9     4.643459561804634E-1   -1.299280559590144E-1   -1.300223963443757E-3   -1.398823018959800E-3   -1.315253124514895E-3   -1.385522681974986E-3    3.591372674451072E-1   -3.401827387768350E-1
 9.937627165150000E9     4.644366644909498E-1   -1.298086819024226E-1   -1.297415661224593E-3   -1.432824635890069E-3   -1.362588256493790E-3   -1.415497610595018E-3    3.591529627055171E-1   -3.405338888194673E-1
 9.937628725799999E9     4.642948482600875E-1   -1.301113384103360E-1   -1.327522425439122E-3   -1.416683900338112E-3   -1.372328361024259E-3   -1.417241688646340E-3    3.587937451871951E-1   -3.407070915922710E-1
 9.937630286450001E9     4.642754588114101E-1   -1.300991667081169E-1   -1.353592419387699E-3   -1.444353652012825E-3   -1.397203668010782E-3   -1.416862136653757E-3    3.585792350903346E-1   -3.408773165336891E-1
 9.937631847100000E9     4.642370426716086E-1   -1.301461074123267E-1   -1.404016777600517E-3   -1.437691700305408E-3   -1.434332417345397E-3   -1.429282790579760E-3    3.584451657276574E-1   -3.411402477005767E-1
 9.937633407750000E9     4.642229229052266E-1   -1.302819279720958E-1   -1.399939887221350E-3   -1.435471758233588E-3   -1.442586261316276E-3   -1.463035109281910E-3    3.582435129075300E-1   -3.411679800290520E-1
 9.937634968400000E9     4.642205234465320E-1   -1.303986770388654E-1   -1.358845189755272E-3   -1.483920733552424E-3   -1.434548745792927E-3   -1.460321322873449E-3    3.581748625923002E-1   -3.413647165192606E-1
 9.937636529049999E9     4.640976045207602E-1   -1.305600555914596E-1   -1.387441971957172E-3   -1.468152806016374E-3   -1.451082363239330E-3   -1.459186044039579E-3    3.575977685225945E-1   -3.413960729610147E-1
 9.937638089700001E9     4.640692635468736E-1   -1.306109745556233E-1   -1.445505531492439E-3   -1.501478830821045E-3   -1.473172781510486E-3   -1.486634684680722E-3    3.576412984158415E-1   -3.415297624539286E-1
 9.937639650350000E9     4.639234457060584E-1   -1.306619828288780E-1   -1.451884177623542E-3   -1.517514382921756E-3   -1.468278704565698E-3   -1.512196448046644E-3    3.573319795545665E-1   -3.418905461351724E-1
 9.937641211000000E9     4.640032293530335E-1   -1.307767017185582E-1   -1.450219435359263E-3   -1.514842790676992E-3   -1.508464038069387E-3   -1.524346275522317E-3    3.572293091912764E-1   -3.421359586843604E-1
 9.937642771650000E9     4.638770647586301E-1   -1.309618526873362E-1   -1.455284265089277E-3   -1.528950156660148E-3   -1.528467162319615E-3   -1.558591300776223E-3    3.569220861763121E-1   -3.424246810723094E-1
 9.937644332299999E9     4.639313177251703E-1   -1.309600513458731E-1   -1.483877241842636E-3   -1.551200012489142E-3   -1.543382780035637E-3   -1.547692853259644E-3    3.564689124165030E-1   -3.422197879193134E-1
 9.937645892950001E9     4.639337326174634E-1   -1.311357747274375E-1   -1.511588544082422E-3   -1.554231503610402E-3   -1.564173793534261E-3   -1.548611760203020E-3    3.565230951238908E-1   -3.425107901517389E-1
 9.937647453600000E9     4.639303278060980E-1   -1.313325591904958E-1   -1.493105529808608E-3   -1.602080578362966E-3   -1.545745796047216E-3   -1.605939940301963E-3    3.563228040633628E-1   -3.426877108717378E-1
 9.937649014250000E9     4.638778002536912E-1   -1.314356271961361E-1   -1.548630109955402E-3   -1.589247590421316E-3   -1.611029306046846E-3   -1.607073595075902E-3    3.559152174350826E-1   -3.427004496932619E-1
 9.937650574900000E9     4.637696841413869E-1   -1.316384218142347E-1   -1.554876512594385E-3   -1.589174816962120E-3   -1.613111111229269E-3   -1.612229808571641E-3    3.557926552282700E-1   -3.429959231986997E-1
 9.937652135549999E9     4.637821683331002E-1   -1.315328449694710E-1   -1.554665108379179E-3   -1.634448388775640E-3   -1.599823971676280E-3   -1.634591170855139E-3    3.556264719709130E-1   -3.432257450777251E-1
 9.937653696200001E9     4.637229459870764E-1   -1.316578848187921E-1   -1.584744047079831E-3   -1.603874502512362E-3   -1.615270800202559E-3   -1.629025295908677E-3    3.552341910958476E-1   -3.434270898118345E-1
 9.937655256850000E9     4.636854786404222E-1   -1.316527017834049E-1   -1.569647592512913E-3   -1.627994149242766E-3   -1.646805133261250E-3   -1.662026945244643E-3    3.550397724714003E-1   -3.434009657076998E-1
 9.937656817500000E9     4.637057396358079E-1   -1.318328247910549E-1   -1.611666076762537E-3   -1.645088379336208E-3   -1.657912011930810E-3   -1.672696867428060E-3    3.548571598085201E-1   -3.436857688438527E-1
 9.937658378150000E9     4.635656855570151E-1   -1.320649078156065E-1   -1.644166243583810E-3   -1.649311898563187E-3   -1.686293391838315E-3   -1.686521695519874E-3    3.546869236932585E-1   -3.440224901982039E-1
 9.937659938799999E9     4.635690590815307E-1   -1.321528074987118E-1   -1.672021611360052E-3   -1.724787786269758E-3   -1.712778365618108E-3   -1.699012570165356E-3    3.542948479440529E-1   -3.439864585543648E-1
 9.937661499450001E9     4.635415782597577E-1   -1.320372087132029E-1   -1.692655221692767E-3   -1.741951157884561E-3   -1.742811940473021E-3   -1.719132867355033E-3    3.540972025416067E-1   -3.441927096569393E-1
 9.937663060100000E9     4.634329529536064E-1   -1.323864457832608E-1   -1.699902125817666E-3   -1.706018884385424E-3   -1.738306703016127E-3   -1.736485467023986E-3    3.539534732224647E-1   -3.444396555169469E-1
 9.937664620750000E9     4.634263367927974E-1   -1.322603557830233E-1   -1.702891372859614E-3   -1.752152695723480E-3   -1.754550446659641E-3   -1.770097830785716E-3    3.535542135943829E-1   -3.447673474494163E-1
 9.937666181400000E9     4.633933933714293E-1   -1.325471859418131E-1   -1.752091445483974E-3   -1.785471751734351E-3   -1.793900097086931E-3   -1.755394862205593E-3    3.533369513966124E-1   -3.448946636100199E-1
 9.937667742049999E9     4.633890479396510E-1   -1.326509705493674E-1   -1.751337805955204E-3   -1.800360256095999E-3   -1.839256216663560E-3   -1.772244844132644E-3    3.530649877175056E-1   -3.449637410977392E-1
 9.937669302700001E9     4.633227083476323E-1   -1.328566628832567E-1   -1.776798728820935E-3   -1.792128448854709E-3   -1.804200078851041E-3   -1.784412589620594E-3    3.530915173617094E-1   -3.449661075769662E-1
 9.937670863350000E9     4.633436609482192E-1   -1.328967942577193E-1   -1.833224169046815E-3   -1.818953401361848E-3   -1.855326459592392E-3   -1.807015280539465E-3    3.527536368486759E-1   -3.453581380389489E-1
 9.937672424000000E9     4.632251538115777E-1   -1.329298283672233E-1   -1.838947464024323E-3   -1.833809965517240E-3   -1.875085866355643E-3   -1.836663984378660E-3    3.522720576945561E-1   -3.453588586889212E-1
 9.937673984650000E9     4.631061732420444E-1   -1.330647101324895E-1   -1.842677390909785E-3   -1.856968009034557E-3   -1.903004762478384E-3   -1.847421417294416E-3    3.520526873338444E-1   -3.454829863220018E-1
 9.937675545299999E9     4.630736523027295E-1   -1.332682753672429E-1   -1.850167105202610E-3   -1.860076484364342E-3   -1.895201322609399E-3   -1.834070241693111E-3    3.519397880910654E-1   -3.456673288299678E-1
 9.937677105950001E9     4.632249410216716E-1   -1.332389844755736E-1   -1.910590252898316E-3   -1.879336701667931E-3   -1.967034616272559E-3   -1.878036640387086E-3    3.515439905038031E-1   -3.460018060496838E-1
 9.937678666600000E9     4.631477745903697E-1   -1.334179307125078E-1   -1.878574206960447E-3   -1.932735110720161E-3   -1.974602935468801E-3   -1.904334451638819E-3    3.512483228303614E-1   -3.460661176974076E-1
 9.937680227250000E9     4.630464797105212E-1   -1.334675258236299E-1   -1.914502324823385E-3   -1.935009545578298E-3   -1.973870726649603E-3   -1.939895778313419E-3    3.510289490349063E-1   -3.464313199496731E-1
 9.937681787900000E9     4.630084577850368E-1   -1.334606131869950E-1   -1.920446574869749E-3   -1.931407815183319E-3   -2.007948192877801E-3   -1.964266672420885E-3    3.508053452563316E-1   -3.465894215154318E-1
 9.937683348549999E9     4.629240351923029E-1   -1.336890022181688E-1   -1.966088972174102E-3   -1.968678851581826E-3   -2.009045402126480E-3   -1.961743398926764E-3    3.505594006304720E-1   -3.467401791954085E-1
 9.937684909200001E9     4.629322094002103E-1   -1.338611756257904E-1   -1.997382214830703E-3   -1.976221904971048E-3   -2.057416971264103E-3   -1.980810507307034E-3    3.503006228762605E-1   -3.469986761367295E-1
 9.937686469850000E9     4.628904201701161E-1   -1.338796469375176E-1   -2.046293648343083E-3   -1.993787567108806E-3   -2.080929925624678E-3   -1.996215476288349E-3    3.500652642443808E-1   -3.470503932450831E-1
 9.937688030500000E9     4.628629561781004E-1   -1.338901889472775E-1   -2.047409789076687E-3   -1.981564232899684E-3   -2.107249009388471E-3   -2.032421211955069E-3    3.496127326396726E-1   -3.471218843761764E-1
 9.937689591150000E9     4.628595644554098E-1   -1.340888679683429E-1   -2.053666302891506E-3   -2.051606904293369E-3   -2.129828843779726E-3   -2.040277111792865E-3    3.494269795025808E-1   -3.477378623420707E-1
 9.937691151799999E9     4.628309411788412E-1   -1.342695471810300E-1   -2.101938638721576E-3   -2.053844105989627E-3   -2.137094256186743E-3   -2.058567884730672E-3    3.489672297217010E-1   -3.478150407363099E-1
 9.937692712450001E9     4.627396184975645E-1   -1.341914588794540E-1   -2.079478765810135E-3   -2.054918757633825E-3   -2.178331028453121E-3   -2.078189799903973E-3    3.486732422291179E-1   -3.479997452968903E-1
 9.937694273100000E9     4.626286576779597E-1   -1.344523315386062E-1   -2.138264115484418E-3   -2.079247607301669E-3   -2.178939575593046E-3   -2.078899411188045E-3    3.483666168164167E-1   -3.481725350874592E-1
 9.937695833750000E9     4.626631194696964E-1   -1.345132714288256E-1   -2.162557388447424E-3   -2.112078016008233E-3   -2.256296514465427E-3   -2.068248440337357E-3    3.480446943161642E-1   -3.483113980318870E-1
 9.937697394400000E9     4.625401565532563E-1   -1.346548778856624E-1   -2.226176592690235E-3   -2.114187555094750E-3   -2.257404177703394E-3   -2.147544838232687E-3    3.478129345720398E-1   -3.484456879114016E-1
 9.937698955049999E9     4.626144798375546E-1   -1.346331335719683E-1   -2.220697317697144E-3   -2.143268763895321E-3   -2.273958454530186E-3   -2.168359224902082E-3    3.475704791169068E-1   -3.487275633278567E-1
 9.937700515700001E9     4.626059055267277E-1   -1.348259887621406E-1   -2.271207225686070E-3   -2.188173754531602E-3   -2.289004156505464E-3   -2.124831063756660E-3    3.471624067357045E-1   -3.489104923621767E-1
 9.937702076350000E9     4.625088582030848E-1   -1.350611136154102E-1   -2.278485700092106E-3   -2.217724547556884E-3   -2.358654785392605E-3   -2.186784809965120E-3    3.468020796702677E-1   -3.492208586804949E-1
 9.937703637000000E9     4.625344033527604E-1   -1.350741488454840E-1   -2.311217772808457E-3   -2.171227604321738E-3   -2.396527247465018E-3   -2.202800335718162E-3    3.464533431070543E-1   -3.491885014742545E-1
 9.937705197650000E9     4.623979262257222E-1   -1.350886746128495E-1   -2.324877225997714E-3   -2.249548528701485E-3   -2.405771745687967E-3   -2.229838058182685E-3    3.460567370424046E-1   -3.495144245446602E-1
 9.937706758299999E9     4.623714411192602E-1   -1.352731033766778E-1   -2.370112837322129E-3   -2.269287193763201E-3   -2.415509438630294E-3   -2.273190571262808E-3    3.457234378162815E-1   -3.498417230274667E-1
 9.937708318950001E9     4.623689585212821E-1   -1.352525261033225E-1   -2.376229940348581E-3   -2.279935047256948E-3   -2.431563572955470E-3   -2.296940572306620E-3    3.453626850078461E-1   -3.499183731389391E-1
 9.937709879600000E9     4.621678870528830E-1   -1.355392654981345E-1   -2.402910087633717E-3   -2.304366821182548E-3   -2.491336869214250E-3   -2.311969751922654E-3    3.450579151159389E-1   -3.501175955185173E-1
 9.937711440250000E9     4.622748481888151E-1   -1.355196655182739E-1   -2.455660207520661E-3   -2.344071956664207E-3   -2.541818546491383E-3   -2.329669570305760E-3    3.447389189667708E-1   -3.504338620714733E-1
 9.937713000900000E9     4.620934839040441E-1   -1.356642973374347E-1   -2.466527652119110E-3   -2.374649346271457E-3   -2.559617809180792E-3   -2.355713474464267E-3    3.444099993110841E-1   -3.503933055760977E-1
 9.937714561549999E9     4.620658088137622E-1   -1.356332297091206E-1   -2.507876239284099E-3   -2.392472953168087E-3   -2.576978428412569E-3   -2.376041762494281E-3    3.441308279152694E-1   -3.507250856182625E-1
 9.937716122200001E9     4.622360030785083E-1   -1.358957119045989E-1   -2.514210289188324E-3   -2.393461465854413E-3   -2.620546611373403E-3   -2.370028595828051E-3    3.438832669432197E-1   -3.509125028003888E-1
 9.937717682850000E9     4.621669157878170E-1   -1.360164556017105E-1   -2.545353637024613E-3   -2.400080614370718E-3   -2.649552385036990E-3   -2.435198419520060E-3    3.435056043790113E-1   -3.511389711599154E-1
 9.937719243500000E9     4.621172403260462E-1   -1.361226931564741E-1   -2.610002370201149E-3   -2.429043769741951E-3   -2.658383939766810E-3   -2.454454290895246E-3    3.431591027385132E-1   -3.514217359270964E-1
 9.937720804150000E9     4.619810896745251E-1   -1.361804235379792E-1   -2.621144468647532E-3   -2.442820767372106E-3   -2.706357285114977E-3   -2.469945191008637E-3    3.428027094405238E-1   -3.516227345543514E-1
 9.937722364799999E9     4.619556221173276E-1   -1.361309614547267E-1   -2.645410473342430E-3   -2.521867068041038E-3   -2.731033633937399E-3   -2.470505020612540E-3    3.422830947623846E-1   -3.519350945781725E-1
 9.937723925450001E9     4.620354198985659E-1   -1.365313358690183E-1   -2.692106058313642E-3   -2.490860754886972E-3   -2.752737004751551E-3   -2.511153595183743E-3    3.418452101430841E-1   -3.521405365343273E-1
 9.937725486100000E9     4.619343313881753E-1   -1.365697211820981E-1   -2.712358511818362E-3   -2.544213128736975E-3   -2.840865245336180E-3   -2.539287036328450E-3    3.417265041872758E-1   -3.524104628071480E-1
 9.937727046750000E9     4.619463399656483E-1   -1.366279240717205E-1   -2.769834228392350E-3   -2.550113692904617E-3   -2.871876952107276E-3   -2.551619223315951E-3    3.411789928663330E-1   -3.524834914496408E-1
 9.937728607400000E9     4.616891271717428E-1   -1.367732513062668E-1   -2.802856324469265E-3   -2.561583336300902E-3   -2.855714868184270E-3   -2.585687781543398E-3    3.408559284147434E-1   -3.527468267787832E-1
 9.937730168049999E9     4.617813915743096E-1   -1.369098284959530E-1   -2.821847741937741E-3   -2.580791727976942E-3   -2.941283103430242E-3   -2.575584590031543E-3    3.403502735509437E-1   -3.529753786122609E-1
 9.937731728700001E9     4.617154778719039E-1   -1.370536479992542E-1   -2.900431286485123E-3   -2.652057719619809E-3   -2.979436506936122E-3   -2.633002640017277E-3    3.400433518177698E-1   -3.532936935095010E-1
 9.937733289350000E9     4.616288661489198E-1   -1.372027523592318E-1   -2.935720523739882E-3   -2.659290898935321E-3   -3.019473494813453E-3   -2.664219395819321E-3    3.393944490474467E-1   -3.533630387750903E-1
 9.937734850000000E9     4.617533796270494E-1   -1.372217529146030E-1   -2.923969018115345E-3   -2.701344149473585E-3   -3.021228294967520E-3   -2.721742338392196E-3    3.392768694238964E-1   -3.536655329127545E-1
 9.937736410650000E9     4.616995466629419E-1   -1.372981888281105E-1   -2.983372262900361E-3   -2.718499204020668E-3   -3.060267264611734E-3   -2.750696405908584E-3    3.389067768421491E-1   -3.538061707185143E-1
 9.937737971299999E9     4.616220962119771E-1   -1.373684884606288E-1   -3.019045451476646E-3   -2.734652043233110E-3   -3.137045644726480E-3   -2.761069107342554E-3    3.382851466678389E-1   -3.541498381904277E-1
 9.937739531950001E9     4.614583606393635E-1   -1.375652112089293E-1   -3.087477868814040E-3   -2.745968221647042E-3   -3.161018031436660E-3   -2.755491365347155E-3    3.378414138869265E-1   -3.543030830283695E-1
 9.937741092600000E9     4.615373535089711E-1   -1.375518561086383E-1   -3.108457694562247E-3   -2.838646379606505E-3   -3.213062490656260E-3   -2.803489044445784E-3    3.370943876424658E-1   -3.545713288053741E-1
 9.937742653250000E9     4.614512079656825E-1   -1.377366391482981E-1   -3.180872073192556E-3   -2.857752437761755E-3   -3.254334146171160E-3   -2.827518785703035E-3    3.369463686342642E-1   -3.547812959199249E-1
 9.937744213900000E9     4.612949266206565E-1   -1.376716252948299E-1   -3.204978215905026E-3   -2.894653235632615E-3   -3.287171062641779E-3   -2.872631049294960E-3    3.363355827685657E-1   -3.550799369849464E-1
 9.937745774549999E9     4.615186683427886E-1   -1.377863593031534E-1   -3.234512308502906E-3   -2.927232754937460E-3   -3.343223085388499E-3   -2.905622211288204E-3    3.360048421470972E-1   -3.553946603743365E-1
 9.937747335200001E9     4.613853758584022E-1   -1.379513465449751E-1   -3.283860894858030E-3   -2.935866593264195E-3   -3.382321716245457E-3   -2.888979307518996E-3    3.354699133048751E-1   -3.557035255650182E-1
 9.937748895850000E9     4.613909977378967E-1   -1.380959937154269E-1   -3.350297585540048E-3   -2.947604585340372E-3   -3.449182606347067E-3   -2.948601191847461E-3    3.350022501263545E-1   -3.558186583124793E-1
 9.937750456500000E9     4.613860081089985E-1   -1.383559544323755E-1   -3.364568700030496E-3   -2.993855304336357E-3   -3.487596612594598E-3   -2.931588466117884E-3    3.343533676878398E-1   -3.561504885546166E-1
