#  HZ   S   RI   R     50.00 
! Rohde & Schwarz Vector Network Analyzer 
! Rohde-Schwarz,ZNB20-2Port,1311601062101988,3.16
! Created: UTC 3/20/2024, 11:18:10 PM
! freq[Hz]                re:S11                  im:S11                  re:S21                  im:S21                  re:S12                  im:S12                  re:S22                  im:S22
 9.937620241000000E9     4.646546695239677E-1   -1.293261377178412E-1   -1.262718495502217E-3   -1.333476773191805E-3   -1.290669924248989E-3   -1.312770171505131E-3    3.602980635426096E-1   -3.397878714386387E-1
 9.937621767700001E9     4.644960810550426E-1   -1.295683871516530E-1   -1.222086604335648E-3   -1.336596389428778E-3   -1.262958178582595E-3   -1.340474847348927E-3    3.600650177954620E-1   -3.399685463186473E-1
 9.937623294400000E9     4.645952687286231E-1   -1.295572319696611E-1   -1.260049132611565E-3   -1.347998379089150E-3   -1.292790517661323E-3   -1.370566549657426E-3    3.598129394439066E-1   -3.400089526614129E-1
 9.937624821100000E9     4.645266599521683E-1   -1.297030705432191E-1   -1.272730798080736E-3   -1.367483528499960E-3   -1.315284958401093E-3   -1.345980015764119E-3    3.597124108406875E-1   -3.402816551748827E-1
 9.937626347799999E9     4.645115319190832E-1   -1.298427472631530E-1   -1.274298005062789E-3   -1.365319830690141E-3   -1.328952242107713E-3   -1.372454877267040E-3    3.595046508718323E-1   -3.403970434793301E-1
 9.937627874500000E9     4.643567460889482E-1   -1.300235675631782E-1   -1.293983973421080E-3   -1.384840945183902E-3   -1.337109835741620E-3   -1.403300093884947E-3    3.593030169612064E-1   -3.404552918903390E-1
 9.937629401200001E9     4.643974132742735E-1   -1.300219576566331E-1   -1.326544095248350E-3   -1.409442368385965E-3   -1.368033587202003E-3   -1.379141853122466E-3    3.591896514974779E-1   -3.405481169712236E-1
 9.937630927900000E9     4.643196100710850E-1   -1.300462380134590E-1   -1.287678795620632E-3   -1.375435910365739E-3   -1.352136886221908E-3   -1.413870279165743E-3    3.588423563329124E-1   -3.407172785008593E-1
 9.937632454600000E9     4.642775617796733E-1   -1.304035883633723E-1   -1.365075644953862E-3   -1.422631806758267E-3   -1.345681121729018E-3   -1.420686878994740E-3    3.587346578129242E-1   -3.408875682123824E-1
 9.937633981299999E9     4.642585375998830E-1   -1.304283620458478E-1   -1.345015544203249E-3   -1.474659732899281E-3   -1.386456629531433E-3   -1.459508602723495E-3    3.583803349558461E-1   -3.411385099391122E-1
 9.937635508000000E9     4.642010446696629E-1   -1.304334804156350E-1   -1.356070680276914E-3   -1.480308561234551E-3   -1.382023374502549E-3   -1.470068095676079E-3    3.584294089480856E-1   -3.413821181308523E-1
 9.937637034700001E9     4.640976833249376E-1   -1.305175191045176E-1   -1.385201628492923E-3   -1.474363066495535E-3   -1.425972700894956E-3   -1.476807559159656E-3    3.579255112354897E-1   -3.416863541324845E-1
 9.937638561400000E9     4.641462584377140E-1   -1.305755894189798E-1   -1.417765352370408E-3   -1.489761100512267E-3   -1.396757840780859E-3   -1.478059236757787E-3    3.580281493893653E-1   -3.415057575287598E-1
 9.937640088100000E9     4.640620184557404E-1   -1.307291305205741E-1   -1.396553337754253E-3   -1.473865303407205E-3   -1.434456162623415E-3   -1.519856213269437E-3    3.577342540555353E-1   -3.415553650522548E-1
 9.937641614799999E9     4.641220902870445E-1   -1.307201009245572E-1   -1.425665930707427E-3   -1.491352501580529E-3   -1.489484598678774E-3   -1.468512966524650E-3    3.572828285240785E-1   -3.418807691706627E-1
 9.937643141500000E9     4.640268220286402E-1   -1.308859785234618E-1   -1.413066888097859E-3   -1.489557362449859E-3   -1.457856103068272E-3   -1.526903905251168E-3    3.572719801010419E-1   -3.420524190080662E-1
 9.937644668200001E9     4.640505909331341E-1   -1.309557396886622E-1   -1.478911178218821E-3   -1.526015464960146E-3   -1.484221354016770E-3   -1.530088193123745E-3    3.570556095379903E-1   -3.422699765416491E-1
 9.937646194900000E9     4.638791252523227E-1   -1.311374766809988E-1   -1.490113724262214E-3   -1.555347015910548E-3   -1.513109291984598E-3   -1.567447593830229E-3    3.568359401649171E-1   -3.423942315053718E-1
 9.937647721600000E9     4.639986528211685E-1   -1.313616151330174E-1   -1.445580394500524E-3   -1.552098063943916E-3   -1.526507340532849E-3   -1.557682736133566E-3    3.564899848611164E-1   -3.425913175720465E-1
 9.937649248299999E9     4.639383021596698E-1   -1.313200961854301E-1   -1.497491254099030E-3   -1.585544303952715E-3   -1.570534825818910E-3   -1.567399558594318E-3    3.564664153205140E-1   -3.428415966270669E-1
 9.937650775000000E9     4.637952842052578E-1   -1.313310174996536E-1   -1.504623094121440E-3   -1.592934311652457E-3   -1.545347997122283E-3   -1.583752219020880E-3    3.562370854749898E-1   -3.430842609929045E-1
 9.937652301700001E9     4.637810392831773E-1   -1.315275024006384E-1   -1.495880794860278E-3   -1.613257103707738E-3   -1.562022231714943E-3   -1.579093488076930E-3    3.560219539679456E-1   -3.429764614718848E-1
 9.937653828400000E9     4.637009717743610E-1   -1.314713482346507E-1   -1.539084994116935E-3   -1.628058581784085E-3   -1.595049395509927E-3   -1.613957834190186E-3    3.555886177468723E-1   -3.431520188798766E-1
 9.937655355100000E9     4.636401217779323E-1   -1.318126995493062E-1   -1.578595018081434E-3   -1.602738958830937E-3   -1.602885333410322E-3   -1.646936983045113E-3    3.553689452390649E-1   -3.434208126846354E-1
 9.937656881799999E9     4.636546409276828E-1   -1.319159860214774E-1   -1.582732061313272E-3   -1.633082473080821E-3   -1.623789869827795E-3   -1.641384190425865E-3    3.552860117552964E-1   -3.435899527565845E-1
 9.937658408500000E9     4.635764577837030E-1   -1.319945298086714E-1   -1.629479279117715E-3   -1.688156656150286E-3   -1.642330495811374E-3   -1.628506368762904E-3    3.550245249232571E-1   -3.436053964162424E-1
 9.937659935200001E9     4.636202593504916E-1   -1.320683353656573E-1   -1.624514296438539E-3   -1.676454551590508E-3   -1.637207668143815E-3   -1.656782673902077E-3    3.547135973748275E-1   -3.439059730090737E-1
 9.937661461900000E9     4.635876252126721E-1   -1.321416040903019E-1   -1.658076711623937E-3   -1.702995348843324E-3   -1.655117142321393E-3   -1.694519274897359E-3    3.545504700541231E-1   -3.441537243442270E-1
 9.937662988600000E9     4.634732707927827E-1   -1.322586174978658E-1   -1.668398768396376E-3   -1.723618828050237E-3   -1.698054327294201E-3   -1.661008697877957E-3    3.543631097905991E-1   -3.442817564529171E-1
 9.937664515299999E9     4.634201421217156E-1   -1.323381733474724E-1   -1.649164421919513E-3   -1.717548196421376E-3   -1.702280209885885E-3   -1.725023507447385E-3    3.540253550245906E-1   -3.443644119357719E-1
 9.937666042000000E9     4.633830282048158E-1   -1.324919309778906E-1   -1.717904754136182E-3   -1.741650262572701E-3   -1.747009206523911E-3   -1.728454295192773E-3    3.536491729139497E-1   -3.445918345261590E-1
 9.937667568700001E9     4.633570902294383E-1   -1.325911835457672E-1   -1.704654676582263E-3   -1.756862649503031E-3   -1.765647572936845E-3   -1.732885351302117E-3    3.535993763570622E-1   -3.447265155858101E-1
 9.937669095400000E9     4.632744173811498E-1   -1.327722542786867E-1   -1.705113422590479E-3   -1.793610391673361E-3   -1.793911116930677E-3   -1.773855173256240E-3    3.533539256385928E-1   -3.450119570439233E-1
 9.937670622100000E9     4.631907018977234E-1   -1.328097943936400E-1   -1.747780804293169E-3   -1.752293050741218E-3   -1.820950049169283E-3   -1.805813130719323E-3    3.531175582375933E-1   -3.450273716842164E-1
 9.937672148799999E9     4.633115904061608E-1   -1.329684725538940E-1   -1.718884928632442E-3   -1.808874841862140E-3   -1.811160426067865E-3   -1.794328956695610E-3    3.529447084670684E-1   -3.451918097980348E-1
 9.937673675500000E9     4.633698225452200E-1   -1.329775650231875E-1   -1.764687624584287E-3   -1.797506007072673E-3   -1.845966879384234E-3   -1.809441646323158E-3    3.526021052531298E-1   -3.454939431624447E-1
 9.937675202200001E9     4.632912934636979E-1   -1.332134880851030E-1   -1.781896297724734E-3   -1.853170190962908E-3   -1.837684434042195E-3   -1.825405665407323E-3    3.523950606474189E-1   -3.457916837200398E-1
 9.937676728900000E9     4.632049972494140E-1   -1.333238407593387E-1   -1.864978637836212E-3   -1.817135874375797E-3   -1.899272055404958E-3   -1.841939487148258E-3    3.522059804962550E-1   -3.457415328820916E-1
 9.937678255600000E9     4.630079105826014E-1   -1.333268535244640E-1   -1.840615433933443E-3   -1.913640600764165E-3   -1.893661302457547E-3   -1.867362837567846E-3    3.516412870454385E-1   -3.460449692880100E-1
 9.937679782299999E9     4.629500767113867E-1   -1.332848992358785E-1   -1.840137143751844E-3   -1.884639694771961E-3   -1.922955269724585E-3   -1.880370322561990E-3    3.515459877488591E-1   -3.462883928794707E-1
 9.937681309000000E9     4.629667834312450E-1   -1.335797978113415E-1   -1.887444679908984E-3   -1.874154380473712E-3   -1.949648858945177E-3   -1.925639990717935E-3    3.513031628943623E-1   -3.462196769540979E-1
 9.937682835700001E9     4.628394573018716E-1   -1.336297045495099E-1   -1.924271456065158E-3   -1.932806263567459E-3   -1.956124887226400E-3   -1.925838594777868E-3    3.509870900077193E-1   -3.465225443924581E-1
 9.937684362400000E9     4.628607535172384E-1   -1.336973252925889E-1   -1.915861478046877E-3   -1.937453880172334E-3   -1.990790158067678E-3   -1.942240030808556E-3    3.507990357548914E-1   -3.466531504316549E-1
 9.937685889100000E9     4.629346982778414E-1   -1.338074491613225E-1   -1.943473052851322E-3   -1.956561998300880E-3   -2.003716471059477E-3   -1.977841414266570E-3    3.505341393641894E-1   -3.469486085647035E-1
 9.937687415799999E9     4.628151115464638E-1   -1.339720957705620E-1   -1.957798973906202E-3   -1.972608245136144E-3   -2.053258076688714E-3   -1.965836838770129E-3    3.501133345107467E-1   -3.472334734305774E-1
 9.937688942500000E9     4.628317839794730E-1   -1.340155784609135E-1   -2.014627670019432E-3   -1.989728789095558E-3   -2.042424120782275E-3   -1.999650390954157E-3    3.499863506275071E-1   -3.474283772594207E-1
 9.937690469200001E9     4.628228178514361E-1   -1.341067115630568E-1   -1.980455469872231E-3   -2.012996181920611E-3   -2.062713794472637E-3   -2.035306604912579E-3    3.496677881839576E-1   -3.475835120676273E-1
 9.937691995900000E9     4.628354429318942E-1   -1.342208476778189E-1   -2.054734038523868E-3   -2.006885124883208E-3   -2.130800650595681E-3   -2.045250158080992E-3    3.495430175910571E-1   -3.476181725314390E-1
 9.937693522600000E9     4.626169085854315E-1   -1.344362346272074E-1   -2.061225006194879E-3   -2.062325332319106E-3   -2.123212399647442E-3   -2.043748306754557E-3    3.491973501341484E-1   -3.479529786236667E-1
 9.937695049299999E9     4.627910412115326E-1   -1.344160634990393E-1   -2.054101183694148E-3   -2.051824072067061E-3   -2.141958165035057E-3   -2.041309114238437E-3    3.486125270549053E-1   -3.480969029227545E-1
 9.937696576000000E9     4.626118903361672E-1   -1.345175201656826E-1   -2.115441622311681E-3   -2.093258993649489E-3   -2.158756032117547E-3   -2.102852103084726E-3    3.485423269485109E-1   -3.482091474856751E-1
 9.937698102700001E9     4.625018258502351E-1   -1.348083916496345E-1   -2.168664405813383E-3   -2.101533450094893E-3   -2.221894353956419E-3   -2.142214233816267E-3    3.482045208317707E-1   -3.483510269131408E-1
 9.937699629400000E9     4.625632224099260E-1   -1.345879887317800E-1   -2.176226376017453E-3   -2.104420764657117E-3   -2.261377152613822E-3   -2.124971502648576E-3    3.478767408505750E-1   -3.485568844375649E-1
 9.937701156100000E9     4.625569608248269E-1   -1.348758815381755E-1   -2.172979090612653E-3   -2.131751796541516E-3   -2.240311413866101E-3   -2.143896315664799E-3    3.475757452221014E-1   -3.489901196197546E-1
 9.937702682799999E9     4.625672389630915E-1   -1.349457726406355E-1   -2.235680349221409E-3   -2.187835349800512E-3   -2.276725967262127E-3   -2.194720861135549E-3    3.472393259265634E-1   -3.490282804949705E-1
 9.937704209500000E9     4.623662131346568E-1   -1.350666992530272E-1   -2.213363414323881E-3   -2.182672795663026E-3   -2.319431546539490E-3   -2.148759950525736E-3    3.468168432998225E-1   -3.491830583408929E-1
 9.937705736200001E9     4.624763081646396E-1   -1.351925917604000E-1   -2.279201391028159E-3   -2.217283279442604E-3   -2.318045841099283E-3   -2.213886568787522E-3    3.466456997418103E-1   -3.492260065284735E-1
 9.937707262900000E9     4.624151186987209E-1   -1.353346142856565E-1   -2.273360809435621E-3   -2.222110137565123E-3   -2.354241077055091E-3   -2.223924994621205E-3    3.463209845329344E-1   -3.497424759355571E-1
 9.937708789600000E9     4.623156519529455E-1   -1.353087231693998E-1   -2.320468141527181E-3   -2.265840929443819E-3   -2.381050428394803E-3   -2.276036689408347E-3    3.459482671280185E-1   -3.497772751356418E-1
 9.937710316299999E9     4.624120143150438E-1   -1.354036066372374E-1   -2.344744491076715E-3   -2.245858020022250E-3   -2.403963783391268E-3   -2.269161602124490E-3    3.456845430603124E-1   -3.500160648574869E-1
 9.937711843000000E9     4.623366880190080E-1   -1.355849091555555E-1   -2.410376562555592E-3   -2.248252065461610E-3   -2.459437242766348E-3   -2.280240208775036E-3    3.452793045984147E-1   -3.502443139469529E-1
 9.937713369700001E9     4.622478095900859E-1   -1.356808731150979E-1   -2.415988316773991E-3   -2.303757551361558E-3   -2.468026089447499E-3   -2.311381692124546E-3    3.451559725563518E-1   -3.504955779111044E-1
 9.937714896400000E9     4.621753280180859E-1   -1.357984902225686E-1   -2.407284459719984E-3   -2.351698899483647E-3   -2.515781145329758E-3   -2.345542482602883E-3    3.448419053091293E-1   -3.506356007722090E-1
 9.937716423100000E9     4.620978813794217E-1   -1.357814473442227E-1   -2.450140579972031E-3   -2.349607662749182E-3   -2.532043072391090E-3   -2.384294545245239E-3    3.444261978825835E-1   -3.509695568515585E-1
 9.937717949799999E9     4.619877497795427E-1   -1.359400736661510E-1   -2.475084229664615E-3   -2.369222075752188E-3   -2.559800480365519E-3   -2.381024777370283E-3    3.439793335836823E-1   -3.511933197253193E-1
 9.937719476500000E9     4.620944879438358E-1   -1.361115766150060E-1   -2.539730033721601E-3   -2.402231256351320E-3   -2.609513926410571E-3   -2.402563098372343E-3    3.435801960879992E-1   -3.513223551556843E-1
 9.937721003200001E9     4.620698314672849E-1   -1.361245488902913E-1   -2.554227632745945E-3   -2.426732634451394E-3   -2.634582696011396E-3   -2.433166163385320E-3    3.433526524138500E-1   -3.512613777448042E-1
 9.937722529900000E9     4.620433032090998E-1   -1.361632874173783E-1   -2.573874182088736E-3   -2.450632332619595E-3   -2.687326228603277E-3   -2.469357909867697E-3    3.429458841424766E-1   -3.515887886584192E-1
 9.937724056600000E9     4.619025805869520E-1   -1.363654647273394E-1   -2.604939178500318E-3   -2.468560443357882E-3   -2.704317847235588E-3   -2.445608369469253E-3    3.426029263103724E-1   -3.520764180616311E-1
 9.937725583299999E9     4.618344373480301E-1   -1.365663863352656E-1   -2.643115671813256E-3   -2.510450454265100E-3   -2.717739516579332E-3   -2.496892737874430E-3    3.422622193479514E-1   -3.520496254855433E-1
 9.937727110000000E9     4.618781228488053E-1   -1.365597073444015E-1   -2.644506773064126E-3   -2.520181509096245E-3   -2.758604438166017E-3   -2.512658896091315E-3    3.418935502245101E-1   -3.523403348241266E-1
 9.937728636700001E9     4.618699722127786E-1   -1.366277904924263E-1   -2.697810168966024E-3   -2.533934280801751E-3   -2.803272074284788E-3   -2.536148059131012E-3    3.414920390293300E-1   -3.526380979306610E-1
 9.937730163400000E9     4.618795408160311E-1   -1.367711172452338E-1   -2.766974586535700E-3   -2.545156183950064E-3   -2.841476838226306E-3   -2.546339471103969E-3    3.411030272898741E-1   -3.527761701286770E-1
 9.937731690100000E9     4.616567345968323E-1   -1.368639843399294E-1   -2.773540772941400E-3   -2.608825497105263E-3   -2.846904199593728E-3   -2.592986205153523E-3    3.407443867627741E-1   -3.532159656144740E-1
 9.937733216799999E9     4.616945904829698E-1   -1.369864934675446E-1   -2.777490390072702E-3   -2.595771697207840E-3   -2.920879154949806E-3   -2.609605482936332E-3    3.403236258379126E-1   -3.532393680614134E-1
 9.937734743500000E9     4.617815328254849E-1   -1.372779060699685E-1   -2.867129526546056E-3   -2.633972550670398E-3   -2.957818715895380E-3   -2.625309128157225E-3    3.398776772744843E-1   -3.534081936298850E-1
 9.937736270200001E9     4.616525689783584E-1   -1.371907870875135E-1   -2.937526213691986E-3   -2.660385224196021E-3   -2.967781837019705E-3   -2.661697572926973E-3    3.396650777374594E-1   -3.536447867085033E-1
 9.937737796900000E9     4.615256533203324E-1   -1.373470745985957E-1   -2.919598031606256E-3   -2.693733697701628E-3   -3.028847346179230E-3   -2.697060393190073E-3    3.391097708606798E-1   -3.538063508969561E-1
 9.937739323600000E9     4.615763044800290E-1   -1.374329734072219E-1   -2.951915027708319E-3   -2.738496495345848E-3   -3.055362009475641E-3   -2.716415850654122E-3    3.387183520417956E-1   -3.540660500446675E-1
 9.937740850299999E9     4.615451965059447E-1   -1.376172184387350E-1   -3.006081022688381E-3   -2.771711565606002E-3   -3.086646389551924E-3   -2.776311805964641E-3    3.383487740150266E-1   -3.543069562953353E-1
 9.937742377000000E9     4.616213766105330E-1   -1.376727856132178E-1   -3.073045662933121E-3   -2.801078719533393E-3   -3.125997409712451E-3   -2.774189421934465E-3    3.379007324191350E-1   -3.545840382384329E-1
 9.937743903700001E9     4.613598835381152E-1   -1.375447698602537E-1   -3.081076184892932E-3   -2.819634517220021E-3   -3.204314786493725E-3   -2.814668985017158E-3    3.374042453703745E-1   -3.546513752047540E-1
 9.937745430400000E9     4.613247872195174E-1   -1.377942409375268E-1   -3.143317977370713E-3   -2.867376131185994E-3   -3.221814392141086E-3   -2.799204581895571E-3    3.371257508230406E-1   -3.549683478071959E-1
 9.937746957100000E9     4.613900264613288E-1   -1.380091055193089E-1   -3.180624333990548E-3   -2.856912560667949E-3   -3.287226137769633E-3   -2.888593882528165E-3    3.365509398134146E-1   -3.553400250133106E-1
 9.937748483799999E9     4.613626444096541E-1   -1.380797241112573E-1   -3.229640354774467E-3   -2.885942691671201E-3   -3.278404716809259E-3   -2.887689553289715E-3    3.363651343115139E-1   -3.558202780310791E-1
 9.937750010500000E9     4.613088637022951E-1   -1.381404642671714E-1   -3.271830625697401E-3   -2.913209986787789E-3   -3.362231656797627E-3   -2.911803246130551E-3    3.357609863451148E-1   -3.558044268846888E-1
 9.937751537200001E9     4.613738753312027E-1   -1.383367679553122E-1   -3.291294537513398E-3   -2.973144737752638E-3   -3.393230890296872E-3   -2.952554603683129E-3    3.351388635157034E-1   -3.560626718265921E-1
 9.937753063900000E9     4.611132300954942E-1   -1.384225937553825E-1   -3.354692836426325E-3   -2.985835813363916E-3   -3.457479491726715E-3   -2.975215667456294E-3    3.346942524335919E-1   -3.564024225324513E-1
 9.937754590600000E9     4.611526260635219E-1   -1.384841278932302E-1   -3.392837361803307E-3   -2.976583781561778E-3   -3.515733275470814E-3   -2.986119820753676E-3    3.342358961484234E-1   -3.564466580374587E-1
 9.937756117299999E9     4.612097471576385E-1   -1.385580950460130E-1   -3.449880685304680E-3   -3.065265024246616E-3   -3.543915517651004E-3   -3.024081457332962E-3    3.338194737835533E-1   -3.569303343477251E-1
 9.937757644000000E9     4.610656432478891E-1   -1.387697966856487E-1   -3.473924862664312E-3   -3.108686075641434E-3   -3.586863105884389E-3   -3.073717980775660E-3    3.332573229925418E-1   -3.569237403413000E-1
