#  HZ   S   RI   R     50.00 
! Rohde & Schwarz Vector Network Analyzer 
! Rohde-Schwarz,ZNB20-2Port,1311601062101988,3.16
! Created: UTC 3/20/2024, 11:18:36 PM
! freq[Hz]                re:S11                  im:S11                  re:S21                  im:S21                  re:S12                  im:S12                  re:S22                  im:S22
 9.937637361000000E9     4.642181424162513E-1   -1.304984105735018E-1   -1.295270538442031E-3   -1.425537576929691E-3   -1.334192723968392E-3   -1.426096602039547E-3    3.587411937953799E-1   -3.411775864343088E-1
 9.937638831025000E9     4.639438284044044E-1   -1.306957146145893E-1   -1.312936682817890E-3   -1.440846021477896E-3   -1.356875965326832E-3   -1.436986940184906E-3    3.586505510623877E-1   -3.413988307298337E-1
 9.937640301049999E9     4.641854359702305E-1   -1.307365680428035E-1   -1.343561242272411E-3   -1.466189947097455E-3   -1.366160108674709E-3   -1.437616298264828E-3    3.582553102088660E-1   -3.414659488635440E-1
 9.937641771075001E9     4.640123204162939E-1   -1.308014740708038E-1   -1.321379111663736E-3   -1.441015046109137E-3   -1.382087008469036E-3   -1.416387503684668E-3    3.580054110309554E-1   -3.417487956387172E-1
 9.937643241100000E9     4.639171640727762E-1   -1.309154317920823E-1   -1.331926399819433E-3   -1.468813016277113E-3   -1.388148541978002E-3   -1.457630446736012E-3    3.579624397567521E-1   -3.417952639578903E-1
 9.937644711125000E9     4.639375740062878E-1   -1.309155225242901E-1   -1.362865497533999E-3   -1.423995114683114E-3   -1.399202178771671E-3   -1.428238678649049E-3    3.577531277970737E-1   -3.418407046719893E-1
 9.937646181150000E9     4.638994038588871E-1   -1.310283373204013E-1   -1.388735932326615E-3   -1.504670570565038E-3   -1.419581761041089E-3   -1.464117912959757E-3    3.575539549382697E-1   -3.419194921502169E-1
 9.937647651174999E9     4.639720758197193E-1   -1.310650833041090E-1   -1.374345440220139E-3   -1.469646830371452E-3   -1.424465265154688E-3   -1.504147984785096E-3    3.573695319336883E-1   -3.421420780193881E-1
 9.937649121200001E9     4.638957152507454E-1   -1.313217699616643E-1   -1.411534800009576E-3   -1.508512339626091E-3   -1.458887038518964E-3   -1.512728895440438E-3    3.572540721247922E-1   -3.424473194936992E-1
 9.937650591225000E9     4.638832777149601E-1   -1.314346511410757E-1   -1.405110644087855E-3   -1.516934252368903E-3   -1.472831256043700E-3   -1.500400667559128E-3    3.570349563823462E-1   -3.425371416544450E-1
 9.937652061250000E9     4.639210023342759E-1   -1.315718869144973E-1   -1.440819146612041E-3   -1.516464381945667E-3   -1.483079780395746E-3   -1.549624636187041E-3    3.567967459510723E-1   -3.428365778319289E-1
 9.937653531275000E9     4.637403921251442E-1   -1.314899368365685E-1   -1.455465037924537E-3   -1.532649240360308E-3   -1.517643943408576E-3   -1.564384482374287E-3    3.566774738909038E-1   -3.429183587541743E-1
 9.937655001299999E9     4.638031871531778E-1   -1.316487857642748E-1   -1.475018861191878E-3   -1.555982103657238E-3   -1.485070397290251E-3   -1.582825209685329E-3    3.562030804541754E-1   -3.430451244663278E-1
 9.937656471325001E9     4.637939833489017E-1   -1.319194818258503E-1   -1.469874851084260E-3   -1.607867934885433E-3   -1.509647940412017E-3   -1.587175587648443E-3    3.560402974579719E-1   -3.430379144325869E-1
 9.937657941350000E9     4.635761281046982E-1   -1.318622550025266E-1   -1.514567170605611E-3   -1.543647969247229E-3   -1.546595036064189E-3   -1.575818541515347E-3    3.560742590490025E-1   -3.433863941303467E-1
 9.937659411375000E9     4.635491108054386E-1   -1.319257494242611E-1   -1.510864690947860E-3   -1.585462018288428E-3   -1.559121161479893E-3   -1.610375868651943E-3    3.558139125817730E-1   -3.434516520256996E-1
 9.937660881400000E9     4.635819461152301E-1   -1.321476999601667E-1   -1.560050708037107E-3   -1.626226313375228E-3   -1.569028990213317E-3   -1.640797717648237E-3    3.553129574420673E-1   -3.435883364267687E-1
 9.937662351424999E9     4.636800224091879E-1   -1.322173849560800E-1   -1.572692651785266E-3   -1.641356366103307E-3   -1.583839691798474E-3   -1.644622853471406E-3    3.553111320691219E-1   -3.436768056996007E-1
 9.937663821450001E9     4.634183568469366E-1   -1.322753624569925E-1   -1.567199089175055E-3   -1.621758935409623E-3   -1.589509479711001E-3   -1.648273975820671E-3    3.552773672802614E-1   -3.439717837956644E-1
 9.937665291475000E9     4.635369698048950E-1   -1.324352710362000E-1   -1.591003478921825E-3   -1.640560596582187E-3   -1.589713587804003E-3   -1.657919114865324E-3    3.550254132615835E-1   -3.440193560689837E-1
 9.937666761500000E9     4.633336927149335E-1   -1.323481427493117E-1   -1.607394750275457E-3   -1.672756861225360E-3   -1.646412477463445E-3   -1.691636770538287E-3    3.547041732958974E-1   -3.443722616650626E-1
 9.937668231525000E9     4.634015264740834E-1   -1.327001841437330E-1   -1.609135382068407E-3   -1.664027190752999E-3   -1.671209405115855E-3   -1.685862173844262E-3    3.542553074210847E-1   -3.442802092496961E-1
 9.937669701549999E9     4.633416373830117E-1   -1.325998273480129E-1   -1.637350823197268E-3   -1.691873862076719E-3   -1.687020343509193E-3   -1.717486233785319E-3    3.540775591671582E-1   -3.446714525903568E-1
 9.937671171575001E9     4.635054789098252E-1   -1.328326122004579E-1   -1.628123142136241E-3   -1.733002145042074E-3   -1.690492052576527E-3   -1.705480741204641E-3    3.540580210347080E-1   -3.447707035489183E-1
 9.937672641600000E9     4.633056584418264E-1   -1.328909604763115E-1   -1.653844046290683E-3   -1.758169620953881E-3   -1.735043867137403E-3   -1.755436171640462E-3    3.538113942277553E-1   -3.448620789432368E-1
 9.937674111625000E9     4.632963412127952E-1   -1.328791228662169E-1   -1.668664906665243E-3   -1.746242799746767E-3   -1.728227577030493E-3   -1.770045420370032E-3    3.535180161892589E-1   -3.451024392937655E-1
 9.937675581650000E9     4.631921975229139E-1   -1.330677734780480E-1   -1.719768788856872E-3   -1.778803401437616E-3   -1.739061692889661E-3   -1.742081666333587E-3    3.532908996028459E-1   -3.452318844818010E-1
 9.937677051674999E9     4.631500971620218E-1   -1.332569673711965E-1   -1.708812779570723E-3   -1.776128096800359E-3   -1.784931171542702E-3   -1.783912620256387E-3    3.530292171298317E-1   -3.454356525155111E-1
 9.937678521700001E9     4.631598943277607E-1   -1.333369751123918E-1   -1.728100458322274E-3   -1.826604217958642E-3   -1.785853028006915E-3   -1.790791447932515E-3    3.527252590305834E-1   -3.455831946188938E-1
 9.937679991725000E9     4.632062666172154E-1   -1.333737853748836E-1   -1.752255636364329E-3   -1.812013204622892E-3   -1.803702861641483E-3   -1.841734289466543E-3    3.525062731276192E-1   -3.458801865397629E-1
 9.937681461750000E9     4.630253881680633E-1   -1.335631832384474E-1   -1.736729604686258E-3   -1.845250661771567E-3   -1.827459315448092E-3   -1.818929136024539E-3    3.522721586710144E-1   -3.460007159884461E-1
 9.937682931775000E9     4.630393789571612E-1   -1.335254251337202E-1   -1.806084891486196E-3   -1.821117591224491E-3   -1.833149382506113E-3   -1.852127521341969E-3    3.519535468764400E-1   -3.461633421873578E-1
 9.937684401799999E9     4.630209160507361E-1   -1.336098416463253E-1   -1.827643061125283E-3   -1.868890419236217E-3   -1.860372613725718E-3   -1.869185683525400E-3    3.518819489585789E-1   -3.462838462092669E-1
 9.937685871825001E9     4.629938099977154E-1   -1.338088940936451E-1   -1.818621953309739E-3   -1.919480762806005E-3   -1.883059065720551E-3   -1.876047888201654E-3    3.516121072288371E-1   -3.462690199212342E-1
 9.937687341850000E9     4.628841041470321E-1   -1.338681006883680E-1   -1.845303648827810E-3   -1.901382294001309E-3   -1.903251785548838E-3   -1.902495767752521E-3    3.513318574779384E-1   -3.467401203193701E-1
 9.937688811875000E9     4.629224676133597E-1   -1.338391586073453E-1   -1.852484191617827E-3   -1.930068765978230E-3   -1.937788979955719E-3   -1.948314298406303E-3    3.511728807343621E-1   -3.467560645604199E-1
 9.937690281900000E9     4.628072044926990E-1   -1.343100115319240E-1   -1.858460714326857E-3   -1.950568187380470E-3   -1.905331649214469E-3   -1.958002787400271E-3    3.507511555556361E-1   -3.469885107967234E-1
 9.937691751924999E9     4.630148811450186E-1   -1.341996518330743E-1   -1.937077535043926E-3   -1.945031619257338E-3   -1.940825227965784E-3   -1.962408133007367E-3    3.505282894944832E-1   -3.474305041264974E-1
 9.937693221950001E9     4.629117048007266E-1   -1.343043456517282E-1   -1.970231504436723E-3   -1.946048209240294E-3   -1.985322653780615E-3   -1.965960098290182E-3    3.503196841450434E-1   -3.474190425706553E-1
 9.937694691975000E9     4.628052838454377E-1   -1.343468885295724E-1   -1.965952802758423E-3   -1.982200370166605E-3   -2.004284990402771E-3   -1.954453853713925E-3    3.500402362711683E-1   -3.475352652341689E-1
 9.937696162000000E9     4.628132571613759E-1   -1.344544551464479E-1   -1.978445868195934E-3   -2.003165695729956E-3   -2.006637325998063E-3   -2.008881102740168E-3    3.495393304166949E-1   -3.477531367186072E-1
 9.937697632025000E9     4.627156003251338E-1   -1.345106654840508E-1   -1.977023439938668E-3   -2.014543117143605E-3   -2.070018805562974E-3   -2.052749908415901E-3    3.493542477866814E-1   -3.479985814332793E-1
 9.937699102049999E9     4.626476562304384E-1   -1.346674747573145E-1   -2.002834198563724E-3   -2.070465582781832E-3   -2.077337274432297E-3   -2.021236855583624E-3    3.492546394845829E-1   -3.481954998266013E-1
 9.937700572075001E9     4.625811955065788E-1   -1.348310556707403E-1   -2.035070681637040E-3   -2.045240370045034E-3   -2.113449223786348E-3   -2.068931882470213E-3    3.488368284661161E-1   -3.481530212648046E-1
 9.937702042100000E9     4.626376066332473E-1   -1.348706849274626E-1   -2.045112994704929E-3   -2.103765110148589E-3   -2.143392724695069E-3   -2.059975433098406E-3    3.487069397874744E-1   -3.485033757173088E-1
 9.937703512125000E9     4.627094707716317E-1   -1.350405758447550E-1   -2.067679837505737E-3   -2.107105554832263E-3   -2.141894564531456E-3   -2.106154330428299E-3    3.483010302673801E-1   -3.485110678884394E-1
 9.937704982150000E9     4.624436284973029E-1   -1.351034290537891E-1   -2.116619323212038E-3   -2.103416919206914E-3   -2.178035816420106E-3   -2.115258467702949E-3    3.479648377781784E-1   -3.489577115139543E-1
 9.937706452174999E9     4.625541162255938E-1   -1.351913549663190E-1   -2.115218790295326E-3   -2.159489465798153E-3   -2.175888429017107E-3   -2.150951347836562E-3    3.479361299857209E-1   -3.489691039232892E-1
 9.937707922200001E9     4.624388720173624E-1   -1.352348545887807E-1   -2.146508202147295E-3   -2.153075659573833E-3   -2.231166218388546E-3   -2.140950684958015E-3    3.476242104014461E-1   -3.492670626536403E-1
 9.937709392225000E9     4.623702513454775E-1   -1.354957651553996E-1   -2.147314693130834E-3   -2.144630521406859E-3   -2.283091880169555E-3   -2.142329282402306E-3    3.472307980589785E-1   -3.495077205324609E-1
 9.937710862250000E9     4.623870244993173E-1   -1.354850795459535E-1   -2.209516888278671E-3   -2.154546653820658E-3   -2.262119698544094E-3   -2.196941112048479E-3    3.470039553593749E-1   -3.495764803209539E-1
 9.937712332275000E9     4.621663104879555E-1   -1.354731877006730E-1   -2.246438652338293E-3   -2.239861111804876E-3   -2.296739345011935E-3   -2.187500278531833E-3    3.463851521535890E-1   -3.497915765703410E-1
 9.937713802299999E9     4.623312521819454E-1   -1.357518229693817E-1   -2.237793755763258E-3   -2.209730690752669E-3   -2.306646992430359E-3   -2.221369525040218E-3    3.462310555734629E-1   -3.497073018123548E-1
 9.937715272325001E9     4.620839689121726E-1   -1.356696157203489E-1   -2.266388192910502E-3   -2.244506050929706E-3   -2.366438202187553E-3   -2.257569620554533E-3    3.460459059110806E-1   -3.502581946640301E-1
 9.937716742350000E9     4.622438277075816E-1   -1.357615222998670E-1   -2.298500673476992E-3   -2.265764559408371E-3   -2.355118161848550E-3   -2.267558488333010E-3    3.456415916160530E-1   -3.503993427889630E-1
 9.937718212375000E9     4.622159779559889E-1   -1.360254840032460E-1   -2.297186689814535E-3   -2.291084964962294E-3   -2.392136053709833E-3   -2.301191002895881E-3    3.454213766513786E-1   -3.505479855679272E-1
 9.937719682400000E9     4.620261848896454E-1   -1.361877612143627E-1   -2.358893040356629E-3   -2.340481089582456E-3   -2.418883861606346E-3   -2.317604772421618E-3    3.452320230033256E-1   -3.508463020955918E-1
 9.937721152424999E9     4.621326836457432E-1   -1.361048647024990E-1   -2.376781227348671E-3   -2.333860800355094E-3   -2.457190977837826E-3   -2.323583621934422E-3    3.446558256501154E-1   -3.509650052745331E-1
 9.937722622450001E9     4.620502169169284E-1   -1.362053221490971E-1   -2.425906003323374E-3   -2.373335853661380E-3   -2.460258298025359E-3   -2.365034083530186E-3    3.445031621139159E-1   -3.511538439057429E-1
 9.937724092475000E9     4.618768969285308E-1   -1.363855319915150E-1   -2.419515771667073E-3   -2.408837880894736E-3   -2.537273171785475E-3   -2.355548248061412E-3    3.440409759165817E-1   -3.513424968538543E-1
 9.937725562500000E9     4.619531223763857E-1   -1.363929036549272E-1   -2.469145031887005E-3   -2.386086846970449E-3   -2.534203816435709E-3   -2.381124540604693E-3    3.437402072524188E-1   -3.514750066278472E-1
 9.937727032525000E9     4.619976133584469E-1   -1.364437519319491E-1   -2.506087877304465E-3   -2.409251808190844E-3   -2.557602336012151E-3   -2.407701871268782E-3    3.433554367385823E-1   -3.518011095209358E-1
 9.937728502549999E9     4.618825071035957E-1   -1.367061187506072E-1   -2.522064386745543E-3   -2.385875894947224E-3   -2.591896327220202E-3   -2.426125120887034E-3    3.429906353510658E-1   -3.519272382723074E-1
 9.937729972575001E9     4.617798267721652E-1   -1.368228281339668E-1   -2.551655889318081E-3   -2.452271489149118E-3   -2.620633228585578E-3   -2.460302752984448E-3    3.428276861333892E-1   -3.522309525967787E-1
 9.937731442600000E9     4.618461838283304E-1   -1.367187649593983E-1   -2.567834236861511E-3   -2.488029273364866E-3   -2.677576298713991E-3   -2.508121046472480E-3    3.424973390698491E-1   -3.523820623246087E-1
 9.937732912625000E9     4.617112887412648E-1   -1.369644260406468E-1   -2.632038428868884E-3   -2.521803047098903E-3   -2.694628535955157E-3   -2.494424755558681E-3    3.420594362771477E-1   -3.526686513345309E-1
 9.937734382650000E9     4.616588831985766E-1   -1.371024957468114E-1   -2.633859099384269E-3   -2.514528906570419E-3   -2.718859886540110E-3   -2.537726067426707E-3    3.418100523597814E-1   -3.528008010480820E-1
 9.937735852674999E9     4.616995655292517E-1   -1.370613540304423E-1   -2.688098963685926E-3   -2.538235105552688E-3   -2.722756541944275E-3   -2.555356409653784E-3    3.411957831078118E-1   -3.530310922386535E-1
 9.937737322700001E9     4.616114179465233E-1   -1.371603071608853E-1   -2.728758682131545E-3   -2.592736362482034E-3   -2.793125020627728E-3   -2.566859016639225E-3    3.410473348618771E-1   -3.533014135521249E-1
 9.937738792725000E9     4.616772705811926E-1   -1.372776271816896E-1   -2.739382553248591E-3   -2.584623076476180E-3   -2.828469383980769E-3   -2.611281231640795E-3    3.407604994119245E-1   -3.535260054956814E-1
 9.937740262750000E9     4.616049108388952E-1   -1.375616637887652E-1   -2.771929925382534E-3   -2.644175534051528E-3   -2.847822890549132E-3   -2.641447153900744E-3    3.402287994774322E-1   -3.536494722412468E-1
 9.937741732775000E9     4.614490276747394E-1   -1.375155751866002E-1   -2.831810899983995E-3   -2.670208029407667E-3   -2.890161774089218E-3   -2.663570738323629E-3    3.399141692334974E-1   -3.538196538397780E-1
 9.937743202799999E9     4.615632645481439E-1   -1.376174073492122E-1   -2.868487935146634E-3   -2.689972127238841E-3   -2.937571680716058E-3   -2.672095351129925E-3    3.395780206947969E-1   -3.540938379468860E-1
 9.937744672825001E9     4.615487673428783E-1   -1.377206047789229E-1   -2.889460330715748E-3   -2.714123180683042E-3   -2.954840280277361E-3   -2.733756140143193E-3    3.391723783024062E-1   -3.544458244769050E-1
 9.937746142850000E9     4.614776979710501E-1   -1.378475655117636E-1   -2.899429917045223E-3   -2.713752502594925E-3   -2.988943148205229E-3   -2.730623113982976E-3    3.386407874130065E-1   -3.546009122175597E-1
 9.937747612875000E9     4.613757585440857E-1   -1.380643155474708E-1   -2.954818562478265E-3   -2.778351359081493E-3   -3.047757659253123E-3   -2.725043281080541E-3    3.384298640366752E-1   -3.549423126847234E-1
 9.937749082900000E9     4.613647800143797E-1   -1.380092003454088E-1   -2.995169335701162E-3   -2.790075550409530E-3   -3.109326113125134E-3   -2.787455211859316E-3    3.380688431833995E-1   -3.552013200287709E-1
 9.937750552924999E9     4.614646439686775E-1   -1.381178493015896E-1   -3.037801650327199E-3   -2.812505379671020E-3   -3.132616141755580E-3   -2.799659073653422E-3    3.374463967185495E-1   -3.552594904435439E-1
 9.937752022950001E9     4.613901509927691E-1   -1.382532969728736E-1   -3.075283433463053E-3   -2.825090497402654E-3   -3.178907367785722E-3   -2.846757884688749E-3    3.370339944387689E-1   -3.554308584145281E-1
 9.937753492975000E9     4.611833015287705E-1   -1.385081519924770E-1   -3.096252169508873E-3   -2.841195858936900E-3   -3.217498918297149E-3   -2.851525634833825E-3    3.366752425706621E-1   -3.557287505027671E-1
 9.937754963000000E9     4.612609987264892E-1   -1.385046830143718E-1   -3.169826957494950E-3   -2.888147357219328E-3   -3.251172499225232E-3   -2.883311032651046E-3    3.362571593330100E-1   -3.560251459533697E-1
 9.937756433025000E9     4.612019009799265E-1   -1.385621133822491E-1   -3.212972179517168E-3   -2.920242202422007E-3   -3.290004966702783E-3   -2.922496539731217E-3    3.357902759616087E-1   -3.562707550024324E-1
 9.937757903049999E9     4.611132833452767E-1   -1.385720300160585E-1   -3.236724166860280E-3   -2.959159722255437E-3   -3.341234279339873E-3   -2.937089306132856E-3    3.353290515432290E-1   -3.565233663909033E-1
 9.937759373075001E9     4.611641558550883E-1   -1.388636822414049E-1   -3.266004235085657E-3   -2.946756610498130E-3   -3.388414843780906E-3   -2.984334864391392E-3    3.349393124921803E-1   -3.566853369142522E-1
 9.937760843100000E9     4.610538013817085E-1   -1.388235067719343E-1   -3.313044984852530E-3   -2.999454669976729E-3   -3.430821132259251E-3   -3.016244406928804E-3    3.343335833395373E-1   -3.568331159888037E-1
 9.937762313125000E9     4.610934975162603E-1   -1.388838940596658E-1   -3.331029229276835E-3   -3.052917049558899E-3   -3.472028938986689E-3   -3.059418617486327E-3    3.337693439817396E-1   -3.572942015286991E-1
 9.937763783150000E9     4.609917509718220E-1   -1.390746537747211E-1   -3.451883581712863E-3   -3.096122954684498E-3   -3.514861671824313E-3   -3.079246845997544E-3    3.334266154514368E-1   -3.574064652916157E-1
 9.937765253174999E9     4.608673396620757E-1   -1.391170784405653E-1   -3.472012455411043E-3   -3.112423883302523E-3   -3.528830255135984E-3   -3.125349313654312E-3    3.331046002261676E-1   -3.577001482979624E-1
 9.937766723200001E9     4.609066132638213E-1   -1.393027680502850E-1   -3.477964440767483E-3   -3.119105090347208E-3   -3.620829962157516E-3   -3.116609813242629E-3    3.325901746861571E-1   -3.578594871769070E-1
 9.937768193225000E9     4.608553686361035E-1   -1.393830356422726E-1   -3.553746969821008E-3   -3.206879130201117E-3   -3.630952697908892E-3   -3.151765557713306E-3    3.321418072753470E-1   -3.581506120453457E-1
 9.937769663250000E9     4.608456509645601E-1   -1.394972975026551E-1   -3.580618996817775E-3   -3.211871046004751E-3   -3.703770376437724E-3   -3.200152253178765E-3    3.314790264243236E-1   -3.586913868625504E-1
