#  HZ   S   RI   R     50.00 
! Rohde & Schwarz Vector Network Analyzer 
! Rohde-Schwarz,ZNB20-2Port,1311601062101988,3.16
! Created: UTC 3/20/2024, 11:18:55 PM
! freq[Hz]                re:S11                  im:S11                  re:S21                  im:S21                  re:S12                  im:S12                  re:S22                  im:S22
 9.937659822000000E9     4.636511358735642E-1   -1.319577503131080E-1   -1.429275355250718E-3   -1.550766689050280E-3   -1.493978938992623E-3   -1.563665875037450E-3    3.562563618824379E-1   -3.431714493862268E-1
 9.937661218500000E9     4.637025631387983E-1   -1.320491946933139E-1   -1.487642272805024E-3   -1.578396624122297E-3   -1.512459461204631E-3   -1.575215987963635E-3    3.561080811481595E-1   -3.432350311228830E-1
 9.937662615000000E9     4.636342835797291E-1   -1.322014049264765E-1   -1.474001728490291E-3   -1.569173462411605E-3   -1.532216339558395E-3   -1.609162129530489E-3    3.555524414471152E-1   -3.435621388996257E-1
 9.937664011500000E9     4.636663596030431E-1   -1.322535718301038E-1   -1.466969772665027E-3   -1.564421572291594E-3   -1.506573257040497E-3   -1.622226747737352E-3    3.555997975562153E-1   -3.438730411535847E-1
 9.937665408000000E9     4.636305238751092E-1   -1.322352972379759E-1   -1.497787504548683E-3   -1.619989393977766E-3   -1.552541229043171E-3   -1.626604359154786E-3    3.554375746371226E-1   -3.436980010707190E-1
 9.937666804500000E9     4.635216733572798E-1   -1.324766188661700E-1   -1.522679961537967E-3   -1.636746355533012E-3   -1.552673064711648E-3   -1.619158664557462E-3    3.551350009847030E-1   -3.439786025029178E-1
 9.937668201000000E9     4.634600253442466E-1   -1.325010605644814E-1   -1.528053628915547E-3   -1.633693129459767E-3   -1.571077482606773E-3   -1.632693276674406E-3    3.551358261666229E-1   -3.439999996723407E-1
 9.937669597500000E9     4.633332869770500E-1   -1.325866471134471E-1   -1.534855004825524E-3   -1.623021391030415E-3   -1.585546211939815E-3   -1.684106263020140E-3    3.546899727570922E-1   -3.442991366181963E-1
 9.937670994000000E9     4.632169389115537E-1   -1.328535370958044E-1   -1.532053151354511E-3   -1.671502815074534E-3   -1.620504827402269E-3   -1.690981193793731E-3    3.546537041314957E-1   -3.445280231967360E-1
 9.937672390500000E9     4.632895186775461E-1   -1.327588640197451E-1   -1.565361526157527E-3   -1.689013355545900E-3   -1.613339426074620E-3   -1.673207973983406E-3    3.543937042636551E-1   -3.446367421698094E-1
 9.937673787000000E9     4.634188614532575E-1   -1.329450222822314E-1   -1.605849915142662E-3   -1.701200398487136E-3   -1.618099474969473E-3   -1.729302718708791E-3    3.541476055535107E-1   -3.448425288256751E-1
 9.937675183500000E9     4.631429045885534E-1   -1.329021832284735E-1   -1.596575514067189E-3   -1.721698182124200E-3   -1.652588625421052E-3   -1.668101225149280E-3    3.541661457796980E-1   -3.450265630967040E-1
 9.937676580000000E9     4.631383219887815E-1   -1.331492565073672E-1   -1.596833495320869E-3   -1.682848248481022E-3   -1.663858288449753E-3   -1.711997934777009E-3    3.537555383171347E-1   -3.451531802411871E-1
 9.937677976500000E9     4.631731818292848E-1   -1.331701438831546E-1   -1.645231627028271E-3   -1.750913448753997E-3   -1.689149857936895E-3   -1.752001017501220E-3    3.534273300391085E-1   -3.453018181453121E-1
 9.937679373000000E9     4.632416329713583E-1   -1.332180442682288E-1   -1.673778853224811E-3   -1.770583021253134E-3   -1.701117898994086E-3   -1.757852671663498E-3    3.532771430059085E-1   -3.452782924018963E-1
 9.937680769500000E9     4.630821683140113E-1   -1.334336860745631E-1   -1.666035443987736E-3   -1.770165849416457E-3   -1.721075141874094E-3   -1.773587347471360E-3    3.531349939358213E-1   -3.455622579189551E-1
 9.937682166000000E9     4.630823648655067E-1   -1.334176760286079E-1   -1.682691031767952E-3   -1.816770155836894E-3   -1.738552692223774E-3   -1.781894766687313E-3    3.527303857963959E-1   -3.457854239534829E-1
 9.937683562500000E9     4.631060008583602E-1   -1.336079171899442E-1   -1.714701549655188E-3   -1.768138749451635E-3   -1.768253550747623E-3   -1.807354389094221E-3    3.526722229191900E-1   -3.456796854598707E-1
 9.937684959000000E9     4.630475130313461E-1   -1.334620160113886E-1   -1.721712449006345E-3   -1.778549434307491E-3   -1.748378961924412E-3   -1.827687155436872E-3    3.523656355572260E-1   -3.460983310318664E-1
 9.937686355500000E9     4.629732028386976E-1   -1.338092818005896E-1   -1.721832833641296E-3   -1.828449732002629E-3   -1.752977341334195E-3   -1.799720034183870E-3    3.521857405812268E-1   -3.463038227123830E-1
 9.937687752000000E9     4.629537833637391E-1   -1.338830676811222E-1   -1.728003121893936E-3   -1.868782124564683E-3   -1.807984387467690E-3   -1.825070417094892E-3    3.518106085045549E-1   -3.463420525308410E-1
 9.937689148500000E9     4.628450614504359E-1   -1.337918802236684E-1   -1.749593085773071E-3   -1.849353002650516E-3   -1.846210970998051E-3   -1.844126589084020E-3    3.516683912016004E-1   -3.466504010160578E-1
 9.937690545000000E9     4.628500896369127E-1   -1.340875961846955E-1   -1.775387079329641E-3   -1.884220295545157E-3   -1.862032838810440E-3   -1.865831602845836E-3    3.515357856186864E-1   -3.467304116312110E-1
 9.937691941500000E9     4.627467095106853E-1   -1.341812185794250E-1   -1.829836808030390E-3   -1.890347785137893E-3   -1.839404278159337E-3   -1.881181770996934E-3    3.512645730153975E-1   -3.469873388554166E-1
 9.937693338000000E9     4.627300594868788E-1   -1.342519260633839E-1   -1.829063126922396E-3   -1.927447069185365E-3   -1.876773559815857E-3   -1.915781305498858E-3    3.509439486895671E-1   -3.471376512751033E-1
 9.937694734500000E9     4.626727249464024E-1   -1.343939962970143E-1   -1.806543393710970E-3   -1.920823800405485E-3   -1.885998596646006E-3   -1.937400382664635E-3    3.508377626269069E-1   -3.471805164262216E-1
 9.937696131000000E9     4.627419028213794E-1   -1.343392546114301E-1   -1.876569780900718E-3   -1.918263403749031E-3   -1.934121312093917E-3   -1.941892868472223E-3    3.504848009607366E-1   -3.473510188749958E-1
 9.937697527500000E9     4.627272546131671E-1   -1.345290880954382E-1   -1.885640900801994E-3   -1.944134088820637E-3   -1.928874120442135E-3   -1.956308866817160E-3    3.503233891571729E-1   -3.475116659010233E-1
 9.937698924000000E9     4.626056060897836E-1   -1.345787130665338E-1   -1.890891889422266E-3   -1.996285793038825E-3   -1.976667691541751E-3   -1.974279662160078E-3    3.501988131687288E-1   -3.475364489503106E-1
 9.937700320500000E9     4.627124925575959E-1   -1.347625842764884E-1   -1.924084466094510E-3   -1.983997292938475E-3   -1.967127280456307E-3   -1.990984040804766E-3    3.496885233037680E-1   -3.478430724409559E-1
 9.937701717000000E9     4.625165086050828E-1   -1.348191078478064E-1   -1.938306167330592E-3   -1.978778073312319E-3   -1.990879581411881E-3   -2.016405567396332E-3    3.496110705574101E-1   -3.480440082943305E-1
 9.937703113500000E9     4.625232210446972E-1   -1.348880266265623E-1   -1.944962119088454E-3   -2.036545454020486E-3   -2.039489997306571E-3   -2.004777940919556E-3    3.491516749315182E-1   -3.483435797982669E-1
 9.937704510000000E9     4.624607722414167E-1   -1.350609495775669E-1   -2.006045830367744E-3   -2.027513274977421E-3   -2.048607241341044E-3   -2.042226051893233E-3    3.490879313573048E-1   -3.483762541676611E-1
 9.937705906500000E9     4.625882046582548E-1   -1.350467410322807E-1   -2.031355859618527E-3   -2.064069574149446E-3   -2.082862433496330E-3   -2.062172385004737E-3    3.488142125120028E-1   -3.485415114832768E-1
 9.937707303000000E9     4.624533902281167E-1   -1.351010851240512E-1   -2.040558835041533E-3   -2.061166618877954E-3   -2.104269784450138E-3   -2.109374146482271E-3    3.487027999761514E-1   -3.488598577324906E-1
 9.937708699500000E9     4.624581537888846E-1   -1.352026469028811E-1   -2.040404260943409E-3   -2.083756825532207E-3   -2.136468201821720E-3   -2.078323596851011E-3    3.482747607711141E-1   -3.489774995883706E-1
 9.937710096000000E9     4.622983706402700E-1   -1.353821351199757E-1   -2.072067699094201E-3   -2.114402983010045E-3   -2.129013226178263E-3   -2.104962574457186E-3    3.479128148942315E-1   -3.491541402049584E-1
 9.937711492500000E9     4.624090121964603E-1   -1.354423680599979E-1   -2.081182626659993E-3   -2.130128122019971E-3   -2.181201225112689E-3   -2.155284214579464E-3    3.477834633236582E-1   -3.492387821452923E-1
 9.937712889000000E9     4.624192231009023E-1   -1.356395457835381E-1   -2.123598340695322E-3   -2.129682821535439E-3   -2.180694393572598E-3   -2.153419617282862E-3    3.476279363801575E-1   -3.494727903818664E-1
 9.937714285500000E9     4.622046599039635E-1   -1.356189800223392E-1   -2.172112481938243E-3   -2.134096477222247E-3   -2.217674617226079E-3   -2.174120142633210E-3    3.471887967743424E-1   -3.495793675389747E-1
 9.937715682000000E9     4.623497772012130E-1   -1.357097741619509E-1   -2.173510590079368E-3   -2.181990934345556E-3   -2.245362151610664E-3   -2.176759531717297E-3    3.469423547229470E-1   -3.499477096761843E-1
 9.937717078500000E9     4.622663313516397E-1   -1.357382034944586E-1   -2.173421885853131E-3   -2.213094436217824E-3   -2.282199757940228E-3   -2.221190895955509E-3    3.466645270907076E-1   -3.498987528530083E-1
 9.937718475000000E9     4.621145947542497E-1   -1.359117318912003E-1   -2.201471551741897E-3   -2.205791907173625E-3   -2.263502254116497E-3   -2.195511846328395E-3    3.462620253703421E-1   -3.500882326030115E-1
 9.937719871500000E9     4.620625581495501E-1   -1.359406158996271E-1   -2.214789361084019E-3   -2.233847730121849E-3   -2.295732613162231E-3   -2.233231677821139E-3    3.459704909935975E-1   -3.504050086771648E-1
 9.937721268000000E9     4.620512672407624E-1   -1.361154726795464E-1   -2.252038303244572E-3   -2.258524810198087E-3   -2.316424125701049E-3   -2.271271898579883E-3    3.458764094913376E-1   -3.505516410756192E-1
 9.937722664500000E9     4.620648438366183E-1   -1.361512987245568E-1   -2.286619203189166E-3   -2.243114960349630E-3   -2.342939805090611E-3   -2.273955368813534E-3    3.453746209812450E-1   -3.509208607267285E-1
 9.937724061000000E9     4.620791966044807E-1   -1.363111770698517E-1   -2.352569863900565E-3   -2.318277810363026E-3   -2.387892692095360E-3   -2.272258967566237E-3    3.450801677286054E-1   -3.510584986556793E-1
 9.937725457500000E9     4.620184017939875E-1   -1.363928057538537E-1   -2.371914909966194E-3   -2.290446570515056E-3   -2.400039532589289E-3   -2.327656423529400E-3    3.448420800914581E-1   -3.512363759974927E-1
 9.937726854000000E9     4.619481939627408E-1   -1.365074904336770E-1   -2.365859489134255E-3   -2.311284777508870E-3   -2.448987397554165E-3   -2.336365469593172E-3    3.447000231040189E-1   -3.515180957396643E-1
 9.937728250500000E9     4.619014304900877E-1   -1.366682785049270E-1   -2.407677830432232E-3   -2.373823456266936E-3   -2.444862883004703E-3   -2.359004558812013E-3    3.443695514529800E-1   -3.515597960807093E-1
 9.937729647000000E9     4.619323563705335E-1   -1.367880891244744E-1   -2.414387169582998E-3   -2.388003020954753E-3   -2.483026887633375E-3   -2.366777879341703E-3    3.439708860351145E-1   -3.518210480163795E-1
 9.937731043500000E9     4.618296439632178E-1   -1.368659860855160E-1   -2.433785869629577E-3   -2.360313402129965E-3   -2.521012323275000E-3   -2.441736512940307E-3    3.437422069120367E-1   -3.518746805437983E-1
 9.937732440000000E9     4.618461128397394E-1   -1.366812525132738E-1   -2.466271840951364E-3   -2.420950995208814E-3   -2.498062450688831E-3   -2.435133214411861E-3    3.433681581699047E-1   -3.521445106020099E-1
 9.937733836500000E9     4.617676845722364E-1   -1.368978225036424E-1   -2.482526329606129E-3   -2.389889671701674E-3   -2.574220264346105E-3   -2.466281342714814E-3    3.432328774025884E-1   -3.522352563948435E-1
 9.937735233000000E9     4.616608626022803E-1   -1.369546220296426E-1   -2.521805172848839E-3   -2.466114294075250E-3   -2.580609297904147E-3   -2.475780219569712E-3    3.426836994704954E-1   -3.525727075116314E-1
 9.937736629500000E9     4.616875639862797E-1   -1.372457807361264E-1   -2.551027707723416E-3   -2.468682352310592E-3   -2.619880888096518E-3   -2.468668068831734E-3    3.424738132604800E-1   -3.529651518939524E-1
 9.937738026000000E9     4.615517503229443E-1   -1.372224269352725E-1   -2.555703264457119E-3   -2.486878986113113E-3   -2.636560390194935E-3   -2.508321017634687E-3    3.421091425244852E-1   -3.529557111901124E-1
 9.937739422500000E9     4.616500987239586E-1   -1.373704839282509E-1   -2.609465529414959E-3   -2.526388760282560E-3   -2.695620143628407E-3   -2.538572452907916E-3    3.418516224121355E-1   -3.530483903023346E-1
 9.937740819000000E9     4.615818917430715E-1   -1.375165290827581E-1   -2.637787775405399E-3   -2.551685497412501E-3   -2.729149916811748E-3   -2.560567304592877E-3    3.413669300940081E-1   -3.534945631922572E-1
 9.937742215500000E9     4.615704053773753E-1   -1.374568584745346E-1   -2.660006909624484E-3   -2.601709142499876E-3   -2.760930856913668E-3   -2.591359834299829E-3    3.411013245116244E-1   -3.535828110567951E-1
 9.937743612000000E9     4.614418962742461E-1   -1.376646127261373E-1   -2.679680156440318E-3   -2.613033518852538E-3   -2.812393043901973E-3   -2.611284493727692E-3    3.405499565791821E-1   -3.538070797118436E-1
 9.937745008500000E9     4.615340566282292E-1   -1.377153870093094E-1   -2.716332712064296E-3   -2.646423420686207E-3   -2.800303203349417E-3   -2.606970506666710E-3    3.403699848535003E-1   -3.541164204098794E-1
 9.937746405000000E9     4.615417929416285E-1   -1.378407339060342E-1   -2.805197945312695E-3   -2.675653350353998E-3   -2.851135449935858E-3   -2.640416828376716E-3    3.399173296122538E-1   -3.542366970688793E-1
 9.937747801500000E9     4.614798189140513E-1   -1.379452397036293E-1   -2.805920421447714E-3   -2.682192522824858E-3   -2.863402008120802E-3   -2.674078298034291E-3    3.396752295094745E-1   -3.545753872508436E-1
 9.937749198000000E9     4.613294767137427E-1   -1.380758487118877E-1   -2.825578694805366E-3   -2.713079050400027E-3   -2.897626386583511E-3   -2.710484535177829E-3    3.392987415307083E-1   -3.546497834144403E-1
 9.937750594500000E9     4.612538079456696E-1   -1.381269800718611E-1   -2.857023419568881E-3   -2.743999248085458E-3   -2.993360960018898E-3   -2.721228214553497E-3    3.388121125527339E-1   -3.547636267373619E-1
 9.937751991000000E9     4.612358367891699E-1   -1.382460365678433E-1   -2.890723190688809E-3   -2.695386031025124E-3   -2.983373456293232E-3   -2.754032028555847E-3    3.386111809268845E-1   -3.550603707270461E-1
 9.937753387500000E9     4.613006134340444E-1   -1.382686309876651E-1   -2.917969312956264E-3   -2.781866990888852E-3   -3.043832512215581E-3   -2.767572608563152E-3    3.382776409580041E-1   -3.552247807199400E-1
 9.937754784000000E9     4.610973609389712E-1   -1.384662554849548E-1   -2.933416075094077E-3   -2.784543364807612E-3   -3.057935254470005E-3   -2.815472374314595E-3    3.376654835384258E-1   -3.555270307348736E-1
 9.937756180500000E9     4.611982212964091E-1   -1.384320885659812E-1   -3.021843291568154E-3   -2.863384088353594E-3   -3.086836819049839E-3   -2.851568542277947E-3    3.374371366615810E-1   -3.556426821606463E-1
 9.937757577000000E9     4.611516769692821E-1   -1.385419506231620E-1   -3.050567519045829E-3   -2.868492554042318E-3   -3.123292111411879E-3   -2.856451772044028E-3    3.369769650735758E-1   -3.559256052691420E-1
 9.937758973500000E9     4.610316223220804E-1   -1.387902007716991E-1   -3.040827184279397E-3   -2.867696785800474E-3   -3.168328937282857E-3   -2.855282455332600E-3    3.366101448338135E-1   -3.561665792120949E-1
 9.937760370000000E9     4.612369386052149E-1   -1.388387547150765E-1   -3.127430664619806E-3   -2.878004400096022E-3   -3.192491068697573E-3   -2.905608072415129E-3    3.362295403531166E-1   -3.561905552030456E-1
 9.937761766500000E9     4.609480442468804E-1   -1.389359831076771E-1   -3.108748175683054E-3   -2.913176491922138E-3   -3.225817764204375E-3   -2.957592189631683E-3    3.358366729945707E-1   -3.565506248895225E-1
 9.937763163000000E9     4.609297758069006E-1   -1.389875400164332E-1   -3.180580649795633E-3   -2.934958136728534E-3   -3.281344716388285E-3   -2.969206632543218E-3    3.353573510952548E-1   -3.568978427870204E-1
 9.937764559500000E9     4.610162375170626E-1   -1.390997331834499E-1   -3.234698648208553E-3   -2.992164883531299E-3   -3.325265810901533E-3   -2.977195927022138E-3    3.348670259838898E-1   -3.568111727520165E-1
 9.937765956000000E9     4.609685844983358E-1   -1.390292816575164E-1   -3.284590625924815E-3   -3.044634372520894E-3   -3.371803590648408E-3   -2.989728577262833E-3    3.346554437256738E-1   -3.572977561893857E-1
 9.937767352500000E9     4.608578419269371E-1   -1.392566459433536E-1   -3.299330546937764E-3   -3.030559859683272E-3   -3.416282627907126E-3   -3.048592876653874E-3    3.341267964865521E-1   -3.575656960763823E-1
 9.937768749000000E9     4.608592349301576E-1   -1.393869594024125E-1   -3.346478181462604E-3   -3.066221012655973E-3   -3.437458900597501E-3   -3.055511783229928E-3    3.336772049500138E-1   -3.577789916472180E-1
 9.937770145500000E9     4.607769310625945E-1   -1.394307073934569E-1   -3.387883045659333E-3   -3.093374418956274E-3   -3.498584954881422E-3   -3.087490188608579E-3    3.332772980488165E-1   -3.580928310954795E-1
 9.937771542000000E9     4.607496707832408E-1   -1.395002079662206E-1   -3.427565526538291E-3   -3.124091743780729E-3   -3.528965267774907E-3   -3.116633185583214E-3    3.327073706726025E-1   -3.581588159813430E-1
 9.937772938500000E9     4.608355982304247E-1   -1.397071258021094E-1   -3.470286740675991E-3   -3.138764793011925E-3   -3.584154296283584E-3   -3.170654916688002E-3    3.324254210167216E-1   -3.584417795762134E-1
 9.937774335000000E9     4.606630827487102E-1   -1.396998578652670E-1   -3.538938339842089E-3   -3.186747715190218E-3   -3.650923151902337E-3   -3.190232660464741E-3    3.319107098942756E-1   -3.587149564988857E-1
 9.937775731500000E9     4.606234725655796E-1   -1.398557430367510E-1   -3.540916403469770E-3   -3.241387284574756E-3   -3.665797713822481E-3   -3.207368193993567E-3    3.313906018583998E-1   -3.589262886289437E-1
 9.937777128000000E9     4.606433070469156E-1   -1.400811167077324E-1   -3.612351155589956E-3   -3.260017092409305E-3   -3.722112101054247E-3   -3.266396923627135E-3    3.308545605875816E-1   -3.593387440504586E-1
 9.937778524500000E9     4.605805027514173E-1   -1.401756788378991E-1   -3.653831704398332E-3   -3.273072545860218E-3   -3.760058437236372E-3   -3.291155974044795E-3    3.304375718147007E-1   -3.596095372399948E-1
 9.937779921000000E9     4.605634082328656E-1   -1.402039900141841E-1   -3.715183449886030E-3   -3.342086881915461E-3   -3.837913720530837E-3   -3.302031145592083E-3    3.299656731534225E-1   -3.597278554225596E-1
 9.937781317500000E9     4.605972772395725E-1   -1.402793762476655E-1   -3.765894978163916E-3   -3.327164980247888E-3   -3.873745408624873E-3   -3.358950445013162E-3    3.292355324278107E-1   -3.599868196645952E-1
 9.937782714000000E9     4.605264882023136E-1   -1.402819794123977E-1   -3.829868853824313E-3   -3.365919082062706E-3   -3.921506403086700E-3   -3.371472366542174E-3    3.290106325079614E-1   -3.603170547384629E-1
 9.937784110500000E9     4.605660445818081E-1   -1.404145460162712E-1   -3.845653321821030E-3   -3.418193882929940E-3   -3.982158573178376E-3   -3.418268797896664E-3    3.283162901708339E-1   -3.605392497364948E-1
 9.937785507000000E9     4.603624009340367E-1   -1.404291005346418E-1   -3.928599665301603E-3   -3.410282977294579E-3   -4.030761350791238E-3   -3.436851216571616E-3    3.277862230516842E-1   -3.607690794688617E-1
