#  HZ   S   RI   R     50.00 
! Rohde & Schwarz Vector Network Analyzer 
! Rohde-Schwarz,ZNB20-2Port,1311601062101988,3.16
! Created: UTC 3/20/2024, 11:19:07 PM
! freq[Hz]                re:S11                  im:S11                  re:S21                  im:S21                  re:S12                  im:S12                  re:S22                  im:S22
 9.937671857000000E9     4.634942946358772E-1   -1.326653325058489E-1   -1.518278151236360E-3   -1.618803938101043E-3   -1.560374395700041E-3   -1.633055252167963E-3    3.551207207402108E-1   -3.442688202904316E-1
 9.937673211725000E9     4.632359700997169E-1   -1.327578698275418E-1   -1.515699409197912E-3   -1.666957405009249E-3   -1.583801795265746E-3   -1.651006230476823E-3    3.546384862559951E-1   -3.444113477380836E-1
 9.937674566450001E9     4.632626140933896E-1   -1.328381244350699E-1   -1.545281822077504E-3   -1.684569065965792E-3   -1.598592184943530E-3   -1.675060048974967E-3    3.545603730849444E-1   -3.445031650587514E-1
 9.937675921174999E9     4.632914106349523E-1   -1.330048155818107E-1   -1.551775224975885E-3   -1.651509283286695E-3   -1.606722967131564E-3   -1.689450110705101E-3    3.542560428995419E-1   -3.448595016024003E-1
 9.937677275900000E9     4.632315468424219E-1   -1.331717082403928E-1   -1.583422461107952E-3   -1.707379970165089E-3   -1.639688983370676E-3   -1.697504013413735E-3    3.540410820150702E-1   -3.449608407718849E-1
 9.937678630625000E9     4.632782018149186E-1   -1.331480051151101E-1   -1.602147521634121E-3   -1.704613886394334E-3   -1.659866348066896E-3   -1.710026427345240E-3    3.540012634952817E-1   -3.451892242982013E-1
 9.937679985350000E9     4.631795119700061E-1   -1.333015312707249E-1   -1.578349345300840E-3   -1.728429299689012E-3   -1.664953440975538E-3   -1.744436924642610E-3    3.536793418239367E-1   -3.454290497426183E-1
 9.937681340075001E9     4.631118929337127E-1   -1.334132261684875E-1   -1.642894525320600E-3   -1.710075569777598E-3   -1.657822534383187E-3   -1.751253411274169E-3    3.535933992111731E-1   -3.455131588691728E-1
 9.937682694799999E9     4.630432042603406E-1   -1.334687175097852E-1   -1.655881432607291E-3   -1.742706797075523E-3   -1.672058510326652E-3   -1.746616565488141E-3    3.534471651046441E-1   -3.453483353876143E-1
 9.937684049525000E9     4.631751625378341E-1   -1.335903952874077E-1   -1.675898037126158E-3   -1.770618754706402E-3   -1.717269127004324E-3   -1.770345890206567E-3    3.529808366658553E-1   -3.458115364298504E-1
 9.937685404250000E9     4.630969503138414E-1   -1.335565335059042E-1   -1.690957554299705E-3   -1.748204708308009E-3   -1.703223387850585E-3   -1.768884470466607E-3    3.527933854555263E-1   -3.459948290469499E-1
 9.937686758975000E9     4.629554061296000E-1   -1.337701774762211E-1   -1.694806811413053E-3   -1.775005352730255E-3   -1.748001279175450E-3   -1.760591974099107E-3    3.526280806788947E-1   -3.459770840306936E-1
 9.937688113700001E9     4.629631603105756E-1   -1.338258651988227E-1   -1.729709252006092E-3   -1.786238174439159E-3   -1.742853742643958E-3   -1.872384916208542E-3    3.524376827551262E-1   -3.461025074724849E-1
 9.937689468424999E9     4.629493355989899E-1   -1.339302609839839E-1   -1.700797780927593E-3   -1.832546829939266E-3   -1.782788519344607E-3   -1.840022465721555E-3    3.520964959710838E-1   -3.463698015738679E-1
 9.937690823150000E9     4.629798532906154E-1   -1.340629338755501E-1   -1.738991280236406E-3   -1.811235619038702E-3   -1.784336107635534E-3   -1.847850399633409E-3    3.519541693949704E-1   -3.464381371012139E-1
 9.937692177875000E9     4.628098846413864E-1   -1.341458562237098E-1   -1.764375863538596E-3   -1.839722306780306E-3   -1.815178491386325E-3   -1.839906075128736E-3    3.518779047466674E-1   -3.467398243322820E-1
 9.937693532600000E9     4.628878277204118E-1   -1.341607862498928E-1   -1.784862140796519E-3   -1.860985945017262E-3   -1.855305392708012E-3   -1.858344289220534E-3    3.515650630759081E-1   -3.469108721417528E-1
 9.937694887325001E9     4.627251008110304E-1   -1.343456996201364E-1   -1.791959897623582E-3   -1.870940857193148E-3   -1.821315144128079E-3   -1.869187256422819E-3    3.512063305598578E-1   -3.469245749981513E-1
 9.937696242049999E9     4.628154661479224E-1   -1.345139164803953E-1   -1.771898796477307E-3   -1.885555115187047E-3   -1.869746764223888E-3   -1.889597640446957E-3    3.511980363032619E-1   -3.471384018202055E-1
 9.937697596775000E9     4.628902685133150E-1   -1.344989247849595E-1   -1.828627267351400E-3   -1.936434792939420E-3   -1.869409718249581E-3   -1.919705596177712E-3    3.509311328729185E-1   -3.473954294530504E-1
 9.937698951500000E9     4.627618776859876E-1   -1.345428842660719E-1   -1.833348313142695E-3   -1.919423774686230E-3   -1.903849308729623E-3   -1.954738681821078E-3    3.504271694846970E-1   -3.475127643503000E-1
 9.937700306225000E9     4.626941969116269E-1   -1.345587738314843E-1   -1.855460492453226E-3   -1.942855447511434E-3   -1.917752289472634E-3   -1.966098560979741E-3    3.503429057978959E-1   -3.475385325665173E-1
 9.937701660950001E9     4.626396913938097E-1   -1.345856181848582E-1   -1.883386911648399E-3   -1.933029085866270E-3   -1.959851042275365E-3   -1.960345508434357E-3    3.500412782027058E-1   -3.477949030825232E-1
 9.937703015674999E9     4.626741723453019E-1   -1.348793832567801E-1   -1.899158916680065E-3   -2.001764211819770E-3   -1.963392371239853E-3   -1.972446189024366E-3    3.498244175665994E-1   -3.479104706962999E-1
 9.937704370400000E9     4.626751898081881E-1   -1.349376721156859E-1   -1.906937174322964E-3   -1.983942432791046E-3   -1.984046227563274E-3   -1.976615823645909E-3    3.497694693540119E-1   -3.482487662361302E-1
 9.937705725125000E9     4.625422996410428E-1   -1.350846262587631E-1   -1.938093991786701E-3   -2.001202383104436E-3   -1.990140401781817E-3   -2.021218111932817E-3    3.494013246458225E-1   -3.484024557228687E-1
 9.937707079850000E9     4.624445402334488E-1   -1.350110731124425E-1   -1.959681336709093E-3   -2.012527858652471E-3   -2.018992412790079E-3   -2.026784026018458E-3    3.492440272600306E-1   -3.485026464549705E-1
 9.937708434575001E9     4.623725228526274E-1   -1.352655584545880E-1   -1.945412079657090E-3   -2.049197298972819E-3   -2.020053900063444E-3   -2.068021789084125E-3    3.490042753136762E-1   -3.487053859475014E-1
 9.937709789299999E9     4.623482817178163E-1   -1.351929192774012E-1   -1.989541100627163E-3   -2.059432819355647E-3   -2.078023745723092E-3   -2.084169986781834E-3    3.487842993014155E-1   -3.487166547710930E-1
 9.937711144025000E9     4.623807876017815E-1   -1.354614095744695E-1   -2.012076546200263E-3   -2.081367202106072E-3   -2.044670034764513E-3   -2.089657030687435E-3    3.484820746232717E-1   -3.490358224828305E-1
 9.937712498750000E9     4.623590805345981E-1   -1.355461542994334E-1   -2.051538068464211E-3   -2.113365626491566E-3   -2.109846480247900E-3   -2.068820252160979E-3    3.480925968897150E-1   -3.491395388147455E-1
 9.937713853475000E9     4.622107736023778E-1   -1.355724374580484E-1   -2.045134521361364E-3   -2.105429419287216E-3   -2.103425090031466E-3   -2.108048841233282E-3    3.478830881717891E-1   -3.493256092533015E-1
 9.937715208200001E9     4.623006437744890E-1   -1.357318453269950E-1   -2.084935852745978E-3   -2.169197905357678E-3   -2.160027772130193E-3   -2.140165837126332E-3    3.476385359245004E-1   -3.496360733704454E-1
 9.937716562924999E9     4.621315826241287E-1   -1.358054325825819E-1   -2.109547551909271E-3   -2.135499107585658E-3   -2.160245096917487E-3   -2.158910605887923E-3    3.473274060658617E-1   -3.498091815826905E-1
 9.937717917650000E9     4.621711508705917E-1   -1.358066643479510E-1   -2.128929135654130E-3   -2.173163924058290E-3   -2.175490206904246E-3   -2.153011186736877E-3    3.472491537804230E-1   -3.500314326815046E-1
 9.937719272375000E9     4.621170736075854E-1   -1.359343210779803E-1   -2.128609332860294E-3   -2.162569607898364E-3   -2.214744718133053E-3   -2.210438962915386E-3    3.470558046560041E-1   -3.501749136478276E-1
 9.937720627100000E9     4.621577806798677E-1   -1.361138758046279E-1   -2.154032361923848E-3   -2.204487574572615E-3   -2.255191118489246E-3   -2.196797517089072E-3    3.466576417994933E-1   -3.502054979830058E-1
 9.937721981825001E9     4.620548814447635E-1   -1.359803225253655E-1   -2.197315101785420E-3   -2.235219259819275E-3   -2.256506418311078E-3   -2.235478132381705E-3    3.464017551570259E-1   -3.503990825346001E-1
 9.937723336549999E9     4.621673167640176E-1   -1.364150657479198E-1   -2.214057066624444E-3   -2.216145273372324E-3   -2.264923512082039E-3   -2.240594091122734E-3    3.459945669539553E-1   -3.505845933333767E-1
 9.937724691275000E9     4.621508248704662E-1   -1.363250191202427E-1   -2.233788505272393E-3   -2.271249182652965E-3   -2.303193773096220E-3   -2.248381671078332E-3    3.458173775155557E-1   -3.507861709776541E-1
 9.937726046000000E9     4.619312252627396E-1   -1.363698688126326E-1   -2.245788257671574E-3   -2.283399777100129E-3   -2.320296383507494E-3   -2.293372157728332E-3    3.455772139315347E-1   -3.508668206917551E-1
 9.937727400725000E9     4.620628972652229E-1   -1.365656849035508E-1   -2.301167993442947E-3   -2.300919915085843E-3   -2.340250781518829E-3   -2.331829360197651E-3    3.452546256436179E-1   -3.511171936827490E-1
 9.937728755450001E9     4.619153840172800E-1   -1.365392987541311E-1   -2.300903242322674E-3   -2.322292511007731E-3   -2.375335942663872E-3   -2.319339924337480E-3    3.448398648577090E-1   -3.512449390890470E-1
 9.937730110174999E9     4.618717968987439E-1   -1.365068764896786E-1   -2.357482131939381E-3   -2.320835324436284E-3   -2.407535778414799E-3   -2.327538486994976E-3    3.446762786175741E-1   -3.515947929417031E-1
 9.937731464900000E9     4.619005310198211E-1   -1.367643036083239E-1   -2.362141897966436E-3   -2.363443641705549E-3   -2.436016708600409E-3   -2.345704280135494E-3    3.443048633080781E-1   -3.517702618239283E-1
 9.937732819625000E9     4.617354729813201E-1   -1.368950969564161E-1   -2.397238412426802E-3   -2.384301595955390E-3   -2.457182981773457E-3   -2.403307567891143E-3    3.441452975507131E-1   -3.520850966862350E-1
 9.937734174350000E9     4.617481312793071E-1   -1.369181029019412E-1   -2.390560687167266E-3   -2.382896139171775E-3   -2.506797281305023E-3   -2.368682574976587E-3    3.436751396340610E-1   -3.519955987705415E-1
 9.937735529075001E9     4.618663685346096E-1   -1.370236673890211E-1   -2.470402519243159E-3   -2.449022624106890E-3   -2.524141082379103E-3   -2.400384695888731E-3    3.433856181558926E-1   -3.522139296635559E-1
 9.937736883799999E9     4.617802526825797E-1   -1.371170328680362E-1   -2.469736572394602E-3   -2.458308807656138E-3   -2.539865682738136E-3   -2.458965978791821E-3    3.431918918052063E-1   -3.524518342628449E-1
 9.937738238525000E9     4.616822982770835E-1   -1.372816029393451E-1   -2.490210262702068E-3   -2.481027648182505E-3   -2.585529569835882E-3   -2.492415200155146E-3    3.428712377749526E-1   -3.527045794903524E-1
 9.937739593250000E9     4.616114659989146E-1   -1.373183572138643E-1   -2.536930365509992E-3   -2.442736054747458E-3   -2.595121319501487E-3   -2.473739364237493E-3    3.426078155943039E-1   -3.528237981929269E-1
 9.937740947975000E9     4.615617140144331E-1   -1.373933589144682E-1   -2.504156067409706E-3   -2.512217271200358E-3   -2.628556752810883E-3   -2.499216156009916E-3    3.423356388447085E-1   -3.531330165160651E-1
 9.937742302700001E9     4.616801168072066E-1   -1.375127751602883E-1   -2.569614507573935E-3   -2.529356340073697E-3   -2.654454915035039E-3   -2.545454829186782E-3    3.418390379981161E-1   -3.534303951986228E-1
 9.937743657424999E9     4.614727628768237E-1   -1.376864904798410E-1   -2.597539077374320E-3   -2.540323161315419E-3   -2.669377003695953E-3   -2.572659582505723E-3    3.416315107402350E-1   -3.533414504606340E-1
 9.937745012150000E9     4.616252063136138E-1   -1.376915310722809E-1   -2.611553331172009E-3   -2.591826412937112E-3   -2.729564034638663E-3   -2.598577777121682E-3    3.413488319357650E-1   -3.540160379778736E-1
 9.937746366875000E9     4.614381214619995E-1   -1.378195809081811E-1   -2.639558923493895E-3   -2.556436500278378E-3   -2.739349799489993E-3   -2.589281026909063E-3    3.408532198754566E-1   -3.539616743236113E-1
 9.937747721600000E9     4.614136406396249E-1   -1.378441607858066E-1   -2.684960672015441E-3   -2.615166932487899E-3   -2.756576471875985E-3   -2.629342473287562E-3    3.407171570471262E-1   -3.540486149359059E-1
 9.937749076325001E9     4.613827638954340E-1   -1.379162597149786E-1   -2.715303938626686E-3   -2.656138972858945E-3   -2.797899757100617E-3   -2.632895955069288E-3    3.403542251333606E-1   -3.543703370714957E-1
 9.937750431049999E9     4.614564581896191E-1   -1.380087441087393E-1   -2.762681253012543E-3   -2.663595440828654E-3   -2.808119716529840E-3   -2.677849513954386E-3    3.398360800789396E-1   -3.542804430559480E-1
 9.937751785775000E9     4.613225393394002E-1   -1.380860361407427E-1   -2.745096804619576E-3   -2.702289033068904E-3   -2.860540480329619E-3   -2.703279229233145E-3    3.398073544915837E-1   -3.546859328649241E-1
 9.937753140500000E9     4.613573830195158E-1   -1.381838495491371E-1   -2.803350831703128E-3   -2.677019228424107E-3   -2.899915584198662E-3   -2.709834783132446E-3    3.392506121922028E-1   -3.548771582704752E-1
 9.937754495225000E9     4.612458016099988E-1   -1.383484332798021E-1   -2.862224801934741E-3   -2.749271310365121E-3   -2.901552556046261E-3   -2.752304491773908E-3    3.388924234114681E-1   -3.551665404404978E-1
 9.937755849950001E9     4.611597999956610E-1   -1.384008899951985E-1   -2.904629847851526E-3   -2.753042569878265E-3   -2.950013841964493E-3   -2.746000828471723E-3    3.387416570560836E-1   -3.553338432902818E-1
 9.937757204674999E9     4.612837735613153E-1   -1.385368273861475E-1   -2.907175625617839E-3   -2.799574722230770E-3   -3.012728099765930E-3   -2.785510261593574E-3    3.382163018277681E-1   -3.555349164174068E-1
 9.937758559400000E9     4.611500061257983E-1   -1.386667066907187E-1   -2.921323198045288E-3   -2.789422118244026E-3   -3.003806048286186E-3   -2.828706751855638E-3    3.377080531095257E-1   -3.558538520149568E-1
 9.937759914125000E9     4.611569922292042E-1   -1.387291555977334E-1   -2.979098421016051E-3   -2.822427092413453E-3   -3.075836469481304E-3   -2.842847014573724E-3    3.373317910913255E-1   -3.559275442265992E-1
 9.937761268850000E9     4.610430783630290E-1   -1.387256230249039E-1   -2.971893489188883E-3   -2.858928955682539E-3   -3.073700144310151E-3   -2.858576138103630E-3    3.369746566787816E-1   -3.560733225965508E-1
 9.937762623575001E9     4.610015587415045E-1   -1.387550524670095E-1   -3.065401188477799E-3   -2.918130549252427E-3   -3.133137981386034E-3   -2.901483628800224E-3    3.367144286490572E-1   -3.563398647591844E-1
 9.937763978299999E9     4.610831450632964E-1   -1.389882830307909E-1   -3.063641027700595E-3   -2.939007536635577E-3   -3.179031714753029E-3   -2.916968452827998E-3    3.362991499625956E-1   -3.567586978420882E-1
 9.937765333025000E9     4.609558092709599E-1   -1.390146307405797E-1   -3.114054003285723E-3   -2.913227588234736E-3   -3.242642044004514E-3   -2.940122616549887E-3    3.356687905197269E-1   -3.569266315323681E-1
 9.937766687750000E9     4.609754423664453E-1   -1.391607559256806E-1   -3.172221515854984E-3   -2.948494877751717E-3   -3.243786234606717E-3   -2.959467751358843E-3    3.355256304690730E-1   -3.572253216096013E-1
 9.937768042475000E9     4.609047669988963E-1   -1.391191617624967E-1   -3.199282792924450E-3   -3.018919896472138E-3   -3.323763958155091E-3   -3.001929602742091E-3    3.351028889940567E-1   -3.573483343583456E-1
 9.937769397200001E9     4.607565653627055E-1   -1.393601352802355E-1   -3.237796314848914E-3   -3.029266041385517E-3   -3.360212832977728E-3   -3.010836844323021E-3    3.345499167383980E-1   -3.575825907655263E-1
 9.937770751924999E9     4.609647630814478E-1   -1.395931556146336E-1   -3.226497352248245E-3   -3.064317957501317E-3   -3.389547644897478E-3   -3.011453628719127E-3    3.341635814746733E-1   -3.578691798399484E-1
 9.937772106650000E9     4.608398273533814E-1   -1.394327674312421E-1   -3.319607061844607E-3   -3.096272281014269E-3   -3.401760921892403E-3   -3.090420749304772E-3    3.339530389963002E-1   -3.580306732599874E-1
 9.937773461375000E9     4.608248863438608E-1   -1.395398916941422E-1   -3.365919241292540E-3   -3.127393264071365E-3   -3.427646072148750E-3   -3.080126584345092E-3    3.332679857179647E-1   -3.581953488028548E-1
 9.937774816100000E9     4.607084588713503E-1   -1.396956298402122E-1   -3.392101735982883E-3   -3.096940466354118E-3   -3.489258513644066E-3   -3.146617666920570E-3    3.328202713409875E-1   -3.585668353187151E-1
 9.937776170825001E9     4.607023563654512E-1   -1.398254691656105E-1   -3.441060975948108E-3   -3.199895248897805E-3   -3.549842560559122E-3   -3.184013579662886E-3    3.324830068771576E-1   -3.585642494609445E-1
 9.937777525549999E9     4.606897597817172E-1   -1.399414893123503E-1   -3.493721367827936E-3   -3.201931126044000E-3   -3.593800103640622E-3   -3.187640085447789E-3    3.319233504090046E-1   -3.589521298720127E-1
 9.937778880275000E9     4.606548895116848E-1   -1.398535215975646E-1   -3.518136675113416E-3   -3.247582369467306E-3   -3.624640689512835E-3   -3.201888024936332E-3    3.317049488805136E-1   -3.591966654115135E-1
 9.937780235000000E9     4.605549358713905E-1   -1.401506568976910E-1   -3.576433206848968E-3   -3.265693369497727E-3   -3.648989806203712E-3   -3.255168682778710E-3    3.311927499203716E-1   -3.593367346445310E-1
 9.937781589725000E9     4.605845085108973E-1   -1.401321197415002E-1   -3.643523471116462E-3   -3.299626580195311E-3   -3.705772845056951E-3   -3.238748274311060E-3    3.309636461145481E-1   -3.596496115547790E-1
 9.937782944450001E9     4.606319746260596E-1   -1.401942398384757E-1   -3.664562056430014E-3   -3.332467353624318E-3   -3.754309485421489E-3   -3.344490309207873E-3    3.301645563293475E-1   -3.599162179327871E-1
 9.937784299174999E9     4.604458064514970E-1   -1.404035737155071E-1   -3.723024466632707E-3   -3.341436284992509E-3   -3.808140100643222E-3   -3.338025071629874E-3    3.296637167573421E-1   -3.603029788113642E-1
 9.937785653900000E9     4.604818223734083E-1   -1.405210684897406E-1   -3.780273340442498E-3   -3.361359611197499E-3   -3.851910999212804E-3   -3.388121567018908E-3    3.291962859062616E-1   -3.604037803663174E-1
 9.937787008625000E9     4.604938066240316E-1   -1.405100885290229E-1   -3.802861140404057E-3   -3.387715776021096E-3   -3.886117456855511E-3   -3.397526125835739E-3    3.288497139797564E-1   -3.606540731619764E-1
 9.937788363350000E9     4.603661687812947E-1   -1.407359355775196E-1   -3.853842081771872E-3   -3.419584631957787E-3   -3.964668790537490E-3   -3.405974315129575E-3    3.282981529121411E-1   -3.607959639467074E-1
 9.937789718075001E9     4.603715718226020E-1   -1.408418980982601E-1   -3.880364190633967E-3   -3.482998029223425E-3   -4.029815695416747E-3   -3.456223146297459E-3    3.276514710469743E-1   -3.612067492636459E-1
 9.937791072799999E9     4.603697379101163E-1   -1.409663410959911E-1   -3.924695341300984E-3   -3.523071128841552E-3   -4.092344649366099E-3   -3.505464191455609E-3    3.271417117207848E-1   -3.614749570805284E-1
 9.937792427525000E9     4.602633007956245E-1   -1.409271770225167E-1   -3.992781885033311E-3   -3.510595440674510E-3   -4.124021803105215E-3   -3.558948932337699E-3    3.267207697063929E-1   -3.616639162018748E-1
 9.937793782250000E9     4.601972777578449E-1   -1.409807464006112E-1   -4.083078826486826E-3   -3.565764888575387E-3   -4.160531214535234E-3   -3.585255648988223E-3    3.258629383810935E-1   -3.619061485697429E-1
