#  HZ   S   RI   R     50.00 
! Rohde & Schwarz Vector Network Analyzer 
! Rohde-Schwarz,ZNB20-2Port,1311601062101988,3.16
! Created: UTC 3/20/2024, 11:19:14 PM
! freq[Hz]                re:S11                  im:S11                  re:S21                  im:S21                  re:S12                  im:S12                  re:S22                  im:S22
 9.937675562000000E9     4.633080184162989E-1   -1.329439312925333E-1   -1.535465159693444E-3   -1.667283761805110E-3   -1.561615510382183E-3   -1.627280332610239E-3    3.546037003662590E-1   -3.445822631336206E-1
 9.937676911125000E9     4.633415552645841E-1   -1.330588321868778E-1   -1.538782034239985E-3   -1.671275270972663E-3   -1.588033428492424E-3   -1.682915033922010E-3    3.546057545825599E-1   -3.448046203169827E-1
 9.937678260250000E9     4.632637436892143E-1   -1.330352229651618E-1   -1.537606212647844E-3   -1.685336716438613E-3   -1.619101777582157E-3   -1.693946756885021E-3    3.542014728571277E-1   -3.448161498190216E-1
 9.937679609375000E9     4.631703602339354E-1   -1.332162353967921E-1   -1.575538355822167E-3   -1.719522315776189E-3   -1.634714862450653E-3   -1.697127592792453E-3    3.538663683027627E-1   -3.450623401091600E-1
 9.937680958500000E9     4.632152087917155E-1   -1.333876042410732E-1   -1.593700592464179E-3   -1.674661679309781E-3   -1.653436944485843E-3   -1.705256019236754E-3    3.539874082524374E-1   -3.452543671182243E-1
 9.937682307625000E9     4.632045665913173E-1   -1.334159594578623E-1   -1.610308206792722E-3   -1.695646990719492E-3   -1.652924157292996E-3   -1.732742314252752E-3    3.536979939558118E-1   -3.454604949122028E-1
 9.937683656750000E9     4.631105944297794E-1   -1.334931191056029E-1   -1.620405112472667E-3   -1.742383011527484E-3   -1.669189099749329E-3   -1.717602627358649E-3    3.533794225594115E-1   -3.456486434360785E-1
 9.937685005875000E9     4.630331262601105E-1   -1.335732378935742E-1   -1.627383029854154E-3   -1.767181193391383E-3   -1.704640809583991E-3   -1.742535856241334E-3    3.531432771679808E-1   -3.455335759041015E-1
 9.937686355000000E9     4.629718700923747E-1   -1.336339378829168E-1   -1.642982301946930E-3   -1.769596117803157E-3   -1.695530793504119E-3   -1.762974943323896E-3    3.530563349576292E-1   -3.456752288902781E-1
 9.937687704125000E9     4.629209150360535E-1   -1.337128006183012E-1   -1.662328302389145E-3   -1.764459247089309E-3   -1.711659796950537E-3   -1.790754036645386E-3    3.530285611289969E-1   -3.458810708147269E-1
 9.937689053250000E9     4.628315241763463E-1   -1.338611418179189E-1   -1.654492306612436E-3   -1.807407755565205E-3   -1.750808818996709E-3   -1.796479612082525E-3    3.526164761274792E-1   -3.460119951550119E-1
 9.937690402375000E9     4.628178133279736E-1   -1.338824259598717E-1   -1.712211825286999E-3   -1.791563447949225E-3   -1.723079952002697E-3   -1.810357011441980E-3    3.522838806525047E-1   -3.463600022058970E-1
 9.937691751500000E9     4.629380760467505E-1   -1.341188307621456E-1   -1.709332209767330E-3   -1.810524438466845E-3   -1.786491649274978E-3   -1.818973914150230E-3    3.521230316448701E-1   -3.465626317988695E-1
 9.937693100625000E9     4.628145312011663E-1   -1.341624333830078E-1   -1.747317457835318E-3   -1.861448583761030E-3   -1.726425141661109E-3   -1.839925197204115E-3    3.518647118316780E-1   -3.466933864944657E-1
 9.937694449750000E9     4.629129569844394E-1   -1.343052748420349E-1   -1.756969429216261E-3   -1.849643837818968E-3   -1.774924032144163E-3   -1.867865311887958E-3    3.516753290421584E-1   -3.469009298672310E-1
 9.937695798875000E9     4.627652721024527E-1   -1.342694681010643E-1   -1.779237052088008E-3   -1.901585340250541E-3   -1.833011907866305E-3   -1.852621119181386E-3    3.515324138002626E-1   -3.470111846450321E-1
 9.937697148000000E9     4.627751743223466E-1   -1.344471276251372E-1   -1.764714094638488E-3   -1.891795830606204E-3   -1.807073308924062E-3   -1.855752392745423E-3    3.511437718214886E-1   -3.471204974335453E-1
 9.937698497125000E9     4.627341159618199E-1   -1.345207207190240E-1   -1.823472527460504E-3   -1.918194667285993E-3   -1.826479603389607E-3   -1.920002797716364E-3    3.509853001350565E-1   -3.471781345304667E-1
 9.937699846250000E9     4.627639814992068E-1   -1.345854557258861E-1   -1.814516804669234E-3   -1.936637761472834E-3   -1.902767134587354E-3   -1.906521565310807E-3    3.506914093369730E-1   -3.474164780857721E-1
 9.937701195375000E9     4.626097690834013E-1   -1.346926557198092E-1   -1.838479720456053E-3   -1.941016922792336E-3   -1.881595414986929E-3   -1.935219662759984E-3    3.507264804205122E-1   -3.477193310049915E-1
 9.937702544500000E9     4.625289841758780E-1   -1.347812729831849E-1   -1.819628254350772E-3   -1.949627680169001E-3   -1.895376587403394E-3   -1.928915968029173E-3    3.503984686702611E-1   -3.477477841453351E-1
 9.937703893625000E9     4.625463332745955E-1   -1.349576131969914E-1   -1.862404433602280E-3   -1.969137814569368E-3   -1.901780883522270E-3   -1.969709428003271E-3    3.501939291409584E-1   -3.480808729780104E-1
 9.937705242750000E9     4.624814521884032E-1   -1.350611969006168E-1   -1.893985917415474E-3   -2.026629086711196E-3   -1.945437034998210E-3   -2.000635373180516E-3    3.498423417331408E-1   -3.481800271753099E-1
 9.937706591875000E9     4.625483237668160E-1   -1.348637772752338E-1   -1.943768435668118E-3   -2.014247363506801E-3   -1.947726842377425E-3   -1.988774507600823E-3    3.495400981179795E-1   -3.481362795402591E-1
 9.937707941000000E9     4.624526765175634E-1   -1.350639572792441E-1   -1.942669352527547E-3   -2.029507392026107E-3   -1.976670874454076E-3   -2.011937495946896E-3    3.494552828666090E-1   -3.484893050261826E-1
 9.937709290125000E9     4.624163320491834E-1   -1.351503773739661E-1   -1.934772145071804E-3   -2.038389161724822E-3   -2.025395308674639E-3   -2.021733934560503E-3    3.491241276383616E-1   -3.485878257449311E-1
 9.937710639250000E9     4.623113933955736E-1   -1.352997171376168E-1   -1.961048742662480E-3   -2.020497139840565E-3   -2.026843837265760E-3   -2.053659330472669E-3    3.487694917894268E-1   -3.487805769182842E-1
 9.937711988375000E9     4.622567528770216E-1   -1.354585462692263E-1   -2.008194213006772E-3   -2.062381936554837E-3   -2.015118711249735E-3   -2.079313668953858E-3    3.486739462462732E-1   -3.491389230054452E-1
 9.937713337500000E9     4.623093212918693E-1   -1.354407109344913E-1   -1.996717671839939E-3   -2.060502085726937E-3   -2.090566892106214E-3   -2.055241744516093E-3    3.482732743539318E-1   -3.491136699750348E-1
 9.937714686625000E9     4.621744833483049E-1   -1.355180707533247E-1   -2.019696092142417E-3   -2.108508746264381E-3   -2.089269214932920E-3   -2.095036366196868E-3    3.481450657737136E-1   -3.493226128913965E-1
 9.937716035750000E9     4.623481116825935E-1   -1.357049807084180E-1   -2.025278266008452E-3   -2.120211142098311E-3   -2.118315940622923E-3   -2.100118610724860E-3    3.478525361797893E-1   -3.494763278894305E-1
 9.937717384875000E9     4.623387871007269E-1   -1.357103287446762E-1   -2.087053180895965E-3   -2.138909427781934E-3   -2.098474220341583E-3   -2.145897208215936E-3    3.476818694164340E-1   -3.495526963423527E-1
 9.937718734000000E9     4.622114372492161E-1   -1.356887546324994E-1   -2.103342885499611E-3   -2.169571658858485E-3   -2.147156612756562E-3   -2.168731788806531E-3    3.474249287718570E-1   -3.498431897481888E-1
 9.937720083125000E9     4.622173400394627E-1   -1.359562090484009E-1   -2.121917929717101E-3   -2.164438358488505E-3   -2.165193588313022E-3   -2.142021233635534E-3    3.472499642661899E-1   -3.500684545696339E-1
 9.937721432250000E9     4.621357952862341E-1   -1.360565342264503E-1   -2.156428778488693E-3   -2.165343841701228E-3   -2.193642759005826E-3   -2.198955618836929E-3    3.469997285066560E-1   -3.502063613964710E-1
 9.937722781375000E9     4.622273906425182E-1   -1.361582275859714E-1   -2.157092078602600E-3   -2.222791673855551E-3   -2.208006546304324E-3   -2.233987330414897E-3    3.464771382176990E-1   -3.504707537931313E-1
 9.937724130500000E9     4.619760402505270E-1   -1.361454666652216E-1   -2.178115395738965E-3   -2.231432620445866E-3   -2.256999464120463E-3   -2.223143756867021E-3    3.463056028473028E-1   -3.505801812703634E-1
 9.937725479625000E9     4.620082572838757E-1   -1.363769474266225E-1   -2.230887784612112E-3   -2.230601764538096E-3   -2.287565116354377E-3   -2.257986149243876E-3    3.460258271912199E-1   -3.505305532623418E-1
 9.937726828750000E9     4.620095385800354E-1   -1.363945401109497E-1   -2.236137868763479E-3   -2.273803515602740E-3   -2.284754853422295E-3   -2.289398226617393E-3    3.457592020110852E-1   -3.508433149424686E-1
 9.937728177875000E9     4.618731535622688E-1   -1.364272405524174E-1   -2.266941461273294E-3   -2.300248834671975E-3   -2.316187715398033E-3   -2.278674488819563E-3    3.454535853991826E-1   -3.510113783078305E-1
 9.937729527000000E9     4.618786500489929E-1   -1.366126409606491E-1   -2.247432388631295E-3   -2.299660481291273E-3   -2.317174921030333E-3   -2.280431225267208E-3    3.452235389838248E-1   -3.511261749752480E-1
 9.937730876125000E9     4.618830830403448E-1   -1.367343250498367E-1   -2.302056482989469E-3   -2.301897778316216E-3   -2.373871548266112E-3   -2.305410800384388E-3    3.448649005681593E-1   -3.515128204046225E-1
 9.937732225250000E9     4.618683674993599E-1   -1.368644432890873E-1   -2.308842265021954E-3   -2.342640679674087E-3   -2.369551457236326E-3   -2.322166334073545E-3    3.445329800139850E-1   -3.516828393379182E-1
 9.937733574375000E9     4.617349137300191E-1   -1.368560536326209E-1   -2.359023403685229E-3   -2.359307248084789E-3   -2.410982291908689E-3   -2.338718475381127E-3    3.442161607811621E-1   -3.517565685894741E-1
 9.937734923500000E9     4.617202340328889E-1   -1.369875917785784E-1   -2.374063730397591E-3   -2.361555365731080E-3   -2.462307120902535E-3   -2.386684504873561E-3    3.440435995198723E-1   -3.520870792903307E-1
 9.937736272625000E9     4.617440993388134E-1   -1.369485389611533E-1   -2.386055959447412E-3   -2.391595818622220E-3   -2.450353953210803E-3   -2.405033735968418E-3    3.438062249651246E-1   -3.521522188921977E-1
 9.937737621750000E9     4.616093283086862E-1   -1.371352054360453E-1   -2.411464221715399E-3   -2.408321667454667E-3   -2.506893604288585E-3   -2.391553701874694E-3    3.434743668322599E-1   -3.525347947949334E-1
 9.937738970875000E9     4.616840065739135E-1   -1.372361927194308E-1   -2.427325841130541E-3   -2.414645439647622E-3   -2.549796157011565E-3   -2.474817856809502E-3    3.431467587589904E-1   -3.527504416222775E-1
 9.937740320000000E9     4.616267687720593E-1   -1.373712643193227E-1   -2.489857420046392E-3   -2.453067758661305E-3   -2.563141264699581E-3   -2.484845982718527E-3    3.429324116418144E-1   -3.529947219212115E-1
 9.937741669125000E9     4.615493135548218E-1   -1.374339398832919E-1   -2.496813652624151E-3   -2.472910640898389E-3   -2.587761391180647E-3   -2.494236750607366E-3    3.424216633947492E-1   -3.529828051240994E-1
 9.937743018250000E9     4.616017215211456E-1   -1.375608456774561E-1   -2.501345054636886E-3   -2.511005290926112E-3   -2.610306154985705E-3   -2.510732245072368E-3    3.421522266955322E-1   -3.531011364954924E-1
 9.937744367375000E9     4.614427909401593E-1   -1.375312357941919E-1   -2.526514268900886E-3   -2.533581791282662E-3   -2.642340536664376E-3   -2.532967458444178E-3    3.419131214483004E-1   -3.534621010497361E-1
 9.937745716500000E9     4.614609992207554E-1   -1.377198814140713E-1   -2.568803435380448E-3   -2.540753543320328E-3   -2.636551870432578E-3   -2.531607605490872E-3    3.415416588858378E-1   -3.536764128739212E-1
 9.937747065625000E9     4.614139802620243E-1   -1.377148577792728E-1   -2.620943508617885E-3   -2.570599434284431E-3   -2.685438915510029E-3   -2.573248194532419E-3    3.413644586704482E-1   -3.537636557901532E-1
 9.937748414750000E9     4.615240359674386E-1   -1.378443190823734E-1   -2.638333646939586E-3   -2.601962032868551E-3   -2.741528280294012E-3   -2.578888293982807E-3    3.408519321289792E-1   -3.539656513211238E-1
 9.937749763875000E9     4.613437447299240E-1   -1.380157608837410E-1   -2.669998198924572E-3   -2.591197766199304E-3   -2.749219753842280E-3   -2.608885919610905E-3    3.404469846625698E-1   -3.541138715938246E-1
 9.937751113000000E9     4.613773652241402E-1   -1.380689985712686E-1   -2.691185682480492E-3   -2.660609965543061E-3   -2.774858774492985E-3   -2.626834548853976E-3    3.403818079729696E-1   -3.545105983632788E-1
 9.937752462125000E9     4.613980735585466E-1   -1.382334997766069E-1   -2.697385069545810E-3   -2.668145578898913E-3   -2.855880027882266E-3   -2.669310623114761E-3    3.398976972885129E-1   -3.545927370638000E-1
 9.937753811250000E9     4.611913174206641E-1   -1.382774901541928E-1   -2.746241395584064E-3   -2.679521602283283E-3   -2.845286654461196E-3   -2.692711049252772E-3    3.396484874674204E-1   -3.547730722241711E-1
 9.937755160375000E9     4.612261948928318E-1   -1.383775286979700E-1   -2.784969027713489E-3   -2.688823205742690E-3   -2.893964451650059E-3   -2.723422785609291E-3    3.392828901882336E-1   -3.551875874478426E-1
 9.937756509500000E9     4.610219628622271E-1   -1.385556561680956E-1   -2.812794995875205E-3   -2.741059124032668E-3   -2.882391695086379E-3   -2.765776621814438E-3    3.389565886678233E-1   -3.552962328988872E-1
 9.937757858625000E9     4.612206005036136E-1   -1.384250183859586E-1   -2.861599638149599E-3   -2.780473147271422E-3   -2.928748045028759E-3   -2.747404313145961E-3    3.387330707185525E-1   -3.553892894150432E-1
 9.937759207750000E9     4.612089498145735E-1   -1.386740346083541E-1   -2.882995105615931E-3   -2.765901636471925E-3   -2.984084311396011E-3   -2.772149997948455E-3    3.381128714725528E-1   -3.557629827242546E-1
 9.937760556875000E9     4.611518481404698E-1   -1.386698210213904E-1   -2.936289324519803E-3   -2.796462637589544E-3   -3.007898966976350E-3   -2.783799267835883E-3    3.379194406691365E-1   -3.559436411431751E-1
 9.937761906000000E9     4.608978629350522E-1   -1.387766070117109E-1   -2.946021344151051E-3   -2.826444663239704E-3   -3.048750272979742E-3   -2.861271268760275E-3    3.375408733854139E-1   -3.560032807501228E-1
 9.937763255125000E9     4.611030518291985E-1   -1.388551881641454E-1   -2.986837664846202E-3   -2.857754548545118E-3   -3.052695278298006E-3   -2.907607409905168E-3    3.372056850770501E-1   -3.563760307045842E-1
 9.937764604250000E9     4.610994535917148E-1   -1.389976616868730E-1   -3.063214523037074E-3   -2.893881682317197E-3   -3.114947730636930E-3   -2.910392144155653E-3    3.367106444782825E-1   -3.565864083412821E-1
 9.937765953375000E9     4.610062202625179E-1   -1.391270362712722E-1   -3.060733014086719E-3   -2.896713179166918E-3   -3.122148876807544E-3   -2.910253792213878E-3    3.363303133301894E-1   -3.566076227461377E-1
 9.937767302500000E9     4.608721754378939E-1   -1.391510859187131E-1   -3.071376189250425E-3   -2.941410636623430E-3   -3.175471571348953E-3   -2.943211930599846E-3    3.359408250403992E-1   -3.570131273281856E-1
 9.937768651625000E9     4.609260397698693E-1   -1.393485695043619E-1   -3.150620327176128E-3   -3.001729383817826E-3   -3.259398280455637E-3   -2.978912714426555E-3    3.354429428220918E-1   -3.570124598548599E-1
 9.937770000750000E9     4.608767283488984E-1   -1.394334596970841E-1   -3.160719141624627E-3   -2.964648203594124E-3   -3.281297728318749E-3   -3.011824485151136E-3    3.351037005899823E-1   -3.573918065879934E-1
 9.937771349875000E9     4.607442244202160E-1   -1.394599290441528E-1   -3.208357665797422E-3   -3.031255744376280E-3   -3.289071842312091E-3   -3.030171528977813E-3    3.348728543559177E-1   -3.574938734850112E-1
 9.937772699000000E9     4.606564604755023E-1   -1.395862224272609E-1   -3.220884987075016E-3   -3.079455083023609E-3   -3.341647413935318E-3   -3.078255842371315E-3    3.343728469363416E-1   -3.579381127380084E-1
 9.937774048125000E9     4.606791047926491E-1   -1.394637832186253E-1   -3.279527475855882E-3   -3.086616429089582E-3   -3.374731576914080E-3   -3.066715887688027E-3    3.338491772950682E-1   -3.581153968729867E-1
 9.937775397250000E9     4.607183898380564E-1   -1.396803869246661E-1   -3.314599653421480E-3   -3.107312921580515E-3   -3.416478684857629E-3   -3.114049557949422E-3    3.334541068715910E-1   -3.583870912604314E-1
 9.937776746375000E9     4.605840849390505E-1   -1.397148869126431E-1   -3.352982108265911E-3   -3.150713146507725E-3   -3.478612949045056E-3   -3.118354141808973E-3    3.329684815657695E-1   -3.586452105400311E-1
 9.937778095500000E9     4.607825138986597E-1   -1.398930694575811E-1   -3.405501265829703E-3   -3.167164543846984E-3   -3.509941375383196E-3   -3.173937916221750E-3    3.325908857684144E-1   -3.587702947586449E-1
 9.937779444625000E9     4.606072561127202E-1   -1.400966213801383E-1   -3.471912411975161E-3   -3.181480779447610E-3   -3.570983034339397E-3   -3.178946446538632E-3    3.322126284242545E-1   -3.590564150476200E-1
 9.937780793750000E9     4.605351487539106E-1   -1.400601562493280E-1   -3.482187680759688E-3   -3.180501268713475E-3   -3.579468381808135E-3   -3.228711084349029E-3    3.317880512203676E-1   -3.592040182779310E-1
 9.937782142875000E9     4.604099324716129E-1   -1.402973108821522E-1   -3.530219254879829E-3   -3.247175880263358E-3   -3.613257480089026E-3   -3.241839329015778E-3    3.312605697026637E-1   -3.594298365242099E-1
 9.937783492000000E9     4.604374991749218E-1   -1.402382042490801E-1   -3.574484468695130E-3   -3.275851076837621E-3   -3.673305467732930E-3   -3.300675372862957E-3    3.308684428945402E-1   -3.597811173715099E-1
 9.937784841125000E9     4.605115371549310E-1   -1.402588060764203E-1   -3.664487095736900E-3   -3.328606030537365E-3   -3.730667822592546E-3   -3.298915175970028E-3    3.302598098280454E-1   -3.601608822299147E-1
 9.937786190250000E9     4.604333750946475E-1   -1.403731194860325E-1   -3.656887603426626E-3   -3.325728507272246E-3   -3.768538711262566E-3   -3.329787377950213E-3    3.297620587894562E-1   -3.603172353841375E-1
 9.937787539375000E9     4.603170449820387E-1   -1.405662301642659E-1   -3.723169887855727E-3   -3.376257537472502E-3   -3.828591399333418E-3   -3.399197749797953E-3    3.294167969509365E-1   -3.607412371474151E-1
 9.937788888500000E9     4.602880038838081E-1   -1.405710477865037E-1   -3.749488481848308E-3   -3.405023676998749E-3   -3.854178371898101E-3   -3.400908721193149E-3    3.288553558446853E-1   -3.608261579844420E-1
 9.937790237625000E9     4.604296473036725E-1   -1.406243802512520E-1   -3.809936520375320E-3   -3.447106210604177E-3   -3.943880930668498E-3   -3.430208200049361E-3    3.282877871062115E-1   -3.608867191770516E-1
 9.937791586750000E9     4.602327021165364E-1   -1.407521693659866E-1   -3.899728988551501E-3   -3.452433212665801E-3   -3.980953083135458E-3   -3.488396248513281E-3    3.277819502089278E-1   -3.613329430457052E-1
 9.937792935875000E9     4.603480269730141E-1   -1.409303685914246E-1   -3.952130370195718E-3   -3.493011219137510E-3   -3.992238334373196E-3   -3.493744506593049E-3    3.271230001055018E-1   -3.616288326355579E-1
 9.937794285000000E9     4.602909657813962E-1   -1.410115338304896E-1   -3.979682202128896E-3   -3.552694312570234E-3   -4.065334918619148E-3   -3.516958406930838E-3    3.270114387092168E-1   -3.616559795640871E-1
 9.937795634125000E9     4.601365733613901E-1   -1.411507454903319E-1   -3.998422105099524E-3   -3.546570784879890E-3   -4.133927731025910E-3   -3.547724321945019E-3    3.262499674945656E-1   -3.620707737229214E-1
 9.937796983250000E9     4.601634155534345E-1   -1.412936063685682E-1   -4.032343928266312E-3   -3.614005727254441E-3   -4.185910941757723E-3   -3.598731777397926E-3    3.258200714472634E-1   -3.625001253706766E-1
