#  HZ   S   RI   R     50.00 
! Rohde & Schwarz Vector Network Analyzer 
! Rohde-Schwarz,ZNB20-2Port,1311601062101988,3.16
! Created: UTC 3/20/2024, 11:19:35 PM
! freq[Hz]                re:S11                  im:S11                  re:S21                  im:S21                  re:S12                  im:S12                  re:S22                  im:S22
 9.937688268000000E9     4.630344331288777E-1   -1.337490758498069E-1   -1.585703116606610E-3   -1.756482040517316E-3   -1.650794047651383E-3   -1.734199722345702E-3    3.535398980003330E-1   -3.456545263151715E-1
 9.937689579125000E9     4.629127948125209E-1   -1.338128527198702E-1   -1.624847933092680E-3   -1.694537076407449E-3   -1.667479360657483E-3   -1.692905167590415E-3    3.532861921540892E-1   -3.458946934670773E-1
 9.937690890250000E9     4.629691706610052E-1   -1.340024427429343E-1   -1.586606993070550E-3   -1.739940375981951E-3   -1.683911552574086E-3   -1.784900740303816E-3    3.532596463056664E-1   -3.458991865063518E-1
 9.937692201375000E9     4.628744539219475E-1   -1.340387870125439E-1   -1.601248733268779E-3   -1.747542870074077E-3   -1.694812376063706E-3   -1.769260172128462E-3    3.529438661451171E-1   -3.461716281481446E-1
 9.937693512500000E9     4.629944187869346E-1   -1.340134397788669E-1   -1.650936317245688E-3   -1.779502380570157E-3   -1.685387809867135E-3   -1.783829969258779E-3    3.528734274709609E-1   -3.462548346410411E-1
 9.937694823625000E9     4.628407687401854E-1   -1.342526349588884E-1   -1.660568840063984E-3   -1.782800646110795E-3   -1.702968522858150E-3   -1.800485723577767E-3    3.524249591994807E-1   -3.465369380827978E-1
 9.937696134750000E9     4.628859989204563E-1   -1.342819060562942E-1   -1.672187824018426E-3   -1.801955122593393E-3   -1.727831769384474E-3   -1.818657513685409E-3    3.524436494266231E-1   -3.468615239493046E-1
 9.937697445875000E9     4.627844243586589E-1   -1.342917677676851E-1   -1.681187208529719E-3   -1.815046698196924E-3   -1.744147214425508E-3   -1.838460775639047E-3    3.521081029432566E-1   -3.468156547424222E-1
 9.937698757000000E9     4.626490045780984E-1   -1.344269202783732E-1   -1.705536243983388E-3   -1.810847519404605E-3   -1.741280179838328E-3   -1.830923775976506E-3    3.518315898446887E-1   -3.469175886577003E-1
 9.937700068125000E9     4.626433392588456E-1   -1.346558484216564E-1   -1.709135991968206E-3   -1.868455219390390E-3   -1.776785637415477E-3   -1.855980635283965E-3    3.516295201860079E-1   -3.470980680783520E-1
 9.937701379250000E9     4.626101712526517E-1   -1.346755419562134E-1   -1.733856527558667E-3   -1.830064788929813E-3   -1.809177108575224E-3   -1.882644830218036E-3    3.516626835820926E-1   -3.472723838263865E-1
 9.937702690375000E9     4.626611955662331E-1   -1.347520445578275E-1   -1.771906867859858E-3   -1.884202171558907E-3   -1.799718685778880E-3   -1.868665468624496E-3    3.512104285577027E-1   -3.474957990783021E-1
 9.937704001500000E9     4.625660532183536E-1   -1.348185282792320E-1   -1.775938987509004E-3   -1.902533624202181E-3   -1.833114239034430E-3   -1.892194534550259E-3    3.510017094744865E-1   -3.475682829752833E-1
 9.937705312625000E9     4.625279056091319E-1   -1.348402038246367E-1   -1.761216511734304E-3   -1.946383569654414E-3   -1.831980649699967E-3   -1.902717819700350E-3    3.507236841977824E-1   -3.476107332947349E-1
 9.937706623750000E9     4.624300613076742E-1   -1.349532791323971E-1   -1.820753107397631E-3   -1.928024929501003E-3   -1.810960771571620E-3   -1.951947965486204E-3    3.505502472236863E-1   -3.479566220456483E-1
 9.937707934875000E9     4.625732825296217E-1   -1.351010097085143E-1   -1.808460069050968E-3   -1.927464166076864E-3   -1.871641494581762E-3   -1.925484078235242E-3    3.502685630746585E-1   -3.479772584626318E-1
 9.937709246000000E9     4.625410110287406E-1   -1.352042580501289E-1   -1.850786353383158E-3   -1.962170511337219E-3   -1.896163763522013E-3   -1.964982018631857E-3    3.500071341140983E-1   -3.481954715728467E-1
 9.937710557125000E9     4.624867631839127E-1   -1.354196975089974E-1   -1.843162066347406E-3   -2.009556581756292E-3   -1.922927732294320E-3   -1.981859497414046E-3    3.500446047507062E-1   -3.483981474224885E-1
 9.937711868250000E9     4.624225940558037E-1   -1.353914882033328E-1   -1.847572927311742E-3   -1.994259728704462E-3   -1.932861413880372E-3   -2.007630590241020E-3    3.497456577671583E-1   -3.483763969482472E-1
 9.937713179375000E9     4.623130616778071E-1   -1.355430886255904E-1   -1.897384902677244E-3   -2.006212001353030E-3   -1.961987269386599E-3   -1.988113300048684E-3    3.494297011515250E-1   -3.489176996948231E-1
 9.937714490500000E9     4.623507197524214E-1   -1.355185465602841E-1   -1.926099884063927E-3   -2.006828713227254E-3   -1.961447629650851E-3   -2.007971385593002E-3    3.492042700414580E-1   -3.487864756867884E-1
 9.937715801625000E9     4.622400511169091E-1   -1.355016184613635E-1   -1.928084146370060E-3   -2.021792877523398E-3   -2.007534710387413E-3   -2.042036777461119E-3    3.489428941467873E-1   -3.491044413506008E-1
 9.937717112750000E9     4.622671725782571E-1   -1.356006767234418E-1   -1.955073277920606E-3   -2.063244271649470E-3   -2.013822711653999E-3   -2.046427178612313E-3    3.487529726194805E-1   -3.490970640312734E-1
 9.937718423875000E9     4.622599188587417E-1   -1.358187033227200E-1   -1.973995908811790E-3   -2.078040873370672E-3   -2.016289885513568E-3   -2.038175755397259E-3    3.484038842487331E-1   -3.492759964529510E-1
 9.937719735000000E9     4.621702945451740E-1   -1.358947950884795E-1   -1.967130354177544E-3   -2.091158042607775E-3   -2.069028360367685E-3   -2.089422965030711E-3    3.483748804039210E-1   -3.495269251716225E-1
 9.937721046125000E9     4.621928308925314E-1   -1.359290251517643E-1   -1.979909112670613E-3   -2.087480837528979E-3   -2.061800819303065E-3   -2.119154102641241E-3    3.478168543703206E-1   -3.496989023152442E-1
 9.937722357250000E9     4.621642940900850E-1   -1.359306175992471E-1   -2.061546418076144E-3   -2.130645789633506E-3   -2.084268382496761E-3   -2.130737380757455E-3    3.476211217093352E-1   -3.499231873728336E-1
 9.937723668375000E9     4.620892989539170E-1   -1.360732887734963E-1   -2.058883390542563E-3   -2.157641083328831E-3   -2.077703324649706E-3   -2.105869404455633E-3    3.474518715067313E-1   -3.500067242183655E-1
 9.937724979500000E9     4.620964944739459E-1   -1.362313693283304E-1   -2.072365490906128E-3   -2.182205369344392E-3   -2.133414999891434E-3   -2.135107042872924E-3    3.472497310490339E-1   -3.501968005129671E-1
 9.937726290625000E9     4.620887164203342E-1   -1.362407376462249E-1   -2.107454547995108E-3   -2.178264946668596E-3   -2.136991798386965E-3   -2.152770183688434E-3    3.468567421521094E-1   -3.505237950546399E-1
 9.937727601750000E9     4.620080085828153E-1   -1.364509392859191E-1   -2.087174238828989E-3   -2.200491411544420E-3   -2.149158286891564E-3   -2.206796573817331E-3    3.466953344104738E-1   -3.505383098638629E-1
 9.937728912875000E9     4.619641853356462E-1   -1.364923446507979E-1   -2.122332840485333E-3   -2.211642685199760E-3   -2.222937482288181E-3   -2.205396133967958E-3    3.464366398385335E-1   -3.505946084503246E-1
 9.937730224000000E9     4.619831712040959E-1   -1.366127988528590E-1   -2.172054246788208E-3   -2.198652535255296E-3   -2.236339566674643E-3   -2.244321993964319E-3    3.463705773758516E-1   -3.509051421470108E-1
 9.937731535125000E9     4.619562314236768E-1   -1.367186981506379E-1   -2.157444035236437E-3   -2.255100144799060E-3   -2.256282433477084E-3   -2.237424826636549E-3    3.457764234660649E-1   -3.512308447855724E-1
 9.937732846250000E9     4.618829341221474E-1   -1.367497043783541E-1   -2.216285160339695E-3   -2.263363074187355E-3   -2.273557040242772E-3   -2.249036577718072E-3    3.456291540610614E-1   -3.513597120640249E-1
 9.937734157375000E9     4.618445858268628E-1   -1.368944768228968E-1   -2.234418644832294E-3   -2.295103665181426E-3   -2.296702315858232E-3   -2.243421005071088E-3    3.453599558834150E-1   -3.514779261949079E-1
 9.937735468500000E9     4.617939771268529E-1   -1.370822152343590E-1   -2.262427041195821E-3   -2.286594261760214E-3   -2.339204452569031E-3   -2.296166731576502E-3    3.453232718479687E-1   -3.515168262507298E-1
 9.937736779625000E9     4.617145202464001E-1   -1.371143079505514E-1   -2.255896328312119E-3   -2.295626426930138E-3   -2.353551258701026E-3   -2.342699533393167E-3    3.448581673518499E-1   -3.518370102170881E-1
 9.937738090750000E9     4.616646148606553E-1   -1.371072962905206E-1   -2.271457178830898E-3   -2.322507172107476E-3   -2.340115385805484E-3   -2.345441654371676E-3    3.446434577240178E-1   -3.519679349162003E-1
 9.937739401875000E9     4.617846408968347E-1   -1.372778421148900E-1   -2.318338476846102E-3   -2.358318310073422E-3   -2.382452286700189E-3   -2.355285698513922E-3    3.442072558169439E-1   -3.524110038308896E-1
 9.937740713000000E9     4.616760562796396E-1   -1.373602834308020E-1   -2.342557461244461E-3   -2.358520735971392E-3   -2.418573410619783E-3   -2.397384783185598E-3    3.439694025264520E-1   -3.522870075649208E-1
 9.937742024125000E9     4.615529181671257E-1   -1.374533201411353E-1   -2.377984713790938E-3   -2.410604742139803E-3   -2.398835038637255E-3   -2.399918533212018E-3    3.437755442362615E-1   -3.525483104013259E-1
 9.937743335250000E9     4.616027846846832E-1   -1.375474259719257E-1   -2.389891464947563E-3   -2.424959028293019E-3   -2.426007799362663E-3   -2.416005477240268E-3    3.434205713343182E-1   -3.528348334211974E-1
 9.937744646375000E9     4.616512464992812E-1   -1.377105298190794E-1   -2.414351357580358E-3   -2.400573417615794E-3   -2.510706769260973E-3   -2.428749385826156E-3    3.431378237972584E-1   -3.531201443729082E-1
 9.937745957500000E9     4.614736488025277E-1   -1.377935135808869E-1   -2.417251179665289E-3   -2.480541231298170E-3   -2.521253621827334E-3   -2.428557283600692E-3    3.430833826890992E-1   -3.531349164946319E-1
 9.937747268625000E9     4.615245370495165E-1   -1.378273667905221E-1   -2.461577928426607E-3   -2.483623338739127E-3   -2.510144279128579E-3   -2.473216446349662E-3    3.426350853445918E-1   -3.533964070296537E-1
 9.937748579750000E9     4.613681583878703E-1   -1.377784032175789E-1   -2.468823934692509E-3   -2.473028609976758E-3   -2.558299182087642E-3   -2.511611758043656E-3    3.425109881345618E-1   -3.533778957366581E-1
 9.937749890875000E9     4.614047092103781E-1   -1.379198193686039E-1   -2.513639427542922E-3   -2.517429481868529E-3   -2.615885825273596E-3   -2.510718437937743E-3    3.420084999290972E-1   -3.538474308742536E-1
 9.937751202000000E9     4.613166458065671E-1   -1.380277259132980E-1   -2.525210497520873E-3   -2.546338504755218E-3   -2.611184127934703E-3   -2.558951681805816E-3    3.417275530587254E-1   -3.538379387966541E-1
 9.937752513125000E9     4.612927105465151E-1   -1.381237249021477E-1   -2.561968976477817E-3   -2.577375328170400E-3   -2.626785975330072E-3   -2.561893536636699E-3    3.414919076566010E-1   -3.540381493289119E-1
 9.937753824250000E9     4.613099275744537E-1   -1.382201105443387E-1   -2.609165349178177E-3   -2.592446438487405E-3   -2.668272912775084E-3   -2.596604415025889E-3    3.410193816080941E-1   -3.543001795076981E-1
 9.937755135375000E9     4.612138360998330E-1   -1.383981124361469E-1   -2.647684460066559E-3   -2.601994048350913E-3   -2.664145899868090E-3   -2.614543016500531E-3    3.407861422601269E-1   -3.546765172391950E-1
 9.937756446500000E9     4.612390181796270E-1   -1.383036245924279E-1   -2.662881679117582E-3   -2.605008845861957E-3   -2.733144191249244E-3   -2.630116728084689E-3    3.405105860666148E-1   -3.546556109135166E-1
 9.937757757625000E9     4.612248396891089E-1   -1.385650146500883E-1   -2.705181077527125E-3   -2.669543829422873E-3   -2.770996803243191E-3   -2.650933409552399E-3    3.400390928199439E-1   -3.548437616173415E-1
 9.937759068750000E9     4.611325663406475E-1   -1.385812243029187E-1   -2.740419467692077E-3   -2.647880696313525E-3   -2.800385095501608E-3   -2.696768044867695E-3    3.398673656998726E-1   -3.550186379980552E-1
 9.937760379875000E9     4.612603866880898E-1   -1.386154893778299E-1   -2.706659948681633E-3   -2.681672378626093E-3   -2.816070952082956E-3   -2.690161840986567E-3    3.394047569337981E-1   -3.551991272120038E-1
 9.937761691000000E9     4.610996420797042E-1   -1.388982891219112E-1   -2.757720169673746E-3   -2.742059464815157E-3   -2.814581117535320E-3   -2.736623820411726E-3    3.390895331632294E-1   -3.554805385131625E-1
 9.937763002125000E9     4.611363030605669E-1   -1.388173607057890E-1   -2.830494652429375E-3   -2.775828170066337E-3   -2.899319136081677E-3   -2.744604986162491E-3    3.388559438970561E-1   -3.556620909535018E-1
 9.937764313250000E9     4.611269014135450E-1   -1.389243952227796E-1   -2.808250211697888E-3   -2.763411087304266E-3   -2.919981478418140E-3   -2.743155939261578E-3    3.384075986483664E-1   -3.560073714957636E-1
 9.937765624375000E9     4.609907876463111E-1   -1.391422205996266E-1   -2.894575995416768E-3   -2.824463132442814E-3   -2.982730047464179E-3   -2.840012710310525E-3    3.381123168898263E-1   -3.561306885636918E-1
 9.937766935500000E9     4.610487189403085E-1   -1.390813665821054E-1   -2.931946508830084E-3   -2.810067967333970E-3   -2.993942108135411E-3   -2.820917580536401E-3    3.376852130007938E-1   -3.563659822140275E-1
 9.937768246625000E9     4.609587825398884E-1   -1.392457483709278E-1   -2.921068658282228E-3   -2.860638434221355E-3   -3.019501082686472E-3   -2.872347628909411E-3    3.374310520225323E-1   -3.566549179407948E-1
 9.937769557750000E9     4.609064889244711E-1   -1.392504029920844E-1   -2.956901448315126E-3   -2.896273570162655E-3   -3.046722483555120E-3   -2.868675037824892E-3    3.369463051428894E-1   -3.567778970163209E-1
 9.937770868875000E9     4.608200423046552E-1   -1.395062941461135E-1   -2.988643301647673E-3   -2.910882558070499E-3   -3.072083773880696E-3   -2.889425704201903E-3    3.366791141604842E-1   -3.570557913314877E-1
 9.937772180000000E9     4.608418006134667E-1   -1.394167177526592E-1   -3.021016487609149E-3   -2.943321435957740E-3   -3.133749306015077E-3   -2.932376397538253E-3    3.363139054288908E-1   -3.572257062103227E-1
 9.937773491125000E9     4.608843929855711E-1   -1.397471786732169E-1   -3.063433295379943E-3   -2.965972356307013E-3   -3.167463558985448E-3   -2.953449524683129E-3    3.360287714769383E-1   -3.573275205951743E-1
 9.937774802250000E9     4.607249789540991E-1   -1.396675489020524E-1   -3.075348350931676E-3   -2.977361591326137E-3   -3.157233696329122E-3   -2.971305233356518E-3    3.352871696054118E-1   -3.576818034612301E-1
 9.937776113375000E9     4.606409368939764E-1   -1.397501053554684E-1   -3.140308532460650E-3   -3.027494518941633E-3   -3.225752504698524E-3   -2.983938246865975E-3    3.350578956205553E-1   -3.578566126241021E-1
 9.937777424500000E9     4.607718054407155E-1   -1.397836271430238E-1   -3.185722617620651E-3   -3.039416515248030E-3   -3.263370952391454E-3   -3.050245662208747E-3    3.346696717748777E-1   -3.579986366972405E-1
 9.937778735625000E9     4.606404744026445E-1   -1.398863991847151E-1   -3.203630488536936E-3   -3.087877096675280E-3   -3.307651859069873E-3   -3.053796341967189E-3    3.343361121805821E-1   -3.584072183425426E-1
 9.937780046750000E9     4.607549594741250E-1   -1.400608830457884E-1   -3.238175552973549E-3   -3.088637049806654E-3   -3.318362245556566E-3   -3.075067576205706E-3    3.339098754243803E-1   -3.585915249799703E-1
 9.937781357875000E9     4.605780068121712E-1   -1.401654255638792E-1   -3.262482112801191E-3   -3.109888348074646E-3   -3.327473058338963E-3   -3.105994724824464E-3    3.335675021720871E-1   -3.587809209252372E-1
 9.937782669000000E9     4.605872358059219E-1   -1.401550178922549E-1   -3.332896345775343E-3   -3.126742654842628E-3   -3.377987858691485E-3   -3.105081998038836E-3    3.331170986732190E-1   -3.589888792989001E-1
 9.937783980125000E9     4.605551238976975E-1   -1.402841293150286E-1   -3.354887087431148E-3   -3.157638043779294E-3   -3.441002994828975E-3   -3.157289052820344E-3    3.329583167159978E-1   -3.593513716740805E-1
 9.937785291250000E9     4.604730698977549E-1   -1.403524999828036E-1   -3.430989243363485E-3   -3.189508762145974E-3   -3.491628588142717E-3   -3.219402519055546E-3    3.323324593811418E-1   -3.594453406897284E-1
 9.937786602375000E9     4.605338493925169E-1   -1.405346716636934E-1   -3.412826336322688E-3   -3.213548420149782E-3   -3.531382991358774E-3   -3.237621141982468E-3    3.317472144503051E-1   -3.597964261446362E-1
 9.937787913500000E9     4.603271622535555E-1   -1.404683917927118E-1   -3.493571376651320E-3   -3.242670144477046E-3   -3.574179025422138E-3   -3.247756065536969E-3    3.315047601507699E-1   -3.600290542512325E-1
 9.937789224625000E9     4.603877231467248E-1   -1.405468741205297E-1   -3.528585774970888E-3   -3.278095350070030E-3   -3.597292271400294E-3   -3.278042110593061E-3    3.311023711422215E-1   -3.602306698349579E-1
 9.937790535750000E9     4.602613872255052E-1   -1.406201861746764E-1   -3.565311239236930E-3   -3.303182180426363E-3   -3.666169110993002E-3   -3.340991004283017E-3    3.304436539325306E-1   -3.606081963408960E-1
 9.937791846875000E9     4.602113950702633E-1   -1.407661363091854E-1   -3.635439050171304E-3   -3.346152019505970E-3   -3.720745585106633E-3   -3.341436951285414E-3    3.299830568526451E-1   -3.606961748234278E-1
 9.937793158000000E9     4.602639121178945E-1   -1.408858038072675E-1   -3.661017708641392E-3   -3.358749384003017E-3   -3.747254230312383E-3   -3.392619230089193E-3    3.294964173047335E-1   -3.610705751488107E-1
 9.937794469125000E9     4.603602019299167E-1   -1.410077182007171E-1   -3.690142257478170E-3   -3.387494365529647E-3   -3.824135132075734E-3   -3.392911053092773E-3    3.291461091889397E-1   -3.612382648222804E-1
 9.937795780250000E9     4.601928669451982E-1   -1.411782618133406E-1   -3.752830453584987E-3   -3.436002647807860E-3   -3.847198151718773E-3   -3.422618459868676E-3    3.286551671593316E-1   -3.614359693653629E-1
 9.937797091375000E9     4.601705273070992E-1   -1.411741784480686E-1   -3.785715861052790E-3   -3.450717997964684E-3   -3.906972211890544E-3   -3.440870007244909E-3    3.281313573236170E-1   -3.616660926820138E-1
 9.937798402500000E9     4.600628112149914E-1   -1.411830431191954E-1   -3.828333443068865E-3   -3.494649576259917E-3   -3.923992688509307E-3   -3.522010182802988E-3    3.275708152320074E-1   -3.618353115776820E-1
 9.937799713625000E9     4.600383563206413E-1   -1.415369220333811E-1   -3.866647954573381E-3   -3.525449096933800E-3   -4.025569914459078E-3   -3.513418795854002E-3    3.271000266648568E-1   -3.621686158616870E-1
 9.937801024750000E9     4.600454683217176E-1   -1.415622465537495E-1   -3.929568524180814E-3   -3.546467139082706E-3   -4.049090945165868E-3   -3.594570187482481E-3    3.267156250116623E-1   -3.623956472984737E-1
 9.937802335875000E9     4.598079123798515E-1   -1.414978735721018E-1   -3.968423414509151E-3   -3.607523516914134E-3   -4.098047986625521E-3   -3.577593127140064E-3    3.261666563289287E-1   -3.627083467379857E-1
 9.937803647000000E9     4.598994901786880E-1   -1.417066438329122E-1   -4.027974832380649E-3   -3.626648386357456E-3   -4.147591800924923E-3   -3.628831789275632E-3    3.257730882042546E-1   -3.629006193413088E-1
 9.937804958125000E9     4.600142364065688E-1   -1.416097026307493E-1   -4.075408068291863E-3   -3.690594529699686E-3   -4.219318024433435E-3   -3.670417853443304E-3    3.250477259179641E-1   -3.630327938167905E-1
 9.937806269250000E9     4.596749423491144E-1   -1.418920228072247E-1   -4.143797466308869E-3   -3.678232319505210E-3   -4.239309655666977E-3   -3.713919925765132E-3    3.245585924647013E-1   -3.634558615417974E-1
