#  HZ   S   RI   R     50.00 
! Rohde & Schwarz Vector Network Analyzer 
! Rohde-Schwarz,ZNB20-2Port,1311601062101988,3.16
! Created: UTC 3/20/2024, 11:20:04 PM
! freq[Hz]                re:S11                  im:S11                  re:S21                  im:S21                  re:S12                  im:S12                  re:S22                  im:S22
 9.937721806000000E9     4.622648638078109E-1   -1.358952094432793E-1   -1.826771758368479E-3   -2.005660653505540E-3   -1.868410215257059E-3   -1.962742138683258E-3    3.494793475942599E-1   -3.490953509505764E-1
 9.937723017125000E9     4.622410409172134E-1   -1.359850703871632E-1   -1.833510539421855E-3   -1.990569910345834E-3   -1.916732342098067E-3   -1.965654862736068E-3    3.492984753322466E-1   -3.491202095413566E-1
 9.937724228250000E9     4.623338156679266E-1   -1.361746373265502E-1   -1.859146921886861E-3   -2.050438353191586E-3   -1.900363485993077E-3   -2.011740278639319E-3    3.489752705026459E-1   -3.493482543637577E-1
 9.937725439375000E9     4.620528519797960E-1   -1.361048625028242E-1   -1.846070316791955E-3   -2.032656473928451E-3   -1.919100012631394E-3   -2.032189896976558E-3    3.487362754854502E-1   -3.495048567252433E-1
 9.937726650500000E9     4.620729952718432E-1   -1.362896590113581E-1   -1.931077606822723E-3   -2.040474894518528E-3   -1.932302733157225E-3   -2.032959673080884E-3    3.486941968352153E-1   -3.496147368977931E-1
 9.937727861625000E9     4.620126997421753E-1   -1.363446945363969E-1   -1.883086793512658E-3   -2.045310972715167E-3   -1.960383805304335E-3   -2.026983585038880E-3    3.485311237270884E-1   -3.497121391389673E-1
 9.937729072750000E9     4.620371344615780E-1   -1.363149089257766E-1   -1.925476329666701E-3   -2.033170524031122E-3   -1.968682893540163E-3   -2.104481696572826E-3    3.480269242096887E-1   -3.499591215670180E-1
 9.937730283875000E9     4.618617180192086E-1   -1.364953843173541E-1   -1.933598314610091E-3   -2.085422570581474E-3   -1.996278673285946E-3   -2.078697548201139E-3    3.481751569387311E-1   -3.499264159388432E-1
 9.937731495000000E9     4.620292593021214E-1   -1.365399196062617E-1   -2.015505908599346E-3   -2.106213981108815E-3   -2.013453138228034E-3   -2.095882582103641E-3    3.477134043622219E-1   -3.502826386566418E-1
 9.937732706125000E9     4.618566442734350E-1   -1.366448609532845E-1   -1.952414038602860E-3   -2.126167817540514E-3   -2.033344361187602E-3   -2.077145702236256E-3    3.474925636671015E-1   -3.506089614763666E-1
 9.937733917250000E9     4.619702558946913E-1   -1.367103555086678E-1   -2.009193529211422E-3   -2.119640095832764E-3   -2.058196463678773E-3   -2.126354041479684E-3    3.473848405372507E-1   -3.506919419890287E-1
 9.937735128375000E9     4.619412950429147E-1   -1.368939968562225E-1   -2.037984644176106E-3   -2.134894112204454E-3   -2.104608933711404E-3   -2.128173669489034E-3    3.471871144183214E-1   -3.507817131522225E-1
 9.937736339500000E9     4.620203551673345E-1   -1.369200138475909E-1   -2.015449858665273E-3   -2.174271862570170E-3   -2.070187855000175E-3   -2.168790671146802E-3    3.468576980597605E-1   -3.509615856260076E-1
 9.937737550625000E9     4.618873561714331E-1   -1.369506004259127E-1   -2.070760489278014E-3   -2.172397827355853E-3   -2.090795569207432E-3   -2.174910416789934E-3    3.464550170009802E-1   -3.511874577193156E-1
 9.937738761750000E9     4.617747999451320E-1   -1.369457038327304E-1   -2.085727727542579E-3   -2.173926458127704E-3   -2.122138408078954E-3   -2.192472961258537E-3    3.464167279066582E-1   -3.512777976820576E-1
 9.937739972875000E9     4.617325870803695E-1   -1.373073421002863E-1   -2.090471145130913E-3   -2.230522361565019E-3   -2.145304350604568E-3   -2.225346373324134E-3    3.461796879383351E-1   -3.513678945789419E-1
 9.937741184000000E9     4.617191845116101E-1   -1.373084075762168E-1   -2.083871325756473E-3   -2.199126943264283E-3   -2.168835377633319E-3   -2.222915438480907E-3    3.460686754245513E-1   -3.516209523516514E-1
 9.937742395125000E9     4.617114857407981E-1   -1.373145902349258E-1   -2.159328158908454E-3   -2.230899698183563E-3   -2.167438528868532E-3   -2.242717358443741E-3    3.457283850929442E-1   -3.518116558375374E-1
 9.937743606250000E9     4.616231278360244E-1   -1.374759643731037E-1   -2.154680950294939E-3   -2.221237091258473E-3   -2.221122091215107E-3   -2.267888505587019E-3    3.453500284666911E-1   -3.518116631273364E-1
 9.937744817375000E9     4.615911093710728E-1   -1.374421765407723E-1   -2.175623185062788E-3   -2.280607255700721E-3   -2.229666330922311E-3   -2.285003612931684E-3    3.452037564446045E-1   -3.522494576153048E-1
 9.937746028500000E9     4.616376292218601E-1   -1.376185631602291E-1   -2.183758097210866E-3   -2.291967582092072E-3   -2.234924334649301E-3   -2.287025426478407E-3    3.452350721886606E-1   -3.520724429246634E-1
 9.937747239625000E9     4.615417331714385E-1   -1.377414777462667E-1   -2.183466752574914E-3   -2.323660846623575E-3   -2.273242838796252E-3   -2.340088833541154E-3    3.447693099826577E-1   -3.523846022130869E-1
 9.937748450750000E9     4.614049411402151E-1   -1.377491213163625E-1   -2.247752860253182E-3   -2.376804858017117E-3   -2.292823166422537E-3   -2.338627651236470E-3    3.446472378286420E-1   -3.526151273948652E-1
 9.937749661875000E9     4.614770189318573E-1   -1.380041935001987E-1   -2.253030093477707E-3   -2.366559171764294E-3   -2.318882407421950E-3   -2.363888348202732E-3    3.441361328659230E-1   -3.527177123878218E-1
 9.937750873000000E9     4.614683564165749E-1   -1.378772418995442E-1   -2.274138696000128E-3   -2.400939907611111E-3   -2.318489503480231E-3   -2.385404396380225E-3    3.441682628651411E-1   -3.529773371941910E-1
 9.937752084125000E9     4.614126025161537E-1   -1.380174245290218E-1   -2.273923306700311E-3   -2.375206726152209E-3   -2.337053057904159E-3   -2.351918199829683E-3    3.439053591080051E-1   -3.530968434203472E-1
 9.937753295250000E9     4.613365061294277E-1   -1.380603723323341E-1   -2.313456025494477E-3   -2.432995480552832E-3   -2.373706381891094E-3   -2.378203016817479E-3    3.435487361681693E-1   -3.532278680034700E-1
 9.937754506375000E9     4.613139545159480E-1   -1.382103242764276E-1   -2.405881955489134E-3   -2.410283887751853E-3   -2.377081738472427E-3   -2.433687351559920E-3    3.433505189789838E-1   -3.534152917978080E-1
 9.937755717500000E9     4.613868602106093E-1   -1.382399556721593E-1   -2.360817373801852E-3   -2.433587405418188E-3   -2.415820342278048E-3   -2.439416818614657E-3    3.428380547702642E-1   -3.535956880657037E-1
 9.937756928625000E9     4.612142677884711E-1   -1.383987652844131E-1   -2.403172158855266E-3   -2.476696962648504E-3   -2.441045351013817E-3   -2.442984779669199E-3    3.427974270852583E-1   -3.537399723165002E-1
 9.937758139750000E9     4.612491172369297E-1   -1.384130350415175E-1   -2.424419152528167E-3   -2.425633935875064E-3   -2.478059636511140E-3   -2.480513621530443E-3    3.424937549048307E-1   -3.538919845905265E-1
 9.937759350875000E9     4.610426850380637E-1   -1.385363152815549E-1   -2.412209460284737E-3   -2.528706955885021E-3   -2.504147274695800E-3   -2.476053232332583E-3    3.421205936365148E-1   -3.540492719824734E-1
 9.937760562000000E9     4.611060459485009E-1   -1.386001473446814E-1   -2.456059201946870E-3   -2.486670040176526E-3   -2.494379941933890E-3   -2.514632029004719E-3    3.418834990317545E-1   -3.541736474987594E-1
 9.937761773125000E9     4.611168029056560E-1   -1.385238047943341E-1   -2.456020619599252E-3   -2.535144045186022E-3   -2.551282472468983E-3   -2.565204034524024E-3    3.416268819654071E-1   -3.543644299540111E-1
 9.937762984250000E9     4.610667320318301E-1   -1.387644353544076E-1   -2.496055732884257E-3   -2.556021518827689E-3   -2.573685874544686E-3   -2.530780897210321E-3    3.414113836500583E-1   -3.545531935726132E-1
 9.937764195375000E9     4.610358373919566E-1   -1.388596661749095E-1   -2.502020538080163E-3   -2.579248285088086E-3   -2.579589218380159E-3   -2.584243244214906E-3    3.412285341507526E-1   -3.549179074981987E-1
 9.937765406500000E9     4.610432512461932E-1   -1.390168995459039E-1   -2.533374281231249E-3   -2.611859294030797E-3   -2.617830791523083E-3   -2.591918851446592E-3    3.408696568439796E-1   -3.551092766742679E-1
 9.937766617625000E9     4.610354614868863E-1   -1.389482271436611E-1   -2.572577515955138E-3   -2.634717754060752E-3   -2.644412119254626E-3   -2.617968040622979E-3    3.403316613808544E-1   -3.553358744058109E-1
 9.937767828750000E9     4.610830838573336E-1   -1.390227324259289E-1   -2.588706420873155E-3   -2.665770411548522E-3   -2.638261281010803E-3   -2.650346775391739E-3    3.401370900150285E-1   -3.556143914520062E-1
 9.937769039875000E9     4.610621231219645E-1   -1.392779371882984E-1   -2.634781662034247E-3   -2.695445989422878E-3   -2.705918680117368E-3   -2.655322706605665E-3    3.399551378991582E-1   -3.556098559813903E-1
 9.937770251000000E9     4.608864510807869E-1   -1.392231411729915E-1   -2.647766753472452E-3   -2.669518311825845E-3   -2.759478186615174E-3   -2.689426994196897E-3    3.396759429785537E-1   -3.556519244437830E-1
 9.937771462125000E9     4.609878339979147E-1   -1.392622534171251E-1   -2.661534176744157E-3   -2.701403542162428E-3   -2.773955484301783E-3   -2.707202550066189E-3    3.392975705070806E-1   -3.561550029883163E-1
 9.937772673250000E9     4.608451046862793E-1   -1.394684652704026E-1   -2.697644328321648E-3   -2.702279294133873E-3   -2.784472611181049E-3   -2.737387856610137E-3    3.390496379735476E-1   -3.561203159690434E-1
 9.937773884375000E9     4.608817650021315E-1   -1.395827657827743E-1   -2.736136290462625E-3   -2.762196921253607E-3   -2.788194248972275E-3   -2.760901019455070E-3    3.386966419192777E-1   -3.564221185601086E-1
 9.937775095500000E9     4.608891773474905E-1   -1.395099100542309E-1   -2.733804246362250E-3   -2.803699118975429E-3   -2.810004815226679E-3   -2.784772127557422E-3    3.384028961914559E-1   -3.566070028936006E-1
 9.937776306625000E9     4.607919744861224E-1   -1.396329340715790E-1   -2.780552797663063E-3   -2.784581470860384E-3   -2.890971177556167E-3   -2.811565594474622E-3    3.381526334734443E-1   -3.567233424708024E-1
 9.937777517750000E9     4.606416485186867E-1   -1.396516365604273E-1   -2.798923456682268E-3   -2.800368216664666E-3   -2.907417273589677E-3   -2.834224841572627E-3    3.379443000702135E-1   -3.568970889421503E-1
 9.937778728875000E9     4.606911902926996E-1   -1.399599023923952E-1   -2.828976314120810E-3   -2.863401109391949E-3   -2.941636630334983E-3   -2.823488712620438E-3    3.375390146141665E-1   -3.570096204944099E-1
 9.937779940000000E9     4.606688499936911E-1   -1.398553152928438E-1   -2.861824958869293E-3   -2.829428570731675E-3   -2.969736819851767E-3   -2.868859205701839E-3    3.371283485081387E-1   -3.572915478752343E-1
 9.937781151125000E9     4.606771932357198E-1   -1.400616740509728E-1   -2.923380730208625E-3   -2.896021547741909E-3   -2.969041660412631E-3   -2.847181741554557E-3    3.365787340720744E-1   -3.575408955988950E-1
 9.937782362250000E9     4.606452729314320E-1   -1.400952509824618E-1   -2.935461153073837E-3   -2.902669384356425E-3   -3.027451615229344E-3   -2.901272612081968E-3    3.365833110958386E-1   -3.576350052344865E-1
 9.937783573375000E9     4.606359931493919E-1   -1.400276310477341E-1   -2.970992682565636E-3   -2.968727845789689E-3   -3.051549741045987E-3   -2.918273707945082E-3    3.361958388490901E-1   -3.578733134403110E-1
 9.937784784500000E9     4.605901338999464E-1   -1.401774136289296E-1   -2.981147773211846E-3   -2.964532793843155E-3   -3.055109203736203E-3   -2.961215947371060E-3    3.357730731955261E-1   -3.582697722928099E-1
 9.937785995625000E9     4.605120232201603E-1   -1.403537500079058E-1   -3.013530494404753E-3   -2.937835806912855E-3   -3.120581133728090E-3   -2.976828981324255E-3    3.353512445858239E-1   -3.583225925999121E-1
 9.937787206750000E9     4.603989316995896E-1   -1.403622861625417E-1   -3.069391082396334E-3   -3.017813353863030E-3   -3.157714132998922E-3   -2.983617997343358E-3    3.351972656851931E-1   -3.586617046245307E-1
 9.937788417875000E9     4.603990452205419E-1   -1.405373780495458E-1   -3.085936003741222E-3   -3.015729415956311E-3   -3.190743684881247E-3   -3.011663381699322E-3    3.346583394506208E-1   -3.588734580477552E-1
 9.937789629000000E9     4.602789701565380E-1   -1.407171071598617E-1   -3.138692807344746E-3   -3.038015362251659E-3   -3.203037122597582E-3   -3.054945199544717E-3    3.343063735875965E-1   -3.590334918012019E-1
 9.937790840125000E9     4.602835874566545E-1   -1.406426327360266E-1   -3.144582563371356E-3   -3.083350078537501E-3   -3.242127563016273E-3   -3.064249631798136E-3    3.339232542431071E-1   -3.592225992059346E-1
 9.937792051250000E9     4.603327607818933E-1   -1.407131632935703E-1   -3.134704651587743E-3   -3.098045717399737E-3   -3.262803291080483E-3   -3.113863989376771E-3    3.335331474777096E-1   -3.595366397562308E-1
 9.937793262375000E9     4.603323173616899E-1   -1.409047162085651E-1   -3.247426784146217E-3   -3.150006885117931E-3   -3.328871607311784E-3   -3.143667015027713E-3    3.334568246631370E-1   -3.598737372877664E-1
 9.937794473500000E9     4.603357271936825E-1   -1.410033463622778E-1   -3.271587458708066E-3   -3.140995816857380E-3   -3.352731187349285E-3   -3.163546586110296E-3    3.329283655494012E-1   -3.600202076313324E-1
 9.937795684625000E9     4.603420993513462E-1   -1.410233407155698E-1   -3.283335474827537E-3   -3.169911024671583E-3   -3.355767905471669E-3   -3.148833956111592E-3    3.323992550565602E-1   -3.603958594238654E-1
 9.937796895750000E9     4.601918551638451E-1   -1.411217634214293E-1   -3.329313689056758E-3   -3.200978688866717E-3   -3.437571404925138E-3   -3.198879288858476E-3    3.321620295784044E-1   -3.604555478369515E-1
 9.937798106875000E9     4.601177433990826E-1   -1.413602606979413E-1   -3.398373866759812E-3   -3.256651199796572E-3   -3.462240538491190E-3   -3.238761188475208E-3    3.317088927287138E-1   -3.605374374486491E-1
 9.937799318000000E9     4.601056875647542E-1   -1.411596034526470E-1   -3.429572687770925E-3   -3.263657710659406E-3   -3.504870251358310E-3   -3.267938697378827E-3    3.316100306299289E-1   -3.609404341103085E-1
 9.937800529125000E9     4.601840752726744E-1   -1.413172304573046E-1   -3.431526123992286E-3   -3.322049046059973E-3   -3.536675701101129E-3   -3.306045791188015E-3    3.310849825820921E-1   -3.611032862052510E-1
 9.937801740250000E9     4.601302515052054E-1   -1.414558292592075E-1   -3.476041568127516E-3   -3.322863788560755E-3   -3.588067819216794E-3   -3.341709375587189E-3    3.305848553550977E-1   -3.614181027344088E-1
 9.937802951375000E9     4.599906425301332E-1   -1.416032805667048E-1   -3.505643834421896E-3   -3.351832996377434E-3   -3.624825786970047E-3   -3.389784391614920E-3    3.299155387952828E-1   -3.614824574970528E-1
 9.937804162500000E9     4.599731057300561E-1   -1.415975832447310E-1   -3.584777734844038E-3   -3.373707205261384E-3   -3.709683970077256E-3   -3.402534416405146E-3    3.296512373940437E-1   -3.619109209068992E-1
 9.937805373625000E9     4.599291212920352E-1   -1.416889187094484E-1   -3.600887857324910E-3   -3.395626227509862E-3   -3.691028744951308E-3   -3.411304319439824E-3    3.292343369606546E-1   -3.618613088609556E-1
 9.937806584750000E9     4.598704003817848E-1   -1.417330292195555E-1   -3.664828861973642E-3   -3.458869206641169E-3   -3.742578199988307E-3   -3.422822649118170E-3    3.289027549232444E-1   -3.620636806334351E-1
 9.937807795875000E9     4.599912532383029E-1   -1.418293967431614E-1   -3.675334230733208E-3   -3.450506892295178E-3   -3.777275495112406E-3   -3.488220284112120E-3    3.284513742911058E-1   -3.623534006922716E-1
 9.937809007000000E9     4.598865193414650E-1   -1.419794725418898E-1   -3.752704745482267E-3   -3.487993038512006E-3   -3.860727908644407E-3   -3.516240556527780E-3    3.278520819137214E-1   -3.627154927682510E-1
 9.937810218125000E9     4.598261283431537E-1   -1.419615149525828E-1   -3.764052323472537E-3   -3.559914581350874E-3   -3.890508029742687E-3   -3.502406752004829E-3    3.274682942781963E-1   -3.630460457208362E-1
 9.937811429250000E9     4.598384333199685E-1   -1.420565414551118E-1   -3.826273074446679E-3   -3.571320351193126E-3   -3.922586392359876E-3   -3.539187013473586E-3    3.269269102498879E-1   -3.631343457086615E-1
 9.937812640375000E9     4.598198663787561E-1   -1.421477766855652E-1   -3.848496925694660E-3   -3.581491458594703E-3   -3.985003417185697E-3   -3.615674150164442E-3    3.263657810053567E-1   -3.633395848225596E-1
 9.937813851500000E9     4.597232537226686E-1   -1.423091375669170E-1   -3.919556184224219E-3   -3.614878537938151E-3   -4.018467570945494E-3   -3.649728721119540E-3    3.260786750317210E-1   -3.635696231019524E-1
 9.937815062625000E9     4.597144013961501E-1   -1.423371256070546E-1   -3.981714082097612E-3   -3.677321348270809E-3   -4.077848502310738E-3   -3.682699476398075E-3    3.257133791065897E-1   -3.640143373466941E-1
 9.937816273750000E9     4.595939916292786E-1   -1.424449339468999E-1   -3.999627981120669E-3   -3.695179970173604E-3   -4.094795651607604E-3   -3.677399014641074E-3    3.251110410581742E-1   -3.643296419674466E-1
 9.937817484875000E9     4.596567845442617E-1   -1.425556260018261E-1   -4.040060631310449E-3   -3.719853138336864E-3   -4.160108804913210E-3   -3.739526414275268E-3    3.245701540062176E-1   -3.645226464441191E-1
 9.937818696000000E9     4.595319216097957E-1   -1.425946626682800E-1   -4.108827405251568E-3   -3.765294800083769E-3   -4.239413856677393E-3   -3.772752855219858E-3    3.241776256645839E-1   -3.645612134708472E-1
 9.937819907125000E9     4.597415891240641E-1   -1.427525646968848E-1   -4.155993570127093E-3   -3.810143571678617E-3   -4.292005788527714E-3   -3.779894759413257E-3    3.236500500673085E-1   -3.650160538112724E-1
 9.937821118250000E9     4.595001009606122E-1   -1.426100379018767E-1   -4.222497398895598E-3   -3.835926112245706E-3   -4.314599104087491E-3   -3.839970558859021E-3    3.230917094492822E-1   -3.650887402817661E-1
 9.937822329375000E9     4.595201159783917E-1   -1.428051207834485E-1   -4.257539819825274E-3   -3.867841429131647E-3   -4.352682760538787E-3   -3.885294093423918E-3    3.225000410320993E-1   -3.654115709212936E-1
 9.937823540500000E9     4.593321181935548E-1   -1.429684596633196E-1   -4.285981492300467E-3   -3.881283020235487E-3   -4.432160443724869E-3   -3.902073118471610E-3    3.220824900231286E-1   -3.657813444274801E-1
 9.937824751625000E9     4.595182650633114E-1   -1.430193691569105E-1   -4.402375949368720E-3   -3.946136898443214E-3   -4.481032831887635E-3   -3.912098793619359E-3    3.214227965806677E-1   -3.658562824262473E-1
 9.937825962750000E9     4.594199873989869E-1   -1.429983856132789E-1   -4.401193906322649E-3   -3.992723084441213E-3   -4.549383584374659E-3   -3.972111407789789E-3    3.209963883769469E-1   -3.662096199903249E-1
 9.937827173875000E9     4.593411073706972E-1   -1.431270032616757E-1   -4.456211572850453E-3   -4.044619312502647E-3   -4.609307662983362E-3   -4.040090902377883E-3    3.204985205075021E-1   -3.664869273785724E-1
 9.937828385000000E9     4.593187747694851E-1   -1.433035905383241E-1   -4.544309563356110E-3   -4.028699340431600E-3   -4.683950101139896E-3   -4.046202312965264E-3    3.199055637581800E-1   -3.667666403921228E-1
 9.937829596125000E9     4.593478154266198E-1   -1.434279361751796E-1   -4.605849888468320E-3   -4.074198626388114E-3   -4.732197931869900E-3   -4.055626459093351E-3    3.191472415832379E-1   -3.670594812358512E-1
 9.937830807250000E9     4.592601183683996E-1   -1.434133155339233E-1   -4.667025938207096E-3   -4.114956565486784E-3   -4.784740535582649E-3   -4.152638179812893E-3    3.187401931560808E-1   -3.673893366397692E-1
