#  HZ   S   RI   R     50.00 
! Rohde & Schwarz Vector Network Analyzer 
! Rohde-Schwarz,ZNB20-2Port,1311601062101988,3.16
! Created: UTC 3/20/2024, 11:20:09 PM
! freq[Hz]                re:S11                  im:S11                  re:S21                  im:S21                  re:S12                  im:S12                  re:S22                  im:S22
 9.937726357000000E9     4.621141781832829E-1   -1.362381535013543E-1   -1.867682913951347E-3   -2.002452493909700E-3   -1.877496136137052E-3   -1.996379634780802E-3    3.491337534154452E-1   -3.495256795128537E-1
 9.937727557075001E9     4.620640616186454E-1   -1.362499441791808E-1   -1.891877186984660E-3   -2.033843036073654E-3   -1.931059682897020E-3   -1.997187268518541E-3    3.488131921397695E-1   -3.494883460239378E-1
 9.937728757150000E9     4.619697422098647E-1   -1.364608333645459E-1   -1.864425412776211E-3   -2.038087389935102E-3   -1.900545193241801E-3   -2.040382432696304E-3    3.486441664701860E-1   -3.499164244165059E-1
 9.937729957225000E9     4.618865029610337E-1   -1.364515725187523E-1   -1.922791714225447E-3   -2.022003801587812E-3   -1.956016127665871E-3   -2.024190671799111E-3    3.484156690180399E-1   -3.499179826380710E-1
 9.937731157299999E9     4.619609687554462E-1   -1.366698260033785E-1   -1.915498893562343E-3   -2.070264263003178E-3   -1.986113127873718E-3   -2.037659427528637E-3    3.482402382220485E-1   -3.500782981501329E-1
 9.937732357375000E9     4.620498977137323E-1   -1.368400895756885E-1   -1.931612532448097E-3   -2.088909340993224E-3   -1.974383983227513E-3   -2.093691600437553E-3    3.480298800707246E-1   -3.502287021286357E-1
 9.937733557450001E9     4.619125019368222E-1   -1.366493768491499E-1   -1.942964137195680E-3   -2.061439284034367E-3   -1.993478912445574E-3   -2.075056289429067E-3    3.477298243693807E-1   -3.504414865600123E-1
 9.937734757525000E9     4.619167577963981E-1   -1.367628453000737E-1   -1.939173792521362E-3   -2.125678624666879E-3   -2.034765379533695E-3   -2.102727755515928E-3    3.476822300079363E-1   -3.505322960573444E-1
 9.937735957600000E9     4.618858339584128E-1   -1.369334301161274E-1   -1.983585715696095E-3   -2.122789819203855E-3   -2.057313411027735E-3   -2.124965116973946E-3    3.472787559355754E-1   -3.505931791267171E-1
 9.937737157674999E9     4.617781555477192E-1   -1.370448718831707E-1   -1.991634694994565E-3   -2.141116867766987E-3   -2.082367103680065E-3   -2.147650717876263E-3    3.472054164316005E-1   -3.507996698094225E-1
 9.937738357750000E9     4.617446980226339E-1   -1.370616194984361E-1   -2.018975326807595E-3   -2.129838951970628E-3   -2.047183739831661E-3   -2.167297451235022E-3    3.469030706055549E-1   -3.509673457072485E-1
 9.937739557825001E9     4.617631562522457E-1   -1.371997741655715E-1   -2.066644818818662E-3   -2.182019932520119E-3   -2.073842761724770E-3   -2.191587858856711E-3    3.466363070394796E-1   -3.512730811326965E-1
 9.937740757900000E9     4.619167636758302E-1   -1.372357031862477E-1   -2.073998619405020E-3   -2.205130482085290E-3   -2.126107254035035E-3   -2.198365026179524E-3    3.464485810553557E-1   -3.514882713233846E-1
 9.937741957975000E9     4.617769404482844E-1   -1.373580435270525E-1   -2.060511195908159E-3   -2.177221322236373E-3   -2.158548344475662E-3   -2.186743087948070E-3    3.462056000141928E-1   -3.514295075497846E-1
 9.937743158049999E9     4.616051971327756E-1   -1.373761133724959E-1   -2.103930679126358E-3   -2.201860076704267E-3   -2.177974043977086E-3   -2.211972617885100E-3    3.459913223002459E-1   -3.516324425513231E-1
 9.937744358125000E9     4.616532120976761E-1   -1.375465488650134E-1   -2.117216265910244E-3   -2.242603385562553E-3   -2.150790658109365E-3   -2.250003518504161E-3    3.459415873465177E-1   -3.518933982972436E-1
 9.937745558200001E9     4.617468260624337E-1   -1.375481213809796E-1   -2.132142072306009E-3   -2.230034187538915E-3   -2.200596564263171E-3   -2.256498427225866E-3    3.453356230948404E-1   -3.518848575801617E-1
 9.937746758275000E9     4.613706149154530E-1   -1.375423702551688E-1   -2.145904871414521E-3   -2.300290230309553E-3   -2.216948359084247E-3   -2.287738640398631E-3    3.453491994708003E-1   -3.520750998128510E-1
 9.937747958350000E9     4.616241683336327E-1   -1.377137307115790E-1   -2.145373262728982E-3   -2.303857669776729E-3   -2.233203523229657E-3   -2.269051361599843E-3    3.450572986391475E-1   -3.523648943441480E-1
 9.937749158424999E9     4.616084572215132E-1   -1.378155240274719E-1   -2.201236633040503E-3   -2.292793674572048E-3   -2.274986375768351E-3   -2.333983862654947E-3    3.449629527714385E-1   -3.523776588927279E-1
 9.937750358500000E9     4.615295252088329E-1   -1.379528546232510E-1   -2.212900905043270E-3   -2.317270580348253E-3   -2.278432035791493E-3   -2.326616611299692E-3    3.444887755878778E-1   -3.524621616941256E-1
 9.937751558575001E9     4.615155981767465E-1   -1.379616080621501E-1   -2.243900785723971E-3   -2.326261244268647E-3   -2.292999748555619E-3   -2.367479695821005E-3    3.443609881320072E-1   -3.526970773957779E-1
 9.937752758650000E9     4.614468558355274E-1   -1.380710436695930E-1   -2.280929422567812E-3   -2.350235454755421E-3   -2.330745865143289E-3   -2.376293432726985E-3    3.441267660778280E-1   -3.530908055247116E-1
 9.937753958725000E9     4.613533291799298E-1   -1.381298214663117E-1   -2.299083870388644E-3   -2.363019762996745E-3   -2.330038206233258E-3   -2.399335470767458E-3    3.438988059573402E-1   -3.530916932659527E-1
 9.937755158799999E9     4.611320740577874E-1   -1.382008511870047E-1   -2.279419740483200E-3   -2.374431391230744E-3   -2.370985401036071E-3   -2.392234320433960E-3    3.436464526019413E-1   -3.533840667735353E-1
 9.937756358875000E9     4.613055867396827E-1   -1.384026986552971E-1   -2.333532091779607E-3   -2.387954371541251E-3   -2.392069082112305E-3   -2.403084501586840E-3    3.433843596549708E-1   -3.535441833397347E-1
 9.937757558950001E9     4.612636643141185E-1   -1.383604008394397E-1   -2.348765606480789E-3   -2.427368497825308E-3   -2.415711738834253E-3   -2.416330720664710E-3    3.430014747213780E-1   -3.536813845982513E-1
 9.937758759025000E9     4.613725056141378E-1   -1.384688666607001E-1   -2.373023958123127E-3   -2.454287213124881E-3   -2.436829495477950E-3   -2.437887898997842E-3    3.427520263414214E-1   -3.538288776981243E-1
 9.937759959100000E9     4.612181336336178E-1   -1.386768601820434E-1   -2.409333576030420E-3   -2.478926917480597E-3   -2.447908886600281E-3   -2.471340325600695E-3    3.425623047727907E-1   -3.542814565563051E-1
 9.937761159174999E9     4.612830187132438E-1   -1.386797476827123E-1   -2.378027341180220E-3   -2.504142135944897E-3   -2.484493712401691E-3   -2.491928068411475E-3    3.421813499510870E-1   -3.543318064167928E-1
 9.937762359250000E9     4.611520328317048E-1   -1.385886436379180E-1   -2.430521187953587E-3   -2.507115151723052E-3   -2.499150570137241E-3   -2.515592586306294E-3    3.420126593249958E-1   -3.543524910711267E-1
 9.937763559325001E9     4.611615027275952E-1   -1.388179453005583E-1   -2.456256771883167E-3   -2.533142753931449E-3   -2.515613850281132E-3   -2.527457561589754E-3    3.416162637698567E-1   -3.544533609377717E-1
 9.937764759400000E9     4.610327423594884E-1   -1.388103717250065E-1   -2.488811393540207E-3   -2.553065824261897E-3   -2.577968896360164E-3   -2.525626887974418E-3    3.413818788724219E-1   -3.547950540898585E-1
 9.937765959475000E9     4.611043547207458E-1   -1.389727683494622E-1   -2.468955437661008E-3   -2.582621622915711E-3   -2.562784627195377E-3   -2.562688719387982E-3    3.412270046880828E-1   -3.549648122343269E-1
 9.937767159549999E9     4.609556596784936E-1   -1.390010447495676E-1   -2.462287427100317E-3   -2.608334227394010E-3   -2.566265018650780E-3   -2.581908926883358E-3    3.409800538213372E-1   -3.550435001465914E-1
 9.937768359625000E9     4.610834969172950E-1   -1.391728979825599E-1   -2.553796802747785E-3   -2.611363257932922E-3   -2.624544353954105E-3   -2.600925225580368E-3    3.406039848696381E-1   -3.552666616905011E-1
 9.937769559700001E9     4.609994789104065E-1   -1.391610486491142E-1   -2.584730814994811E-3   -2.625726173467176E-3   -2.675280354490861E-3   -2.607575943316380E-3    3.403174064726843E-1   -3.555773023605190E-1
 9.937770759775000E9     4.607797990980969E-1   -1.393346084896545E-1   -2.597921806004406E-3   -2.637574051954642E-3   -2.691955863192705E-3   -2.675749817315839E-3    3.399887716372041E-1   -3.558851572397393E-1
 9.937771959850000E9     4.609074943730290E-1   -1.393411571478664E-1   -2.637306158266544E-3   -2.679537130403760E-3   -2.714430681007215E-3   -2.679918829212299E-3    3.394347846929644E-1   -3.557746202765591E-1
 9.937773159924999E9     4.608495361009253E-1   -1.396082392739174E-1   -2.631284946219414E-3   -2.685670900143655E-3   -2.738871011436481E-3   -2.705916786313785E-3    3.393623054584379E-1   -3.559278330136653E-1
 9.937774360000000E9     4.609156521170726E-1   -1.395806649123360E-1   -2.644631976621869E-3   -2.738515970012283E-3   -2.754797979544186E-3   -2.722496091733582E-3    3.391649042932671E-1   -3.562905594121281E-1
 9.937775560075001E9     4.608334944788688E-1   -1.397422046635044E-1   -2.733156216520663E-3   -2.730953126243017E-3   -2.751725005255539E-3   -2.724319698400699E-3    3.387013156299407E-1   -3.563266165118669E-1
 9.937776760150000E9     4.606902679603345E-1   -1.396903167142275E-1   -2.774500480030874E-3   -2.752116254811270E-3   -2.840863475466759E-3   -2.741709364940544E-3    3.384999342926813E-1   -3.567593916501417E-1
 9.937777960225000E9     4.606916536209777E-1   -1.399566877382248E-1   -2.805717211252752E-3   -2.807734984290056E-3   -2.850436804968507E-3   -2.781574034834544E-3    3.382805249562403E-1   -3.568800514706911E-1
 9.937779160299999E9     4.607444893429486E-1   -1.398499242844810E-1   -2.777729363074464E-3   -2.788084761333742E-3   -2.879707573180337E-3   -2.806156314803829E-3    3.378205550078991E-1   -3.571793727824251E-1
 9.937780360375000E9     4.605583727269226E-1   -1.400029613506059E-1   -2.815524679420473E-3   -2.804922563025649E-3   -2.899671000596793E-3   -2.839978702274956E-3    3.373215326036377E-1   -3.572108930316665E-1
 9.937781560450001E9     4.606685435319076E-1   -1.400376531167299E-1   -2.837925083948704E-3   -2.841413709417719E-3   -2.939062691576981E-3   -2.850099617619885E-3    3.371605534748865E-1   -3.573720005426528E-1
 9.937782760525000E9     4.607298708954353E-1   -1.401902018521440E-1   -2.864252523366781E-3   -2.874972383412583E-3   -2.969618442310712E-3   -2.876987614796089E-3    3.368379243970870E-1   -3.574750553074739E-1
 9.937783960600000E9     4.605636444656134E-1   -1.402838671829364E-1   -2.890556199281261E-3   -2.909550783970553E-3   -2.971068639135378E-3   -2.912315110407212E-3    3.365263281812226E-1   -3.580666750441291E-1
 9.937785160674999E9     4.605656456120069E-1   -1.401681277766743E-1   -2.950728700313170E-3   -2.930645222211286E-3   -3.026511982605346E-3   -2.883544922773811E-3    3.363469275423625E-1   -3.581527776617238E-1
 9.937786360750000E9     4.602926857565447E-1   -1.405882185664110E-1   -2.986870770103098E-3   -2.968768818131902E-3   -3.078853021336908E-3   -2.939292504113414E-3    3.359439991098607E-1   -3.582470179411746E-1
 9.937787560825001E9     4.605667789949603E-1   -1.406097662764237E-1   -3.009214499729574E-3   -2.976335899350237E-3   -3.088558132115081E-3   -2.943039601006691E-3    3.355699344144902E-1   -3.584536005008686E-1
 9.937788760900000E9     4.604744615799838E-1   -1.406165445829966E-1   -3.008544837974354E-3   -2.983701706891482E-3   -3.104525734122955E-3   -2.992008233324979E-3    3.351657609497903E-1   -3.585725412740073E-1
 9.937789960975000E9     4.603855987806084E-1   -1.406459839425024E-1   -3.073581270541473E-3   -3.016193015936411E-3   -3.143913160942399E-3   -3.026693012891731E-3    3.348566981315566E-1   -3.589032369280138E-1
 9.937791161049999E9     4.603711471579005E-1   -1.407861814559542E-1   -3.105918928428349E-3   -3.044679351109921E-3   -3.182074704657780E-3   -3.033196809045925E-3    3.344985035749649E-1   -3.591199586423257E-1
 9.937792361125000E9     4.603764845494324E-1   -1.407923785238828E-1   -3.108892025510041E-3   -3.101294100330001E-3   -3.205686569024022E-3   -3.071490621977239E-3    3.342418195525124E-1   -3.592650185816326E-1
 9.937793561200001E9     4.603831297395362E-1   -1.407960992130279E-1   -3.168237071889193E-3   -3.129175738770642E-3   -3.236383056070142E-3   -3.073173957035451E-3    3.338470669260636E-1   -3.597620388103553E-1
 9.937794761275000E9     4.603190000415557E-1   -1.409689192255680E-1   -3.188372588197561E-3   -3.109556283125558E-3   -3.291497395273073E-3   -3.116717683471782E-3    3.332961861837804E-1   -3.598551597181646E-1
 9.937795961350000E9     4.602063936565895E-1   -1.411000088077044E-1   -3.240755485699711E-3   -3.111133444126735E-3   -3.322213629877595E-3   -3.134372270943681E-3    3.330808195461733E-1   -3.600348782849663E-1
 9.937797161424999E9     4.602624387036536E-1   -1.412170666620463E-1   -3.276886359968553E-3   -3.155804407390306E-3   -3.350792882993853E-3   -3.169706978886129E-3    3.326894997598557E-1   -3.603232826340707E-1
 9.937798361500000E9     4.601972058296114E-1   -1.411871336740452E-1   -3.313438635437102E-3   -3.215505181467295E-3   -3.423616805676656E-3   -3.219980808965038E-3    3.324111580291026E-1   -3.604842649000404E-1
 9.937799561575001E9     4.601208434380218E-1   -1.413404720922218E-1   -3.341238564502617E-3   -3.254659598918604E-3   -3.429026041717774E-3   -3.250075615682932E-3    3.318163240384822E-1   -3.606640081098618E-1
 9.937800761650000E9     4.600925054450689E-1   -1.414003598037118E-1   -3.329501429101974E-3   -3.233431372514544E-3   -3.465914858230714E-3   -3.265532851793049E-3    3.316739127911908E-1   -3.609062024952695E-1
 9.937801961725000E9     4.602072495577134E-1   -1.415050685786718E-1   -3.420469772128892E-3   -3.291381645365899E-3   -3.493248474285462E-3   -3.275125382062691E-3    3.311948185691218E-1   -3.610313201598711E-1
 9.937803161799999E9     4.599963222664695E-1   -1.415216913679692E-1   -3.427670629495526E-3   -3.321350873187200E-3   -3.541943816845966E-3   -3.285278234769598E-3    3.308689685962290E-1   -3.612781137300040E-1
 9.937804361875000E9     4.600842528000548E-1   -1.415278223047370E-1   -3.502932879412566E-3   -3.315649242432142E-3   -3.578019310375163E-3   -3.348676703001121E-3    3.303149815179338E-1   -3.614924147395486E-1
 9.937805561950001E9     4.599587558387869E-1   -1.416821520116630E-1   -3.512160433279495E-3   -3.374676290655642E-3   -3.659999924160834E-3   -3.375431619954060E-3    3.300332888582637E-1   -3.616568999813117E-1
 9.937806762025000E9     4.598788589578084E-1   -1.418973374606923E-1   -3.583607219009270E-3   -3.385664625770652E-3   -3.691779280049744E-3   -3.378409246091808E-3    3.296186963804968E-1   -3.619410417836107E-1
 9.937807962100000E9     4.598151474776048E-1   -1.417611650050196E-1   -3.575573513447960E-3   -3.404946321825360E-3   -3.717589900223652E-3   -3.434669942026358E-3    3.290377296510364E-1   -3.622855985918033E-1
 9.937809162174999E9     4.599538618368835E-1   -1.421249781837176E-1   -3.629508296630256E-3   -3.465313066717744E-3   -3.733033683872575E-3   -3.442299557574449E-3    3.286929821871336E-1   -3.624791616732328E-1
 9.937810362250000E9     4.598750495670260E-1   -1.421120400640919E-1   -3.665050933002338E-3   -3.457457173687164E-3   -3.803830826129779E-3   -3.494536791180690E-3    3.282340274416320E-1   -3.627324821158853E-1
 9.937811562325001E9     4.598880275547650E-1   -1.421757727021462E-1   -3.722540562022501E-3   -3.512050130223872E-3   -3.835718896065192E-3   -3.484765590436765E-3    3.276487997319060E-1   -3.627771579296115E-1
 9.937812762400000E9     4.599605140609149E-1   -1.422944554219052E-1   -3.760651273928718E-3   -3.566516100222023E-3   -3.904960054461050E-3   -3.520873651123307E-3    3.274826885865079E-1   -3.631928422857583E-1
 9.937813962475000E9     4.598184964283041E-1   -1.421802591849136E-1   -3.808945712645023E-3   -3.603280168969064E-3   -3.949171798973946E-3   -3.542998168059371E-3    3.270036397695327E-1   -3.635616440293831E-1
 9.937815162549999E9     4.597096350447411E-1   -1.423973035269207E-1   -3.852884668723014E-3   -3.612376784211981E-3   -4.000286541397048E-3   -3.609227899818570E-3    3.264876650902566E-1   -3.636758940132646E-1
 9.937816362625000E9     4.597520923464377E-1   -1.425078831846878E-1   -3.878158749823344E-3   -3.633325590545555E-3   -4.023839761328218E-3   -3.653504831684648E-3    3.259656601038156E-1   -3.639532791882473E-1
 9.937817562700001E9     4.596655546935794E-1   -1.425683369229117E-1   -3.965794152843740E-3   -3.680537105355010E-3   -4.079079346650943E-3   -3.676804379330800E-3    3.255954687075914E-1   -3.642519858860318E-1
 9.937818762775000E9     4.595648758156169E-1   -1.427571770466713E-1   -4.010059443308472E-3   -3.735931228405728E-3   -4.116300413150987E-3   -3.706083010433416E-3    3.250296057467664E-1   -3.644019044812477E-1
 9.937819962850000E9     4.595977703040963E-1   -1.427506579253657E-1   -4.026722480316288E-3   -3.763491646778235E-3   -4.160925317027160E-3   -3.745998942528424E-3    3.246441677796503E-1   -3.644492906211590E-1
 9.937821162924999E9     4.596274435031252E-1   -1.427890145172378E-1   -4.103097802316429E-3   -3.784973317503219E-3   -4.193954559313472E-3   -3.751965460799560E-3    3.242995979077690E-1   -3.648018842843632E-1
 9.937822363000000E9     4.594670637690504E-1   -1.428303204234677E-1   -4.156418777677834E-3   -3.824852989922993E-3   -4.267618359317910E-3   -3.797640547551982E-3    3.236262644711523E-1   -3.651136638197046E-1
 9.937823563075001E9     4.593938368536176E-1   -1.429172272519003E-1   -4.193370278464274E-3   -3.859538802585552E-3   -4.338399670985528E-3   -3.833058301033899E-3    3.230333913878608E-1   -3.654211925822232E-1
 9.937824763150000E9     4.595096424730308E-1   -1.430047011503553E-1   -4.242733467196295E-3   -3.860169627786633E-3   -4.370939832872504E-3   -3.851415320039134E-3    3.226251912858511E-1   -3.656565241567616E-1
 9.937825963225000E9     4.594216399213134E-1   -1.430720587686315E-1   -4.310171408612403E-3   -3.911640797167550E-3   -4.434389664686456E-3   -3.934016389546249E-3    3.221380209465624E-1   -3.658362112989543E-1
 9.937827163299999E9     4.593727642838741E-1   -1.431418879130729E-1   -4.341473146765333E-3   -3.934815126116440E-3   -4.486168745415884E-3   -3.940181600704517E-3    3.215932462291011E-1   -3.663366599732780E-1
 9.937828363375000E9     4.593370003588088E-1   -1.433043378916556E-1   -4.443932594843123E-3   -3.969197715957155E-3   -4.528582954320782E-3   -3.976921540637674E-3    3.207751813573228E-1   -3.664530933608617E-1
 9.937829563450001E9     4.593699665157582E-1   -1.433280781239052E-1   -4.457774271044884E-3   -3.979601881026401E-3   -4.598948454192845E-3   -4.013495735635793E-3    3.205518452032243E-1   -3.665261783296781E-1
 9.937830763525000E9     4.592427799440307E-1   -1.434198196910144E-1   -4.521075327980339E-3   -4.064506683611492E-3   -4.652348811330129E-3   -4.061436983903137E-3    3.198158093858998E-1   -3.670568314221285E-1
 9.937831963600000E9     4.592762853409120E-1   -1.435341553822148E-1   -4.589214722573532E-3   -4.062237381267337E-3   -4.693274557384145E-3   -4.105242331994927E-3    3.191976437266908E-1   -3.675091666052083E-1
 9.937833163674999E9     4.593086782021502E-1   -1.436178170062192E-1   -4.631802649895623E-3   -4.104773825335624E-3   -4.784699730857159E-3   -4.150576670527509E-3    3.186295908762929E-1   -3.673830181376996E-1
 9.937834363750000E9     4.590501402561941E-1   -1.436235436777568E-1   -4.692185762424464E-3   -4.182071603738774E-3   -4.843458027746742E-3   -4.156513203609258E-3    3.181704929504705E-1   -3.679811721241958E-1
