#  HZ   S   RI   R     50.00 
! Rohde & Schwarz Vector Network Analyzer 
! Rohde-Schwarz,ZNB20-2Port,1311601062101988,3.16
! Created: UTC 3/20/2024, 11:21:01 PM
! freq[Hz]                re:S11                  im:S11                  re:S21                  im:S21                  re:S12                  im:S12                  re:S22                  im:S22
 9.937785679000000E9     4.606218146377952E-1   -1.402225371373750E-1   -2.259592220322884E-3   -2.434374548758770E-3   -2.331045551584864E-3   -2.404106904232283E-3    3.420889581580623E-1   -3.552565930772948E-1
 9.937786727125000E9     4.605529658869241E-1   -1.403629775991725E-1   -2.262388534966497E-3   -2.400166254165476E-3   -2.298676602336312E-3   -2.412801965653241E-3    3.417999740380821E-1   -3.554646179378633E-1
 9.937787775250000E9     4.605652935744597E-1   -1.404465829675404E-1   -2.272825155095267E-3   -2.440311397854004E-3   -2.338277551635261E-3   -2.433618535936317E-3    3.416718854174861E-1   -3.555194362316009E-1
 9.937788823375000E9     4.605437725045828E-1   -1.404977542902909E-1   -2.324301173653544E-3   -2.474204686726049E-3   -2.403626305789064E-3   -2.493091992336230E-3    3.415878371694077E-1   -3.556322672073006E-1
 9.937789871500000E9     4.605964757064516E-1   -1.405529112747102E-1   -2.300786359175334E-3   -2.507236275318991E-3   -2.367349821038427E-3   -2.492394236675037E-3    3.411334315139811E-1   -3.558408353460383E-1
 9.937790919625000E9     4.605230027864305E-1   -1.406161524263096E-1   -2.325174173073576E-3   -2.494429918349580E-3   -2.422162357995565E-3   -2.524987881736910E-3    3.409869527700234E-1   -3.559328961794991E-1
 9.937791967750000E9     4.604815566407251E-1   -1.405648182431718E-1   -2.366427429936162E-3   -2.511092270314855E-3   -2.440846474440287E-3   -2.530674591896018E-3    3.408514816934163E-1   -3.561123223943960E-1
 9.937793015875000E9     4.604401111874835E-1   -1.407863896440490E-1   -2.394979916738775E-3   -2.528468727351690E-3   -2.473054730166948E-3   -2.540420288927626E-3    3.406884116487474E-1   -3.564352677810444E-1
 9.937794064000000E9     4.604123542454663E-1   -1.408655507960202E-1   -2.370897760177539E-3   -2.558816118591770E-3   -2.490082242475000E-3   -2.572487852870272E-3    3.402947808038003E-1   -3.565993017553644E-1
 9.937795112125000E9     4.602738180761279E-1   -1.408748905515801E-1   -2.438489563786674E-3   -2.557747022296945E-3   -2.512936967290677E-3   -2.599950459817511E-3    3.399104612776060E-1   -3.566441824932113E-1
 9.937796160250000E9     4.603657978003445E-1   -1.410059594547565E-1   -2.426859033289693E-3   -2.613991638142458E-3   -2.530577273324580E-3   -2.600284769788276E-3    3.398394428462505E-1   -3.567400723698270E-1
 9.937797208375000E9     4.603474823901478E-1   -1.410926405975999E-1   -2.472248255122530E-3   -2.594128113153442E-3   -2.506070180936180E-3   -2.613948909268834E-3    3.394284561459366E-1   -3.571243091812391E-1
 9.937798256500000E9     4.602961580792458E-1   -1.411522855025918E-1   -2.504268425774376E-3   -2.663665429233561E-3   -2.566535652224725E-3   -2.638161669953653E-3    3.391838288336913E-1   -3.571456883147672E-1
 9.937799304625000E9     4.603266148005444E-1   -1.411948649061064E-1   -2.476700254076250E-3   -2.676520623282852E-3   -2.582657423484435E-3   -2.647037643422336E-3    3.391785060115572E-1   -3.572564354408499E-1
 9.937800352750000E9     4.601840378211254E-1   -1.412324068286425E-1   -2.511280751210978E-3   -2.653147107106489E-3   -2.596899310393421E-3   -2.659828349239612E-3    3.388323838007906E-1   -3.574203094635229E-1
 9.937801400875000E9     4.601521308143541E-1   -1.412404648841861E-1   -2.549495815475355E-3   -2.696611310683910E-3   -2.649391423383507E-3   -2.665294516479122E-3    3.386772518039758E-1   -3.575612776544929E-1
 9.937802449000000E9     4.600819865546886E-1   -1.414637837451719E-1   -2.595542590727630E-3   -2.679296588211455E-3   -2.627406823647827E-3   -2.681924523625564E-3    3.384387609214557E-1   -3.576625342248408E-1
 9.937803497125000E9     4.600812388923291E-1   -1.414418412194205E-1   -2.583680624605043E-3   -2.716805475664504E-3   -2.690852730224774E-3   -2.711264608715693E-3    3.381664586713083E-1   -3.581042152645088E-1
 9.937804545250000E9     4.600984995921805E-1   -1.414439889459259E-1   -2.634240450238718E-3   -2.755972691151330E-3   -2.691282790117170E-3   -2.736006702479578E-3    3.376760025929575E-1   -3.582660034631778E-1
 9.937805593375000E9     4.600186755314188E-1   -1.416978063014538E-1   -2.637676428430573E-3   -2.749734414166156E-3   -2.698039331697409E-3   -2.754110578423130E-3    3.376868946922280E-1   -3.582648527428463E-1
 9.937806641500000E9     4.600926687997265E-1   -1.417413148115823E-1   -2.649395994594144E-3   -2.807532736285310E-3   -2.750050068661761E-3   -2.775633057193511E-3    3.370476558616807E-1   -3.585857887427134E-1
 9.937807689625000E9     4.600542195399880E-1   -1.417809506278873E-1   -2.679605237474719E-3   -2.774081404129424E-3   -2.781480912430287E-3   -2.803092304577370E-3    3.371332684919566E-1   -3.585785961382327E-1
 9.937808737750000E9     4.599047748010616E-1   -1.419535531568498E-1   -2.720183900797717E-3   -2.846373652687354E-3   -2.803407084143706E-3   -2.806421055035895E-3    3.367173206472885E-1   -3.589817752339744E-1
 9.937809785875000E9     4.600772785593487E-1   -1.418819194677266E-1   -2.728846055461864E-3   -2.853922963178331E-3   -2.812860973740120E-3   -2.863038991597019E-3    3.361895498869862E-1   -3.590128607025965E-1
 9.937810834000000E9     4.599564042439336E-1   -1.418767578503435E-1   -2.714067444146706E-3   -2.864940975732757E-3   -2.837839341951166E-3   -2.880485217199372E-3    3.361648813504645E-1   -3.593132806332020E-1
 9.937811882125000E9     4.598485010017633E-1   -1.420716187187306E-1   -2.803103023797806E-3   -2.863923218300261E-3   -2.857196923529045E-3   -2.864510145726756E-3    3.359966633243422E-1   -3.593197352685060E-1
 9.937812930250000E9     4.597111792138107E-1   -1.420032676767004E-1   -2.802806835535574E-3   -2.887297155982353E-3   -2.879026884454973E-3   -2.889045674437213E-3    3.356269749790831E-1   -3.595417450307453E-1
 9.937813978375000E9     4.597698235016350E-1   -1.421817906403761E-1   -2.847001586830425E-3   -2.947416695983173E-3   -2.928098222562131E-3   -2.919149037340646E-3    3.351319248608074E-1   -3.597584985396472E-1
 9.937815026500000E9     4.599285739866694E-1   -1.422456416429646E-1   -2.835958077866968E-3   -2.911579412848791E-3   -2.926165170342006E-3   -2.931979242177228E-3    3.349815347391641E-1   -3.600205856977723E-1
 9.937816074625000E9     4.597039730244112E-1   -1.422921967208433E-1   -2.873697065624586E-3   -2.982555424183108E-3   -2.981940447497019E-3   -2.950150793817667E-3    3.348066227058135E-1   -3.601748543091665E-1
 9.937817122750000E9     4.597697631511505E-1   -1.424071130612564E-1   -2.917520822128935E-3   -2.998107918835215E-3   -2.998431728367613E-3   -3.001322152660228E-3    3.345300593253866E-1   -3.602236755300920E-1
 9.937818170875000E9     4.596139599275433E-1   -1.425971221854795E-1   -2.933276426395888E-3   -3.014490485320663E-3   -3.057243773040176E-3   -3.031578016629757E-3    3.342110187781759E-1   -3.605974387635224E-1
 9.937819219000000E9     4.597397762386374E-1   -1.426033050184439E-1   -2.981532719752046E-3   -3.005538202199064E-3   -3.065473780583749E-3   -3.019354378866979E-3    3.336846484574953E-1   -3.607624122964218E-1
 9.937820267125000E9     4.597388312471362E-1   -1.426069102739478E-1   -3.033100401084319E-3   -3.025353241363156E-3   -3.093311751341283E-3   -3.048823551484157E-3    3.335314291859479E-1   -3.610451000356188E-1
 9.937821315250000E9     4.596955944835749E-1   -1.427919993445681E-1   -3.030001037203337E-3   -3.071034231899858E-3   -3.109339214279478E-3   -3.061817274662767E-3    3.335242336474451E-1   -3.609304187237631E-1
 9.937822363375000E9     4.595525145352856E-1   -1.428167805627207E-1   -3.019242163704856E-3   -3.103334486745663E-3   -3.109927155007193E-3   -3.081250291364574E-3    3.331426608062152E-1   -3.612261187435118E-1
 9.937823411500000E9     4.595937432105963E-1   -1.428873010396613E-1   -3.026943844610330E-3   -3.133708794082103E-3   -3.133879984771731E-3   -3.118386259233188E-3    3.327684160269090E-1   -3.613970835990388E-1
 9.937824459625000E9     4.594631118393795E-1   -1.428434804327366E-1   -3.130109938788105E-3   -3.133505542190010E-3   -3.187020634771795E-3   -3.159869332998775E-3    3.322195211503463E-1   -3.616478006377127E-1
 9.937825507750000E9     4.594931466628807E-1   -1.429171448272244E-1   -3.165071587081525E-3   -3.159271293697854E-3   -3.252102946181953E-3   -3.203930535596824E-3    3.321547153700019E-1   -3.619282819901567E-1
 9.937826555875000E9     4.595060601657208E-1   -1.430449786482210E-1   -3.158883636344767E-3   -3.186439776670922E-3   -3.257055011383504E-3   -3.202086419259934E-3    3.316004884100233E-1   -3.620276077704070E-1
 9.937827604000000E9     4.593266075489846E-1   -1.432171926405825E-1   -3.177042037133046E-3   -3.217791220460298E-3   -3.272286715347061E-3   -3.224455523109560E-3    3.312359838443515E-1   -3.622630545859115E-1
 9.937828652125000E9     4.594515721742756E-1   -1.431934691911822E-1   -3.246018629607305E-3   -3.241023842642538E-3   -3.315526571379763E-3   -3.245839815804342E-3    3.309389173675347E-1   -3.624205707353128E-1
 9.937829700250000E9     4.594912736572415E-1   -1.433500514601263E-1   -3.248216202022164E-3   -3.280954629242814E-3   -3.372740824481154E-3   -3.237938104568274E-3    3.306821564005124E-1   -3.627037088597211E-1
 9.937830748375000E9     4.593260238004599E-1   -1.432583685888597E-1   -3.284660398031687E-3   -3.278590940379051E-3   -3.410218392208717E-3   -3.277491944189969E-3    3.302918229158430E-1   -3.629411842230318E-1
 9.937831796500000E9     4.593992629038726E-1   -1.435051133198346E-1   -3.341441753861947E-3   -3.311356662665231E-3   -3.425700886446168E-3   -3.335321478405131E-3    3.298830214557474E-1   -3.630505400156507E-1
 9.937832844625000E9     4.592820707637559E-1   -1.434221077993061E-1   -3.337404899464528E-3   -3.340575705762100E-3   -3.450113817332138E-3   -3.363583814245836E-3    3.296993803681053E-1   -3.634009237763522E-1
 9.937833892750000E9     4.594352172761949E-1   -1.436273313320952E-1   -3.389823877426810E-3   -3.369360296173984E-3   -3.488408474265412E-3   -3.367867479075012E-3    3.293429358510725E-1   -3.635000514983313E-1
 9.937834940875000E9     4.592044945794236E-1   -1.435955686308140E-1   -3.408511138141113E-3   -3.409796175850181E-3   -3.535090554800507E-3   -3.379891087942110E-3    3.290888954640706E-1   -3.637255376049105E-1
 9.937835989000000E9     4.592515234644193E-1   -1.437455322593528E-1   -3.457337172510669E-3   -3.403649563617697E-3   -3.533023014328917E-3   -3.402580695453010E-3    3.284856149153894E-1   -3.638813402227856E-1
 9.937837037125000E9     4.593103124855896E-1   -1.439011046811277E-1   -3.499082962526388E-3   -3.433263302513808E-3   -3.545966604377676E-3   -3.450053768590113E-3    3.283523268973154E-1   -3.642335460220202E-1
 9.937838085250000E9     4.591577055591735E-1   -1.437374946570465E-1   -3.501977468574488E-3   -3.469198391993921E-3   -3.621453290914276E-3   -3.467872203689072E-3    3.278122642362000E-1   -3.643029499322397E-1
 9.937839133375000E9     4.590123049486063E-1   -1.438247040689772E-1   -3.542272877791773E-3   -3.472029096180915E-3   -3.649530281048834E-3   -3.471687787839236E-3    3.274028578189314E-1   -3.644662694521220E-1
 9.937840181500000E9     4.592154171711813E-1   -1.441532437125909E-1   -3.568392657251090E-3   -3.553141920525040E-3   -3.684686324993907E-3   -3.529508949015955E-3    3.270915598237111E-1   -3.647614515691978E-1
 9.937841229625000E9     4.591318900989788E-1   -1.440824220189159E-1   -3.604555186556512E-3   -3.534207312269694E-3   -3.726645051768033E-3   -3.553514269218792E-3    3.269659384919190E-1   -3.650864920214291E-1
 9.937842277750000E9     4.590271376925287E-1   -1.441645577089259E-1   -3.646807168167991E-3   -3.582345142081716E-3   -3.773190698388358E-3   -3.601508536094413E-3    3.262134164717947E-1   -3.652247517691069E-1
 9.937843325875000E9     4.588507770300910E-1   -1.442432199376049E-1   -3.697939018087610E-3   -3.571670459709723E-3   -3.781939988915893E-3   -3.610868307922116E-3    3.261553343463774E-1   -3.654686264007128E-1
 9.937844374000000E9     4.589835382204174E-1   -1.443579685836106E-1   -3.725328857660411E-3   -3.609303475446622E-3   -3.854097279425037E-3   -3.639840488236493E-3    3.256237201739307E-1   -3.658650475172199E-1
 9.937845422125000E9     4.589625897243764E-1   -1.443625775467531E-1   -3.767085072229391E-3   -3.658407458302176E-3   -3.908201027070260E-3   -3.668354836350402E-3    3.251227955282203E-1   -3.658533652241583E-1
 9.937846470250000E9     4.588863466778314E-1   -1.445698290535953E-1   -3.782256050207697E-3   -3.673863341425181E-3   -3.935262198275165E-3   -3.658947599553360E-3    3.248453029071910E-1   -3.661289342656190E-1
 9.937847518375000E9     4.589199376500488E-1   -1.444875250075863E-1   -3.857942330549070E-3   -3.754098539881386E-3   -3.972623042885415E-3   -3.710217548801863E-3    3.243569393996419E-1   -3.663813965641518E-1
 9.937848566500000E9     4.589050518162668E-1   -1.445223185508033E-1   -3.870571158206554E-3   -3.757185250584443E-3   -4.000863295301689E-3   -3.753194967995731E-3    3.240822945702154E-1   -3.664416605906096E-1
 9.937849614625000E9     4.587599528763305E-1   -1.446730571898261E-1   -3.996406560892196E-3   -3.759844819877571E-3   -4.030127230961069E-3   -3.782428295429011E-3    3.236174766674015E-1   -3.668227261703810E-1
 9.937850662750000E9     4.587626562384150E-1   -1.448340136845604E-1   -3.937559127921359E-3   -3.818911998946836E-3   -4.086025675951823E-3   -3.810554212231614E-3    3.231617371633459E-1   -3.669856077224301E-1
 9.937851710875000E9     4.587781913471506E-1   -1.447026444007598E-1   -3.979450343827894E-3   -3.855984298407460E-3   -4.149389156857459E-3   -3.813481142574726E-3    3.225397864629358E-1   -3.675125632281389E-1
 9.937852759000000E9     4.587805064935570E-1   -1.448624926696108E-1   -4.024388040514123E-3   -3.878047035756572E-3   -4.174756332475681E-3   -3.879803199044616E-3    3.222251841605865E-1   -3.674458931328320E-1
 9.937853807125000E9     4.588613609949470E-1   -1.450212360232547E-1   -4.071982030508635E-3   -3.909082936928744E-3   -4.216056314086640E-3   -3.892548468987541E-3    3.217201098134362E-1   -3.677893897222264E-1
 9.937854855250000E9     4.585259703439576E-1   -1.451095871818699E-1   -4.114636083387514E-3   -3.933094028487769E-3   -4.258190505364441E-3   -3.935323119634962E-3    3.214375208601072E-1   -3.680770473954872E-1
 9.937855903375000E9     4.586485589293354E-1   -1.451713600130909E-1   -4.184605897074669E-3   -3.982341982479309E-3   -4.306409200268942E-3   -3.979437316391330E-3    3.211604177916259E-1   -3.683251959020013E-1
 9.937856951500000E9     4.586170609685249E-1   -1.450846182581225E-1   -4.235567988412482E-3   -3.989184180976706E-3   -4.342682102332701E-3   -3.985623421670965E-3    3.203199912034633E-1   -3.683654585991160E-1
 9.937857999625000E9     4.585901572206978E-1   -1.451774056501301E-1   -4.249206507419733E-3   -4.012986969900916E-3   -4.411537344140487E-3   -4.049852740136905E-3    3.199232402341857E-1   -3.686657114136390E-1
 9.937859047750000E9     4.585729635251655E-1   -1.452932273407067E-1   -4.333356044046017E-3   -4.058339768375726E-3   -4.431793863745473E-3   -4.080526480878488E-3    3.195111491979483E-1   -3.689753916984777E-1
 9.937860095875000E9     4.584470253482481E-1   -1.454233886604941E-1   -4.378156474979047E-3   -4.083679871540741E-3   -4.500780738096502E-3   -4.091186454648302E-3    3.189836605853058E-1   -3.693646589132664E-1
 9.937861144000000E9     4.585486492097629E-1   -1.454556358165062E-1   -4.410828769698398E-3   -4.111120329037569E-3   -4.535431237055880E-3   -4.148552885723574E-3    3.184460655654026E-1   -3.695563035915653E-1
 9.937862192125000E9     4.584515003809052E-1   -1.456094278708705E-1   -4.456691467074255E-3   -4.188683236186118E-3   -4.567438554351394E-3   -4.177941028974531E-3    3.183272040865935E-1   -3.696190974543234E-1
 9.937863240250000E9     4.583547941324797E-1   -1.456001398972083E-1   -4.528077431019390E-3   -4.184418519966485E-3   -4.647906016836246E-3   -4.199278528171057E-3    3.175550199729514E-1   -3.699316685567733E-1
 9.937864288375000E9     4.583279514047286E-1   -1.457128936353067E-1   -4.572753511846689E-3   -4.245548335411501E-3   -4.704428634704594E-3   -4.207776623296549E-3    3.170598208318359E-1   -3.703410074383028E-1
 9.937865336500000E9     4.583851756889631E-1   -1.456471894905471E-1   -4.627375436182969E-3   -4.289602527377660E-3   -4.755040220684831E-3   -4.257963103605257E-3    3.164748867318646E-1   -3.705582039472348E-1
 9.937866384625000E9     4.584047999442511E-1   -1.457178726425469E-1   -4.691004289780444E-3   -4.308690882946808E-3   -4.821024401785832E-3   -4.286643418995895E-3    3.160621480971327E-1   -3.707605011791427E-1
 9.937867432750000E9     4.583545362287436E-1   -1.458287524253609E-1   -4.741319200153443E-3   -4.344181495103042E-3   -4.861490586734932E-3   -4.334439025247233E-3    3.154406943125218E-1   -3.709707961047124E-1
 9.937868480875000E9     4.583768900453893E-1   -1.460900673218432E-1   -4.785597901168540E-3   -4.396896066443034E-3   -4.912594842014009E-3   -4.380717801883091E-3    3.148133682254696E-1   -3.712485543894127E-1
 9.937869529000000E9     4.582434344675120E-1   -1.461418682404456E-1   -4.824156918481328E-3   -4.434502306478212E-3   -4.986149418987076E-3   -4.449755663541891E-3    3.143377589501355E-1   -3.716987666120825E-1
 9.937870577125000E9     4.581794713265586E-1   -1.461724435956736E-1   -4.905033131746189E-3   -4.436729437894952E-3   -5.025235903606412E-3   -4.425909169469200E-3    3.138385300426684E-1   -3.717390935674644E-1
 9.937871625250000E9     4.581392121825029E-1   -1.462139469735332E-1   -4.940708423704396E-3   -4.506399228861823E-3   -5.086405241145824E-3   -4.511938484271413E-3    3.133584637455966E-1   -3.720744887916075E-1
 9.937872673375000E9     4.581926001404785E-1   -1.462212844532011E-1   -4.996134091410430E-3   -4.526984981726869E-3   -5.159592175312217E-3   -4.530609549167041E-3    3.125835073594679E-1   -3.725786000352360E-1
 9.937873721500000E9     4.581109413243037E-1   -1.463927468698201E-1   -5.056903227351985E-3   -4.598057813125059E-3   -5.211324011411994E-3   -4.588397458355718E-3    3.118060091965756E-1   -3.727728607222295E-1
 9.937874769625000E9     4.579750439244251E-1   -1.464441456024711E-1   -5.113099669102678E-3   -4.626712627332205E-3   -5.306690172811368E-3   -4.610169892166406E-3    3.113980616114042E-1   -3.729504184339862E-1
 9.937875817750000E9     4.580829283057909E-1   -1.465072714951624E-1   -5.189079090096311E-3   -4.661873765994678E-3   -5.332723832639783E-3   -4.642437617756913E-3    3.109539146825535E-1   -3.732155903505483E-1
 9.937876865875000E9     4.580424106138062E-1   -1.464798766076950E-1   -5.255999918975665E-3   -4.697738638848998E-3   -5.427508746485490E-3   -4.676374426773672E-3    3.102914693895654E-1   -3.736993287683490E-1
 9.937877914000000E9     4.579978642186388E-1   -1.467089322795787E-1   -5.329094327901144E-3   -4.684920765704573E-3   -5.461927544494112E-3   -4.740461814686639E-3    3.098710473731518E-1   -3.739826718647885E-1
 9.937878962125000E9     4.578956819183516E-1   -1.466895605742716E-1   -5.393901096454655E-3   -4.784209541428890E-3   -5.536977411525446E-3   -4.780160815952329E-3    3.089327450020903E-1   -3.740946350988459E-1
 9.937880010250000E9     4.580206445935867E-1   -1.468045125795419E-1   -5.447712299369567E-3   -4.811787601817273E-3   -5.627095914460007E-3   -4.827254403461504E-3    3.083371470157904E-1   -3.744156395571432E-1
