#  HZ   S   RI   R     50.00 
! Rohde & Schwarz Vector Network Analyzer 
! Rohde-Schwarz,ZNB20-2Port,1311601062101988,3.16
! Created: UTC 3/20/2024, 11:21:03 PM
! freq[Hz]                re:S11                  im:S11                  re:S21                  im:S21                  re:S12                  im:S12                  re:S22                  im:S22
 9.937787673000000E9     4.605952055025518E-1   -1.403263387342673E-1   -2.243767611004742E-3   -2.411898064105907E-3   -2.337864697869701E-3   -2.409410700910527E-3    3.419711834607583E-1   -3.552829233240539E-1
 9.937788721150000E9     4.605683465924310E-1   -1.404664516868965E-1   -2.243665581135286E-3   -2.444823494289153E-3   -2.358263064721382E-3   -2.415735777583993E-3    3.417243645979173E-1   -3.555187168244725E-1
 9.937789769299999E9     4.605765166425433E-1   -1.404080585136186E-1   -2.292573031418694E-3   -2.430651824721182E-3   -2.348819884871079E-3   -2.467765562957780E-3    3.414774597640945E-1   -3.558130346764525E-1
 9.937790817450001E9     4.605235920015483E-1   -1.405500241729425E-1   -2.284736494414846E-3   -2.476436270304735E-3   -2.371875008212934E-3   -2.488457664777777E-3    3.414973746014410E-1   -3.556464068601959E-1
 9.937791865600000E9     4.603989257001861E-1   -1.405752740951846E-1   -2.304867802567357E-3   -2.468575835457622E-3   -2.406670642828397E-3   -2.485517833329067E-3    3.410382391793889E-1   -3.559482962751571E-1
 9.937792913750000E9     4.604474572511210E-1   -1.407026978674524E-1   -2.327664401317596E-3   -2.499093059648602E-3   -2.408237145178994E-3   -2.515628334423170E-3    3.406630431463363E-1   -3.561011538062290E-1
 9.937793961900000E9     4.604013092919969E-1   -1.409222457138479E-1   -2.392885039885105E-3   -2.514859444914898E-3   -2.443853385480978E-3   -2.539749499669585E-3    3.406442202469651E-1   -3.562974678849377E-1
 9.937795010049999E9     4.605127817131811E-1   -1.408514950071635E-1   -2.399789812810591E-3   -2.511931329904619E-3   -2.428814028780450E-3   -2.530399196153381E-3    3.404005086833334E-1   -3.565692275164344E-1
 9.937796058200001E9     4.603952147274188E-1   -1.408318073422825E-1   -2.366571153197341E-3   -2.560229409894258E-3   -2.471078784445524E-3   -2.561343528493286E-3    3.402416277380986E-1   -3.568226928617398E-1
 9.937797106350000E9     4.603773166419909E-1   -1.409497942491425E-1   -2.444710881650945E-3   -2.580707065300953E-3   -2.452560926293237E-3   -2.566655207492692E-3    3.397595003395407E-1   -3.567991936348270E-1
 9.937798154500000E9     4.602411926099767E-1   -1.410786780325293E-1   -2.456814960478174E-3   -2.621678309390628E-3   -2.499942694338031E-3   -2.562395945806580E-3    3.398394895006298E-1   -3.570014685011724E-1
 9.937799202650000E9     4.602169337990527E-1   -1.412114511761756E-1   -2.431785260146721E-3   -2.578669414686990E-3   -2.532862402631893E-3   -2.608289810431912E-3    3.395710648574337E-1   -3.571004167386257E-1
 9.937800250799999E9     4.603196154647405E-1   -1.412492774399755E-1   -2.477875741236153E-3   -2.617153044706350E-3   -2.562749881831014E-3   -2.675628699310344E-3    3.393722239628291E-1   -3.572138435512524E-1
 9.937801298950001E9     4.601965321286383E-1   -1.412043041617132E-1   -2.514090652208649E-3   -2.665268099928470E-3   -2.603871816768023E-3   -2.647959731842469E-3    3.388257967793925E-1   -3.573851921918959E-1
 9.937802347100000E9     4.602336826922029E-1   -1.413395735371164E-1   -2.522381301627723E-3   -2.656024751789026E-3   -2.620631059410367E-3   -2.655059247382216E-3    3.388477005493187E-1   -3.576866797352011E-1
 9.937803395250000E9     4.601303630110825E-1   -1.415124774875313E-1   -2.542406417402324E-3   -2.688150901381184E-3   -2.595342703165616E-3   -2.701185629897327E-3    3.384466759252096E-1   -3.578176466089358E-1
 9.937804443400000E9     4.600611095075691E-1   -1.415649721139534E-1   -2.591634931710643E-3   -2.737197431264590E-3   -2.646149796867615E-3   -2.721714314901675E-3    3.380801621215907E-1   -3.579648418588269E-1
 9.937805491549999E9     4.600680523782959E-1   -1.415678508645267E-1   -2.598160172548181E-3   -2.719066146502335E-3   -2.683153128777991E-3   -2.734776040532942E-3    3.378199188049192E-1   -3.582632470742734E-1
 9.937806539700001E9     4.600052529958394E-1   -1.416965406586603E-1   -2.606965110808548E-3   -2.729897371992309E-3   -2.730172380944812E-3   -2.762979133325626E-3    3.375093003245571E-1   -3.582069682176267E-1
 9.937807587850000E9     4.600542087071601E-1   -1.417024740295119E-1   -2.624553978834129E-3   -2.756331834007825E-3   -2.717953283320874E-3   -2.777418341434809E-3    3.371586214844050E-1   -3.584073064708796E-1
 9.937808636000000E9     4.600052059916339E-1   -1.418294124834543E-1   -2.639552654083395E-3   -2.788493784285532E-3   -2.755079591808190E-3   -2.804574149390607E-3    3.370053188194286E-1   -3.587053997303136E-1
 9.937809684150000E9     4.599766724772205E-1   -1.418702023746771E-1   -2.663521114527795E-3   -2.810516232391327E-3   -2.785652107622090E-3   -2.755372270033482E-3    3.368233401774235E-1   -3.588960982049059E-1
 9.937810732299999E9     4.600310681510943E-1   -1.419495735874725E-1   -2.702618055635252E-3   -2.797704500368674E-3   -2.824049683941269E-3   -2.814556648361713E-3    3.366386200818006E-1   -3.589683709482295E-1
 9.937811780450001E9     4.598495287610176E-1   -1.419122488186901E-1   -2.735339236197603E-3   -2.827851892061487E-3   -2.787926854688690E-3   -2.834326888603056E-3    3.364164270055356E-1   -3.590899111219373E-1
 9.937812828600000E9     4.598193900383102E-1   -1.421120962584109E-1   -2.766582132153301E-3   -2.867448808017268E-3   -2.833675205126539E-3   -2.866746157824940E-3    3.361650147506248E-1   -3.592875058809869E-1
 9.937813876750000E9     4.598462045921645E-1   -1.421761480771920E-1   -2.787528054508400E-3   -2.937167791935166E-3   -2.875830887489412E-3   -2.896791568317071E-3    3.359050223666123E-1   -3.594734675001878E-1
 9.937814924900000E9     4.597434653925956E-1   -1.423153525201194E-1   -2.808640362589995E-3   -2.925870497704288E-3   -2.860958367921540E-3   -2.888451622980912E-3    3.354935069692595E-1   -3.597147675889035E-1
 9.937815973049999E9     4.597255618819441E-1   -1.423086502145101E-1   -2.825924079474422E-3   -2.919532677872118E-3   -2.916518751071830E-3   -2.952872973318259E-3    3.350932730888666E-1   -3.598187761554759E-1
 9.937817021200001E9     4.597899373641340E-1   -1.423180900119585E-1   -2.855721737384497E-3   -2.971027958553865E-3   -2.938055044592044E-3   -2.954112774953452E-3    3.349254639989030E-1   -3.600354127219988E-1
 9.937818069350000E9     4.597013125385595E-1   -1.423768715954445E-1   -2.870696211920376E-3   -2.994815089859279E-3   -2.961498116371512E-3   -2.969664377235257E-3    3.346651071525923E-1   -3.603312319983508E-1
 9.937819117500000E9     4.596360230601199E-1   -1.425264719844916E-1   -2.909466472522626E-3   -2.956576420044697E-3   -2.991627736807810E-3   -3.001856285342561E-3    3.345133808396021E-1   -3.602670041242547E-1
 9.937820165650000E9     4.596432166205380E-1   -1.425304190995982E-1   -2.963938119247641E-3   -2.996200257039633E-3   -2.998800517717924E-3   -3.014589953613651E-3    3.340812891359813E-1   -3.607493937570368E-1
 9.937821213799999E9     4.594910759418221E-1   -1.426404926719186E-1   -2.970757695240436E-3   -3.057044801765053E-3   -3.038114724681170E-3   -3.027981638739510E-3    3.337313212749326E-1   -3.608493239370331E-1
 9.937822261950001E9     4.596102799488886E-1   -1.427341254538492E-1   -2.991918529216759E-3   -3.032324186847205E-3   -3.075505539654609E-3   -3.080408837575323E-3    3.335212341261458E-1   -3.609424586755854E-1
 9.937823310100000E9     4.594540851584248E-1   -1.428983805688398E-1   -3.009309992520976E-3   -3.074483572063919E-3   -3.129547441170644E-3   -3.063177227705701E-3    3.331109627157345E-1   -3.612504645486845E-1
 9.937824358250000E9     4.595633469567750E-1   -1.428695433992003E-1   -3.032162880590598E-3   -3.083655412699026E-3   -3.151779201710803E-3   -3.074512800371441E-3    3.329727892250635E-1   -3.614306021466015E-1
 9.937825406400000E9     4.595107122458739E-1   -1.429001619965898E-1   -3.100168825343028E-3   -3.140918143129242E-3   -3.143919902948221E-3   -3.115990882014113E-3    3.325432973163015E-1   -3.615021829388356E-1
 9.937826454549999E9     4.594736472919780E-1   -1.430685624531927E-1   -3.109625958170937E-3   -3.118540513574213E-3   -3.196727470866163E-3   -3.139652926066924E-3    3.322055331115766E-1   -3.617809258933112E-1
 9.937827502700001E9     4.595466101190330E-1   -1.430643034544454E-1   -3.130541583045524E-3   -3.188392717854547E-3   -3.248972219267619E-3   -3.158331396809248E-3    3.318989475271689E-1   -3.619127898532082E-1
 9.937828550850000E9     4.592741289097296E-1   -1.432144715293186E-1   -3.152243469370845E-3   -3.185776008825804E-3   -3.266067328719762E-3   -3.208707930344350E-3    3.314116987652464E-1   -3.622513352860336E-1
 9.937829599000000E9     4.593984192045373E-1   -1.433288617764754E-1   -3.173262378726043E-3   -3.234923376760173E-3   -3.267171488536341E-3   -3.192478405690113E-3    3.312487911413748E-1   -3.623798560236126E-1
 9.937830647150000E9     4.593298400817895E-1   -1.432664589118991E-1   -3.206051321242732E-3   -3.218407153988555E-3   -3.355720538038081E-3   -3.223379318316314E-3    3.308937252660420E-1   -3.625807610065921E-1
 9.937831695299999E9     4.593481110060810E-1   -1.433962236356877E-1   -3.224215620608631E-3   -3.262958489675165E-3   -3.345475063671212E-3   -3.279366782209242E-3    3.307012880742403E-1   -3.627109625118889E-1
 9.937832743450001E9     4.593635343023670E-1   -1.434150361442271E-1   -3.316246431767898E-3   -3.271026376267886E-3   -3.393308619344034E-3   -3.286905966813812E-3    3.302486387944428E-1   -3.630316369439777E-1
 9.937833791600000E9     4.592577711147821E-1   -1.435440531147367E-1   -3.309109401901272E-3   -3.333593514280599E-3   -3.421944226420997E-3   -3.332228185547161E-3    3.298770725414528E-1   -3.631335575922278E-1
 9.937834839750000E9     4.593002750038944E-1   -1.436103257429598E-1   -3.361722011544524E-3   -3.338992355763679E-3   -3.407445124125084E-3   -3.350278931808254E-3    3.295863495880400E-1   -3.631748048017501E-1
 9.937835887900000E9     4.592014980771406E-1   -1.436576418674120E-1   -3.376911175558815E-3   -3.364802040385607E-3   -3.489374736511320E-3   -3.348261167978321E-3    3.293273072086140E-1   -3.634662356905767E-1
 9.937836936049999E9     4.591739934959224E-1   -1.436085763209984E-1   -3.392730172870400E-3   -3.375363638314483E-3   -3.476872922775970E-3   -3.374407568016951E-3    3.289283991950552E-1   -3.638403068465560E-1
 9.937837984200001E9     4.591683647698593E-1   -1.437964479089284E-1   -3.452000796340886E-3   -3.421971891011405E-3   -3.543841107448419E-3   -3.407871271204514E-3    3.285729709361671E-1   -3.639790014132085E-1
 9.937839032350000E9     4.590593505703943E-1   -1.438961419301455E-1   -3.497475678961891E-3   -3.483335666754721E-3   -3.597607325470145E-3   -3.456046582238320E-3    3.281577548385854E-1   -3.642865594329043E-1
 9.937840080500000E9     4.591788542732340E-1   -1.438722840864076E-1   -3.510733363078934E-3   -3.453724189045007E-3   -3.611872921589181E-3   -3.480434909195434E-3    3.278310575368537E-1   -3.642970219281552E-1
 9.937841128650000E9     4.590835938477664E-1   -1.440727710854796E-1   -3.514889990754061E-3   -3.502227191812233E-3   -3.691124859663555E-3   -3.488610462286531E-3    3.273692771208948E-1   -3.646180932624972E-1
 9.937842176799999E9     4.591002734999986E-1   -1.441686888268776E-1   -3.623159830259256E-3   -3.526839550970770E-3   -3.686403427073274E-3   -3.528101889010969E-3    3.269368680051499E-1   -3.649088044348952E-1
 9.937843224950001E9     4.590090669310496E-1   -1.442930782828742E-1   -3.607835785871145E-3   -3.514090316794592E-3   -3.731831088256738E-3   -3.521968902730182E-3    3.267984841761529E-1   -3.652140260769547E-1
 9.937844273100000E9     4.589059670680617E-1   -1.442643627589428E-1   -3.677579684319036E-3   -3.583245183847653E-3   -3.771689033923739E-3   -3.595069481689717E-3    3.263278286573978E-1   -3.652660157439162E-1
 9.937845321250000E9     4.590936891040714E-1   -1.444305438143672E-1   -3.721939065225958E-3   -3.597451817048839E-3   -3.822594394082173E-3   -3.617650525289651E-3    3.258740829608682E-1   -3.654060173060690E-1
 9.937846369400000E9     4.590513649310420E-1   -1.444173292116275E-1   -3.744259657959154E-3   -3.649566217451085E-3   -3.843091452438833E-3   -3.654499533473675E-3    3.255996257500138E-1   -3.656462495644226E-1
 9.937847417549999E9     4.589446241684335E-1   -1.445185525620504E-1   -3.759562046768126E-3   -3.680277268997322E-3   -3.881462977349742E-3   -3.685353302241266E-3    3.250414569967476E-1   -3.659397620675501E-1
 9.937848465700001E9     4.588138687675737E-1   -1.444990374686450E-1   -3.769938092890185E-3   -3.691883247110856E-3   -3.958721678995906E-3   -3.678510892774589E-3    3.247935778774721E-1   -3.663405883289037E-1
 9.937849513850000E9     4.588243967643015E-1   -1.447153073696074E-1   -3.856542867551099E-3   -3.723746240790835E-3   -3.960059052829883E-3   -3.734392854858285E-3    3.241850065225236E-1   -3.663677955388115E-1
 9.937850562000000E9     4.588467897724545E-1   -1.448660217759580E-1   -3.893929874570538E-3   -3.749707793381949E-3   -3.980970821808975E-3   -3.738358966239863E-3    3.238336848039334E-1   -3.666005575102772E-1
 9.937851610150000E9     4.587844678590892E-1   -1.448449299252710E-1   -3.926771946163850E-3   -3.784134488648225E-3   -4.046243123534827E-3   -3.771095139321310E-3    3.233750105426235E-1   -3.669896479668044E-1
 9.937852658299999E9     4.588372920662229E-1   -1.448519873312836E-1   -3.973180790939590E-3   -3.781542320251364E-3   -4.131577087909909E-3   -3.824981185171266E-3    3.229878730267909E-1   -3.671534249105232E-1
 9.937853706450001E9     4.587599493375881E-1   -1.449473373204307E-1   -3.975036609705142E-3   -3.848793049242297E-3   -4.157746080292467E-3   -3.857431365757400E-3    3.224468928892488E-1   -3.673740182535656E-1
 9.937854754600000E9     4.588201130416619E-1   -1.450055162724567E-1   -4.045367183094809E-3   -3.892767362946721E-3   -4.190144293137722E-3   -3.851865507469408E-3    3.223612461286710E-1   -3.676356152943291E-1
 9.937855802750000E9     4.586216573776505E-1   -1.451112335000915E-1   -4.099490187303795E-3   -3.916458977101372E-3   -4.200180364254262E-3   -3.903829873987289E-3    3.217147868616270E-1   -3.678781526128537E-1
 9.937856850900000E9     4.586023790954407E-1   -1.453033071825824E-1   -4.146066497126637E-3   -3.925657384517914E-3   -4.276373352882017E-3   -3.933213564744785E-3    3.214078976937612E-1   -3.681926601710975E-1
 9.937857899049999E9     4.586022678016317E-1   -1.451419408723182E-1   -4.180736024912945E-3   -3.984148166463689E-3   -4.309371053227209E-3   -3.981109356635111E-3    3.209073479324244E-1   -3.684877328390581E-1
 9.937858947200001E9     4.585063419512586E-1   -1.453737565730475E-1   -4.235187445398735E-3   -3.986113404703738E-3   -4.342246100079804E-3   -4.013038696291493E-3    3.203557323450065E-1   -3.685837977296357E-1
 9.937859995350000E9     4.585997187983004E-1   -1.453330782764434E-1   -4.267592799948537E-3   -4.033916441303341E-3   -4.424490184972215E-3   -4.024373710331805E-3    3.197791639347312E-1   -3.687940219104490E-1
 9.937861043500000E9     4.586043051830302E-1   -1.453397599210288E-1   -4.273040587895003E-3   -4.064409653816702E-3   -4.434960206209149E-3   -4.078335600359926E-3    3.195156227515668E-1   -3.691410012336648E-1
 9.937862091650000E9     4.584361922543250E-1   -1.456023114602021E-1   -4.320525014974091E-3   -4.148262143422302E-3   -4.492248414025176E-3   -4.083211729255000E-3    3.189519861805546E-1   -3.691866200083357E-1
 9.937863139799999E9     4.583498965835010E-1   -1.455067474406450E-1   -4.431898477221106E-3   -4.165775437740389E-3   -4.570382033905653E-3   -4.151720037149052E-3    3.182648977663680E-1   -3.694524044522801E-1
 9.937864187950001E9     4.583802981914961E-1   -1.457023515504664E-1   -4.452317760629133E-3   -4.153952388010013E-3   -4.602415012856707E-3   -4.144160743293690E-3    3.180072095111758E-1   -3.699303042289536E-1
 9.937865236100000E9     4.584256241380409E-1   -1.458483306199898E-1   -4.539916171837213E-3   -4.183220201473478E-3   -4.656395082063507E-3   -4.215615382664746E-3    3.174111653973145E-1   -3.701085347490456E-1
 9.937866284250000E9     4.583925237501155E-1   -1.458806934837588E-1   -4.550162536060762E-3   -4.257619520042690E-3   -4.667756771940778E-3   -4.225240153498927E-3    3.170181842244600E-1   -3.703454615959469E-1
 9.937867332400000E9     4.583472045815411E-1   -1.459408815875881E-1   -4.595233166747702E-3   -4.260542186058922E-3   -4.775193823194405E-3   -4.259396388141377E-3    3.165016492572344E-1   -3.706594941214154E-1
 9.937868380549999E9     4.583272511863289E-1   -1.460328954209877E-1   -4.655674588177632E-3   -4.305216222782895E-3   -4.802154937430549E-3   -4.318858306403831E-3    3.158994002424954E-1   -3.709852056757906E-1
 9.937869428700001E9     4.583484112735026E-1   -1.460916552117076E-1   -4.715568591816525E-3   -4.338493572724084E-3   -4.842617024010476E-3   -4.327203675786668E-3    3.152307489232472E-1   -3.711233755950030E-1
 9.937870476850000E9     4.582063603424283E-1   -1.462732412592297E-1   -4.752928527524189E-3   -4.403486050197223E-3   -4.912948892124489E-3   -4.396871344827397E-3    3.148237787729514E-1   -3.714709239061349E-1
 9.937871525000000E9     4.582632723476751E-1   -1.461344621299678E-1   -4.836193749223366E-3   -4.458084330183501E-3   -4.983576255625578E-3   -4.412901143737030E-3    3.141387270598411E-1   -3.716131384052890E-1
 9.937872573150000E9     4.581526925154417E-1   -1.462175374224460E-1   -4.859953568711875E-3   -4.452266688878371E-3   -5.029262577441480E-3   -4.460209490015464E-3    3.137520995183700E-1   -3.720669062200480E-1
 9.937873621299999E9     4.582440968863933E-1   -1.463240784909086E-1   -4.951072200215867E-3   -4.478023742477375E-3   -5.074364869943785E-3   -4.490476004671315E-3    3.130785346003291E-1   -3.721967581372305E-1
 9.937874669450001E9     4.580407852716691E-1   -1.463598234393814E-1   -5.030289256686933E-3   -4.525584669683297E-3   -5.124329586018516E-3   -4.540667173479218E-3    3.125990595003899E-1   -3.725533940443673E-1
 9.937875717600000E9     4.580094717299804E-1   -1.465109363726435E-1   -5.074549600715373E-3   -4.589064480732753E-3   -5.232127876779045E-3   -4.564430854478962E-3    3.120004077216427E-1   -3.728491545440804E-1
 9.937876765750000E9     4.580108376353331E-1   -1.466470334128687E-1   -5.141958610616375E-3   -4.600235274399224E-3   -5.265802482062603E-3   -4.620318955970885E-3    3.113195621817988E-1   -3.730497547533008E-1
 9.937877813900000E9     4.581211240287927E-1   -1.465912148219172E-1   -5.188486488082369E-3   -4.669142396100757E-3   -5.328390627506816E-3   -4.672016429344669E-3    3.108497896373967E-1   -3.732488133734289E-1
 9.937878862049999E9     4.579817615322348E-1   -1.467488014078386E-1   -5.232105497566026E-3   -4.684614872902618E-3   -5.427714368613374E-3   -4.738718556256004E-3    3.101895998054798E-1   -3.736818265121887E-1
 9.937879910200001E9     4.579404750389082E-1   -1.467264605496141E-1   -5.303759224059846E-3   -4.745852756738609E-3   -5.473028243789464E-3   -4.720785756503611E-3    3.094436960893518E-1   -3.739034691568833E-1
 9.937880958350000E9     4.578934757188342E-1   -1.469074522099511E-1   -5.373647191658691E-3   -4.803102539173376E-3   -5.545966136244489E-3   -4.780957710536745E-3    3.088860179115867E-1   -3.741499838743786E-1
 9.937882006500000E9     4.579932746132548E-1   -1.469048328481358E-1   -5.451955956557634E-3   -4.813194542868363E-3   -5.594235997499043E-3   -4.845985450101709E-3    3.082471818867830E-1   -3.746089788186894E-1
