#  HZ   S   RI   R     50.00 
! Rohde & Schwarz Vector Network Analyzer 
! Rohde-Schwarz,ZNB20-2Port,1311601062101988,3.16
! Created: UTC 3/20/2024, 11:21:08 PM
! freq[Hz]                re:S11                  im:S11                  re:S21                  im:S21                  re:S12                  im:S12                  re:S22                  im:S22
 9.937794149000000E9     4.603933263320982E-1   -1.408431858949152E-1   -2.260791532061207E-3   -2.442943323204886E-3   -2.376356105170189E-3   -2.484801995836653E-3    3.411302463862130E-1   -3.559303665274020E-1
 9.937795185174999E9     4.605330342234444E-1   -1.409148944202356E-1   -2.287056941325472E-3   -2.469019010526239E-3   -2.394200773772782E-3   -2.454950950828659E-3    3.410803017455967E-1   -3.561642925563906E-1
 9.937796221350000E9     4.603893608079686E-1   -1.409078502690281E-1   -2.340658557707679E-3   -2.486731480895105E-3   -2.365750725061172E-3   -2.486509430891286E-3    3.410319698027710E-1   -3.563029403116226E-1
 9.937797257525000E9     4.604492988258673E-1   -1.409537174209688E-1   -2.343994499246567E-3   -2.519612784894507E-3   -2.436154413497993E-3   -2.501004763364808E-3    3.405947080915147E-1   -3.562974094264189E-1
 9.937798293700001E9     4.602809541852914E-1   -1.410137724430152E-1   -2.381884156415752E-3   -2.477317862540366E-3   -2.463019974257814E-3   -2.541929259105655E-3    3.404312481786360E-1   -3.566224624652665E-1
 9.937799329875000E9     4.602750105470352E-1   -1.411214359640313E-1   -2.378646852286997E-3   -2.529559131325854E-3   -2.467704988287627E-3   -2.572416086478646E-3    3.401927319620107E-1   -3.566961472857991E-1
 9.937800366049999E9     4.602881910957273E-1   -1.412499556289385E-1   -2.414771619823317E-3   -2.535256880768496E-3   -2.481587251878360E-3   -2.589762716264097E-3    3.401978013853908E-1   -3.567722075445207E-1
 9.937801402225000E9     4.602095015682693E-1   -1.413027592310402E-1   -2.451792735924707E-3   -2.561874620686731E-3   -2.507851815039989E-3   -2.559221663313102E-3    3.397717065013886E-1   -3.572613682867353E-1
 9.937802438400000E9     4.601804384931632E-1   -1.413881147874259E-1   -2.441083916000974E-3   -2.598974779690191E-3   -2.531120715222768E-3   -2.607818338601344E-3    3.394354966016768E-1   -3.571753750381831E-1
 9.937803474575001E9     4.601421354755856E-1   -1.414859157317565E-1   -2.461659278419413E-3   -2.600983567914556E-3   -2.552838182453789E-3   -2.620091566971433E-3    3.392701377112325E-1   -3.573519010989241E-1
 9.937804510750000E9     4.601678516605186E-1   -1.414003962779817E-1   -2.467202924767318E-3   -2.637171357908689E-3   -2.547053640126138E-3   -2.634788091152850E-3    3.389768357753110E-1   -3.575510249500797E-1
 9.937805546924999E9     4.601493161269010E-1   -1.415760284708091E-1   -2.518306460929934E-3   -2.657292355671729E-3   -2.561676842178753E-3   -2.635031183144749E-3    3.388187634248667E-1   -3.574329665547266E-1
 9.937806583100000E9     4.599822499444399E-1   -1.416091445852339E-1   -2.499384480982799E-3   -2.651498609107127E-3   -2.603302505148852E-3   -2.663810816292916E-3    3.383923499181438E-1   -3.577212543911161E-1
 9.937807619275000E9     4.600765641766885E-1   -1.417097374776584E-1   -2.560855144353595E-3   -2.675547525214720E-3   -2.613495323164251E-3   -2.671695741285150E-3    3.382437903388559E-1   -3.580019899881042E-1
 9.937808655450001E9     4.600572940792901E-1   -1.418785991322058E-1   -2.535086210731175E-3   -2.728079630600155E-3   -2.669738676417767E-3   -2.677516341829576E-3    3.380377989088956E-1   -3.584541190052004E-1
 9.937809691625000E9     4.598644694102247E-1   -1.418993711784237E-1   -2.570439512537256E-3   -2.717198163777538E-3   -2.661753148677533E-3   -2.748891600982996E-3    3.376770028350444E-1   -3.584223126820911E-1
 9.937810727799999E9     4.598809530306781E-1   -1.419006268186327E-1   -2.574937166338440E-3   -2.721381541866927E-3   -2.713079590189339E-3   -2.719004129625426E-3    3.374879078450192E-1   -3.585845999769670E-1
 9.937811763975000E9     4.598655348681221E-1   -1.419704391060380E-1   -2.623377286707462E-3   -2.803569963989636E-3   -2.714433992696308E-3   -2.757960411145719E-3    3.371905549559658E-1   -3.586159321119534E-1
 9.937812800150000E9     4.600099230213487E-1   -1.421377103498208E-1   -2.672946570324220E-3   -2.770141210735971E-3   -2.726146862087170E-3   -2.746685122370732E-3    3.368568906047041E-1   -3.587962214890837E-1
 9.937813836325001E9     4.597987111674370E-1   -1.420981416927216E-1   -2.683665026279807E-3   -2.799134984583644E-3   -2.774030066051174E-3   -2.820370357876153E-3    3.367184969386992E-1   -3.590126438769030E-1
 9.937814872500000E9     4.598025479067876E-1   -1.422489260749538E-1   -2.670521633221550E-3   -2.826755424191491E-3   -2.798658507325965E-3   -2.811580278749593E-3    3.365230073133046E-1   -3.590243496013937E-1
 9.937815908674999E9     4.597244171013504E-1   -1.422013596017732E-1   -2.711206836734113E-3   -2.843664002855515E-3   -2.783155901878479E-3   -2.859456940168620E-3    3.361391688506168E-1   -3.594357279527717E-1
 9.937816944850000E9     4.597759029221036E-1   -1.423591957227512E-1   -2.762906900467383E-3   -2.859108018548186E-3   -2.839829455525056E-3   -2.869153414183964E-3    3.360311939462814E-1   -3.597228967644190E-1
 9.937817981025000E9     4.598098635961783E-1   -1.424561295978560E-1   -2.780853201393740E-3   -2.874020566042065E-3   -2.860146039175771E-3   -2.865705516017533E-3    3.354941530761738E-1   -3.597710556239548E-1
 9.937819017200001E9     4.597568681438728E-1   -1.425724633077231E-1   -2.781324796249757E-3   -2.929107691662512E-3   -2.888917688512791E-3   -2.908563275723790E-3    3.355235466500277E-1   -3.598304817746957E-1
 9.937820053375000E9     4.597263811089448E-1   -1.426302138944265E-1   -2.813800542737026E-3   -2.938852063985403E-3   -2.887918415012234E-3   -2.928706315951676E-3    3.350627654338810E-1   -3.601372867321941E-1
 9.937821089549999E9     4.596549833152282E-1   -1.426292147308227E-1   -2.858096553819496E-3   -2.953997569944925E-3   -2.946705664564742E-3   -2.948376931307461E-3    3.348688805321831E-1   -3.604030606397655E-1
 9.937822125725000E9     4.597843295370581E-1   -1.427711336729089E-1   -2.886140436431549E-3   -2.950422951222300E-3   -2.954662450031263E-3   -2.974640131601945E-3    3.344463456573222E-1   -3.603710642193207E-1
 9.937823161900000E9     4.597502676136030E-1   -1.427649101187154E-1   -2.874057059992799E-3   -2.954559634777165E-3   -2.990977207660108E-3   -2.980536095212100E-3    3.342728697443180E-1   -3.606212728812440E-1
 9.937824198075001E9     4.595550656137358E-1   -1.429093641114365E-1   -2.881628836603431E-3   -3.008562221860178E-3   -3.013598252572725E-3   -3.029597276515118E-3    3.340393575455275E-1   -3.608218115758592E-1
 9.937825234250000E9     4.595353156810022E-1   -1.429089424585832E-1   -2.986681107617479E-3   -3.018155293637672E-3   -3.037107398305732E-3   -3.015033958600624E-3    3.335363002473245E-1   -3.609534102650069E-1
 9.937826270424999E9     4.594540843344290E-1   -1.429679057347251E-1   -2.976474177873235E-3   -3.086464767334607E-3   -3.086002553089856E-3   -3.079459122078171E-3    3.334459306129371E-1   -3.612900923876765E-1
 9.937827306600000E9     4.595974766007303E-1   -1.431699988062997E-1   -2.972238485552177E-3   -3.075469237483178E-3   -3.106599596659841E-3   -3.086746062801909E-3    3.331100376817737E-1   -3.613580080155418E-1
 9.937828342775000E9     4.595590011763558E-1   -1.432380479133518E-1   -3.040351040565868E-3   -3.126482936084420E-3   -3.124732523982841E-3   -3.082494806574900E-3    3.327960563283328E-1   -3.615764395601866E-1
 9.937829378950001E9     4.593000539767765E-1   -1.432631345451516E-1   -3.040748397793600E-3   -3.115860581984114E-3   -3.155871675207663E-3   -3.125243454780156E-3    3.324764170515078E-1   -3.616982788244028E-1
 9.937830415125000E9     4.593424714751040E-1   -1.433039867113725E-1   -3.108211930357582E-3   -3.140470253001521E-3   -3.192956398725414E-3   -3.157691280517192E-3    3.321125120054609E-1   -3.620640575769009E-1
 9.937831451299999E9     4.593576263619065E-1   -1.432284279006193E-1   -3.161250494056663E-3   -3.173192376993799E-3   -3.229402679639207E-3   -3.149767759396799E-3    3.318719202022274E-1   -3.621748544930518E-1
 9.937832487475000E9     4.593657607875196E-1   -1.434096575022545E-1   -3.151071766652304E-3   -3.171730452854714E-3   -3.269638811123394E-3   -3.208028440269060E-3    3.313436592493315E-1   -3.623329919933070E-1
 9.937833523650000E9     4.593437125251272E-1   -1.435699021422443E-1   -3.208050922508057E-3   -3.189303802393495E-3   -3.256243054514994E-3   -3.192386634351402E-3    3.312955053657791E-1   -3.627673691280254E-1
 9.937834559825001E9     4.593429784502663E-1   -1.435737334267488E-1   -3.215367051105995E-3   -3.244727436649519E-3   -3.300946357542191E-3   -3.238167635752720E-3    3.309074770104959E-1   -3.627260242831369E-1
 9.937835596000000E9     4.593754749955601E-1   -1.436489945765784E-1   -3.241389747110920E-3   -3.253201262706314E-3   -3.307724045494786E-3   -3.253565139577197E-3    3.305559599907530E-1   -3.627641643156136E-1
 9.937836632174999E9     4.593084929985636E-1   -1.436731737415303E-1   -3.278073394070223E-3   -3.273254183355217E-3   -3.394930407268732E-3   -3.301239124318792E-3    3.300708246940669E-1   -3.631452672953847E-1
 9.937837668350000E9     4.591728085956687E-1   -1.438291080424624E-1   -3.283139914816375E-3   -3.304507576309462E-3   -3.395202066105901E-3   -3.306544552006335E-3    3.298229779888614E-1   -3.633783039469599E-1
 9.937838704525000E9     4.592215917329256E-1   -1.438965850973290E-1   -3.309537711173767E-3   -3.328213645637654E-3   -3.429238390048845E-3   -3.332399347310131E-3    3.295080438816049E-1   -3.634838661700934E-1
 9.937839740700001E9     4.590261428212711E-1   -1.439789611103909E-1   -3.369627037406214E-3   -3.357612507272038E-3   -3.473555820758811E-3   -3.358019967625948E-3    3.292564415954018E-1   -3.636874517807131E-1
 9.937840776875000E9     4.590945851951203E-1   -1.440692786118125E-1   -3.372646928910621E-3   -3.371621815254507E-3   -3.481674887045789E-3   -3.387914634736148E-3    3.287609625675114E-1   -3.638632440704626E-1
 9.937841813049999E9     4.591515137109556E-1   -1.441240725572780E-1   -3.438403847616314E-3   -3.439118456630173E-3   -3.529201381804148E-3   -3.391908418122169E-3    3.282621408140457E-1   -3.642166872306362E-1
 9.937842849225000E9     4.589087593576058E-1   -1.442138870617860E-1   -3.428365193160969E-3   -3.430087105335454E-3   -3.553164255110893E-3   -3.461636629375560E-3    3.280519962427350E-1   -3.643900402123394E-1
 9.937843885400000E9     4.590497671466778E-1   -1.442899094182199E-1   -3.496151466948164E-3   -3.460962196695565E-3   -3.623091927976235E-3   -3.471910442950059E-3    3.278046693461853E-1   -3.645401122498779E-1
 9.937844921575001E9     4.590250147062953E-1   -1.442405772600444E-1   -3.536117078920243E-3   -3.494769144672470E-3   -3.625903936830616E-3   -3.485952117155188E-3    3.275052402562918E-1   -3.648113238759590E-1
 9.937845957750000E9     4.590551276210565E-1   -1.443719362764474E-1   -3.586549692179704E-3   -3.524779564275295E-3   -3.674436273893333E-3   -3.506407027066674E-3    3.269563882251485E-1   -3.649997901805667E-1
 9.937846993924999E9     4.589473901939521E-1   -1.443410330760782E-1   -3.616551898274953E-3   -3.528336573547049E-3   -3.708562403122768E-3   -3.550370225038217E-3    3.266125929067535E-1   -3.650728095949737E-1
 9.937848030100000E9     4.591036870388588E-1   -1.444524261968843E-1   -3.627300257475177E-3   -3.577706055705551E-3   -3.719014280640048E-3   -3.546402333060520E-3    3.260841567975650E-1   -3.654954977937774E-1
 9.937849066275000E9     4.587114631286986E-1   -1.445812078705324E-1   -3.666648716506421E-3   -3.593118976825142E-3   -3.773689683974858E-3   -3.608345666295694E-3    3.258488375080633E-1   -3.658287578378553E-1
 9.937850102450001E9     4.588846146491487E-1   -1.447370142484780E-1   -3.735849027414305E-3   -3.618313031140569E-3   -3.783226416191993E-3   -3.634543504679957E-3    3.255466264825619E-1   -3.659172237163359E-1
 9.937851138625000E9     4.588858769015650E-1   -1.447682112859602E-1   -3.749956549818234E-3   -3.674443259033440E-3   -3.872146604704077E-3   -3.674879468470582E-3    3.251611726904857E-1   -3.662890394990393E-1
 9.937852174799999E9     4.588967266671946E-1   -1.448884738483708E-1   -3.803820582975170E-3   -3.706542901570284E-3   -3.871888224768421E-3   -3.669041877529364E-3    3.246117233541633E-1   -3.664288514498432E-1
 9.937853210975000E9     4.588476905283712E-1   -1.449710946799843E-1   -3.807721136304257E-3   -3.718781468423634E-3   -3.920512038446558E-3   -3.707014023604190E-3    3.242646372249733E-1   -3.666186740753849E-1
 9.937854247150000E9     4.586603040830842E-1   -1.449373101507714E-1   -3.863941967232181E-3   -3.746040283309935E-3   -3.935207359283822E-3   -3.740678384384701E-3    3.237010931768012E-1   -3.670155255251951E-1
 9.937855283325001E9     4.587407915130934E-1   -1.450454506629590E-1   -3.897404684890156E-3   -3.786663922934588E-3   -4.040753952813362E-3   -3.763356895943415E-3    3.234672011202054E-1   -3.671255355991319E-1
 9.937856319500000E9     4.586954570689678E-1   -1.449616555029063E-1   -3.965654519464254E-3   -3.806172279772100E-3   -4.049831293216498E-3   -3.844173392008697E-3    3.231729008482138E-1   -3.672477516637547E-1
 9.937857355674999E9     4.585565735934248E-1   -1.451440193351767E-1   -3.973153510718362E-3   -3.858212608180754E-3   -4.111028124636186E-3   -3.823096482022422E-3    3.227612468095729E-1   -3.675828342231274E-1
 9.937858391850000E9     4.586563578634963E-1   -1.452765336649219E-1   -4.030450715117006E-3   -3.854020462133482E-3   -4.112860218825606E-3   -3.842077736081433E-3    3.220384210600065E-1   -3.676050108584071E-1
 9.937859428025000E9     4.584813806394494E-1   -1.452793761702155E-1   -4.065945692361419E-3   -3.896510031370346E-3   -4.183797990950553E-3   -3.901520485499699E-3    3.217389556904372E-1   -3.680897479648323E-1
 9.937860464200001E9     4.585025678559427E-1   -1.453609640234826E-1   -4.094155569312404E-3   -3.938516932714397E-3   -4.240675175543254E-3   -3.949881550482159E-3    3.214120179146961E-1   -3.681474883155399E-1
 9.937861500375000E9     4.585392912040791E-1   -1.454909426699874E-1   -4.142337028667008E-3   -3.910293077218347E-3   -4.260826619181844E-3   -3.964356895823641E-3    3.208197701693360E-1   -3.684584871966853E-1
 9.937862536549999E9     4.585360629148987E-1   -1.455826358238954E-1   -4.210114847812289E-3   -3.971340537922157E-3   -4.328144106650868E-3   -4.008813908578811E-3    3.203045575992925E-1   -3.688547718100447E-1
 9.937863572725000E9     4.585878450134470E-1   -1.456594968909404E-1   -4.259756925394945E-3   -4.032769511765709E-3   -4.376328436132597E-3   -4.001799016754245E-3    3.201032275680815E-1   -3.689980856002036E-1
 9.937864608900000E9     4.583588141103892E-1   -1.455522482098025E-1   -4.272311335264138E-3   -4.052637493056012E-3   -4.387646919687070E-3   -4.042636495118351E-3    3.194668506853857E-1   -3.693443064257452E-1
 9.937865645075001E9     4.584754460586784E-1   -1.458199771901469E-1   -4.322385963452640E-3   -4.074302049529808E-3   -4.457471073913951E-3   -4.060503809218503E-3    3.191564967664984E-1   -3.694383084443915E-1
 9.937866681250000E9     4.585100969710050E-1   -1.457837476790675E-1   -4.400724999736125E-3   -4.130801105110178E-3   -4.475595827638105E-3   -4.102011076815337E-3    3.184271333062887E-1   -3.696764808561638E-1
 9.937867717424999E9     4.583247887388478E-1   -1.458993626526406E-1   -4.413025278559256E-3   -4.144208322370797E-3   -4.551381011487317E-3   -4.188712582420573E-3    3.179683334653210E-1   -3.701006143681151E-1
 9.937868753600000E9     4.583838600130560E-1   -1.460206041990497E-1   -4.477716563715822E-3   -4.190539853245041E-3   -4.603609232899352E-3   -4.192417071493590E-3    3.175243673340177E-1   -3.701280611432422E-1
 9.937869789775000E9     4.583072473564619E-1   -1.460802527686504E-1   -4.539234890557895E-3   -4.209737980632328E-3   -4.661166795055869E-3   -4.228198453965265E-3    3.171752681961395E-1   -3.705640942518198E-1
 9.937870825950001E9     4.582902814379158E-1   -1.462026954512265E-1   -4.558331449524582E-3   -4.262922851692563E-3   -4.681083558046634E-3   -4.256714162671035E-3    3.166315153165817E-1   -3.705901737030653E-1
 9.937871862125000E9     4.584032946579548E-1   -1.461906761368833E-1   -4.607388112885072E-3   -4.270639170092768E-3   -4.749039543723482E-3   -4.312394608075236E-3    3.161366253949756E-1   -3.711083334194386E-1
 9.937872898299999E9     4.581512582051454E-1   -1.463364535597796E-1   -4.680543014673043E-3   -4.342855344561147E-3   -4.792615915315832E-3   -4.290833122194621E-3    3.156738846102916E-1   -3.713603966925954E-1
 9.937873934475000E9     4.582152479240572E-1   -1.462240722852784E-1   -4.703842521616983E-3   -4.352860839698035E-3   -4.882120703666316E-3   -4.362032173639896E-3    3.150468348612089E-1   -3.714875226202782E-1
 9.937874970650000E9     4.581434314975983E-1   -1.463996046065850E-1   -4.799178043679935E-3   -4.445673788048160E-3   -4.936152758995297E-3   -4.403253980625035E-3    3.144700983631289E-1   -3.718096269309510E-1
 9.937876006825001E9     4.581705385078951E-1   -1.464658742556346E-1   -4.824266388074728E-3   -4.464051793658073E-3   -4.983542149542517E-3   -4.458491867247661E-3    3.140433634534190E-1   -3.722669371623460E-1
 9.937877043000000E9     4.580137610277503E-1   -1.465167021473893E-1   -4.904777585583920E-3   -4.485964814907777E-3   -5.056520271406698E-3   -4.477761490584248E-3    3.131933238537073E-1   -3.723530979658859E-1
 9.937878079174999E9     4.580141178397069E-1   -1.465098461011718E-1   -4.968862312097748E-3   -4.521862047081283E-3   -5.099321872518128E-3   -4.525672232903467E-3    3.128371201501488E-1   -3.727002400980257E-1
 9.937879115350000E9     4.579625603394337E-1   -1.465303041079963E-1   -5.027569608375145E-3   -4.589803682860252E-3   -5.146814871882587E-3   -4.565757301899009E-3    3.123258664242408E-1   -3.729582664081882E-1
 9.937880151525000E9     4.579101046529606E-1   -1.468703604805509E-1   -5.061451305123105E-3   -4.609551614669322E-3   -5.242917973114843E-3   -4.606529425441741E-3    3.116982039339524E-1   -3.731730616648028E-1
 9.937881187700001E9     4.580314078131338E-1   -1.468883856456242E-1   -5.100252374106175E-3   -4.638014814132888E-3   -5.295742190786002E-3   -4.657989565430155E-3    3.110687371832266E-1   -3.734910433072665E-1
 9.937882223875000E9     4.579199713207436E-1   -1.469384339775861E-1   -5.192586093219331E-3   -4.640898768189471E-3   -5.324311179293063E-3   -4.676406635359353E-3    3.104932857549323E-1   -3.738929445944034E-1
 9.937883260049999E9     4.578984472316580E-1   -1.469088576421325E-1   -5.232760284639770E-3   -4.718172794448205E-3   -5.416271096960843E-3   -4.728135845375393E-3    3.098981092639356E-1   -3.740353235898041E-1
 9.937884296225000E9     4.578431532215929E-1   -1.470164922636505E-1   -5.317449893349473E-3   -4.719935365376660E-3   -5.504045074298750E-3   -4.771178160220759E-3    3.093010918446978E-1   -3.742442899650824E-1
 9.937885332400000E9     4.577663036477320E-1   -1.471509462240577E-1   -5.360509081976638E-3   -4.797034748174982E-3   -5.533857026541101E-3   -4.789271140953061E-3    3.085851738647572E-1   -3.746703863896139E-1
 9.937886368575001E9     4.578104673057076E-1   -1.472011528290986E-1   -5.464323197187398E-3   -4.841996653091560E-3   -5.631234348935468E-3   -4.850617699731482E-3    3.079740169855499E-1   -3.748284347234354E-1
 9.937887404750000E9     4.577743708064383E-1   -1.472463631399313E-1   -5.523624911162280E-3   -4.876509414665465E-3   -5.693775010835435E-3   -4.885259034567485E-3    3.072492056064556E-1   -3.751855525642683E-1
