#  HZ   S   RI   R     50.00 
! Rohde & Schwarz Vector Network Analyzer 
! Rohde-Schwarz,ZNB20-2Port,1311601062101988,3.16
! Created: UTC 3/20/2024, 11:21:23 PM
! freq[Hz]                re:S11                  im:S11                  re:S21                  im:S21                  re:S12                  im:S12                  re:S22                  im:S22
 9.937814600000000E9     4.598655431102825E-1   -1.420768369462073E-1   -2.394818615113571E-3   -2.518461524490667E-3   -2.473254401615333E-3   -2.552343032326949E-3    3.394285827271747E-1   -3.573700496347663E-1
 9.937815605225000E9     4.598511917387431E-1   -1.421244397429434E-1   -2.392870747282748E-3   -2.567629195580829E-3   -2.469139036035766E-3   -2.581852039376758E-3    3.393409136403420E-1   -3.577452979405706E-1
 9.937816610450001E9     4.599957918326397E-1   -1.422125084140058E-1   -2.427324316850366E-3   -2.606877395362707E-3   -2.467651947714243E-3   -2.597323565436234E-3    3.390208492854636E-1   -3.577826847057473E-1
 9.937817615674999E9     4.598042752800662E-1   -1.422974085600048E-1   -2.448628150869472E-3   -2.607651513692689E-3   -2.542188148518936E-3   -2.609030925992822E-3    3.386258992460922E-1   -3.580042554688558E-1
 9.937818620900000E9     4.598210462396713E-1   -1.424146045553103E-1   -2.436070473926305E-3   -2.635734617513298E-3   -2.516413829688806E-3   -2.602599821815467E-3    3.383956900178217E-1   -3.581485572557656E-1
 9.937819626125000E9     4.596605211747523E-1   -1.422330094118028E-1   -2.520961356288618E-3   -2.653055011418349E-3   -2.558469783306865E-3   -2.672524788100877E-3    3.382406606141950E-1   -3.582660426479035E-1
 9.937820631350000E9     4.598131757999084E-1   -1.426318722975435E-1   -2.484844541939124E-3   -2.649338018106205E-3   -2.570905629213664E-3   -2.663847373969920E-3    3.380032526894328E-1   -3.584106551489197E-1
 9.937821636575001E9     4.598505581202211E-1   -1.425004601341098E-1   -2.525680472635100E-3   -2.676618834341408E-3   -2.619142182054631E-3   -2.679038209109892E-3    3.378193725485692E-1   -3.586766450088584E-1
 9.937822641799999E9     4.597135755323916E-1   -1.425755139877562E-1   -2.544446823505742E-3   -2.709253396019379E-3   -2.602103412394110E-3   -2.680136602014709E-3    3.375242817323466E-1   -3.589312113428886E-1
 9.937823647025000E9     4.597332665935498E-1   -1.426483693890466E-1   -2.571918370579713E-3   -2.724521579258967E-3   -2.614113876266410E-3   -2.705194681285161E-3    3.373880587732515E-1   -3.590213550325584E-1
 9.937824652250000E9     4.597311773691962E-1   -1.428489096931259E-1   -2.574776236715573E-3   -2.754866639631927E-3   -2.663349562856003E-3   -2.740554365062528E-3    3.370186921656517E-1   -3.591766137249387E-1
 9.937825657475000E9     4.595259036269774E-1   -1.427678928519870E-1   -2.590504501683298E-3   -2.752840810091597E-3   -2.701590691043195E-3   -2.734560065638833E-3    3.368340689447118E-1   -3.592888135898599E-1
 9.937826662700001E9     4.596162859125531E-1   -1.429256043030520E-1   -2.649307723882697E-3   -2.778602870833049E-3   -2.710805201731688E-3   -2.748789657609631E-3    3.364818048423012E-1   -3.595892339712043E-1
 9.937827667924999E9     4.596737201894072E-1   -1.430378838501972E-1   -2.627303635829069E-3   -2.773547362989898E-3   -2.678695580782119E-3   -2.808857845337536E-3    3.363696130249921E-1   -3.596256950156503E-1
 9.937828673150000E9     4.595442612050506E-1   -1.430082789039719E-1   -2.674280211366171E-3   -2.834737926071653E-3   -2.766444008262590E-3   -2.798485875983494E-3    3.359855113474576E-1   -3.597561298746465E-1
 9.937829678375000E9     4.594490894112399E-1   -1.432569043235347E-1   -2.685871627252353E-3   -2.817262285197835E-3   -2.778095450405872E-3   -2.854868911293079E-3    3.357729130120858E-1   -3.599052545422487E-1
 9.937830683600000E9     4.594784959475687E-1   -1.432544837387434E-1   -2.703685908636064E-3   -2.829972878469368E-3   -2.807136042774323E-3   -2.841617197499875E-3    3.354643734852234E-1   -3.601625387722835E-1
 9.937831688825001E9     4.594176699612626E-1   -1.433361805137132E-1   -2.743964161096893E-3   -2.838929666788676E-3   -2.794798379417048E-3   -2.836753837938065E-3    3.351472530267418E-1   -3.602444106276298E-1
 9.937832694049999E9     4.595448069242397E-1   -1.433032944502806E-1   -2.760720989849001E-3   -2.880755108807651E-3   -2.872286024350325E-3   -2.880841236018962E-3    3.350947165994042E-1   -3.605047414959587E-1
 9.937833699275000E9     4.593769115674761E-1   -1.434083065261622E-1   -2.778302933168142E-3   -2.900101828348992E-3   -2.888539860268284E-3   -2.889340033323095E-3    3.348101836150127E-1   -3.605394666067637E-1
 9.937834704500000E9     4.594426471425584E-1   -1.434196059309687E-1   -2.796605928976483E-3   -2.901438240000827E-3   -2.881466053604132E-3   -2.943435743681175E-3    3.343204236084875E-1   -3.607880449789757E-1
 9.937835709725000E9     4.592966524631641E-1   -1.435534048607501E-1   -2.822000778492862E-3   -2.940081335176966E-3   -2.924838009721916E-3   -2.927656522271125E-3    3.339999871610682E-1   -3.610443525862090E-1
 9.937836714950001E9     4.593251085489075E-1   -1.435706119157998E-1   -2.857488765535823E-3   -2.968624302149927E-3   -2.946255221890673E-3   -2.932472270582921E-3    3.340130493334737E-1   -3.612554115673173E-1
 9.937837720174999E9     4.592684306785251E-1   -1.438375610214856E-1   -2.898763189213769E-3   -2.945913820765411E-3   -2.969670476869891E-3   -2.992472546723140E-3    3.336302283942039E-1   -3.613619584079463E-1
 9.937838725400000E9     4.593392575679897E-1   -1.436562316002755E-1   -2.888933290035946E-3   -3.008985940572004E-3   -2.966566275538841E-3   -3.001106203579187E-3    3.332589748785029E-1   -3.615250984353080E-1
 9.937839730625000E9     4.591166910644930E-1   -1.437321601355251E-1   -2.956710214316619E-3   -3.065749512067772E-3   -3.043111559251294E-3   -3.026774377384069E-3    3.329094027274622E-1   -3.616110184959939E-1
 9.937840735850000E9     4.592138295406209E-1   -1.439505357604378E-1   -2.937732903329475E-3   -3.026252550625073E-3   -3.047194561994873E-3   -3.061248162673606E-3    3.328826586598451E-1   -3.618793308348391E-1
 9.937841741075001E9     4.591736910224478E-1   -1.439011442261634E-1   -2.982062999974034E-3   -3.046026703300945E-3   -3.100052352438286E-3   -3.077986444333474E-3    3.325635179288515E-1   -3.619250652018094E-1
 9.937842746299999E9     4.591628015623596E-1   -1.439701286269289E-1   -2.994559093801090E-3   -3.042566058028532E-3   -3.118412645083999E-3   -3.074153255530812E-3    3.322678446125208E-1   -3.622907886415666E-1
 9.937843751525000E9     4.589808735242022E-1   -1.440287790575271E-1   -3.039262935976670E-3   -3.087243613710213E-3   -3.136662583718340E-3   -3.129638414913197E-3    3.319524980871251E-1   -3.626754931815283E-1
 9.937844756750000E9     4.590341112445510E-1   -1.441087926497967E-1   -3.026693250411222E-3   -3.130182378884819E-3   -3.137672158503148E-3   -3.135987811205329E-3    3.318235004885394E-1   -3.626976397524651E-1
 9.937845761975000E9     4.591364973396271E-1   -1.442830363057634E-1   -3.105073653781197E-3   -3.174978140403125E-3   -3.185946582763235E-3   -3.154456108152006E-3    3.312809613149513E-1   -3.629230910182449E-1
 9.937846767200001E9     4.588666896399028E-1   -1.442273942256760E-1   -3.101389850117106E-3   -3.191086611138653E-3   -3.194267180633339E-3   -3.193484229725901E-3    3.311308142543499E-1   -3.630237868752952E-1
 9.937847772424999E9     4.589393294296130E-1   -1.444899661489551E-1   -3.157147856020917E-3   -3.186699483845705E-3   -3.206241062561147E-3   -3.182407863396393E-3    3.306745666887764E-1   -3.631187705451672E-1
 9.937848777650000E9     4.589158493086614E-1   -1.444296751188726E-1   -3.180307975671611E-3   -3.255128452454940E-3   -3.306638507577262E-3   -3.230815893796927E-3    3.303893390249826E-1   -3.635304651089420E-1
 9.937849782875000E9     4.589830463974188E-1   -1.444974877315061E-1   -3.207521843768263E-3   -3.245236394099651E-3   -3.324578019537690E-3   -3.243730225594138E-3    3.301423730555095E-1   -3.634398449068906E-1
 9.937850788100000E9     4.588894563416366E-1   -1.446362253865343E-1   -3.204379004098714E-3   -3.273531579316637E-3   -3.311378226309956E-3   -3.261378609617066E-3    3.297629393397852E-1   -3.637656727831615E-1
 9.937851793325001E9     4.589817017767799E-1   -1.448546386886816E-1   -3.271375083024881E-3   -3.310479833736099E-3   -3.370375772361230E-3   -3.299046267817685E-3    3.293206080318677E-1   -3.638996026368078E-1
 9.937852798549999E9     4.588246110351952E-1   -1.447478590533011E-1   -3.319691371965053E-3   -3.351798891339558E-3   -3.391228167919225E-3   -3.324702890890855E-3    3.290246742151151E-1   -3.640895011781075E-1
 9.937853803775000E9     4.588149770474720E-1   -1.447238237815291E-1   -3.348849195014548E-3   -3.339118926659932E-3   -3.434229058003420E-3   -3.340882953644569E-3    3.288478309850549E-1   -3.642905486952012E-1
 9.937854809000000E9     4.588137680095255E-1   -1.448696000917217E-1   -3.355973300972038E-3   -3.366197311486722E-3   -3.452438618130390E-3   -3.409000822563868E-3    3.284560311477929E-1   -3.647171223321050E-1
 9.937855814225000E9     4.587344088568000E-1   -1.448733554596311E-1   -3.396110761411286E-3   -3.406015940797494E-3   -3.482634315035044E-3   -3.386101118204460E-3    3.279787216280750E-1   -3.647236517457424E-1
 9.937856819450001E9     4.587050521051715E-1   -1.450802938404719E-1   -3.448599592255026E-3   -3.406334962749589E-3   -3.537275758874927E-3   -3.442424275801884E-3    3.277607570213680E-1   -3.650087500784224E-1
 9.937857824674999E9     4.587238706001182E-1   -1.451851104442714E-1   -3.436904148217454E-3   -3.469919210945784E-3   -3.572063550829382E-3   -3.470065498165223E-3    3.273633751276089E-1   -3.652937870267400E-1
 9.937858829900000E9     4.586179937921915E-1   -1.452021815747501E-1   -3.458788364215592E-3   -3.497253520307021E-3   -3.612015281257991E-3   -3.466669682623419E-3    3.272575723368372E-1   -3.653773359834691E-1
 9.937859835125000E9     4.586327195978158E-1   -1.450911051250555E-1   -3.508672851807674E-3   -3.542832994882317E-3   -3.620015751256307E-3   -3.516984121045876E-3    3.267540862786759E-1   -3.655573627962524E-1
 9.937860840350000E9     4.586124676766258E-1   -1.454841567946797E-1   -3.566180226153942E-3   -3.514399763367845E-3   -3.665285425963708E-3   -3.515843189425587E-3    3.264365831361294E-1   -3.659064912660064E-1
 9.937861845575001E9     4.585272496093704E-1   -1.453473509731791E-1   -3.604366689605181E-3   -3.604514231763544E-3   -3.705528589813517E-3   -3.563753886850101E-3    3.259828108127323E-1   -3.659068206134079E-1
 9.937862850799999E9     4.585902056803479E-1   -1.454968425406939E-1   -3.627389482031241E-3   -3.618068637406947E-3   -3.725535168145453E-3   -3.583929083311068E-3    3.254992577086852E-1   -3.663409755723348E-1
 9.937863856025000E9     4.585700512615906E-1   -1.454069847838820E-1   -3.667069677670976E-3   -3.600241186011712E-3   -3.746899486335326E-3   -3.600841908596354E-3    3.252464622644184E-1   -3.664879975175290E-1
 9.937864861250000E9     4.584624262018532E-1   -1.454880395856930E-1   -3.710963835525299E-3   -3.638972792971372E-3   -3.796274340254669E-3   -3.631416114888401E-3    3.245697748940514E-1   -3.666967912338598E-1
 9.937865866475000E9     4.584475162545093E-1   -1.456740201375017E-1   -3.702261999225869E-3   -3.664397468380742E-3   -3.841310975391499E-3   -3.641762649332064E-3    3.243676439289431E-1   -3.670641041851472E-1
 9.937866871700001E9     4.585345409726378E-1   -1.457298768453015E-1   -3.770858270343181E-3   -3.685113776992573E-3   -3.876337866033810E-3   -3.710311634622908E-3    3.241679300813015E-1   -3.671408566255496E-1
 9.937867876924999E9     4.583846165475388E-1   -1.457078240147120E-1   -3.775231129515551E-3   -3.720052256876260E-3   -3.915159514923054E-3   -3.728879373223001E-3    3.236124797815152E-1   -3.673844714805380E-1
 9.937868882150000E9     4.583727625396905E-1   -1.459205379937157E-1   -3.802382774390896E-3   -3.761784340801045E-3   -3.963257270376954E-3   -3.744718794397312E-3    3.231822110817566E-1   -3.674195637589309E-1
 9.937869887375000E9     4.584271708963008E-1   -1.459732504132659E-1   -3.883113475628619E-3   -3.780522788268684E-3   -3.988366796384649E-3   -3.746036563221184E-3    3.230970959513945E-1   -3.676966427094312E-1
 9.937870892600000E9     4.583490173272232E-1   -1.461944314664864E-1   -3.889678574644949E-3   -3.820052723732804E-3   -4.014249935673026E-3   -3.797008424182702E-3    3.224209144809526E-1   -3.679503109386033E-1
 9.937871897825001E9     4.582604000903802E-1   -1.460589506924995E-1   -3.961175522633423E-3   -3.819057233310644E-3   -4.068808193451498E-3   -3.816802495840921E-3    3.222062362549514E-1   -3.683138148751179E-1
 9.937872903049999E9     4.582641181213530E-1   -1.461484759774210E-1   -3.981354417253088E-3   -3.892441372541209E-3   -4.127529345187435E-3   -3.870953153478873E-3    3.217536053838081E-1   -3.684483612053256E-1
 9.937873908275000E9     4.582691478540087E-1   -1.461281617842876E-1   -4.020855550962821E-3   -3.899287953136483E-3   -4.135318510462499E-3   -3.856764337183946E-3    3.212854236949497E-1   -3.687042555066878E-1
 9.937874913500000E9     4.582475348033724E-1   -1.462803888769131E-1   -4.063068545379798E-3   -3.931014276803604E-3   -4.177623910496831E-3   -3.915771151518871E-3    3.208496812022767E-1   -3.690202188195308E-1
 9.937875918725000E9     4.581642702381915E-1   -1.463437776945052E-1   -4.118416205834891E-3   -3.982887319202523E-3   -4.225357971703066E-3   -3.932395503396342E-3    3.204706098902859E-1   -3.691933393544740E-1
 9.937876923950001E9     4.582415260943952E-1   -1.464311669767508E-1   -4.164565781659395E-3   -4.002167520657960E-3   -4.317511477576111E-3   -3.992274517406240E-3    3.201239909236961E-1   -3.693166174644967E-1
 9.937877929174999E9     4.579739405849753E-1   -1.465419786687012E-1   -4.214523916010936E-3   -4.014281380001113E-3   -4.339772707402079E-3   -3.986660252424317E-3    3.197290173851560E-1   -3.696196433361182E-1
 9.937878934400000E9     4.581870742843072E-1   -1.465726562987789E-1   -4.247992596523787E-3   -4.049108007638213E-3   -4.367031652955208E-3   -4.023351948414971E-3    3.192159336830681E-1   -3.698118862520130E-1
 9.937879939625000E9     4.579480974669555E-1   -1.467077528921858E-1   -4.298079305727590E-3   -4.082510441480823E-3   -4.431344307688614E-3   -4.098684468853105E-3    3.187051989368290E-1   -3.701753967416330E-1
 9.937880944850000E9     4.579742575528649E-1   -1.469084654553981E-1   -4.337166960635823E-3   -4.117097599627972E-3   -4.431991491932070E-3   -4.115030792442267E-3    3.183686558109941E-1   -3.703561969713223E-1
 9.937881950075001E9     4.579821628845054E-1   -1.467591050239910E-1   -4.372862460726551E-3   -4.165067850573414E-3   -4.503838718128262E-3   -4.164491300848063E-3    3.177323715440526E-1   -3.703536685868128E-1
 9.937882955299999E9     4.580205055741643E-1   -1.469837824521267E-1   -4.390199124007675E-3   -4.159598668354658E-3   -4.567863920923569E-3   -4.158299807375186E-3    3.173559023134381E-1   -3.708584050724994E-1
 9.937883960525000E9     4.579709609027803E-1   -1.469190879540407E-1   -4.486047040017399E-3   -4.217497450718646E-3   -4.580858084400798E-3   -4.210971832929298E-3    3.168953281178442E-1   -3.711154699644588E-1
 9.937884965750000E9     4.579258657369319E-1   -1.470881701099751E-1   -4.527564262824971E-3   -4.287894868915292E-3   -4.645198703406947E-3   -4.263248181861952E-3    3.162868927861697E-1   -3.715243719089025E-1
 9.937885970975000E9     4.578991931883218E-1   -1.470422267397231E-1   -4.552158704202224E-3   -4.273602672835680E-3   -4.697247043423952E-3   -4.288801269751570E-3    3.159529247776855E-1   -3.714721097417004E-1
 9.937886976200001E9     4.578910911357201E-1   -1.471294828666695E-1   -4.606359718527422E-3   -4.319725068679500E-3   -4.765329351806948E-3   -4.339172489086193E-3    3.153841036016319E-1   -3.719152224596975E-1
 9.937887981424999E9     4.578314164728723E-1   -1.471186744805029E-1   -4.681632365620966E-3   -4.360040104779775E-3   -4.807105475015764E-3   -4.376499935898868E-3    3.148749797887402E-1   -3.720591283724664E-1
 9.937888986650000E9     4.578116677842766E-1   -1.472866099061772E-1   -4.682323961011782E-3   -4.389113264065114E-3   -4.863218798097777E-3   -4.406700339755607E-3    3.144625812222608E-1   -3.724331464801295E-1
 9.937889991875000E9     4.576865619739898E-1   -1.471861407940804E-1   -4.788591200236017E-3   -4.417236463748177E-3   -4.903546743716804E-3   -4.434894936915264E-3    3.138451762317365E-1   -3.724562139625885E-1
 9.937890997100000E9     4.577457547969834E-1   -1.474535181595678E-1   -4.834049929066417E-3   -4.454660860383011E-3   -4.952219777339742E-3   -4.446052915457302E-3    3.132848389698226E-1   -3.730565716944069E-1
 9.937892002325001E9     4.576121042773372E-1   -1.475922393652492E-1   -4.890945313402683E-3   -4.478016978353224E-3   -5.011186258944965E-3   -4.517212832736506E-3    3.126655399634474E-1   -3.732149279301869E-1
 9.937893007549999E9     4.576836682057238E-1   -1.475717170724087E-1   -4.949262179672688E-3   -4.543535055806442E-3   -5.100706372765968E-3   -4.528448579494907E-3    3.121486225517633E-1   -3.735727209613749E-1
 9.937894012775000E9     4.576642747944743E-1   -1.476430355581737E-1   -4.992376651993905E-3   -4.585935470955186E-3   -5.158848367320589E-3   -4.561581794154783E-3    3.115844791060832E-1   -3.737543423595919E-1
 9.937895018000000E9     4.576245980115093E-1   -1.478000672935480E-1   -4.991214617611946E-3   -4.616460312405157E-3   -5.195530068112913E-3   -4.609450499166140E-3    3.112147002127031E-1   -3.739731798566206E-1
 9.937896023225000E9     4.573857490550460E-1   -1.478525634194989E-1   -5.128041727804449E-3   -4.640374737201047E-3   -5.264539594085667E-3   -4.648590368284740E-3    3.105599281369754E-1   -3.741794170200221E-1
 9.937897028450001E9     4.574443388308533E-1   -1.477731456293025E-1   -5.173902741754606E-3   -4.702777501335606E-3   -5.283512191235591E-3   -4.694628594761018E-3    3.099144375706558E-1   -3.746823573447146E-1
 9.937898033674999E9     4.573108653215330E-1   -1.478651893267342E-1   -5.232108626641314E-3   -4.767140567467028E-3   -5.373405555731634E-3   -4.731645414219319E-3    3.092341293420360E-1   -3.748977145841918E-1
 9.937899038900000E9     4.575211189930480E-1   -1.479728314053886E-1   -5.280316563741116E-3   -4.768709946776352E-3   -5.448590175934698E-3   -4.783649831149610E-3    3.088017831990562E-1   -3.752331187293842E-1
 9.937900044125000E9     4.573909110253582E-1   -1.480513780004103E-1   -5.363387053877102E-3   -4.792667653176249E-3   -5.485218625785249E-3   -4.825627952685433E-3    3.081312122979058E-1   -3.754131577542307E-1
 9.937901049350000E9     4.574272293818298E-1   -1.480586511021978E-1   -5.404870700695542E-3   -4.845669726666851E-3   -5.604620924052143E-3   -4.851347399408364E-3    3.075645476747597E-1   -3.756906439448969E-1
 9.937902054575001E9     4.572245221005013E-1   -1.480883855277973E-1   -5.510460037344459E-3   -4.914068244344493E-3   -5.628439558264172E-3   -4.890573101765687E-3    3.069421335855895E-1   -3.759719692989938E-1
 9.937903059799999E9     4.575308370463373E-1   -1.482280479747614E-1   -5.512689703613843E-3   -4.927988356305619E-3   -5.710375171846248E-3   -4.945359824385210E-3    3.064046537533002E-1   -3.763148843494437E-1
 9.937904065025000E9     4.572425671371523E-1   -1.483170694577471E-1   -5.650843304205730E-3   -5.003336084113388E-3   -5.796322602225090E-3   -4.990256712970972E-3    3.054391968931284E-1   -3.765435075001113E-1
 9.937905070250000E9     4.573859864816937E-1   -1.485296365647164E-1   -5.693901625278469E-3   -4.990626430165042E-3   -5.846883372404564E-3   -5.019415006356584E-3    3.049506698020764E-1   -3.770470775694538E-1
