#  HZ   S   RI   R     50.00 
! Rohde & Schwarz Vector Network Analyzer 
! Rohde-Schwarz,ZNB20-2Port,1311601062101988,3.16
! Created: UTC 3/20/2024, 11:21:58 PM
! freq[Hz]                re:S11                  im:S11                  re:S21                  im:S21                  re:S12                  im:S12                  re:S22                  im:S22
 9.937884875000000E9     4.582785140079808E-1   -1.464396952983116E-1   -2.546195753553033E-3   -2.604777306767280E-3   -2.565371230619799E-3   -2.629796570999818E-3    3.348766669430386E-1   -3.613647632382508E-1
 9.937885839375000E9     4.582854298677101E-1   -1.466073226624926E-1   -2.536748862834903E-3   -2.650299589398103E-3   -2.581634315252409E-3   -2.652333906296525E-3    3.345533361975351E-1   -3.614076307441683E-1
 9.937886803750000E9     4.582574645241502E-1   -1.465928082149264E-1   -2.540259956285981E-3   -2.675968498785989E-3   -2.576525345882806E-3   -2.658808072506293E-3    3.344536620365224E-1   -3.616423584191195E-1
 9.937887768125000E9     4.581699152230438E-1   -1.468079731178469E-1   -2.540501364963002E-3   -2.705384711106747E-3   -2.625821718970096E-3   -2.664818224869959E-3    3.341258316408230E-1   -3.616471557959703E-1
 9.937888732500000E9     4.581593603402221E-1   -1.467992742265002E-1   -2.588355337886006E-3   -2.723126703915694E-3   -2.653018648083811E-3   -2.708472675253459E-3    3.338198751519143E-1   -3.619213565660287E-1
 9.937889696875000E9     4.581372736402375E-1   -1.468595335724046E-1   -2.588602119218705E-3   -2.713260298168668E-3   -2.694843617061691E-3   -2.728012451862187E-3    3.336880821675318E-1   -3.620044432705906E-1
 9.937890661250000E9     4.580455507827014E-1   -1.468951755793097E-1   -2.643047092540075E-3   -2.755190888922139E-3   -2.691535122214078E-3   -2.719569555139516E-3    3.334763960303102E-1   -3.623398053456480E-1
 9.937891625625000E9     4.581511986161201E-1   -1.470640311623494E-1   -2.657479779480353E-3   -2.784053680372554E-3   -2.706683503342432E-3   -2.756228133833269E-3    3.333189340915085E-1   -3.624388466440001E-1
 9.937892590000000E9     4.580151312762055E-1   -1.470709542216366E-1   -2.644415557620143E-3   -2.786491593513655E-3   -2.724837857221320E-3   -2.772109629891582E-3    3.329874028315828E-1   -3.625766751419776E-1
 9.937893554375000E9     4.579550915436528E-1   -1.470778597594609E-1   -2.694382156497964E-3   -2.811245617707080E-3   -2.735867059668119E-3   -2.812878865122782E-3    3.325742809875643E-1   -3.626849582207516E-1
 9.937894518750000E9     4.579690831426661E-1   -1.472587752353942E-1   -2.714109143599976E-3   -2.837153862557203E-3   -2.765353643986141E-3   -2.802129133417805E-3    3.324408323107781E-1   -3.628703724360076E-1
 9.937895483125000E9     4.578750491160071E-1   -1.472257526524167E-1   -2.736126562370287E-3   -2.830525698254760E-3   -2.807405247121044E-3   -2.851668411833424E-3    3.321950653937950E-1   -3.629495056014828E-1
 9.937896447500000E9     4.578851870326425E-1   -1.473087030233508E-1   -2.742040104022207E-3   -2.855088538930490E-3   -2.827443172780355E-3   -2.871910489153920E-3    3.320092568852990E-1   -3.632003133767786E-1
 9.937897411875000E9     4.579003575044953E-1   -1.473378420680966E-1   -2.780984831024128E-3   -2.891885573290359E-3   -2.856782309306807E-3   -2.875659538283100E-3    3.317013912150835E-1   -3.633391758120375E-1
 9.937898376250000E9     4.578803754321966E-1   -1.474991728403092E-1   -2.778674832974520E-3   -2.877371119893693E-3   -2.898549987583506E-3   -2.884394492107643E-3    3.314949772902236E-1   -3.635177473591164E-1
 9.937899340625000E9     4.576930893511933E-1   -1.474959238918173E-1   -2.823023099844878E-3   -2.908459806728360E-3   -2.885831509623287E-3   -2.910252699789374E-3    3.311047195604150E-1   -3.637079515740794E-1
 9.937900305000000E9     4.579488874548784E-1   -1.475618650390115E-1   -2.835032418184038E-3   -2.945624798625995E-3   -2.934688976296413E-3   -2.905274719532276E-3    3.310060771859705E-1   -3.637219639250671E-1
 9.937901269375000E9     4.576890640090955E-1   -1.478244740071129E-1   -2.862210731659813E-3   -2.942795039037072E-3   -2.942631546354369E-3   -2.943527051498223E-3    3.307115250690985E-1   -3.640384315391783E-1
 9.937902233750000E9     4.576460359159132E-1   -1.477490940106742E-1   -2.882069638977902E-3   -2.964370647445345E-3   -2.955900943406137E-3   -2.957317211325547E-3    3.304993346465596E-1   -3.641100141509259E-1
 9.937903198125000E9     4.576964419410648E-1   -1.479374724313198E-1   -2.912665171851282E-3   -2.994996516309619E-3   -2.979570633222878E-3   -2.985042074254795E-3    3.300588699576411E-1   -3.644255755734447E-1
 9.937904162500000E9     4.576747879523133E-1   -1.478584349800807E-1   -2.912979096365003E-3   -2.988998977919512E-3   -3.049242231122853E-3   -3.022730951808635E-3    3.298965285897843E-1   -3.644796066524058E-1
 9.937905126875000E9     4.577431244142345E-1   -1.480191223128048E-1   -2.956034363534560E-3   -3.021566681229807E-3   -3.025274168505317E-3   -3.035804713521407E-3    3.296888335793411E-1   -3.645761447963023E-1
 9.937906091250000E9     4.575420068941666E-1   -1.480151496051333E-1   -2.976710811246780E-3   -3.022015449253954E-3   -3.096433221953371E-3   -3.039221273884834E-3    3.292138374086952E-1   -3.646994988330043E-1
 9.937907055625000E9     4.577036793170108E-1   -1.481545589917907E-1   -3.032565356851535E-3   -3.102305345133504E-3   -3.081317931455159E-3   -3.071087286135644E-3    3.291312446329273E-1   -3.650565513541661E-1
 9.937908020000000E9     4.575588626546500E-1   -1.482050958347009E-1   -3.003789012716211E-3   -3.098138776085666E-3   -3.141785575161597E-3   -3.069652962835821E-3    3.288175410094510E-1   -3.652961248804094E-1
 9.937908984375000E9     4.575802286337824E-1   -1.483799225837164E-1   -3.057649440585604E-3   -3.124597107029563E-3   -3.138295791670985E-3   -3.088511290401853E-3    3.284615117177886E-1   -3.652345237512884E-1
 9.937909948750000E9     4.574970447306895E-1   -1.482147210444976E-1   -3.110445733011866E-3   -3.111761824510365E-3   -3.146061898953648E-3   -3.140086138515893E-3    3.284374080668973E-1   -3.656535137533662E-1
 9.937910913125000E9     4.575152981913452E-1   -1.483835004998763E-1   -3.131583498177687E-3   -3.181837415821982E-3   -3.201289944271522E-3   -3.117790674092968E-3    3.277495895330293E-1   -3.655843092969598E-1
 9.937911877500000E9     4.574451741308959E-1   -1.485181770274361E-1   -3.136442194105974E-3   -3.176952475448600E-3   -3.243943085217933E-3   -3.178096945489507E-3    3.275379183485447E-1   -3.660407568564461E-1
 9.937912841875000E9     4.574440759527672E-1   -1.484975152425463E-1   -3.158747802302431E-3   -3.230758152672797E-3   -3.273756134423382E-3   -3.215260428131540E-3    3.273967610671097E-1   -3.662747744482337E-1
 9.937913806250000E9     4.575177323424079E-1   -1.485506498663479E-1   -3.179788226448350E-3   -3.225175239998774E-3   -3.273813694045620E-3   -3.241081335466711E-3    3.268839594332383E-1   -3.663122440423227E-1
 9.937914770625000E9     4.574350340787696E-1   -1.487108923589664E-1   -3.208939324876785E-3   -3.229401118840376E-3   -3.332665181721767E-3   -3.226272802487229E-3    3.265671784051539E-1   -3.664001756701173E-1
 9.937915735000000E9     4.573887847870488E-1   -1.488368056478118E-1   -3.264426649645986E-3   -3.300118925047639E-3   -3.323955803902980E-3   -3.301234335298095E-3    3.263948868608628E-1   -3.666791457653845E-1
 9.937916699375000E9     4.573798801412553E-1   -1.486787886717586E-1   -3.257476743557373E-3   -3.306800584950955E-3   -3.355099371256218E-3   -3.294558488510584E-3    3.261897235793369E-1   -3.668949932088446E-1
 9.937917663750000E9     4.572835867015268E-1   -1.487317609530674E-1   -3.291764661783294E-3   -3.300884542229968E-3   -3.396655376662391E-3   -3.326919945152875E-3    3.259404077366072E-1   -3.671197740347984E-1
 9.937918628125000E9     4.572967598938900E-1   -1.489715700288576E-1   -3.317250251617148E-3   -3.362003470864320E-3   -3.435613995038022E-3   -3.290001427970385E-3    3.255782121983868E-1   -3.672700113501886E-1
 9.937919592500000E9     4.573277530046307E-1   -1.489913789291802E-1   -3.368396262977194E-3   -3.364966231339687E-3   -3.414751513131158E-3   -3.353036181805532E-3    3.252747651247006E-1   -3.673896031762082E-1
 9.937920556875000E9     4.572699418161177E-1   -1.490187169692421E-1   -3.404385835596930E-3   -3.371210432632597E-3   -3.500529880331445E-3   -3.405523952474615E-3    3.248422236780182E-1   -3.676110045781283E-1
 9.937921521250000E9     4.572304123216565E-1   -1.490559017306564E-1   -3.452655972826595E-3   -3.436636588114250E-3   -3.533524125807585E-3   -3.460793564883791E-3    3.245785119301522E-1   -3.679004584274823E-1
 9.937922485625000E9     4.571549769223749E-1   -1.492248601333139E-1   -3.449069953771899E-3   -3.425164863487070E-3   -3.552271453726102E-3   -3.431340171754675E-3    3.240582668774915E-1   -3.679161771345067E-1
 9.937923450000000E9     4.571063021841443E-1   -1.493521447264390E-1   -3.495469970431668E-3   -3.491440111733171E-3   -3.586554775209354E-3   -3.434245499060082E-3    3.239506357892883E-1   -3.682821240380287E-1
 9.937924414375000E9     4.570193773265023E-1   -1.493129667361216E-1   -3.508735907941431E-3   -3.480394397637315E-3   -3.610194535726336E-3   -3.485682818495269E-3    3.236191967867093E-1   -3.685259680039456E-1
 9.937925378750000E9     4.571914106876596E-1   -1.493674856985231E-1   -3.546320188758763E-3   -3.509936443969672E-3   -3.661552458814145E-3   -3.554545613615898E-3    3.231947057426705E-1   -3.686880142957474E-1
 9.937926343125000E9     4.570061049639855E-1   -1.494344581204779E-1   -3.584537233165709E-3   -3.567243627052834E-3   -3.657169162120180E-3   -3.527663567274656E-3    3.227187889007812E-1   -3.688240574632226E-1
 9.937927307500000E9     4.570089666411458E-1   -1.495365656869099E-1   -3.612458004346796E-3   -3.587664112194895E-3   -3.740703242449149E-3   -3.539760730330287E-3    3.224448962011084E-1   -3.690912210037951E-1
 9.937928271875000E9     4.571427116917673E-1   -1.495306504759472E-1   -3.644000974967284E-3   -3.586755633166359E-3   -3.728051063216793E-3   -3.578933724116003E-3    3.221602167015472E-1   -3.692729083692670E-1
 9.937929236250000E9     4.569879330594849E-1   -1.495915361279215E-1   -3.703416539617848E-3   -3.624789439782454E-3   -3.770678656714426E-3   -3.619697920111915E-3    3.217723373565057E-1   -3.694332061522781E-1
 9.937930200625000E9     4.569541454976019E-1   -1.497191807396470E-1   -3.721649224720601E-3   -3.660996838863697E-3   -3.824908021688147E-3   -3.633996456181086E-3    3.214383017096595E-1   -3.696722172417374E-1
 9.937931165000000E9     4.568555325495596E-1   -1.497791361647992E-1   -3.763666902190477E-3   -3.643058810864109E-3   -3.827113851684754E-3   -3.647609378756736E-3    3.209424533339940E-1   -3.699378018534677E-1
 9.937932129375000E9     4.570112337829380E-1   -1.497569024961928E-1   -3.760178303134103E-3   -3.724771938074135E-3   -3.906605689944354E-3   -3.691022211009214E-3    3.207255721614848E-1   -3.699616212837550E-1
 9.937933093750000E9     4.568012535698500E-1   -1.497694379957377E-1   -3.804290805168294E-3   -3.758692327877992E-3   -3.911689829829529E-3   -3.728312635326321E-3    3.204233088629328E-1   -3.703712360892247E-1
 9.937934058125000E9     4.568100244395213E-1   -1.500505220023073E-1   -3.856484505811015E-3   -3.732717295062358E-3   -3.966536758013348E-3   -3.712953909948593E-3    3.199373248990836E-1   -3.705616211398538E-1
 9.937935022500000E9     4.567152792202164E-1   -1.499418092950851E-1   -3.872695936486490E-3   -3.789700630680007E-3   -3.995780339222919E-3   -3.770269729876891E-3    3.196119673884784E-1   -3.707035840312374E-1
 9.937935986875000E9     4.566765332715317E-1   -1.502242679123381E-1   -3.940734484401104E-3   -3.839127544077085E-3   -4.044712638282929E-3   -3.821353256584515E-3    3.190542645123065E-1   -3.709186482110305E-1
 9.937936951250000E9     4.567306918887402E-1   -1.502553794818218E-1   -3.963182655876481E-3   -3.838323239926000E-3   -4.057477817233888E-3   -3.824806589855971E-3    3.188389098276698E-1   -3.710638201520945E-1
 9.937937915625000E9     4.566344367303299E-1   -1.502645317202092E-1   -4.004982887363799E-3   -3.863395876193014E-3   -4.129018213403242E-3   -3.842785889533020E-3    3.185068875539656E-1   -3.711270447036374E-1
 9.937938880000000E9     4.567803601984678E-1   -1.502890125545992E-1   -4.058408906386741E-3   -3.909632150871389E-3   -4.149847998902223E-3   -3.878092701658265E-3    3.181712148831926E-1   -3.716903464320023E-1
 9.937939844375000E9     4.566391983751576E-1   -1.503374010138831E-1   -4.093831691211496E-3   -3.921208077051604E-3   -4.193407385657129E-3   -3.931986051932863E-3    3.178564616001404E-1   -3.718035758364329E-1
 9.937940808750000E9     4.566572993592269E-1   -1.504765447908096E-1   -4.125363361954561E-3   -3.970095954051724E-3   -4.217032664351872E-3   -3.977853233220534E-3    3.172744521807134E-1   -3.719782282180497E-1
 9.937941773125000E9     4.566200044863817E-1   -1.504894028247004E-1   -4.140933343222929E-3   -3.960374592304344E-3   -4.282608232853279E-3   -3.954725178377381E-3    3.169571644075402E-1   -3.723562945453815E-1
 9.937942737500000E9     4.565705713400398E-1   -1.505426117238262E-1   -4.178193656182100E-3   -4.027871323347199E-3   -4.299018139714301E-3   -3.984883701897191E-3    3.162182521602395E-1   -3.725014023714532E-1
 9.937943701875000E9     4.565908829649199E-1   -1.506386691231953E-1   -4.249071578423588E-3   -4.016974337430663E-3   -4.395681533504250E-3   -4.030911552670362E-3    3.158815670834159E-1   -3.727921491719781E-1
 9.937944666250000E9     4.565076719761561E-1   -1.506913896137249E-1   -4.276527121442032E-3   -4.081984930859269E-3   -4.397605233874018E-3   -4.066900997836903E-3    3.155806612835747E-1   -3.728615519774378E-1
 9.937945630625000E9     4.563597432678352E-1   -1.508210305331079E-1   -4.305312593037981E-3   -4.099911359150062E-3   -4.464951906449320E-3   -4.102020789574954E-3    3.149262641352462E-1   -3.729804007979636E-1
 9.937946595000000E9     4.565099876467396E-1   -1.508663902709107E-1   -4.398051743417225E-3   -4.146060103332594E-3   -4.489745238491127E-3   -4.141379309884437E-3    3.148257273315388E-1   -3.734111962723209E-1
 9.937947559375000E9     4.564239344251527E-1   -1.509714134038299E-1   -4.395474425801613E-3   -4.170823657239906E-3   -4.526408642874038E-3   -4.191965024059956E-3    3.141570449509349E-1   -3.737035251606032E-1
 9.937948523750000E9     4.564817450255059E-1   -1.510181877103291E-1   -4.457567313405069E-3   -4.205128130542884E-3   -4.571175274505561E-3   -4.207354033943425E-3    3.136995781199754E-1   -3.739207902912463E-1
 9.937949488125000E9     4.563545843809509E-1   -1.511459739323624E-1   -4.500086237067820E-3   -4.211825706007517E-3   -4.648030112008853E-3   -4.215319307722639E-3    3.133076379321953E-1   -3.740948818997717E-1
 9.937950452500000E9     4.563399768888913E-1   -1.510564492281709E-1   -4.565901239278818E-3   -4.288597476324962E-3   -4.677305038509122E-3   -4.254752917959429E-3    3.127880491183880E-1   -3.742251081162233E-1
 9.937951416875000E9     4.562947607669066E-1   -1.510510811667284E-1   -4.609514641568101E-3   -4.293793132535600E-3   -4.736101293306775E-3   -4.292233032433423E-3    3.122858579129499E-1   -3.745419085763437E-1
 9.937952381250000E9     4.562636605838247E-1   -1.511949395762763E-1   -4.624034100547004E-3   -4.330857265398453E-3   -4.771109728961343E-3   -4.329530940931945E-3    3.117423446978981E-1   -3.749079426894320E-1
 9.937953345625000E9     4.563109848258731E-1   -1.513426120117801E-1   -4.703587997021648E-3   -4.404396271652553E-3   -4.827411006629628E-3   -4.333702634416040E-3    3.113416906020908E-1   -3.750981491950396E-1
 9.937954310000000E9     4.561497009349437E-1   -1.514609502315419E-1   -4.746201277113574E-3   -4.423879101771977E-3   -4.901897286396417E-3   -4.373699634893219E-3    3.108473221217650E-1   -3.753905672739233E-1
 9.937955274375000E9     4.562530733428422E-1   -1.514411160437831E-1   -4.813155845652559E-3   -4.455573969708956E-3   -4.933169933086248E-3   -4.411181152245012E-3    3.103833584353886E-1   -3.756334749870885E-1
 9.937956238750000E9     4.561985404165253E-1   -1.514588537627498E-1   -4.867215182064235E-3   -4.464362558344467E-3   -4.984358857596352E-3   -4.458230864344092E-3    3.098700738951856E-1   -3.758985985475001E-1
 9.937957203125000E9     4.560988570241201E-1   -1.515723699604664E-1   -4.911732147624960E-3   -4.503828064213084E-3   -5.030845018289514E-3   -4.493088649200364E-3    3.094495353946607E-1   -3.759123689882357E-1
 9.937958167500000E9     4.561865970348682E-1   -1.516888097032260E-1   -4.934376889315584E-3   -4.533583667388773E-3   -5.067954630481496E-3   -4.540692632038662E-3    3.087793415496607E-1   -3.765509059544786E-1
 9.937959131875000E9     4.561032273211766E-1   -1.516518067241784E-1   -5.035132654273978E-3   -4.606017477804100E-3   -5.131931741051220E-3   -4.579375985178401E-3    3.082122421766560E-1   -3.766634924160348E-1
 9.937960096250000E9     4.560021785340362E-1   -1.517309652475672E-1   -5.085578673065407E-3   -4.633284070427864E-3   -5.218457363643587E-3   -4.587850691366548E-3    3.077940138429485E-1   -3.769064395967823E-1
 9.937961060625000E9     4.560417436516474E-1   -1.518585657399128E-1   -5.102976752588197E-3   -4.674287188526438E-3   -5.256315222910101E-3   -4.628013891352546E-3    3.073004333553451E-1   -3.773286150164459E-1
 9.937962025000000E9     4.559155695465416E-1   -1.518992719858645E-1   -5.143754407340469E-3   -4.673382790746157E-3   -5.313782325123292E-3   -4.673941651552238E-3    3.067924129811977E-1   -3.774698674399207E-1
 9.937962989375000E9     4.558955735880295E-1   -1.518689262415030E-1   -5.240308012238460E-3   -4.723307054086044E-3   -5.338078230905111E-3   -4.716990952577899E-3    3.062533029806039E-1   -3.776835275543293E-1
 9.937963953750000E9     4.559430190861048E-1   -1.520847601537179E-1   -5.299156271624127E-3   -4.760471642479996E-3   -5.415680297314462E-3   -4.790868901574551E-3    3.055807236321238E-1   -3.781486954570186E-1
 9.937964918125000E9     4.558398137068991E-1   -1.522534684253593E-1   -5.344321858449323E-3   -4.798821931482081E-3   -5.484399703466539E-3   -4.799099726232938E-3    3.050556330922868E-1   -3.783046554430254E-1
 9.937965882500000E9     4.558240155139506E-1   -1.522174682886807E-1   -5.420962491247159E-3   -4.868196399106711E-3   -5.576680092763165E-3   -4.838908212081936E-3    3.044702470937420E-1   -3.787082920622073E-1
 9.937966846875000E9     4.558273812610876E-1   -1.524073911610036E-1   -5.461839668865685E-3   -4.909317375512145E-3   -5.597449494657189E-3   -4.900570276101957E-3    3.038989023562688E-1   -3.789438758875243E-1
 9.937967811250000E9     4.556529387658707E-1   -1.522383839366399E-1   -5.522213937564377E-3   -4.921152387139717E-3   -5.694131212742228E-3   -4.939534523086183E-3    3.032351340079888E-1   -3.792123291237611E-1
 9.937968775625000E9     4.557887401091175E-1   -1.523842852580345E-1   -5.583373731059909E-3   -4.976241590863625E-3   -5.750003956728532E-3   -4.951255520945759E-3    3.025342500626463E-1   -3.793581518472866E-1
 9.937969740000000E9     4.557602290433147E-1   -1.525138466130996E-1   -5.661780194278227E-3   -5.034205579521363E-3   -5.822830907079527E-3   -4.994279254846607E-3    3.019256725875499E-1   -3.798712951111424E-1
 9.937970704375000E9     4.557598446432819E-1   -1.525403149770567E-1   -5.711891194844962E-3   -5.043800487260314E-3   -5.883869607435835E-3   -5.016421642730014E-3    3.016004631874947E-1   -3.799349425875980E-1
 9.937971668750000E9     4.555109686951179E-1   -1.524904007430710E-1   -5.829268798387582E-3   -5.091613440674426E-3   -5.962057439647449E-3   -5.053374187209084E-3    3.006442340841731E-1   -3.801697541273539E-1
