#  HZ   S   RI   R     50.00 
! Rohde & Schwarz Vector Network Analyzer 
! Rohde-Schwarz,ZNB20-2Port,1311601062101988,3.16
! Created: UTC 3/20/2024, 10:55:04 PM
! freq[Hz]                re:S11                  im:S11                  re:S21                  im:S21                  re:S12                  im:S12                  re:S22                  im:S22
 9.937602746000000E9     4.653415297762861E-1   -1.258191136519552E-1   -1.796992121561284E-3   -2.027162105658657E-3   -1.797708861902658E-3   -2.027720826749535E-3    3.640220255247415E-1   -3.350241580402424E-1
 9.937603953674999E9     4.652525769207388E-1   -1.259427636356673E-1   -1.765227884133743E-3   -2.048141834878534E-3   -1.876641263662669E-3   -2.056130153134676E-3    3.637460101950124E-1   -3.353336799575110E-1
 9.937605161350000E9     4.652300981285962E-1   -1.260257265394373E-1   -1.813905938096842E-3   -2.058658625127080E-3   -1.857528690852114E-3   -2.053123104609892E-3    3.637171425089022E-1   -3.354878793695737E-1
 9.937606369025000E9     4.651235540624877E-1   -1.260116131481456E-1   -1.832616025765398E-3   -2.091637044481291E-3   -1.874719018381179E-3   -2.086862542303853E-3    3.635098153848967E-1   -3.356720938077519E-1
 9.937607576700001E9     4.652547576992858E-1   -1.263326563497775E-1   -1.837222022229150E-3   -2.130587920750724E-3   -1.892864573759106E-3   -2.109059968801220E-3    3.632461225588728E-1   -3.356753131952148E-1
 9.937608784375000E9     4.651147922383373E-1   -1.262676443644799E-1   -1.853689079604833E-3   -2.070845485838374E-3   -1.913999293078071E-3   -2.130362501753464E-3    3.630113993077946E-1   -3.358566735000992E-1
 9.937609992049999E9     4.651926531173322E-1   -1.264758836509923E-1   -1.882935820161199E-3   -2.123074850439822E-3   -1.915393041918512E-3   -2.141039053947226E-3    3.627857855682216E-1   -3.361791355123836E-1
 9.937611199725000E9     4.650980119260877E-1   -1.264571111403458E-1   -1.881712463777911E-3   -2.146016254203548E-3   -1.916181567173122E-3   -2.168059613865866E-3    3.627240958020982E-1   -3.362977805407744E-1
 9.937612407400000E9     4.650373885435986E-1   -1.265281413142229E-1   -1.933499142172412E-3   -2.168507631818643E-3   -1.968173451948129E-3   -2.196189906899609E-3    3.623340411639986E-1   -3.364298183816166E-1
 9.937613615075001E9     4.650336683813238E-1   -1.265971307502289E-1   -1.942826837306840E-3   -2.163374043394475E-3   -1.992781908607839E-3   -2.180834473180238E-3    3.621940855332756E-1   -3.365770545894694E-1
 9.937614822750000E9     4.650071653159938E-1   -1.267457300408915E-1   -1.949699995716261E-3   -2.190986729415902E-3   -2.024381474662553E-3   -2.178832713353443E-3    3.618956689100736E-1   -3.367805638545294E-1
 9.937616030424999E9     4.650998871150916E-1   -1.267623595118105E-1   -1.945152672500768E-3   -2.225465590326673E-3   -2.032961591558752E-3   -2.220330452110170E-3    3.616086825788238E-1   -3.369162438429680E-1
 9.937617238100000E9     4.648372302919042E-1   -1.267996979390494E-1   -1.995808781656438E-3   -2.222750893962861E-3   -2.045590462211610E-3   -2.234743421303503E-3    3.613784123823036E-1   -3.370595111449065E-1
 9.937618445775000E9     4.649049592377457E-1   -1.270248193999972E-1   -1.985746236978505E-3   -2.245977026953196E-3   -2.038079359333244E-3   -2.245596612143566E-3    3.612442387564224E-1   -3.372516021650348E-1
 9.937619653450001E9     4.649296032194268E-1   -1.271796853218375E-1   -2.014625818133291E-3   -2.243144439521926E-3   -2.076690817391478E-3   -2.266238518745659E-3    3.609691750146892E-1   -3.374103286694287E-1
 9.937620861125000E9     4.649841062546602E-1   -1.270470040660221E-1   -1.988934913897169E-3   -2.315159015845075E-3   -2.107333396811038E-3   -2.302654283236529E-3    3.608774227529006E-1   -3.374485695079154E-1
 9.937622068799999E9     4.647634312741526E-1   -1.272970929494516E-1   -2.054098886086389E-3   -2.307322656969017E-3   -2.108527004184299E-3   -2.302115337298356E-3    3.603058766253628E-1   -3.378088518057158E-1
 9.937623276475000E9     4.648299833453097E-1   -1.272448563833360E-1   -2.059879619415932E-3   -2.325054371763267E-3   -2.146486609520707E-3   -2.342908020104172E-3    3.601987570095049E-1   -3.379136532675540E-1
 9.937624484150000E9     4.646969247211560E-1   -1.273630410753314E-1   -2.085743126299199E-3   -2.350083086947481E-3   -2.190518575674544E-3   -2.360284499646429E-3    3.600544419560546E-1   -3.379008685609283E-1
 9.937625691825001E9     4.646524981736271E-1   -1.275037225416663E-1   -2.123972408460636E-3   -2.368708119366218E-3   -2.181668699056489E-3   -2.360708146390717E-3    3.596973773795525E-1   -3.383199021585734E-1
 9.937626899500000E9     4.646642462441239E-1   -1.276018622294418E-1   -2.123062296326295E-3   -2.345859928516499E-3   -2.195857425982408E-3   -2.396109300302986E-3    3.596640402539533E-1   -3.385480562929299E-1
 9.937628107174999E9     4.648083479112856E-1   -1.277246908233817E-1   -2.152439412740376E-3   -2.401878370930246E-3   -2.237963762979356E-3   -2.405779036912803E-3    3.595098855494066E-1   -3.387784293583980E-1
 9.937629314850000E9     4.647077849667251E-1   -1.277284132990156E-1   -2.174029244600010E-3   -2.392123047860716E-3   -2.260852512572227E-3   -2.412301651225599E-3    3.591082319057536E-1   -3.388093922039415E-1
 9.937630522525000E9     4.646698838788720E-1   -1.279234207694558E-1   -2.185632256549921E-3   -2.418953463088854E-3   -2.268762574124007E-3   -2.430371258612485E-3    3.588277040297296E-1   -3.391334653022266E-1
 9.937631730200001E9     4.646057896588318E-1   -1.277880799121902E-1   -2.243478188867387E-3   -2.448932329651644E-3   -2.252560556330802E-3   -2.438772909286018E-3    3.585463174091589E-1   -3.392902827588656E-1
 9.937632937875000E9     4.645296290108766E-1   -1.279184427242224E-1   -2.246315763525492E-3   -2.468149883514916E-3   -2.293182942642105E-3   -2.481128645432735E-3    3.583520338920598E-1   -3.393088380545892E-1
 9.937634145549999E9     4.645282469879524E-1   -1.281297870213396E-1   -2.270452702228148E-3   -2.497616947575108E-3   -2.350750767439028E-3   -2.513196182459363E-3    3.580055964658928E-1   -3.396256398393978E-1
 9.937635353225000E9     4.645720175765491E-1   -1.279371313965118E-1   -2.285567661576376E-3   -2.519004855665610E-3   -2.359927742245673E-3   -2.528227778591516E-3    3.578511284430900E-1   -3.397221299705968E-1
 9.937636560900000E9     4.643743018396687E-1   -1.283375008775588E-1   -2.302089776648056E-3   -2.532924065047322E-3   -2.364781798970959E-3   -2.516607067049274E-3    3.574231225610888E-1   -3.400109068905051E-1
 9.937637768575001E9     4.644494409301027E-1   -1.283017839111135E-1   -2.303448598027264E-3   -2.555344929334309E-3   -2.397200663940435E-3   -2.530668089600565E-3    3.572021145738357E-1   -3.400789976129066E-1
 9.937638976250000E9     4.644113459264960E-1   -1.284997843017786E-1   -2.355156755419338E-3   -2.550695878442151E-3   -2.400309969781338E-3   -2.566976788753173E-3    3.569253395588181E-1   -3.404355101818284E-1
 9.937640183924999E9     4.643781272818243E-1   -1.285644494156959E-1   -2.345211058464127E-3   -2.581048544718435E-3   -2.463998367484692E-3   -2.593699973429170E-3    3.567718328554753E-1   -3.405797645233477E-1
 9.937641391600000E9     4.643388487190598E-1   -1.285120367669559E-1   -2.405149225568969E-3   -2.585413815586775E-3   -2.465154867170373E-3   -2.614601996251723E-3    3.565146270553858E-1   -3.408088644632606E-1
 9.937642599275000E9     4.644167417567402E-1   -1.286390331690750E-1   -2.462817693019587E-3   -2.590837204303443E-3   -2.503897451638210E-3   -2.614622212797563E-3    3.561364025820601E-1   -3.409609102554998E-1
 9.937643806950001E9     4.643360554668497E-1   -1.287972551624679E-1   -2.449771270789664E-3   -2.631586359109869E-3   -2.519106265781331E-3   -2.650509142601828E-3    3.561001252522140E-1   -3.411737308999166E-1
 9.937645014625000E9     4.643184649830638E-1   -1.289001200689771E-1   -2.418540361117368E-3   -2.640294635736241E-3   -2.538401716394064E-3   -2.683297139710807E-3    3.554679333236040E-1   -3.411535724693384E-1
 9.937646222299999E9     4.643754604348070E-1   -1.288014541432639E-1   -2.523785884517583E-3   -2.689375582059793E-3   -2.551673785512215E-3   -2.680702594534956E-3    3.552515815860110E-1   -3.414001509136369E-1
 9.937647429975000E9     4.643436430209545E-1   -1.290312717345468E-1   -2.529881205057667E-3   -2.734946357076215E-3   -2.586433771613331E-3   -2.714896054541572E-3    3.551413811718118E-1   -3.417161289423484E-1
 9.937648637650000E9     4.641602146555920E-1   -1.290177750103108E-1   -2.558811309570724E-3   -2.739653243742179E-3   -2.643935653753659E-3   -2.722132491554835E-3    3.546481352734052E-1   -3.418181048026764E-1
 9.937649845325001E9     4.642934032277358E-1   -1.291372968076603E-1   -2.558349505199506E-3   -2.756848531286660E-3   -2.653465310331173E-3   -2.780551750381661E-3    3.543868464522028E-1   -3.422030684207818E-1
 9.937651053000000E9     4.642267355581743E-1   -1.293833509316102E-1   -2.610548146684892E-3   -2.739526303887325E-3   -2.683163484078929E-3   -2.763943887688091E-3    3.543779820461942E-1   -3.422351818516962E-1
 9.937652260674999E9     4.640293539762955E-1   -1.292888953140456E-1   -2.604546225439615E-3   -2.784267915430789E-3   -2.676495953923618E-3   -2.811824422849198E-3    3.538397534382158E-1   -3.424188424841901E-1
 9.937653468350000E9     4.640061456291785E-1   -1.293000402221042E-1   -2.644068032924255E-3   -2.815028439603164E-3   -2.763999264278793E-3   -2.830455388437045E-3    3.534714166569059E-1   -3.428005660164686E-1
 9.937654676025000E9     4.640883691648838E-1   -1.295415242165250E-1   -2.635883863496980E-3   -2.864896745425418E-3   -2.790421892502297E-3   -2.840921238855750E-3    3.530415667690947E-1   -3.429856924569012E-1
 9.937655883700001E9     4.639749354626436E-1   -1.295518983989671E-1   -2.702568932656621E-3   -2.866945179559105E-3   -2.778778574443753E-3   -2.887794350146788E-3    3.529782391234188E-1   -3.432502301405784E-1
 9.937657091375000E9     4.637397559200487E-1   -1.296856530170919E-1   -2.748634404464807E-3   -2.883709888637969E-3   -2.839751209720296E-3   -2.892947930539874E-3    3.525700053113419E-1   -3.435472684115294E-1
 9.937658299049999E9     4.639265421769932E-1   -1.297904332861071E-1   -2.769212711556566E-3   -2.948481693635879E-3   -2.852758917334672E-3   -2.935849394976355E-3    3.523333824412020E-1   -3.435722527495983E-1
 9.937659506725000E9     4.639001190154777E-1   -1.297984172279341E-1   -2.785056768507593E-3   -2.957191756181458E-3   -2.911341439116201E-3   -2.948593869730399E-3    3.520157468688309E-1   -3.438207277849860E-1
 9.937660714400000E9     4.639913272717052E-1   -1.298040459620806E-1   -2.812702826603266E-3   -2.983508371890779E-3   -2.937203611109775E-3   -2.959833522763080E-3    3.516026232441123E-1   -3.440241952979398E-1
 9.937661922075001E9     4.637618144886133E-1   -1.299853754382547E-1   -2.845247861655327E-3   -3.004337306713077E-3   -2.902630925304963E-3   -3.016321899513827E-3    3.512654299779280E-1   -3.441852033745503E-1
 9.937663129750000E9     4.637025133303442E-1   -1.300995387424858E-1   -2.887776361868725E-3   -2.991252728817553E-3   -2.954678761450585E-3   -3.016900016863852E-3    3.509011300103681E-1   -3.442978871233137E-1
 9.937664337424999E9     4.638089607658613E-1   -1.301249980052827E-1   -2.941224088049793E-3   -3.026206637207632E-3   -3.002852102342864E-3   -3.042589059097633E-3    3.506162389540111E-1   -3.445482654278724E-1
 9.937665545100000E9     4.637734310672977E-1   -1.302834863950667E-1   -2.955614088773551E-3   -3.081808970542973E-3   -3.004428692556101E-3   -3.070054979354729E-3    3.503004348823286E-1   -3.448726079621394E-1
 9.937666752775000E9     4.636716739378652E-1   -1.304019333222796E-1   -2.940194004850246E-3   -3.067693209797581E-3   -3.060247362824782E-3   -3.102296926060375E-3    3.499930387057931E-1   -3.450716512206341E-1
 9.937667960450001E9     4.635562037098261E-1   -1.305388526522900E-1   -3.008042730890271E-3   -3.138505451183347E-3   -3.095550117156308E-3   -3.101287183010307E-3    3.497555059124968E-1   -3.452505484305628E-1
 9.937669168125000E9     4.636062702633523E-1   -1.303556549985845E-1   -3.037396479701501E-3   -3.137759414729919E-3   -3.127840930213400E-3   -3.171250968369344E-3    3.491215224416090E-1   -3.455233908530970E-1
 9.937670375799999E9     4.637434116272058E-1   -1.305264312032720E-1   -3.098170568018723E-3   -3.176205760006207E-3   -3.164289668416149E-3   -3.170420959216441E-3    3.487631688991418E-1   -3.458434453566200E-1
 9.937671583475000E9     4.636285397173377E-1   -1.305583361383244E-1   -3.110616691706989E-3   -3.187910170425457E-3   -3.204418909391926E-3   -3.219190099739302E-3    3.483867585467210E-1   -3.460661024991100E-1
 9.937672791150000E9     4.635079766554731E-1   -1.306599563455895E-1   -3.164884829743232E-3   -3.188854532610357E-3   -3.266865431496231E-3   -3.236935418946341E-3    3.481273079004760E-1   -3.462775307148149E-1
 9.937673998825001E9     4.635965103706474E-1   -1.307799765373879E-1   -3.156388021644486E-3   -3.262898158082516E-3   -3.303580347720520E-3   -3.265384633927356E-3    3.475805530729578E-1   -3.464120412378737E-1
 9.937675206500000E9     4.634780239278107E-1   -1.308119646986461E-1   -3.211947020415809E-3   -3.255466315963053E-3   -3.336174295263638E-3   -3.297607440833174E-3    3.473335339533469E-1   -3.467149112333257E-1
 9.937676414174999E9     4.635470149778497E-1   -1.310480592669390E-1   -3.234484421080466E-3   -3.323424572090260E-3   -3.334905058140525E-3   -3.331398862255667E-3    3.468611791948339E-1   -3.469278326733374E-1
 9.937677621850000E9     4.633755577713009E-1   -1.310683471444292E-1   -3.267838892969563E-3   -3.346136420846264E-3   -3.383577650362093E-3   -3.341566951747344E-3    3.466358552361534E-1   -3.472018506536340E-1
 9.937678829525000E9     4.634240757003859E-1   -1.310831697955826E-1   -3.342649595668409E-3   -3.384210188406201E-3   -3.392660394241199E-3   -3.374821778314918E-3    3.462349556762617E-1   -3.473507428308779E-1
 9.937680037200001E9     4.634543413581030E-1   -1.311628545087321E-1   -3.358639221999412E-3   -3.379028427493139E-3   -3.453646822226920E-3   -3.406423335643903E-3    3.458237788754739E-1   -3.477558664501292E-1
 9.937681244875000E9     4.633871642529793E-1   -1.312344908344875E-1   -3.374201401908913E-3   -3.425332065797518E-3   -3.528984868671513E-3   -3.434322986657113E-3    3.454551269842125E-1   -3.477970099386651E-1
 9.937682452549999E9     4.633216797573483E-1   -1.313671940486839E-1   -3.471225424686341E-3   -3.468259593917731E-3   -3.549211349007510E-3   -3.471856802402773E-3    3.450904657440155E-1   -3.481543677738602E-1
 9.937683660225000E9     4.632743868144671E-1   -1.315936939992406E-1   -3.472195292599939E-3   -3.476380389166056E-3   -3.593234651453976E-3   -3.498270060125996E-3    3.445840809089600E-1   -3.484990318457120E-1
 9.937684867900000E9     4.632657672189686E-1   -1.316779987126575E-1   -3.496250653069508E-3   -3.503347604547384E-3   -3.615856502988578E-3   -3.510667829937691E-3    3.442483742453084E-1   -3.489008355510579E-1
 9.937686075575001E9     4.630872295103914E-1   -1.315732562704601E-1   -3.569043859003597E-3   -3.550445516378265E-3   -3.664640810725297E-3   -3.564688729044059E-3    3.436424164204335E-1   -3.488209592359525E-1
 9.937687283250000E9     4.632185313950270E-1   -1.317528084348129E-1   -3.602885129298845E-3   -3.563543915644930E-3   -3.718881433677212E-3   -3.563973737021385E-3    3.434316413962156E-1   -3.490334447059475E-1
 9.937688490924999E9     4.631345103381642E-1   -1.318889890043599E-1   -3.626404894499596E-3   -3.613882273496099E-3   -3.735861913818910E-3   -3.596979651005862E-3    3.426922725519749E-1   -3.494645367732465E-1
 9.937689698600000E9     4.631304989142474E-1   -1.319059100875553E-1   -3.693373464023160E-3   -3.640948215391418E-3   -3.828782184356553E-3   -3.656641495282027E-3    3.423157640422636E-1   -3.497938452929218E-1
 9.937690906275000E9     4.631442925148131E-1   -1.320002967867738E-1   -3.698567390293146E-3   -3.661743010481700E-3   -3.838284116434781E-3   -3.673147453783822E-3    3.418815854908144E-1   -3.501356570418888E-1
 9.937692113950001E9     4.630832096007553E-1   -1.320288229887001E-1   -3.731320336195436E-3   -3.720553408835677E-3   -3.902935344120386E-3   -3.708480646770141E-3    3.414871257327411E-1   -3.503564313680618E-1
 9.937693321625000E9     4.630855255400239E-1   -1.321680126429847E-1   -3.821118125038458E-3   -3.721284314766999E-3   -3.929250518151127E-3   -3.731121820512156E-3    3.408915211132479E-1   -3.504041769070174E-1
 9.937694529299999E9     4.629548408271312E-1   -1.321841131687408E-1   -3.854844242707047E-3   -3.747517174068505E-3   -3.984790576200684E-3   -3.778719574426547E-3    3.406344288370659E-1   -3.509936102086920E-1
 9.937695736975000E9     4.628933937528156E-1   -1.321537892406232E-1   -3.927924195220228E-3   -3.828618631513460E-3   -4.033353706599923E-3   -3.827271482147662E-3    3.399665091001825E-1   -3.510341119436122E-1
 9.937696944650000E9     4.629564048875616E-1   -1.323404732586313E-1   -3.944150699895585E-3   -3.805002565534672E-3   -4.110217578107286E-3   -3.839018080640405E-3    3.395519570480293E-1   -3.512294915852578E-1
 9.937698152325001E9     4.629607420139733E-1   -1.323935933304842E-1   -3.991020695388626E-3   -3.863107726947878E-3   -4.137214315500096E-3   -3.882184895828384E-3    3.390220410548671E-1   -3.515171729109046E-1
 9.937699360000000E9     4.627896705543261E-1   -1.325312347615963E-1   -4.075886438293531E-3   -3.904194177992067E-3   -4.197989009991635E-3   -3.924230364156296E-3    3.384569720375902E-1   -3.516151456553669E-1
 9.937700567674999E9     4.626954574891455E-1   -1.326447533176709E-1   -4.092582424143319E-3   -3.916856447852788E-3   -4.255372371347684E-3   -3.949986175888875E-3    3.378968028588626E-1   -3.521733191758337E-1
 9.937701775350000E9     4.629148930183429E-1   -1.327082299736599E-1   -4.153157379366132E-3   -3.991404250832047E-3   -4.314181826906313E-3   -3.998345540832960E-3    3.376311008026818E-1   -3.525536525152976E-1
 9.937702983025000E9     4.627283560932077E-1   -1.326584409182019E-1   -4.216915035575373E-3   -4.006460431873277E-3   -4.322264704011288E-3   -4.043238941148225E-3    3.370192056388027E-1   -3.526405181012446E-1
 9.937704190700001E9     4.626690492069675E-1   -1.329911848309855E-1   -4.269399026046787E-3   -4.051887229314969E-3   -4.431428995906132E-3   -4.075719869461590E-3    3.362553705097797E-1   -3.529820355152744E-1
 9.937705398375000E9     4.626898826286365E-1   -1.329213645167506E-1   -4.332501333253998E-3   -4.082668596805056E-3   -4.448382675989051E-3   -4.099659162440714E-3    3.359181920417701E-1   -3.532346654231726E-1
 9.937706606049999E9     4.625480417891598E-1   -1.331323190590367E-1   -4.380771799787346E-3   -4.086295120036875E-3   -4.533850763685520E-3   -4.143865140922210E-3    3.353100994976471E-1   -3.533897745445398E-1
 9.937707813725000E9     4.625665295323682E-1   -1.332623862091425E-1   -4.447856503641213E-3   -4.161693681049346E-3   -4.590299938073786E-3   -4.172761177072151E-3    3.346785083519031E-1   -3.540076875473025E-1
 9.937709021400000E9     4.626001098773686E-1   -1.332736680118839E-1   -4.473031333295528E-3   -4.194029264577530E-3   -4.673080961706572E-3   -4.251902098278190E-3    3.343738249981364E-1   -3.539750768638331E-1
 9.937710229075001E9     4.626039409879878E-1   -1.333617575476168E-1   -4.538434693645511E-3   -4.237683352844597E-3   -4.689891219157976E-3   -4.256858667985467E-3    3.335818271759387E-1   -3.545867025075918E-1
 9.937711436750000E9     4.625244513810631E-1   -1.333923634118702E-1   -4.596467143082891E-3   -4.311231798336332E-3   -4.754005788753143E-3   -4.303756897115763E-3    3.328375167672515E-1   -3.547574801541587E-1
