#  HZ   S   RI   R     50.00 
! Rohde & Schwarz Vector Network Analyzer 
! Rohde-Schwarz,ZNB20-2Port,1311601062101988,3.16
! Created: UTC 3/20/2024, 10:55:37 PM
! freq[Hz]                re:S11                  im:S11                  re:S21                  im:S21                  re:S12                  im:S12                  re:S22                  im:S22
 9.937562559000000E9     4.662259547635552E-1   -1.232991774926099E-1   -1.534316814154579E-3   -1.775924882943118E-3   -1.606075262225485E-3   -1.794010656447737E-3    3.679925187087179E-1   -3.313785959041001E-1
 9.937563869725000E9     4.661956051376295E-1   -1.234053721560395E-1   -1.576455966056679E-3   -1.792769897585243E-3   -1.617514833343926E-3   -1.782694579181094E-3    3.680457393289839E-1   -3.314272427205164E-1
 9.937565180450001E9     4.660943529855391E-1   -1.234093685154973E-1   -1.576922753792296E-3   -1.802588974927266E-3   -1.613050528884764E-3   -1.809178076716261E-3    3.677347222886980E-1   -3.317186809330229E-1
 9.937566491174999E9     4.660653591323971E-1   -1.235375903128586E-1   -1.570384427363929E-3   -1.847553236990897E-3   -1.631781206825031E-3   -1.829358993830162E-3    3.674878060833432E-1   -3.318195317974571E-1
 9.937567801900000E9     4.661808562721015E-1   -1.235971215928685E-1   -1.601015304644377E-3   -1.834510932431436E-3   -1.658156762029645E-3   -1.841323468611369E-3    3.673970737268447E-1   -3.320504553653733E-1
 9.937569112625000E9     4.660252192400460E-1   -1.237820633205390E-1   -1.637738067068152E-3   -1.840158445851264E-3   -1.679123945148884E-3   -1.830891302472451E-3    3.670280706093527E-1   -3.321938822204027E-1
 9.937570423350000E9     4.660603517166577E-1   -1.237338949559760E-1   -1.617081311268139E-3   -1.832551599932776E-3   -1.688517894731535E-3   -1.880557201298564E-3    3.669336739327562E-1   -3.324480606724433E-1
 9.937571734075001E9     4.660784516014889E-1   -1.240120757023049E-1   -1.637553709795566E-3   -1.859542233383292E-3   -1.730079122253424E-3   -1.871778593996426E-3    3.666592867933867E-1   -3.324622263965200E-1
 9.937573044799999E9     4.659252359592276E-1   -1.241787752154833E-1   -1.675559847550058E-3   -1.917010659396395E-3   -1.726455273935188E-3   -1.889122983840155E-3    3.666193993588611E-1   -3.326311249816027E-1
 9.937574355525000E9     4.659513039756027E-1   -1.240288415248503E-1   -1.670397964430212E-3   -1.896163781590894E-3   -1.746657061403033E-3   -1.897820822760572E-3    3.661954300731210E-1   -3.328427558610688E-1
 9.937575666250000E9     4.659253451997075E-1   -1.242278333233174E-1   -1.718510350098061E-3   -1.917263210887031E-3   -1.738605264736458E-3   -1.975730391350371E-3    3.662159650530971E-1   -3.330439127000374E-1
 9.937576976975000E9     4.657724525732677E-1   -1.242377840487708E-1   -1.710006912859406E-3   -1.960706577336108E-3   -1.763323248400657E-3   -1.916311841521165E-3    3.658923736398620E-1   -3.331854223911513E-1
 9.937578287700001E9     4.658029271329596E-1   -1.244175783292368E-1   -1.757049903881904E-3   -1.958005860457131E-3   -1.783684372554613E-3   -1.956640939981993E-3    3.654658344394007E-1   -3.333239369052350E-1
 9.937579598424999E9     4.658692769775808E-1   -1.244423614463346E-1   -1.749699973325489E-3   -1.991300633688907E-3   -1.803130728413300E-3   -1.986692868074433E-3    3.653045690041443E-1   -3.333188081376409E-1
 9.937580909150000E9     4.657218179459229E-1   -1.245499549738159E-1   -1.787781683700522E-3   -1.980706547287460E-3   -1.824276403341688E-3   -1.996428315435745E-3    3.651106106164482E-1   -3.336802765114781E-1
 9.937582219875000E9     4.657982707256340E-1   -1.246042789827670E-1   -1.787295011107653E-3   -1.994282833814421E-3   -1.839838817078764E-3   -2.006234170073877E-3    3.651107743405100E-1   -3.336872147588653E-1
 9.937583530600000E9     4.656937587677969E-1   -1.248083752037186E-1   -1.794897942249237E-3   -2.022366189255735E-3   -1.845994913695174E-3   -2.023029156981705E-3    3.646237092335556E-1   -3.340306373224798E-1
 9.937584841325001E9     4.657170922697439E-1   -1.248429387787623E-1   -1.845476060398593E-3   -2.024892673629835E-3   -1.881268411629071E-3   -2.036675720880403E-3    3.646090688703625E-1   -3.342074633838279E-1
 9.937586152049999E9     4.656013429883717E-1   -1.250755981335083E-1   -1.822757424156621E-3   -2.064241244763675E-3   -1.862890767695777E-3   -2.054291944240229E-3    3.641311966512111E-1   -3.342746250569036E-1
 9.937587462775000E9     4.655684408636498E-1   -1.249769616202474E-1   -1.847736955477703E-3   -2.046474560153477E-3   -1.941427130586735E-3   -2.081199801577720E-3    3.639000806715935E-1   -3.344762931097437E-1
 9.937588773500000E9     4.655036204427063E-1   -1.251939907655444E-1   -1.889705094404827E-3   -2.080235179185042E-3   -1.922444570265480E-3   -2.095466308435106E-3    3.637699470917994E-1   -3.347923709646240E-1
 9.937590084225000E9     4.656662846733036E-1   -1.251893284936888E-1   -1.905369247604650E-3   -2.099369198479565E-3   -1.969341710709680E-3   -2.125086286122088E-3    3.636057908460098E-1   -3.349029910993536E-1
 9.937591394950001E9     4.655594963280402E-1   -1.253155614579933E-1   -1.899208745773080E-3   -2.105848976296966E-3   -1.971547655412709E-3   -2.107484219292289E-3    3.632268743731077E-1   -3.351498446283995E-1
 9.937592705674999E9     4.655091015123018E-1   -1.254996612754236E-1   -1.918532447698415E-3   -2.133776889419160E-3   -1.990023513347994E-3   -2.143485978781752E-3    3.630040452837511E-1   -3.351123975190027E-1
 9.937594016400000E9     4.654876014620993E-1   -1.255215446402496E-1   -1.941457012223884E-3   -2.111154049811089E-3   -2.062269347572831E-3   -2.145770465479850E-3    3.627397027202183E-1   -3.354588653554472E-1
 9.937595327125000E9     4.654770825331643E-1   -1.254812615704470E-1   -1.957119646544516E-3   -2.196577743176098E-3   -2.033459083692214E-3   -2.179843181551457E-3    3.624881904396643E-1   -3.355678869249256E-1
 9.937596637850000E9     4.654001170631635E-1   -1.257338059589009E-1   -2.012382799078383E-3   -2.195903729624665E-3   -2.051101038379191E-3   -2.211128093677720E-3    3.623694858483640E-1   -3.358001396155242E-1
 9.937597948575001E9     4.653564599904597E-1   -1.255652741998800E-1   -2.024703975342266E-3   -2.236480302790189E-3   -2.066579688230833E-3   -2.227086877761005E-3    3.622163384654966E-1   -3.360018005145453E-1
 9.937599259299999E9     4.653042222790429E-1   -1.258138748052080E-1   -2.023022559259706E-3   -2.230655473918088E-3   -2.101367030743827E-3   -2.256067368560668E-3    3.620483601942491E-1   -3.360402781050342E-1
 9.937600570025000E9     4.652279863454172E-1   -1.259861353246107E-1   -2.073005298144427E-3   -2.270060157718335E-3   -2.132840939494421E-3   -2.239488337389450E-3    3.614775512045061E-1   -3.364532649963216E-1
 9.937601880750000E9     4.652363010589377E-1   -1.260411385018614E-1   -2.051754267044659E-3   -2.271513557585526E-3   -2.142729433790322E-3   -2.265722570160909E-3    3.614850140678401E-1   -3.366047581717251E-1
 9.937603191475000E9     4.653179007951482E-1   -1.260269318621378E-1   -2.064484237306990E-3   -2.303524697535025E-3   -2.180017206761084E-3   -2.295320749705707E-3    3.609747017228975E-1   -3.367844001695580E-1
 9.937604502200001E9     4.652408629196367E-1   -1.262771920003218E-1   -2.115696068721711E-3   -2.302461592583418E-3   -2.177278257859240E-3   -2.308735295739669E-3    3.607666491840192E-1   -3.368771943255257E-1
 9.937605812924999E9     4.652454136030266E-1   -1.261363075947082E-1   -2.144491478976266E-3   -2.323153302811124E-3   -2.222930223891025E-3   -2.321715453369558E-3    3.605879173210484E-1   -3.371401597814368E-1
 9.937607123650000E9     4.650971536629619E-1   -1.264272595642403E-1   -2.156800284423862E-3   -2.353517365790741E-3   -2.224508155606433E-3   -2.359219051646392E-3    3.602739565315590E-1   -3.372477295653677E-1
 9.937608434375000E9     4.651123264212653E-1   -1.265621211935317E-1   -2.167938589899097E-3   -2.344310985923527E-3   -2.234797485742099E-3   -2.358237708031374E-3    3.600495324336608E-1   -3.374582691462364E-1
 9.937609745100000E9     4.652597879089589E-1   -1.264819888603466E-1   -2.205960998318031E-3   -2.380984919543607E-3   -2.264407637618755E-3   -2.382571053203686E-3    3.597937084523281E-1   -3.375172088839096E-1
 9.937611055825001E9     4.650288814942811E-1   -1.266075910192608E-1   -2.185158500763815E-3   -2.370392818397511E-3   -2.285057707367963E-3   -2.419263531036593E-3    3.595758597374890E-1   -3.377593290722556E-1
 9.937612366549999E9     4.648287004241274E-1   -1.265441056724818E-1   -2.255815538909215E-3   -2.405724084657691E-3   -2.323901480084887E-3   -2.417746020988637E-3    3.590662206800944E-1   -3.381237151813701E-1
 9.937613677275000E9     4.650669548968317E-1   -1.267949733316685E-1   -2.228636016198241E-3   -2.462075571308096E-3   -2.330261304646359E-3   -2.455293882231709E-3    3.589804107899466E-1   -3.382408940800330E-1
 9.937614988000000E9     4.649325683148884E-1   -1.268910988838779E-1   -2.303781673629904E-3   -2.440978561829758E-3   -2.384975561974477E-3   -2.463984076902599E-3    3.584469371565529E-1   -3.384445382222179E-1
 9.937616298725000E9     4.649914509785857E-1   -1.268563417923924E-1   -2.322677917661091E-3   -2.490134475843146E-3   -2.425577086284927E-3   -2.447866097298103E-3    3.582547045566218E-1   -3.385654949983062E-1
 9.937617609450001E9     4.647272048726491E-1   -1.271495160357074E-1   -2.371990466408071E-3   -2.510657673094066E-3   -2.432310300097990E-3   -2.527000129678067E-3    3.581549175964729E-1   -3.388394895572173E-1
 9.937618920174999E9     4.647658242287293E-1   -1.271330815401277E-1   -2.368805641470999E-3   -2.505798779285860E-3   -2.453291897741536E-3   -2.533735826601483E-3    3.576410190430484E-1   -3.391427283571870E-1
 9.937620230900000E9     4.647127774415786E-1   -1.272931636183551E-1   -2.403011916418473E-3   -2.552239936372254E-3   -2.450284158589391E-3   -2.547232515798328E-3    3.573736261896975E-1   -3.393302100414157E-1
 9.937621541625000E9     4.649092858353616E-1   -1.274397162716334E-1   -2.434442911839105E-3   -2.545464052020602E-3   -2.472179188830566E-3   -2.593022832700638E-3    3.573311997420606E-1   -3.393370129817688E-1
 9.937622852350000E9     4.647817843155051E-1   -1.274669740644162E-1   -2.429866674595068E-3   -2.558051078540284E-3   -2.518181765841019E-3   -2.612312708371409E-3    3.569142816781473E-1   -3.397364052220698E-1
 9.937624163075001E9     4.646650984348531E-1   -1.275593060768386E-1   -2.463159470555054E-3   -2.633135208359932E-3   -2.542906317174404E-3   -2.599683413230133E-3    3.565571006859631E-1   -3.398097921377012E-1
 9.937625473799999E9     4.645494334962182E-1   -1.275342594886372E-1   -2.511289825883850E-3   -2.663492777054254E-3   -2.579546278277233E-3   -2.651896829613069E-3    3.562918040617576E-1   -3.402266069388239E-1
 9.937626784525000E9     4.646354893283947E-1   -1.277641115647204E-1   -2.517294338177257E-3   -2.633516615678889E-3   -2.602026254333633E-3   -2.644861581411071E-3    3.559833164859046E-1   -3.400273532308131E-1
 9.937628095250000E9     4.646559114718116E-1   -1.277813386730489E-1   -2.561157567016550E-3   -2.704838984478684E-3   -2.621686611602339E-3   -2.702299504761170E-3    3.555493182622947E-1   -3.402882320943726E-1
 9.937629405975000E9     4.645991364999615E-1   -1.278775107992976E-1   -2.597860957249796E-3   -2.685009277486253E-3   -2.667776921158350E-3   -2.746800964989630E-3    3.552389254672554E-1   -3.405886587603421E-1
 9.937630716700001E9     4.644568293468171E-1   -1.280374205793695E-1   -2.624155012219558E-3   -2.735439692207276E-3   -2.701845579437576E-3   -2.729815430804333E-3    3.549973035493190E-1   -3.408806620613112E-1
 9.937632027424999E9     4.645982202946705E-1   -1.280604347952152E-1   -2.622293605956048E-3   -2.746288452973871E-3   -2.712259062545180E-3   -2.738159841798414E-3    3.547452010839328E-1   -3.412480775674949E-1
 9.937633338150000E9     4.644304313413118E-1   -1.280736671320070E-1   -2.653126422217548E-3   -2.772487781970170E-3   -2.760336416796081E-3   -2.781792610968107E-3    3.544369444635564E-1   -3.413916084065992E-1
 9.937634648875000E9     4.644395873728205E-1   -1.281825083507898E-1   -2.693937249217657E-3   -2.790035908382863E-3   -2.795853293112019E-3   -2.810056271582323E-3    3.539749986131541E-1   -3.416110991855120E-1
 9.937635959600000E9     4.644752102069450E-1   -1.282876941353521E-1   -2.750189501751538E-3   -2.850910472531216E-3   -2.823518279906536E-3   -2.850784966837171E-3    3.538272249021912E-1   -3.418331716512394E-1
 9.937637270325001E9     4.644204107379671E-1   -1.283610993001228E-1   -2.757439861464047E-3   -2.839207181530706E-3   -2.841830425622513E-3   -2.854673093859283E-3    3.534150867504158E-1   -3.419258251424289E-1
 9.937638581049999E9     4.643777713623794E-1   -1.285130842116515E-1   -2.763795122948527E-3   -2.870495463372247E-3   -2.893312006638195E-3   -2.890294188597774E-3    3.529382396923978E-1   -3.422231986514279E-1
 9.937639891775000E9     4.643739823138064E-1   -1.285281038589754E-1   -2.833462268339605E-3   -2.877359752985593E-3   -2.932219100990289E-3   -2.906465459178518E-3    3.527782676065446E-1   -3.424454163568250E-1
 9.937641202500000E9     4.642829456793536E-1   -1.287642930962595E-1   -2.866431139047036E-3   -2.914102850814852E-3   -2.953623582488034E-3   -2.933104919448501E-3    3.522499665775537E-1   -3.428056077247217E-1
 9.937642513225000E9     4.642091123795860E-1   -1.287624519970096E-1   -2.872074861982819E-3   -2.967106875991717E-3   -2.959980784890290E-3   -2.967650381526651E-3    3.519865931611392E-1   -3.429085983806940E-1
 9.937643823950001E9     4.642857100497877E-1   -1.288429245972753E-1   -2.948006997545877E-3   -2.995794691738340E-3   -3.061110861223678E-3   -2.993686834843775E-3    3.514324063797915E-1   -3.432102482192351E-1
 9.937645134674999E9     4.641087650388172E-1   -1.289535330237442E-1   -2.969206509300937E-3   -3.003942110253452E-3   -3.059522187913977E-3   -3.005801350795261E-3    3.512234477320846E-1   -3.434299286276424E-1
 9.937646445400000E9     4.641732159271155E-1   -1.289771114485977E-1   -2.985251208443065E-3   -3.026534957400391E-3   -3.090460343149543E-3   -3.021428924286309E-3    3.507408003311536E-1   -3.436542674736263E-1
 9.937647756125000E9     4.640283689180812E-1   -1.292185881234739E-1   -3.079374804004892E-3   -3.052385392787512E-3   -3.136598942318310E-3   -3.044838870477556E-3    3.504847079009857E-1   -3.440324553431230E-1
 9.937649066850000E9     4.641182546790139E-1   -1.291516502635096E-1   -3.084681058913162E-3   -3.080628505902407E-3   -3.153383970801082E-3   -3.111502938036733E-3    3.500250390979876E-1   -3.440740640583261E-1
 9.937650377575001E9     4.641330046929497E-1   -1.292395088594756E-1   -3.098288945913529E-3   -3.117138719286418E-3   -3.196032263974238E-3   -3.131165978214788E-3    3.497062731725794E-1   -3.443493897224945E-1
 9.937651688299999E9     4.639292043570512E-1   -1.293283354081121E-1   -3.174795519172745E-3   -3.159293153235208E-3   -3.255841194006692E-3   -3.141558031678308E-3    3.492569128280921E-1   -3.444133714715641E-1
 9.937652999025000E9     4.639778714448014E-1   -1.295286672623031E-1   -3.201884256852218E-3   -3.168074088430587E-3   -3.277664686124935E-3   -3.185424741428491E-3    3.488797945086771E-1   -3.448130564968345E-1
 9.937654309750000E9     4.639431579138764E-1   -1.296003077438233E-1   -3.229028585608203E-3   -3.204519479166708E-3   -3.311593431485379E-3   -3.219914110716194E-3    3.484319882997453E-1   -3.451324891867867E-1
 9.937655620475000E9     4.638387289258792E-1   -1.296332068809903E-1   -3.258279547258579E-3   -3.255164151250353E-3   -3.352843595857238E-3   -3.245282916783677E-3    3.480130907231527E-1   -3.452556158022114E-1
 9.937656931200001E9     4.638511234667036E-1   -1.296570741871705E-1   -3.282422058545322E-3   -3.256875560783936E-3   -3.372548827421267E-3   -3.248692046929725E-3    3.475620042566681E-1   -3.455840855971384E-1
 9.937658241924999E9     4.639326155327033E-1   -1.298922019092808E-1   -3.345677875594270E-3   -3.267231790402307E-3   -3.448030164955950E-3   -3.325421646835679E-3    3.472358832599970E-1   -3.458553385711771E-1
 9.937659552650000E9     4.637617797924966E-1   -1.300612272287979E-1   -3.378324470285009E-3   -3.289077208728829E-3   -3.507020842354679E-3   -3.291668448135256E-3    3.466848041740275E-1   -3.461809998613566E-1
 9.937660863375000E9     4.638242934718295E-1   -1.300139922757371E-1   -3.414776187830873E-3   -3.322407698170696E-3   -3.515217689294686E-3   -3.331727321126654E-3    3.462589702768653E-1   -3.463688608953291E-1
 9.937662174100000E9     4.637524093724473E-1   -1.300800405789157E-1   -3.476625997790546E-3   -3.371214597834437E-3   -3.590319980799863E-3   -3.394863884009847E-3    3.458887047646541E-1   -3.464678142249727E-1
 9.937663484825001E9     4.637546058750419E-1   -1.302107489308170E-1   -3.473159562735968E-3   -3.431728313188700E-3   -3.611511864842061E-3   -3.445927896364200E-3    3.453013493388907E-1   -3.469364123847040E-1
 9.937664795549999E9     4.637549290685492E-1   -1.303222719942434E-1   -3.537659101631294E-3   -3.447849283449763E-3   -3.680435375788018E-3   -3.479019230240475E-3    3.448172425762231E-1   -3.471456513254268E-1
 9.937666106275000E9     4.635054005693264E-1   -1.304511914254974E-1   -3.541820348358903E-3   -3.468957708568439E-3   -3.694435987161976E-3   -3.487150267745355E-3    3.444688660661344E-1   -3.473747799606690E-1
 9.937667417000000E9     4.636614564237183E-1   -1.304057728909415E-1   -3.626171757860624E-3   -3.505066216560768E-3   -3.766864157511923E-3   -3.543564391679377E-3    3.440959935346154E-1   -3.476235190164725E-1
 9.937668727725000E9     4.635130114384283E-1   -1.307366336972645E-1   -3.690024770115501E-3   -3.552397468214587E-3   -3.785927272923460E-3   -3.538853412608550E-3    3.435258971814750E-1   -3.477873904798077E-1
 9.937670038450001E9     4.636236637644939E-1   -1.307550153152100E-1   -3.701316540189089E-3   -3.584528883230033E-3   -3.832022231332986E-3   -3.569719050810471E-3    3.429082551450494E-1   -3.481169832624335E-1
 9.937671349174999E9     4.633622424677547E-1   -1.308370544345604E-1   -3.774337518168624E-3   -3.579757410807708E-3   -3.888150614548017E-3   -3.624229934336518E-3    3.425453774495300E-1   -3.483777818149812E-1
 9.937672659900000E9     4.634624153396299E-1   -1.308674240899618E-1   -3.857873902666348E-3   -3.672194469761141E-3   -3.983865653162098E-3   -3.673652616457980E-3    3.420962275171197E-1   -3.486531645775217E-1
 9.937673970625000E9     4.632863570150813E-1   -1.309299997258871E-1   -3.871538865907451E-3   -3.665874369120205E-3   -4.020245096016368E-3   -3.712523650301162E-3    3.413367299100295E-1   -3.488769371409048E-1
 9.937675281350000E9     4.633890660374746E-1   -1.310356648865918E-1   -3.918610575671542E-3   -3.709676193320932E-3   -4.042136990911302E-3   -3.703824491937953E-3    3.408229506340698E-1   -3.492238937717095E-1
 9.937676592075001E9     4.633999558625296E-1   -1.311554532404214E-1   -3.975640643536289E-3   -3.752039964388468E-3   -4.118933813618273E-3   -3.725896264323435E-3    3.403797291564731E-1   -3.493166973471372E-1
 9.937677902799999E9     4.632146499914517E-1   -1.312827016001127E-1   -4.020004336002346E-3   -3.775078809912307E-3   -4.183376391126150E-3   -3.822425873629943E-3    3.400373977280257E-1   -3.498106230133375E-1
 9.937679213525000E9     4.633333049081192E-1   -1.314487554019949E-1   -4.103807904176599E-3   -3.813605790858667E-3   -4.230767691101543E-3   -3.818292298643668E-3    3.395070955381213E-1   -3.501652037168083E-1
 9.937680524250000E9     4.633003006985293E-1   -1.313958309291809E-1   -4.168911270127471E-3   -3.849320587007513E-3   -4.256617160718094E-3   -3.866614959655345E-3    3.389654927194803E-1   -3.504404652081147E-1
