#  HZ   S   RI   R     50.00 
! Rohde & Schwarz Vector Network Analyzer 
! Rohde-Schwarz,ZNB20-2Port,1311601062101988,3.16
! Created: UTC 3/20/2024, 10:55:39 PM
! freq[Hz]                re:S11                  im:S11                  re:S21                  im:S21                  re:S12                  im:S12                  re:S22                  im:S22
 9.937558075000000E9     4.663876044526185E-1   -1.229278964994627E-1   -1.507409029688257E-3   -1.740061797289672E-3   -1.555017170109888E-3   -1.746683245488466E-3    3.685434669598709E-1   -3.308987113998283E-1
 9.937559402049999E9     4.663618260933354E-1   -1.230474618586131E-1   -1.518056450872242E-3   -1.723354152776128E-3   -1.573026335195015E-3   -1.764199180696154E-3    3.684140259821618E-1   -3.309941951299177E-1
 9.937560729100000E9     4.662761893510985E-1   -1.231370859235848E-1   -1.552707254642528E-3   -1.773235039038122E-3   -1.586615373079333E-3   -1.812783246713614E-3    3.683570678365554E-1   -3.313642059610696E-1
 9.937562056150000E9     4.662849889368691E-1   -1.232683764924270E-1   -1.520227739410987E-3   -1.791652317002992E-3   -1.573404262033045E-3   -1.781064489987557E-3    3.678607087865792E-1   -3.313726937487312E-1
 9.937563383200001E9     4.663345090236750E-1   -1.233718933415307E-1   -1.565236231258553E-3   -1.793278561151574E-3   -1.597633168119473E-3   -1.832505547329963E-3    3.678527689562407E-1   -3.317259647282437E-1
 9.937564710250000E9     4.661331136449895E-1   -1.234449300138565E-1   -1.627680723961192E-3   -1.784578464567005E-3   -1.640858729970713E-3   -1.815327520201674E-3    3.676005509569643E-1   -3.316421840424181E-1
 9.937566037299999E9     4.660488976467591E-1   -1.235817880477296E-1   -1.608490666507247E-3   -1.816622457561556E-3   -1.665319773967300E-3   -1.807736872921408E-3    3.672507231931905E-1   -3.316766141389277E-1
 9.937567364350000E9     4.660695811120166E-1   -1.236201507569446E-1   -1.625350532261957E-3   -1.846439819760536E-3   -1.648041279800046E-3   -1.819573596714462E-3    3.672883600640044E-1   -3.319435756058309E-1
 9.937568691400000E9     4.661186219382853E-1   -1.237439246030448E-1   -1.620391750045317E-3   -1.855944254385787E-3   -1.697315305566205E-3   -1.853224158643260E-3    3.669355461424018E-1   -3.322625158539331E-1
 9.937570018450001E9     4.660645409424521E-1   -1.238656699523167E-1   -1.666228879842772E-3   -1.875979195832984E-3   -1.689986759586875E-3   -1.876264412874151E-3    3.668799136009823E-1   -3.323228034670880E-1
 9.937571345500000E9     4.660847191975462E-1   -1.239340390759733E-1   -1.669178722160069E-3   -1.907114680349328E-3   -1.722208560338019E-3   -1.875907676216409E-3    3.664976608155114E-1   -3.326152725887997E-1
 9.937572672549999E9     4.658637674298229E-1   -1.240638443864017E-1   -1.682351035758312E-3   -1.892921933998788E-3   -1.706279388487899E-3   -1.897786842698191E-3    3.663223805798735E-1   -3.325510454425789E-1
 9.937573999600000E9     4.659602684356778E-1   -1.240411553537807E-1   -1.709868629050189E-3   -1.930101302470366E-3   -1.732221530564172E-3   -1.931910175217116E-3    3.660008428829171E-1   -3.330113034007724E-1
 9.937575326650000E9     4.659329967640672E-1   -1.241474843694864E-1   -1.721385021285830E-3   -1.973527575331748E-3   -1.795058297822297E-3   -1.936535931541540E-3    3.657374259114421E-1   -3.330275363404103E-1
 9.937576653700001E9     4.659233829926769E-1   -1.242209729551094E-1   -1.708066342106727E-3   -1.967843241319546E-3   -1.812307938374747E-3   -1.945791824234358E-3    3.656868363203174E-1   -3.332014299277152E-1
 9.937577980750000E9     4.658626860076022E-1   -1.243828940127201E-1   -1.752442154347782E-3   -1.970761655876110E-3   -1.823971965026571E-3   -1.944693849924733E-3    3.655490996846905E-1   -3.332746308642104E-1
 9.937579307799999E9     4.657443769745977E-1   -1.244745720030938E-1   -1.776247404014218E-3   -1.994165660106207E-3   -1.831729344414562E-3   -1.966024724596250E-3    3.652265601430615E-1   -3.335978733299566E-1
 9.937580634850000E9     4.658385302142998E-1   -1.246542408088653E-1   -1.793489244671189E-3   -1.997260105380203E-3   -1.815665329440198E-3   -1.987992170895469E-3    3.650288112565149E-1   -3.336585560744581E-1
 9.937581961900000E9     4.657024798301230E-1   -1.246571419830864E-1   -1.809160541023118E-3   -2.037064212607977E-3   -1.841702647850430E-3   -2.023808922877069E-3    3.648021053261012E-1   -3.339670810956971E-1
 9.937583288950001E9     4.657243456643842E-1   -1.246580197241252E-1   -1.800958952842514E-3   -2.041959872819472E-3   -1.894396708795425E-3   -2.025527681675047E-3    3.644722075720271E-1   -3.339806493781094E-1
 9.937584616000000E9     4.656517634278006E-1   -1.249107677215310E-1   -1.853674072798246E-3   -2.044626912888125E-3   -1.872122776142376E-3   -2.037604362909508E-3    3.644669234200305E-1   -3.342226007959420E-1
 9.937585943049999E9     4.656110804102724E-1   -1.249535019659881E-1   -1.850390430882919E-3   -2.072081754317968E-3   -1.915816699449111E-3   -2.081139971060751E-3    3.641730027455755E-1   -3.343137334600598E-1
 9.937587270100000E9     4.655673199411742E-1   -1.249715168004707E-1   -1.851024666728294E-3   -2.063313893512504E-3   -1.938142482245257E-3   -2.088662718898327E-3    3.639174097161590E-1   -3.343956997618852E-1
 9.937588597150000E9     4.656641979553395E-1   -1.250675701629906E-1   -1.892553674570332E-3   -2.081076893396940E-3   -1.963033391399091E-3   -2.111663786018095E-3    3.636316654213058E-1   -3.349179223475489E-1
 9.937589924200001E9     4.655823473747354E-1   -1.251702820510334E-1   -1.911271077116708E-3   -2.118370107731095E-3   -1.978300292866270E-3   -2.130013752412304E-3    3.633770249794988E-1   -3.349534118537022E-1
 9.937591251250000E9     4.655337032375095E-1   -1.251743299712443E-1   -1.945605277820729E-3   -2.139938405438408E-3   -1.996849732935886E-3   -2.155405061261186E-3    3.629852747396438E-1   -3.351358337399248E-1
 9.937592578299999E9     4.655140257225333E-1   -1.253940761511960E-1   -1.954459145960655E-3   -2.156294032131207E-3   -2.018352264558432E-3   -2.166262368979543E-3    3.629146589150823E-1   -3.354345385145437E-1
 9.937593905350000E9     4.654716729457528E-1   -1.254596188296227E-1   -1.968259213057592E-3   -2.164228716554424E-3   -2.029643576760861E-3   -2.151506656177556E-3    3.627433837775887E-1   -3.355571075524915E-1
 9.937595232400000E9     4.654553835853477E-1   -1.254837956769809E-1   -2.043027851360501E-3   -2.193042859117308E-3   -2.071839901195151E-3   -2.148347793706237E-3    3.623321715125985E-1   -3.356391991367943E-1
 9.937596559450001E9     4.654051989329412E-1   -1.256177676131307E-1   -1.989592456805207E-3   -2.220099261877656E-3   -2.066826759563118E-3   -2.202563387842310E-3    3.621032141959173E-1   -3.358565646600166E-1
 9.937597886500000E9     4.654350872847449E-1   -1.258721119333891E-1   -2.045333451459321E-3   -2.204451762163760E-3   -2.082989185642185E-3   -2.221847730246893E-3    3.618855932290845E-1   -3.359816838126026E-1
 9.937599213549999E9     4.653814347732569E-1   -1.257516185314249E-1   -2.041235513033922E-3   -2.240494833792432E-3   -2.099989806441673E-3   -2.242887221729780E-3    3.618039589945058E-1   -3.363011966365685E-1
 9.937600540600000E9     4.652078146642689E-1   -1.258943540978427E-1   -2.089276428170927E-3   -2.278694863464473E-3   -2.155820820196838E-3   -2.279661639701895E-3    3.613124279612250E-1   -3.363396956646055E-1
 9.937601867650000E9     4.653043650572487E-1   -1.260504406579116E-1   -2.122817619873014E-3   -2.299533286578060E-3   -2.173824101648958E-3   -2.305039636751806E-3    3.612475521962982E-1   -3.365263570764271E-1
 9.937603194700001E9     4.652452086709821E-1   -1.260528022364358E-1   -2.097598885830288E-3   -2.290919458525589E-3   -2.158345934203173E-3   -2.265916992952957E-3    3.608550961881548E-1   -3.369001318840271E-1
 9.937604521750000E9     4.652163206788500E-1   -1.261739996619098E-1   -2.164098325554963E-3   -2.327611820901421E-3   -2.237190432873784E-3   -2.337981944728692E-3    3.606427659759986E-1   -3.369320372318214E-1
 9.937605848799999E9     4.652055542483912E-1   -1.263052567569795E-1   -2.179236069511084E-3   -2.347602053027970E-3   -2.217872122805384E-3   -2.356405091500759E-3    3.603434036885395E-1   -3.372564751144816E-1
 9.937607175850000E9     4.650390184108229E-1   -1.264857133021047E-1   -2.189180219004448E-3   -2.367763476879704E-3   -2.266928271504158E-3   -2.383999322150221E-3    3.600594106417077E-1   -3.374107790544025E-1
 9.937608502900000E9     4.651308814620892E-1   -1.265462732702408E-1   -2.195149023003634E-3   -2.392888471347995E-3   -2.266435570421493E-3   -2.367926832775047E-3    3.596784451282457E-1   -3.374376897620820E-1
 9.937609829950001E9     4.650591736916027E-1   -1.265600567321632E-1   -2.208669684193046E-3   -2.381800725435052E-3   -2.264878539235347E-3   -2.413643676518085E-3    3.596619152215049E-1   -3.378300553836536E-1
 9.937611157000000E9     4.651517481638854E-1   -1.266158332413066E-1   -2.269729859784098E-3   -2.455949583630853E-3   -2.333051934286603E-3   -2.442751178021464E-3    3.590191518150792E-1   -3.379799697353512E-1
 9.937612484049999E9     4.650504458387104E-1   -1.266980911167948E-1   -2.303531135523856E-3   -2.434836557820743E-3   -2.351005377810960E-3   -2.441497956626961E-3    3.590912188827343E-1   -3.383243005633136E-1
 9.937613811100000E9     4.650163950969466E-1   -1.267656521867694E-1   -2.301018224788757E-3   -2.479410036149807E-3   -2.402788119948772E-3   -2.451478047157379E-3    3.586524660215563E-1   -3.385352145827689E-1
 9.937615138150000E9     4.649908841059272E-1   -1.268502375926021E-1   -2.322524555847481E-3   -2.490932092609530E-3   -2.387358189262565E-3   -2.483953228384768E-3    3.582797229998291E-1   -3.385215388334735E-1
 9.937616465200001E9     4.647585237053303E-1   -1.269769630753396E-1   -2.345349757558987E-3   -2.518677061720749E-3   -2.420952658734207E-3   -2.511288372913424E-3    3.582209700294972E-1   -3.388485371924751E-1
 9.937617792250000E9     4.647521498325571E-1   -1.271667851593028E-1   -2.385765674758893E-3   -2.541533862642417E-3   -2.441225774693915E-3   -2.543246991818132E-3    3.576763137281325E-1   -3.388942104387488E-1
 9.937619119299999E9     4.648567273844113E-1   -1.272152856874541E-1   -2.396713530175376E-3   -2.549503992036773E-3   -2.513372715968825E-3   -2.548082054083856E-3    3.572889190263057E-1   -3.391874074331597E-1
 9.937620446350000E9     4.647086669109549E-1   -1.272919328859890E-1   -2.404480221007730E-3   -2.569168421564064E-3   -2.498551917874975E-3   -2.568578188517310E-3    3.572077457324876E-1   -3.393796838064538E-1
 9.937621773400000E9     4.648328746817426E-1   -1.273193017059098E-1   -2.434105499576895E-3   -2.580869074445675E-3   -2.551775424492882E-3   -2.626204904787443E-3    3.570641465179601E-1   -3.397325806097346E-1
 9.937623100450001E9     4.648330025583602E-1   -1.274631757340770E-1   -2.459299027664291E-3   -2.589735315066934E-3   -2.569110186169901E-3   -2.618159914406270E-3    3.567744870165324E-1   -3.398906149472175E-1
 9.937624427500000E9     4.646875132821346E-1   -1.275582137969372E-1   -2.535933481311140E-3   -2.656317683657917E-3   -2.626056547857668E-3   -2.626852331240369E-3    3.560105211402758E-1   -3.400642239598243E-1
 9.937625754549999E9     4.646233617575532E-1   -1.277516046308523E-1   -2.565410908513113E-3   -2.677295373691920E-3   -2.617134780590782E-3   -2.634696582789297E-3    3.561467298448855E-1   -3.401656951393709E-1
 9.937627081600000E9     4.646404377119424E-1   -1.277667372706085E-1   -2.590007178713629E-3   -2.677603665242123E-3   -2.637817853420470E-3   -2.688877652417766E-3    3.554879013904180E-1   -3.403954673562296E-1
 9.937628408650000E9     4.646602423768126E-1   -1.278479781420855E-1   -2.614537624417212E-3   -2.703594515577568E-3   -2.703254075987262E-3   -2.721544928223222E-3    3.551981301009220E-1   -3.405881477957651E-1
 9.937629735700001E9     4.644646237406299E-1   -1.279625262499092E-1   -2.644305037159176E-3   -2.719740314793544E-3   -2.698013648740662E-3   -2.719628447640536E-3    3.550620763770488E-1   -3.408054583376869E-1
 9.937631062750000E9     4.644743522309910E-1   -1.280757340000977E-1   -2.641114002704213E-3   -2.768467878350149E-3   -2.732174651560140E-3   -2.775882257544434E-3    3.546014113306662E-1   -3.409862994710333E-1
 9.937632389799999E9     4.644565235739349E-1   -1.281426819659646E-1   -2.681294935684109E-3   -2.780595241727070E-3   -2.789716872011992E-3   -2.786789292845608E-3    3.541952744293816E-1   -3.414056052390237E-1
 9.937633716850000E9     4.645082302985561E-1   -1.281119544456786E-1   -2.725075068466270E-3   -2.831463606496296E-3   -2.818923812555455E-3   -2.811797806013855E-3    3.539785579370164E-1   -3.414970053404588E-1
 9.937635043900000E9     4.643599893434199E-1   -1.284141623345732E-1   -2.750332407243868E-3   -2.800819702179901E-3   -2.837301457304673E-3   -2.834931515202673E-3    3.535729741663429E-1   -3.417077974296961E-1
 9.937636370950001E9     4.645173219001779E-1   -1.282635690818079E-1   -2.766522845418950E-3   -2.863456616404038E-3   -2.887052397335217E-3   -2.846214992301604E-3    3.533757779421967E-1   -3.419238715501071E-1
 9.937637698000000E9     4.644534721215532E-1   -1.284027308609800E-1   -2.781753560999997E-3   -2.879413370079296E-3   -2.887219704632417E-3   -2.904777782168673E-3    3.528224544997069E-1   -3.423570431229903E-1
 9.937639025049999E9     4.643135787749413E-1   -1.285401667139996E-1   -2.826872206888813E-3   -2.908331749138510E-3   -2.928280895238743E-3   -2.900028585295554E-3    3.526339855009614E-1   -3.424503675532466E-1
 9.937640352100000E9     4.643787098278266E-1   -1.285476725803193E-1   -2.896504505086345E-3   -2.942087386504627E-3   -2.993623124244626E-3   -2.948930132018940E-3    3.521494426501888E-1   -3.428555715314127E-1
 9.937641679150000E9     4.641207741037856E-1   -1.287377075806805E-1   -2.914448986966392E-3   -2.974039769961904E-3   -3.015097931964281E-3   -2.963745973169676E-3    3.518678851460295E-1   -3.429846908968443E-1
 9.937643006200001E9     4.642440542365933E-1   -1.289301633117048E-1   -2.936199375762113E-3   -2.982114665314160E-3   -3.050826025746959E-3   -3.000783971002788E-3    3.513700019683265E-1   -3.430999769672092E-1
 9.937644333250000E9     4.640718855614190E-1   -1.288967103360398E-1   -3.000502415478546E-3   -3.034943806001365E-3   -3.044015461417221E-3   -2.996507947303403E-3    3.511014877883362E-1   -3.434012172573848E-1
 9.937645660299999E9     4.641536457528720E-1   -1.290463540129807E-1   -3.022920233553971E-3   -3.038666516761403E-3   -3.105282021790970E-3   -3.061566995742027E-3    3.507417335020805E-1   -3.435662593427726E-1
 9.937646987350000E9     4.641586428284315E-1   -1.290813991219290E-1   -3.032597083662181E-3   -3.088473600445974E-3   -3.124690765845083E-3   -3.074836033277900E-3    3.503065569372816E-1   -3.439221086054189E-1
 9.937648314400000E9     4.639744365955221E-1   -1.292481393742000E-1   -3.092726218223890E-3   -3.100805121678402E-3   -3.194003038761680E-3   -3.100676976137928E-3    3.498125760436730E-1   -3.441401686118681E-1
 9.937649641450001E9     4.640800035289170E-1   -1.293277701116137E-1   -3.104486738090708E-3   -3.126280775022786E-3   -3.243049476845063E-3   -3.148223221779535E-3    3.496384606300727E-1   -3.444319062340713E-1
 9.937650968500000E9     4.641214504437494E-1   -1.293623002367395E-1   -3.176602712817351E-3   -3.168625804865533E-3   -3.258696685741178E-3   -3.176130542260724E-3    3.490661170053078E-1   -3.445195231611684E-1
 9.937652295549999E9     4.639985387167954E-1   -1.295243392362556E-1   -3.193372447046495E-3   -3.190755383571472E-3   -3.294860343770683E-3   -3.210956080507743E-3    3.486099720617230E-1   -3.446682787857621E-1
 9.937653622600000E9     4.639427943285775E-1   -1.295762807457341E-1   -3.236961963939492E-3   -3.210683042380777E-3   -3.360819243302930E-3   -3.215770696064899E-3    3.483179402547836E-1   -3.451075225902708E-1
 9.937654949650000E9     4.640255075706243E-1   -1.295794186579481E-1   -3.282681261915069E-3   -3.260157333125309E-3   -3.381538947980582E-3   -3.262727368600740E-3    3.478935843048773E-1   -3.454002449686378E-1
 9.937656276700001E9     4.640208639035275E-1   -1.298016170813455E-1   -3.309054690500087E-3   -3.253118340647056E-3   -3.418442289641392E-3   -3.292639534794206E-3    3.473613194026261E-1   -3.455370972347253E-1
 9.937657603750000E9     4.639315753428113E-1   -1.297802519480761E-1   -3.369261589923375E-3   -3.298245007120106E-3   -3.508364249854907E-3   -3.297028988809543E-3    3.471423531140526E-1   -3.457797227898954E-1
 9.937658930799999E9     4.638969323072516E-1   -1.298943199558690E-1   -3.391978760046643E-3   -3.320004168912954E-3   -3.523049609434285E-3   -3.320694862376734E-3    3.463540127335823E-1   -3.461442091835148E-1
 9.937660257850000E9     4.637549999621873E-1   -1.299856380728945E-1   -3.454723303908318E-3   -3.368040463838222E-3   -3.544966550710502E-3   -3.393013810640678E-3    3.461059558381492E-1   -3.463113297328171E-1
 9.937661584900000E9     4.638491636448905E-1   -1.300385863206917E-1   -3.535899056221875E-3   -3.393934774784476E-3   -3.581031176791942E-3   -3.409850764590665E-3    3.456644360016194E-1   -3.466712569201545E-1
 9.937662911950001E9     4.636797431938691E-1   -1.302442750098094E-1   -3.527580060464692E-3   -3.451240733563585E-3   -3.663182743223931E-3   -3.436724035285616E-3    3.452166364424635E-1   -3.469994160350364E-1
 9.937664239000000E9     4.636996662794403E-1   -1.302183518407342E-1   -3.571063080923602E-3   -3.448695815801490E-3   -3.697197586372213E-3   -3.485750189522550E-3    3.446658600205187E-1   -3.471663455559392E-1
 9.937665566049999E9     4.635895512839280E-1   -1.303619513089478E-1   -3.607294480032587E-3   -3.503308108685988E-3   -3.720374246368563E-3   -3.495847802688169E-3    3.441564501122192E-1   -3.474581296576349E-1
 9.937666893100000E9     4.636169628523453E-1   -1.303991872865899E-1   -3.671718541333956E-3   -3.511923207527819E-3   -3.797798024462037E-3   -3.532123974360308E-3    3.435863788856065E-1   -3.478744174196423E-1
 9.937668220150000E9     4.635117238265163E-1   -1.305137822846271E-1   -3.740628188636900E-3   -3.586642876949721E-3   -3.847368516956045E-3   -3.584161671789589E-3    3.433473583619530E-1   -3.479918780691219E-1
 9.937669547200001E9     4.636698651070090E-1   -1.307491195291489E-1   -3.755980665558638E-3   -3.584503986957079E-3   -3.900736090222874E-3   -3.600427572327993E-3    3.427675569193062E-1   -3.482279805928198E-1
 9.937670874250000E9     4.635955413742971E-1   -1.307002089789587E-1   -3.805236958455781E-3   -3.655867806975958E-3   -3.945341415000962E-3   -3.658517051221196E-3    3.422264588284959E-1   -3.486094337983864E-1
 9.937672201299999E9     4.633321731428354E-1   -1.308124197529498E-1   -3.847370070751174E-3   -3.675960952768638E-3   -3.985240048049158E-3   -3.668124648906364E-3    3.417578143940678E-1   -3.487461937558675E-1
 9.937673528350000E9     4.633791163998471E-1   -1.309870525382712E-1   -3.915048424408172E-3   -3.700576529376593E-3   -4.020803788194372E-3   -3.706568239286568E-3    3.411708815242705E-1   -3.492654121843654E-1
 9.937674855400000E9     4.633532502043872E-1   -1.309256006755027E-1   -3.992970938617526E-3   -3.757334768336938E-3   -4.101689163788325E-3   -3.757660704014538E-3    3.405003653294897E-1   -3.492479509968182E-1
 9.937676182450001E9     4.634648672062783E-1   -1.310671040143513E-1   -4.054371661552698E-3   -3.755420272575669E-3   -4.178751741647004E-3   -3.792978341488934E-3    3.402777759958269E-1   -3.498037528292746E-1
 9.937677509500000E9     4.633236731229154E-1   -1.312636768017855E-1   -4.072515700180134E-3   -3.831078395502565E-3   -4.215764739583676E-3   -3.812351780596540E-3    3.394303336915728E-1   -3.498097431355465E-1
