#  HZ   S   RI   R     50.00 
! Rohde & Schwarz Vector Network Analyzer 
! Rohde-Schwarz,ZNB20-2Port,1311601062101988,3.16
! Created: UTC 3/20/2024, 10:55:42 PM
! freq[Hz]                re:S11                  im:S11                  re:S21                  im:S21                  re:S12                  im:S12                  re:S22                  im:S22
 9.937556909000000E9     4.664506333597852E-1   -1.229584154040525E-1   -1.521934432808055E-3   -1.743826703652038E-3   -1.603706556628266E-3   -1.745104832201865E-3    3.687121131388964E-1   -3.307980568635262E-1
 9.937558233875000E9     4.662159055149998E-1   -1.229755293093152E-1   -1.525388409822917E-3   -1.745176900442901E-3   -1.571191127221780E-3   -1.787339649582115E-3    3.683475197971545E-1   -3.310500912619873E-1
 9.937559558750000E9     4.662110038592829E-1   -1.231216722176449E-1   -1.547097060481997E-3   -1.788112218501671E-3   -1.578059012241351E-3   -1.772072641440730E-3    3.683025840179341E-1   -3.311476666625311E-1
 9.937560883625000E9     4.661013826061643E-1   -1.232921341362369E-1   -1.574236464405661E-3   -1.758391195072079E-3   -1.610590919970406E-3   -1.772245601836953E-3    3.681000232139742E-1   -3.313686235387052E-1
 9.937562208500000E9     4.659912166802814E-1   -1.232142633071970E-1   -1.551711953693811E-3   -1.814116057858150E-3   -1.655908737909982E-3   -1.784867311521151E-3    3.678534504131024E-1   -3.315923349261319E-1
 9.937563533375000E9     4.662073215869505E-1   -1.233985870825643E-1   -1.585469757651585E-3   -1.832392694517044E-3   -1.610594289086287E-3   -1.812707368501852E-3    3.676793470968193E-1   -3.317269019496147E-1
 9.937564858250000E9     4.662010110322991E-1   -1.236463147974780E-1   -1.601134654785635E-3   -1.836988252002347E-3   -1.667484594736935E-3   -1.814873340465602E-3    3.674346223234845E-1   -3.318943081009817E-1
 9.937566183125000E9     4.660505113501778E-1   -1.236055464598854E-1   -1.647945784427486E-3   -1.864660633957049E-3   -1.658576545478800E-3   -1.805851738478508E-3    3.672650482159768E-1   -3.319478441206409E-1
 9.937567508000000E9     4.660539006549317E-1   -1.237442511034760E-1   -1.613746385301132E-3   -1.877511022200541E-3   -1.707551487929452E-3   -1.873867202763151E-3    3.671498938414643E-1   -3.323122679177291E-1
 9.937568832875000E9     4.659638441856487E-1   -1.237959530090969E-1   -1.630733531812699E-3   -1.876852790482316E-3   -1.705924753050042E-3   -1.892690344218740E-3    3.667083505093537E-1   -3.325014851256857E-1
 9.937570157750000E9     4.657676146848427E-1   -1.239090833378957E-1   -1.702209245336471E-3   -1.880600730030813E-3   -1.711066419683955E-3   -1.897839657714275E-3    3.664007777468105E-1   -3.326198780286974E-1
 9.937571482625000E9     4.659502942681705E-1   -1.239941831891436E-1   -1.650469069095480E-3   -1.906700118418665E-3   -1.737660996789976E-3   -1.942859770792840E-3    3.663406730501715E-1   -3.327352844870953E-1
 9.937572807500000E9     4.659226191860357E-1   -1.241227422545613E-1   -1.711818255654094E-3   -1.932793635452135E-3   -1.735679582497496E-3   -1.918686903651826E-3    3.661604160152044E-1   -3.327200106832408E-1
 9.937574132375000E9     4.659442079839017E-1   -1.240158833396416E-1   -1.731205146710010E-3   -1.909412698969087E-3   -1.770770484007482E-3   -1.961689005362849E-3    3.659316592334201E-1   -3.331301818248589E-1
 9.937575457250000E9     4.659690095010123E-1   -1.242038367394496E-1   -1.736038026577925E-3   -1.912629729234868E-3   -1.809915231629883E-3   -1.953610371320042E-3    3.658348858900624E-1   -3.332320699903412E-1
 9.937576782125000E9     4.660732723504837E-1   -1.242281659986717E-1   -1.735918498358586E-3   -1.955627762829770E-3   -1.792129687128676E-3   -1.958096077246606E-3    3.655441075576804E-1   -3.332094902728086E-1
 9.937578107000000E9     4.658676406101819E-1   -1.244491248235433E-1   -1.775430142810263E-3   -1.975143601604102E-3   -1.850638648091476E-3   -1.996306785923847E-3    3.652456495149282E-1   -3.336007936278909E-1
 9.937579431875000E9     4.658807465485975E-1   -1.243680080941290E-1   -1.792589917614915E-3   -2.017753000672825E-3   -1.872737564361962E-3   -2.004156290774788E-3    3.651697237001904E-1   -3.336797025699245E-1
 9.937580756750000E9     4.657821120347904E-1   -1.245200415120349E-1   -1.785974389065942E-3   -1.986929203271590E-3   -1.864452387230330E-3   -2.027731719770629E-3    3.648674313374115E-1   -3.336753618166607E-1
 9.937582081625000E9     4.657801315515134E-1   -1.246601408290383E-1   -1.847849156775137E-3   -2.037740924903066E-3   -1.884764946631950E-3   -2.036054403578122E-3    3.645127478703046E-1   -3.339693376344286E-1
 9.937583406500000E9     4.656300323242660E-1   -1.248358124182141E-1   -1.833841607752433E-3   -2.080083817708621E-3   -1.841844478784491E-3   -2.071944743533181E-3    3.644058319773165E-1   -3.342422937197639E-1
 9.937584731375000E9     4.655793033369325E-1   -1.248738527214184E-1   -1.887914983537402E-3   -2.103185537634651E-3   -1.921357604638911E-3   -2.063315097922899E-3    3.640287552294608E-1   -3.344286439867579E-1
 9.937586056250000E9     4.655519317336204E-1   -1.249027332802870E-1   -1.860742369691657E-3   -2.082291831949504E-3   -1.915699987390628E-3   -2.103528777500987E-3    3.639841205265028E-1   -3.346708107155953E-1
 9.937587381125000E9     4.654981207238109E-1   -1.249059046851660E-1   -1.884748881039862E-3   -2.110742748207642E-3   -1.997269090938512E-3   -2.103341243050244E-3    3.635990719817976E-1   -3.347860947889359E-1
 9.937588706000000E9     4.655642672054784E-1   -1.250538542196894E-1   -1.891591950086746E-3   -2.107797493898555E-3   -1.967493380789167E-3   -2.118049834679283E-3    3.631679779124116E-1   -3.349439751414648E-1
 9.937590030875000E9     4.655891227653612E-1   -1.252626536851138E-1   -1.954296094096372E-3   -2.129529975804153E-3   -2.007378363963548E-3   -2.120714998399298E-3    3.632807417551127E-1   -3.353156823784184E-1
 9.937591355750000E9     4.654517213338066E-1   -1.253094909192353E-1   -1.970114483578267E-3   -2.148629957020693E-3   -2.019983527244446E-3   -2.113168486032914E-3    3.629534256037458E-1   -3.351052427450578E-1
 9.937592680625000E9     4.655072110805612E-1   -1.253924066778518E-1   -1.940411505147543E-3   -2.172631184108301E-3   -2.040532432636036E-3   -2.159792825428746E-3    3.626803845815023E-1   -3.355059453537317E-1
 9.937594005500000E9     4.654490465092514E-1   -1.255222401809438E-1   -1.989229853738982E-3   -2.195544549232525E-3   -2.077367016836383E-3   -2.193755741847654E-3    3.624687535751850E-1   -3.355363203540574E-1
 9.937595330375000E9     4.654357071041823E-1   -1.256014483114698E-1   -1.996532835473750E-3   -2.209557482173718E-3   -2.114506592028669E-3   -2.248053381289010E-3    3.620697153653246E-1   -3.359287310834812E-1
 9.937596655250000E9     4.654022300676215E-1   -1.257561198236994E-1   -2.024040226076702E-3   -2.205924474822032E-3   -2.102238427810204E-3   -2.230460479226596E-3    3.619258683309051E-1   -3.360226174780339E-1
 9.937597980125000E9     4.653900061204698E-1   -1.257207388085257E-1   -2.029274485173935E-3   -2.263563156244900E-3   -2.134726437185562E-3   -2.255150932501565E-3    3.616122991325272E-1   -3.362270511892153E-1
 9.937599305000000E9     4.654241027402891E-1   -1.257732723994001E-1   -2.070011597889628E-3   -2.252099899428425E-3   -2.176902669406100E-3   -2.234067339411140E-3    3.613216070520179E-1   -3.363818489074162E-1
 9.937600629875000E9     4.652804372564161E-1   -1.259500850226742E-1   -2.104601820887944E-3   -2.301059951294530E-3   -2.200963207194072E-3   -2.290094037983054E-3    3.611573489989674E-1   -3.367880464225695E-1
 9.937601954750000E9     4.652804217460935E-1   -1.259924388810904E-1   -2.119496385484157E-3   -2.312318507060801E-3   -2.190802729600426E-3   -2.313722294763199E-3    3.609402157297437E-1   -3.367673493620806E-1
 9.937603279625000E9     4.650372492393933E-1   -1.262519678804681E-1   -2.112844805643440E-3   -2.317432959136545E-3   -2.222114994798836E-3   -2.310310216383955E-3    3.606128130820483E-1   -3.368573599891973E-1
 9.937604604500000E9     4.651990729397021E-1   -1.262998744124746E-1   -2.157051216824023E-3   -2.327292186992516E-3   -2.244473648715902E-3   -2.347770851448455E-3    3.604157481570275E-1   -3.369601762038432E-1
 9.937605929375000E9     4.651921175558932E-1   -1.262842526313233E-1   -2.179777139280018E-3   -2.359072067688595E-3   -2.251082436641755E-3   -2.379427346501225E-3    3.602465313079132E-1   -3.372910726398790E-1
 9.937607254250000E9     4.652279014322993E-1   -1.263415536371927E-1   -2.188106040892931E-3   -2.397033219976846E-3   -2.250345426882103E-3   -2.383281504438416E-3    3.597498651234476E-1   -3.376569459273623E-1
 9.937608579125000E9     4.650694803555636E-1   -1.263787947210986E-1   -2.268846838689159E-3   -2.411208331871349E-3   -2.327673332254664E-3   -2.408508482570049E-3    3.595991116569330E-1   -3.375882187544811E-1
 9.937609904000000E9     4.649948016730392E-1   -1.265764908135460E-1   -2.278707992068164E-3   -2.441551676755193E-3   -2.316110432568670E-3   -2.416661992235500E-3    3.592031969672113E-1   -3.379631419298327E-1
 9.937611228875000E9     4.649603145930767E-1   -1.266598616930618E-1   -2.293172594968759E-3   -2.440669417363700E-3   -2.350957412717471E-3   -2.430406857936162E-3    3.587785397318007E-1   -3.382110476959299E-1
 9.937612553750000E9     4.651095084373852E-1   -1.269160579342884E-1   -2.307515731316130E-3   -2.482023690719850E-3   -2.369506859110223E-3   -2.468725051596671E-3    3.586083737033355E-1   -3.384421712330050E-1
 9.937613878625000E9     4.649112941116840E-1   -1.268094714941968E-1   -2.338271868870243E-3   -2.469767423859035E-3   -2.402087819615322E-3   -2.519783227634252E-3    3.585105868703481E-1   -3.385118179097195E-1
 9.937615203500000E9     4.647984835072512E-1   -1.269005236942024E-1   -2.353823601553189E-3   -2.501605371356761E-3   -2.476832854524798E-3   -2.509195798143402E-3    3.581476768055085E-1   -3.386396820422343E-1
 9.937616528375000E9     4.649060122413225E-1   -1.270350300397591E-1   -2.401398677519584E-3   -2.558446758182360E-3   -2.468773461515909E-3   -2.534362250690632E-3    3.579306061892455E-1   -3.388408192743127E-1
 9.937617853250000E9     4.649212356127623E-1   -1.271750204415646E-1   -2.408892725447699E-3   -2.574700870897369E-3   -2.513562461799093E-3   -2.547079485619722E-3    3.575992261521318E-1   -3.391058329483750E-1
 9.937619178125000E9     4.647382013946255E-1   -1.272199162701870E-1   -2.439109136939803E-3   -2.581267768628126E-3   -2.517514121950205E-3   -2.565519544611521E-3    3.572484699274818E-1   -3.394104776819838E-1
 9.937620503000000E9     4.648380255446832E-1   -1.274126539860023E-1   -2.411996900936465E-3   -2.584365677535884E-3   -2.554786568366456E-3   -2.591578131158784E-3    3.568265806128570E-1   -3.396663618496636E-1
 9.937621827875000E9     4.648319507098029E-1   -1.274474775364334E-1   -2.497714935734487E-3   -2.601753646755268E-3   -2.580206365417189E-3   -2.638386264605544E-3    3.565276104944971E-1   -3.396433625604838E-1
 9.937623152750000E9     4.646534215369511E-1   -1.275554593793978E-1   -2.511726099736995E-3   -2.647348688346168E-3   -2.593699253526894E-3   -2.632263799074695E-3    3.563068262387196E-1   -3.401285172893056E-1
 9.937624477625000E9     4.647198317889253E-1   -1.275967640539299E-1   -2.534651902779727E-3   -2.641363706809866E-3   -2.659531324865615E-3   -2.663513852753139E-3    3.556677551560841E-1   -3.403753148882544E-1
 9.937625802500000E9     4.646792467070253E-1   -1.277422526055269E-1   -2.547955754892300E-3   -2.657117850971551E-3   -2.661672754504377E-3   -2.727926057452180E-3    3.556566435960058E-1   -3.404461631704717E-1
 9.937627127375000E9     4.647272340201081E-1   -1.277824195714872E-1   -2.569955621114904E-3   -2.684693280174982E-3   -2.699365917346156E-3   -2.716017774745940E-3    3.553067236083826E-1   -3.406339740746053E-1
 9.937628452250000E9     4.645453244332405E-1   -1.278597142057399E-1   -2.639227635715078E-3   -2.740960158659350E-3   -2.704147401596589E-3   -2.764759695823561E-3    3.549673455104974E-1   -3.408718966086096E-1
 9.937629777125000E9     4.646413521572204E-1   -1.280354696185826E-1   -2.663336824311953E-3   -2.778241743656077E-3   -2.728755815264490E-3   -2.791286237785129E-3    3.547180143146313E-1   -3.412442769558346E-1
 9.937631102000000E9     4.645958798607168E-1   -1.280970624573399E-1   -2.708093242315591E-3   -2.781676217579691E-3   -2.775477809256284E-3   -2.792231330173987E-3    3.543578620449701E-1   -3.411449942977894E-1
 9.937632426875000E9     4.645771289818420E-1   -1.281719605949977E-1   -2.729296873264219E-3   -2.811538362611368E-3   -2.840564455012910E-3   -2.822576035499540E-3    3.539610630138719E-1   -3.414239022613352E-1
 9.937633751750000E9     4.644805140690794E-1   -1.282190805817326E-1   -2.711905050662051E-3   -2.839920383670567E-3   -2.863001246170985E-3   -2.828960695468041E-3    3.537075681388919E-1   -3.416588720466999E-1
 9.937635076625000E9     4.644131036394614E-1   -1.282764611746057E-1   -2.777904814178488E-3   -2.852753731444479E-3   -2.868935123042679E-3   -2.861884048385352E-3    3.532476485602323E-1   -3.419189526689448E-1
 9.937636401500000E9     4.644111355159694E-1   -1.283311899730539E-1   -2.797208195144566E-3   -2.890953223432033E-3   -2.918000922824758E-3   -2.883400700672482E-3    3.528334590853460E-1   -3.421759609207571E-1
 9.937637726375000E9     4.643792763517449E-1   -1.284777224319562E-1   -2.821239616498633E-3   -2.863839426470214E-3   -2.939453966084497E-3   -2.922603859381158E-3    3.525569019854551E-1   -3.424591634283349E-1
 9.937639051250000E9     4.642952352449558E-1   -1.286402001730353E-1   -2.884124132289241E-3   -2.917856865097796E-3   -2.972751390500299E-3   -2.951585563948838E-3    3.522232745624452E-1   -3.427672931390712E-1
 9.937640376125000E9     4.642492088029579E-1   -1.287121340023316E-1   -2.865572354861059E-3   -2.959598154604573E-3   -2.995560775208953E-3   -2.947319723826893E-3    3.518940274516689E-1   -3.430676815580695E-1
 9.937641701000000E9     4.643556226527663E-1   -1.287671966838883E-1   -2.955633457014988E-3   -2.990151753971189E-3   -3.053095472571884E-3   -3.000081211913999E-3    3.513511946492564E-1   -3.431040148896760E-1
 9.937643025875000E9     4.641515662506971E-1   -1.288603402174278E-1   -2.995474486894941E-3   -2.996329120741304E-3   -3.049899966900354E-3   -3.021047170018699E-3    3.511061303612242E-1   -3.434270913839038E-1
 9.937644350750000E9     4.642246401318354E-1   -1.288683881132914E-1   -3.021628703106374E-3   -3.038623609955202E-3   -3.114784872390585E-3   -3.049831788556062E-3    3.506572535619583E-1   -3.436577429705380E-1
 9.937645675625000E9     4.641130308990308E-1   -1.289449051322621E-1   -3.059741084049751E-3   -3.039318490425119E-3   -3.136189431758405E-3   -3.067868937851779E-3    3.503529308420859E-1   -3.438431722048405E-1
 9.937647000500000E9     4.641578463201922E-1   -1.290938213641384E-1   -3.052793071900248E-3   -3.110898924889150E-3   -3.198837636422037E-3   -3.103154143571998E-3    3.498457701946739E-1   -3.440614325735164E-1
 9.937648325375000E9     4.641225535346569E-1   -1.292000230801247E-1   -3.129530428674999E-3   -3.142815821638671E-3   -3.223883390900354E-3   -3.142046870298864E-3    3.496299715331155E-1   -3.442131004026255E-1
 9.937649650250000E9     4.641189661522035E-1   -1.292690917326381E-1   -3.181219389724814E-3   -3.143883210593836E-3   -3.297875847093587E-3   -3.159788082022422E-3    3.492582507322184E-1   -3.444859675336596E-1
 9.937650975125000E9     4.640612346146384E-1   -1.294049636192949E-1   -3.190572484467511E-3   -3.189088182826455E-3   -3.306113555380053E-3   -3.183015966117208E-3    3.486838756451381E-1   -3.449146965047132E-1
 9.937652300000000E9     4.640500522940935E-1   -1.296265147510711E-1   -3.235277722301612E-3   -3.219074933774698E-3   -3.369473979828112E-3   -3.210188410360095E-3    3.481484492770183E-1   -3.452556031175367E-1
 9.937653624875000E9     4.640300755074800E-1   -1.295833942624831E-1   -3.282146192867084E-3   -3.236084838530872E-3   -3.395697877629519E-3   -3.249503544363495E-3    3.479954867393528E-1   -3.452852433998710E-1
 9.937654949750000E9     4.639891782871222E-1   -1.297195099719172E-1   -3.320307059922184E-3   -3.241961855627352E-3   -3.446399222245857E-3   -3.289592835302742E-3    3.476775726693226E-1   -3.454352553497796E-1
 9.937656274625000E9     4.639614555101421E-1   -1.297745074223260E-1   -3.357727977387132E-3   -3.272541536488312E-3   -3.485781191400827E-3   -3.300198066571552E-3    3.470147023213283E-1   -3.457947870742761E-1
 9.937657599500000E9     4.638888707303555E-1   -1.299443713429689E-1   -3.402925628668806E-3   -3.302105393350783E-3   -3.517159908013249E-3   -3.332599188705264E-3    3.466380023844970E-1   -3.461097727722844E-1
 9.937658924375000E9     4.636876154442718E-1   -1.300620655816807E-1   -3.410783194903759E-3   -3.370710700396906E-3   -3.568322105916094E-3   -3.388011361437292E-3    3.459324906296031E-1   -3.464194307842277E-1
 9.937660249250000E9     4.638501564994301E-1   -1.299921889872548E-1   -3.465521633271664E-3   -3.431684585211380E-3   -3.617006281772708E-3   -3.385160776066653E-3    3.455145124066164E-1   -3.465662149712183E-1
 9.937661574125000E9     4.636979466116075E-1   -1.302151353714570E-1   -3.532045776247729E-3   -3.426749517889818E-3   -3.667635595431926E-3   -3.417756344458854E-3    3.452670009617472E-1   -3.468056605565967E-1
 9.937662899000000E9     4.637093817839419E-1   -1.303117803032055E-1   -3.570636557257507E-3   -3.465772281279189E-3   -3.678666370423037E-3   -3.482468301367950E-3    3.445338340251306E-1   -3.470618411559696E-1
 9.937664223875000E9     4.638520859723341E-1   -1.303903076695466E-1   -3.613149765767378E-3   -3.488608666017180E-3   -3.759226459048600E-3   -3.510776302978295E-3    3.442376266645337E-1   -3.473856061750142E-1
 9.937665548750000E9     4.636404746010467E-1   -1.304396909895999E-1   -3.680836416557711E-3   -3.549061122028142E-3   -3.781448899931885E-3   -3.518662082542084E-3    3.437824587151020E-1   -3.474619426967442E-1
 9.937666873625000E9     4.635991771729144E-1   -1.305109785603443E-1   -3.694901256068116E-3   -3.603802999998212E-3   -3.853634115220337E-3   -3.534298990257149E-3    3.432344824316499E-1   -3.478189156324007E-1
 9.937668198500000E9     4.636424925490722E-1   -1.307109951041878E-1   -3.773588800716748E-3   -3.628838013826997E-3   -3.894472954440960E-3   -3.584096909817806E-3    3.427682956985489E-1   -3.481408380844621E-1
 9.937669523375000E9     4.635841118968718E-1   -1.306908483450011E-1   -3.791001120675077E-3   -3.613322541114801E-3   -3.945103264189142E-3   -3.615473045984201E-3    3.420907185952085E-1   -3.483818710199187E-1
 9.937670848250000E9     4.634770610459905E-1   -1.306747181315023E-1   -3.822482085821742E-3   -3.655061447835787E-3   -3.967753577333193E-3   -3.684254573746238E-3    3.417081766018140E-1   -3.487197540579310E-1
 9.937672173125000E9     4.634541037151363E-1   -1.309816030210303E-1   -3.895712624691513E-3   -3.702012059776955E-3   -4.009316591663889E-3   -3.695547151201175E-3    3.411193331162483E-1   -3.491079083485278E-1
 9.937673498000000E9     4.634208104802107E-1   -1.310472863687768E-1   -3.983565101067891E-3   -3.737535957468746E-3   -4.114889207101375E-3   -3.736882990553555E-3    3.407116453235723E-1   -3.492701775500346E-1
 9.937674822875000E9     4.633432846095722E-1   -1.311585178818604E-1   -4.010884001459848E-3   -3.761200977796063E-3   -4.155288478891413E-3   -3.753546007014459E-3    3.399194293384116E-1   -3.494698718161260E-1
 9.937676147750000E9     4.634252794576870E-1   -1.310817179071797E-1   -4.084974500947398E-3   -3.801480090789310E-3   -4.237835092388822E-3   -3.833936012954730E-3    3.395350179413495E-1   -3.496560911392730E-1
