#  HZ   S   RI   R     50.00 
! Rohde & Schwarz Vector Network Analyzer 
! Rohde-Schwarz,ZNB20-2Port,1311601062101988,3.16
! Created: UTC 3/20/2024, 10:55:54 PM
! freq[Hz]                re:S11                  im:S11                  re:S21                  im:S21                  re:S12                  im:S12                  re:S22                  im:S22
 9.937541723000000E9     4.667999395075417E-1   -1.220642502025754E-1   -1.460438393147113E-3   -1.647389139399107E-3   -1.482736258558235E-3   -1.623857476757239E-3    3.701252211860905E-1   -3.294019069555587E-1
 9.937543091549999E9     4.666725035743676E-1   -1.220355544810520E-1   -1.450596497979620E-3   -1.645553391893658E-3   -1.498942931224761E-3   -1.644466781299504E-3    3.699520641339290E-1   -3.295670259570619E-1
 9.937544460100000E9     4.666004884708891E-1   -1.221547948504439E-1   -1.464105986447089E-3   -1.694496163955652E-3   -1.487262164181822E-3   -1.643573317190382E-3    3.699167153663285E-1   -3.299576455502122E-1
 9.937545828650000E9     4.664911352664924E-1   -1.222189798436010E-1   -1.469616552394378E-3   -1.690703722396134E-3   -1.507096888760621E-3   -1.718522833211749E-3    3.695423129673728E-1   -3.301524928344337E-1
 9.937547197200001E9     4.664623353926025E-1   -1.223083797396722E-1   -1.500575506733151E-3   -1.717112625580071E-3   -1.524264227221288E-3   -1.724424757697376E-3    3.692222765471748E-1   -3.301751603053100E-1
 9.937548565750000E9     4.665558051796742E-1   -1.224187482626017E-1   -1.456966782684629E-3   -1.719063746675393E-3   -1.558478163768819E-3   -1.762695208215565E-3    3.692496364201606E-1   -3.302526334783014E-1
 9.937549934299999E9     4.665605811269466E-1   -1.225437759040367E-1   -1.510280793683708E-3   -1.747136146387935E-3   -1.540201224945459E-3   -1.742534661924331E-3    3.689703432070792E-1   -3.305549785989397E-1
 9.937551302850000E9     4.664679183785198E-1   -1.225667291702350E-1   -1.544590545061423E-3   -1.758630635370813E-3   -1.582913656562121E-3   -1.762223146877657E-3    3.687174314492120E-1   -3.305831224398767E-1
 9.937552671400000E9     4.664769256468440E-1   -1.226669511066098E-1   -1.554389030500580E-3   -1.771525305973895E-3   -1.590940437097434E-3   -1.776800145115658E-3    3.684044731669809E-1   -3.306861078084327E-1
 9.937554039950001E9     4.662601486941163E-1   -1.228254053812476E-1   -1.555766958896746E-3   -1.754176817475510E-3   -1.623937605798455E-3   -1.794959726993280E-3    3.684382131550763E-1   -3.308188399979776E-1
 9.937555408500000E9     4.663117571203588E-1   -1.229499785590267E-1   -1.578704486560231E-3   -1.803248184889962E-3   -1.641574566894661E-3   -1.780374371793377E-3    3.681416182997026E-1   -3.310516934651753E-1
 9.937556777049999E9     4.664269964904632E-1   -1.229480912111348E-1   -1.588070021479761E-3   -1.837447586638242E-3   -1.647146293716603E-3   -1.792196893275587E-3    3.678544862252021E-1   -3.312614503078513E-1
 9.937558145600000E9     4.663298606755994E-1   -1.231256341899846E-1   -1.601825240133662E-3   -1.799458048185392E-3   -1.674328201381503E-3   -1.843167592204701E-3    3.677808924690084E-1   -3.314845802502207E-1
 9.937559514150000E9     4.661433311417300E-1   -1.233214788826060E-1   -1.635330051804586E-3   -1.822738835882972E-3   -1.676581634671451E-3   -1.826448102770181E-3    3.674664698859154E-1   -3.315857255803825E-1
 9.937560882700001E9     4.662342810518213E-1   -1.232583408720236E-1   -1.658522879945404E-3   -1.863925669570336E-3   -1.680769379821253E-3   -1.850906641312664E-3    3.673007089386470E-1   -3.317396539308711E-1
 9.937562251250000E9     4.661779038783214E-1   -1.232802091430864E-1   -1.655442738879640E-3   -1.910636133137203E-3   -1.710038419703779E-3   -1.854663891619352E-3    3.670306108028790E-1   -3.320258355971428E-1
 9.937563619799999E9     4.660588061193043E-1   -1.233900153953620E-1   -1.682039672875401E-3   -1.895596389866210E-3   -1.733922620736079E-3   -1.913911562374168E-3    3.668840052557974E-1   -3.321287388354984E-1
 9.937564988350000E9     4.660976828892890E-1   -1.236684692221362E-1   -1.697062432480887E-3   -1.895615948431686E-3   -1.769554415750959E-3   -1.889415085286381E-3    3.666089569587543E-1   -3.321752351511152E-1
 9.937566356900000E9     4.660284657795648E-1   -1.236869106290197E-1   -1.733235796884734E-3   -1.925299217334536E-3   -1.757429638112823E-3   -1.922065192641521E-3    3.665356028581110E-1   -3.324433964824549E-1
 9.937567725450001E9     4.659969215059762E-1   -1.237182898199260E-1   -1.744599758677250E-3   -1.946937585865656E-3   -1.773108329990642E-3   -1.940132882067591E-3    3.659486407341931E-1   -3.326165202479852E-1
 9.937569094000000E9     4.659357402635512E-1   -1.239231586352663E-1   -1.740523354815419E-3   -1.952415125173613E-3   -1.786508059509292E-3   -1.976770228235006E-3    3.658399564331966E-1   -3.329180939081440E-1
 9.937570462549999E9     4.659407762486594E-1   -1.238358878687620E-1   -1.749045881685761E-3   -1.975098424914226E-3   -1.817632105234205E-3   -1.977358775044229E-3    3.657098024018680E-1   -3.330955260025447E-1
 9.937571831100000E9     4.658980803735714E-1   -1.239861848720050E-1   -1.800321110268778E-3   -1.984315525942365E-3   -1.851481218285353E-3   -2.002044548984112E-3    3.654808627794074E-1   -3.330548159247652E-1
 9.937573199650000E9     4.659160740357023E-1   -1.240863377838984E-1   -1.814491509176920E-3   -1.954354664122086E-3   -1.843149806924209E-3   -2.023470294679917E-3    3.652539555534204E-1   -3.333885855684051E-1
 9.937574568200001E9     4.659362797114192E-1   -1.241589482550234E-1   -1.816774685963432E-3   -2.022655367613276E-3   -1.870574683121111E-3   -2.013263288029044E-3    3.649723731244630E-1   -3.335470272171377E-1
 9.937575936750000E9     4.659780381632233E-1   -1.242587992271708E-1   -1.827880552883105E-3   -2.033582831600658E-3   -1.907421187527246E-3   -2.033885996229256E-3    3.647035043463615E-1   -3.337123356835630E-1
 9.937577305299999E9     4.658715845682281E-1   -1.244431505010305E-1   -1.850926947695770E-3   -2.038572619688183E-3   -1.928271157498100E-3   -2.059730688621051E-3    3.645719188106702E-1   -3.339321784697432E-1
 9.937578673850000E9     4.657635433924335E-1   -1.246880604978701E-1   -1.902204266173823E-3   -2.071267602671588E-3   -1.936297679704990E-3   -2.066150338921421E-3    3.642881954017396E-1   -3.341216703054170E-1
 9.937580042400000E9     4.657507850634048E-1   -1.246587856767579E-1   -1.893172116995076E-3   -2.077261707020198E-3   -1.935404686034277E-3   -2.092153801386349E-3    3.640079890630608E-1   -3.341299252383388E-1
 9.937581410950001E9     4.657154938716361E-1   -1.246435702166737E-1   -1.899687512089264E-3   -2.077804894990196E-3   -1.967794290281148E-3   -2.108557460437063E-3    3.637450014937687E-1   -3.342772799303413E-1
 9.937582779500000E9     4.657824046269639E-1   -1.247046753288976E-1   -1.934731286530907E-3   -2.131213330124166E-3   -2.003179215497114E-3   -2.130345147732745E-3    3.636375241224245E-1   -3.347177076740978E-1
 9.937584148049999E9     4.656061477224742E-1   -1.249905440910450E-1   -1.947877014757946E-3   -2.158866729040397E-3   -2.035149072141458E-3   -2.135548458024039E-3    3.632416451160170E-1   -3.346638445261012E-1
 9.937585516600000E9     4.655730938994495E-1   -1.251283136036907E-1   -1.953747912546654E-3   -2.175275203942107E-3   -2.015483216194825E-3   -2.163519704051202E-3    3.633371026897406E-1   -3.349832042249540E-1
 9.937586885150000E9     4.657165175611879E-1   -1.250739924116576E-1   -1.986969831120361E-3   -2.144086150030569E-3   -2.051915080042117E-3   -2.169494434746790E-3    3.628000310211393E-1   -3.351102762449149E-1
 9.937588253700001E9     4.655052566003924E-1   -1.251210248486722E-1   -2.040110315002226E-3   -2.166567665565783E-3   -2.097062302442749E-3   -2.176919903854264E-3    3.625723218798926E-1   -3.352195477309918E-1
 9.937589622250000E9     4.656161060657245E-1   -1.253730731567476E-1   -2.018431497172712E-3   -2.218710944796589E-3   -2.118101428159855E-3   -2.236107893754276E-3    3.622266273671100E-1   -3.354046370345901E-1
 9.937590990799999E9     4.653831720022247E-1   -1.253368168011446E-1   -2.053492275387092E-3   -2.253210313626139E-3   -2.111911146465316E-3   -2.218562966871713E-3    3.620844658736244E-1   -3.357219858127266E-1
 9.937592359350000E9     4.655514358151658E-1   -1.254225898868734E-1   -2.115913221335704E-3   -2.254389469601989E-3   -2.142571058738513E-3   -2.271211973631409E-3    3.618285261387846E-1   -3.359818574091734E-1
 9.937593727900000E9     4.654015017477134E-1   -1.256036259688440E-1   -2.100726687953626E-3   -2.289776232719086E-3   -2.160556902017347E-3   -2.271833096295398E-3    3.615317564004564E-1   -3.359623591180335E-1
 9.937595096450001E9     4.653351104585735E-1   -1.255084762067663E-1   -2.123242914784857E-3   -2.297475268444692E-3   -2.178564080985031E-3   -2.259780302627226E-3    3.612132004137009E-1   -3.363135049971697E-1
 9.937596465000000E9     4.653977387323812E-1   -1.257876108612944E-1   -2.175233469925818E-3   -2.329112140157808E-3   -2.207463634819827E-3   -2.298351863358888E-3    3.610156256513865E-1   -3.364623201343207E-1
 9.937597833549999E9     4.652209761183232E-1   -1.258498619801394E-1   -2.168294093107623E-3   -2.299639249851600E-3   -2.219445371324635E-3   -2.344562710856173E-3    3.606771014891067E-1   -3.365423115915577E-1
 9.937599202100000E9     4.654594680719970E-1   -1.259253871683963E-1   -2.177717113006997E-3   -2.335264019090140E-3   -2.278680535871859E-3   -2.349524184669046E-3    3.603589072703707E-1   -3.371159431878589E-1
 9.937600570650000E9     4.651729677022691E-1   -1.260211657872288E-1   -2.208522324856177E-3   -2.362292485068186E-3   -2.283666108423443E-3   -2.362671495361679E-3    3.601352782362642E-1   -3.369634026000823E-1
 9.937601939200001E9     4.651235265032528E-1   -1.261814319587075E-1   -2.230928320702876E-3   -2.388830069637177E-3   -2.328973969346706E-3   -2.420912540753060E-3    3.598783431439397E-1   -3.371671354362999E-1
 9.937603307750000E9     4.652241051035756E-1   -1.263064956938094E-1   -2.262087976320971E-3   -2.431254745108008E-3   -2.328289934210293E-3   -2.438036552769754E-3    3.593917686275445E-1   -3.374409082361887E-1
 9.937604676299999E9     4.650744934923555E-1   -1.263018294802586E-1   -2.321204720345349E-3   -2.398995415962877E-3   -2.346556811877057E-3   -2.439276110167832E-3    3.594510315513346E-1   -3.376420380942717E-1
 9.937606044850000E9     4.652379717879734E-1   -1.263439601555021E-1   -2.313719500441773E-3   -2.454115043591775E-3   -2.398799175893878E-3   -2.444445857475462E-3    3.588510428129888E-1   -3.379379716670819E-1
 9.937607413400000E9     4.651298546822631E-1   -1.264353117086760E-1   -2.364113016656046E-3   -2.460295604933444E-3   -2.423334954150088E-3   -2.483657075860686E-3    3.585557305854956E-1   -3.381831039558829E-1
 9.937608781950001E9     4.651263232421225E-1   -1.265309692424263E-1   -2.354132122498637E-3   -2.502812906695234E-3   -2.454602821771674E-3   -2.493978837959823E-3    3.582641036866345E-1   -3.383992140828440E-1
 9.937610150500000E9     4.650761171668606E-1   -1.266501702003379E-1   -2.362736117299141E-3   -2.496919244147678E-3   -2.468410817909663E-3   -2.528885255722309E-3    3.579592447126685E-1   -3.385412027671713E-1
 9.937611519049999E9     4.649716040524536E-1   -1.267897091699099E-1   -2.438779037922132E-3   -2.527376363553644E-3   -2.537797680894252E-3   -2.544004945793943E-3    3.577313102776437E-1   -3.387258246841655E-1
 9.937612887600000E9     4.649344943786108E-1   -1.266738749863444E-1   -2.478154748052444E-3   -2.570110934334515E-3   -2.544636611518317E-3   -2.573249206830341E-3    3.571892783996917E-1   -3.388445126228855E-1
 9.937614256150000E9     4.649134744477704E-1   -1.268912416573980E-1   -2.510363387315725E-3   -2.584595361209572E-3   -2.569229021916246E-3   -2.598458379459265E-3    3.570459547709507E-1   -3.391484118398702E-1
 9.937615624700001E9     4.648819299662233E-1   -1.270120974307438E-1   -2.530481304335439E-3   -2.602592683435333E-3   -2.559859703647416E-3   -2.618089074405111E-3    3.568759759683841E-1   -3.392363255042967E-1
 9.937616993250000E9     4.649709740785192E-1   -1.271463112433294E-1   -2.546789919795292E-3   -2.651489941337415E-3   -2.636162931709949E-3   -2.629660336726571E-3    3.564057135382128E-1   -3.396717903050554E-1
 9.937618361799999E9     4.649232167787362E-1   -1.271698418416999E-1   -2.571537667098882E-3   -2.649571358408121E-3   -2.647566170534908E-3   -2.654425261737938E-3    3.560432306015459E-1   -3.400567055480087E-1
 9.937619730350000E9     4.647323812686933E-1   -1.272590144176185E-1   -2.620732860802894E-3   -2.673421061115483E-3   -2.679788345472459E-3   -2.661607828048424E-3    3.556455704290591E-1   -3.400947286262806E-1
 9.937621098900000E9     4.647530470471529E-1   -1.274813491690929E-1   -2.600723617382253E-3   -2.711586178037152E-3   -2.690355706729470E-3   -2.709813183839443E-3    3.554180086033260E-1   -3.402488030761355E-1
 9.937622467450001E9     4.645908669312795E-1   -1.275015668754006E-1   -2.647631722668562E-3   -2.753656714087469E-3   -2.803437237843257E-3   -2.762313104280645E-3    3.551891651109190E-1   -3.406037553948775E-1
 9.937623836000000E9     4.646586817324678E-1   -1.274949261152107E-1   -2.697049866479507E-3   -2.745618008229516E-3   -2.786957476513533E-3   -2.723684957941528E-3    3.546874355552695E-1   -3.407433333544395E-1
 9.937625204549999E9     4.646975353283234E-1   -1.275317289562408E-1   -2.710699947406677E-3   -2.778084122604183E-3   -2.798871204186094E-3   -2.799640796429374E-3    3.544822170306178E-1   -3.408066404017089E-1
 9.937626573100000E9     4.647843478455620E-1   -1.277618120239888E-1   -2.755735506400125E-3   -2.795102501092462E-3   -2.849598872887922E-3   -2.801893621489198E-3    3.540227181556113E-1   -3.411219125444723E-1
 9.937627941650000E9     4.645312953346988E-1   -1.278782543273802E-1   -2.782466511023062E-3   -2.845836149652113E-3   -2.868882118476444E-3   -2.847946299866414E-3    3.535210026913163E-1   -3.413790080206633E-1
 9.937629310200001E9     4.645823173740015E-1   -1.277913224232255E-1   -2.833896598464221E-3   -2.859608533914192E-3   -2.887330405008564E-3   -2.859505070376939E-3    3.532331360502341E-1   -3.415894306153864E-1
 9.937630678750000E9     4.645814464910981E-1   -1.281461035891602E-1   -2.837845400459062E-3   -2.881031682078591E-3   -2.928540804316314E-3   -2.879227203263265E-3    3.529306798128968E-1   -3.418121357567900E-1
 9.937632047299999E9     4.644110010858870E-1   -1.281885922440676E-1   -2.891496885333558E-3   -2.897272956203623E-3   -2.996229452007533E-3   -2.906708093191823E-3    3.523899013032770E-1   -3.421621681286214E-1
 9.937633415850000E9     4.644020428059000E-1   -1.282473346729878E-1   -2.919333619889676E-3   -2.952205203072538E-3   -3.002481610610221E-3   -2.953499901043711E-3    3.520804273295474E-1   -3.422796415916440E-1
 9.937634784400000E9     4.644327901456605E-1   -1.283636747374441E-1   -2.926741146076439E-3   -2.978706625112219E-3   -3.062336629234794E-3   -2.969363928308526E-3    3.518652803236295E-1   -3.426365017622133E-1
 9.937636152950001E9     4.644460226279268E-1   -1.285004328822545E-1   -2.995300559317831E-3   -2.975258088470151E-3   -3.048628333191047E-3   -2.991576269763121E-3    3.512961674270132E-1   -3.427098110291970E-1
 9.937637521500000E9     4.643521384752488E-1   -1.285582442730294E-1   -3.039698458056193E-3   -3.002624854982378E-3   -3.133464770527582E-3   -3.037673661268766E-3    3.509662068401049E-1   -3.429958008504035E-1
 9.937638890049999E9     4.643411790853951E-1   -1.286834838747431E-1   -3.067479733143524E-3   -3.048845936602193E-3   -3.157154694644227E-3   -3.035205956684649E-3    3.505561657090455E-1   -3.432330453388369E-1
 9.937640258600000E9     4.642072587781891E-1   -1.287126781679515E-1   -3.096803154321601E-3   -3.082792528905026E-3   -3.175975822761674E-3   -3.066223845134801E-3    3.500489980068372E-1   -3.434363025127259E-1
 9.937641627150000E9     4.642795070759504E-1   -1.288837059306979E-1   -3.126880501493819E-3   -3.093687534569635E-3   -3.248500127191225E-3   -3.119598869972917E-3    3.497988266077186E-1   -3.438883462842402E-1
 9.937642995700001E9     4.641796725815983E-1   -1.289012820431344E-1   -3.168046020322818E-3   -3.137230120480873E-3   -3.263462886340517E-3   -3.110522900513333E-3    3.493742874076570E-1   -3.439429454818337E-1
 9.937644364250000E9     4.642198601361547E-1   -1.289137247209974E-1   -3.198959204546574E-3   -3.151974545059106E-3   -3.327058783552675E-3   -3.176081687968331E-3    3.488318279006969E-1   -3.443347221609498E-1
 9.937645732799999E9     4.642214393964355E-1   -1.290975820210240E-1   -3.235119557024197E-3   -3.197082747395973E-3   -3.354358265646978E-3   -3.192186978753365E-3    3.485289986951955E-1   -3.445355846297902E-1
 9.937647101350000E9     4.641003362545879E-1   -1.292365332612286E-1   -3.274130892804300E-3   -3.248309106254369E-3   -3.381128302526733E-3   -3.194885458933373E-3    3.480328947859599E-1   -3.447180962205151E-1
 9.937648469900000E9     4.641564205204696E-1   -1.294040837750376E-1   -3.349204689052399E-3   -3.274784745382108E-3   -3.480932207356651E-3   -3.279206598705683E-3    3.476172283638267E-1   -3.450618337801779E-1
 9.937649838450001E9     4.639976513905217E-1   -1.293936857455157E-1   -3.402393524031295E-3   -3.306149758658196E-3   -3.494566170872490E-3   -3.315602217951362E-3    3.472692878678967E-1   -3.451887147026849E-1
 9.937651207000000E9     4.640766777229856E-1   -1.294395636841525E-1   -3.458580119456915E-3   -3.335499924531350E-3   -3.537593134524977E-3   -3.285374487013223E-3    3.465979043328321E-1   -3.455126044832783E-1
 9.937652575549999E9     4.641425960101825E-1   -1.296491022654865E-1   -3.499190551628543E-3   -3.326601830522292E-3   -3.578752783356937E-3   -3.358349218968443E-3    3.461713062917364E-1   -3.457914474944233E-1
 9.937653944100000E9     4.637451593258758E-1   -1.295287845153870E-1   -3.492122534649891E-3   -3.384564302768818E-3   -3.627912282729649E-3   -3.405583769844116E-3    3.456514146175182E-1   -3.460017690995169E-1
 9.937655312650000E9     4.638486778876835E-1   -1.297722438170574E-1   -3.541838890286401E-3   -3.406861082480023E-3   -3.672654292329895E-3   -3.410171304307424E-3    3.452600139657088E-1   -3.462928254379281E-1
 9.937656681200001E9     4.638253397019523E-1   -1.297770337339853E-1   -3.617599639793577E-3   -3.445965306930753E-3   -3.691468252137915E-3   -3.436054924162394E-3    3.447916253562766E-1   -3.466647227599865E-1
 9.937658049750000E9     4.638434402251811E-1   -1.300144631879913E-1   -3.663346155492314E-3   -3.483896584980858E-3   -3.772339542522905E-3   -3.438954640246993E-3    3.442053145689116E-1   -3.469180113722685E-1
 9.937659418299999E9     4.638896727436499E-1   -1.300588577963940E-1   -3.739038541115311E-3   -3.503417073534492E-3   -3.842689333449476E-3   -3.525881547015267E-3    3.437306676700015E-1   -3.471881630958453E-1
 9.937660786850000E9     4.637684760010618E-1   -1.301972997117872E-1   -3.765693122377303E-3   -3.535656939569691E-3   -3.893705733757212E-3   -3.552802109451431E-3    3.434566498603174E-1   -3.474590658588638E-1
 9.937662155400000E9     4.636858274102383E-1   -1.302480178278671E-1   -3.784110544153233E-3   -3.582348276791357E-3   -3.937041980428694E-3   -3.594953110860492E-3    3.429313025700035E-1   -3.477453959551143E-1
 9.937663523950001E9     4.637843111785452E-1   -1.303096589696822E-1   -3.860552814165170E-3   -3.603885060645390E-3   -3.995606382054336E-3   -3.644584225012816E-3    3.421933370455100E-1   -3.480767113564434E-1
 9.937664892500000E9     4.635774604952739E-1   -1.305275399446047E-1   -3.901079954353417E-3   -3.673565114736630E-3   -4.054560419204965E-3   -3.627336071413164E-3    3.417306841523265E-1   -3.482853103412945E-1
