#  HZ   S   RI   R     50.00 
! Rohde & Schwarz Vector Network Analyzer 
! Rohde-Schwarz,ZNB20-2Port,1311601062101988,3.16
! Created: UTC 3/20/2024, 10:56:04 PM
! freq[Hz]                re:S11                  im:S11                  re:S21                  im:S21                  re:S12                  im:S12                  re:S22                  im:S22
 9.937532770000000E9     4.668478133710336E-1   -1.213835156586448E-1   -1.405786823405506E-3   -1.623721221988762E-3   -1.469835346521386E-3   -1.590189999720413E-3    3.708771127508157E-1   -3.287803520551767E-1
 9.937534160549999E9     4.668578476759778E-1   -1.213861893293021E-1   -1.429016041778517E-3   -1.653765939943923E-3   -1.414804587832542E-3   -1.631250015429139E-3    3.706390352689404E-1   -3.289775958321402E-1
 9.937535551100000E9     4.667087076609950E-1   -1.215112301859996E-1   -1.407906915077604E-3   -1.633287908555658E-3   -1.483094785003455E-3   -1.634667297963271E-3    3.704063815283933E-1   -3.291565730735979E-1
 9.937536941650000E9     4.668394810902200E-1   -1.215988171660231E-1   -1.433500311551439E-3   -1.620921978507356E-3   -1.488432750702829E-3   -1.646521365859956E-3    3.702971765297844E-1   -3.293243132073028E-1
 9.937538332200001E9     4.665852994201679E-1   -1.218107251456695E-1   -1.471505778166756E-3   -1.677524285114914E-3   -1.497050815891117E-3   -1.635466943666748E-3    3.700933991668423E-1   -3.294175287074304E-1
 9.937539722750000E9     4.667503757615880E-1   -1.219606991177124E-1   -1.456889034767697E-3   -1.677866294005099E-3   -1.506153603204067E-3   -1.694966072291790E-3    3.698027066315474E-1   -3.296741584104096E-1
 9.937541113299999E9     4.666338745049398E-1   -1.218943114604013E-1   -1.460222176892045E-3   -1.693589416759849E-3   -1.542743410974145E-3   -1.708936760638084E-3    3.696900670220948E-1   -3.297416925099009E-1
 9.937542503850000E9     4.666484618437995E-1   -1.219949482533127E-1   -1.480230460042681E-3   -1.734238480402817E-3   -1.535651349517491E-3   -1.673416533219952E-3    3.692724472291792E-1   -3.299531528358576E-1
 9.937543894400000E9     4.665971697539458E-1   -1.220819054643883E-1   -1.530700743305395E-3   -1.727135955497476E-3   -1.560371941293881E-3   -1.718362356693427E-3    3.692280258022961E-1   -3.301454047310002E-1
 9.937545284950001E9     4.665319997508006E-1   -1.221473112022488E-1   -1.521900980580895E-3   -1.758700383835113E-3   -1.576637468411410E-3   -1.712082225125121E-3    3.691263419569470E-1   -3.302195078759318E-1
 9.937546675500000E9     4.666506406242913E-1   -1.223398355046148E-1   -1.548498200508957E-3   -1.721370592825112E-3   -1.595277248262041E-3   -1.748876846801410E-3    3.687523190927672E-1   -3.303705456565241E-1
 9.937548066049999E9     4.664094542466237E-1   -1.225381622332922E-1   -1.551657663886854E-3   -1.775893815306557E-3   -1.600325112695273E-3   -1.753776871569511E-3    3.684491449411376E-1   -3.305731202767722E-1
 9.937549456600000E9     4.665330739261502E-1   -1.225056208404740E-1   -1.572559707042207E-3   -1.780728146948958E-3   -1.606636228252976E-3   -1.793425276886327E-3    3.682500111740826E-1   -3.308901294229510E-1
 9.937550847150000E9     4.665537451948788E-1   -1.227850629866781E-1   -1.606872075633724E-3   -1.802625657538590E-3   -1.619532168479491E-3   -1.799524881090612E-3    3.681220181750978E-1   -3.309102218127501E-1
 9.937552237700001E9     4.663678589824707E-1   -1.225909890599104E-1   -1.623266113357336E-3   -1.825092710825689E-3   -1.653610854423036E-3   -1.793890311840985E-3    3.679685987034259E-1   -3.310218567914285E-1
 9.937553628250000E9     4.664438737713864E-1   -1.228126849167907E-1   -1.640740206060812E-3   -1.788198991567842E-3   -1.669667239914528E-3   -1.832508967044645E-3    3.678386950045843E-1   -3.312345256281278E-1
 9.937555018799999E9     4.663168939271136E-1   -1.230642935040991E-1   -1.643632189502841E-3   -1.833796996839872E-3   -1.701506539899572E-3   -1.843738951307022E-3    3.677627342402374E-1   -3.313660451321410E-1
 9.937556409350000E9     4.662557755062989E-1   -1.229982512045499E-1   -1.646723276812528E-3   -1.824765532235120E-3   -1.734585440801905E-3   -1.853486168314617E-3    3.674740661596902E-1   -3.314413499551478E-1
 9.937557799900000E9     4.663760241946051E-1   -1.232475622613779E-1   -1.677266080978592E-3   -1.863862847432933E-3   -1.731573173200378E-3   -1.866988815759108E-3    3.672024301512444E-1   -3.316776327951545E-1
 9.937559190450001E9     4.663455081262669E-1   -1.232275847398207E-1   -1.656296145406605E-3   -1.880748301509362E-3   -1.732531566979781E-3   -1.896473973979211E-3    3.670385322269753E-1   -3.320120632974591E-1
 9.937560581000000E9     4.660464654352213E-1   -1.234408947434578E-1   -1.735701532236389E-3   -1.884692159231665E-3   -1.763539811603786E-3   -1.928002689139335E-3    3.666890863826354E-1   -3.320951205327533E-1
 9.937561971549999E9     4.661305763009239E-1   -1.232469343750934E-1   -1.700664219342345E-3   -1.921361135896186E-3   -1.797362609860592E-3   -1.928523351665786E-3    3.663662856768058E-1   -3.324387785347750E-1
 9.937563362100000E9     4.661277394097131E-1   -1.234661546703416E-1   -1.759764800154424E-3   -1.949240607632426E-3   -1.792008623513957E-3   -1.919419593635480E-3    3.663502473986711E-1   -3.324639797805679E-1
 9.937564752650000E9     4.662771294111470E-1   -1.235203204320353E-1   -1.739548320902936E-3   -1.957501396713469E-3   -1.821492684435029E-3   -1.903785366636283E-3    3.659277934962877E-1   -3.326812327607087E-1
 9.937566143200001E9     4.660800139297303E-1   -1.237018800113979E-1   -1.766437010606915E-3   -1.942517854891445E-3   -1.873482542605891E-3   -1.972366781608879E-3    3.657823038990454E-1   -3.330792195455624E-1
 9.937567533750000E9     4.660441200700363E-1   -1.237990121931246E-1   -1.810887477577658E-3   -1.986089561235969E-3   -1.868178306199442E-3   -1.977747405357359E-3    3.656182938629073E-1   -3.329479932123871E-1
 9.937568924299999E9     4.659151592720061E-1   -1.239812003898726E-1   -1.824499397236852E-3   -1.983145362515521E-3   -1.890906231168367E-3   -2.009802753482991E-3    3.651189073254587E-1   -3.331357457372248E-1
 9.937570314850000E9     4.660164302598808E-1   -1.239948771786230E-1   -1.846330415583265E-3   -1.999158474066328E-3   -1.879078057387567E-3   -1.985353297966775E-3    3.648054228904952E-1   -3.333863523437668E-1
 9.937571705400000E9     4.660108708447085E-1   -1.241019126785207E-1   -1.854084572828975E-3   -2.080497867323141E-3   -1.944084536582859E-3   -2.018242758321489E-3    3.649039703111986E-1   -3.335506793942687E-1
 9.937573095950001E9     4.659741990893937E-1   -1.241243850467635E-1   -1.832584082590232E-3   -2.041483681925935E-3   -1.931674416310004E-3   -2.033437212417725E-3    3.644328489519770E-1   -3.336365525966512E-1
 9.937574486500000E9     4.658776575460292E-1   -1.242819582267426E-1   -1.904228230223419E-3   -2.058211195571618E-3   -1.952140641117137E-3   -2.038544398709565E-3    3.643380408420680E-1   -3.339341798519374E-1
 9.937575877049999E9     4.657766263765848E-1   -1.243362491775366E-1   -1.919230342910713E-3   -2.088158096512386E-3   -1.951068493907476E-3   -2.093591855269873E-3    3.639753877154369E-1   -3.339400303615523E-1
 9.937577267600000E9     4.657766377809791E-1   -1.244219410197132E-1   -1.922058079303140E-3   -2.104148835065949E-3   -1.981495942065211E-3   -2.132975248223773E-3    3.639003476889538E-1   -3.341932238833979E-1
 9.937578658150000E9     4.657205527788295E-1   -1.244975831952390E-1   -1.962619380015223E-3   -2.123720652343151E-3   -2.015355786283203E-3   -2.131784735593709E-3    3.636767648384479E-1   -3.343870787160285E-1
 9.937580048700001E9     4.657254661708819E-1   -1.246451328814487E-1   -1.990771595225088E-3   -2.143357054456159E-3   -2.055289010853369E-3   -2.146924075661894E-3    3.632909764583140E-1   -3.347663841344145E-1
 9.937581439250000E9     4.656505854921485E-1   -1.246906194381308E-1   -2.021175430043382E-3   -2.123935735095846E-3   -2.072271951783202E-3   -2.148350208088806E-3    3.631052402004407E-1   -3.349408176811116E-1
 9.937582829799999E9     4.657633960738970E-1   -1.247885608922265E-1   -2.009691990661988E-3   -2.146683522583808E-3   -2.062327744032165E-3   -2.188166612705782E-3    3.625806750734894E-1   -3.349773136635220E-1
 9.937584220350000E9     4.656586688462716E-1   -1.248445374607938E-1   -2.023537675710333E-3   -2.215329399857869E-3   -2.117042924843443E-3   -2.166194048650508E-3    3.623970357378389E-1   -3.353358416052718E-1
 9.937585610900000E9     4.655013193002204E-1   -1.250275289426167E-1   -2.063031362974530E-3   -2.250581909089876E-3   -2.122274073520263E-3   -2.202683545223066E-3    3.622240086305650E-1   -3.354188532553005E-1
 9.937587001450001E9     4.656384602425103E-1   -1.251659352295292E-1   -2.082038388535557E-3   -2.237682601906952E-3   -2.139431129036517E-3   -2.279627472871775E-3    3.618637195698562E-1   -3.354882794044892E-1
 9.937588392000000E9     4.655037359773417E-1   -1.251758597071084E-1   -2.153447674648881E-3   -2.282764143270257E-3   -2.187836466101906E-3   -2.263194989764734E-3    3.617689409717035E-1   -3.358472486195256E-1
 9.937589782549999E9     4.654788522334717E-1   -1.252239536350976E-1   -2.113051235346824E-3   -2.269523118663955E-3   -2.179176721078353E-3   -2.289504317294667E-3    3.614340000046809E-1   -3.359721157316812E-1
 9.937591173100000E9     4.655185802187442E-1   -1.253133069917535E-1   -2.160335132944984E-3   -2.323491553059571E-3   -2.233956308598916E-3   -2.284584036351660E-3    3.612636645104860E-1   -3.361812733363708E-1
 9.937592563650000E9     4.652231320705364E-1   -1.256741091375956E-1   -2.176132757466299E-3   -2.318854766782977E-3   -2.268256497427640E-3   -2.349655650167844E-3    3.608145797253381E-1   -3.360744502848443E-1
 9.937593954200001E9     4.654010042216344E-1   -1.256249907214060E-1   -2.216189876034710E-3   -2.333208803746422E-3   -2.269658871779572E-3   -2.323243803881541E-3    3.605317874520387E-1   -3.366344298457848E-1
 9.937595344750000E9     4.654426025368906E-1   -1.257814779452521E-1   -2.218799718697901E-3   -2.363028513402584E-3   -2.286301445875888E-3   -2.374297491924895E-3    3.604145828190680E-1   -3.368570863671449E-1
 9.937596735299999E9     4.653699622196599E-1   -1.256736187538084E-1   -2.241109819114615E-3   -2.362897195708441E-3   -2.346445592807205E-3   -2.384409926532071E-3    3.600369632070088E-1   -3.369768264497365E-1
 9.937598125850000E9     4.653698479235124E-1   -1.258698651282969E-1   -2.315996483972190E-3   -2.387543977090041E-3   -2.362992465598875E-3   -2.399659910322332E-3    3.598799698512689E-1   -3.370415571855922E-1
 9.937599516400000E9     4.652414570800494E-1   -1.259682872704141E-1   -2.326847611370086E-3   -2.405859203135272E-3   -2.362398274863791E-3   -2.420304064008054E-3    3.596041582542142E-1   -3.375295875912628E-1
 9.937600906950001E9     4.651286614468534E-1   -1.260211470742558E-1   -2.314270931718588E-3   -2.433992302428408E-3   -2.369774376388951E-3   -2.444483187974725E-3    3.591773255453233E-1   -3.375724888942208E-1
 9.937602297500000E9     4.651925876352788E-1   -1.261875341514018E-1   -2.362787356302054E-3   -2.455584587399133E-3   -2.421142875487332E-3   -2.474626676560868E-3    3.589471061125567E-1   -3.377110094113167E-1
 9.937603688049999E9     4.650076832453983E-1   -1.263128469296555E-1   -2.384820886987953E-3   -2.499866929901771E-3   -2.433138453840279E-3   -2.460941424675987E-3    3.582841796746176E-1   -3.378118592427518E-1
 9.937605078600000E9     4.651591676665822E-1   -1.262830687602977E-1   -2.396446643191686E-3   -2.498941445255243E-3   -2.458600777416191E-3   -2.497914496129413E-3    3.581045967227450E-1   -3.381608433547770E-1
 9.937606469150000E9     4.650918182006404E-1   -1.264349782725494E-1   -2.455408589984303E-3   -2.537140285852580E-3   -2.519231377285814E-3   -2.524519390821045E-3    3.579162928353323E-1   -3.385173169186518E-1
 9.937607859700001E9     4.649632050716289E-1   -1.266643559058453E-1   -2.475142528540585E-3   -2.557674035164019E-3   -2.531597451567182E-3   -2.528933209212601E-3    3.575014652700082E-1   -3.386783527938587E-1
 9.937609250250000E9     4.650256309124482E-1   -1.266444369976125E-1   -2.507078081977014E-3   -2.556532243568600E-3   -2.578550631818889E-3   -2.598436674569553E-3    3.572858653507100E-1   -3.388100712707853E-1
 9.937610640799999E9     4.649789226561342E-1   -1.267188154888122E-1   -2.516680515813285E-3   -2.578668937938761E-3   -2.629166822894977E-3   -2.600830803542570E-3    3.567507452585155E-1   -3.390023462356138E-1
 9.937612031350000E9     4.648653207554286E-1   -1.267149155820486E-1   -2.543990719909019E-3   -2.633707072941651E-3   -2.626741175087197E-3   -2.620489654632865E-3    3.565775272730378E-1   -3.393217189053903E-1
 9.937613421900000E9     4.649748924196655E-1   -1.268760148821178E-1   -2.575926001881113E-3   -2.604619464266220E-3   -2.662290163001840E-3   -2.616606683781673E-3    3.562536821231221E-1   -3.396148196010087E-1
 9.937614812450001E9     4.648638223145877E-1   -1.269769292659958E-1   -2.600352422843466E-3   -2.700031481582455E-3   -2.666560390343943E-3   -2.673825530353610E-3    3.558703989778516E-1   -3.396748211016792E-1
 9.937616203000000E9     4.648624575570892E-1   -1.272293500656581E-1   -2.633058975245411E-3   -2.693851612949520E-3   -2.735881580238823E-3   -2.703175580116805E-3    3.555486295812558E-1   -3.400102713290605E-1
 9.937617593549999E9     4.648744195235640E-1   -1.270533981989393E-1   -2.670216731235617E-3   -2.739338211939923E-3   -2.767177593726049E-3   -2.739428524319288E-3    3.550095122845033E-1   -3.401748148154518E-1
 9.937618984100000E9     4.648120562993127E-1   -1.273758771419294E-1   -2.680419965615917E-3   -2.746878375977384E-3   -2.766653194308675E-3   -2.766241200561014E-3    3.547267361340690E-1   -3.405614814947053E-1
 9.937620374650000E9     4.647257239745183E-1   -1.274851181615448E-1   -2.749909874916691E-3   -2.766002054194506E-3   -2.850756792399364E-3   -2.789416643656097E-3    3.544830235850789E-1   -3.406320928736370E-1
 9.937621765200001E9     4.646669382522562E-1   -1.275870709625409E-1   -2.752092507585464E-3   -2.781695871263019E-3   -2.856517708990958E-3   -2.803666339385814E-3    3.538716714181847E-1   -3.408028505065719E-1
 9.937623155750000E9     4.645214836566515E-1   -1.276100379037117E-1   -2.802671250917976E-3   -2.810771009643981E-3   -2.880486825720056E-3   -2.809669191322881E-3    3.539293668660518E-1   -3.410490258464319E-1
 9.937624546299999E9     4.645845612766424E-1   -1.277113736336399E-1   -2.808315837647650E-3   -2.853750980595924E-3   -2.930660200688890E-3   -2.860869905466417E-3    3.534042855335645E-1   -3.413908546059021E-1
 9.937625936850000E9     4.645745097447909E-1   -1.278365176201310E-1   -2.850802086054280E-3   -2.883722110274388E-3   -2.952488780950844E-3   -2.883300162512406E-3    3.528905399226547E-1   -3.415511747075680E-1
 9.937627327400000E9     4.644580148316726E-1   -1.279660896737144E-1   -2.910422174047561E-3   -2.899204090936892E-3   -3.000444201451213E-3   -2.933483059748354E-3    3.527056383377880E-1   -3.417784689520775E-1
 9.937628717950001E9     4.645760247184326E-1   -1.280351736459672E-1   -2.968644696128380E-3   -2.971159486554326E-3   -3.040144165785895E-3   -2.942966783046075E-3    3.523414438656618E-1   -3.423355078712156E-1
 9.937630108500000E9     4.645743756404843E-1   -1.280266958710402E-1   -2.953322988725745E-3   -2.971460481220370E-3   -3.051165890369263E-3   -2.941491284010808E-3    3.518954943431683E-1   -3.424195476193146E-1
 9.937631499049999E9     4.645068606251788E-1   -1.281838161757591E-1   -2.998730788552818E-3   -2.990661388843059E-3   -3.117642075438716E-3   -2.981386840917113E-3    3.513042479804042E-1   -3.424332139368944E-1
 9.937632889600000E9     4.644942369125443E-1   -1.282929634465140E-1   -3.035040405362136E-3   -3.005100021896565E-3   -3.131126355312451E-3   -2.987782924561253E-3    3.509783788714518E-1   -3.426705740164205E-1
 9.937634280150000E9     4.643447793246294E-1   -1.283597392227702E-1   -3.089957587919032E-3   -3.026115703893014E-3   -3.187935033361651E-3   -3.047704370243104E-3    3.506853696032610E-1   -3.430639268658642E-1
 9.937635670700001E9     4.642801384850191E-1   -1.284423507933275E-1   -3.127252551224525E-3   -3.117217404967914E-3   -3.251113346103459E-3   -3.087272614030944E-3    3.502367678532216E-1   -3.431572464416131E-1
 9.937637061250000E9     4.644014134116109E-1   -1.285122186115409E-1   -3.155061926792367E-3   -3.103644657211574E-3   -3.242270355172642E-3   -3.100949536124067E-3    3.499478559032451E-1   -3.435051743826134E-1
 9.937638451799999E9     4.643952109006652E-1   -1.285937881983021E-1   -3.172140442961304E-3   -3.123667213481632E-3   -3.314950118224384E-3   -3.124128102823896E-3    3.493442831061849E-1   -3.436506479563169E-1
 9.937639842350000E9     4.642790847058742E-1   -1.288684770058927E-1   -3.247712937543438E-3   -3.141631667554903E-3   -3.346719704129040E-3   -3.178871907632583E-3    3.488107881555017E-1   -3.441792917927649E-1
 9.937641232900000E9     4.642002729195746E-1   -1.288384554646948E-1   -3.266241100701315E-3   -3.166965243011153E-3   -3.377205237375019E-3   -3.204805051195715E-3    3.485318136075866E-1   -3.443300770532495E-1
 9.937642623450001E9     4.642654706727772E-1   -1.289352445528011E-1   -3.304060881667731E-3   -3.220538820131654E-3   -3.442632762431238E-3   -3.250889078384950E-3    3.480157669172166E-1   -3.446540477656097E-1
 9.937644014000000E9     4.641189328456546E-1   -1.290461097914095E-1   -3.356423323545539E-3   -3.238064095542798E-3   -3.497296506726006E-3   -3.266270395638600E-3    3.475553856000401E-1   -3.448006161178394E-1
 9.937645404549999E9     4.641726466164049E-1   -1.291983162454889E-1   -3.420291564337978E-3   -3.301577814340296E-3   -3.526694873861549E-3   -3.284968054663435E-3    3.471222625232068E-1   -3.449729682232685E-1
 9.937646795100000E9     4.642475281872099E-1   -1.292922207129880E-1   -3.474591796425569E-3   -3.312768878283772E-3   -3.568308912012298E-3   -3.328983494701277E-3    3.466660363951470E-1   -3.452382023874408E-1
 9.937648185650000E9     4.640376153828654E-1   -1.294069914020297E-1   -3.522694289241762E-3   -3.366097330001633E-3   -3.612782500184790E-3   -3.360890549660632E-3    3.461365345739937E-1   -3.456835137959300E-1
 9.937649576200001E9     4.639960332940469E-1   -1.294620152206341E-1   -3.577123909287421E-3   -3.379339071100055E-3   -3.652024102198630E-3   -3.376089163315241E-3    3.457350194239681E-1   -3.457576242621493E-1
 9.937650966750000E9     4.640207166217639E-1   -1.294794888605321E-1   -3.599178376904376E-3   -3.420651929283107E-3   -3.726176283285671E-3   -3.397461514117996E-3    3.451517105070708E-1   -3.462260920752218E-1
 9.937652357299999E9     4.638954965424913E-1   -1.296721628125955E-1   -3.660142406604909E-3   -3.452714275592371E-3   -3.770894545484646E-3   -3.418834509461458E-3    3.448277672756186E-1   -3.463384932486040E-1
 9.937653747850000E9     4.639871791937893E-1   -1.296869448816730E-1   -3.714925378704382E-3   -3.488014777907078E-3   -3.784631039376035E-3   -3.464120599726193E-3    3.441506966794342E-1   -3.467491629577788E-1
 9.937655138400000E9     4.638108525376308E-1   -1.298249328821691E-1   -3.733593506670335E-3   -3.526041961413696E-3   -3.859408722797982E-3   -3.507040837516444E-3    3.435227239330539E-1   -3.469182852233855E-1
 9.937656528950001E9     4.639133773328528E-1   -1.299171849560006E-1   -3.793414515645756E-3   -3.575850794411092E-3   -3.919913893604626E-3   -3.553065252671481E-3    3.428864879501272E-1   -3.473494431206798E-1
 9.937657919500000E9     4.637825873675455E-1   -1.299330052701004E-1   -3.862298844260791E-3   -3.609569930377175E-3   -3.995613607918467E-3   -3.603494794100966E-3    3.424941180754629E-1   -3.476083068215445E-1
