#  HZ   S   RI   R     50.00 
! Rohde & Schwarz Vector Network Analyzer 
! Rohde-Schwarz,ZNB20-2Port,1311601062101988,3.16
! Created: UTC 3/20/2024, 10:56:13 PM
! freq[Hz]                re:S11                  im:S11                  re:S21                  im:S21                  re:S12                  im:S12                  re:S22                  im:S22
 9.937519018000000E9     4.670764434727291E-1   -1.204928590511343E-1   -1.296924816945615E-3   -1.510784182279191E-3   -1.367096169137925E-3   -1.519514335135887E-3    3.721791599711927E-1   -3.276221950966103E-1
 9.937520451875000E9     4.670803849841761E-1   -1.205477404994767E-1   -1.340752105209081E-3   -1.539429921609134E-3   -1.374255111205343E-3   -1.532331824305015E-3    3.719027262847594E-1   -3.279000493844565E-1
 9.937521885750000E9     4.670902410513170E-1   -1.207214679267846E-1   -1.325322421864294E-3   -1.546224017250749E-3   -1.356733598791836E-3   -1.567725102168270E-3    3.719594271437225E-1   -3.278292302707047E-1
 9.937523319625000E9     4.670760714333286E-1   -1.207050099999764E-1   -1.362841752592215E-3   -1.562415610680864E-3   -1.408841945780680E-3   -1.581023259354703E-3    3.718202631070334E-1   -3.279957351132651E-1
 9.937524753500000E9     4.670304167797329E-1   -1.208875579435860E-1   -1.390360110656649E-3   -1.542684030952621E-3   -1.385568788684801E-3   -1.545600528339896E-3    3.714964713462128E-1   -3.281385732023848E-1
 9.937526187375000E9     4.670584812975950E-1   -1.209787939439022E-1   -1.374553722593147E-3   -1.564603595511452E-3   -1.433232567564690E-3   -1.596953244096642E-3    3.713446571518548E-1   -3.284194168182626E-1
 9.937527621250000E9     4.669670694395355E-1   -1.210476634767446E-1   -1.383410854882301E-3   -1.593156913535102E-3   -1.430868533174622E-3   -1.617704386911936E-3    3.710576410430821E-1   -3.284335175454448E-1
 9.937529055125000E9     4.668380254223479E-1   -1.212848182628841E-1   -1.432058218560268E-3   -1.617349286052508E-3   -1.479736625546299E-3   -1.644323930479584E-3    3.709010231408963E-1   -3.286912599157025E-1
 9.937530489000000E9     4.668314772589974E-1   -1.212699170632169E-1   -1.417417627833345E-3   -1.605231312512145E-3   -1.498384480249124E-3   -1.658810384414984E-3    3.705826577500155E-1   -3.287068038470438E-1
 9.937531922875000E9     4.668319860291376E-1   -1.214026801629413E-1   -1.441458621295651E-3   -1.660154446655543E-3   -1.467329239272223E-3   -1.616574896303086E-3    3.705008796640002E-1   -3.287828751960770E-1
 9.937533356750000E9     4.668369424632784E-1   -1.214925620893500E-1   -1.457645703756898E-3   -1.644675264518605E-3   -1.527663387826325E-3   -1.646925956614280E-3    3.702326518036817E-1   -3.292867525223964E-1
 9.937534790625000E9     4.668860594001619E-1   -1.216488594273807E-1   -1.478369727838009E-3   -1.669293678422114E-3   -1.524486539805402E-3   -1.670669946329098E-3    3.701452193809905E-1   -3.292550941979465E-1
 9.937536224500000E9     4.666677142292311E-1   -1.217092558754956E-1   -1.461219390338693E-3   -1.686674882874710E-3   -1.496108762777252E-3   -1.718002692011110E-3    3.696926214022271E-1   -3.293154075334281E-1
 9.937537658375000E9     4.668136275702331E-1   -1.218187331208235E-1   -1.508356367507955E-3   -1.690687364878019E-3   -1.540680750350997E-3   -1.716989070950228E-3    3.698545260763038E-1   -3.295493088784225E-1
 9.937539092250000E9     4.666680563612683E-1   -1.218615247279186E-1   -1.535320669390212E-3   -1.705920909732094E-3   -1.557658178076292E-3   -1.705022778340673E-3    3.694314156787861E-1   -3.297657928089255E-1
 9.937540526125000E9     4.665833304152480E-1   -1.221671035776269E-1   -1.520746867249075E-3   -1.743943748481477E-3   -1.581570433031128E-3   -1.735029916561190E-3    3.692382789185764E-1   -3.298676931284428E-1
 9.937541960000000E9     4.666195767712318E-1   -1.221913479485481E-1   -1.556830520464274E-3   -1.767528195207104E-3   -1.606914908091338E-3   -1.751529146574652E-3    3.691681767602747E-1   -3.300750591409122E-1
 9.937543393875000E9     4.666535836571450E-1   -1.221464105825371E-1   -1.581819910695029E-3   -1.750293327669043E-3   -1.588575343612910E-3   -1.757628057678637E-3    3.688772255692105E-1   -3.304717190068251E-1
 9.937544827750000E9     4.665923046012205E-1   -1.222961805312882E-1   -1.600981496009937E-3   -1.786282066578459E-3   -1.661227649401587E-3   -1.770635326859939E-3    3.684452113992926E-1   -3.304559923614680E-1
 9.937546261625000E9     4.665158078641015E-1   -1.224641170915530E-1   -1.625354981204075E-3   -1.800951805000535E-3   -1.669726433088904E-3   -1.817740676410178E-3    3.684413184014545E-1   -3.306836479266019E-1
 9.937547695500000E9     4.664810566630883E-1   -1.224342076653639E-1   -1.637662909510623E-3   -1.805783676952791E-3   -1.642400325615207E-3   -1.808640112969933E-3    3.681135066104438E-1   -3.308645600881777E-1
 9.937549129375000E9     4.664378685871992E-1   -1.227353764447511E-1   -1.609100079370706E-3   -1.833559404686249E-3   -1.690225422890756E-3   -1.806471740850993E-3    3.678740291102826E-1   -3.310530314549927E-1
 9.937550563250000E9     4.664001219705672E-1   -1.226467966236539E-1   -1.649909150085301E-3   -1.855522512445417E-3   -1.692328967011234E-3   -1.839474826539662E-3    3.675981340387423E-1   -3.309692395620703E-1
 9.937551997125000E9     4.663244019898230E-1   -1.228619979928800E-1   -1.667896036819047E-3   -1.858067203589222E-3   -1.679371692065151E-3   -1.869049107471566E-3    3.675099411299804E-1   -3.314604573939625E-1
 9.937553431000000E9     4.664546814133748E-1   -1.228760232530545E-1   -1.704429870259578E-3   -1.864980251633730E-3   -1.744473980816741E-3   -1.850265150919122E-3    3.674110071455176E-1   -3.314271254791696E-1
 9.937554864875000E9     4.664328016833442E-1   -1.229429129641887E-1   -1.709001307681922E-3   -1.884405045948290E-3   -1.755743944178519E-3   -1.904265716250323E-3    3.671007037003889E-1   -3.316609343325032E-1
 9.937556298750000E9     4.662842560517810E-1   -1.231510456218431E-1   -1.739784562863374E-3   -1.882322953077157E-3   -1.770928060646117E-3   -1.887082936278667E-3    3.667518209337945E-1   -3.318101274663659E-1
 9.937557732625000E9     4.663256311923965E-1   -1.231618885985596E-1   -1.749084178524254E-3   -1.910819617582923E-3   -1.763721133473247E-3   -1.944876170666268E-3    3.665481695950850E-1   -3.319527332188494E-1
 9.937559166500000E9     4.661827136274869E-1   -1.232748221238634E-1   -1.746794181790546E-3   -1.943241060263449E-3   -1.825124050725166E-3   -1.973050790231969E-3    3.662016727056273E-1   -3.321767444636638E-1
 9.937560600375000E9     4.661481703865608E-1   -1.233960881231698E-1   -1.769853463157627E-3   -1.943353278560058E-3   -1.845162675116222E-3   -1.961296573590968E-3    3.659886426249129E-1   -3.324563141315689E-1
 9.937562034250000E9     4.662374597442887E-1   -1.234593322940311E-1   -1.800413280523022E-3   -1.998565416626192E-3   -1.871732794674802E-3   -1.973225421785460E-3    3.660599951787969E-1   -3.326249061720615E-1
 9.937563468125000E9     4.661913087775637E-1   -1.235716725486500E-1   -1.809306336520408E-3   -2.020428144846831E-3   -1.897593777738045E-3   -2.027884195350742E-3    3.654783447057159E-1   -3.328624323234228E-1
 9.937564902000000E9     4.661275211824062E-1   -1.237000408244028E-1   -1.829513156449458E-3   -2.030390186766481E-3   -1.938626317394048E-3   -2.003759086080767E-3    3.654032340533154E-1   -3.330065726247652E-1
 9.937566335875000E9     4.660716946419028E-1   -1.238795737836222E-1   -1.866522919323714E-3   -2.037994110659276E-3   -1.932500308840885E-3   -2.036872268661839E-3    3.649985771847938E-1   -3.331135140761827E-1
 9.937567769750000E9     4.659749727666747E-1   -1.239403470418023E-1   -1.895201927326817E-3   -2.048449322807016E-3   -1.933792266163686E-3   -1.995692295978149E-3    3.647235712867277E-1   -3.333123093691143E-1
 9.937569203625000E9     4.659860444804172E-1   -1.237772866958041E-1   -1.872493208000116E-3   -2.051309508642121E-3   -1.959514167652681E-3   -2.077350143203529E-3    3.645174969541334E-1   -3.336165544864891E-1
 9.937570637500000E9     4.660034409970742E-1   -1.240893343770796E-1   -1.935970815121677E-3   -2.071886664012161E-3   -1.995238778641694E-3   -2.077006802428192E-3    3.641056503362065E-1   -3.337453079956653E-1
 9.937572071375000E9     4.658997196679635E-1   -1.241008015377787E-1   -1.935817628675813E-3   -2.069440329346290E-3   -2.004695632326200E-3   -2.115615426566967E-3    3.640387659984409E-1   -3.338634191312657E-1
 9.937573505250000E9     4.658182710956825E-1   -1.242676667200044E-1   -1.996980807196004E-3   -2.145668329121403E-3   -2.033532370974530E-3   -2.110621044363823E-3    3.635224908582443E-1   -3.340743854669423E-1
 9.937574939125000E9     4.658210595326602E-1   -1.244240316632459E-1   -1.982056391680748E-3   -2.129533504349189E-3   -2.027323457573052E-3   -2.119453740907209E-3    3.635029901045545E-1   -3.343975135445560E-1
 9.937576373000000E9     4.658334047075290E-1   -1.244746802326641E-1   -1.991975569160315E-3   -2.140879068426720E-3   -2.074428030558984E-3   -2.143521549064470E-3    3.632034099863194E-1   -3.344856080738803E-1
 9.937577806875000E9     4.657660537302900E-1   -1.244138038898926E-1   -2.022865170002711E-3   -2.190978673243748E-3   -2.046437233057176E-3   -2.169843520103947E-3    3.630768413643539E-1   -3.347694574103504E-1
 9.937579240750000E9     4.657705023869401E-1   -1.246212250948442E-1   -2.019344326849584E-3   -2.194379966513979E-3   -2.120550420652086E-3   -2.180234800694175E-3    3.625898036505264E-1   -3.350911435670539E-1
 9.937580674625000E9     4.657753097485719E-1   -1.246543855509374E-1   -2.079973227857590E-3   -2.223571513659396E-3   -2.120715423907927E-3   -2.217433784724727E-3    3.624271693766501E-1   -3.350120492406073E-1
 9.937582108500000E9     4.655953922090993E-1   -1.249171010308314E-1   -2.110083476051630E-3   -2.230809165310387E-3   -2.134885843991697E-3   -2.244997830396036E-3    3.622228682598881E-1   -3.352252082894961E-1
 9.937583542375000E9     4.656575240817745E-1   -1.248223245299302E-1   -2.102508566029755E-3   -2.250719617555517E-3   -2.189545977685735E-3   -2.255606750744650E-3    3.618468278379566E-1   -3.355042155720716E-1
 9.937584976250000E9     4.656819767934558E-1   -1.250781812521296E-1   -2.138250553649565E-3   -2.257660575970639E-3   -2.209857622578105E-3   -2.284771016999247E-3    3.614725779752869E-1   -3.358022491110570E-1
 9.937586410125000E9     4.656568282669832E-1   -1.251687496002478E-1   -2.177465615688790E-3   -2.307930107514351E-3   -2.218653701030521E-3   -2.280113564075742E-3    3.612893818036618E-1   -3.358376383599491E-1
 9.937587844000000E9     4.655778025966278E-1   -1.252891632183144E-1   -2.162558856640729E-3   -2.314547149043336E-3   -2.241363730796296E-3   -2.323872722633900E-3    3.608443409773343E-1   -3.361837834999258E-1
 9.937589277875000E9     4.654707654249022E-1   -1.252453403069681E-1   -2.209905861905521E-3   -2.328888096360320E-3   -2.293028264628482E-3   -2.321623612101854E-3    3.607094262019671E-1   -3.362570546870534E-1
 9.937590711750000E9     4.653184061735021E-1   -1.254001394444335E-1   -2.227999584579637E-3   -2.349073099799091E-3   -2.306002422081344E-3   -2.362635528310726E-3    3.604434324107932E-1   -3.365265378454128E-1
 9.937592145625000E9     4.653244002593608E-1   -1.255485081324498E-1   -2.258566160132653E-3   -2.379691788554379E-3   -2.326563101449349E-3   -2.395740952744079E-3    3.599286000353185E-1   -3.365990609761373E-1
 9.937593579500000E9     4.654561384834751E-1   -1.255749532021335E-1   -2.303801012732997E-3   -2.347341382844647E-3   -2.378465366700765E-3   -2.391467343965455E-3    3.598025367052434E-1   -3.369388637905161E-1
 9.937595013375000E9     4.653958761979931E-1   -1.257866937222055E-1   -2.301131935168347E-3   -2.442726621520031E-3   -2.401176280678840E-3   -2.418629020342377E-3    3.595758754869722E-1   -3.371505303952371E-1
 9.937596447250000E9     4.653622592877155E-1   -1.258325627824172E-1   -2.362159134289324E-3   -2.404161298069180E-3   -2.414433549708378E-3   -2.435249945836746E-3    3.591897110772568E-1   -3.373539068793479E-1
 9.937597881125000E9     4.652921158436805E-1   -1.258549339843779E-1   -2.355210771602671E-3   -2.465042754249542E-3   -2.429460803640682E-3   -2.451269516415026E-3    3.588271511729552E-1   -3.375572586066667E-1
 9.937599315000000E9     4.652734178891629E-1   -1.260483478604648E-1   -2.399019416511830E-3   -2.488566350766712E-3   -2.478175343991534E-3   -2.462356953674907E-3    3.585813507946849E-1   -3.377754029736877E-1
 9.937600748875000E9     4.651575967633048E-1   -1.261719647367987E-1   -2.455545715387154E-3   -2.450241489162289E-3   -2.494148633899716E-3   -2.510732491601667E-3    3.581932968330069E-1   -3.379458724330211E-1
 9.937602182750000E9     4.652535203882864E-1   -1.261624043248892E-1   -2.452394400385052E-3   -2.556690728772750E-3   -2.542112505591703E-3   -2.534432667529841E-3    3.577821709125172E-1   -3.382894659345161E-1
 9.937603616625000E9     4.651294165641119E-1   -1.262540501850142E-1   -2.468300865659072E-3   -2.536128807475816E-3   -2.591307760377158E-3   -2.563257072339817E-3    3.574717780454614E-1   -3.384386477594489E-1
 9.937605050500000E9     4.652157228069980E-1   -1.263780151157600E-1   -2.499245258327991E-3   -2.591831996354039E-3   -2.575585394453062E-3   -2.594602117133530E-3    3.572776363106290E-1   -3.386296615143666E-1
 9.937606484375000E9     4.650215342903695E-1   -1.264756531404924E-1   -2.534507293209754E-3   -2.590933233258789E-3   -2.592637814419778E-3   -2.598934782332716E-3    3.568595454974189E-1   -3.388326852373498E-1
 9.937607918250000E9     4.650732138375786E-1   -1.265478594504649E-1   -2.573202265203297E-3   -2.608195189535584E-3   -2.677549868639714E-3   -2.637561956867230E-3    3.563926206288960E-1   -3.392150792988627E-1
 9.937609352125000E9     4.649586301390458E-1   -1.266202200527475E-1   -2.589271305795912E-3   -2.644805440656816E-3   -2.680170198158306E-3   -2.689510305043194E-3    3.560293157042861E-1   -3.393433759188346E-1
 9.937610786000000E9     4.650233429239064E-1   -1.268174283538352E-1   -2.647122610582776E-3   -2.670664318007019E-3   -2.716780044501482E-3   -2.686330083553354E-3    3.558142332331397E-1   -3.397497785675406E-1
 9.937612219875000E9     4.648500163543496E-1   -1.267093485681978E-1   -2.664099803451005E-3   -2.688129275899634E-3   -2.742707903723444E-3   -2.669516749661197E-3    3.553667349123141E-1   -3.397655162382021E-1
 9.937613653750000E9     4.649267635153640E-1   -1.269849969963438E-1   -2.711934705236443E-3   -2.697895434285766E-3   -2.780673622548677E-3   -2.713227359668596E-3    3.551536966755309E-1   -3.398774660639127E-1
 9.937615087625000E9     4.649276432416047E-1   -1.271103523680825E-1   -2.731498748539169E-3   -2.757719793910825E-3   -2.867068897392972E-3   -2.746346938771495E-3    3.546599756341495E-1   -3.402533306009636E-1
 9.937616521500000E9     4.647370789363110E-1   -1.272867319104378E-1   -2.758447628590004E-3   -2.784752193588803E-3   -2.853356425166420E-3   -2.746608050684168E-3    3.543239150352575E-1   -3.405686176201941E-1
 9.937617955375000E9     4.647604433375068E-1   -1.273394798553862E-1   -2.864035617871438E-3   -2.805523474435091E-3   -2.876550175449026E-3   -2.812625190939274E-3    3.540441012175018E-1   -3.408443913901741E-1
 9.937619389250000E9     4.648150559427372E-1   -1.272870049331521E-1   -2.831059315607992E-3   -2.832362069808452E-3   -2.915718024933701E-3   -2.824839798767544E-3    3.537852062846877E-1   -3.409080132774719E-1
 9.937620823125000E9     4.647001182784136E-1   -1.275843062175395E-1   -2.858770920222977E-3   -2.866725803533034E-3   -2.943732177280053E-3   -2.855721777373158E-3    3.531820376932860E-1   -3.412788777857934E-1
 9.937622257000000E9     4.647579202609073E-1   -1.276258356963703E-1   -2.933587368711564E-3   -2.914244771507470E-3   -2.978574059043355E-3   -2.850402644038892E-3    3.528222606586219E-1   -3.415018707806434E-1
 9.937623690875000E9     4.645831601804744E-1   -1.277687931987874E-1   -2.970197603086326E-3   -2.907745485895080E-3   -3.041125756677634E-3   -2.897894727942996E-3    3.523054282331610E-1   -3.416981593252839E-1
 9.937625124750000E9     4.646823232516762E-1   -1.279478079104214E-1   -2.974683406669758E-3   -2.966127551400069E-3   -3.051741898037008E-3   -2.976390771146838E-3    3.521222696441147E-1   -3.419945417214839E-1
 9.937626558625000E9     4.645732053527886E-1   -1.278776081092516E-1   -3.013859066625495E-3   -2.941523845653139E-3   -3.124338791837517E-3   -2.963042663611627E-3    3.516361533368743E-1   -3.421381810136676E-1
 9.937627992500000E9     4.646415048259136E-1   -1.278582570167151E-1   -3.049002486394728E-3   -2.992590503532026E-3   -3.156522032519421E-3   -3.023501286198860E-3    3.513770661063705E-1   -3.422664488691524E-1
 9.937629426375000E9     4.646373024648697E-1   -1.280933463703332E-1   -3.111398880233551E-3   -3.042220585826946E-3   -3.190904529874638E-3   -3.027099470597403E-3    3.508620224061634E-1   -3.425368193978811E-1
 9.937630860250000E9     4.645526019738010E-1   -1.282428359882447E-1   -3.101379745745504E-3   -3.055272974547745E-3   -3.199806522802144E-3   -3.071355162635027E-3    3.504420527445649E-1   -3.429509563269961E-1
 9.937632294125000E9     4.645119846137302E-1   -1.283136788353060E-1   -3.181314965514403E-3   -3.102574070153350E-3   -3.271698251605398E-3   -3.083605662698361E-3    3.497672768834494E-1   -3.430310172164828E-1
 9.937633728000000E9     4.643279480085534E-1   -1.282972067158854E-1   -3.204200528447993E-3   -3.088852997603081E-3   -3.305782463080202E-3   -3.139002236948153E-3    3.493602679890814E-1   -3.432593590320601E-1
 9.937635161875000E9     4.644510289515711E-1   -1.284321256814366E-1   -3.259481989121956E-3   -3.146871364717560E-3   -3.389091352543448E-3   -3.134526866048588E-3    3.487116521324514E-1   -3.437402085236271E-1
 9.937636595750000E9     4.643316858822767E-1   -1.285325336876126E-1   -3.296107811781838E-3   -3.195738001677696E-3   -3.404319901050027E-3   -3.191407078271018E-3    3.484140131289978E-1   -3.441017649595626E-1
 9.937638029625000E9     4.643073788401562E-1   -1.286750981731760E-1   -3.348110219169643E-3   -3.232152273263048E-3   -3.463429562597730E-3   -3.187852554607006E-3    3.480804718243405E-1   -3.442936435732391E-1
 9.937639463500000E9     4.641510549752292E-1   -1.287670357199406E-1   -3.381846772716278E-3   -3.210210069613314E-3   -3.517257438803412E-3   -3.256392528612317E-3    3.475607807598560E-1   -3.444730821378166E-1
 9.937640897375000E9     4.642716153572649E-1   -1.289300645036628E-1   -3.432530221552130E-3   -3.266677378643722E-3   -3.509519853899588E-3   -3.285174038073232E-3    3.471850496607777E-1   -3.447735638229251E-1
 9.937642331250000E9     4.641018899540846E-1   -1.289361811187941E-1   -3.472361064258243E-3   -3.328479772748601E-3   -3.597729605177826E-3   -3.330818763980705E-3    3.466863960366587E-1   -3.450875398589001E-1
 9.937643765125000E9     4.641642414618287E-1   -1.291849266996072E-1   -3.537277549405704E-3   -3.339774980422885E-3   -3.652675013915288E-3   -3.363838435758809E-3    3.461116987934486E-1   -3.452275095043726E-1
 9.937645199000000E9     4.641797833615324E-1   -1.292429676035740E-1   -3.590468261326456E-3   -3.394976272328283E-3   -3.684438689571707E-3   -3.375277801123770E-3    3.456092835798090E-1   -3.456413892630817E-1
 9.937646632875000E9     4.640697240169300E-1   -1.292425309724916E-1   -3.621222229503768E-3   -3.441029797195340E-3   -3.735921391869477E-3   -3.430563383431993E-3    3.452034970518269E-1   -3.458123806601410E-1
 9.937648066750000E9     4.640576763874141E-1   -1.293146494066508E-1   -3.642375715307530E-3   -3.448919528849939E-3   -3.802556742008710E-3   -3.447249487114961E-3    3.446920239987018E-1   -3.462323471297734E-1
