#  HZ   S   RI   R     50.00 
! Rohde & Schwarz Vector Network Analyzer 
! Rohde-Schwarz,ZNB20-2Port,1311601062101988,3.16
! Created: UTC 12/23/2023, 3:48:22 AM
! freq[Hz]                re:S11                  im:S11                  re:S21                  im:S21                  re:S12                  im:S12                  re:S22                  im:S22
 7.836920765000000E9     5.645114648497238E-1    4.092759140481333E-2    1.178791053235580E-3    3.760933662743971E-3    1.203442795408022E-3    3.700666795024673E-3    4.698265894028383E-1   -2.652248772774159E-1
 7.836954281625000E9     5.647973243463310E-1    3.865455541788018E-2    1.200282586683776E-3    3.763528397086223E-3    1.209988143971809E-3    3.675819072420638E-3    4.686256328940903E-1   -2.673797966101223E-1
 7.836987798250000E9     5.648484177041810E-1    3.651555614375061E-2    1.197038783611962E-3    3.763243068590161E-3    1.228118734381143E-3    3.704988482795409E-3    4.675126895734107E-1   -2.693604840385631E-1
 7.837021314875000E9     5.651575922823275E-1    3.445834097926469E-2    1.226206474186918E-3    3.756229244173208E-3    1.260113371835053E-3    3.658420724681250E-3    4.662520127375443E-1   -2.713299029234307E-1
 7.837054831500000E9     5.653634843340549E-1    3.213432381971873E-2    1.245236101439491E-3    3.771510655314837E-3    1.220209810804302E-3    3.697529424359683E-3    4.651743969627662E-1   -2.735649990330670E-1
 7.837088348125000E9     5.653362609859681E-1    2.990077411378620E-2    1.261278909951396E-3    3.742440738755325E-3    1.275856025457313E-3    3.706434818232612E-3    4.639557016385969E-1   -2.755037695012126E-1
 7.837121864750000E9     5.656622962904950E-1    2.773587450568005E-2    1.289224398925923E-3    3.740072549860762E-3    1.304727498576444E-3    3.733021057268554E-3    4.626478445059461E-1   -2.775059481732984E-1
 7.837155381375000E9     5.656430588922327E-1    2.549647663885812E-2    1.302700601969871E-3    3.776226065940054E-3    1.311980618334868E-3    3.675023575919652E-3    4.616078526543280E-1   -2.794889744097414E-1
 7.837188898000000E9     5.658374293922674E-1    2.331382779121696E-2    1.330610662307192E-3    3.752986738035807E-3    1.354098596535193E-3    3.715415964878554E-3    4.602864859263951E-1   -2.815436064262147E-1
 7.837222414625000E9     5.659009007109481E-1    2.095367724859560E-2    1.324806755255714E-3    3.743003755561759E-3    1.325823745191379E-3    3.679175672569271E-3    4.590314449315777E-1   -2.836115052979151E-1
 7.837255931250000E9     5.659227921237449E-1    1.885713148061761E-2    1.331061674282353E-3    3.749947581444750E-3    1.369981773335679E-3    3.681343785676460E-3    4.579566261589980E-1   -2.855665838932862E-1
 7.837289447875000E9     5.660510690188528E-1    1.656281008196500E-2    1.363034512590593E-3    3.770430455722397E-3    1.416997339447866E-3    3.690271132775124E-3    4.566436171492461E-1   -2.876048337193556E-1
 7.837322964500000E9     5.660539723376269E-1    1.425647145195598E-2    1.372572725812078E-3    3.746918151703122E-3    1.388707186288119E-3    3.679073315823542E-3    4.552974280446227E-1   -2.895296269255052E-1
 7.837356481125000E9     5.662827467619674E-1    1.202466320047700E-2    1.411293584111735E-3    3.760927006469256E-3    1.420228104047089E-3    3.679524268915859E-3    4.541696711115739E-1   -2.914153009196728E-1
 7.837389997750000E9     5.662836170037902E-1    9.860159058659859E-3    1.409150383367118E-3    3.753464585262684E-3    1.451604952937030E-3    3.685450633057699E-3    4.529798026702266E-1   -2.933508020329072E-1
 7.837423514375000E9     5.663597939167638E-1    7.624290903504157E-3    1.450149866890292E-3    3.760981088813580E-3    1.441055466041658E-3    3.671470201506861E-3    4.515729200669222E-1   -2.953821422260596E-1
 7.837457031000000E9     5.665068715584719E-1    5.397093001311615E-3    1.457661885443861E-3    3.745386560543003E-3    1.494957072442188E-3    3.659618022420265E-3    4.504519509707574E-1   -2.975158676906443E-1
 7.837490547625000E9     5.664934860945892E-1    3.124683296087585E-3    1.472405001783965E-3    3.748757711787367E-3    1.491098943048132E-3    3.722748336405122E-3    4.489891567139402E-1   -2.993237617371603E-1
 7.837524064250000E9     5.664280804353580E-1    8.835074614386324E-4    1.510643573309691E-3    3.787566183984389E-3    1.528131427791029E-3    3.686349811079908E-3    4.478157528645300E-1   -3.013605532422190E-1
 7.837557580875000E9     5.664790914919468E-1   -1.234549408119720E-3    1.540733600658863E-3    3.734171804012998E-3    1.545543900265640E-3    3.683919426109389E-3    4.464652560791375E-1   -3.032856568165945E-1
 7.837591097500000E9     5.664162223421102E-1   -3.514229533466309E-3    1.538924544920825E-3    3.748167408012453E-3    1.546986264123259E-3    3.706312209673812E-3    4.451359897089348E-1   -3.052791107424619E-1
 7.837624614125000E9     5.665007474105940E-1   -5.585747198996351E-3    1.571557698714461E-3    3.739562872324869E-3    1.571478767560625E-3    3.678462790133997E-3    4.437054795193148E-1   -3.071922062474131E-1
 7.837658130750000E9     5.664095452228173E-1   -7.953532524318737E-3    1.595481903681207E-3    3.767363289094482E-3    1.606159435172056E-3    3.660664632509204E-3    4.424804584578874E-1   -3.089583102383937E-1
 7.837691647375000E9     5.664033951842956E-1   -1.020064846854836E-2    1.599201267315641E-3    3.732560486129515E-3    1.603688821776740E-3    3.664282982185786E-3    4.411743796430119E-1   -3.110276206780929E-1
 7.837725164000000E9     5.665171581405446E-1   -1.242326440383084E-2    1.622253706203282E-3    3.746862700911249E-3    1.615728743278932E-3    3.683698497932314E-3    4.397765486654133E-1   -3.130110628695512E-1
 7.837758680625000E9     5.662921415703720E-1   -1.451603724767969E-2    1.640407217278723E-3    3.720432602918753E-3    1.648480470560682E-3    3.655837445779519E-3    4.384152341331818E-1   -3.148807586428821E-1
 7.837792197250000E9     5.662118550189694E-1   -1.676310121573846E-2    1.641785066338384E-3    3.734121322566733E-3    1.624298553616335E-3    3.662597541927745E-3    4.370439756476451E-1   -3.166783041287151E-1
 7.837825713875000E9     5.662980811205648E-1   -1.917981619524382E-2    1.656594423528018E-3    3.744079174024425E-3    1.683436951915622E-3    3.628431752868858E-3    4.357284069121952E-1   -3.188198586087691E-1
 7.837859230500000E9     5.662362932174834E-1   -2.141780148294912E-2    1.713023481177590E-3    3.714219668374693E-3    1.700412360039347E-3    3.674531888949212E-3    4.342875951172219E-1   -3.204833613145665E-1
 7.837892747125000E9     5.660959268983854E-1   -2.366634854784840E-2    1.738943884429750E-3    3.753866213602705E-3    1.708006347068024E-3    3.664045417330225E-3    4.329294255461245E-1   -3.224499817033578E-1
 7.837926263750000E9     5.661317500182551E-1   -2.581972692184308E-2    1.740150423690560E-3    3.729176558115675E-3    1.735887447880837E-3    3.682877035645816E-3    4.315639362560793E-1   -3.243468237619852E-1
 7.837959780375000E9     5.661352585358602E-1   -2.813625645203714E-2    1.773940629264814E-3    3.741386513731421E-3    1.761398220308580E-3    3.719804093888926E-3    4.301705014950943E-1   -3.263028917626660E-1
 7.837993297000000E9     5.658533388393471E-1   -3.015890219964549E-2    1.795930384566121E-3    3.745022108455199E-3    1.789084748780317E-3    3.690339463961022E-3    4.287602850561448E-1   -3.281309082400843E-1
 7.838026813625000E9     5.658076237737977E-1   -3.252806072506090E-2    1.798624750646051E-3    3.741606726903827E-3    1.768408910051867E-3    3.658888093724522E-3    4.273371532196489E-1   -3.299282276120004E-1
 7.838060330250000E9     5.656371333267310E-1   -3.483785022250530E-2    1.826192208180077E-3    3.689784036335116E-3    1.803922129114296E-3    3.677721024142898E-3    4.259413314639121E-1   -3.319736086639868E-1
 7.838093846875000E9     5.655560164218673E-1   -3.688941267228755E-2    1.878783979746931E-3    3.733833520478460E-3    1.823752173393075E-3    3.663869679124697E-3    4.243777201394396E-1   -3.337941050097724E-1
 7.838127363500000E9     5.653875992278904E-1   -3.908715409535687E-2    1.868518028351069E-3    3.745013593318622E-3    1.857530664656871E-3    3.686764950340548E-3    4.229425646659868E-1   -3.357228464055040E-1
 7.838160880125000E9     5.652301661970865E-1   -4.154261059071644E-2    1.896724496326512E-3    3.741803798036853E-3    1.867339530038068E-3    3.668725837617137E-3    4.216190248187092E-1   -3.374196271166769E-1
 7.838194396750000E9     5.649074209136890E-1   -4.368899731973069E-2    1.900260094384125E-3    3.735580281610402E-3    1.893013977201431E-3    3.690039032247713E-3    4.200994568542474E-1   -3.392575145841634E-1
 7.838227913375000E9     5.648115911784989E-1   -4.580055792239457E-2    1.928441962984805E-3    3.726162434430803E-3    1.915502608619488E-3    3.677509810424949E-3    4.184863124773418E-1   -3.412740261504721E-1
 7.838261430000000E9     5.647508755631212E-1   -4.823141146727738E-2    1.945661768384226E-3    3.715831723356058E-3    1.930420142416386E-3    3.666558384993873E-3    4.169369778105925E-1   -3.429555776668697E-1
 7.838294946625000E9     5.643767399934780E-1   -5.026127638072631E-2    1.956010094415985E-3    3.727780999690155E-3    2.006628203286249E-3    3.680698123021950E-3    4.156375875031676E-1   -3.447241355636919E-1
 7.838328463250000E9     5.643030123583761E-1   -5.254272499810800E-2    1.986229756591872E-3    3.715723365728764E-3    1.984948977741642E-3    3.653255715156107E-3    4.140685268368735E-1   -3.467973202573091E-1
 7.838361979875000E9     5.641215566399123E-1   -5.498713781788969E-2    2.023491222019053E-3    3.724580707333116E-3    2.009293452600853E-3    3.646020937693917E-3    4.127157227917370E-1   -3.484504220299881E-1
 7.838395496500000E9     5.639254733389497E-1   -5.699256007280473E-2    2.033705930144298E-3    3.712623096466748E-3    2.024656276127089E-3    3.672253486448702E-3    4.111761852565445E-1   -3.502924528160545E-1
 7.838429013125000E9     5.637084630430326E-1   -5.922742457282647E-2    2.066909901229575E-3    3.715054912273983E-3    2.060389738659509E-3    3.684777492787763E-3    4.095316660007315E-1   -3.519192623995016E-1
 7.838462529750000E9     5.634637036299397E-1   -6.132517643795513E-2    2.074436771713267E-3    3.726308109297154E-3    2.096993123021734E-3    3.638012428297134E-3    4.080595239833203E-1   -3.537363926010229E-1
 7.838496046375000E9     5.632156389867883E-1   -6.363443614196138E-2    2.122864063944471E-3    3.708328246433911E-3    2.112874176740961E-3    3.636768331544445E-3    4.065467229917259E-1   -3.555500111472067E-1
 7.838529563000000E9     5.629515170949952E-1   -6.590139870515573E-2    2.128574032017072E-3    3.701195238589334E-3    2.140173049887905E-3    3.659354495473546E-3    4.048796495064484E-1   -3.573329347679870E-1
 7.838563079625000E9     5.626871349259016E-1   -6.821229596152320E-2    2.156185093425047E-3    3.714446215682239E-3    2.129927092919486E-3    3.668171450905915E-3    4.033817832871114E-1   -3.591143085522499E-1
 7.838596596250000E9     5.624080811972120E-1   -7.035771959175781E-2    2.173027042880888E-3    3.675817757272077E-3    2.142623585940616E-3    3.640344885132504E-3    4.019262650250142E-1   -3.607599340710615E-1
 7.838630112875000E9     5.621861847003317E-1   -7.250200607591029E-2    2.187414015619739E-3    3.709702440919485E-3    2.130200224287331E-3    3.656656267979448E-3    4.003633575526002E-1   -3.625711282471844E-1
 7.838663629500000E9     5.618404756879395E-1   -7.486713197670186E-2    2.202329482411666E-3    3.717007372744111E-3    2.204569120270390E-3    3.632872799518648E-3    3.986623571602175E-1   -3.643453732693872E-1
 7.838697146125000E9     5.615426462684602E-1   -7.703260046252750E-2    2.246920510301574E-3    3.696378673112829E-3    2.216653080178646E-3    3.646763444977431E-3    3.971096777963931E-1   -3.661509191368630E-1
 7.838730662750000E9     5.611420280360032E-1   -7.927058151902293E-2    2.233173445307812E-3    3.699236317199539E-3    2.228747103205842E-3    3.644575639773080E-3    3.956171494016688E-1   -3.677732761934122E-1
 7.838764179375000E9     5.610498964869430E-1   -8.142415415504996E-2    2.280123303784119E-3    3.694084483567723E-3    2.225731030056605E-3    3.641126065466325E-3    3.939498514022887E-1   -3.696536058303716E-1
 7.838797696000000E9     5.606496177656936E-1   -8.371338325080402E-2    2.301138093727364E-3    3.719188360052780E-3    2.281936594055089E-3    3.625841845640725E-3    3.923454592104757E-1   -3.713034498786316E-1
 7.838831212625000E9     5.602033034666133E-1   -8.587381170972896E-2    2.321686408926124E-3    3.706681397569201E-3    2.295372183018617E-3    3.596866110850589E-3    3.907111402488964E-1   -3.730122019639098E-1
 7.838864729250000E9     5.597996465167597E-1   -8.808837034970020E-2    2.328674779887159E-3    3.691238290186459E-3    2.319466700925683E-3    3.652174666077991E-3    3.890866349046719E-1   -3.747381113210880E-1
 7.838898245875000E9     5.594678657557443E-1   -9.037291513851888E-2    2.377617973869583E-3    3.685813553552620E-3    2.380796698998714E-3    3.608790350273249E-3    3.874868690243828E-1   -3.764197684252067E-1
 7.838931762500000E9     5.591194161355345E-1   -9.263586594404202E-2    2.398930782543486E-3    3.692826440301151E-3    2.385866357173298E-3    3.636937857134207E-3    3.858961941874674E-1   -3.780292874904700E-1
 7.838965279125000E9     5.589076296182389E-1   -9.478648719613737E-2    2.428278451300610E-3    3.674920632146024E-3    2.418021372162950E-3    3.606359097012688E-3    3.842323139615772E-1   -3.799241191286613E-1
 7.838998795750000E9     5.584482563634178E-1   -9.708367477007246E-2    2.423429934954989E-3    3.677174203128472E-3    2.398047010474075E-3    3.608452128799844E-3    3.827002386856202E-1   -3.814787217497289E-1
 7.839032312375000E9     5.581023125481253E-1   -9.932410462704036E-2    2.479666333122907E-3    3.661894824587212E-3    2.459977400518247E-3    3.645478264583439E-3    3.808837052403569E-1   -3.831084099344245E-1
 7.839065829000000E9     5.578088618137851E-1   -1.013757966211500E-1    2.495271017279142E-3    3.662707103248890E-3    2.484242305197033E-3    3.624386371585803E-3    3.791930814124518E-1   -3.849183029898490E-1
 7.839099345625000E9     5.574056680862386E-1   -1.036390230217919E-1    2.514103735554077E-3    3.666405578920176E-3    2.489413732469358E-3    3.615302944164764E-3    3.775823948102495E-1   -3.863129890999663E-1
 7.839132862250000E9     5.570091106121674E-1   -1.058254639982821E-1    2.552003758780722E-3    3.676642169656955E-3    2.504266817309499E-3    3.628754539986697E-3    3.759529317938530E-1   -3.882211902388369E-1
 7.839166378875000E9     5.565944482101567E-1   -1.080574410707912E-1    2.572746190539572E-3    3.665502735960598E-3    2.542633595131788E-3    3.625832491439653E-3    3.741578329546655E-1   -3.897680317221908E-1
 7.839199895500000E9     5.560517025829421E-1   -1.101842575090992E-1    2.599199285210313E-3    3.711155179451436E-3    2.569961474549317E-3    3.637274600114353E-3    3.725550077104624E-1   -3.913658283904961E-1
 7.839233412125000E9     5.555544914796307E-1   -1.124349721372317E-1    2.626325693807378E-3    3.619690573540605E-3    2.578466206668373E-3    3.622446285008264E-3    3.707707903772618E-1   -3.928915465512921E-1
 7.839266928750000E9     5.552139267557238E-1   -1.145923569763809E-1    2.629793646552478E-3    3.676579586229959E-3    2.605079281190616E-3    3.611669673222335E-3    3.691548599041734E-1   -3.946626212572678E-1
 7.839300445375000E9     5.546043964239168E-1   -1.168175940897584E-1    2.662762267135996E-3    3.652269217026396E-3    2.621836513325084E-3    3.615230756457100E-3    3.674598360422371E-1   -3.962233501736500E-1
 7.839333962000000E9     5.542257384017936E-1   -1.191154617945880E-1    2.680022497137539E-3    3.661006405069390E-3    2.658977461997882E-3    3.626479757460459E-3    3.656431853946800E-1   -3.979470059851809E-1
 7.839367478625000E9     5.535657359501034E-1   -1.212338291854361E-1    2.724486501409001E-3    3.653970037656904E-3    2.688376675633063E-3    3.596295867709482E-3    3.640179834202248E-1   -3.994962060343166E-1
 7.839400995250000E9     5.532381679074313E-1   -1.232839725117245E-1    2.776841486018553E-3    3.655652610724603E-3    2.715918689355315E-3    3.614357658118583E-3    3.621652149286403E-1   -4.009044546979962E-1
 7.839434511875000E9     5.527069245530914E-1   -1.257978756106777E-1    2.760598864212805E-3    3.631328487252017E-3    2.701853534186956E-3    3.588430315511097E-3    3.603453231458861E-1   -4.026020229802993E-1
 7.839468028500000E9     5.522328544901185E-1   -1.277409572567508E-1    2.808293645236441E-3    3.654466834453361E-3    2.738144404340539E-3    3.585534717724686E-3    3.588202623140254E-1   -4.041856763293987E-1
 7.839501545125000E9     5.517593122317233E-1   -1.300223530361072E-1    2.829816643365447E-3    3.661306940458948E-3    2.795273110111285E-3    3.600393129123897E-3    3.569920304377290E-1   -4.057725821854870E-1
 7.839535061750000E9     5.512497760094903E-1   -1.321474649837240E-1    2.830085847303449E-3    3.634654642829215E-3    2.786729521390992E-3    3.592283476808560E-3    3.553379576604624E-1   -4.073104219883746E-1
 7.839568578375000E9     5.506412757183964E-1   -1.344739610084454E-1    2.870748699390102E-3    3.631846052448687E-3    2.822734053115965E-3    3.578067921996840E-3    3.534960149747821E-1   -4.088021325842767E-1
 7.839602095000000E9     5.501776401786878E-1   -1.366932018940086E-1    2.888932662519118E-3    3.631710197465811E-3    2.876433300495627E-3    3.625476929879697E-3    3.515699137866598E-1   -4.104586551789651E-1
 7.839635611625000E9     5.497144618022589E-1   -1.388588342622565E-1    2.915823504759345E-3    3.645889886576937E-3    2.872865679591528E-3    3.582908150057823E-3    3.499782749663087E-1   -4.118532016455010E-1
 7.839669128250000E9     5.491235726023078E-1   -1.409036831324255E-1    2.981122171892908E-3    3.618377535915920E-3    2.900038851387814E-3    3.590592762495251E-3    3.481564936681926E-1   -4.133439604169936E-1
 7.839702644875000E9     5.485278558035261E-1   -1.431698018706501E-1    2.982496177204407E-3    3.635477140152857E-3    2.926924518168091E-3    3.603325170090477E-3    3.461802294179150E-1   -4.148917102809956E-1
 7.839736161500000E9     5.478043531214939E-1   -1.453346601765118E-1    2.999659205348035E-3    3.624617379391834E-3    2.963579698742530E-3    3.574234243074426E-3    3.445211368547362E-1   -4.164267880780597E-1
 7.839769678125000E9     5.473116733836296E-1   -1.474655920942582E-1    3.047345507707147E-3    3.626250261867707E-3    2.992111392369154E-3    3.577865918446875E-3    3.426681935338571E-1   -4.180322828698948E-1
 7.839803194750000E9     5.467337535602539E-1   -1.497124804730904E-1    3.072243504133025E-3    3.608920321326644E-3    3.043107027411938E-3    3.604703585741329E-3    3.407976924336161E-1   -4.193627721694124E-1
 7.839836711375000E9     5.461599135867489E-1   -1.518712424477395E-1    3.111204012193628E-3    3.625884749109504E-3    3.025057055700278E-3    3.592865378228232E-3    3.392292946402040E-1   -4.209215404312193E-1
 7.839870228000000E9     5.455725840717058E-1   -1.539790769938753E-1    3.120200194635146E-3    3.597366823979759E-3    3.073359252867996E-3    3.589753694285543E-3    3.373003212069659E-1   -4.224652470270427E-1
 7.839903744625000E9     5.448398991337196E-1   -1.562126902011801E-1    3.161998951990583E-3    3.606152164742724E-3    3.105801004879122E-3    3.611899931998441E-3    3.354933205993712E-1   -4.238764057273739E-1
 7.839937261250000E9     5.441681310599595E-1   -1.583594573490387E-1    3.173587125943167E-3    3.606239986015326E-3    3.154437392022464E-3    3.556716827645325E-3    3.335869329876652E-1   -4.253344367061276E-1
