#  HZ   S   RI   R     50.00 
! Rohde & Schwarz Vector Network Analyzer 
! Rohde-Schwarz,ZNB20-2Port,1311601062101988,3.16
! Created: UTC 12/23/2023, 3:50:51 AM
! freq[Hz]                re:S11                  im:S11                  re:S21                  im:S21                  re:S12                  im:S12                  re:S22                  im:S22
 7.836841250000000E9     5.641668784295594E-1    4.620548051524949E-2    1.137394197593932E-3    3.771961267990545E-3    1.134526032709177E-3    3.693707676942663E-3    4.722975571697519E-1   -2.605344724817494E-1
 7.836875005750000E9     5.643336900785600E-1    4.396824956438532E-2    1.124785006386917E-3    3.790383808215431E-3    1.194941224287564E-3    3.718792292854285E-3    4.712630777570267E-1   -2.625627921181599E-1
 7.836908761500000E9     5.645571713814941E-1    4.167212994320018E-2    1.150925427292122E-3    3.797023818645167E-3    1.189097346087020E-3    3.701951338662016E-3    4.700673890070618E-1   -2.646160256932486E-1
 7.836942517250000E9     5.646708083417469E-1    3.958651063277094E-2    1.177685624993347E-3    3.767303141423203E-3    1.198846244516581E-3    3.701613974268264E-3    4.689391406875036E-1   -2.667088886544009E-1
 7.836976273000000E9     5.649277942807709E-1    3.737553903792517E-2    1.180106909907808E-3    3.768713036563397E-3    1.219204722653870E-3    3.706880580171392E-3    4.678371137607669E-1   -2.687853090473224E-1
 7.837010028750000E9     5.651040791010766E-1    3.495955096421255E-2    1.205999008648048E-3    3.791687101614508E-3    1.224834523808186E-3    3.718251340294740E-3    4.665963254367898E-1   -2.708714810159559E-1
 7.837043784500000E9     5.653493749012244E-1    3.274414153341132E-2    1.222990725773430E-3    3.767533703028929E-3    1.257873870458390E-3    3.737949592201939E-3    4.655086063727674E-1   -2.727835645346376E-1
 7.837077540250000E9     5.653670244062580E-1    3.052870101547843E-2    1.251661380883961E-3    3.766134658452135E-3    1.268707682662409E-3    3.676342799875950E-3    4.642641655034010E-1   -2.749560084548346E-1
 7.837111296000000E9     5.654971647391628E-1    2.837634679451421E-2    1.281507080230008E-3    3.773534123412051E-3    1.298336818606532E-3    3.720972169234829E-3    4.631132321365043E-1   -2.770162652123221E-1
 7.837145051750000E9     5.657868344264182E-1    2.608593985520808E-2    1.298598119653714E-3    3.775442005038169E-3    1.315662540548538E-3    3.715895269898613E-3    4.617198106233560E-1   -2.789399608037354E-1
 7.837178807500000E9     5.658014012581891E-1    2.393353730250461E-2    1.320085062261785E-3    3.765460492735637E-3    1.335421715594982E-3    3.715976155004959E-3    4.606881439144974E-1   -2.809564434413708E-1
 7.837212563250000E9     5.658499405933687E-1    2.155980759351807E-2    1.371823440825553E-3    3.772880671565636E-3    1.372047645898208E-3    3.747011420488432E-3    4.594132892864344E-1   -2.830041893019620E-1
 7.837246319000000E9     5.658781744288742E-1    1.941801827975260E-2    1.369862650769575E-3    3.756648536870551E-3    1.344822229611674E-3    3.716244848755010E-3    4.580775026750143E-1   -2.851476121593008E-1
 7.837280074750000E9     5.659586381851242E-1    1.728855007401966E-2    1.370514078315129E-3    3.781905344777174E-3    1.386799838214153E-3    3.692443138627967E-3    4.570311105898202E-1   -2.871166411336150E-1
 7.837313830500000E9     5.660604784809823E-1    1.494272012573195E-2    1.383182067217946E-3    3.764279371259534E-3    1.385727421326430E-3    3.701345907303807E-3    4.557535449615342E-1   -2.889806403800740E-1
 7.837347586250000E9     5.661343575188597E-1    1.268339406368940E-2    1.420976577348405E-3    3.786850341303935E-3    1.441674093983368E-3    3.696517095120939E-3    4.543173492737875E-1   -2.908435554221298E-1
 7.837381342000000E9     5.663005136823832E-1    1.054976414221902E-2    1.408233244528705E-3    3.744442645247880E-3    1.474708358135866E-3    3.724362478364717E-3    4.531462184901762E-1   -2.931957504643413E-1
 7.837415097750000E9     5.662646672582924E-1    8.221420234527091E-3    1.423764738407704E-3    3.770395485814271E-3    1.470131132541740E-3    3.680756334067609E-3    4.517800211392197E-1   -2.949767624949581E-1
 7.837448853500000E9     5.663406338060779E-1    5.880058770545993E-3    1.463484807146779E-3    3.788890626550449E-3    1.495016564470931E-3    3.690170272682158E-3    4.506166794328301E-1   -2.970777808154256E-1
 7.837482609250000E9     5.664470080934411E-1    3.730197242704402E-3    1.510742891075694E-3    3.777625317337360E-3    1.515282090652469E-3    3.680589317137994E-3    4.491833667970733E-1   -2.989551730377302E-1
 7.837516365000000E9     5.664099121747808E-1    1.543143017421239E-3    1.496311771124289E-3    3.755794441280053E-3    1.485668237829032E-3    3.706228141969178E-3    4.481216393668924E-1   -3.009304374591865E-1
 7.837550120750000E9     5.664694107890152E-1   -7.929788326739803E-4    1.520689649430981E-3    3.755366080983379E-3    1.530171962417574E-3    3.682362315360735E-3    4.466888940797175E-1   -3.028656903539041E-1
 7.837583876500000E9     5.663967480846590E-1   -2.988396849614663E-3    1.553848730819783E-3    3.770869586889791E-3    1.553407513846971E-3    3.706010982467979E-3    4.454105453242817E-1   -3.048266801523536E-1
 7.837617632250000E9     5.665746260534000E-1   -5.146499407257923E-3    1.567430505300609E-3    3.780545345718151E-3    1.575246940532369E-3    3.679904040883988E-3    4.440504160323477E-1   -3.068566641589016E-1
 7.837651388000000E9     5.665256427492167E-1   -7.608927050817454E-3    1.596382511942334E-3    3.775034938018445E-3    1.584403619923687E-3    3.711015826097451E-3    4.426738014803939E-1   -3.087362182638707E-1
 7.837685143750000E9     5.665026896304982E-1   -9.904724554159330E-3    1.593992779719142E-3    3.762456689033932E-3    1.647758505981493E-3    3.706082752992649E-3    4.412157471517839E-1   -3.108077791714436E-1
 7.837718899500000E9     5.662465148062563E-1   -1.202214493438485E-2    1.606359883816570E-3    3.751276270906938E-3    1.616474663570130E-3    3.680327825724088E-3    4.401207370625193E-1   -3.127397852979940E-1
 7.837752655250000E9     5.662982630872575E-1   -1.421792693413484E-2    1.639500190475555E-3    3.760615602261751E-3    1.625324552615846E-3    3.688055919492116E-3    4.385777213640911E-1   -3.146139424806365E-1
 7.837786411000000E9     5.663303060829872E-1   -1.651762207232296E-2    1.687322417332116E-3    3.736862208011544E-3    1.643060407751948E-3    3.664100029843074E-3    4.371950461900674E-1   -3.165662566222799E-1
 7.837820166750000E9     5.662029186240163E-1   -1.870771584075206E-2    1.679986648990122E-3    3.767023653063529E-3    1.718828335545288E-3    3.685302444782886E-3    4.358159049886666E-1   -3.184557253844469E-1
 7.837853922500000E9     5.661729882992323E-1   -2.102821767144871E-2    1.690296736968058E-3    3.742306838436235E-3    1.712258786765331E-3    3.702291911390276E-3    4.344639698252958E-1   -3.203530312501826E-1
 7.837887678250000E9     5.662566868494633E-1   -2.315822945976025E-2    1.726066850444804E-3    3.747770489790093E-3    1.713535639722858E-3    3.709841474910402E-3    4.331279161050112E-1   -3.222940595918691E-1
 7.837921434000000E9     5.659987194811682E-1   -2.542710830600806E-2    1.755996474035926E-3    3.744650781862028E-3    1.736464119215697E-3    3.678508454167261E-3    4.317233513320070E-1   -3.241742777786996E-1
 7.837955189750000E9     5.660242452478734E-1   -2.770286402927251E-2    1.770401347759308E-3    3.742652072842926E-3    1.748326340685731E-3    3.707179136416693E-3    4.302318892123670E-1   -3.260749755203293E-1
 7.837988945500000E9     5.658814148350730E-1   -2.999270600559931E-2    1.792213237052057E-3    3.735683309887149E-3    1.796023501646947E-3    3.686366703369316E-3    4.287899755559364E-1   -3.279444517943207E-1
 7.838022701250000E9     5.656600101419901E-1   -3.225892771864796E-2    1.811806537578743E-3    3.742953771757200E-3    1.822413439102031E-3    3.660070206517377E-3    4.274229127135546E-1   -3.298535015682703E-1
 7.838056457000000E9     5.656541453437988E-1   -3.445176391887392E-2    1.825012328905915E-3    3.754705177615438E-3    1.824342660278192E-3    3.687756746665918E-3    4.260119904020798E-1   -3.317755575786617E-1
 7.838090212750000E9     5.654230711158211E-1   -3.668583543350170E-2    1.840690636989507E-3    3.765632157655091E-3    1.853258459700609E-3    3.686153906459147E-3    4.244714058748633E-1   -3.335699834344542E-1
 7.838123968500000E9     5.652038175226610E-1   -3.892363875853577E-2    1.867827758074686E-3    3.739141994005472E-3    1.863218425758138E-3    3.692352633893348E-3    4.230935478435006E-1   -3.355058300261042E-1
 7.838157724250000E9     5.652489051827603E-1   -4.120518602103318E-2    1.895801255891852E-3    3.720475733569178E-3    1.868518288663810E-3    3.682695595587932E-3    4.215167432991714E-1   -3.372947779639390E-1
 7.838191480000000E9     5.649714961944812E-1   -4.344888978554444E-2    1.916651169976628E-3    3.714915230131509E-3    1.884099666800320E-3    3.678194059456968E-3    4.201649283164942E-1   -3.391490114019329E-1
 7.838225235750000E9     5.648932236826161E-1   -4.578776250671283E-2    1.924179596453007E-3    3.725018659755370E-3    1.930690595211655E-3    3.666743948465571E-3    4.185473350109000E-1   -3.410839614644570E-1
 7.838258991500000E9     5.647823946816438E-1   -4.797063483353330E-2    1.929754356232241E-3    3.733181365134288E-3    1.970568859444243E-3    3.650747196348325E-3    4.172029452237535E-1   -3.430369249258519E-1
 7.838292747250000E9     5.644418557633039E-1   -5.010990912206389E-2    1.955659635407989E-3    3.731574990794210E-3    1.972635197084759E-3    3.660763500062705E-3    4.157455251370377E-1   -3.447432756542361E-1
 7.838326503000000E9     5.642677470550087E-1   -5.242091935718637E-2    2.005138206279889E-3    3.743166304499579E-3    1.987653810941206E-3    3.636595670762023E-3    4.141743696499604E-1   -3.464798148173779E-1
 7.838360258750000E9     5.642226327552816E-1   -5.460970423341206E-2    2.044184792315141E-3    3.728735150642605E-3    1.989264147301566E-3    3.648209422049261E-3    4.126865479840902E-1   -3.483620286111819E-1
 7.838394014500000E9     5.638602553750380E-1   -5.692450109312360E-2    2.057090041675878E-3    3.722265522565183E-3    2.046517717614664E-3    3.648485629879715E-3    4.111906417459795E-1   -3.502270322837819E-1
 7.838427770250000E9     5.636581695068080E-1   -5.906985832836638E-2    2.090267438186107E-3    3.722152669949814E-3    2.044746262824129E-3    3.633919387908123E-3    4.096845510851775E-1   -3.518691626814919E-1
 7.838461526000000E9     5.633784344470384E-1   -6.135975223675536E-2    2.085780933555524E-3    3.733336248398989E-3    2.103989213967499E-3    3.669880087489568E-3    4.080448020976397E-1   -3.537497830428108E-1
 7.838495281750000E9     5.631969312256564E-1   -6.371475744622962E-2    2.115517903837595E-3    3.725739309233413E-3    2.086530672078191E-3    3.699783157749415E-3    4.066327831807764E-1   -3.554885467952690E-1
 7.838529037500000E9     5.629646005533779E-1   -6.584829124211952E-2    2.142596659308016E-3    3.709053640660933E-3    2.107850539422070E-3    3.666083179133068E-3    4.049713938035832E-1   -3.574331597947571E-1
 7.838562793250000E9     5.626100401540447E-1   -6.819715260317138E-2    2.144143285271982E-3    3.726245329468700E-3    2.118849855258040E-3    3.657691168657574E-3    4.033754679916294E-1   -3.590159798560857E-1
 7.838596549000000E9     5.623485284698472E-1   -7.024836411974983E-2    2.188879144997249E-3    3.725577724446560E-3    2.202611561467679E-3    3.676518364527757E-3    4.017438180191650E-1   -3.608288988209793E-1
 7.838630304750000E9     5.621691637684165E-1   -7.263136952034814E-2    2.207385844616022E-3    3.707903440546739E-3    2.157457930647595E-3    3.681836759842693E-3    4.001657551235001E-1   -3.626781564995677E-1
 7.838664060500000E9     5.618142918833614E-1   -7.477910819590600E-2    2.231985711935622E-3    3.703720562821265E-3    2.176059190886162E-3    3.688458698017515E-3    3.985884180879635E-1   -3.644131006463311E-1
 7.838697816250000E9     5.615835414637449E-1   -7.707900701496227E-2    2.243006268308380E-3    3.687192300583492E-3    2.225019500972185E-3    3.677943889046605E-3    3.970311040978493E-1   -3.660654051196421E-1
 7.838731572000000E9     5.611654886281362E-1   -7.922562492612466E-2    2.247312590006566E-3    3.707161743702263E-3    2.270091820236057E-3    3.667931092077725E-3    3.955917711414428E-1   -3.678790721877488E-1
 7.838765327750000E9     5.608379505391422E-1   -8.155772945261856E-2    2.309741554092754E-3    3.684376425029678E-3    2.258857963647759E-3    3.647616507172179E-3    3.937336417860304E-1   -3.697190269388713E-1
 7.838799083500000E9     5.605525861952654E-1   -8.370208485982480E-2    2.308199838405419E-3    3.729815485269826E-3    2.290773373547213E-3    3.656100654886173E-3    3.920892180868392E-1   -3.714386864369099E-1
 7.838832839250000E9     5.601455878393937E-1   -8.606702840473895E-2    2.341328010615474E-3    3.696251869060031E-3    2.337552394570676E-3    3.626242007677832E-3    3.905502272858963E-1   -3.730313173297727E-1
 7.838866595000000E9     5.598844556856205E-1   -8.820489713735739E-2    2.373171096495326E-3    3.677445106087516E-3    2.328096673518813E-3    3.640665813749351E-3    3.889180771953494E-1   -3.747370403808268E-1
 7.838900350750000E9     5.595591425035614E-1   -9.042781491170490E-2    2.407780631638685E-3    3.709407471351142E-3    2.365896120133286E-3    3.662809494540533E-3    3.873958716177660E-1   -3.765597713121112E-1
 7.838934106500000E9     5.591889610384141E-1   -9.272241391665721E-2    2.430118300088581E-3    3.709585322499937E-3    2.391509973070765E-3    3.650748959703260E-3    3.857094009653058E-1   -3.780847708023507E-1
 7.838967862250000E9     5.588278040940921E-1   -9.491244708368611E-2    2.426540433708285E-3    3.691250635722324E-3    2.415221067786860E-3    3.661032851939687E-3    3.840555420589908E-1   -3.798660883359561E-1
 7.839001618000000E9     5.584596156074412E-1   -9.715933432552055E-2    2.475781269164071E-3    3.659330387185935E-3    2.440922100994550E-3    3.625013365408081E-3    3.823551075425513E-1   -3.815476870649853E-1
 7.839035373750000E9     5.579850577385784E-1   -9.944922714036988E-2    2.481448968751051E-3    3.687075646635924E-3    2.449254615149209E-3    3.628223573763854E-3    3.807358106778919E-1   -3.832846613733623E-1
 7.839069129500000E9     5.576665422986107E-1   -1.015756528643698E-1    2.514457350746584E-3    3.707587202545091E-3    2.484283283001755E-3    3.624133997004802E-3    3.792316568196287E-1   -3.849688941436716E-1
 7.839102885250000E9     5.571033645053178E-1   -1.037521465234188E-1    2.553693519523041E-3    3.657016156284430E-3    2.505658835393508E-3    3.626734680008479E-3    3.774663631296800E-1   -3.866048598865318E-1
 7.839136641000000E9     5.567476262486093E-1   -1.059104073500457E-1    2.545130119790142E-3    3.694703278477947E-3    2.519176903004261E-3    3.617611128115035E-3    3.756721949286949E-1   -3.882416358833251E-1
 7.839170396750000E9     5.565041449502816E-1   -1.082103849890115E-1    2.578956462440900E-3    3.687547243532397E-3    2.538189959571751E-3    3.664372059292606E-3    3.738081854430089E-1   -3.899183447694546E-1
 7.839204152500000E9     5.560606986077232E-1   -1.104677148821587E-1    2.591308808782176E-3    3.670665696355303E-3    2.595947355002690E-3    3.624724770364812E-3    3.722424123707022E-1   -3.916554787501206E-1
 7.839237908250000E9     5.554949565359943E-1   -1.126242665196219E-1    2.620966773477010E-3    3.689341573234728E-3    2.577946859236380E-3    3.591516693196621E-3    3.706442081962665E-1   -3.931971217521598E-1
 7.839271664000000E9     5.550928732306468E-1   -1.148607890520769E-1    2.636106411551823E-3    3.691448939946271E-3    2.638698925402025E-3    3.603723445291501E-3    3.687932679220994E-1   -3.948841274376051E-1
 7.839305419750000E9     5.546398728959052E-1   -1.171794771789656E-1    2.661658545879830E-3    3.663744470922513E-3    2.667643630124856E-3    3.609198662202957E-3    3.670625418637464E-1   -3.965821190892247E-1
 7.839339175500000E9     5.540983870270049E-1   -1.194514396064313E-1    2.708724867333859E-3    3.666986083591157E-3    2.647025078155181E-3    3.636778913631036E-3    3.653511823280745E-1   -3.982089783827749E-1
 7.839372931250000E9     5.536634179327397E-1   -1.216660008366054E-1    2.739432030278617E-3    3.664149629464152E-3    2.697768009593386E-3    3.631264003630375E-3    3.637378931574981E-1   -3.996967043757853E-1
 7.839406687000000E9     5.531197089846311E-1   -1.238625690976336E-1    2.759591856702390E-3    3.653562584710575E-3    2.743709592871446E-3    3.624244839873134E-3    3.619091008353171E-1   -4.014471105033796E-1
 7.839440442750000E9     5.527476902675468E-1   -1.259990907784237E-1    2.793235508473275E-3    3.672682937494819E-3    2.778891308892080E-3    3.607777413078661E-3    3.601883198156865E-1   -4.029530619019562E-1
 7.839474198500000E9     5.521806358495505E-1   -1.281042233994297E-1    2.819551723567238E-3    3.654944755516366E-3    2.767453852500234E-3    3.608751193164729E-3    3.583300734125006E-1   -4.044538040738929E-1
 7.839507954250000E9     5.517571441018918E-1   -1.304108402793952E-1    2.847857601615292E-3    3.662296928825097E-3    2.775655772208977E-3    3.646078881065536E-3    3.566452678229456E-1   -4.059751408680421E-1
 7.839541710000000E9     5.510853171542321E-1   -1.324786067325148E-1    2.852882475859232E-3    3.642297097828524E-3    2.810775368567981E-3    3.624878945301272E-3    3.549455062362619E-1   -4.075502880488693E-1
 7.839575465750000E9     5.505839822875324E-1   -1.346900603989868E-1    2.860276932214992E-3    3.653161714781808E-3    2.883124583728018E-3    3.593517057130497E-3    3.529499408690747E-1   -4.093719080099516E-1
 7.839609221500000E9     5.501330252887070E-1   -1.370687317879180E-1    2.907331373215855E-3    3.653251383761768E-3    2.909227522457007E-3    3.626534738538913E-3    3.512666645899464E-1   -4.107688993903035E-1
 7.839642977250000E9     5.493879069160478E-1   -1.392951262318700E-1    2.955261121850830E-3    3.635493026034599E-3    2.906107995141381E-3    3.583862869553985E-3    3.495451896229839E-1   -4.121108425847442E-1
 7.839676733000000E9     5.488735441003916E-1   -1.413988380908946E-1    2.994360521021032E-3    3.645075705228727E-3    2.934534778877476E-3    3.601080469588080E-3    3.476902575719298E-1   -4.138422075574917E-1
 7.839710488750000E9     5.482700441998059E-1   -1.437041440838110E-1    2.996548307745297E-3    3.616890431226515E-3    2.970025765869791E-3    3.587524670793658E-3    3.458794227300435E-1   -4.152136432785616E-1
 7.839744244500000E9     5.476410856320254E-1   -1.459708996463481E-1    3.037336695578592E-3    3.601638222538525E-3    2.994219335376348E-3    3.590663632769823E-3    3.439523944322779E-1   -4.168641166371493E-1
 7.839778000250000E9     5.472383989253697E-1   -1.480710623343239E-1    3.061791288619229E-3    3.630074933717035E-3    3.016933989686242E-3    3.615977371386409E-3    3.421995614721905E-1   -4.182993192956863E-1
 7.839811756000000E9     5.466221734408797E-1   -1.501672729807317E-1    3.095316509486378E-3    3.632230645358068E-3    3.043065896424445E-3    3.580693237234208E-3    3.403642517627300E-1   -4.198948534404903E-1
 7.839845511750000E9     5.458418334438250E-1   -1.524112922743558E-1    3.116315977272576E-3    3.605734246599027E-3    3.093516706553673E-3    3.604871784787246E-3    3.386296973741753E-1   -4.214079608516520E-1
 7.839879267500000E9     5.452123688239137E-1   -1.545644874821319E-1    3.167651492425611E-3    3.598796036573359E-3    3.086998554289896E-3    3.617866299680715E-3    3.366293027827587E-1   -4.227600291593508E-1
