#  HZ   S   RI   R     50.00 
! Rohde & Schwarz Vector Network Analyzer 
! Rohde-Schwarz,ZNB20-2Port,1311601062101988,3.16
! Created: UTC 12/23/2023, 3:55:28 AM
! freq[Hz]                re:S11                  im:S11                  re:S21                  im:S21                  re:S12                  im:S12                  re:S22                  im:S22
 7.837031317000000E9     5.651429720603820E-1    3.397361752304948E-2    1.207946073742251E-3    3.757433669702828E-3    1.267751678773852E-3    3.700235105712555E-3    4.660560941130018E-1   -2.719874889038600E-1
 7.837064651225000E9     5.654597781874549E-1    3.172118272600498E-2    1.241638688609869E-3    3.716839366703432E-3    1.228019675688072E-3    3.683457285009616E-3    4.649081381048469E-1   -2.739102740355354E-1
 7.837097985450000E9     5.654931190561274E-1    2.941634112232679E-2    1.239452003125075E-3    3.765246634677764E-3    1.255054278043579E-3    3.703862817261273E-3    4.637099485122333E-1   -2.759328534610214E-1
 7.837131319675000E9     5.654803749798885E-1    2.732369477528518E-2    1.242618045919380E-3    3.776018708421869E-3    1.282802769215237E-3    3.693109760364349E-3    4.625573789625321E-1   -2.778244990433996E-1
 7.837164653900000E9     5.658785530706197E-1    2.512565816296461E-2    1.294637645853644E-3    3.731034132410053E-3    1.296275122063625E-3    3.701021711839092E-3    4.613014699401038E-1   -2.799524221881665E-1
 7.837197988125000E9     5.658350793547767E-1    2.293720102628429E-2    1.307679697394453E-3    3.742475281787845E-3    1.341784915454169E-3    3.666791929343265E-3    4.601687019461744E-1   -2.817958494435238E-1
 7.837231322350000E9     5.658585723896380E-1    2.077883968351317E-2    1.331229331255403E-3    3.737851358504334E-3    1.382838506720064E-3    3.698305981912762E-3    4.590393001994972E-1   -2.837765941365603E-1
 7.837264656575000E9     5.661290081302821E-1    1.844658404821458E-2    1.331288409296358E-3    3.755146339566060E-3    1.382894813898419E-3    3.703411926237740E-3    4.577426357661319E-1   -2.858678398418732E-1
 7.837297990800000E9     5.661931984237245E-1    1.619542512876009E-2    1.374918083929264E-3    3.744222111560336E-3    1.399031748618206E-3    3.705801613088050E-3    4.564535776794201E-1   -2.878258118334818E-1
 7.837331325025000E9     5.662465766107952E-1    1.405839829350706E-2    1.377782560359672E-3    3.754173692417725E-3    1.420556691160421E-3    3.672480075796714E-3    4.553337953889251E-1   -2.898687920641229E-1
 7.837364659250000E9     5.663519559830856E-1    1.185488778048312E-2    1.385502116579548E-3    3.779960687131280E-3    1.426172946582314E-3    3.683943248255773E-3    4.540837006010376E-1   -2.919391216018300E-1
 7.837397993475000E9     5.662587358396272E-1    9.615239428915080E-3    1.414259418406843E-3    3.763869073560281E-3    1.433256200274849E-3    3.668571208873526E-3    4.527484013149912E-1   -2.937485874799410E-1
 7.837431327700000E9     5.664202487005967E-1    7.588506663932067E-3    1.443911480571742E-3    3.741806672563956E-3    1.456740070175260E-3    3.673391097395327E-3    4.515679088908367E-1   -2.956504071033152E-1
 7.837464661925000E9     5.663828493155161E-1    5.137855413432826E-3    1.468899674043937E-3    3.765862568648773E-3    1.481161091344551E-3    3.686274736119924E-3    4.501162319238100E-1   -2.977061592255026E-1
 7.837497996150000E9     5.664457114577265E-1    2.928094062488853E-3    1.457270439847390E-3    3.736954922219893E-3    1.496657984730821E-3    3.678954132682966E-3    4.489290817559137E-1   -2.996910693896857E-1
 7.837531330375000E9     5.664530146965020E-1    7.882142221052951E-4    1.502319466400314E-3    3.750739989973546E-3    1.528531691903097E-3    3.654183718300016E-3    4.475764990944432E-1   -3.016417442872212E-1
 7.837564664600000E9     5.665017711277541E-1   -1.404672023520488E-3    1.517747919197061E-3    3.754074939475864E-3    1.539367541617618E-3    3.700666039174751E-3    4.463144422107902E-1   -3.037346665373573E-1
 7.837597998825000E9     5.665514110026501E-1   -3.655053498169671E-3    1.536248581129572E-3    3.755588254772024E-3    1.559816256477021E-3    3.665880061280059E-3    4.450889061515995E-1   -3.056988732381589E-1
 7.837631333050000E9     5.665549140019153E-1   -5.902282064176118E-3    1.548583785780464E-3    3.760103024313910E-3    1.553960230910700E-3    3.689130509915642E-3    4.436679038043829E-1   -3.074563948180394E-1
 7.837664667275000E9     5.665708194801121E-1   -8.104616867621881E-3    1.553920314143911E-3    3.715505614398795E-3    1.587957854518060E-3    3.658905414771917E-3    4.422999556971649E-1   -3.093587255830299E-1
 7.837698001500000E9     5.664054140354821E-1   -1.022634063229437E-2    1.594760107241346E-3    3.743594759679507E-3    1.591650641498360E-3    3.665291181817281E-3    4.410969325712443E-1   -3.111934881464936E-1
 7.837731335725000E9     5.665425320863283E-1   -1.247348260821645E-2    1.634413681444282E-3    3.750558467260369E-3    1.627299589572929E-3    3.677427692681126E-3    4.396903343433762E-1   -3.132166482719749E-1
 7.837764669950000E9     5.663194097209755E-1   -1.469931902404129E-2    1.626478150773006E-3    3.757961416891151E-3    1.626277111625763E-3    3.671157868943297E-3    4.384837875568962E-1   -3.150630928039685E-1
 7.837798004175000E9     5.662918928302167E-1   -1.705826995129573E-2    1.654768188064457E-3    3.721189494202866E-3    1.635700123545352E-3    3.700208996145374E-3    4.369182883338819E-1   -3.168803205008829E-1
 7.837831338400000E9     5.663708716121607E-1   -1.914411311214533E-2    1.683394027020981E-3    3.766853387886060E-3    1.690050146106278E-3    3.700864754478037E-3    4.356142787041289E-1   -3.188102488931046E-1
 7.837864672625000E9     5.662747135870764E-1   -2.143132924126401E-2    1.679184291444090E-3    3.735719228749167E-3    1.710231245002859E-3    3.665318707349976E-3    4.342969135176962E-1   -3.206935182614188E-1
 7.837898006850000E9     5.661801130135599E-1   -2.363664192162831E-2    1.700475610734565E-3    3.729836889766647E-3    1.707689896935589E-3    3.659362354276892E-3    4.329121382426929E-1   -3.226632194871882E-1
 7.837931341075000E9     5.660246794647043E-1   -2.581850966485695E-2    1.738137210444715E-3    3.735283393413350E-3    1.756807331827762E-3    3.700973378254147E-3    4.314580859218325E-1   -3.243522927667695E-1
 7.837964675300000E9     5.660438242053382E-1   -2.812742223705205E-2    1.778329824049355E-3    3.725412539287785E-3    1.795727235879686E-3    3.642313315109412E-3    4.300394108811949E-1   -3.263291801194280E-1
 7.837998009525000E9     5.659200132369513E-1   -3.027808880069260E-2    1.778943158264267E-3    3.738284869770257E-3    1.790310134689916E-3    3.648477655035744E-3    4.285609003221574E-1   -3.281957559715644E-1
 7.838031343750000E9     5.657296924623387E-1   -3.264416398360947E-2    1.797810955803305E-3    3.723557035468183E-3    1.811916315948354E-3    3.651572063523347E-3    4.272879196631656E-1   -3.300963216066726E-1
 7.838064677975000E9     5.656422717074836E-1   -3.481802530606896E-2    1.814156281229438E-3    3.721199614182850E-3    1.805788201511244E-3    3.656541772381978E-3    4.258412148030535E-1   -3.319364772868811E-1
 7.838098012200000E9     5.655153338010392E-1   -3.692477921248609E-2    1.855833886012144E-3    3.714813865814621E-3    1.871266794001728E-3    3.669094827014644E-3    4.243982964209971E-1   -3.337597339534035E-1
 7.838131346425000E9     5.653157478823820E-1   -3.918250657329364E-2    1.843064703956229E-3    3.754961404549639E-3    1.877361514557858E-3    3.666707638763536E-3    4.230783465949898E-1   -3.355971449324429E-1
 7.838164680650000E9     5.653517691813058E-1   -4.133960446336049E-2    1.862337757828745E-3    3.687991304219412E-3    1.856733693264313E-3    3.659727704645213E-3    4.215237181627028E-1   -3.374581431617480E-1
 7.838198014875000E9     5.650950047088198E-1   -4.364496894819128E-2    1.900334065862551E-3    3.732635873609984E-3    1.883134432619486E-3    3.674713218209833E-3    4.201016141865869E-1   -3.393324038605205E-1
 7.838231349100000E9     5.648150780206821E-1   -4.592281155149396E-2    1.911592427186998E-3    3.709525533134341E-3    1.925386138136753E-3    3.620458158331923E-3    4.185224169701202E-1   -3.411658643758814E-1
 7.838264683325000E9     5.647481753597000E-1   -4.800679916278375E-2    1.959823328758547E-3    3.717105718433146E-3    1.966569275731372E-3    3.647991612585658E-3    4.170489633540788E-1   -3.430180297510750E-1
 7.838298017550000E9     5.645451190805095E-1   -5.035567635146503E-2    1.932896896060629E-3    3.709320107421097E-3    1.950117062978463E-3    3.660714894241200E-3    4.154585892296463E-1   -3.447885840533244E-1
 7.838331351775000E9     5.643642332286656E-1   -5.245839544072260E-2    1.985289903459089E-3    3.720666696793075E-3    1.971138946268403E-3    3.650748239541091E-3    4.140811507824773E-1   -3.464967136709561E-1
 7.838364686000000E9     5.640652390931932E-1   -5.465332844646326E-2    1.993816699736709E-3    3.731306468496334E-3    1.981865257389402E-3    3.688453231350382E-3    4.125755980416151E-1   -3.482283560809724E-1
 7.838398020225000E9     5.639860078872049E-1   -5.703184092830474E-2    2.043378496204068E-3    3.703125155935122E-3    2.031217523832739E-3    3.641926590417261E-3    4.110066229188420E-1   -3.502011177398009E-1
 7.838431354450000E9     5.636466195852481E-1   -5.920372881371760E-2    2.043978700484109E-3    3.693734622687494E-3    2.057884816229813E-3    3.636936306762261E-3    4.096324049608752E-1   -3.519260052866721E-1
 7.838464688675000E9     5.633820922776378E-1   -6.121218612234568E-2    2.074765016886663E-3    3.702240896281768E-3    2.051960931617725E-3    3.639251593170196E-3    4.081114401150263E-1   -3.537644894421553E-1
 7.838498022900000E9     5.632062562086740E-1   -6.360325081296266E-2    2.100982014469239E-3    3.707808069154415E-3    2.070624514811626E-3    3.633994331904790E-3    4.065710571166732E-1   -3.555414503189461E-1
 7.838531357125000E9     5.630700997936267E-1   -6.582417071559586E-2    2.098285693778652E-3    3.688698190772915E-3    2.118019611591330E-3    3.637074303025074E-3    4.051162998907173E-1   -3.572622260369974E-1
 7.838564691350000E9     5.626912074490383E-1   -6.796514890947589E-2    2.129728436111362E-3    3.711594994466653E-3    2.132137286556627E-3    3.629494148942774E-3    4.034975585893515E-1   -3.590365349036123E-1
 7.838598025575000E9     5.623817690364608E-1   -7.015043268636410E-2    2.129891337772792E-3    3.677153131591751E-3    2.127840921535555E-3    3.627214871047744E-3    4.020228860465128E-1   -3.606770671001591E-1
 7.838631359800000E9     5.621327353230411E-1   -7.232835277058050E-2    2.184092168371605E-3    3.697959600659959E-3    2.155261201676596E-3    3.652361845818795E-3    4.005026791735244E-1   -3.626701348271202E-1
 7.838664694025000E9     5.619146549595414E-1   -7.455237354886632E-2    2.207660176320252E-3    3.679714166935879E-3    2.181173602615502E-3    3.604747450650825E-3    3.989119720251506E-1   -3.642822866348454E-1
 7.838698028250000E9     5.616643542939529E-1   -7.668046092903101E-2    2.215982970744327E-3    3.704004653446977E-3    2.194540227399915E-3    3.628773975229158E-3    3.972665156226149E-1   -3.659832117824707E-1
 7.838731362475000E9     5.613756739959003E-1   -7.901933929625121E-2    2.226250490930031E-3    3.700748953339746E-3    2.206276408346362E-3    3.644375705098831E-3    3.956563730988745E-1   -3.676943004572009E-1
 7.838764696700000E9     5.609079088389854E-1   -8.122580683295830E-2    2.274854127547797E-3    3.701752947282846E-3    2.246968739150240E-3    3.640540560335073E-3    3.940732645816547E-1   -3.693655683864607E-1
 7.838798030925000E9     5.606374714221314E-1   -8.342748987383440E-2    2.297918756942432E-3    3.688192633706746E-3    2.265194066077301E-3    3.658838532873226E-3    3.924869463152151E-1   -3.711474673140219E-1
 7.838831365150000E9     5.604239703093601E-1   -8.556647875220573E-2    2.307496473129360E-3    3.677369885949484E-3    2.310536299091193E-3    3.652853795366668E-3    3.907832784673044E-1   -3.728787232733455E-1
 7.838864699375000E9     5.600747989017751E-1   -8.785685659392256E-2    2.337212091739912E-3    3.698063762585844E-3    2.308818433979185E-3    3.620444891378856E-3    3.893349199606054E-1   -3.745850677184672E-1
 7.838898033600000E9     5.597383893627008E-1   -8.998693775284869E-2    2.321670311842537E-3    3.679610176906403E-3    2.343410232946753E-3    3.643592882911691E-3    3.877455206388026E-1   -3.761836263116103E-1
 7.838931367825000E9     5.593031568353590E-1   -9.214235227006501E-2    2.395602521309429E-3    3.667904950314690E-3    2.325766425344971E-3    3.622013423043283E-3    3.861667119607983E-1   -3.778946353179674E-1
 7.838964702050000E9     5.589627924467447E-1   -9.457442775072734E-2    2.421406186388083E-3    3.672837917529549E-3    2.393449032949442E-3    3.604680416580131E-3    3.844947040215105E-1   -3.796581341420278E-1
 7.838998036275000E9     5.584808068736303E-1   -9.661848759821641E-2    2.406043979452064E-3    3.701038007053353E-3    2.377819167585223E-3    3.606336829567914E-3    3.828319252301218E-1   -3.813137348021827E-1
 7.839031370500000E9     5.582132131091354E-1   -9.884403314982440E-2    2.443309318523202E-3    3.652944504193902E-3    2.407138192199009E-3    3.629985730626521E-3    3.811186164085081E-1   -3.828908807185292E-1
 7.839064704725000E9     5.577714502459128E-1   -1.010648936415166E-1    2.464799881552690E-3    3.648122021728821E-3    2.446518191368262E-3    3.626603432629960E-3    3.794693760404530E-1   -3.847416454083470E-1
 7.839098038950000E9     5.573411068985548E-1   -1.031858471629414E-1    2.476943929974698E-3    3.692862020745242E-3    2.476000849440426E-3    3.595313306619233E-3    3.777776999303102E-1   -3.861245259187851E-1
 7.839131373175000E9     5.570446431333996E-1   -1.053431897019894E-1    2.518146002262025E-3    3.646061479828183E-3    2.486418894609145E-3    3.632564296233139E-3    3.762376007527365E-1   -3.879205947151359E-1
 7.839164707400000E9     5.565614044901546E-1   -1.076855426217654E-1    2.539827942640301E-3    3.651144508360061E-3    2.504374711613467E-3    3.593762850331988E-3    3.744309893892510E-1   -3.896125403684896E-1
 7.839198041625000E9     5.561724962884707E-1   -1.097594166979005E-1    2.561410725805252E-3    3.660639330887028E-3    2.532209943591989E-3    3.584008673036273E-3    3.727317423827419E-1   -3.911441878890168E-1
 7.839231375850000E9     5.557595720114697E-1   -1.119456441177952E-1    2.588757490660041E-3    3.664694433729007E-3    2.547346131768375E-3    3.583415606557564E-3    3.710706629402215E-1   -3.927836958824977E-1
 7.839264710075000E9     5.553104590666131E-1   -1.142883014543045E-1    2.630579787905600E-3    3.662365138746361E-3    2.576539972711027E-3    3.588700754655360E-3    3.694744144805263E-1   -3.943502097564192E-1
 7.839298044300000E9     5.547849233517880E-1   -1.164514296281696E-1    2.633454913719576E-3    3.631013117277315E-3    2.598766775855173E-3    3.620009927938182E-3    3.677800949711756E-1   -3.960187882474651E-1
 7.839331378525000E9     5.544501693807663E-1   -1.184946475696947E-1    2.672346422858952E-3    3.663528403297888E-3    2.636977606996810E-3    3.607883059233159E-3    3.659723019384813E-1   -3.974119173146836E-1
 7.839364712750000E9     5.538804683974173E-1   -1.207200860922348E-1    2.699405875666919E-3    3.647123156026485E-3    2.665163962461199E-3    3.567787804021720E-3    3.643746546407665E-1   -3.990188321820227E-1
 7.839398046975000E9     5.535621233507992E-1   -1.229590657114649E-1    2.716440317546335E-3    3.644609634858991E-3    2.678874505768176E-3    3.578603551984915E-3    3.626126009135221E-1   -4.006940659609931E-1
 7.839431381200000E9     5.529609510678121E-1   -1.251521366354954E-1    2.745967073189268E-3    3.623332956127795E-3    2.673723414871229E-3    3.616723097373545E-3    3.609889068652625E-1   -4.022288632639995E-1
 7.839464715425000E9     5.523832686274521E-1   -1.273006712606089E-1    2.753478251623113E-3    3.619043378507375E-3    2.720472917315544E-3    3.585098449215112E-3    3.591272827683923E-1   -4.038372555241415E-1
 7.839498049650000E9     5.518917726743932E-1   -1.294775456246497E-1    2.819312042793340E-3    3.617667920775707E-3    2.774506086739376E-3    3.571250996680466E-3    3.574236737104699E-1   -4.055216859590106E-1
 7.839531383875000E9     5.514289545129419E-1   -1.316189464880260E-1    2.838036937070330E-3    3.631793171073589E-3    2.784513190227867E-3    3.603605171442127E-3    3.556982558131679E-1   -4.069315049659954E-1
 7.839564718100000E9     5.508998329256201E-1   -1.338971232855336E-1    2.866341714376772E-3    3.608078893279375E-3    2.782383534996214E-3    3.602327664467246E-3    3.538381349951785E-1   -4.085400676707944E-1
 7.839598052325000E9     5.503094298177506E-1   -1.359267832153634E-1    2.874930815250473E-3    3.616377557038677E-3    2.819473732399453E-3    3.582620747452577E-3    3.522038533735975E-1   -4.100170136807124E-1
 7.839631386550000E9     5.498608447161336E-1   -1.380419010785118E-1    2.914691887145778E-3    3.610986309825648E-3    2.852116359021492E-3    3.589239385940203E-3    3.503846587155332E-1   -4.115313014871106E-1
 7.839664720775000E9     5.492620705829313E-1   -1.403242014259865E-1    2.881999501326496E-3    3.621626593439977E-3    2.877333899498598E-3    3.596610306115457E-3    3.485421984239881E-1   -4.130663801379194E-1
 7.839698055000000E9     5.485682541160074E-1   -1.424655664535699E-1    2.951116173616261E-3    3.613012836815321E-3    2.901673378371566E-3    3.586040586239806E-3    3.467373750140345E-1   -4.146649928667460E-1
 7.839731389225000E9     5.481182249963358E-1   -1.446377127912609E-1    2.964790463217712E-3    3.594912852112307E-3    2.945842426500638E-3    3.580156554472438E-3    3.450303030095960E-1   -4.161425621138430E-1
 7.839764723450000E9     5.476118508953984E-1   -1.468310481786166E-1    3.010434819887012E-3    3.602476486131067E-3    2.949791545277084E-3    3.530325026571210E-3    3.433445933083454E-1   -4.178253043165101E-1
 7.839798057675000E9     5.469943426888314E-1   -1.490706501430153E-1    3.051740169520889E-3    3.595614961764741E-3    2.988446246319969E-3    3.532933969472625E-3    3.412898881127773E-1   -4.190642726162604E-1
 7.839831391900000E9     5.464021772660383E-1   -1.511050859804620E-1    3.062309952147704E-3    3.610487743134946E-3    3.034665078260469E-3    3.583503211489211E-3    3.395432982550504E-1   -4.205065103385414E-1
 7.839864726125000E9     5.457275825395980E-1   -1.533042737330106E-1    3.097355976770162E-3    3.581513684357104E-3    3.058455476405833E-3    3.586705315448087E-3    3.378504842039192E-1   -4.219883485161756E-1
 7.839898060350000E9     5.451733822829272E-1   -1.555396270191919E-1    3.132752326107166E-3    3.614268298888367E-3    3.055201176366982E-3    3.599225849822722E-3    3.359615661354315E-1   -4.235236619643715E-1
 7.839931394575000E9     5.444502515776821E-1   -1.576666170297535E-1    3.150969346083562E-3    3.599268825282482E-3    3.085420433223800E-3    3.598305577010637E-3    3.340665843068983E-1   -4.249778688663042E-1
 7.839964728800000E9     5.438689716850931E-1   -1.598176836431838E-1    3.188606328426435E-3    3.611952854318196E-3    3.103816695289725E-3    3.571340610256995E-3    3.323765325580215E-1   -4.263864227750357E-1
 7.839998063025000E9     5.432125918783876E-1   -1.618844278045264E-1    3.220371077042814E-3    3.583352915095970E-3    3.180263793411509E-3    3.560950605631585E-3    3.304276459025838E-1   -4.278836564084385E-1
 7.840031397250000E9     5.425492662654066E-1   -1.641769602839870E-1    3.230927434242012E-3    3.563862828132157E-3    3.166868671583972E-3    3.552134931376022E-3    3.286787365113203E-1   -4.292828518762344E-1
