#  HZ   S   RI   R     50.00 
! Rohde & Schwarz Vector Network Analyzer 
! Rohde-Schwarz,ZNB20-2Port,1311601062101988,3.16
! Created: UTC 12/23/2023, 3:56:16 AM
! freq[Hz]                re:S11                  im:S11                  re:S21                  im:S21                  re:S12                  im:S12                  re:S22                  im:S22
 7.837249225000000E9     5.658985229169420E-1    1.945823227571375E-2    1.349068146674268E-3    3.734487658381000E-3    1.358896350301187E-3    3.716223297417492E-3    4.583656762434815E-1   -2.849359085378136E-1
 7.837281594700000E9     5.660967800577763E-1    1.739285893462025E-2    1.352536287019548E-3    3.758188674229516E-3    1.363389487161779E-3    3.676599104372854E-3    4.571367136524562E-1   -2.868547674211800E-1
 7.837313964400000E9     5.661244310402151E-1    1.518306339184302E-2    1.383853521084222E-3    3.737204716065793E-3    1.359425170127343E-3    3.672814026859155E-3    4.559115607513659E-1   -2.886766040693284E-1
 7.837346334100000E9     5.662294817486236E-1    1.296742440851589E-2    1.395902498458580E-3    3.762580482297830E-3    1.391711359899812E-3    3.671968204051591E-3    4.546997728133514E-1   -2.907721711410438E-1
 7.837378703800000E9     5.663334928180731E-1    1.091334320916578E-2    1.382219056679285E-3    3.739438617897331E-3    1.416397096743000E-3    3.693779034615672E-3    4.536176849629134E-1   -2.927346179793601E-1
 7.837411073500000E9     5.663885406624192E-1    8.682111011717487E-3    1.417064763480219E-3    3.754064180780145E-3    1.450439401883252E-3    3.660325879470403E-3    4.522935963201816E-1   -2.946174789720261E-1
 7.837443443200000E9     5.664063972070835E-1    6.574687744622794E-3    1.449101471266796E-3    3.747921884300353E-3    1.462137996021580E-3    3.685570572176805E-3    4.510576357726430E-1   -2.964364095934263E-1
 7.837475812900000E9     5.663830434325056E-1    4.504181266264539E-3    1.452815797265612E-3    3.768948081142826E-3    1.507806916962730E-3    3.658417445257979E-3    4.499360781123025E-1   -2.984205313049572E-1
 7.837508182600000E9     5.663634371719940E-1    2.395092158401374E-3    1.494493989521630E-3    3.727234743857768E-3    1.472179942241550E-3    3.678245919946684E-3    4.486480504144824E-1   -3.002728972862864E-1
 7.837540552300000E9     5.665652922797436E-1    1.080084305455583E-4    1.493800879730974E-3    3.752270022374932E-3    1.505038725214412E-3    3.675597576603225E-3    4.473319995713465E-1   -3.021855158170259E-1
 7.837572922000000E9     5.665192959379296E-1   -2.149402622580321E-3    1.508342181439606E-3    3.749270008723991E-3    1.526019620807244E-3    3.646946706709625E-3    4.459825219840205E-1   -3.039697815732142E-1
 7.837605291700000E9     5.665647171822106E-1   -4.103510296117220E-3    1.531614937906162E-3    3.743629900727786E-3    1.531504987267976E-3    3.654996181662894E-3    4.447743761893728E-1   -3.059837204248212E-1
 7.837637661400000E9     5.665171253483210E-1   -6.312270813423477E-3    1.554191718621180E-3    3.748887525222854E-3    1.535835763372640E-3    3.658311285136483E-3    4.435001891557329E-1   -3.078229432905569E-1
 7.837670031100000E9     5.666577997736217E-1   -8.522405690116770E-3    1.579377524777578E-3    3.737688308266728E-3    1.576513124958384E-3    3.690696834576817E-3    4.423444399831172E-1   -3.095588429961439E-1
 7.837702400800000E9     5.664311180093213E-1   -1.060703680827671E-2    1.589001822123927E-3    3.736707223264116E-3    1.597295767734384E-3    3.712080655725778E-3    4.409442583815369E-1   -3.114364592744305E-1
 7.837734770500000E9     5.664534411054966E-1   -1.269019716489933E-2    1.614155406888844E-3    3.747803993927859E-3    1.590777953442766E-3    3.667871885032599E-3    4.396148671162236E-1   -3.134615946990246E-1
 7.837767140200000E9     5.662946415053910E-1   -1.493746872948072E-2    1.628650511381710E-3    3.728232695093370E-3    1.647405299674453E-3    3.658362122446230E-3    4.381877512437620E-1   -3.151595874842191E-1
 7.837799509900000E9     5.662296395025700E-1   -1.712011520512866E-2    1.673536987907951E-3    3.751085228799520E-3    1.637122998334941E-3    3.674428873627916E-3    4.368601425004218E-1   -3.170737186400543E-1
 7.837831879600000E9     5.662196273735504E-1   -1.922373765879010E-2    1.669674531714616E-3    3.730508333020749E-3    1.664525213892849E-3    3.657013596940389E-3    4.357711508167713E-1   -3.189676923663748E-1
 7.837864249300000E9     5.663150187252740E-1   -2.129097910113226E-2    1.720503456711521E-3    3.731381690884621E-3    1.712290264744021E-3    3.670831927608501E-3    4.342256667590208E-1   -3.205857116385095E-1
 7.837896619000000E9     5.661018307317855E-1   -2.354732161648979E-2    1.742235632153244E-3    3.722029777333108E-3    1.700559439784901E-3    3.679618521654166E-3    4.329689643555514E-1   -3.225368603979750E-1
 7.837928988700000E9     5.658954271129100E-1   -2.577890834137947E-2    1.730826887047718E-3    3.724343115266899E-3    1.728716537371159E-3    3.675008374975496E-3    4.315619511531712E-1   -3.243216893338168E-1
 7.837961358400000E9     5.659905517185515E-1   -2.783399808028771E-2    1.771983693622128E-3    3.754062716862477E-3    1.750325470401238E-3    3.663561624143137E-3    4.303223573222037E-1   -3.262741736524117E-1
 7.837993728100000E9     5.658190171780020E-1   -3.004447342253927E-2    1.770330596878023E-3    3.730459052883579E-3    1.769284910663663E-3    3.671561010184753E-3    4.287768677317340E-1   -3.279967222928937E-1
 7.838026097800000E9     5.657511040303264E-1   -3.224700149459837E-2    1.787873499131947E-3    3.721651864491293E-3    1.791560747414251E-3    3.667399204237599E-3    4.275082323119748E-1   -3.298299476735094E-1
 7.838058467500000E9     5.655711478171463E-1   -3.428057841355165E-2    1.812203950685188E-3    3.714114247748280E-3    1.801418175643562E-3    3.626098353053604E-3    4.261739304629014E-1   -3.316526676649520E-1
 7.838090837200000E9     5.654650838903155E-1   -3.655245772985123E-2    1.833530462054492E-3    3.707493970056322E-3    1.854969440505444E-3    3.646839320719440E-3    4.246886469646424E-1   -3.335263301394889E-1
 7.838123206900000E9     5.653157358105565E-1   -3.861012572357501E-2    1.840648260625126E-3    3.671183083032515E-3    1.848852761172478E-3    3.654032278034058E-3    4.234183826553384E-1   -3.352148743486997E-1
 7.838155576600000E9     5.651107060061190E-1   -4.072138169830285E-2    1.837352773355504E-3    3.722713974100119E-3    1.901456655493766E-3    3.617303546715034E-3    4.220038615445285E-1   -3.369647199012334E-1
 7.838187946300000E9     5.652246710073131E-1   -4.291943424761215E-2    1.886654874439157E-3    3.697076138093971E-3    1.881269957959438E-3    3.653874217524965E-3    4.205038475289172E-1   -3.386951260546030E-1
 7.838220316000000E9     5.649267709918477E-1   -4.504230976604430E-2    1.891393275395769E-3    3.721602363296677E-3    1.885260567312854E-3    3.664398221800730E-3    4.192252769906236E-1   -3.405665316577803E-1
 7.838252685700000E9     5.648114850231402E-1   -4.727291979574227E-2    1.932759092771020E-3    3.718846791762395E-3    1.938189114288689E-3    3.649755356410567E-3    4.178031682683593E-1   -3.423292658759157E-1
 7.838285055400000E9     5.647166785291040E-1   -4.951411853375603E-2    1.949802774640497E-3    3.702118305281798E-3    1.954592305132414E-3    3.670859013094952E-3    4.162477564551447E-1   -3.441001591520744E-1
 7.838317425100000E9     5.643516687181013E-1   -5.154920110620023E-2    1.981036890366886E-3    3.697679041252919E-3    1.969012781129371E-3    3.639590797997968E-3    4.148153583175666E-1   -3.458581444786396E-1
 7.838349794800000E9     5.642525267194860E-1   -5.354426505461575E-2    1.958948142755136E-3    3.724225906865553E-3    2.020520894032231E-3    3.637939669550453E-3    4.133279727075703E-1   -3.475762224934239E-1
 7.838382164500000E9     5.640757194681452E-1   -5.591935366345378E-2    2.023689436036961E-3    3.703576514822865E-3    1.988219034794258E-3    3.610137585116887E-3    4.119381374991225E-1   -3.494051660534613E-1
 7.838414534200000E9     5.640038357302379E-1   -5.799167746383387E-2    2.026028764249087E-3    3.700803123121131E-3    2.008142456434655E-3    3.640373806452585E-3    4.104440282024580E-1   -3.511385184936183E-1
 7.838446903900000E9     5.636670777839584E-1   -6.011924035579350E-2    2.063538291251467E-3    3.701672494471281E-3    2.041559999744036E-3    3.639093548319275E-3    4.090265121856335E-1   -3.528319315918131E-1
 7.838479273600000E9     5.633799778460252E-1   -6.233156157327954E-2    2.082242949866656E-3    3.717388375164062E-3    2.036744889512778E-3    3.619277801057536E-3    4.076062201937853E-1   -3.544613306648238E-1
 7.838511643300000E9     5.631536458056546E-1   -6.450851645453289E-2    2.082482889061603E-3    3.695740240409022E-3    2.088156255870014E-3    3.665573267209358E-3    4.059318588975996E-1   -3.562397049707847E-1
 7.838544013000000E9     5.629121636043264E-1   -6.665387029703840E-2    2.106500574838322E-3    3.690710509017755E-3    2.058353111246270E-3    3.619078066284169E-3    4.045012417303180E-1   -3.579235429614939E-1
 7.838576382700000E9     5.627163272370393E-1   -6.859537052440055E-2    2.144635276799809E-3    3.695346878363500E-3    2.120481573433598E-3    3.652499305154968E-3    4.029253921515744E-1   -3.594935445543794E-1
 7.838608752400000E9     5.622833778849037E-1   -7.088853768891841E-2    2.148219330855710E-3    3.648107801801219E-3    2.123153558796329E-3    3.645437731949958E-3    4.015469357516305E-1   -3.612840417789456E-1
 7.838641122100000E9     5.622505208451708E-1   -7.287718256639782E-2    2.168621602537964E-3    3.684521697321734E-3    2.168917861037136E-3    3.596151461835844E-3    3.998710885508828E-1   -3.629359883597332E-1
 7.838673491800000E9     5.618576260638024E-1   -7.524223114462270E-2    2.193185219645085E-3    3.679664227077334E-3    2.189103651071978E-3    3.639360016728359E-3    3.984773389620107E-1   -3.647376774068996E-1
 7.838705861500000E9     5.615816712894579E-1   -7.723231645231010E-2    2.244425627947408E-3    3.711194518109237E-3    2.193568976338709E-3    3.642226838988229E-3    3.968187234300145E-1   -3.663661217600252E-1
 7.838738231200000E9     5.613205986418824E-1   -7.940213705937053E-2    2.252318591098514E-3    3.699956545867287E-3    2.227530861583762E-3    3.638662186909991E-3    3.953340200522134E-1   -3.681477337205573E-1
 7.838770600900000E9     5.609646802113168E-1   -8.162360671818905E-2    2.263877692023614E-3    3.691049790554004E-3    2.270443877536197E-3    3.623006736427434E-3    3.940330726723442E-1   -3.697229428155691E-1
 7.838802970600000E9     5.606940509617357E-1   -8.366902624018216E-2    2.285261841325598E-3    3.678020842407153E-3    2.282215680376873E-3    3.615261835598013E-3    3.924076217216307E-1   -3.713941656053830E-1
 7.838835340300000E9     5.602877901294597E-1   -8.598172519870939E-2    2.294871522079691E-3    3.664747808572941E-3    2.304043759153076E-3    3.638838717870442E-3    3.907380964883970E-1   -3.731006643602292E-1
 7.838867710000000E9     5.598770045224933E-1   -8.826122889804952E-2    2.317113499671148E-3    3.672157287708285E-3    2.270111890898915E-3    3.587196279178762E-3    3.892746365883568E-1   -3.746772399390958E-1
 7.838900079700000E9     5.596568727729141E-1   -9.020613480991413E-2    2.345501590953288E-3    3.669923286749250E-3    2.342079094291151E-3    3.610707215369334E-3    3.875805352278148E-1   -3.763310917476529E-1
 7.838932449400000E9     5.591990196725848E-1   -9.231568508828031E-2    2.360727774435425E-3    3.649792996362527E-3    2.342761086967730E-3    3.623685277961008E-3    3.859995766211111E-1   -3.780415749162863E-1
 7.838964819100000E9     5.590405925363027E-1   -9.454900594257612E-2    2.399669202111666E-3    3.651081118221081E-3    2.366470876516246E-3    3.604419803005534E-3    3.845413142457376E-1   -3.797684534189796E-1
 7.838997188800000E9     5.586226301347563E-1   -9.648292473754991E-2    2.417508855660498E-3    3.675045447285317E-3    2.408119598646439E-3    3.681143507343406E-3    3.827715209769481E-1   -3.811550342625014E-1
 7.839029558500000E9     5.584318205969456E-1   -9.865892810433469E-2    2.431080595482488E-3    3.669313828781856E-3    2.412936580137579E-3    3.615243472180869E-3    3.814042284033361E-1   -3.828175968899296E-1
 7.839061928200000E9     5.579059575686035E-1   -1.009119911656312E-1    2.469368892488790E-3    3.651163663465337E-3    2.474467996338558E-3    3.599207428646380E-3    3.797706740368588E-1   -3.844519168539942E-1
 7.839094297900000E9     5.575043297829616E-1   -1.029835774920658E-1    2.519195700861829E-3    3.661157025211791E-3    2.480061806951663E-3    3.618250040171066E-3    3.781164464652391E-1   -3.860562007709739E-1
 7.839126667600000E9     5.570779362783963E-1   -1.050550580929932E-1    2.517866552839104E-3    3.645979918005554E-3    2.497309017273783E-3    3.603378340712219E-3    3.763758417739156E-1   -3.876906944460109E-1
 7.839159037300000E9     5.568014806485260E-1   -1.071923513252265E-1    2.522703182486704E-3    3.647455246200754E-3    2.488341649861309E-3    3.564964723785194E-3    3.749377825252785E-1   -3.892460903525031E-1
 7.839191407000000E9     5.562052175027895E-1   -1.094051680174973E-1    2.570624311355500E-3    3.633010277179632E-3    2.552105476363484E-3    3.621333640806299E-3    3.732107936861063E-1   -3.906095880142141E-1
 7.839223776700000E9     5.558424324711395E-1   -1.115707639530433E-1    2.583128177595955E-3    3.628817810712436E-3    2.553102410393830E-3    3.601041803165463E-3    3.715139174261592E-1   -3.923362365032764E-1
 7.839256146400000E9     5.554693100489311E-1   -1.135312253692369E-1    2.606519065846234E-3    3.664040010741842E-3    2.551829940302869E-3    3.596063475400372E-3    3.701126630376832E-1   -3.940447763033902E-1
 7.839288516100000E9     5.549921190956979E-1   -1.158192678540046E-1    2.632321768111756E-3    3.649353501502800E-3    2.577798974433487E-3    3.598951152206898E-3    3.682681636146288E-1   -3.955559976161123E-1
 7.839320885800000E9     5.545699960523522E-1   -1.178410073178907E-1    2.649466452992956E-3    3.644617097214971E-3    2.603271678634116E-3    3.573645225244630E-3    3.665736814093801E-1   -3.970286001729992E-1
 7.839353255500000E9     5.541297643369291E-1   -1.199018425888424E-1    2.681621157827096E-3    3.643755109215400E-3    2.654717447834402E-3    3.578115790052348E-3    3.649498653466230E-1   -3.985658209969808E-1
 7.839385625200000E9     5.534889262495495E-1   -1.221722912590604E-1    2.695736055761920E-3    3.650157659118452E-3    2.651251378518974E-3    3.599400957127387E-3    3.633329930400643E-1   -4.000529858690651E-1
 7.839417994900000E9     5.532392172887617E-1   -1.241799924835536E-1    2.722892826029372E-3    3.663190795908782E-3    2.725616872578118E-3    3.598365239225936E-3    3.615661538491757E-1   -4.016809076071172E-1
 7.839450364600000E9     5.527354814546706E-1   -1.263665714407248E-1    2.775240261700221E-3    3.644891979728773E-3    2.752622874943066E-3    3.595735041650626E-3    3.599279834080938E-1   -4.032173688545363E-1
 7.839482734300000E9     5.523027684752306E-1   -1.284328337714217E-1    2.772024065417482E-3    3.621259240173210E-3    2.761708647299332E-3    3.571980591038727E-3    3.582643616282068E-1   -4.046988164415168E-1
 7.839515104000000E9     5.516622265672056E-1   -1.305746577659035E-1    2.805419934142855E-3    3.620255482009439E-3    2.763295782043540E-3    3.598582557822623E-3    3.564702931325064E-1   -4.061853503600260E-1
 7.839547473700000E9     5.512397487777121E-1   -1.325756524571823E-1    2.824593804015836E-3    3.624993881309364E-3    2.753307714437930E-3    3.565487788995623E-3    3.547643893331349E-1   -4.078409788041163E-1
 7.839579843400000E9     5.508146519360235E-1   -1.348074206561376E-1    2.862422589645076E-3    3.625562710902231E-3    2.825530917839757E-3    3.543640670829503E-3    3.531891750545488E-1   -4.091639898842268E-1
 7.839612213100000E9     5.501563029190777E-1   -1.369425048663179E-1    2.863621411048419E-3    3.632908689297990E-3    2.830016980571679E-3    3.597162718040399E-3    3.513937881672898E-1   -4.106777021134435E-1
 7.839644582800000E9     5.496324220673656E-1   -1.391562428951064E-1    2.885753137754330E-3    3.604026320232971E-3    2.850573398012953E-3    3.573691268177289E-3    3.497065438912474E-1   -4.123130631364080E-1
 7.839676952500000E9     5.491734967199919E-1   -1.411402552508456E-1    2.934141064380122E-3    3.605710098936989E-3    2.886875554866384E-3    3.597982645093239E-3    3.480476469271457E-1   -4.137928271089514E-1
 7.839709322200000E9     5.485617782027584E-1   -1.431819782757698E-1    2.926394381290285E-3    3.615969281688558E-3    2.912650967255757E-3    3.599988262190037E-3    3.461759500607873E-1   -4.150982892227506E-1
 7.839741691900000E9     5.480727828440721E-1   -1.453539121210489E-1    2.996484767259705E-3    3.612475949853419E-3    2.946969518279301E-3    3.556746176087608E-3    3.444086784363277E-1   -4.165881420013753E-1
 7.839774061600000E9     5.474649388802806E-1   -1.473771392321083E-1    3.017481140057399E-3    3.599790056133221E-3    2.981077813898773E-3    3.569313363313380E-3    3.426528705115340E-1   -4.179669178484315E-1
 7.839806431300000E9     5.467118742521955E-1   -1.494901301123525E-1    3.053511222294001E-3    3.573313725369444E-3    3.000765138825418E-3    3.559500266668788E-3    3.410389999171494E-1   -4.195174561342962E-1
 7.839838801000000E9     5.462569620024089E-1   -1.517106328735681E-1    3.072726118843874E-3    3.583442910926004E-3    3.009415102715641E-3    3.554049819305354E-3    3.392639743411598E-1   -4.208839608008495E-1
 7.839871170700000E9     5.456448176934726E-1   -1.537228430780183E-1    3.075529726338106E-3    3.611843866464856E-3    3.046273431124178E-3    3.577304405928056E-3    3.374458854071455E-1   -4.223257840859221E-1
 7.839903540400000E9     5.450698917248623E-1   -1.558686807835056E-1    3.167690726462172E-3    3.585551589557754E-3    3.052607929384997E-3    3.585530256394447E-3    3.357030447596462E-1   -4.238006669184086E-1
 7.839935910100000E9     5.444662247403396E-1   -1.579856640054370E-1    3.163447630656152E-3    3.561776635761873E-3    3.115172787096369E-3    3.598751450592856E-3    3.338898583838495E-1   -4.250775804413423E-1
 7.839968279800000E9     5.438223895820317E-1   -1.601517480573176E-1    3.171215926341237E-3    3.574586320986720E-3    3.142740028325576E-3    3.555621407391870E-3    3.321381829556143E-1   -4.266468179923368E-1
 7.840000649500000E9     5.432695678838418E-1   -1.621500394183917E-1    3.197568759336121E-3    3.591604232416569E-3    3.151480682490683E-3    3.534427988190169E-3    3.303449614382570E-1   -4.278862600055319E-1
 7.840033019200000E9     5.426448335148718E-1   -1.641883365917724E-1    3.233750645032395E-3    3.570441835976436E-3    3.164683760280555E-3    3.557507007088361E-3    3.285659435122976E-1   -4.293351853560436E-1
 7.840065388900000E9     5.419037192485520E-1   -1.663368681145024E-1    3.297767980996434E-3    3.570502817929746E-3    3.218184778580247E-3    3.530908873240581E-3    3.267663193461513E-1   -4.308082867609426E-1
 7.840097758600000E9     5.412801817289402E-1   -1.683719186593314E-1    3.301567362574982E-3    3.571547624529084E-3    3.262266726730799E-3    3.537981219536750E-3    3.249369975245476E-1   -4.320994595894650E-1
 7.840130128300000E9     5.405685161747341E-1   -1.703906652313244E-1    3.314821096917104E-3    3.571747682400284E-3    3.262964904487453E-3    3.523111862865513E-3    3.232295569442616E-1   -4.335139231776539E-1
 7.840162498000000E9     5.398688201760479E-1   -1.726177959051974E-1    3.349317738067003E-3    3.586802465755113E-3    3.332571281239886E-3    3.552995742066503E-3    3.212815427058920E-1   -4.348473418665967E-1
