#  HZ   S   RI   R     50.00 
! Rohde & Schwarz Vector Network Analyzer 
! Rohde-Schwarz,ZNB20-2Port,1311601062101988,3.16
! Created: UTC 12/23/2023, 3:56:59 AM
! freq[Hz]                re:S11                  im:S11                  re:S21                  im:S21                  re:S12                  im:S12                  re:S22                  im:S22
 7.837123364000000E9     5.655515558929753E-1    2.764956653390551E-2    1.265236508582250E-3    3.755642236590240E-3    1.281854124739389E-3    3.696037742280614E-3    4.629594131249717E-1   -2.775105851063973E-1
 7.837156405700000E9     5.659013182919171E-1    2.574089728977815E-2    1.274076146852671E-3    3.755182669008184E-3    1.285093385918391E-3    3.666168476261060E-3    4.618003739622177E-1   -2.794311236587763E-1
 7.837189447400000E9     5.658049006779433E-1    2.342274449495121E-2    1.293342354355317E-3    3.761105102564789E-3    1.335543883845030E-3    3.668065721450051E-3    4.605090848851324E-1   -2.813707468515706E-1
 7.837222489100000E9     5.658864252734014E-1    2.127952646148119E-2    1.319473157632535E-3    3.757004811833845E-3    1.344767148924010E-3    3.685321945271768E-3    4.593791023503426E-1   -2.833310046869613E-1
 7.837255530800000E9     5.659981090080165E-1    1.919017547517704E-2    1.341339695026912E-3    3.721141030854612E-3    1.378195975700388E-3    3.691253359232800E-3    4.581113962805682E-1   -2.853167606097662E-1
 7.837288572500000E9     5.661869955432354E-1    1.673169789141932E-2    1.354916721751194E-3    3.773603724829790E-3    1.383999611636431E-3    3.654082180629888E-3    4.568607266024470E-1   -2.872910650047237E-1
 7.837321614200000E9     5.661373124734960E-1    1.470625672089892E-2    1.394640548935586E-3    3.738132441205363E-3    1.377709535787304E-3    3.705189629176485E-3    4.556128572555354E-1   -2.892472045534088E-1
 7.837354655900000E9     5.661986543771541E-1    1.244865073373528E-2    1.392485973901655E-3    3.741048489037578E-3    1.421245918591072E-3    3.681265696023668E-3    4.543781595011144E-1   -2.912788648560595E-1
 7.837387697600000E9     5.664716977714571E-1    1.032231754106708E-2    1.417243207448504E-3    3.782087720553967E-3    1.421416007022153E-3    3.669673962094195E-3    4.531249625578110E-1   -2.931763461827928E-1
 7.837420739300000E9     5.663677071263303E-1    8.166685627574180E-3    1.404305621339161E-3    3.748079193365072E-3    1.454712953296871E-3    3.686164567212451E-3    4.518569157660802E-1   -2.950552511031735E-1
 7.837453781000000E9     5.664627322115554E-1    5.953704710975372E-3    1.471659934004070E-3    3.763446522749382E-3    1.487095174413508E-3    3.649982954717301E-3    4.507088451471110E-1   -2.970788966406733E-1
 7.837486822700000E9     5.665202991081210E-1    3.788959500001492E-3    1.471693869485622E-3    3.715410575407742E-3    1.449044893111722E-3    3.652868662208974E-3    4.493300919229783E-1   -2.990618254230794E-1
 7.837519864400000E9     5.664749884505513E-1    1.433705002663152E-3    1.486853338923261E-3    3.714288128954998E-3    1.507440176849160E-3    3.654082811738412E-3    4.480250510184739E-1   -3.009876851464821E-1
 7.837552906100000E9     5.665549263131083E-1   -7.569238480560765E-4    1.494349832560796E-3    3.743090770965693E-3    1.544082304430466E-3    3.674895529428860E-3    4.466527375486277E-1   -3.028118547301634E-1
 7.837585947800000E9     5.664478392011335E-1   -2.959309668338745E-3    1.528835120455232E-3    3.725752440132556E-3    1.544989091536134E-3    3.661874366313420E-3    4.455602218814447E-1   -3.046963095582441E-1
 7.837618989500000E9     5.664878933269935E-1   -5.058661286887703E-3    1.549731766983429E-3    3.719855793455641E-3    1.565228411711193E-3    3.663152549813350E-3    4.443693056871950E-1   -3.066489856348624E-1
 7.837652031200000E9     5.663647218337756E-1   -7.356231243345560E-3    1.553222327661824E-3    3.768486538440968E-3    1.583240642533611E-3    3.672890963701436E-3    4.428699763450601E-1   -3.086150744285452E-1
 7.837685072900000E9     5.664830853738658E-1   -9.512881888238041E-3    1.568295670366909E-3    3.728545219162296E-3    1.570526389953081E-3    3.674580919547421E-3    4.415925564735472E-1   -3.105391514527792E-1
 7.837718114600000E9     5.663921946818148E-1   -1.178748672649898E-2    1.598639295779126E-3    3.741723580263304E-3    1.637111632969505E-3    3.667418395942255E-3    4.402230804477489E-1   -3.123779773417868E-1
 7.837751156300000E9     5.663924818952133E-1   -1.382691485330803E-2    1.630239692707351E-3    3.697712510759213E-3    1.634470334544520E-3    3.640514202087726E-3    4.389930099656539E-1   -3.142670538113036E-1
 7.837784198000000E9     5.664756041294310E-1   -1.614971847961409E-2    1.648348825416724E-3    3.739922785780062E-3    1.645441265539807E-3    3.651140333332785E-3    4.376099893457517E-1   -3.160169068273653E-1
 7.837817239700000E9     5.663400056638008E-1   -1.826719636691765E-2    1.671997869589235E-3    3.731622837459106E-3    1.665589302025771E-3    3.633540893387114E-3    4.363558016650541E-1   -3.180395840836566E-1
 7.837850281400000E9     5.662308687649684E-1   -2.048434725376280E-2    1.682045519239303E-3    3.744786689550251E-3    1.708816615029561E-3    3.647979302006593E-3    4.349004868936925E-1   -3.198964850476612E-1
 7.837883323100000E9     5.660759904914627E-1   -2.267873907993846E-2    1.705718864284311E-3    3.726538682180683E-3    1.712235942628651E-3    3.661471331920755E-3    4.336519530427194E-1   -3.218378434821147E-1
 7.837916364800000E9     5.660516991174603E-1   -2.480816517872089E-2    1.713426666118061E-3    3.718368053362335E-3    1.682032620417524E-3    3.666926888286218E-3    4.321997968105210E-1   -3.236730925701891E-1
 7.837949406500000E9     5.659582045858137E-1   -2.710713712356507E-2    1.739919777965008E-3    3.734177327487822E-3    1.728851266453843E-3    3.668653111248503E-3    4.308217414562101E-1   -3.255236895207100E-1
 7.837982448200000E9     5.659832614662044E-1   -2.922022428296616E-2    1.763190045916419E-3    3.725320159067507E-3    1.754560244723414E-3    3.639940466872534E-3    4.294101465397665E-1   -3.273953967052550E-1
 7.838015489900000E9     5.658805709942347E-1   -3.153822426818601E-2    1.777426934205549E-3    3.742827703285414E-3    1.776383050471542E-3    3.646298995921348E-3    4.279917652004686E-1   -3.292036085092434E-1
 7.838048531600000E9     5.656255485172730E-1   -3.359483735719088E-2    1.799837067934271E-3    3.726345677449207E-3    1.787921575069732E-3    3.660398485675896E-3    4.264854644297904E-1   -3.310211252828630E-1
 7.838081573300000E9     5.656166941202846E-1   -3.585809846624940E-2    1.812237539329753E-3    3.711349895247667E-3    1.828954038773001E-3    3.666118838415315E-3    4.251082635522987E-1   -3.329234358716134E-1
 7.838114615000000E9     5.655162701684900E-1   -3.805099626681504E-2    1.832657031566762E-3    3.705602581202199E-3    1.838078474532141E-3    3.676432518154522E-3    4.236835130048360E-1   -3.346656692663770E-1
 7.838147656700000E9     5.653867361179218E-1   -4.017529191881623E-2    1.854055891411891E-3    3.704189467887504E-3    1.872021702160276E-3    3.619154449236459E-3    4.222325694478352E-1   -3.364169456867215E-1
 7.838180698400000E9     5.652194122826449E-1   -4.252208866890470E-2    1.882498729663381E-3    3.728011124496364E-3    1.857142565652215E-3    3.658900394828934E-3    4.207641296924398E-1   -3.382931275931624E-1
 7.838213740100000E9     5.649380956225944E-1   -4.456214003885085E-2    1.922022383775829E-3    3.690892216959121E-3    1.892868288220699E-3    3.650412126146117E-3    4.193686729497080E-1   -3.400536897324117E-1
 7.838246781800000E9     5.648534232445065E-1   -4.679389490820573E-2    1.902596300865671E-3    3.669739154995717E-3    1.919976722232527E-3    3.663212212104822E-3    4.179960364365135E-1   -3.421694972185649E-1
 7.838279823500000E9     5.647080790839366E-1   -4.904067274018192E-2    1.947034071121453E-3    3.692206420037620E-3    1.941378319095533E-3    3.666840716069378E-3    4.166077696524768E-1   -3.437726305132936E-1
 7.838312865200000E9     5.644774646156903E-1   -5.117075187905206E-2    1.989768227895982E-3    3.741388547985912E-3    1.981293150658878E-3    3.676858024819918E-3    4.151900091205961E-1   -3.454960582035268E-1
 7.838345906900000E9     5.641268931308934E-1   -5.327976023700226E-2    1.986924282474168E-3    3.721826075608035E-3    1.957982516055082E-3    3.634447950601234E-3    4.134942862443656E-1   -3.472581895997155E-1
 7.838378948600000E9     5.641335630999850E-1   -5.558346489946760E-2    2.007105868918363E-3    3.713392127330865E-3    2.010302851451602E-3    3.637384396137234E-3    4.120897860713365E-1   -3.491030801445873E-1
 7.838411990300000E9     5.637685492564167E-1   -5.784634167590492E-2    2.020693421340682E-3    3.688596038416623E-3    1.971897479461742E-3    3.625120957488284E-3    4.105407822493888E-1   -3.508360950589530E-1
 7.838445032000000E9     5.635418770528970E-1   -6.003072076965149E-2    2.043184497145509E-3    3.656845053649094E-3    2.032153565559542E-3    3.612525013854848E-3    4.089207500250798E-1   -3.525879843840318E-1
 7.838478073700000E9     5.635466876931802E-1   -6.221736366999823E-2    2.093542561159600E-3    3.702641533409163E-3    2.036876664691109E-3    3.630534350666226E-3    4.077105460755304E-1   -3.544741959334017E-1
 7.838511115400000E9     5.631564298539533E-1   -6.448491139370810E-2    2.116678558747421E-3    3.704548219227385E-3    2.064642514772593E-3    3.633544554944025E-3    4.059391268719335E-1   -3.562044994396917E-1
 7.838544157100000E9     5.628983654056118E-1   -6.659033108794336E-2    2.099349519954556E-3    3.694603618681918E-3    2.088794148022395E-3    3.660882742731003E-3    4.045677466168329E-1   -3.578847410619442E-1
 7.838577198800000E9     5.626675216149015E-1   -6.877770142315742E-2    2.112375702368028E-3    3.703099106851503E-3    2.140215203800870E-3    3.633997276076995E-3    4.029169896432579E-1   -3.596970568441740E-1
 7.838610240500000E9     5.623034863034063E-1   -7.093920903366485E-2    2.169212340496154E-3    3.701430245534343E-3    2.134098875587615E-3    3.612209947274879E-3    4.014594420095206E-1   -3.614135616507124E-1
 7.838643282200000E9     5.621354215506571E-1   -7.320714733925354E-2    2.173941547719432E-3    3.698060235456948E-3    2.120313381920480E-3    3.619138915209102E-3    3.999869531393756E-1   -3.630675576593109E-1
 7.838676323900000E9     5.618309758423010E-1   -7.523142942465250E-2    2.217606685888477E-3    3.680743822146254E-3    2.168082611617030E-3    3.632494507480342E-3    3.983397206407821E-1   -3.650084101979096E-1
 7.838709365600000E9     5.615320707513420E-1   -7.752601422971678E-2    2.221494774813599E-3    3.667299816205557E-3    2.197726713961839E-3    3.642336294665267E-3    3.968113589665765E-1   -3.665222454724189E-1
 7.838742407300000E9     5.611900973220080E-1   -7.961578482939433E-2    2.251492955053775E-3    3.640635946372355E-3    2.195630150502584E-3    3.607728805396972E-3    3.950854716060566E-1   -3.681639185137690E-1
 7.838775449000000E9     5.609362022061560E-1   -8.165591498589229E-2    2.243173890598163E-3    3.682774249495745E-3    2.224798353537466E-3    3.636060581262454E-3    3.936161130177165E-1   -3.698730127832091E-1
 7.838808490700000E9     5.605785982795463E-1   -8.402330304210141E-2    2.267242391572050E-3    3.674722154744631E-3    2.273674802877572E-3    3.620760323500911E-3    3.921715839580130E-1   -3.715975271802050E-1
 7.838841532400000E9     5.602826149219973E-1   -8.625123125539629E-2    2.334508905727094E-3    3.672137738831753E-3    2.300054230188912E-3    3.619532708698920E-3    3.904572038308717E-1   -3.733027727959575E-1
 7.838874574100000E9     5.599334914976378E-1   -8.845497793839897E-2    2.324833916851737E-3    3.682497475610640E-3    2.340710517823160E-3    3.608301663447398E-3    3.889408313036135E-1   -3.749429373175065E-1
 7.838907615800000E9     5.596248036513867E-1   -9.060190152357697E-2    2.341939241093891E-3    3.681579628153812E-3    2.331951696751006E-3    3.585739661863192E-3    3.872554008559246E-1   -3.767575030543297E-1
 7.838940657500000E9     5.591950278198434E-1   -9.281962287534788E-2    2.399808804497201E-3    3.655283399027270E-3    2.371137909836253E-3    3.593166389186514E-3    3.856779307927131E-1   -3.783367554724357E-1
 7.838973699200000E9     5.588932573452902E-1   -9.492042603645560E-2    2.386986796749307E-3    3.652044584179936E-3    2.364287064716807E-3    3.636148199860766E-3    3.841393453148084E-1   -3.799023200771062E-1
 7.839006740900000E9     5.585730017425661E-1   -9.712096169540789E-2    2.392837497460691E-3    3.664166274081494E-3    2.381960221461820E-3    3.612114912084659E-3    3.824486345017050E-1   -3.816798957730747E-1
 7.839039782600000E9     5.580692521763203E-1   -9.946234620985252E-2    2.451241129856129E-3    3.647731564947341E-3    2.413239365443841E-3    3.598952090819805E-3    3.808202772475537E-1   -3.832319333598802E-1
 7.839072824300000E9     5.577921928892754E-1   -1.013601481490662E-1    2.458369123227775E-3    3.625653003052181E-3    2.433977654567001E-3    3.602598440344629E-3    3.792374614171798E-1   -3.849211629952543E-1
 7.839105866000000E9     5.573373736709928E-1   -1.037121635893595E-1    2.453873306534517E-3    3.652380621968140E-3    2.455729398815835E-3    3.648935279354098E-3    3.773564817305757E-1   -3.865488651116318E-1
 7.839138907700000E9     5.568755103140183E-1   -1.058954209914227E-1    2.517547610679399E-3    3.636553858858545E-3    2.478087424782127E-3    3.600180262046524E-3    3.759383536925061E-1   -3.881411297117067E-1
 7.839171949400000E9     5.564597168784398E-1   -1.080466287500065E-1    2.530717532689367E-3    3.652227905621695E-3    2.496354745320135E-3    3.604486821429651E-3    3.741027493688987E-1   -3.898276351593487E-1
 7.839204991100000E9     5.562210413897793E-1   -1.103100329689350E-1    2.556611920539399E-3    3.657594947857126E-3    2.569669254032125E-3    3.592942964464392E-3    3.724961219885427E-1   -3.913930673311568E-1
 7.839238032800000E9     5.555786871832763E-1   -1.124591815188119E-1    2.578429810240683E-3    3.654416259202333E-3    2.541855325905796E-3    3.599737302086432E-3    3.709494307181626E-1   -3.930197516691977E-1
 7.839271074500000E9     5.553445691997095E-1   -1.146354736819060E-1    2.599987898908709E-3    3.647361574480618E-3    2.587182966963601E-3    3.591691975496252E-3    3.691791754864670E-1   -3.946039780721832E-1
 7.839304116200000E9     5.548624646717987E-1   -1.167474897482938E-1    2.641979259995016E-3    3.644924845863019E-3    2.621874790494186E-3    3.588206410688131E-3    3.674423411134872E-1   -3.961632075562121E-1
 7.839337157900000E9     5.544094525746586E-1   -1.189094589042362E-1    2.651636039560828E-3    3.635494338160867E-3    2.607904758750869E-3    3.607999311763112E-3    3.656992143649695E-1   -3.978105380935976E-1
 7.839370199600000E9     5.539640432880146E-1   -1.209891114512394E-1    2.708909500602119E-3    3.637826278408713E-3    2.653568784439989E-3    3.572072349404713E-3    3.643242286831388E-1   -3.992860040019223E-1
 7.839403241300000E9     5.534349035745985E-1   -1.232037347316054E-1    2.723508633427135E-3    3.648906680574582E-3    2.705897057680128E-3    3.573520341231469E-3    3.624598635418324E-1   -4.008773887220011E-1
 7.839436283000000E9     5.528688261918377E-1   -1.253896310877708E-1    2.720238914050715E-3    3.639608405656884E-3    2.690554741832861E-3    3.617113454384932E-3    3.605931287069110E-1   -4.023439053244763E-1
 7.839469324700000E9     5.524624704640221E-1   -1.274861208978409E-1    2.762046202627834E-3    3.652918721774205E-3    2.731964597571332E-3    3.565921146743000E-3    3.589596862731986E-1   -4.039517060289837E-1
 7.839502366400000E9     5.518801721994380E-1   -1.297362330951216E-1    2.780883415183496E-3    3.641047220571065E-3    2.713867199251198E-3    3.591257543505609E-3    3.571932290418477E-1   -4.055756490337900E-1
 7.839535408100000E9     5.514748085685356E-1   -1.320129920485630E-1    2.802585156098991E-3    3.623003391183263E-3    2.787858643253309E-3    3.594475637102441E-3    3.554466883968548E-1   -4.070669507911535E-1
 7.839568449800000E9     5.508578858533966E-1   -1.340760847809092E-1    2.841723113487439E-3    3.614910120593903E-3    2.797135737131546E-3    3.582395354300133E-3    3.537717387991416E-1   -4.086960938782047E-1
 7.839601491500000E9     5.503604249513924E-1   -1.360613856306870E-1    2.855094744365826E-3    3.617999784008795E-3    2.827196859620503E-3    3.570189347406118E-3    3.519838874977838E-1   -4.102327883917530E-1
 7.839634533200000E9     5.497440245786287E-1   -1.383721006750122E-1    2.888218808368783E-3    3.622240945454385E-3    2.854278992956389E-3    3.569536042781161E-3    3.501079923934680E-1   -4.116289565088402E-1
 7.839667574900000E9     5.493083670961357E-1   -1.403597000143937E-1    2.899172706322378E-3    3.572638991610879E-3    2.851467450932524E-3    3.603012417191897E-3    3.484758582397533E-1   -4.130817845891284E-1
 7.839700616600000E9     5.486958191324871E-1   -1.425807442549631E-1    2.953100744563078E-3    3.590841633568873E-3    2.879474849480063E-3    3.588664282618613E-3    3.466834497694692E-1   -4.145603441652971E-1
 7.839733658300000E9     5.480332066438784E-1   -1.448240479924039E-1    2.943622964793734E-3    3.588621409504645E-3    2.936617679552483E-3    3.566759905221056E-3    3.449538989275831E-1   -4.162507066284439E-1
 7.839766700000000E9     5.475687802746082E-1   -1.470361269997394E-1    3.006629655776713E-3    3.611047522976163E-3    2.951720710978932E-3    3.551372445118299E-3    3.431436650181555E-1   -4.176670295687737E-1
 7.839799741700000E9     5.469782313003151E-1   -1.490606140839021E-1    3.041760695690356E-3    3.610500753104831E-3    2.985430454737870E-3    3.550173638904970E-3    3.413506080334808E-1   -4.192406458592687E-1
 7.839832783400000E9     5.463431061885071E-1   -1.511364595381032E-1    3.054517281783953E-3    3.592233379127779E-3    3.003289027426576E-3    3.576409468624968E-3    3.395550425277216E-1   -4.206824013712639E-1
 7.839865825100000E9     5.457298297788372E-1   -1.533080510406031E-1    3.067021606230926E-3    3.589538055057731E-3    3.033218064751711E-3    3.585133960848380E-3    3.378271781055519E-1   -4.220931975596697E-1
 7.839898866800000E9     5.452087760088838E-1   -1.555205107834559E-1    3.102955816102393E-3    3.584109845223959E-3    3.074888710799522E-3    3.552949657123635E-3    3.359368763261255E-1   -4.235623855440960E-1
 7.839931908500000E9     5.445012381734768E-1   -1.576620627545565E-1    3.125771133622007E-3    3.597480963734340E-3    3.097230488126413E-3    3.565979657193508E-3    3.340759043754968E-1   -4.249729128306591E-1
 7.839964950200000E9     5.439373693376848E-1   -1.597743241864716E-1    3.161323480944757E-3    3.577298827191344E-3    3.099511730818019E-3    3.569266385164737E-3    3.322244558386784E-1   -4.263492543734374E-1
 7.839997991900000E9     5.431947778138150E-1   -1.619151480999644E-1    3.186100976460870E-3    3.566937696515992E-3    3.136154693049409E-3    3.554869772727171E-3    3.306050863094275E-1   -4.278892975133141E-1
 7.840031033600000E9     5.425696772942240E-1   -1.640211791364805E-1    3.216048091107644E-3    3.578407854081835E-3    3.159649931166026E-3    3.517682342280080E-3    3.285846944012034E-1   -4.293162950141196E-1
 7.840064075300000E9     5.419059809596926E-1   -1.661616991541745E-1    3.295358983976336E-3    3.561684483671357E-3    3.207251856314573E-3    3.562823506065397E-3    3.268011546281624E-1   -4.306398182633253E-1
 7.840097117000000E9     5.412999049536344E-1   -1.682546583693973E-1    3.293725146491627E-3    3.570815504189489E-3    3.192562648281339E-3    3.548104001439188E-3    3.250408837357743E-1   -4.320183970656753E-1
