#  HZ   S   RI   R     50.00 
! Rohde & Schwarz Vector Network Analyzer 
! Rohde-Schwarz,ZNB20-2Port,1311601062101988,3.16
! Created: UTC 12/23/2023, 4:00:17 AM
! freq[Hz]                re:S11                  im:S11                  re:S21                  im:S21                  re:S12                  im:S12                  re:S22                  im:S22
 7.837556904000000E9     5.664653991073215E-1   -1.049801097426873E-3    1.473231491809362E-3    3.730579821431608E-3    1.512181835353269E-3    3.677047103127302E-3    4.466731965211149E-1   -3.029716648833033E-1
 7.837588244750000E9     5.664326125905227E-1   -3.139214071926977E-3    1.521577638905631E-3    3.732036145746159E-3    1.519928620513175E-3    3.686089435462832E-3    4.455846857192830E-1   -3.048511786756048E-1
 7.837619585500000E9     5.664560763512378E-1   -5.146492068350753E-3    1.523624675483961E-3    3.716990323876992E-3    1.538344726743550E-3    3.675830368047744E-3    4.443107014388738E-1   -3.065647220155019E-1
 7.837650926250000E9     5.665020157155339E-1   -7.243773663925757E-3    1.564983458825572E-3    3.722828446173879E-3    1.568507551846106E-3    3.640954556833500E-3    4.429600414386449E-1   -3.084484232735489E-1
 7.837682267000000E9     5.664190220082190E-1   -9.329430648526866E-3    1.560758473466696E-3    3.716307573646719E-3    1.572976511563489E-3    3.662590494888175E-3    4.418369076588632E-1   -3.101376708254356E-1
 7.837713607750000E9     5.665887316934315E-1   -1.143290235802563E-2    1.574936287265567E-3    3.735885656631298E-3    1.579196280078695E-3    3.661956135222903E-3    4.405838329531066E-1   -3.119758649673858E-1
 7.837744948500000E9     5.664258525696791E-1   -1.341321345121294E-2    1.593363257047276E-3    3.722273040980687E-3    1.610656418983061E-3    3.650889750536838E-3    4.392805532838084E-1   -3.137805329015674E-1
 7.837776289250000E9     5.663397749057848E-1   -1.540936318018821E-2    1.602639357883783E-3    3.716542671577107E-3    1.636014342824526E-3    3.650571532521148E-3    4.379549314274435E-1   -3.156459619393143E-1
 7.837807630000000E9     5.663432891584634E-1   -1.743527374095858E-2    1.617722007895425E-3    3.691911095347272E-3    1.625565578388261E-3    3.663103044118529E-3    4.367673168952340E-1   -3.175409239578392E-1
 7.837838970750000E9     5.663431195246218E-1   -1.956266990117708E-2    1.690853629081934E-3    3.706987096704603E-3    1.664901785946913E-3    3.638145912386496E-3    4.354470688653065E-1   -3.192134040727467E-1
 7.837870311500000E9     5.661271101944364E-1   -2.188258202489888E-2    1.676460047398264E-3    3.693642034960302E-3    1.666315013212097E-3    3.646011540305305E-3    4.340239942229565E-1   -3.208833131103018E-1
 7.837901652250000E9     5.659724621169830E-1   -2.387784946191678E-2    1.692969678880671E-3    3.704726038520145E-3    1.747073106324957E-3    3.635202377616439E-3    4.329943513630545E-1   -3.226945467068630E-1
 7.837932993000000E9     5.659705931107246E-1   -2.602072775696369E-2    1.730659476035922E-3    3.702074316763281E-3    1.712779585347711E-3    3.665125612585023E-3    4.315368021027099E-1   -3.244255496309539E-1
 7.837964333750000E9     5.659059978333889E-1   -2.812411679248399E-2    1.733879064079789E-3    3.732619005068611E-3    1.740066823513470E-3    3.635192410378340E-3    4.302524141998536E-1   -3.262449307645978E-1
 7.837995674500000E9     5.658106169292518E-1   -3.020101610858316E-2    1.753265022182364E-3    3.684045396012394E-3    1.776916528818844E-3    3.647073321941195E-3    4.288831153542406E-1   -3.281389176081956E-1
 7.838027015250000E9     5.657320259477782E-1   -3.228073863973355E-2    1.763080592735345E-3    3.693317827456867E-3    1.770081100602011E-3    3.639265777650395E-3    4.274966133571362E-1   -3.297226966146293E-1
 7.838058356000000E9     5.657721799321673E-1   -3.430502192506980E-2    1.798548990156538E-3    3.702336849446161E-3    1.827620341965925E-3    3.641778829981049E-3    4.262478418177547E-1   -3.314360712954209E-1
 7.838089696750000E9     5.655531434814477E-1   -3.646356664984451E-2    1.791246955372200E-3    3.679509508529621E-3    1.800478504231832E-3    3.639538470793988E-3    4.248678022655141E-1   -3.331698145564512E-1
 7.838121037500000E9     5.653429763273429E-1   -3.833408377475479E-2    1.849142343932457E-3    3.686960667745737E-3    1.838829052304580E-3    3.638272378982236E-3    4.235346109952854E-1   -3.349776958133551E-1
 7.838152378250000E9     5.652406894355940E-1   -4.064276842588655E-2    1.830287852393940E-3    3.712726523387098E-3    1.821242479434080E-3    3.619814066654895E-3    4.221568702557562E-1   -3.368221539725707E-1
 7.838183719000000E9     5.651377838125269E-1   -4.258256495475438E-2    1.872392197291935E-3    3.719717546806809E-3    1.872442940403370E-3    3.625300294519023E-3    4.208993952579907E-1   -3.384171252063798E-1
 7.838215059750000E9     5.649628651798567E-1   -4.466729204143921E-2    1.892280399901267E-3    3.682277422692678E-3    1.915886979209090E-3    3.619460059387917E-3    4.194160058954920E-1   -3.400992334830467E-1
 7.838246400500000E9     5.647709612783760E-1   -4.681126407250451E-2    1.893523798901998E-3    3.692674094174792E-3    1.888084045759693E-3    3.599073925586944E-3    4.179038882906759E-1   -3.419815788493800E-1
 7.838277741250000E9     5.646515038195021E-1   -4.890252698334028E-2    1.924454807754432E-3    3.683678877943150E-3    1.917689207922864E-3    3.617180064821225E-3    4.166817887625390E-1   -3.435608478267007E-1
 7.838309082000000E9     5.644719055002717E-1   -5.096382760074575E-2    1.964458952799951E-3    3.694126143535812E-3    1.934268892599984E-3    3.621331383359974E-3    4.152679201759514E-1   -3.453101412422929E-1
 7.838340422750000E9     5.643931907055691E-1   -5.298458867618269E-2    1.955398447665779E-3    3.663330284858271E-3    1.943315574181624E-3    3.616069297263841E-3    4.138332661967434E-1   -3.469921393698689E-1
 7.838371763500000E9     5.641712711193857E-1   -5.516392667911135E-2    1.991124979733971E-3    3.673086112228338E-3    1.999676846708441E-3    3.660221353531042E-3    4.126110788477841E-1   -3.487597101097253E-1
 7.838403104250000E9     5.638794436370292E-1   -5.720201834075719E-2    2.026830142005950E-3    3.672500931038802E-3    1.972993888799810E-3    3.642718887970839E-3    4.110710111776741E-1   -3.503111477819360E-1
 7.838434445000000E9     5.636271826524605E-1   -5.923276047670466E-2    2.040270774337400E-3    3.679057551671723E-3    1.978651723158112E-3    3.647694886092206E-3    4.096528192126982E-1   -3.520254834071115E-1
 7.838465785750000E9     5.634919176765073E-1   -6.144076661731598E-2    2.032992230260248E-3    3.696814842201129E-3    2.039688028691007E-3    3.627906404312981E-3    4.081885341479335E-1   -3.536940278786651E-1
 7.838497126500000E9     5.633480320497690E-1   -6.352644388983951E-2    2.078507832545426E-3    3.672836000623628E-3    2.059313484276315E-3    3.614857085065511E-3    4.067620421858397E-1   -3.553790942443656E-1
 7.838528467250000E9     5.631611383113103E-1   -6.544127894213769E-2    2.077426200904237E-3    3.673903550430837E-3    2.047439747578216E-3    3.645301175129432E-3    4.052734145131802E-1   -3.569610776246990E-1
 7.838559808000000E9     5.628396074076839E-1   -6.753902655821968E-2    2.108554844392819E-3    3.657873236871315E-3    2.095490573440887E-3    3.585871612209864E-3    4.039318872693389E-1   -3.585923468152425E-1
 7.838591148750000E9     5.625328111289681E-1   -6.987478258502006E-2    2.130319331314518E-3    3.672540075190692E-3    2.109851385628317E-3    3.608177970801751E-3    4.023774139457325E-1   -3.602940396744707E-1
 7.838622489500000E9     5.622918188555344E-1   -7.175358115827631E-2    2.124724772775407E-3    3.671112905434406E-3    2.142597030119571E-3    3.600140643031611E-3    4.009332254006464E-1   -3.618630842526407E-1
 7.838653830250000E9     5.619155041413785E-1   -7.384868793967266E-2    2.159827137992940E-3    3.674503282972035E-3    2.145625366111464E-3    3.612794976326286E-3    3.994667400517880E-1   -3.636102254008731E-1
 7.838685171000000E9     5.617594611746727E-1   -7.593935324122683E-2    2.164400610839613E-3    3.676368479049726E-3    2.179289989362107E-3    3.603284431948100E-3    3.981203860921141E-1   -3.652695179360771E-1
 7.838716511750000E9     5.613756454258780E-1   -7.795612590703391E-2    2.179315404002207E-3    3.663974858409057E-3    2.214431548151948E-3    3.605091765120573E-3    3.964943691228520E-1   -3.669416050474958E-1
 7.838747852500000E9     5.612268267644631E-1   -7.994445210895908E-2    2.228647314842533E-3    3.658078519703757E-3    2.220147062371088E-3    3.606593451095370E-3    3.950271129886377E-1   -3.683161326191653E-1
 7.838779193250000E9     5.609574306313593E-1   -8.206790437117527E-2    2.232606767370179E-3    3.659303954889480E-3    2.229308277860385E-3    3.639150820238214E-3    3.935181557760327E-1   -3.699574911938618E-1
 7.838810534000000E9     5.606101909031047E-1   -8.416352817416022E-2    2.277040716741673E-3    3.667748118071819E-3    2.240904559367323E-3    3.606707125506271E-3    3.920303594721321E-1   -3.716599744865078E-1
 7.838841874750000E9     5.603591030906804E-1   -8.633264430318276E-2    2.302544217056451E-3    3.656758924800063E-3    2.268038537928885E-3    3.590662804204667E-3    3.906222523334993E-1   -3.733369202835778E-1
 7.838873215500000E9     5.599361144564305E-1   -8.836488315972921E-2    2.325046150117131E-3    3.656808877614317E-3    2.301162940051944E-3    3.609946198111455E-3    3.891451254391096E-1   -3.746850481070048E-1
 7.838904556250000E9     5.595942436042202E-1   -9.043818820357323E-2    2.339120998490708E-3    3.640808540613299E-3    2.328631487772609E-3    3.591846699609083E-3    3.875477839245692E-1   -3.764626978673203E-1
 7.838935897000000E9     5.592304237511313E-1   -9.243233534700669E-2    2.349704911470902E-3    3.668772104758504E-3    2.312211131936708E-3    3.605670459382609E-3    3.860750116746176E-1   -3.781412717569668E-1
 7.838967237750000E9     5.587920870768737E-1   -9.457324116565892E-2    2.357613656460673E-3    3.682114717687134E-3    2.362011324381728E-3    3.612114809078839E-3    3.844731697187166E-1   -3.796590068974375E-1
 7.838998578500000E9     5.586525687260553E-1   -9.673472477958429E-2    2.394560808895232E-3    3.641307556107625E-3    2.397617208668176E-3    3.592858493893486E-3    3.828368588109653E-1   -3.812222817955723E-1
 7.839029919250000E9     5.581017469868816E-1   -9.866906642974980E-2    2.415990913755060E-3    3.622641219519631E-3    2.412389643833194E-3    3.575533763971642E-3    3.813320158003259E-1   -3.826736902669660E-1
 7.839061260000000E9     5.579302383513463E-1   -1.007963857140643E-1    2.448486789069398E-3    3.649264893031966E-3    2.432772526804439E-3    3.579527138680722E-3    3.798506501668208E-1   -3.842231021011048E-1
 7.839092600750000E9     5.574849068191789E-1   -1.028966665788460E-1    2.456087227517455E-3    3.621948958044228E-3    2.437669627045220E-3    3.616583756641873E-3    3.782328645723797E-1   -3.857017840947385E-1
 7.839123941500000E9     5.572064184082338E-1   -1.048556483493343E-1    2.478158742219015E-3    3.617767081094985E-3    2.469810662056944E-3    3.592646420894834E-3    3.766523026036688E-1   -3.873693590979199E-1
 7.839155282250000E9     5.566255572740628E-1   -1.068951823057714E-1    2.503761626957892E-3    3.639621868360714E-3    2.471075867349494E-3    3.571201089259137E-3    3.750070705661626E-1   -3.887784740936784E-1
 7.839186623000000E9     5.563385652709394E-1   -1.089690137975725E-1    2.505155697014481E-3    3.603411033636833E-3    2.494285348003044E-3    3.592991624036679E-3    3.736346923038256E-1   -3.905343466461629E-1
 7.839217963750000E9     5.559232975742194E-1   -1.110387992665380E-1    2.543406884012993E-3    3.659583470353348E-3    2.523374162280505E-3    3.597753989688869E-3    3.720802053664637E-1   -3.920421096827914E-1
 7.839249304500000E9     5.555779906888418E-1   -1.131756850545794E-1    2.584749369797002E-3    3.645490038900055E-3    2.539769958863079E-3    3.566488753364780E-3    3.704247854654422E-1   -3.935625699904339E-1
 7.839280645250000E9     5.551684775393478E-1   -1.151913406181100E-1    2.581760580956952E-3    3.612571087603516E-3    2.551798766546608E-3    3.573422403252504E-3    3.687658513827580E-1   -3.950272994469976E-1
 7.839311986000000E9     5.547331521667129E-1   -1.171590918711925E-1    2.618369014486803E-3    3.633546062086156E-3    2.591146910070659E-3    3.575858841227966E-3    3.671850143879556E-1   -3.964291927022164E-1
 7.839343326750000E9     5.543430685020465E-1   -1.192028382910572E-1    2.618120703728801E-3    3.597466601972116E-3    2.596139910361491E-3    3.544839458649186E-3    3.655461946960470E-1   -3.981018851657657E-1
 7.839374667500000E9     5.537188202542412E-1   -1.213084822268075E-1    2.655379152547900E-3    3.628479545387440E-3    2.640865028667971E-3    3.579807917403479E-3    3.640828235562756E-1   -3.994446705660252E-1
 7.839406008250000E9     5.534348420954756E-1   -1.233642189239397E-1    2.702317076941328E-3    3.587585354429267E-3    2.661522635206969E-3    3.567041449418466E-3    3.622407896645843E-1   -4.010499343672874E-1
 7.839437349000000E9     5.528399217641343E-1   -1.254144098855636E-1    2.709639681185518E-3    3.627148871407317E-3    2.677848223874590E-3    3.562639660074774E-3    3.607486787753732E-1   -4.024907628719196E-1
 7.839468689750000E9     5.523941686884202E-1   -1.274538735459643E-1    2.699555555193717E-3    3.597316314338201E-3    2.713323979170495E-3    3.563016703553732E-3    3.591199303782633E-1   -4.039042675803772E-1
 7.839500030500000E9     5.520277440896141E-1   -1.294725387890104E-1    2.738650334250486E-3    3.623304756301167E-3    2.735909196937765E-3    3.573772621784689E-3    3.575806953878843E-1   -4.055712766137005E-1
 7.839531371250000E9     5.515798315756451E-1   -1.315416537815886E-1    2.795909993928501E-3    3.602585650060176E-3    2.719653600153121E-3    3.562003653739353E-3    3.557489157181329E-1   -4.068538895850478E-1
 7.839562712000000E9     5.509783925806929E-1   -1.337587100764543E-1    2.805951089361268E-3    3.591534752928627E-3    2.770558910248567E-3    3.554961401249462E-3    3.542952516227050E-1   -4.082539447338935E-1
 7.839594052750000E9     5.504957756376182E-1   -1.356003684747243E-1    2.823504852454716E-3    3.594996088198383E-3    2.809783494292080E-3    3.551683399543770E-3    3.525341249676344E-1   -4.097008881483740E-1
 7.839625393500000E9     5.499836877429289E-1   -1.377002214455603E-1    2.835985232316183E-3    3.599687761168720E-3    2.792552626865988E-3    3.553265462915664E-3    3.508321037826399E-1   -4.113679880108872E-1
 7.839656734250000E9     5.494788149383846E-1   -1.397060053339346E-1    2.872665308997204E-3    3.609343897011943E-3    2.867585057107499E-3    3.566089058513860E-3    3.491952035674061E-1   -4.127636437178276E-1
 7.839688075000000E9     5.489906285516668E-1   -1.418103537670983E-1    2.911570515475464E-3    3.611219101221811E-3    2.847812765019251E-3    3.572724797159071E-3    3.474501497761104E-1   -4.140443825550161E-1
 7.839719415750000E9     5.484202144170957E-1   -1.438477768750832E-1    2.905073693471626E-3    3.563453941348150E-3    2.872426226891857E-3    3.519799719442061E-3    3.457577369722818E-1   -4.154238191866080E-1
 7.839750756500000E9     5.479178170503882E-1   -1.459217143792969E-1    2.918634340450000E-3    3.600857044655731E-3    2.923577470958832E-3    3.547116227040203E-3    3.440011838123705E-1   -4.168603692307236E-1
 7.839782097250000E9     5.472543051760594E-1   -1.479381373866796E-1    2.987106434808711E-3    3.604469585147749E-3    2.916061902164009E-3    3.523921555197195E-3    3.423134964989542E-1   -4.183659262427713E-1
 7.839813438000000E9     5.468348004079937E-1   -1.499230644461999E-1    2.992139929802911E-3    3.584017022740120E-3    2.959242927904288E-3    3.556439472958732E-3    3.406810106881906E-1   -4.196664488149389E-1
 7.839844778750000E9     5.462671420512504E-1   -1.520416689333686E-1    3.026075513091551E-3    3.566000918768900E-3    2.944323435917887E-3    3.547967667885352E-3    3.390348226132499E-1   -4.210056458481838E-1
 7.839876119500000E9     5.457489640294831E-1   -1.540645414136771E-1    3.043746922694815E-3    3.575913788517091E-3    2.969535808059393E-3    3.569115335838776E-3    3.373647984738709E-1   -4.225116829544491E-1
 7.839907460250000E9     5.449966566017539E-1   -1.559823271389263E-1    3.092258760659345E-3    3.573724844899627E-3    3.038503546725010E-3    3.564289178688936E-3    3.356476487508238E-1   -4.238071794747216E-1
 7.839938801000000E9     5.444616702021369E-1   -1.579956359562607E-1    3.118022848374964E-3    3.572111073400630E-3    3.062100991329276E-3    3.520867934024115E-3    3.337795061490653E-1   -4.251615533160248E-1
 7.839970141750000E9     5.437899083786372E-1   -1.600988921270602E-1    3.157779162110960E-3    3.579180137454431E-3    3.089975147450068E-3    3.567955235719660E-3    3.321930646579714E-1   -4.265507633908971E-1
 7.840001482500000E9     5.431475397563609E-1   -1.620954015197333E-1    3.155607752257403E-3    3.580165409150818E-3    3.092234378557764E-3    3.548791805970541E-3    3.303735367381099E-1   -4.278941708232543E-1
 7.840032823250000E9     5.426270360658690E-1   -1.641146560040967E-1    3.183436538329622E-3    3.572329879170389E-3    3.140684717544588E-3    3.547344164940033E-3    3.286942305631408E-1   -4.292411731839971E-1
 7.840064164000000E9     5.419448692921555E-1   -1.660442277146113E-1    3.206058289680094E-3    3.565562591140802E-3    3.165530349665062E-3    3.522265109854581E-3    3.268748577569150E-1   -4.307203641072040E-1
 7.840095504750000E9     5.414392893113860E-1   -1.681468805052838E-1    3.243976824571405E-3    3.554790253251317E-3    3.187800512095132E-3    3.509317285793094E-3    3.252525142629695E-1   -4.319404282187638E-1
 7.840126845500000E9     5.407121888698765E-1   -1.702527357130391E-1    3.278722657556665E-3    3.545060103124165E-3    3.199195699336136E-3    3.538618474524151E-3    3.235138495426518E-1   -4.332679800514688E-1
 7.840158186250000E9     5.401205793220542E-1   -1.722646317187430E-1    3.273421915487860E-3    3.549819108634741E-3    3.273198875607076E-3    3.536563966857089E-3    3.217005994154131E-1   -4.346872357680799E-1
 7.840189527000000E9     5.394113168113835E-1   -1.742383528557666E-1    3.320208869159080E-3    3.553301527389466E-3    3.282682761660164E-3    3.526978768801856E-3    3.198973885950010E-1   -4.358495832243574E-1
 7.840220867750000E9     5.386911266037655E-1   -1.763587738720288E-1    3.354675932848275E-3    3.529784196196414E-3    3.336454121905066E-3    3.500152648221189E-3    3.181289717019662E-1   -4.372750715028352E-1
 7.840252208500000E9     5.381172583395603E-1   -1.781963625396769E-1    3.379254437690297E-3    3.535645015578858E-3    3.356991033083526E-3    3.502343317751258E-3    3.163693703490777E-1   -4.384277884613242E-1
 7.840283549250000E9     5.374567793863553E-1   -1.802650645884493E-1    3.402880116755473E-3    3.524746193571060E-3    3.368799247539602E-3    3.527646402336681E-3    3.146249104940084E-1   -4.399004652623367E-1
 7.840314890000000E9     5.367578341441920E-1   -1.820881841532653E-1    3.438879438070211E-3    3.515423014494656E-3    3.419572265744767E-3    3.486607910062701E-3    3.128422208809093E-1   -4.410737236716140E-1
 7.840346230750000E9     5.358495863862536E-1   -1.842656796358249E-1    3.474936654643131E-3    3.501546559976935E-3    3.429953180723164E-3    3.485859151289125E-3    3.110790233634990E-1   -4.424595040788978E-1
 7.840377571500000E9     5.353653620321296E-1   -1.861256267587911E-1    3.477736658789001E-3    3.522718938129440E-3    3.460223543955570E-3    3.511083826490795E-3    3.093107044065715E-1   -4.436644914661158E-1
