#  HZ   S   RI   R     50.00 
! Rohde & Schwarz Vector Network Analyzer 
! Rohde-Schwarz,ZNB20-2Port,1311601062101988,3.16
! Created: UTC 12/23/2023, 4:00:40 AM
! freq[Hz]                re:S11                  im:S11                  re:S21                  im:S21                  re:S12                  im:S12                  re:S22                  im:S22
 7.837363853000000E9     5.662247593640378E-1    1.178289563639988E-2    1.402455806554689E-3    3.721198637079665E-3    1.420461483601753E-3    3.672399897380397E-3    4.540849119707793E-1   -2.915916981190592E-1
 7.837396152325000E9     5.662749570175581E-1    9.513817134720709E-3    1.429785606064009E-3    3.725727610085930E-3    1.431477978153017E-3    3.669463458996276E-3    4.529170842275616E-1   -2.935608813462546E-1
 7.837428451650000E9     5.664417908875323E-1    7.613246435472784E-3    1.424788551734674E-3    3.763522897567861E-3    1.451564152925122E-3    3.689894840758531E-3    4.516347014444517E-1   -2.954260852623476E-1
 7.837460750975000E9     5.665155609679068E-1    5.531069160993777E-3    1.476564579449908E-3    3.721135037723895E-3    1.470965549286160E-3    3.645518939936210E-3    4.504302802441182E-1   -2.973322857361091E-1
 7.837493050300000E9     5.664329318455043E-1    3.258918455215021E-3    1.454965642715366E-3    3.727740955112408E-3    1.485772967841481E-3    3.661838925702572E-3    4.490324531832918E-1   -2.992489974693105E-1
 7.837525349625000E9     5.665834976692176E-1    1.067850191615659E-3    1.471734412924557E-3    3.732900428887203E-3    1.478012718584415E-3    3.645068834255398E-3    4.479944786992118E-1   -3.012374888062451E-1
 7.837557648950000E9     5.664093040891959E-1   -8.899284230554849E-4    1.494890048403639E-3    3.731954417311872E-3    1.506810025806107E-3    3.652990625724286E-3    4.466314548376086E-1   -3.029965737742024E-1
 7.837589948275000E9     5.664259232900450E-1   -3.221277673673175E-3    1.525992562502471E-3    3.696942485471586E-3    1.537368613032033E-3    3.656517864253214E-3    4.454830712099091E-1   -3.049446634829444E-1
 7.837622247600000E9     5.666039980919200E-1   -5.303924534780822E-3    1.525110923715410E-3    3.723223792198663E-3    1.552699175802622E-3    3.660990437411939E-3    4.442291861949421E-1   -3.068587220660580E-1
 7.837654546925000E9     5.663239059749529E-1   -7.253382424955247E-3    1.556181782173051E-3    3.746812286481106E-3    1.589911798147768E-3    3.669403561872137E-3    4.429898429455737E-1   -3.085459339694691E-1
 7.837686846250000E9     5.663668614143458E-1   -9.603215875196093E-3    1.565121773194529E-3    3.746580576788949E-3    1.599797714136152E-3    3.640478157806629E-3    4.416376134047093E-1   -3.104881189637919E-1
 7.837719145575000E9     5.663800738103331E-1   -1.173740959612773E-2    1.590580578073259E-3    3.706071752340525E-3    1.595751655057053E-3    3.647517900377125E-3    4.401678698690838E-1   -3.123874365626203E-1
 7.837751444900000E9     5.664754007337429E-1   -1.400749920098843E-2    1.603325676133255E-3    3.729688081099847E-3    1.620652145300866E-3    3.624748524823803E-3    4.390384269442293E-1   -3.140590718099702E-1
 7.837783744225000E9     5.663573523666225E-1   -1.621911509880773E-2    1.618008187782552E-3    3.737413591500459E-3    1.625048626175971E-3    3.650221827356442E-3    4.377430929066635E-1   -3.160711038435095E-1
 7.837816043550000E9     5.663395237141710E-1   -1.812635208119388E-2    1.662028503295887E-3    3.731068002834947E-3    1.641059794443630E-3    3.633234078234767E-3    4.364036260457630E-1   -3.178896226464276E-1
 7.837848342875000E9     5.664001175578299E-1   -2.017531426222627E-2    1.666300697154122E-3    3.703236803066655E-3    1.686161312611702E-3    3.632018387344051E-3    4.349572851695374E-1   -3.196221571708519E-1
 7.837880642200000E9     5.663002419043286E-1   -2.251985958837083E-2    1.684349966615513E-3    3.687982952222467E-3    1.692880590143076E-3    3.652117917701251E-3    4.336364848820872E-1   -3.215649732328017E-1
 7.837912941525000E9     5.661047864571722E-1   -2.463121601874454E-2    1.707399731422801E-3    3.717644082346977E-3    1.690722874131691E-3    3.633005690888039E-3    4.321979934712666E-1   -3.234421416519496E-1
 7.837945240850000E9     5.660060923422175E-1   -2.685674336554481E-2    1.739818376180200E-3    3.707894711861861E-3    1.741144972725298E-3    3.635648628126776E-3    4.309091743617265E-1   -3.252860327728970E-1
 7.837977540175000E9     5.659450121472079E-1   -2.901095076952536E-2    1.752226876560567E-3    3.724830617841268E-3    1.748336960542084E-3    3.653722518356267E-3    4.296173973873695E-1   -3.270821608425988E-1
 7.838009839500000E9     5.657976102949122E-1   -3.108592804464877E-2    1.772900211410434E-3    3.701721655041943E-3    1.806709880029485E-3    3.664997214750816E-3    4.283511709527330E-1   -3.286661048905097E-1
 7.838042138825000E9     5.657158535741906E-1   -3.320067493163742E-2    1.772708977966012E-3    3.687364134213814E-3    1.753803296259371E-3    3.621664422708803E-3    4.269355599071821E-1   -3.306026088577975E-1
 7.838074438150000E9     5.657688395320067E-1   -3.543909740877674E-2    1.768835598905684E-3    3.712796378816247E-3    1.792073018293231E-3    3.648455604331876E-3    4.254764078600304E-1   -3.324529558264854E-1
 7.838106737475000E9     5.653656331681970E-1   -3.747562492286427E-2    1.824047753255801E-3    3.702393160207942E-3    1.844256521343526E-3    3.641632618490297E-3    4.241516309957461E-1   -3.341650935279337E-1
 7.838139036800000E9     5.652980680826075E-1   -3.969490424778198E-2    1.857790385313755E-3    3.680307341140909E-3    1.853873910265534E-3    3.635532239021047E-3    4.227937516691797E-1   -3.359605168190744E-1
 7.838171336125000E9     5.652486447358309E-1   -4.179874876019248E-2    1.842355806380151E-3    3.687844322082042E-3    1.869809446207315E-3    3.606520924537704E-3    4.212616933205252E-1   -3.377238484598484E-1
 7.838203635450000E9     5.650484715673029E-1   -4.404822631147900E-2    1.881338438646217E-3    3.681645961389673E-3    1.867660515372706E-3    3.620967545922189E-3    4.198270637517902E-1   -3.395965605371270E-1
 7.838235934775000E9     5.648853315075012E-1   -4.603078056002683E-2    1.914892423109374E-3    3.686079839526446E-3    1.894871664959309E-3    3.608067993246337E-3    4.184930273007703E-1   -3.413194212014464E-1
 7.838268234100000E9     5.645945701341105E-1   -4.836292083650447E-2    1.906470595334204E-3    3.700535085849671E-3    1.893103578871573E-3    3.656617028332022E-3    4.170678456172325E-1   -3.430441454192064E-1
 7.838300533425000E9     5.644824361948758E-1   -5.052015166043846E-2    1.938321277042897E-3    3.683488171826019E-3    1.921897104733362E-3    3.638534303814764E-3    4.156000147379040E-1   -3.447993207414087E-1
 7.838332832750000E9     5.643784436006827E-1   -5.254229398357580E-2    1.930773250916297E-3    3.695935045294482E-3    1.942453550957056E-3    3.637454249273200E-3    4.142860747315524E-1   -3.466309646224192E-1
 7.838365132075000E9     5.641337410827209E-1   -5.467045819437416E-2    1.982928827378899E-3    3.696328011734143E-3    1.976965251603503E-3    3.657151098327838E-3    4.127369775291760E-1   -3.481897142310867E-1
 7.838397431400000E9     5.638060975173453E-1   -5.692482830438726E-2    1.988908402089440E-3    3.674778699689815E-3    1.986518555168995E-3    3.601425344510833E-3    4.113236920340112E-1   -3.500726114653868E-1
 7.838429730725000E9     5.636878576039331E-1   -5.902004782804851E-2    2.034711070650937E-3    3.674112201112723E-3    2.013459582385889E-3    3.635922774905576E-3    4.099541387498813E-1   -3.518165814206987E-1
 7.838462030050000E9     5.637165183111550E-1   -6.105309119842647E-2    2.044206720901132E-3    3.643586791209372E-3    2.036689924666785E-3    3.610642539243358E-3    4.083450588853384E-1   -3.534229273044054E-1
 7.838494329375000E9     5.633720464017800E-1   -6.325711594368226E-2    2.067617204443214E-3    3.664466533274618E-3    2.073124655380320E-3    3.647085510614557E-3    4.069402110535492E-1   -3.552459155334074E-1
 7.838526628700000E9     5.629943144754415E-1   -6.556351052845541E-2    2.098672922132703E-3    3.676279244105826E-3    2.087250296783529E-3    3.629840623270954E-3    4.054236700583426E-1   -3.569359362342790E-1
 7.838558928025000E9     5.627484714423442E-1   -6.759962990878594E-2    2.079404494473905E-3    3.675432324894119E-3    2.106088946580016E-3    3.629244370205443E-3    4.039580421088755E-1   -3.585416717348742E-1
 7.838591227350000E9     5.625889663019613E-1   -6.969479181884383E-2    2.116649516193300E-3    3.666694980717707E-3    2.100969071129773E-3    3.586471167243669E-3    4.024108876793542E-1   -3.602459268053153E-1
 7.838623526675000E9     5.621869031912267E-1   -7.184285829701852E-2    2.128849687726694E-3    3.674679578205487E-3    2.151270683610081E-3    3.619293523265630E-3    4.009365749862274E-1   -3.619639330573344E-1
 7.838655826000000E9     5.619606002970784E-1   -7.406098075559406E-2    2.164346670395693E-3    3.679731187386643E-3    2.129117890039897E-3    3.600453810495999E-3    3.993150868099385E-1   -3.635532967108979E-1
 7.838688125325000E9     5.618194437375955E-1   -7.601821304578016E-2    2.183322097736781E-3    3.646813874934457E-3    2.140348109236248E-3    3.613082444306727E-3    3.979541383674184E-1   -3.654437026345591E-1
 7.838720424650000E9     5.615131806651885E-1   -7.819508951034461E-2    2.239825950379937E-3    3.654652562367175E-3    2.189007349594627E-3    3.623568939099023E-3    3.963374002208661E-1   -3.670451076453408E-1
 7.838752723975000E9     5.612466246625212E-1   -8.036134748220515E-2    2.264514600040429E-3    3.651794555380208E-3    2.200304021946181E-3    3.581551654183353E-3    3.948776801922432E-1   -3.686675043078893E-1
 7.838785023300000E9     5.608902019627381E-1   -8.257585388041191E-2    2.251070016779767E-3    3.669732350276572E-3    2.230797890695571E-3    3.588747842067699E-3    3.933562846836980E-1   -3.703453537046184E-1
 7.838817322625000E9     5.604861428115538E-1   -8.465766152959374E-2    2.259183723030717E-3    3.653627186013184E-3    2.258289413316707E-3    3.613467865170365E-3    3.918216926000683E-1   -3.720375126614649E-1
 7.838849621950000E9     5.600805616141796E-1   -8.684957939899303E-2    2.296498288065013E-3    3.662138957322620E-3    2.277755659405374E-3    3.610242266151143E-3    3.902337483255315E-1   -3.738174387405356E-1
 7.838881921275000E9     5.599322167234266E-1   -8.899545996444094E-2    2.317147320626647E-3    3.626643194738578E-3    2.300208312947155E-3    3.624579495054158E-3    3.886052656062892E-1   -3.752761006041512E-1
 7.838914220600000E9     5.594849960737790E-1   -9.104641006043755E-2    2.320318695423913E-3    3.654315356892699E-3    2.301222539453921E-3    3.572116144525371E-3    3.871162123421146E-1   -3.769393764377114E-1
 7.838946519925000E9     5.593329248404346E-1   -9.311305680156988E-2    2.363925065265167E-3    3.632501252337221E-3    2.343954572579928E-3    3.601760022607729E-3    3.854758317216275E-1   -3.785128169829177E-1
 7.838978819250000E9     5.588911831318371E-1   -9.540045068936867E-2    2.379671762771929E-3    3.633162092094222E-3    2.373420581932390E-3    3.595336629710130E-3    3.837374908293164E-1   -3.801611801898221E-1
 7.839011118575000E9     5.584472351268130E-1   -9.723154124214242E-2    2.414836709221698E-3    3.632339650735829E-3    2.410546550166732E-3    3.565271917575355E-3    3.824164268547948E-1   -3.817962988696473E-1
 7.839043417900000E9     5.581876925443787E-1   -9.959549241440330E-2    2.429411531709921E-3    3.660848220111854E-3    2.415368086889975E-3    3.581768488973353E-3    3.808179763040280E-1   -3.834648306949532E-1
 7.839075717225000E9     5.576353021731725E-1   -1.016299097735711E-1    2.474014761212091E-3    3.639729522862572E-3    2.410439297206620E-3    3.587826816029913E-3    3.791552754378988E-1   -3.850558277196635E-1
 7.839108016550000E9     5.573215443209015E-1   -1.037486772486679E-1    2.512774608853509E-3    3.636863230133336E-3    2.431739960964545E-3    3.602707713867637E-3    3.776363254815590E-1   -3.866077141933544E-1
 7.839140315875000E9     5.570647212924886E-1   -1.059633322269057E-1    2.489410696257948E-3    3.633049990206038E-3    2.425642986005348E-3    3.587735244948111E-3    3.759809735490596E-1   -3.882148098703915E-1
 7.839172615200000E9     5.565000724912014E-1   -1.081231624479810E-1    2.502367515905686E-3    3.637868298518711E-3    2.487458810922372E-3    3.603197767031468E-3    3.743337066933362E-1   -3.898345844907586E-1
 7.839204914525000E9     5.561581824337726E-1   -1.102360536572559E-1    2.537430199708646E-3    3.625103774874358E-3    2.478888441356605E-3    3.546081501729098E-3    3.725782792951463E-1   -3.913693763311472E-1
 7.839237213850000E9     5.556391978913053E-1   -1.123485049042850E-1    2.548661936509008E-3    3.637668949710034E-3    2.526365617522493E-3    3.556504221529936E-3    3.710295195527380E-1   -3.928499405249896E-1
 7.839269513175000E9     5.552732484469185E-1   -1.144758206157463E-1    2.572257035574520E-3    3.617525580455801E-3    2.564529095382762E-3    3.575187425852056E-3    3.694317656113251E-1   -3.944384565155507E-1
 7.839301812500000E9     5.547744436614074E-1   -1.165814523870400E-1    2.618726827240193E-3    3.596249018116046E-3    2.571554981374752E-3    3.547746666128412E-3    3.677098583420391E-1   -3.960213845195019E-1
 7.839334111825000E9     5.543592624303770E-1   -1.185922521845650E-1    2.641966053670237E-3    3.624580720066954E-3    2.579209925907716E-3    3.555796693851806E-3    3.661120690684962E-1   -3.974548322593309E-1
 7.839366411150000E9     5.539876064995641E-1   -1.208267664173328E-1    2.653105386425748E-3    3.610275368475434E-3    2.609974672362220E-3    3.580209426692680E-3    3.643652986938076E-1   -3.990896923787436E-1
 7.839398710475000E9     5.534538311945086E-1   -1.230559915018601E-1    2.676381570222723E-3    3.630137297348333E-3    2.629116371151049E-3    3.580117696688929E-3    3.625239441334517E-1   -4.005542843747312E-1
 7.839431009800000E9     5.531685061343025E-1   -1.250670406755753E-1    2.705780021737584E-3    3.618070238013641E-3    2.655248733135661E-3    3.571421484339363E-3    3.611646707900755E-1   -4.021502779929813E-1
 7.839463309125000E9     5.525030070442705E-1   -1.272355886674962E-1    2.711199970654270E-3    3.607237049187440E-3    2.696349733086895E-3    3.537895109297379E-3    3.594457587341952E-1   -4.037524661633659E-1
 7.839495608450000E9     5.519737304234181E-1   -1.291725850238602E-1    2.757234272692016E-3    3.602449339231173E-3    2.707990614030193E-3    3.566805716487566E-3    3.576778039061460E-1   -4.052628962390057E-1
 7.839527907775000E9     5.514699269417590E-1   -1.312968741059757E-1    2.777865238571852E-3    3.627048665576105E-3    2.731170022017458E-3    3.584934949790386E-3    3.560055271915037E-1   -4.068004210202372E-1
 7.839560207100000E9     5.510529195918528E-1   -1.335831087840693E-1    2.812749295251322E-3    3.594078051750978E-3    2.741572077599319E-3    3.568250289567178E-3    3.543783726834976E-1   -4.080532548266972E-1
 7.839592506425000E9     5.505628485339257E-1   -1.357007376676863E-1    2.819377576859542E-3    3.618618981022545E-3    2.785724694701406E-3    3.566523163365038E-3    3.525831136330931E-1   -4.096872117656531E-1
 7.839624805750000E9     5.498564829501337E-1   -1.378693134532112E-1    2.823802988290323E-3    3.606127251974958E-3    2.784765698829678E-3    3.570146086337302E-3    3.508790596983667E-1   -4.112632402714135E-1
 7.839657105075000E9     5.492547342475309E-1   -1.397410884689136E-1    2.874652450869651E-3    3.582816394314305E-3    2.831060437713261E-3    3.527901613421455E-3    3.492884567427832E-1   -4.126189313786631E-1
 7.839689404400000E9     5.490401956095388E-1   -1.419306135960139E-1    2.899636942659658E-3    3.574122870609651E-3    2.866947943908842E-3    3.564358400006957E-3    3.474188218053193E-1   -4.143536580896850E-1
 7.839721703725000E9     5.483217608796151E-1   -1.440824681328779E-1    2.919010459685119E-3    3.595424762857164E-3    2.868027362938872E-3    3.555340606790365E-3    3.457847270607134E-1   -4.155468876221344E-1
 7.839754003050000E9     5.477152272537231E-1   -1.461797667340697E-1    2.935124792365413E-3    3.583215416781313E-3    2.934095362903300E-3    3.553063097988194E-3    3.440910607312184E-1   -4.170092515569536E-1
 7.839786302375000E9     5.472567185934882E-1   -1.481314682774050E-1    2.970783999477132E-3    3.552842592012244E-3    2.916259361795112E-3    3.540915691070719E-3    3.422211121427728E-1   -4.185880999056467E-1
 7.839818601700000E9     5.466055274490048E-1   -1.503530172648394E-1    2.990168974275912E-3    3.590069747156336E-3    2.962251874294445E-3    3.537673684931438E-3    3.403404847610372E-1   -4.198484339811229E-1
 7.839850901025000E9     5.461415957107651E-1   -1.524023466709290E-1    3.025671982472879E-3    3.564367718309726E-3    2.991789881946795E-3    3.550216022617251E-3    3.386306935124493E-1   -4.213539377461525E-1
 7.839883200350000E9     5.455538396556361E-1   -1.545668197343059E-1    3.047773156944773E-3    3.578979374710389E-3    3.014823595391675E-3    3.533075649052359E-3    3.369975551345356E-1   -4.226748986394508E-1
 7.839915499675000E9     5.448571147553405E-1   -1.565815160244394E-1    3.099084436625617E-3    3.572647085726495E-3    3.017481723723823E-3    3.544486114019624E-3    3.351893938326979E-1   -4.241170979972758E-1
 7.839947799000000E9     5.443074544833462E-1   -1.587011414860921E-1    3.120058733174661E-3    3.572109001675695E-3    3.068953340009090E-3    3.558710635955324E-3    3.334974503012175E-1   -4.254227127921787E-1
 7.839980098325000E9     5.436564859465292E-1   -1.608245794177610E-1    3.147178653954271E-3    3.581523033688456E-3    3.070961877818979E-3    3.539995660053780E-3    3.315491089097674E-1   -4.269332489085462E-1
 7.840012397650000E9     5.430423496026318E-1   -1.629460111111840E-1    3.165828577736665E-3    3.547669885904813E-3    3.109209150138103E-3    3.515046059173183E-3    3.299794455594692E-1   -4.284648379103770E-1
 7.840044696975000E9     5.425257943648547E-1   -1.649622584554877E-1    3.188775821137547E-3    3.556280831205752E-3    3.155857422203299E-3    3.523447565522325E-3    3.279486477451921E-1   -4.298148312739059E-1
 7.840076996300000E9     5.417614876083557E-1   -1.669645489582406E-1    3.214979477579189E-3    3.558833802389375E-3    3.182699321266704E-3    3.521347448440119E-3    3.262531695746133E-1   -4.311484092856265E-1
 7.840109295625000E9     5.411094439349151E-1   -1.691907250886794E-1    3.280485127163360E-3    3.567673142891090E-3    3.197164294092151E-3    3.486212410129277E-3    3.245298296234774E-1   -4.325950547140488E-1
 7.840141594950000E9     5.405044892324661E-1   -1.713833790687425E-1    3.282239105348429E-3    3.537309443127696E-3    3.219646336218900E-3    3.510219600399273E-3    3.226208477083758E-1   -4.339558254480228E-1
 7.840173894275000E9     5.397377307065803E-1   -1.732247329123616E-1    3.303933381761791E-3    3.517603716843895E-3    3.286690403664738E-3    3.539741329638587E-3    3.207621893734772E-1   -4.353763063269002E-1
 7.840206193600000E9     5.390896236599818E-1   -1.753797764854304E-1    3.357186206610267E-3    3.516885915356341E-3    3.283340807911500E-3    3.525621773912387E-3    3.189943331791449E-1   -4.365517992427925E-1
 7.840238492925000E9     5.384204081621580E-1   -1.774196429694393E-1    3.351629727282947E-3    3.533219619337604E-3    3.341557862099149E-3    3.517588794057505E-3    3.172931811626658E-1   -4.379983474211954E-1
 7.840270792250000E9     5.377906165274584E-1   -1.795988248831284E-1    3.390845021872108E-3    3.550293476596575E-3    3.338739092221346E-3    3.522927662043386E-3    3.152978560910547E-1   -4.393605699592991E-1
