#  HZ   S   RI   R     50.00 
! Rohde & Schwarz Vector Network Analyzer 
! Rohde-Schwarz,ZNB20-2Port,1311601062101988,3.16
! Created: UTC 12/23/2023, 4:01:11 AM
! freq[Hz]                re:S11                  im:S11                  re:S21                  im:S21                  re:S12                  im:S12                  re:S22                  im:S22
 7.837635784000000E9     5.664436403778638E-1   -6.336724574733829E-3    1.549477343566007E-3    3.735136778031074E-3    1.567249430325859E-3    3.667189699381223E-3    4.437942638593150E-1   -3.074323999486881E-1
 7.837666887500000E9     5.665910172846184E-1   -8.319536694001727E-3    1.529306150544376E-3    3.718053924788692E-3    1.567043197846004E-3    3.662132520491643E-3    4.424463534556543E-1   -3.092700218187844E-1
 7.837697991000000E9     5.664065762201482E-1   -1.037371834468672E-2    1.575902164317295E-3    3.720131911833810E-3    1.556123884995212E-3    3.660037701383070E-3    4.412108045007103E-1   -3.110753121087681E-1
 7.837729094500000E9     5.664548162090353E-1   -1.237631604690335E-2    1.595758388717591E-3    3.722490468643792E-3    1.602510069456077E-3    3.644508979523304E-3    4.399062517009756E-1   -3.127724346401478E-1
 7.837760198000000E9     5.663397472144270E-1   -1.434253197973550E-2    1.613139242102431E-3    3.726709818431013E-3    1.628040757583746E-3    3.622497651399609E-3    4.385330757183275E-1   -3.145684333028276E-1
 7.837791301500000E9     5.664082153940608E-1   -1.660180445740072E-2    1.632197678284087E-3    3.729384387552799E-3    1.615472519058489E-3    3.651977801856868E-3    4.374518764188281E-1   -3.164782978842537E-1
 7.837822405000000E9     5.663736185843902E-1   -1.861936812820810E-2    1.632663030402674E-3    3.700579988218840E-3    1.664246270920702E-3    3.647159245075294E-3    4.362205196865036E-1   -3.182440360471285E-1
 7.837853508500000E9     5.661834374574348E-1   -2.070757823086419E-2    1.659500117067611E-3    3.699283963486856E-3    1.655871757657437E-3    3.635765751533818E-3    4.348566988810283E-1   -3.199654184317079E-1
 7.837884612000000E9     5.661304790897065E-1   -2.264044239450937E-2    1.703741633450856E-3    3.718209031742733E-3    1.653781847677216E-3    3.651102267353166E-3    4.335329126297783E-1   -3.216802622938350E-1
 7.837915715500000E9     5.661619089281146E-1   -2.476989916644538E-2    1.702252767788260E-3    3.704537161663234E-3    1.685965287316919E-3    3.671792992622657E-3    4.322951992237411E-1   -3.233605267666962E-1
 7.837946819000000E9     5.660337537204907E-1   -2.699184866421064E-2    1.702237943304476E-3    3.709751876298584E-3    1.701164263956674E-3    3.640650157805117E-3    4.309304914812000E-1   -3.251593212812651E-1
 7.837977922500000E9     5.658207402245886E-1   -2.889107347133564E-2    1.723911798202414E-3    3.698851391227729E-3    1.727172499929715E-3    3.647422153038252E-3    4.296677307978054E-1   -3.270177408251713E-1
 7.838009026000000E9     5.657754923346575E-1   -3.110361639321851E-2    1.733271535213832E-3    3.703302782851687E-3    1.727166812169958E-3    3.620200563367731E-3    4.284045120806045E-1   -3.286940218236793E-1
 7.838040129500000E9     5.657775113903113E-1   -3.306846652053509E-2    1.811813111981658E-3    3.694908271212431E-3    1.789913404050465E-3    3.650379862988936E-3    4.270020966904935E-1   -3.304493466010501E-1
 7.838071233000000E9     5.655388322070012E-1   -3.525628882932762E-2    1.790300690508975E-3    3.700259437249323E-3    1.792733597571994E-3    3.635852967943179E-3    4.256017026363630E-1   -3.320446973033147E-1
 7.838102336500000E9     5.655607162277950E-1   -3.733066157218021E-2    1.840526411256027E-3    3.716706773994020E-3    1.811710405793934E-3    3.649814565281175E-3    4.242460852360376E-1   -3.339234229174460E-1
 7.838133440000000E9     5.653573638743705E-1   -3.923667745786332E-2    1.857843646648212E-3    3.713476515054155E-3    1.812867963583027E-3    3.623395185908840E-3    4.230001159692987E-1   -3.355768734600663E-1
 7.838164543500000E9     5.651892184423809E-1   -4.148897564460218E-2    1.856801171692867E-3    3.710625837576250E-3    1.825314634358918E-3    3.630868479931843E-3    4.216224056031582E-1   -3.373185970514834E-1
 7.838195647000000E9     5.650652804923826E-1   -4.346869936025545E-2    1.855457000245653E-3    3.691920455679308E-3    1.859451312559102E-3    3.664655296771475E-3    4.203417989350661E-1   -3.389853401755722E-1
 7.838226750500000E9     5.648592789709895E-1   -4.554181828454463E-2    1.874355181965264E-3    3.690877617458439E-3    1.894618422037044E-3    3.643113057333362E-3    4.187916201082652E-1   -3.407746529525592E-1
 7.838257854000000E9     5.646855875097554E-1   -4.764632938339264E-2    1.890072608055611E-3    3.689420614385075E-3    1.919100154853649E-3    3.629185904838409E-3    4.176246828351839E-1   -3.424146700486012E-1
 7.838288957500000E9     5.645328010445533E-1   -4.963656221661474E-2    1.925111655850741E-3    3.680829946921681E-3    1.906849785935958E-3    3.628283314074492E-3    4.162745107685709E-1   -3.441519098074233E-1
 7.838320061000000E9     5.643750990261241E-1   -5.172594425298254E-2    1.938611803157764E-3    3.684777071262663E-3    1.924677672622767E-3    3.630702585891155E-3    4.148395966496156E-1   -3.457923530526582E-1
 7.838351164500000E9     5.641815698717023E-1   -5.365253306491580E-2    1.932538960011941E-3    3.668946545996288E-3    1.957802076523651E-3    3.611549246767105E-3    4.134371171814752E-1   -3.473993584361630E-1
 7.838382268000000E9     5.641244108706931E-1   -5.576736627052027E-2    1.986630760057353E-3    3.688313110515464E-3    2.013524559789829E-3    3.625293991576373E-3    4.119832672909458E-1   -3.491359561864497E-1
 7.838413371500000E9     5.638729432130206E-1   -5.795488499576783E-2    2.015505020437027E-3    3.701197489801066E-3    1.986389149627678E-3    3.628613140306588E-3    4.106838557785130E-1   -3.506521777023630E-1
 7.838444475000000E9     5.636131237429615E-1   -6.006011571726496E-2    2.029635383082235E-3    3.692013002986199E-3    1.993522141258565E-3    3.625163515296477E-3    4.091710307810305E-1   -3.524844714882582E-1
 7.838475578500000E9     5.633414825279397E-1   -6.205877512267414E-2    2.036136961867114E-3    3.683285436095749E-3    2.008922373455638E-3    3.625306179820662E-3    4.077266515569998E-1   -3.541272460275404E-1
 7.838506682000000E9     5.633005660612286E-1   -6.407844262635999E-2    2.070359034930533E-3    3.690196356695318E-3    2.052438952350048E-3    3.642484787875500E-3    4.063798817209020E-1   -3.557600709054439E-1
 7.838537785500000E9     5.629475835092274E-1   -6.631274308521212E-2    2.087221237896061E-3    3.698977467549987E-3    2.095893770400211E-3    3.586750630945303E-3    4.048592308398851E-1   -3.575274804406498E-1
 7.838568889000000E9     5.627275022735836E-1   -6.826483466916944E-2    2.094160473699355E-3    3.685773122711625E-3    2.091215552557444E-3    3.612415614010104E-3    4.033608817706808E-1   -3.591917420846168E-1
 7.838599992500000E9     5.624365171257688E-1   -7.018884979112762E-2    2.104699242394387E-3    3.669017206651572E-3    2.126329648104333E-3    3.641776124187186E-3    4.020926267484661E-1   -3.608363272613255E-1
 7.838631096000000E9     5.622834216660292E-1   -7.239467602494669E-2    2.140204749620063E-3    3.650929759843335E-3    2.114409202190049E-3    3.632057363512513E-3    4.005877535921397E-1   -3.623477499519171E-1
 7.838662199500000E9     5.619341323624586E-1   -7.434167069630257E-2    2.164305825656119E-3    3.682604177801976E-3    2.165272013988510E-3    3.589719219786371E-3    3.992537985992836E-1   -3.638807896400461E-1
 7.838693303000000E9     5.616149918618927E-1   -7.652856983462275E-2    2.182573819105812E-3    3.637634004203015E-3    2.153732486181112E-3    3.612818500420709E-3    3.977176283644090E-1   -3.655947862711974E-1
 7.838724406500000E9     5.613300569518065E-1   -7.853391096859387E-2    2.194440602748998E-3    3.659266142166820E-3    2.216739566682689E-3    3.602150822019957E-3    3.963266938325480E-1   -3.671633585581999E-1
 7.838755510000000E9     5.609947320920841E-1   -8.054013960625966E-2    2.225654200792402E-3    3.646165885174751E-3    2.193250092375667E-3    3.586218098033071E-3    3.947394393505306E-1   -3.686753552865766E-1
 7.838786613500000E9     5.609199866535933E-1   -8.265929624751032E-2    2.261934507182854E-3    3.651580656814146E-3    2.218812081338679E-3    3.609850009221107E-3    3.932755380768181E-1   -3.703447964925148E-1
 7.838817717000000E9     5.604236308585218E-1   -8.458139022068470E-2    2.275166652352180E-3    3.653670775540882E-3    2.244263844332827E-3    3.610274450357764E-3    3.917862060800228E-1   -3.718521600104653E-1
 7.838848820500000E9     5.602561148186915E-1   -8.667512250246083E-2    2.299832234498658E-3    3.677813804147597E-3    2.288716606768722E-3    3.596434455329691E-3    3.902661817680263E-1   -3.736095077198411E-1
 7.838879924000000E9     5.598431280121107E-1   -8.869561806193034E-2    2.308821455362937E-3    3.640193082724082E-3    2.284777919683576E-3    3.601643258389879E-3    3.886518992767993E-1   -3.751927516564245E-1
 7.838911027500000E9     5.596025495747319E-1   -9.080304124864300E-2    2.329923392816116E-3    3.639199150318850E-3    2.260047982563607E-3    3.586477510947191E-3    3.874213304282079E-1   -3.766753410133412E-1
 7.838942131000000E9     5.592999481102894E-1   -9.297740414405126E-2    2.358653538875489E-3    3.638714023767346E-3    2.342948495636584E-3    3.580024618502179E-3    3.857028571460908E-1   -3.781299794754405E-1
 7.838973234500000E9     5.589002940535202E-1   -9.505676283771912E-2    2.311468189464525E-3    3.648103570175461E-3    2.346779736184534E-3    3.594854715843794E-3    3.842588507557855E-1   -3.798743418037241E-1
 7.839004338000000E9     5.586126637708293E-1   -9.697673539990345E-2    2.385202256130411E-3    3.625339408485557E-3    2.346448879321896E-3    3.612883553193029E-3    3.827604066336366E-1   -3.814918487960024E-1
 7.839035441500000E9     5.582159905793356E-1   -9.901448481817436E-2    2.413893527426929E-3    3.621551404931398E-3    2.385273119232886E-3    3.609701204013709E-3    3.810891763823788E-1   -3.828315667534103E-1
 7.839066545000000E9     5.578369466126519E-1   -1.010833808970526E-1    2.415674030235289E-3    3.650478248296656E-3    2.405604603722991E-3    3.595516135155260E-3    3.797471384967251E-1   -3.845695025221330E-1
 7.839097648500000E9     5.575474326395466E-1   -1.031115835378704E-1    2.454322340725255E-3    3.649215886600758E-3    2.423381787286768E-3    3.570496741763008E-3    3.781781146631216E-1   -3.861991589404289E-1
 7.839128752000000E9     5.569597863195979E-1   -1.052589180627149E-1    2.475801170060641E-3    3.631196060248764E-3    2.456818713533937E-3    3.592277637622406E-3    3.765380926798802E-1   -3.876818560608088E-1
 7.839159855500000E9     5.566370948148194E-1   -1.073176386070134E-1    2.506783740519655E-3    3.631799731736151E-3    2.458082612690476E-3    3.599018406978656E-3    3.750520175936859E-1   -3.891339036709086E-1
 7.839190959000000E9     5.562464254653271E-1   -1.093465635023723E-1    2.522544322036369E-3    3.655933538791442E-3    2.485628738648573E-3    3.588243970850384E-3    3.734370613460661E-1   -3.906276599963454E-1
 7.839222062500000E9     5.559678874604504E-1   -1.113991863563941E-1    2.568261204815109E-3    3.608953452863330E-3    2.507975037317177E-3    3.608698996617234E-3    3.717739053840081E-1   -3.920892914075907E-1
 7.839253166000000E9     5.555072640255779E-1   -1.133972113947395E-1    2.560963628022866E-3    3.636363391691046E-3    2.528488822301749E-3    3.532332239386648E-3    3.702735427892976E-1   -3.936605427568873E-1
 7.839284269500000E9     5.551305094075261E-1   -1.153643364295250E-1    2.594390984477683E-3    3.627806835336705E-3    2.527764464575948E-3    3.557918857495147E-3    3.686348366248591E-1   -3.950720353209073E-1
 7.839315373000000E9     5.546129828043449E-1   -1.175405178526154E-1    2.604687842188547E-3    3.623459300991053E-3    2.562432818535421E-3    3.568912902738044E-3    3.671313967262199E-1   -3.966974156204847E-1
 7.839346476500000E9     5.543132343098706E-1   -1.194437634729737E-1    2.622386001652894E-3    3.596754571963269E-3    2.625072172609212E-3    3.566312208948092E-3    3.655564076429913E-1   -3.981880855368325E-1
 7.839377580000000E9     5.537940250348569E-1   -1.216270733513889E-1    2.669086632708564E-3    3.606680712576380E-3    2.614076290271708E-3    3.550893286321544E-3    3.638822220533410E-1   -3.996356068631934E-1
 7.839408683500000E9     5.532756474872529E-1   -1.237127518646213E-1    2.673521303806477E-3    3.619880275355697E-3    2.629926625979824E-3    3.577364607164177E-3    3.621192124765116E-1   -4.012334643679217E-1
 7.839439787000000E9     5.528115032854413E-1   -1.255505486571130E-1    2.698764362942075E-3    3.579665457146341E-3    2.670466902627412E-3    3.585373553112550E-3    3.605833501383118E-1   -4.025784223548328E-1
 7.839470890500000E9     5.523393323778130E-1   -1.276892179951155E-1    2.736688377103221E-3    3.596966691006462E-3    2.649165391884059E-3    3.574666949924003E-3    3.589598786045689E-1   -4.040910296781297E-1
 7.839501994000000E9     5.519141170662626E-1   -1.296232857945018E-1    2.730108069224212E-3    3.597905180767436E-3    2.738194952186673E-3    3.561925164430601E-3    3.573989183182130E-1   -4.055007751615925E-1
 7.839533097500000E9     5.514223221367573E-1   -1.317380661585409E-1    2.777248730029073E-3    3.594306557442693E-3    2.715837012497030E-3    3.567635474431541E-3    3.556641765746953E-1   -4.067722233195252E-1
 7.839564201000000E9     5.510135101222960E-1   -1.337012564225812E-1    2.791667392078326E-3    3.578401401460088E-3    2.752669477475734E-3    3.587886398036943E-3    3.542051026031116E-1   -4.084466029771376E-1
 7.839595304500000E9     5.504007607400119E-1   -1.358015307795042E-1    2.820683396194533E-3    3.573800692326156E-3    2.775851550773597E-3    3.541904509119849E-3    3.524116137452835E-1   -4.098347669028962E-1
 7.839626408000000E9     5.499490584213365E-1   -1.378585096736955E-1    2.847250154788314E-3    3.591546719442865E-3    2.780720639262913E-3    3.562207037691466E-3    3.509278155092906E-1   -4.113312129750319E-1
 7.839657511500000E9     5.493711961181144E-1   -1.397371055940815E-1    2.869724328440681E-3    3.567003037039876E-3    2.832867701440225E-3    3.533339883495306E-3    3.492824224517737E-1   -4.125983851868993E-1
 7.839688615000000E9     5.488492083052645E-1   -1.419026354630702E-1    2.886605403770774E-3    3.588169133137578E-3    2.868715770765683E-3    3.528965039489053E-3    3.475622436375650E-1   -4.141432373476037E-1
 7.839719718500000E9     5.484725969225650E-1   -1.437804614921508E-1    2.919481332612428E-3    3.569189654943941E-3    2.886671137246411E-3    3.540534466286389E-3    3.456901023878946E-1   -4.155140861951555E-1
 7.839750822000000E9     5.479187486318216E-1   -1.458966213880781E-1    2.932792134381859E-3    3.556947886693898E-3    2.919167898741761E-3    3.548375515140735E-3    3.442787108899256E-1   -4.169247782064436E-1
 7.839781925500000E9     5.471759347579443E-1   -1.480603154513494E-1    2.943529363994897E-3    3.544475232085501E-3    2.914518407911102E-3    3.538356438383984E-3    3.426129300771575E-1   -4.183438985013537E-1
 7.839813029000000E9     5.467778512066068E-1   -1.499735651937681E-1    2.998707878955487E-3    3.606563452604328E-3    2.953608742017476E-3    3.541596134942839E-3    3.408737423785681E-1   -4.195542897246529E-1
 7.839844132500000E9     5.462033367976691E-1   -1.520447236899817E-1    3.010105171044962E-3    3.546608635447105E-3    2.997097276209907E-3    3.534411025080823E-3    3.391336988731643E-1   -4.209561832470431E-1
 7.839875236000000E9     5.455812728866228E-1   -1.539860363934306E-1    3.019343847997975E-3    3.566153670896926E-3    2.997186427437638E-3    3.539029990158191E-3    3.373138130481999E-1   -4.224749193766580E-1
 7.839906339500000E9     5.450211552265577E-1   -1.559735986001262E-1    3.073364150263933E-3    3.556459641055913E-3    3.031930381620235E-3    3.541417028741578E-3    3.357147511262966E-1   -4.236266759672256E-1
 7.839937443000000E9     5.444548162600212E-1   -1.580747035657376E-1    3.083137003902599E-3    3.543217559760971E-3    3.066119337975706E-3    3.529223877102563E-3    3.340069804840818E-1   -4.250215624986592E-1
 7.839968546500000E9     5.438542441728146E-1   -1.599984236994295E-1    3.119602832360572E-3    3.547065473339898E-3    3.048517846024956E-3    3.565878263862867E-3    3.321965798566462E-1   -4.265561121908863E-1
 7.839999650000000E9     5.432904134664880E-1   -1.620679140456644E-1    3.157286147650315E-3    3.550923323089625E-3    3.117508128632052E-3    3.519815562147874E-3    3.306369194369277E-1   -4.277203323190339E-1
 7.840030753500000E9     5.427392435007952E-1   -1.638926741353671E-1    3.157713158154146E-3    3.548543352998548E-3    3.132583256433445E-3    3.531709599603556E-3    3.288459995330185E-1   -4.290930493784744E-1
 7.840061857000000E9     5.421096740692993E-1   -1.661001753421172E-1    3.195763614095967E-3    3.544476933319594E-3    3.174537892680346E-3    3.542757394777483E-3    3.270275842881967E-1   -4.304249343221840E-1
 7.840092960500000E9     5.415936840389689E-1   -1.679750403425306E-1    3.244014125657738E-3    3.539376998792618E-3    3.174746058698628E-3    3.549233782579703E-3    3.254487130853255E-1   -4.317018373471589E-1
 7.840124064000000E9     5.408873537024989E-1   -1.700087804242844E-1    3.249984499074875E-3    3.519927879747726E-3    3.210803716804296E-3    3.512469852755334E-3    3.236146456864981E-1   -4.330398871095330E-1
 7.840155167500000E9     5.400722068052473E-1   -1.720136171713849E-1    3.280340605295274E-3    3.553470841942976E-3    3.236902159697995E-3    3.493198630997985E-3    3.219571873831015E-1   -4.344388108084344E-1
 7.840186271000000E9     5.393782831936182E-1   -1.740321254676553E-1    3.313932564581741E-3    3.546565302936428E-3    3.266473913145060E-3    3.494520690691880E-3    3.201346930405161E-1   -4.357464604793400E-1
 7.840217374500000E9     5.387993365382798E-1   -1.761508505883083E-1    3.320938922921573E-3    3.547874998933918E-3    3.292390701796216E-3    3.500260037156063E-3    3.182451062289962E-1   -4.371737739873867E-1
 7.840248478000000E9     5.381338206497556E-1   -1.779921625485659E-1    3.369550694607219E-3    3.523300124904885E-3    3.322063357543660E-3    3.501039136567624E-3    3.167525172407626E-1   -4.383638233574424E-1
 7.840279581500000E9     5.374670217497328E-1   -1.801320445304368E-1    3.408781590363701E-3    3.525018708715326E-3    3.363819379785647E-3    3.469495455509249E-3    3.148779175670405E-1   -4.396055111603101E-1
 7.840310685000000E9     5.368394882099978E-1   -1.820095507716149E-1    3.433030364096033E-3    3.538540233654707E-3    3.370072251236795E-3    3.520796401546316E-3    3.130727008395140E-1   -4.408563472169748E-1
 7.840341788500000E9     5.361234026737933E-1   -1.840616096256797E-1    3.455593567070813E-3    3.517280856386721E-3    3.396883018262043E-3    3.478557896549754E-3    3.114611999677040E-1   -4.421986676067600E-1
 7.840372892000000E9     5.354409865322538E-1   -1.860806432064448E-1    3.476008690151748E-3    3.523320208445848E-3    3.453294267177789E-3    3.500913955499632E-3    3.096346655943268E-1   -4.435418081860940E-1
 7.840403995500000E9     5.348425247237906E-1   -1.880645695590177E-1    3.481529535984651E-3    3.520457334640063E-3    3.464418595358900E-3    3.525957776599243E-3    3.078095530998772E-1   -4.446971370785600E-1
 7.840435099000000E9     5.340304356062194E-1   -1.899031221882839E-1    3.532545194287940E-3    3.490625243984576E-3    3.475499574267734E-3    3.471836253014751E-3    3.059081407201499E-1   -4.459410067476372E-1
