#  HZ   S   RI   R     50.00 
! Rohde & Schwarz Vector Network Analyzer 
! Rohde-Schwarz,ZNB20-2Port,1311601062101988,3.16
! Created: UTC 12/23/2023, 4:02:51 AM
! freq[Hz]                re:S11                  im:S11                  re:S21                  im:S21                  re:S12                  im:S12                  re:S22                  im:S22
 7.837697315000000E9     5.664630325891143E-1   -1.047300516421269E-2    1.564205032954203E-3    3.690834352664066E-3    1.585725085662004E-3    3.666613367004384E-3    4.410940386966402E-1   -3.110024583371812E-1
 7.837728318425000E9     5.663358120286991E-1   -1.241953024916766E-2    1.594758121173259E-3    3.697491041490523E-3    1.590545921640784E-3    3.652812642741474E-3    4.400198228435215E-1   -3.127556306443948E-1
 7.837759321850000E9     5.663131217371976E-1   -1.448380951050035E-2    1.612407931552158E-3    3.706917823069320E-3    1.615604917407811E-3    3.657310536728528E-3    4.386559714408299E-1   -3.145373490454080E-1
 7.837790325275000E9     5.662405036494282E-1   -1.655863967477566E-2    1.619487024609064E-3    3.710696963455482E-3    1.646652715215244E-3    3.616841739684808E-3    4.375197943158819E-1   -3.163060248583532E-1
 7.837821328700000E9     5.662558605814539E-1   -1.883945003725319E-2    1.630885099785749E-3    3.710692607721570E-3    1.692363008942287E-3    3.643582693613564E-3    4.361450992795942E-1   -3.180438307256817E-1
 7.837852332125000E9     5.662980194406101E-1   -2.076797097025396E-2    1.675313353962271E-3    3.707649015084144E-3    1.643942904652432E-3    3.648100388064993E-3    4.349642519962267E-1   -3.198125851598828E-1
 7.837883335550000E9     5.661692047415364E-1   -2.280456864802922E-2    1.673148356847399E-3    3.744462491558953E-3    1.674001721947571E-3    3.628467061270826E-3    4.337176700974086E-1   -3.215831545545036E-1
 7.837914338975000E9     5.660367437400171E-1   -2.481916863354970E-2    1.692872760755574E-3    3.701411943693928E-3    1.716200350337864E-3    3.637105892293294E-3    4.322164747334690E-1   -3.234082826381710E-1
 7.837945342400000E9     5.660225937479028E-1   -2.679135716386381E-2    1.730095879308865E-3    3.708907482469815E-3    1.688257391972165E-3    3.636339772027996E-3    4.310592158256116E-1   -3.251125889264008E-1
 7.837976345825000E9     5.658808654451173E-1   -2.892825862218762E-2    1.762686439449126E-3    3.723953916546731E-3    1.748018003266740E-3    3.627421735480353E-3    4.298459700295533E-1   -3.268859639689579E-1
 7.838007349250000E9     5.657335955337346E-1   -3.102529296333185E-2    1.772377746557629E-3    3.700604638463270E-3    1.745140208713339E-3    3.634816962149904E-3    4.284279630467828E-1   -3.285976690818718E-1
 7.838038352675000E9     5.658470562058413E-1   -3.307730985891527E-2    1.768408686575716E-3    3.689170972557689E-3    1.765496020883071E-3    3.632255288914753E-3    4.271572359944162E-1   -3.303020264433247E-1
 7.838069356100000E9     5.656879717799096E-1   -3.520272825450636E-2    1.788683353383373E-3    3.694118337377431E-3    1.786913386324105E-3    3.626773845943248E-3    4.260440240075997E-1   -3.320445806210002E-1
 7.838100359525000E9     5.655171667914572E-1   -3.718021031353441E-2    1.812372796011380E-3    3.701715625696627E-3    1.809860381301918E-3    3.626015940429210E-3    4.244517426309233E-1   -3.336602473321139E-1
 7.838131362950000E9     5.653416365937449E-1   -3.917737107846727E-2    1.813173592452220E-3    3.690521887738434E-3    1.806414246542582E-3    3.637498615148289E-3    4.231305275247587E-1   -3.354025316319887E-1
 7.838162366375000E9     5.652681486949467E-1   -4.126128782025335E-2    1.863304889145279E-3    3.689728151410603E-3    1.870088238965551E-3    3.659878379205605E-3    4.217224131544497E-1   -3.372219070320857E-1
 7.838193369800000E9     5.650787816091398E-1   -4.329082951962571E-2    1.847435807819338E-3    3.680007868737823E-3    1.854943438332978E-3    3.632963946312003E-3    4.204683809253518E-1   -3.388096247629018E-1
 7.838224373225000E9     5.649567726797773E-1   -4.546041513428298E-2    1.881655772633631E-3    3.703937248119729E-3    1.879155965245999E-3    3.636090638813824E-3    4.190184726880459E-1   -3.405556631655231E-1
 7.838255376650000E9     5.646963027650802E-1   -4.751697626305458E-2    1.903779945927129E-3    3.670583854654219E-3    1.885629595677696E-3    3.616292545042850E-3    4.178312154460216E-1   -3.422401890622470E-1
 7.838286380075000E9     5.646567238208265E-1   -4.958733024273497E-2    1.902688725109948E-3    3.670226568345391E-3    1.912173283974043E-3    3.615547946354988E-3    4.163369711460305E-1   -3.440256752305728E-1
 7.838317383500000E9     5.643179979520959E-1   -5.166481945642809E-2    1.911452599954227E-3    3.700470321881705E-3    1.922709147317340E-3    3.616539244981190E-3    4.150216716894351E-1   -3.455679847073115E-1
 7.838348386925000E9     5.642727223239981E-1   -5.364903366479527E-2    1.963793987053021E-3    3.672959193668444E-3    1.957216252429808E-3    3.590546495526608E-3    4.135644601080043E-1   -3.473691011409261E-1
 7.838379390350000E9     5.640691098225080E-1   -5.569807927648709E-2    1.967971119327582E-3    3.663863497210429E-3    1.949053104476353E-3    3.610087341540077E-3    4.121072664026049E-1   -3.489586497763038E-1
 7.838410393775000E9     5.638730568121622E-1   -5.788018538139909E-2    1.991638954692256E-3    3.691667242415480E-3    2.010390123271025E-3    3.615350639645390E-3    4.107518979155337E-1   -3.505998518352954E-1
 7.838441397200000E9     5.635319947073522E-1   -5.977420858400230E-2    2.008356436209892E-3    3.678593719700260E-3    2.023863322637550E-3    3.598665201062714E-3    4.094940984946310E-1   -3.522745212728594E-1
 7.838472400625000E9     5.635205293478235E-1   -6.187923461970461E-2    2.037980666189179E-3    3.666929586356291E-3    1.991885037881923E-3    3.610574530387955E-3    4.079158070939575E-1   -3.539435526190592E-1
 7.838503404050000E9     5.631799377979829E-1   -6.392068480230932E-2    2.046004055302503E-3    3.691622455425042E-3    1.999284001122305E-3    3.625836306690635E-3    4.064390563165065E-1   -3.556307483153797E-1
 7.838534407475000E9     5.629854428786444E-1   -6.602770046531152E-2    2.065545489929720E-3    3.673079051433128E-3    2.079862745957571E-3    3.583496570943815E-3    4.051210055119338E-1   -3.572998854003654E-1
 7.838565410900000E9     5.625853821610775E-1   -6.798991205612301E-2    2.125089572608929E-3    3.664468958551968E-3    2.081600562139205E-3    3.606121721943703E-3    4.037334467179104E-1   -3.588270673094306E-1
 7.838596414325000E9     5.624318018901266E-1   -7.018867040629495E-2    2.106498845611839E-3    3.677659320522811E-3    2.088476788321121E-3    3.615055394384222E-3    4.022427290930528E-1   -3.604020840706320E-1
 7.838627417750000E9     5.622644411465536E-1   -7.216165890843070E-2    2.117678802190967E-3    3.660121035025894E-3    2.109061460079404E-3    3.620855586004466E-3    4.009317597542877E-1   -3.621498187820467E-1
 7.838658421175000E9     5.619408732510198E-1   -7.419889890221351E-2    2.169210364004845E-3    3.639270327175734E-3    2.151693365385491E-3    3.615760507184232E-3    3.992707531913841E-1   -3.637803377969246E-1
 7.838689424600000E9     5.617029070427876E-1   -7.639314239869101E-2    2.166378209862853E-3    3.670657989575481E-3    2.150505183719266E-3    3.582845587556921E-3    3.979752291711464E-1   -3.653252215910040E-1
 7.838720428025000E9     5.614483781260668E-1   -7.839076917590358E-2    2.185383688084805E-3    3.650522079724013E-3    2.187124919379152E-3    3.603580128346699E-3    3.963609571262398E-1   -3.669361303439204E-1
 7.838751431450000E9     5.611988409554384E-1   -8.036088098269760E-2    2.190048412767961E-3    3.654745194188817E-3    2.203664420993420E-3    3.603657627719289E-3    3.949583833657076E-1   -3.686329276614010E-1
 7.838782434875000E9     5.608743174844474E-1   -8.239364853065365E-2    2.222254820962197E-3    3.660077949278760E-3    2.241100987945975E-3    3.607832778988703E-3    3.936186998819660E-1   -3.702227898393097E-1
 7.838813438300000E9     5.606006944571676E-1   -8.448774519007939E-2    2.266392091165359E-3    3.659808128037452E-3    2.224754380671786E-3    3.569291073428334E-3    3.919523338724338E-1   -3.717376492830318E-1
 7.838844441725000E9     5.603279381680319E-1   -8.657722896573224E-2    2.260100939409507E-3    3.647260053158716E-3    2.265877140067341E-3    3.593383316365334E-3    3.904539095140336E-1   -3.733131568697168E-1
 7.838875445150000E9     5.598593596614371E-1   -8.847447429943096E-2    2.297103088056667E-3    3.638992723610966E-3    2.280533703928082E-3    3.564841305557582E-3    3.890681850119882E-1   -3.749672101245674E-1
 7.838906448575000E9     5.595854733260675E-1   -9.064021471305349E-2    2.335347848547375E-3    3.631918924264325E-3    2.331678210056731E-3    3.612726947027600E-3    3.875815910220557E-1   -3.764893762113706E-1
 7.838937452000000E9     5.593239257621418E-1   -9.274281201952297E-2    2.339291878359891E-3    3.632768913986547E-3    2.319673454818814E-3    3.620500337309161E-3    3.860563473740068E-1   -3.779209325852950E-1
 7.838968455425000E9     5.590206772609789E-1   -9.475195817877989E-2    2.345664431566119E-3    3.656760072839906E-3    2.324809325134000E-3    3.608397354459855E-3    3.844949456738746E-1   -3.794049389019764E-1
 7.838999458850000E9     5.586496093602742E-1   -9.668076833370108E-2    2.389881486112821E-3    3.631507907951150E-3    2.362860676693745E-3    3.588440886092540E-3    3.829488409695194E-1   -3.810940147016847E-1
 7.839030462275000E9     5.581977250130619E-1   -9.883503527107555E-2    2.393209572669696E-3    3.650644870629077E-3    2.385287715367329E-3    3.567215961237423E-3    3.811814340797632E-1   -3.825829366961214E-1
 7.839061465700000E9     5.579636207791928E-1   -1.008257883378002E-1    2.426559785742076E-3    3.626664144021898E-3    2.395345456939895E-3    3.571189028124263E-3    3.798635234629187E-1   -3.841569783016847E-1
 7.839092469125000E9     5.576290346200196E-1   -1.027832208641746E-1    2.438408164566283E-3    3.628773003046189E-3    2.397472170307240E-3    3.545886258569613E-3    3.783110600488772E-1   -3.858270977654801E-1
 7.839123472550000E9     5.570670232663330E-1   -1.049090243837114E-1    2.493970962431105E-3    3.616112092582025E-3    2.422240011391839E-3    3.576939776988810E-3    3.768215769697090E-1   -3.873394842379030E-1
 7.839154475975000E9     5.567581127310415E-1   -1.068696849796165E-1    2.468150801702920E-3    3.618238080000729E-3    2.442264783252277E-3    3.579248938598055E-3    3.753016858089167E-1   -3.888722430482842E-1
 7.839185479400000E9     5.563531678434198E-1   -1.089970353373276E-1    2.492925792338148E-3    3.626301822389402E-3    2.485032697626417E-3    3.598239244624165E-3    3.736955317533553E-1   -3.903408067779214E-1
 7.839216482825000E9     5.559414074157951E-1   -1.110154551127016E-1    2.527241358094092E-3    3.639689600795064E-3    2.494727297063788E-3    3.571126589482450E-3    3.720908691157286E-1   -3.919484240880536E-1
 7.839247486250000E9     5.555186206213700E-1   -1.129556472019988E-1    2.554051043848673E-3    3.595652416816662E-3    2.507226606145821E-3    3.532782299625981E-3    3.704559229799128E-1   -3.934253146832188E-1
 7.839278489675000E9     5.552715277185050E-1   -1.151972755911170E-1    2.581373952653428E-3    3.603422315346579E-3    2.519151166507972E-3    3.588324632821174E-3    3.689506694094488E-1   -3.948244313655989E-1
 7.839309493100000E9     5.548518198250880E-1   -1.170972903065086E-1    2.585751899340529E-3    3.600907485956970E-3    2.591425007205355E-3    3.558929302858039E-3    3.673098228594895E-1   -3.961325637430213E-1
 7.839340496525000E9     5.542214967090503E-1   -1.191142855628257E-1    2.617858551708008E-3    3.602276619450256E-3    2.571256879985914E-3    3.572210667600552E-3    3.657185590420211E-1   -3.978071956039726E-1
 7.839371499950000E9     5.538648616098103E-1   -1.211815204722715E-1    2.619875404340939E-3    3.606664177240079E-3    2.613624519494164E-3    3.551309833553385E-3    3.642665030033468E-1   -3.993175216858025E-1
 7.839402503375000E9     5.534093405197508E-1   -1.231667078348045E-1    2.644634241646653E-3    3.617160756422536E-3    2.596928895214897E-3    3.552245080162618E-3    3.625148583076388E-1   -4.008503968117527E-1
 7.839433506800000E9     5.530415470823238E-1   -1.252076616045805E-1    2.653307805133195E-3    3.601371633289865E-3    2.661268306017959E-3    3.541704370956128E-3    3.608919282393102E-1   -4.023363523963817E-1
 7.839464510225000E9     5.525684589505722E-1   -1.272278680719087E-1    2.724795372237125E-3    3.614787748095147E-3    2.664142279970477E-3    3.560362267202348E-3    3.592752971988258E-1   -4.037133498040820E-1
 7.839495513650000E9     5.519347549021456E-1   -1.292445762968490E-1    2.711344739171716E-3    3.597205199024389E-3    2.678929126316318E-3    3.558633709495454E-3    3.576616739351812E-1   -4.052252380057529E-1
 7.839526517075000E9     5.515392605774291E-1   -1.313910468322551E-1    2.738649416338797E-3    3.572404390079944E-3    2.726224887548369E-3    3.548655204083114E-3    3.562298661699577E-1   -4.066303146763108E-1
 7.839557520500000E9     5.510347861317952E-1   -1.333688291059001E-1    2.756628066772739E-3    3.576518952803057E-3    2.760860522520856E-3    3.566521207111614E-3    3.545320812600817E-1   -4.079581229452028E-1
 7.839588523925000E9     5.505879050400960E-1   -1.354075845377875E-1    2.801343616814851E-3    3.590156530872811E-3    2.748366643481891E-3    3.563492523101674E-3    3.528524302950908E-1   -4.095271296229522E-1
 7.839619527350000E9     5.501255754933261E-1   -1.373874376447132E-1    2.835238451834465E-3    3.580951526720703E-3    2.775804790663223E-3    3.513004075850700E-3    3.512226000687263E-1   -4.109320193218157E-1
 7.839650530775000E9     5.496619386418923E-1   -1.393905796392849E-1    2.835386533897278E-3    3.565051501152199E-3    2.820216891703566E-3    3.510638797967734E-3    3.495667462838358E-1   -4.122918229973987E-1
 7.839681534200000E9     5.489730883558142E-1   -1.415497446110363E-1    2.880194971590678E-3    3.567723880844916E-3    2.814138541591905E-3    3.539028308793101E-3    3.481747837826372E-1   -4.136867788680660E-1
 7.839712537625000E9     5.485051536025223E-1   -1.434108071036769E-1    2.880651148873915E-3    3.582214966867718E-3    2.868287694364501E-3    3.546849914203690E-3    3.462892533432996E-1   -4.151935535095222E-1
 7.839743541050000E9     5.481471049882856E-1   -1.455025421189545E-1    2.908055238564534E-3    3.574314932637061E-3    2.847179719353490E-3    3.518838240227534E-3    3.445688130357816E-1   -4.166848840435794E-1
 7.839774544475000E9     5.475252775323221E-1   -1.474415465152962E-1    2.949363488122834E-3    3.571399007757917E-3    2.872773794214980E-3    3.571376142034181E-3    3.428896787248568E-1   -4.179603419788051E-1
 7.839805547900000E9     5.467958800932652E-1   -1.494941099275500E-1    2.961102594020005E-3    3.552748886344493E-3    2.909302738650061E-3    3.568644806477144E-3    3.412242793562758E-1   -4.192270937935531E-1
 7.839836551325000E9     5.462256300910463E-1   -1.514550047167250E-1    2.970868350388940E-3    3.566775853177348E-3    2.916668972001640E-3    3.541906600142083E-3    3.396420955774196E-1   -4.205001101012052E-1
 7.839867554750000E9     5.458334355765357E-1   -1.534989381439999E-1    3.042252331168188E-3    3.574627944064920E-3    2.995647910904640E-3    3.561809007320482E-3    3.378804303133267E-1   -4.219208311761676E-1
 7.839898558175000E9     5.451991190702036E-1   -1.554507762759070E-1    3.057400623865405E-3    3.556203393933043E-3    3.000948721899757E-3    3.540066664912158E-3    3.361343358796638E-1   -4.233530820651673E-1
 7.839929561600000E9     5.446124798448652E-1   -1.575160951278778E-1    3.074393745311133E-3    3.551898911804366E-3    3.014760524065464E-3    3.556634683238367E-3    3.344684921258429E-1   -4.247518333494363E-1
 7.839960565025000E9     5.441196033543176E-1   -1.596009556969957E-1    3.089229842711362E-3    3.567689905452249E-3    3.066302960930113E-3    3.539445208776624E-3    3.326069568227701E-1   -4.262306357517913E-1
 7.839991568450000E9     5.434125265785427E-1   -1.616192124521219E-1    3.109549433388522E-3    3.545200486626403E-3    3.059250379133626E-3    3.532720441299391E-3    3.311245690182889E-1   -4.274941141025086E-1
 7.840022571875000E9     5.428290899707451E-1   -1.635619813089047E-1    3.145043081222827E-3    3.541241473817159E-3    3.103688466862087E-3    3.492124691189286E-3    3.293456086825518E-1   -4.287428584414759E-1
 7.840053575300000E9     5.422545128846715E-1   -1.655072804441498E-1    3.163392764077069E-3    3.517115141555801E-3    3.139766050313028E-3    3.534301519517322E-3    3.275188795454836E-1   -4.301880926989874E-1
 7.840084578725000E9     5.416305041176985E-1   -1.675521018453680E-1    3.184736884177487E-3    3.530021403100427E-3    3.138913397779291E-3    3.498293651161570E-3    3.258484338526215E-1   -4.314072869386466E-1
 7.840115582150000E9     5.410539495242483E-1   -1.694778560135278E-1    3.223157934379969E-3    3.555675404030485E-3    3.166544886904718E-3    3.503634329230366E-3    3.241331865375026E-1   -4.327999887093172E-1
 7.840146585575000E9     5.403378973059203E-1   -1.714183500099270E-1    3.276776457936083E-3    3.546544635901770E-3    3.205022799495149E-3    3.509232417929897E-3    3.223708114737697E-1   -4.340958809172644E-1
 7.840177589000000E9     5.396941268246392E-1   -1.735163833746520E-1    3.279949442987040E-3    3.550331448245402E-3    3.262539484845981E-3    3.492608052896255E-3    3.207346565970303E-1   -4.354034481304634E-1
 7.840208592425000E9     5.391129180623783E-1   -1.754704529393753E-1    3.312919760571258E-3    3.525335935851242E-3    3.270237200653758E-3    3.490317111136015E-3    3.190599939161788E-1   -4.365890220130563E-1
 7.840239595850000E9     5.383185260775271E-1   -1.775398923357808E-1    3.337410086216624E-3    3.541856449443885E-3    3.294623715172821E-3    3.517041122743707E-3    3.172236972934830E-1   -4.379709291019340E-1
 7.840270599275000E9     5.377277696953746E-1   -1.794616409572626E-1    3.354737424671600E-3    3.541180352364700E-3    3.325966909005257E-3    3.514267024264707E-3    3.154424293896272E-1   -4.392162666099524E-1
 7.840301602700000E9     5.370255855245741E-1   -1.814379382637696E-1    3.401901035241148E-3    3.514867173423345E-3    3.344757523326812E-3    3.497544762339983E-3    3.135870331302539E-1   -4.405920727198817E-1
 7.840332606125000E9     5.362260807620068E-1   -1.833944053894405E-1    3.421949887542962E-3    3.510500646624782E-3    3.362892195044238E-3    3.493177937188308E-3    3.119248353719858E-1   -4.417302948528032E-1
 7.840363609550000E9     5.357397297564364E-1   -1.854421088464654E-1    3.445524824836088E-3    3.509261876433411E-3    3.400298183211687E-3    3.488433489155664E-3    3.101584928338502E-1   -4.429930247840028E-1
 7.840394612975000E9     5.349601806377523E-1   -1.874319439879187E-1    3.471827221532964E-3    3.533539130636758E-3    3.422051161457029E-3    3.481445713192837E-3    3.083919956562546E-1   -4.443633252370821E-1
 7.840425616400000E9     5.343463892839280E-1   -1.893525490699760E-1    3.516820854649480E-3    3.488878152354311E-3    3.451791820102072E-3    3.459652641533601E-3    3.065854872217010E-1   -4.456896970199879E-1
 7.840456619825000E9     5.335365300440079E-1   -1.914004016133259E-1    3.523612226495189E-3    3.520163192091967E-3    3.508963027344086E-3    3.510083941761583E-3    3.047901475740795E-1   -4.468830277078654E-1
 7.840487623250000E9     5.328263851093654E-1   -1.932676230995790E-1    3.577188286992352E-3    3.489963615142266E-3    3.538163810926001E-3    3.490580054449385E-3    3.030274756781758E-1   -4.480920485859617E-1
