#  HZ   S   RI   R     50.00 
! Rohde & Schwarz Vector Network Analyzer 
! Rohde-Schwarz,ZNB20-2Port,1311601062101988,3.16
! Created: UTC 12/23/2023, 3:39:22 AM
! freq[Hz]                re:S11                  im:S11                  re:S21                  im:S21                  re:S12                  im:S12                  re:S22                  im:S22
 7.837458486000000E9     5.666106483420476E-1    4.325306943446415E-3    1.455714939953478E-3    3.739119372889261E-3    1.472222450283678E-3    3.666874265538706E-3    4.503371184875472E-1   -2.977602057866476E-1
 7.837490233150000E9     5.664425519085410E-1    2.258693061747555E-3    1.457643981531127E-3    3.727690931967415E-3    1.466933767118660E-3    3.682951214703958E-3    4.492078121892931E-1   -2.994999940453656E-1
 7.837521980300000E9     5.666290144448725E-1    2.294447089833163E-4    1.485696471616772E-3    3.743301017685996E-3    1.457936798895410E-3    3.667496797865728E-3    4.478540224450924E-1   -3.015857681228464E-1
 7.837553727450000E9     5.665702771744758E-1   -1.729922043744943E-3    1.498470102108568E-3    3.729539837588272E-3    1.523292323292721E-3    3.644120960468158E-3    4.466515860372446E-1   -3.034211909681091E-1
 7.837585474600000E9     5.665544159035526E-1   -3.987157202891352E-3    1.535875845133373E-3    3.693089809925462E-3    1.531540965077720E-3    3.649089868613018E-3    4.452661972185120E-1   -3.053518537801526E-1
 7.837617221750000E9     5.666210608779848E-1   -6.050256224756467E-3    1.555031271029862E-3    3.727389019421605E-3    1.533561513432868E-3    3.663964658470711E-3    4.441561057125769E-1   -3.068581383985883E-1
 7.837648968900000E9     5.666180771098041E-1   -8.246828355339825E-3    1.577644306043499E-3    3.728932516708446E-3    1.592603611164278E-3    3.638665004690825E-3    4.427559399468680E-1   -3.087565776444682E-1
 7.837680716050000E9     5.665312577090266E-1   -1.024062835191978E-2    1.585347054619368E-3    3.716698849590372E-3    1.589298908119442E-3    3.678087753003540E-3    4.417674701119357E-1   -3.107114353067588E-1
 7.837712463200000E9     5.666129355926763E-1   -1.247348536183941E-2    1.582349966398339E-3    3.725704970384386E-3    1.652459982520656E-3    3.645818093871635E-3    4.402890409868761E-1   -3.124363523659975E-1
 7.837744210350000E9     5.665230374323723E-1   -1.445961048286377E-2    1.604743306185948E-3    3.740245785556321E-3    1.611313363392062E-3    3.634503668060681E-3    4.388735509488531E-1   -3.142967618049632E-1
 7.837775957500000E9     5.663390319833318E-1   -1.669177036489172E-2    1.630612717926705E-3    3.705831954871276E-3    1.638390021708106E-3    3.639258739647720E-3    4.377182298192214E-1   -3.161429693236549E-1
 7.837807704650000E9     5.663739952816973E-1   -1.882689604120143E-2    1.643759793211025E-3    3.731015526457198E-3    1.621569311269793E-3    3.659594246883900E-3    4.363115806631592E-1   -3.179480358200588E-1
 7.837839451800000E9     5.663765025645718E-1   -2.088581122439567E-2    1.672301659539827E-3    3.683191730969437E-3    1.647224728950424E-3    3.627769192790817E-3    4.350966259675317E-1   -3.197976901771902E-1
 7.837871198950000E9     5.662433827763038E-1   -2.304087482547521E-2    1.689659505560023E-3    3.693595965199901E-3    1.695236964671646E-3    3.697380386921493E-3    4.338382695932849E-1   -3.215593277285143E-1
 7.837902946100000E9     5.660737366309460E-1   -2.504249979987314E-2    1.684722968187191E-3    3.725517609216245E-3    1.703570782491515E-3    3.614638867611505E-3    4.325089292429959E-1   -3.232897615499042E-1
 7.837934693250000E9     5.660406407238454E-1   -2.715759803735111E-2    1.734490846206233E-3    3.731596347830833E-3    1.717526970556613E-3    3.635495477556644E-3    4.312418641412854E-1   -3.250976418016875E-1
 7.837966440400000E9     5.660223067155553E-1   -2.936340243584285E-2    1.725058996465502E-3    3.697586467703851E-3    1.728801711660021E-3    3.632749609415459E-3    4.297445438152543E-1   -3.269184589091542E-1
 7.837998187550000E9     5.659301006880511E-1   -3.133687465883143E-2    1.774748368445486E-3    3.698120424856420E-3    1.769226791369535E-3    3.665992304969366E-3    4.284526369717077E-1   -3.287996435169681E-1
 7.838029934700000E9     5.656906239346908E-1   -3.349192046046288E-2    1.813381689365945E-3    3.709926310841145E-3    1.778153989416086E-3    3.651314644391739E-3    4.270415352778035E-1   -3.304525318128269E-1
 7.838061681850000E9     5.657358138702638E-1   -3.566431449741080E-2    1.763446840980182E-3    3.695586220500603E-3    1.809643886724030E-3    3.615987207464260E-3    4.257537155903483E-1   -3.321723984411551E-1
 7.838093429000000E9     5.654664684345959E-1   -3.764133035475177E-2    1.823276513314523E-3    3.677452598840916E-3    1.847188187548168E-3    3.668033704728540E-3    4.244631846707049E-1   -3.339942892283936E-1
 7.838125176150000E9     5.653249788280407E-1   -3.985079677202436E-2    1.814820832957441E-3    3.709461709722128E-3    1.865918182517640E-3    3.645533454049357E-3    4.231633294294345E-1   -3.357965756914992E-1
 7.838156923300000E9     5.652597518878004E-1   -4.189575421485307E-2    1.869323718955066E-3    3.704139295605039E-3    1.841308929233123E-3    3.626828965847846E-3    4.216641995951325E-1   -3.373684845251599E-1
 7.838188670450000E9     5.651077056705123E-1   -4.409764707919467E-2    1.895571445793402E-3    3.701519975909747E-3    1.899149555963772E-3    3.627992319991681E-3    4.202819725677643E-1   -3.391834249154154E-1
 7.838220417600000E9     5.648719796718195E-1   -4.614532763386774E-2    1.887029432417333E-3    3.702713781211558E-3    1.870708709477896E-3    3.648530632757075E-3    4.189082527519025E-1   -3.409866855633133E-1
 7.838252164750000E9     5.646514852330979E-1   -4.818286976687267E-2    1.933617848127843E-3    3.688360586619805E-3    1.872960889036768E-3    3.622336956090242E-3    4.174727918516827E-1   -3.426340327141125E-1
 7.838283911900000E9     5.646604505157619E-1   -5.029157809547494E-2    1.937157919091620E-3    3.713783882391034E-3    1.930354790898734E-3    3.630557443157203E-3    4.159149417087896E-1   -3.444625129801366E-1
 7.838315659050000E9     5.644104830357966E-1   -5.247625963809874E-2    1.946266779741473E-3    3.694283298181491E-3    1.974147943731851E-3    3.633642846771952E-3    4.146510248050665E-1   -3.462649054854843E-1
 7.838347406200000E9     5.642421027554415E-1   -5.454328488222835E-2    1.936082074615825E-3    3.675301137465072E-3    1.974827030048562E-3    3.618350923934770E-3    4.131912756086146E-1   -3.478227195446794E-1
 7.838379153350000E9     5.640876783063219E-1   -5.663211945899430E-2    2.012398012408795E-3    3.665754840900684E-3    1.983332720297650E-3    3.611848747398513E-3    4.118179358239205E-1   -3.495374187646479E-1
 7.838410900500000E9     5.638782045077647E-1   -5.883496723328906E-2    2.014322113635155E-3    3.666422475359603E-3    1.969905300846291E-3    3.620544301794013E-3    4.104291904106399E-1   -3.513370696347354E-1
 7.838442647650000E9     5.637354706877526E-1   -6.087607734199773E-2    2.031495987114275E-3    3.676633369817564E-3    1.995862587188616E-3    3.584678121966656E-3    4.090914300581459E-1   -3.529785552124821E-1
 7.838474394800000E9     5.634401760007903E-1   -6.297483944524569E-2    2.046155535837175E-3    3.712740569620196E-3    2.009025662911965E-3    3.605851736965753E-3    4.075023590272234E-1   -3.546081347352764E-1
 7.838506141950000E9     5.631704548667523E-1   -6.522265860881578E-2    2.087599136437123E-3    3.682214063864844E-3    2.090310159649483E-3    3.625385115350091E-3    4.061489649682825E-1   -3.565280198217309E-1
 7.838537889100000E9     5.629291654375204E-1   -6.723457915026056E-2    2.126678753878921E-3    3.683560371629344E-3    2.145029237049215E-3    3.602990238052088E-3    4.045873474119793E-1   -3.578940168136622E-1
 7.838569636250000E9     5.628317812804354E-1   -6.935991969355282E-2    2.122207663625406E-3    3.696170111469086E-3    2.091632204029590E-3    3.626446728150265E-3    4.031945508598649E-1   -3.597859962695814E-1
 7.838601383400000E9     5.624508301431260E-1   -7.135007262239564E-2    2.127310740835644E-3    3.677200060771606E-3    2.137271069798784E-3    3.634281322218435E-3    4.017851176428226E-1   -3.614243116363547E-1
 7.838633130550000E9     5.621802304823460E-1   -7.362164659139014E-2    2.163589562906265E-3    3.691741317237555E-3    2.121309317435139E-3    3.617851173836195E-3    4.000586989717630E-1   -3.630660811199137E-1
 7.838664877700000E9     5.618549551778265E-1   -7.566827839738882E-2    2.179451925605463E-3    3.667130010071128E-3    2.162909486532995E-3    3.617138909612063E-3    3.986474807506485E-1   -3.646880762057438E-1
 7.838696624850000E9     5.616791998209847E-1   -7.786320145717189E-2    2.197768563955543E-3    3.656719920552203E-3    2.193980717811521E-3    3.591935236895691E-3    3.970752852780995E-1   -3.664444970821196E-1
 7.838728372000000E9     5.614885180009302E-1   -7.993618050378937E-2    2.237647710729784E-3    3.660892010166579E-3    2.195633214138952E-3    3.599107018764687E-3    3.955991568980018E-1   -3.680699770564220E-1
 7.838760119150000E9     5.610912490245067E-1   -8.196052805595569E-2    2.232329801659125E-3    3.673362229722582E-3    2.202250967779892E-3    3.596480251557594E-3    3.940903508750022E-1   -3.696525801693287E-1
 7.838791866300000E9     5.606687375301364E-1   -8.419457125022999E-2    2.238847916611400E-3    3.657173215383647E-3    2.225335885448215E-3    3.605523111356409E-3    3.926552135325896E-1   -3.712149720072929E-1
 7.838823613450000E9     5.603559334363262E-1   -8.619501989365383E-2    2.279258380096325E-3    3.648031872006039E-3    2.278130900154766E-3    3.610626070613023E-3    3.909858079451838E-1   -3.728391702020665E-1
 7.838855360600000E9     5.600400012430378E-1   -8.826442638997838E-2    2.298225901264607E-3    3.648704296649082E-3    2.287944550316751E-3    3.586211588289791E-3    3.895079763573538E-1   -3.745208667382320E-1
 7.838887107750000E9     5.597219065966010E-1   -9.019949442186263E-2    2.337068049949710E-3    3.632692126821878E-3    2.308026147461390E-3    3.592532026421876E-3    3.880030859131701E-1   -3.760017590452951E-1
 7.838918854900000E9     5.594050317839713E-1   -9.250458276234576E-2    2.324249256739186E-3    3.629412850870312E-3    2.329313950358008E-3    3.595779563850198E-3    3.863014124622625E-1   -3.777551670322435E-1
 7.838950602050000E9     5.591303901941705E-1   -9.460464040699981E-2    2.375390198980198E-3    3.657243805475260E-3    2.352828523986052E-3    3.610172358607248E-3    3.848920797517721E-1   -3.793691783827750E-1
 7.838982349200000E9     5.588036062133820E-1   -9.662634695112758E-2    2.405498323329784E-3    3.652855048404788E-3    2.361321852669681E-3    3.570523170557448E-3    3.832846167991963E-1   -3.807841467653536E-1
 7.839014096350000E9     5.583375511508877E-1   -9.870427975822581E-2    2.403455427969387E-3    3.661200569748015E-3    2.374795253759994E-3    3.587544083690345E-3    3.817462188120139E-1   -3.824470319468363E-1
 7.839045843500000E9     5.579485279058475E-1   -1.008543508902031E-1    2.419215251157672E-3    3.625404202329984E-3    2.417222890430392E-3    3.604253545894322E-3    3.802454663135887E-1   -3.838946585654280E-1
 7.839077590650000E9     5.576224078816867E-1   -1.030073524526232E-1    2.469830693476210E-3    3.617920497797067E-3    2.440805465790410E-3    3.575544724068098E-3    3.788031249733042E-1   -3.856657983298407E-1
 7.839109337800000E9     5.571834937105217E-1   -1.049892507107541E-1    2.486894291581423E-3    3.624761354584601E-3    2.439953772347396E-3    3.588441194222388E-3    3.770901867675552E-1   -3.870245372268720E-1
 7.839141084950000E9     5.568927129485763E-1   -1.071071059014574E-1    2.478346922646246E-3    3.640322868011056E-3    2.496700426713144E-3    3.612067730229358E-3    3.753585881221511E-1   -3.888492621761671E-1
 7.839172832100000E9     5.563871917480039E-1   -1.091065842211418E-1    2.521926656614468E-3    3.615193622845878E-3    2.493900936163165E-3    3.597912697255989E-3    3.738901498269876E-1   -3.902462030508023E-1
 7.839204579250000E9     5.559869063110181E-1   -1.112288131504308E-1    2.532619080381645E-3    3.634956674920502E-3    2.532404660874124E-3    3.576354609719670E-3    3.723737736248786E-1   -3.918906084146118E-1
 7.839236326400000E9     5.556656458306319E-1   -1.132945164364275E-1    2.575822228130167E-3    3.652401053983228E-3    2.523762725111533E-3    3.592414412503922E-3    3.707000458122715E-1   -3.934565193198489E-1
 7.839268073550000E9     5.554006123049016E-1   -1.152856889750164E-1    2.577164938565236E-3    3.629021585381211E-3    2.562397626309050E-3    3.603932922333096E-3    3.690925857690273E-1   -3.948661777619597E-1
 7.839299820700000E9     5.548272864795731E-1   -1.175190517624935E-1    2.623490175757569E-3    3.608690749556919E-3    2.593551672385105E-3    3.585898703837683E-3    3.673912161304382E-1   -3.964889367742598E-1
 7.839331567850000E9     5.542763886642217E-1   -1.196348896858972E-1    2.626370387572393E-3    3.619236621287156E-3    2.574892769938299E-3    3.558373294208861E-3    3.660461208589115E-1   -3.979062145032311E-1
 7.839363315000000E9     5.537472569080807E-1   -1.216361912693135E-1    2.655104908585739E-3    3.565633978318826E-3    2.622065587305713E-3    3.607389646229521E-3    3.641922057981513E-1   -3.994896672370957E-1
 7.839395062150000E9     5.534096314133425E-1   -1.238433860860265E-1    2.653069167524718E-3    3.634068215543943E-3    2.669018512417535E-3    3.549192351220802E-3    3.626631223406905E-1   -4.009484683936855E-1
 7.839426809300000E9     5.528962295591906E-1   -1.258538400663323E-1    2.716080887549037E-3    3.614951160098737E-3    2.656508518410511E-3    3.585279151550687E-3    3.609570024663733E-1   -4.025597413083518E-1
 7.839458556450000E9     5.526503134797708E-1   -1.280743701490785E-1    2.744727825474157E-3    3.628991048642833E-3    2.681668339025174E-3    3.581918667995761E-3    3.591982539650853E-1   -4.039561583251580E-1
 7.839490303600000E9     5.520690911844121E-1   -1.299588173819873E-1    2.754314335338258E-3    3.613454365009199E-3    2.698082428351013E-3    3.582815953309428E-3    3.575284950272400E-1   -4.053963154312472E-1
 7.839522050750000E9     5.514962568205458E-1   -1.320941583889842E-1    2.768460290124653E-3    3.590662132381548E-3    2.745237201745545E-3    3.557277362813972E-3    3.560572851035500E-1   -4.068704410984800E-1
 7.839553797900000E9     5.510569225585017E-1   -1.341888244574132E-1    2.790360988839281E-3    3.601813762694921E-3    2.765735213039040E-3    3.576277858127933E-3    3.541864715882725E-1   -4.084731837486137E-1
 7.839585545050000E9     5.505737307377210E-1   -1.363328407129380E-1    2.814375924317544E-3    3.611483746375582E-3    2.795373722688711E-3    3.562718692767931E-3    3.527525347423417E-1   -4.098967510916408E-1
 7.839617292200000E9     5.498546475676493E-1   -1.383208370674663E-1    2.858786383601663E-3    3.591407347973789E-3    2.799055318932906E-3    3.554569867895702E-3    3.508792329084046E-1   -4.112400195347591E-1
 7.839649039350000E9     5.493934024913090E-1   -1.404050765238338E-1    2.866337481574305E-3    3.629228764694552E-3    2.858629517736196E-3    3.542723459519280E-3    3.491612284556704E-1   -4.127496894232183E-1
 7.839680786500000E9     5.490192537861212E-1   -1.423272926864477E-1    2.915359243232514E-3    3.619327470024721E-3    2.856714447407132E-3    3.593229804760221E-3    3.474114578526044E-1   -4.141518377182172E-1
 7.839712533650000E9     5.483778912756213E-1   -1.445068716544826E-1    2.944708591038533E-3    3.595215001616154E-3    2.897331970789678E-3    3.547813858789612E-3    3.456640832128010E-1   -4.157286220829290E-1
 7.839744280800000E9     5.478110858990131E-1   -1.466263332820716E-1    2.957693666984843E-3    3.606348106298928E-3    2.902774241083248E-3    3.552272145234309E-3    3.440417591775544E-1   -4.170312970743502E-1
 7.839776027950000E9     5.473450622399419E-1   -1.485867063459655E-1    2.973759926304352E-3    3.573257679594751E-3    2.922195164210031E-3    3.516418712831165E-3    3.423710309504076E-1   -4.185448279021085E-1
 7.839807775100000E9     5.466203065221665E-1   -1.507234448167480E-1    2.988988606805951E-3    3.565638962853430E-3    2.978990264210433E-3    3.544459014004633E-3    3.404828950548294E-1   -4.198334342812293E-1
 7.839839522250000E9     5.461731590532971E-1   -1.526599772637429E-1    3.008444483405347E-3    3.603845446951638E-3    2.989824026430435E-3    3.538687135320893E-3    3.389211592780573E-1   -4.212416623049515E-1
 7.839871269400000E9     5.454538035401229E-1   -1.547459452929876E-1    3.055593671721823E-3    3.555821416548403E-3    3.008455855044343E-3    3.550096603833027E-3    3.370505448398963E-1   -4.227451684302196E-1
 7.839903016550000E9     5.449283685827252E-1   -1.568016327359322E-1    3.101110098719139E-3    3.559253874406257E-3    2.993043427439953E-3    3.507212989178396E-3    3.354445678302714E-1   -4.239784885439388E-1
 7.839934763700000E9     5.443571592302280E-1   -1.588660657572631E-1    3.106457199543922E-3    3.585869185950696E-3    3.079758955475233E-3    3.524526490570442E-3    3.336603598323720E-1   -4.254972511010175E-1
 7.839966510850000E9     5.436819589180830E-1   -1.608894766985454E-1    3.119020892775238E-3    3.551195768964495E-3    3.110013005450666E-3    3.530424448912078E-3    3.319764291307789E-1   -4.269120344257187E-1
 7.839998258000000E9     5.431944710744488E-1   -1.629342070114237E-1    3.178679838279087E-3    3.545712006012915E-3    3.141648500548146E-3    3.531063612192663E-3    3.299949301694472E-1   -4.282404526201658E-1
 7.840030005150000E9     5.425032639564451E-1   -1.650422291529780E-1    3.188923002463765E-3    3.550522381357967E-3    3.139317581301526E-3    3.547287656526155E-3    3.284420170060814E-1   -4.296058553148658E-1
 7.840061752300000E9     5.418682832901540E-1   -1.671130793214525E-1    3.236229977528230E-3    3.566305610552462E-3    3.172739684466636E-3    3.548960714454272E-3    3.266154199114688E-1   -4.309064291698901E-1
 7.840093499450000E9     5.412133689048793E-1   -1.691746598365494E-1    3.249557400652068E-3    3.555473890011085E-3    3.218848205144464E-3    3.538257734315634E-3    3.248264855716517E-1   -4.322987189246895E-1
 7.840125246600000E9     5.405945353926084E-1   -1.710801065570862E-1    3.285576487720855E-3    3.560475970387351E-3    3.210049546285773E-3    3.504471494806412E-3    3.230921452675690E-1   -4.336394035882901E-1
 7.840156993750000E9     5.399546120294313E-1   -1.731585973716997E-1    3.301622778572499E-3    3.557068341505114E-3    3.260640103003492E-3    3.534208975066222E-3    3.212934656101502E-1   -4.350834807432563E-1
 7.840188740900000E9     5.392185130180579E-1   -1.752814487788847E-1    3.352072739421653E-3    3.527428705557800E-3    3.302020591132615E-3    3.520791068237925E-3    3.196483290350712E-1   -4.363236670198469E-1
 7.840220488050000E9     5.386084206142648E-1   -1.773235322049330E-1    3.343990331926098E-3    3.525984632535973E-3    3.328582550196693E-3    3.511825885513241E-3    3.177456551933004E-1   -4.377400956727014E-1
 7.840252235200000E9     5.378752419170313E-1   -1.793902733955317E-1    3.391205466254813E-3    3.534878095990001E-3    3.361651241401582E-3    3.512356655827927E-3    3.159776756973832E-1   -4.389800441329025E-1
 7.840283982350000E9     5.370944807701974E-1   -1.814114750400405E-1    3.406351271285303E-3    3.537696680412207E-3    3.378370737896782E-3    3.547602323675135E-3    3.142743898892144E-1   -4.403439529657455E-1
 7.840315729500000E9     5.364768609338747E-1   -1.835570468356297E-1    3.454705376441773E-3    3.502805290078442E-3    3.415942355184431E-3    3.497602822933475E-3    3.124114525946776E-1   -4.417265138174939E-1
