#  HZ   S   RI   R     50.00 
! Rohde & Schwarz Vector Network Analyzer 
! Rohde-Schwarz,ZNB20-2Port,1311601062101988,3.16
! Created: UTC 12/23/2023, 3:42:17 AM
! freq[Hz]                re:S11                  im:S11                  re:S21                  im:S21                  re:S12                  im:S12                  re:S22                  im:S22
 7.837199850000000E9     5.659239485798591E-1    2.197644501381601E-2    1.330577085725690E-3    3.722875613508060E-3    1.340556973683125E-3    3.708934925260243E-3    4.598774660091093E-1   -2.822139510446935E-1
 7.837232565400000E9     5.660774042126621E-1    1.983538198769737E-2    1.312058734506542E-3    3.744926073576426E-3    1.325287767144419E-3    3.689508275552431E-3    4.587995733627204E-1   -2.843026160203515E-1
 7.837265280800000E9     5.660949544090719E-1    1.759795069829956E-2    1.349251730473368E-3    3.739461624719356E-3    1.355276421259206E-3    3.666382911259721E-3    4.576379455238335E-1   -2.861801295435752E-1
 7.837297996200000E9     5.660888989455795E-1    1.547959020131813E-2    1.364865119703701E-3    3.754571560937143E-3    1.382678837460004E-3    3.659336955705249E-3    4.564665992360284E-1   -2.881789398479402E-1
 7.837330711600000E9     5.663694773775122E-1    1.339480439518091E-2    1.373720232617604E-3    3.741833015292875E-3    1.418062646434057E-3    3.708308816812098E-3    4.552943242269321E-1   -2.902285572375265E-1
 7.837363427000000E9     5.663311709949291E-1    1.110154736541634E-2    1.398931573615397E-3    3.748332157009643E-3    1.428329336989152E-3    3.664583845852053E-3    4.538691686996718E-1   -2.920167886114642E-1
 7.837396142400000E9     5.663833972018513E-1    8.999379130058053E-3    1.435677121986725E-3    3.748016300160705E-3    1.427768337682182E-3    3.664328166551940E-3    4.527159159486171E-1   -2.941095408830033E-1
 7.837428857800000E9     5.664362689400997E-1    6.814231906778306E-3    1.432002715472172E-3    3.724252341310096E-3    1.424681418116827E-3    3.672019202195131E-3    4.515542777879898E-1   -2.961039310105092E-1
 7.837461573200000E9     5.664824215347088E-1    4.615840120096582E-3    1.480636741111233E-3    3.730686685914428E-3    1.478712043035175E-3    3.658703945450493E-3    4.503238239354601E-1   -2.978556605217844E-1
 7.837494288600000E9     5.664726865360022E-1    2.526875386244041E-3    1.494560883433753E-3    3.737276870573680E-3    1.508220385056300E-3    3.665740040605855E-3    4.489075333204595E-1   -2.998110527291252E-1
 7.837527004000000E9     5.665296644719255E-1    2.383124609255210E-4    1.498362690336568E-3    3.735808422155350E-3    1.527549458117159E-3    3.645379407826172E-3    4.476944926596345E-1   -3.016384957403804E-1
 7.837559719400000E9     5.665330172733497E-1   -1.989337691613176E-3    1.510060579492640E-3    3.732018293073249E-3    1.527217037211116E-3    3.654798454810648E-3    4.464778919043430E-1   -3.033929373894562E-1
 7.837592434800000E9     5.665981485548288E-1   -4.078269740349793E-3    1.538666994243165E-3    3.731387278310452E-3    1.535917084089816E-3    3.674920527733587E-3    4.451715669952934E-1   -3.053503736758220E-1
 7.837625150200000E9     5.664199017032228E-1   -6.272994524884228E-3    1.547334315665866E-3    3.755129757426651E-3    1.587836587124332E-3    3.630341189065342E-3    4.439048197850260E-1   -3.073863554170075E-1
 7.837657865600000E9     5.665024782630268E-1   -8.424332670207096E-3    1.569477634688711E-3    3.722963685494715E-3    1.546813909302063E-3    3.683713497648830E-3    4.424754872244820E-1   -3.093634756037404E-1
 7.837690581000000E9     5.664463976339583E-1   -1.066625197760109E-2    1.591311518759552E-3    3.736458029395182E-3    1.583254720594849E-3    3.666461754128199E-3    4.411515010512585E-1   -3.110696889635735E-1
 7.837723296400000E9     5.664738929483807E-1   -1.281552673068624E-2    1.623504339189651E-3    3.709714185010159E-3    1.612668412597300E-3    3.673229270347071E-3    4.400517313842472E-1   -3.130342257093253E-1
 7.837756011800000E9     5.663705515448444E-1   -1.501876606021508E-2    1.618127739032387E-3    3.715549049382362E-3    1.642947857505159E-3    3.687224969412057E-3    4.386081603617751E-1   -3.148731836271440E-1
 7.837788727200000E9     5.663269505722859E-1   -1.713592739101260E-2    1.663909079255592E-3    3.726913585661177E-3    1.630130378403151E-3    3.688269799591839E-3    4.373084708726664E-1   -3.167264924029252E-1
 7.837821442600000E9     5.662826065960205E-1   -1.932639018953857E-2    1.660061842448928E-3    3.724288363894942E-3    1.670491004909873E-3    3.687695529375412E-3    4.359288441050806E-1   -3.185121810781997E-1
 7.837854158000000E9     5.662739333747407E-1   -2.151222825490166E-2    1.674950598002745E-3    3.731876607856707E-3    1.709490737082093E-3    3.658556226631937E-3    4.346912788301025E-1   -3.204981443603719E-1
 7.837886873400000E9     5.661436299634958E-1   -2.361741442574715E-2    1.700264028115706E-3    3.711398447004460E-3    1.736754678602823E-3    3.635385756156092E-3    4.331782352263561E-1   -3.223234659689656E-1
 7.837919588800000E9     5.661515088182937E-1   -2.575596142474138E-2    1.731220855187013E-3    3.714054642429179E-3    1.696797060685395E-3    3.671517294880975E-3    4.319669158164539E-1   -3.241293956890307E-1
 7.837952304200000E9     5.659723737232522E-1   -2.803875165176367E-2    1.748785305193500E-3    3.710634435535186E-3    1.721562946858841E-3    3.661707077926114E-3    4.304438055567835E-1   -3.258611886927334E-1
 7.837985019600000E9     5.658743659556635E-1   -3.018447527927109E-2    1.767867792181879E-3    3.711984735009585E-3    1.749676648400184E-3    3.667057622739358E-3    4.290306606105743E-1   -3.278527503556052E-1
 7.838017735000000E9     5.658861419249488E-1   -3.237502069722119E-2    1.822628767733795E-3    3.741135492134764E-3    1.771149538858470E-3    3.652024017970081E-3    4.278995259699473E-1   -3.296295919631458E-1
 7.838050450400000E9     5.656092276514395E-1   -3.446657047123245E-2    1.786637653584649E-3    3.717779200345328E-3    1.771605466697738E-3    3.647942603291348E-3    4.262648483177714E-1   -3.314830540101527E-1
 7.838083165800000E9     5.654888042817239E-1   -3.689574749907502E-2    1.824613545205443E-3    3.690458449970975E-3    1.819982957880855E-3    3.626639906867421E-3    4.249527232276142E-1   -3.333610398171372E-1
 7.838115881200000E9     5.654378786784671E-1   -3.899420745936182E-2    1.848855654618840E-3    3.685387759641431E-3    1.856378995457574E-3    3.650779837992806E-3    4.234704124376524E-1   -3.350490737812573E-1
 7.838148596600000E9     5.652683399588847E-1   -4.117281733795710E-2    1.865392450071369E-3    3.701191997978966E-3    1.873278003659020E-3    3.654448042159862E-3    4.219571090446323E-1   -3.367993485499057E-1
 7.838181312000000E9     5.651098389793801E-1   -4.330359220308438E-2    1.879094854333236E-3    3.697604652947496E-3    1.860557920891340E-3    3.671735823073491E-3    4.206674399917260E-1   -3.386419726150596E-1
 7.838214027400000E9     5.649035114909770E-1   -4.536758259052526E-2    1.896322280461766E-3    3.694275960417061E-3    1.895135003210408E-3    3.613666550736528E-3    4.192080300288131E-1   -3.405713263835473E-1
 7.838246742800000E9     5.648615249069537E-1   -4.769984059060620E-2    1.931527962925468E-3    3.712692315194613E-3    1.928507757758155E-3    3.642978128944368E-3    4.179161769989286E-1   -3.423515966415882E-1
 7.838279458200000E9     5.645852940335745E-1   -4.977511930753393E-2    1.945312181520569E-3    3.676939974056913E-3    1.927533877975952E-3    3.637593036375104E-3    4.164085845351048E-1   -3.441294092776730E-1
 7.838312173600000E9     5.644543148764835E-1   -5.203801868728147E-2    1.981585963464894E-3    3.697492307788677E-3    1.975683466756058E-3    3.648699846560860E-3    4.149101813522441E-1   -3.458594237458145E-1
 7.838344889000000E9     5.642859853938353E-1   -5.410402909293421E-2    1.973325597293352E-3    3.686363957091973E-3    1.963378145991787E-3    3.648700043181759E-3    4.134948619102111E-1   -3.475342320850051E-1
 7.838377604400000E9     5.639453977572398E-1   -5.638196776820786E-2    1.994175941406294E-3    3.696260264684383E-3    1.998018458442089E-3    3.619882049554888E-3    4.118977838044235E-1   -3.493672405281024E-1
 7.838410319800000E9     5.636776960266453E-1   -5.836917031257728E-2    2.036444011411977E-3    3.704107885811639E-3    2.027312903447391E-3    3.680808935793667E-3    4.103389347494361E-1   -3.511456881021638E-1
 7.838443035200000E9     5.634771510449781E-1   -6.055509997169059E-2    2.050788140681967E-3    3.686486149005841E-3    2.047343614571569E-3    3.602499550034873E-3    4.090429957803108E-1   -3.527660913730333E-1
 7.838475750600000E9     5.634399482860430E-1   -6.285919216443210E-2    2.068885083169736E-3    3.724136728974703E-3    2.057340254673160E-3    3.627059898820043E-3    4.075436129168021E-1   -3.545431327104969E-1
 7.838508466000000E9     5.631173364696859E-1   -6.495233579746151E-2    2.081265295268643E-3    3.682096668803591E-3    2.054587975810701E-3    3.647742273970750E-3    4.058987109894607E-1   -3.563280725932493E-1
 7.838541181400000E9     5.627914502617097E-1   -6.716998526680269E-2    2.089146686374985E-3    3.690508529784095E-3    2.089074670158195E-3    3.664730908812444E-3    4.043295139424048E-1   -3.581214667194432E-1
 7.838573896800000E9     5.625104237002054E-1   -6.928064603140485E-2    2.132448043484616E-3    3.682440665909871E-3    2.091803191174359E-3    3.610974410690132E-3    4.029004749367814E-1   -3.598801786100896E-1
 7.838606612200000E9     5.622794373901808E-1   -7.154212194858099E-2    2.173427427444317E-3    3.680205323699576E-3    2.117616436601781E-3    3.652048969448884E-3    4.015550119884431E-1   -3.615633157418954E-1
 7.838639327600000E9     5.620708461687219E-1   -7.372608999205457E-2    2.180152121354704E-3    3.658186699452904E-3    2.134649848675666E-3    3.625798272523929E-3    3.999654608217176E-1   -3.631811668187789E-1
 7.838672043000000E9     5.619840315998629E-1   -7.582847318340147E-2    2.177553145615079E-3    3.666760925981471E-3    2.187723512571934E-3    3.618318816422837E-3    3.984911449929335E-1   -3.649141709789927E-1
 7.838704758400000E9     5.613981201613634E-1   -7.789357074902367E-2    2.210329566497093E-3    3.671114646714616E-3    2.211988622734058E-3    3.633848408821598E-3    3.969317281637700E-1   -3.666232003806481E-1
 7.838737473800000E9     5.611690898999264E-1   -8.009721990979504E-2    2.219999930909519E-3    3.672814166247071E-3    2.203256491273217E-3    3.642764902633611E-3    3.953257840786313E-1   -3.683673231504946E-1
 7.838770189200000E9     5.608921551645215E-1   -8.224819400489805E-2    2.259888978249974E-3    3.705508666219161E-3    2.259493167039927E-3    3.647476148066718E-3    3.936735293631496E-1   -3.700163120859831E-1
 7.838802904600000E9     5.607161310240614E-1   -8.446200537462074E-2    2.275772947748576E-3    3.688146249674982E-3    2.260044243218897E-3    3.618455926700860E-3    3.921159784766319E-1   -3.717065358353303E-1
 7.838835620000000E9     5.601532309342802E-1   -8.649933018560786E-2    2.329660311323530E-3    3.685822786649094E-3    2.282462423615848E-3    3.618704929298540E-3    3.906526122995060E-1   -3.733496475671292E-1
 7.838868335400000E9     5.600714391282641E-1   -8.878709440554845E-2    2.312882024912875E-3    3.681510444079038E-3    2.309992008721775E-3    3.601024407945472E-3    3.891524148751375E-1   -3.749461479896724E-1
 7.838901050800000E9     5.595401741717250E-1   -9.100750782659305E-2    2.342836591720048E-3    3.670889720274361E-3    2.295654158230888E-3    3.609775537076936E-3    3.873656435104688E-1   -3.766551184931680E-1
 7.838933766200000E9     5.592692633096804E-1   -9.296099489767362E-2    2.372806944720330E-3    3.655062812317207E-3    2.341205015377569E-3    3.611960984936045E-3    3.857338435134721E-1   -3.783013831660716E-1
 7.838966481600000E9     5.590654718020297E-1   -9.535548109789713E-2    2.387902391191530E-3    3.627623419373417E-3    2.348369988131197E-3    3.612652192693378E-3    3.843831580847369E-1   -3.800479970477216E-1
 7.838999197000000E9     5.584634364449642E-1   -9.743741095497833E-2    2.435595958159637E-3    3.633207728089139E-3    2.375720755934425E-3    3.613430208292934E-3    3.827369620333652E-1   -3.815594973960474E-1
 7.839031912400000E9     5.581703643808794E-1   -9.967864714879120E-2    2.436658931830726E-3    3.659595918080856E-3    2.423089902079134E-3    3.605160857773803E-3    3.810683064626215E-1   -3.833380336377089E-1
 7.839064627800000E9     5.577860286485784E-1   -1.016895544036107E-1    2.495291209150079E-3    3.660486196861479E-3    2.426037862152261E-3    3.606219491485616E-3    3.794542635151831E-1   -3.847816647503717E-1
 7.839097343200000E9     5.573172128033651E-1   -1.038952653928706E-1    2.484596798630615E-3    3.654011732084439E-3    2.468614828421865E-3    3.592201511529329E-3    3.777040722842538E-1   -3.866716038437717E-1
 7.839130058600000E9     5.569453811013894E-1   -1.060622965432457E-1    2.489642323277674E-3    3.657532482841440E-3    2.478823787236592E-3    3.603023385907360E-3    3.761350014390986E-1   -3.879859670852256E-1
 7.839162774000000E9     5.565519882777138E-1   -1.083770604842848E-1    2.540318208596632E-3    3.629759734313433E-3    2.513981564283375E-3    3.573433051202236E-3    3.745139408509226E-1   -3.896585612756876E-1
 7.839195489400000E9     5.561869410315915E-1   -1.104043159753734E-1    2.552803092037253E-3    3.659973576499766E-3    2.504454693070913E-3    3.598038272347664E-3    3.728060893896790E-1   -3.913054768666346E-1
 7.839228204800000E9     5.556514029819511E-1   -1.124167476803751E-1    2.584478593225594E-3    3.635992560122851E-3    2.515211519878542E-3    3.578387018915376E-3    3.711774413208441E-1   -3.928457031258618E-1
 7.839260920200000E9     5.552319881613272E-1   -1.146485024754184E-1    2.583528686161585E-3    3.616242693791685E-3    2.590514300960012E-3    3.583361492226878E-3    3.695472297766406E-1   -3.944819004501214E-1
 7.839293635600000E9     5.547659297626796E-1   -1.167098805815150E-1    2.616999815618264E-3    3.652750749177104E-3    2.611917667183878E-3    3.567923976604616E-3    3.677981268773566E-1   -3.960471873377171E-1
 7.839326351000000E9     5.545379967449459E-1   -1.190664146283193E-1    2.651343412294871E-3    3.625158869070676E-3    2.632869433373035E-3    3.610857748532128E-3    3.660966994199980E-1   -3.976394095566174E-1
 7.839359066400000E9     5.538492746093872E-1   -1.212244846408746E-1    2.695113417191114E-3    3.640535141152715E-3    2.615622648367700E-3    3.563242646224505E-3    3.644090837814081E-1   -3.992085332041166E-1
 7.839391781800000E9     5.534933112731514E-1   -1.231691328039980E-1    2.710660483266844E-3    3.640055476563032E-3    2.647359745378966E-3    3.569312331655270E-3    3.627725799633022E-1   -4.006413118126849E-1
 7.839424497200000E9     5.531603792897668E-1   -1.254292175078957E-1    2.750076977049622E-3    3.623448965705941E-3    2.640609933462256E-3    3.583907818664773E-3    3.611325926317404E-1   -4.022663325561871E-1
 7.839457212600000E9     5.524460619373720E-1   -1.274912287170862E-1    2.700272657615884E-3    3.618459291379252E-3    2.687106800110989E-3    3.569974059026154E-3    3.593043501120494E-1   -4.039282827832807E-1
 7.839489928000000E9     5.519577761140363E-1   -1.296994862821569E-1    2.795537281202346E-3    3.613997234222277E-3    2.765567605815801E-3    3.583204463911333E-3    3.577206051622236E-1   -4.053256317034199E-1
 7.839522643400000E9     5.515831837672244E-1   -1.319099961671520E-1    2.805328621293522E-3    3.612986067270119E-3    2.765136850168050E-3    3.531437239121972E-3    3.559608287639054E-1   -4.069361249208785E-1
 7.839555358800000E9     5.510479701818860E-1   -1.340543422211792E-1    2.800377123636267E-3    3.632642337855478E-3    2.765365419897795E-3    3.607165297134496E-3    3.542851064095111E-1   -4.083967115920861E-1
 7.839588074200000E9     5.502841750342310E-1   -1.360099019781640E-1    2.840034718936537E-3    3.591838898223491E-3    2.838585713931491E-3    3.603163376847832E-3    3.525648490649375E-1   -4.098940379184997E-1
 7.839620789600000E9     5.499065229464623E-1   -1.381849682552402E-1    2.863393453184499E-3    3.617522892961478E-3    2.856319083573856E-3    3.572768776651004E-3    3.507224452153140E-1   -4.114059200647315E-1
 7.839653505000000E9     5.493782623043125E-1   -1.402950361523602E-1    2.888932172283315E-3    3.612822248919294E-3    2.879501615619245E-3    3.559520251349868E-3    3.490561353324949E-1   -4.128444154929349E-1
 7.839686220400000E9     5.488255857239186E-1   -1.426062180843882E-1    2.941908790409062E-3    3.580576025875271E-3    2.886814933075804E-3    3.562740047408037E-3    3.471601936006510E-1   -4.144169262491280E-1
 7.839718935800000E9     5.481769755914397E-1   -1.447647397545476E-1    2.957675385698539E-3    3.602087446053593E-3    2.912331564985105E-3    3.590723953414012E-3    3.455832648445639E-1   -4.159814156128228E-1
 7.839751651200000E9     5.477713647581226E-1   -1.468084906111622E-1    2.976695136985793E-3    3.590553066803378E-3    2.947656142421047E-3    3.549806737156316E-3    3.439226428238020E-1   -4.173914085634128E-1
 7.839784366600000E9     5.471191116502351E-1   -1.489074000054929E-1    2.999296041344367E-3    3.593328734986683E-3    2.935677025350610E-3    3.577817979190934E-3    3.420622634837555E-1   -4.188568825189589E-1
 7.839817082000000E9     5.466437601334294E-1   -1.510077933342316E-1    3.037296082774030E-3    3.603014711475681E-3    3.005400678433442E-3    3.565434733673785E-3    3.401479604680741E-1   -4.201403841419775E-1
 7.839849797400000E9     5.459447477177063E-1   -1.530656019866733E-1    3.060660990552861E-3    3.596374197287652E-3    3.006155275416919E-3    3.579950600358242E-3    3.383959745413434E-1   -4.216695012681797E-1
 7.839882512800000E9     5.452865971421591E-1   -1.551644987808749E-1    3.080129737853829E-3    3.560098887978882E-3    3.049318158394465E-3    3.549261205544257E-3    3.366101696598060E-1   -4.231898646594710E-1
 7.839915228200000E9     5.446708068705068E-1   -1.573704678016706E-1    3.107414723068149E-3    3.562597762526260E-3    3.045732686547053E-3    3.545045953636142E-3    3.347683748588453E-1   -4.245413534735736E-1
 7.839947943600000E9     5.439826366108929E-1   -1.595047545774599E-1    3.167045599320020E-3    3.576283615041257E-3    3.090857984474733E-3    3.567957397541469E-3    3.331416407314239E-1   -4.260239265779535E-1
 7.839980659000000E9     5.434921311820282E-1   -1.616400969120168E-1    3.166757867633532E-3    3.570304747751525E-3    3.136007297027584E-3    3.562301632560038E-3    3.312432496452510E-1   -4.273660696157450E-1
 7.840013374400000E9     5.427947154597660E-1   -1.637658362414848E-1    3.211082833684505E-3    3.562649219816873E-3    3.151094192888806E-3    3.547801214497510E-3    3.295579039246337E-1   -4.287900249916988E-1
 7.840046089800000E9     5.420637350435996E-1   -1.657474829151399E-1    3.245594041724384E-3    3.540705082296777E-3    3.173295196529352E-3    3.528633320748390E-3    3.276229543436561E-1   -4.302886251673169E-1
 7.840078805200000E9     5.415037150855954E-1   -1.679772282448322E-1    3.291021648371365E-3    3.559333909363371E-3    3.217504165756196E-3    3.548936691978364E-3    3.257294630077537E-1   -4.317121063447227E-1
 7.840111520600000E9     5.409130505951242E-1   -1.700300258275626E-1    3.277607515519042E-3    3.588029031619195E-3    3.265703746313081E-3    3.573018362978637E-3    3.239033046092197E-1   -4.330404201801119E-1
 7.840144236000000E9     5.401073332112872E-1   -1.720558876595324E-1    3.318779256779288E-3    3.557312861732074E-3    3.268641403795099E-3    3.523506785090100E-3    3.221617683431054E-1   -4.344379458118892E-1
