#  HZ   S   RI   R     50.00 
! Rohde & Schwarz Vector Network Analyzer 
! Rohde-Schwarz,ZNB20-2Port,1311601062101988,3.16
! Created: UTC 3/20/2024, 10:57:14 PM
! freq[Hz]                re:S11                  im:S11                  re:S21                  im:S21                  re:S12                  im:S12                  re:S22                  im:S22
 6.457010666000000E9    -5.668017261317263E-1   -1.710065439899009E-1   -8.822557422313759E-3    3.278283178567865E-2   -7.104039929898359E-3    3.272310611686553E-2   -5.337056655250570E-1   -8.129134748955250E-2
 6.457022057125000E9    -5.670759880791137E-1   -1.699947106364812E-1   -8.795404502687754E-3    3.291925811630682E-2   -7.111433387042555E-3    3.292754453662464E-2   -5.337934703419965E-1   -8.010408318186969E-2
 6.457033448250000E9    -5.672948570085192E-1   -1.691212676048919E-1   -8.933453831077307E-3    3.307019483198609E-2   -7.121652771063530E-3    3.309404302019785E-2   -5.339858104543722E-1   -7.893369642020226E-2
 6.457044839375000E9    -5.675503939423941E-1   -1.682196465379157E-1   -8.747051254176921E-3    3.341249076671917E-2   -7.034557449295383E-3    3.319529205371455E-2   -5.340186427349377E-1   -7.782836908466759E-2
 6.457056230500000E9    -5.678540305986639E-1   -1.672022972039230E-1   -8.894340984812715E-3    3.366768526750875E-2   -6.933100351745576E-3    3.339924233822716E-2   -5.343322524427930E-1   -7.671472727379001E-2
 6.457067621625000E9    -5.680376500023387E-1   -1.662828265355739E-1   -8.816740614389187E-3    3.379701810884161E-2   -6.927906185266162E-3    3.366742305682822E-2   -5.344062145785033E-1   -7.553024441596126E-2
 6.457079012750000E9    -5.682721706853786E-1   -1.652683162922493E-1   -8.735998953046989E-3    3.391494731440370E-2   -6.890981489052580E-3    3.377168021170892E-2   -5.346936868433654E-1   -7.423566562759548E-2
 6.457090403875000E9    -5.685944242692500E-1   -1.643428966255207E-1   -8.701213647727166E-3    3.404936915849768E-2   -6.898701917371524E-3    3.400279546771015E-2   -5.348808162776413E-1   -7.311384892341195E-2
 6.457101795000000E9    -5.687927502434241E-1   -1.634612877473661E-1   -8.620056157981844E-3    3.422199021172145E-2   -6.869815892528748E-3    3.421478620433262E-2   -5.349538201103431E-1   -7.189926710103274E-2
 6.457113186125000E9    -5.690547757871671E-1   -1.623159150627168E-1   -8.583653010258133E-3    3.450925787523866E-2   -6.836210928872527E-3    3.441316517374111E-2   -5.351645830099507E-1   -7.065118692947407E-2
 6.457124577250000E9    -5.693624214787367E-1   -1.614139726896853E-1   -8.566857850571222E-3    3.485563777018739E-2   -6.715870979840004E-3    3.457130387975797E-2   -5.352784583523966E-1   -6.938812704784279E-2
 6.457135968375000E9    -5.696410479459927E-1   -1.604266648616586E-1   -8.461191139418598E-3    3.494091762696636E-2   -6.675160443346372E-3    3.488147465678947E-2   -5.354151541943433E-1   -6.834579208143185E-2
 6.457147359500000E9    -5.697992045916943E-1   -1.595288363002037E-1   -8.482329775466754E-3    3.491288607302773E-2   -6.720313070382838E-3    3.504457037026389E-2   -5.355272710270619E-1   -6.704206404961481E-2
 6.457158750625000E9    -5.700045115867752E-1   -1.586729984122136E-1   -8.562129913209177E-3    3.538629405274411E-2   -6.618126862166541E-3    3.526833669687086E-2   -5.356488547872530E-1   -6.584898300800357E-2
 6.457170141750000E9    -5.703467012476279E-1   -1.576178175313575E-1   -8.393497124894539E-3    3.558042069951321E-2   -6.678996763854452E-3    3.533084272497650E-2   -5.358396759872874E-1   -6.457918762164970E-2
 6.457181532875000E9    -5.706026417724817E-1   -1.567472989210023E-1   -8.398426445988375E-3    3.572659794219439E-2   -6.524411038375024E-3    3.565210905109396E-2   -5.359499986962589E-1   -6.329143494631960E-2
 6.457192924000000E9    -5.707862197610380E-1   -1.557662050158207E-1   -8.353436825312425E-3    3.597411692941360E-2   -6.479291813753236E-3    3.587640683422053E-2   -5.360851927849751E-1   -6.210035553993141E-2
 6.457204315125000E9    -5.710244665490202E-1   -1.546988985365088E-1   -8.391836246475687E-3    3.616979470352507E-2   -6.476410439904243E-3    3.606157245382480E-2   -5.363087452963760E-1   -6.094168044968192E-2
 6.457215706250000E9    -5.712931999164004E-1   -1.537508421952808E-1   -8.377071159929375E-3    3.645954314815272E-2   -6.465032695853358E-3    3.626208754718417E-2   -5.363530751817632E-1   -5.955617940919779E-2
 6.457227097375000E9    -5.715177510721182E-1   -1.528634139248449E-1   -8.328432344597167E-3    3.650571857195393E-2   -6.356092508600992E-3    3.651020251007105E-2   -5.364175300789501E-1   -5.849444796381416E-2
 6.457238488500000E9    -5.717340048660640E-1   -1.517509786357120E-1   -8.325516047175734E-3    3.683037101822464E-2   -6.392385077325767E-3    3.669478545006456E-2   -5.367093214286670E-1   -5.712734346507362E-2
 6.457249879625000E9    -5.719968474160788E-1   -1.508200025646655E-1   -8.139115223793916E-3    3.703968494661250E-2   -6.338149881271750E-3    3.686854304767158E-2   -5.368207350480616E-1   -5.590940216185775E-2
 6.457261270750000E9    -5.723345487129148E-1   -1.497228201346965E-1   -8.178072869952837E-3    3.720201603143884E-2   -6.254977511612055E-3    3.716750458740484E-2   -5.368447710909435E-1   -5.470667094396719E-2
 6.457272661875000E9    -5.724933471802458E-1   -1.487702467291509E-1   -8.209938359635984E-3    3.765764058523209E-2   -6.139348540908398E-3    3.733043491335227E-2   -5.369801231468521E-1   -5.336413166068790E-2
 6.457284053000000E9    -5.726576778404918E-1   -1.479927900619194E-1   -7.955538236323383E-3    3.782011854273440E-2   -6.165751628703620E-3    3.755520168671249E-2   -5.369871879222742E-1   -5.199961398349626E-2
 6.457295444125000E9    -5.729298817252320E-1   -1.470033876574343E-1   -8.107995936325527E-3    3.803542680088984E-2   -6.139680476566783E-3    3.778371379111269E-2   -5.373096773128984E-1   -5.082540303425639E-2
 6.457306835250000E9    -5.731424547182095E-1   -1.458642957157943E-1   -8.077100205065260E-3    3.807887035775796E-2   -6.102933146931852E-3    3.805447553229349E-2   -5.372319914571591E-1   -4.967705480897262E-2
 6.457318226375000E9    -5.733406048767062E-1   -1.450597754248590E-1   -8.031682137505474E-3    3.839721830302304E-2   -6.061375557639402E-3    3.826125445944075E-2   -5.373639691231401E-1   -4.817717363136279E-2
 6.457329617500000E9    -5.735462886842868E-1   -1.439993880317154E-1   -8.014116046048257E-3    3.874955688780646E-2   -5.942634059404252E-3    3.848248049414314E-2   -5.375502575295148E-1   -4.684191788599475E-2
 6.457341008625000E9    -5.738163687529313E-1   -1.429520741614249E-1   -7.983219635771512E-3    3.894344545845077E-2   -5.962767122684065E-3    3.868021536399426E-2   -5.376561286697222E-1   -4.557235628393053E-2
 6.457352399750000E9    -5.740650772150374E-1   -1.420585719000126E-1   -7.991998063186968E-3    3.915080803698776E-2   -5.860118362051325E-3    3.893951302334164E-2   -5.378571303430970E-1   -4.438487987901828E-2
 6.457363790875000E9    -5.742277912561918E-1   -1.410377022990822E-1   -7.851087093498346E-3    3.951744360820093E-2   -5.833276238500237E-3    3.914542470196010E-2   -5.377509412386327E-1   -4.302805649021977E-2
 6.457375182000000E9    -5.743984851704480E-1   -1.401825285987452E-1   -7.893925348729172E-3    3.970898455056844E-2   -5.676541135637478E-3    3.944921190342379E-2   -5.378674951452106E-1   -4.180632169109830E-2
 6.457386573125000E9    -5.746331539278847E-1   -1.391174267285499E-1   -7.830380706995323E-3    4.009407000472766E-2   -5.703288095692911E-3    3.975787383968524E-2   -5.379726952843148E-1   -4.031755152120489E-2
 6.457397964250000E9    -5.748526665078156E-1   -1.381257784996929E-1   -7.712452199667474E-3    4.010771905516016E-2   -5.665260961583585E-3    3.995520512340196E-2   -5.379996727415248E-1   -3.899761840590905E-2
 6.457409355375000E9    -5.750715749243320E-1   -1.371606051168516E-1   -7.642065819249345E-3    4.048096671112680E-2   -5.559772599534931E-3    4.024665363321177E-2   -5.381833776847921E-1   -3.776291296860700E-2
 6.457420746500000E9    -5.752611850417269E-1   -1.360724717048420E-1   -7.685559185696681E-3    4.057677402875631E-2   -5.485468348113557E-3    4.042899192042927E-2   -5.382253735326124E-1   -3.642688998458834E-2
 6.457432137625000E9    -5.754591286574325E-1   -1.350429868841507E-1   -7.545973459573795E-3    4.112483110964808E-2   -5.389251975284124E-3    4.084096532046417E-2   -5.383665289345231E-1   -3.504079159385317E-2
 6.457443528750000E9    -5.757477680655900E-1   -1.339923211578261E-1   -7.557533053517711E-3    4.120163029561617E-2   -5.394209709319798E-3    4.104370482824260E-2   -5.384146282803211E-1   -3.379688998346902E-2
 6.457454919875000E9    -5.759156443714809E-1   -1.330370317364200E-1   -7.491948710916422E-3    4.155719716770739E-2   -5.325272003037019E-3    4.125411919343574E-2   -5.384555391841003E-1   -3.227478682740010E-2
 6.457466311000000E9    -5.760570053349107E-1   -1.321072176740726E-1   -7.498266482640820E-3    4.190332979336096E-2   -5.318299464053852E-3    4.155127072347035E-2   -5.383572322769694E-1   -3.106363516394657E-2
 6.457477702125000E9    -5.762672870571776E-1   -1.310144546810146E-1   -7.407516449874059E-3    4.206850126291694E-2   -5.266412993967640E-3    4.185608014800728E-2   -5.384843321221743E-1   -2.958596649154226E-2
 6.457489093250000E9    -5.763601263020337E-1   -1.299031125680484E-1   -7.168186248467044E-3    4.247783980378494E-2   -5.076994957580449E-3    4.209337648355623E-2   -5.384636026628951E-1   -2.817755147003739E-2
 6.457500484375000E9    -5.766748615877463E-1   -1.291194768028556E-1   -7.183122775193471E-3    4.276111811427812E-2   -5.033442650572550E-3    4.241973238573954E-2   -5.385675852774602E-1   -2.680131362018632E-2
 6.457511875500000E9    -5.768975905757656E-1   -1.280124448004288E-1   -7.147242723676862E-3    4.301282297248873E-2   -5.076000204236802E-3    4.272778925275034E-2   -5.387469641134076E-1   -2.548047423877252E-2
 6.457523266625000E9    -5.770147335645340E-1   -1.269144588995093E-1   -7.114138247927267E-3    4.335415621082297E-2   -4.952373119932717E-3    4.298417290144119E-2   -5.386985951607748E-1   -2.427996619510888E-2
 6.457534657750000E9    -5.772368282862609E-1   -1.260499447305855E-1   -6.996414990505458E-3    4.369929926443232E-2   -4.903830833961663E-3    4.317055624723454E-2   -5.387992896491386E-1   -2.281599269030750E-2
 6.457546048875000E9    -5.773661330528727E-1   -1.248610868064340E-1   -7.051071233791254E-3    4.392827975414766E-2   -4.848109841805899E-3    4.350665217935586E-2   -5.388215376217107E-1   -2.115888473685961E-2
 6.457557440000000E9    -5.776003029240576E-1   -1.239746960353053E-1   -7.021600174382637E-3    4.408734052908401E-2   -4.716990415999951E-3    4.391875154552584E-2   -5.387699071847528E-1   -1.985192675662709E-2
 6.457568831125000E9    -5.777731592690615E-1   -1.228480171871966E-1   -6.972523681430485E-3    4.451492153854500E-2   -4.590997212933570E-3    4.419520696359233E-2   -5.388021148279077E-1   -1.838682486486546E-2
 6.457580222250000E9    -5.779406896555255E-1   -1.218324596910872E-1   -6.883237940623263E-3    4.488351587558850E-2   -4.601783689808622E-3    4.451283299089914E-2   -5.388624776308635E-1   -1.703290608422699E-2
 6.457591613375000E9    -5.782256951984506E-1   -1.208469762450727E-1   -6.802612826678188E-3    4.510024157070497E-2   -4.471167622264710E-3    4.469251043249769E-2   -5.388981170818600E-1   -1.558536432718355E-2
 6.457603004500000E9    -5.782125323161991E-1   -1.198505941120290E-1   -6.662022568643186E-3    4.549177996051764E-2   -4.370501208656844E-3    4.512558131536756E-2   -5.388792457865693E-1   -1.426009680357210E-2
 6.457614395625000E9    -5.783892800524256E-1   -1.186812677490077E-1   -6.600321122979045E-3    4.587680374859893E-2   -4.353727997508975E-3    4.535447047793789E-2   -5.389325318025335E-1   -1.270451901375699E-2
 6.457625786750000E9    -5.786331041282613E-1   -1.177017291614799E-1   -6.627680929688466E-3    4.599235108983643E-2   -4.240873859063812E-3    4.566689160024381E-2   -5.387344649780796E-1   -1.127946667104799E-2
 6.457637177875000E9    -5.788162069479181E-1   -1.166590980034700E-1   -6.551251858281160E-3    4.643432996252272E-2   -4.190026063312344E-3    4.598251530437240E-2   -5.387758077408394E-1   -9.802157889589233E-3
 6.457648569000000E9    -5.790563569145967E-1   -1.156052737031863E-1   -6.631428631735341E-3    4.684134527800643E-2   -4.037404885800236E-3    4.639781619439490E-2   -5.387577954697067E-1   -8.321163119556265E-3
 6.457659960125000E9    -5.792271032744842E-1   -1.146204593717705E-1   -6.442660875174696E-3    4.721308176916297E-2   -3.934032830834511E-3    4.671110230204683E-2   -5.388766037343792E-1   -6.934393959496247E-3
 6.457671351250000E9    -5.793193801713413E-1   -1.135533832003591E-1   -6.147289198697289E-3    4.755013311626308E-2   -3.898923749330374E-3    4.694111795044040E-2   -5.389011414402425E-1   -5.380933602259183E-3
 6.457682742375000E9    -5.794281064713461E-1   -1.124941957682342E-1   -6.201870039250957E-3    4.786347927152960E-2   -3.811795461447209E-3    4.730619681542057E-2   -5.387664882668480E-1   -3.836148702131427E-3
 6.457694133500000E9    -5.795661331663162E-1   -1.114998948001190E-1   -6.164555440548644E-3    4.829956708703632E-2   -3.635143950283662E-3    4.772714538683083E-2   -5.388856961785945E-1   -2.350479535264243E-3
 6.457705524625000E9    -5.796966675648427E-1   -1.104771903393550E-1   -5.931118781804947E-3    4.853851328117455E-2   -3.627124555266873E-3    4.808188294801076E-2   -5.387537772584701E-1   -6.508949792258745E-4
 6.457716915750000E9    -5.798039615438881E-1   -1.093039142340141E-1   -5.930148159202038E-3    4.898070405244777E-2   -3.479703695984371E-3    4.842178932121676E-2   -5.387559132092148E-1    5.957083462087012E-4
 6.457728306875000E9    -5.800226449606398E-1   -1.083367902757326E-1   -5.950468003918190E-3    4.927167879865513E-2   -3.332862231570369E-3    4.875872698887462E-2   -5.386493644903542E-1    2.193089517443955E-3
 6.457739698000000E9    -5.800695883604121E-1   -1.072807724457025E-1   -5.795170519748703E-3    4.973877072947639E-2   -3.261112553258481E-3    4.910547039349821E-2   -5.386626096938792E-1    3.827123802732032E-3
 6.457751089125000E9    -5.804111956640184E-1   -1.061682821853920E-1   -5.643087221607571E-3    5.004118587337037E-2   -3.218132755886566E-3    4.949545968574894E-2   -5.386143946651912E-1    5.284314743264162E-3
 6.457762480250000E9    -5.804682344778201E-1   -1.051238132878148E-1   -5.635252455366881E-3    5.055165584432837E-2   -2.977991375063504E-3    4.985565947184831E-2   -5.385031528529254E-1    6.881038236235103E-3
 6.457773871375000E9    -5.806154801091530E-1   -1.039828011442728E-1   -5.472218404164280E-3    5.096171529058701E-2   -2.871537687730042E-3    5.024269929581777E-2   -5.383841316059269E-1    8.425485741019980E-3
 6.457785262500000E9    -5.808144424995280E-1   -1.029628241009037E-1   -5.463404103426762E-3    5.139986624809002E-2   -2.898966966940121E-3    5.052806980242273E-2   -5.383258690632274E-1    1.003545706300128E-2
 6.457796653625000E9    -5.807576352040730E-1   -1.018486978878995E-1   -5.345402438070724E-3    5.178395132477621E-2   -2.654051772068913E-3    5.097606675420478E-2   -5.383620959786378E-1    1.161466927062948E-2
 6.457808044750000E9    -5.810655932597597E-1   -1.007210943669483E-1   -5.104066692257461E-3    5.202557055394106E-2   -2.606268948942854E-3    5.143641451777148E-2   -5.382590841073961E-1    1.319355730397736E-2
 6.457819435875000E9    -5.811036183944246E-1   -9.966823307633536E-2   -5.111111062914155E-3    5.253966890653664E-2   -2.514258478042550E-3    5.176200330442968E-2   -5.381019771069315E-1    1.472211187177140E-2
 6.457830827000000E9    -5.812377840385398E-1   -9.871903852133858E-2   -5.017978869398830E-3    5.286985342525165E-2   -2.321602491236185E-3    5.218945385332006E-2   -5.379071837742504E-1    1.633738904156019E-2
 6.457842218125000E9    -5.814490896502440E-1   -9.750348668460909E-2   -4.820116186211076E-3    5.333740144395850E-2   -2.238778188775160E-3    5.260192850197474E-2   -5.378435254967876E-1    1.797046134546873E-2
 6.457853609250000E9    -5.815616963210140E-1   -9.637933825619065E-2   -4.831721021401903E-3    5.370690507205238E-2   -2.076383817505990E-3    5.304211520265163E-2   -5.377370351056883E-1    1.974640304121613E-2
 6.457865000375000E9    -5.815481428141981E-1   -9.532334189381174E-2   -4.656439854258840E-3    5.422045949501195E-2   -1.909162955760305E-3    5.349974547042501E-2   -5.377422998375107E-1    2.131846912249496E-2
 6.457876391500000E9    -5.816627611943305E-1   -9.419155323506243E-2   -4.557963917133476E-3    5.472437072817370E-2   -1.887884412573983E-3    5.388001261989392E-2   -5.375609074087553E-1    2.302243863547451E-2
 6.457887782625000E9    -5.818940525724484E-1   -9.311216944208899E-2   -4.527994671875734E-3    5.518732534579102E-2   -1.698282082950901E-3    5.434890185840516E-2   -5.374236756649524E-1    2.482728430787666E-2
 6.457899173750000E9    -5.818937180246343E-1   -9.206068346799541E-2   -4.307785753262851E-3    5.553946939613495E-2   -1.624445962632032E-3    5.481119678005075E-2   -5.374321160251708E-1    2.650015671224708E-2
 6.457910564875000E9    -5.819956078663079E-1   -9.089105401940642E-2   -4.120643984534191E-3    5.606602011763309E-2   -1.389380938483637E-3    5.529353940901859E-2   -5.371700518075599E-1    2.816627248123912E-2
 6.457921956000000E9    -5.821617466198943E-1   -8.975074795322170E-2   -4.038294143165814E-3    5.653855864208233E-2   -1.223767104506600E-3    5.564204434299833E-2   -5.368870300079411E-1    2.981698594207784E-2
 6.457933347125000E9    -5.821546197906716E-1   -8.861920369449804E-2   -3.985644551690585E-3    5.694749474314183E-2   -1.178117918919737E-3    5.610908997802301E-2   -5.367610233435439E-1    3.163984414306107E-2
 6.457944738250000E9    -5.823934886558615E-1   -8.756322477906436E-2   -3.681733474574006E-3    5.758456184755104E-2   -9.407826620178746E-4    5.654905575361974E-2   -5.365694326723273E-1    3.336078371081432E-2
 6.457956129375000E9    -5.824992112793286E-1   -8.655821012504958E-2   -3.727291932046030E-3    5.794694650420537E-2   -7.971000503520063E-4    5.710405225804540E-2   -5.364213726209981E-1    3.511970927190160E-2
 6.457967520500000E9    -5.825299558768445E-1   -8.534018794699132E-2   -3.523232694569520E-3    5.846070654094172E-2   -5.798610479923167E-4    5.759554787198643E-2   -5.362802411097565E-1    3.684201454345166E-2
 6.457978911625000E9    -5.827494974980416E-1   -8.420768714284967E-2   -3.321407779069217E-3    5.885364245291699E-2   -4.443018925042189E-4    5.803130169155995E-2   -5.359828481389513E-1    3.862960153879681E-2
 6.457990302750000E9    -5.826281696815947E-1   -8.300039147042652E-2   -3.221845221871206E-3    5.955421868626572E-2   -3.289284702679727E-4    5.863867840887985E-2   -5.358436141605968E-1    4.042438357830865E-2
 6.458001693875000E9    -5.827114385808460E-1   -8.179539650062002E-2   -3.054511387019091E-3    5.991071425229175E-2   -2.017439197363428E-4    5.907097254165628E-2   -5.356173698335372E-1    4.218678193924412E-2
 6.458013085000000E9    -5.828045072899865E-1   -8.074860048167314E-2   -2.870550875276813E-3    6.067821317960056E-2    1.123472208717437E-4    5.960847535187001E-2   -5.353565298499142E-1    4.388986137320978E-2
 6.458024476125000E9    -5.828307521490007E-1   -7.958001448706256E-2   -2.668490535603844E-3    6.102566011956184E-2    2.982280293173470E-4    6.005109779491737E-2   -5.350519451397426E-1    4.591802225740840E-2
 6.458035867250000E9    -5.829491448522051E-1   -7.836798453820909E-2   -2.601073974236729E-3    6.172442854681207E-2    5.224438629238253E-4    6.064003982600771E-2   -5.348422875881180E-1    4.777208186762223E-2
