#  HZ   S   RI   R     50.00 
! Rohde & Schwarz Vector Network Analyzer 
! Rohde-Schwarz,ZNB20-2Port,1311601062101988,3.16
! Created: UTC 3/20/2024, 10:57:37 PM
! freq[Hz]                re:S11                  im:S11                  re:S21                  im:S21                  re:S12                  im:S12                  re:S22                  im:S22
 6.457003151000000E9    -5.667528683491969E-1   -1.712698289302330E-1   -8.803673710287336E-3    3.262005239324415E-2   -7.209658562739811E-3    3.255705426357982E-2   -5.332992282882867E-1   -8.225575021278229E-2
 6.457014566175000E9    -5.668589649431919E-1   -1.702277613116980E-1   -8.808102317540740E-3    3.289961586279859E-2   -7.138449448297576E-3    3.283293666965553E-2   -5.336203234062088E-1   -8.093496210648624E-2
 6.457025981350000E9    -5.671954456960105E-1   -1.694455459688971E-1   -8.791913358752181E-3    3.291034843711069E-2   -7.074660597105526E-3    3.307370028004179E-2   -5.338120516107351E-1   -7.992643555812258E-2
 6.457037396525000E9    -5.674841007880020E-1   -1.684498241598737E-1   -8.845115765612659E-3    3.330407369411403E-2   -7.043764434141777E-3    3.321668276806600E-2   -5.339080562762514E-1   -7.865229919824153E-2
 6.457048811700000E9    -5.677097278113850E-1   -1.675692707299698E-1   -8.730804672755018E-3    3.350117450996061E-2   -6.984383255984502E-3    3.344837119737421E-2   -5.340237868925505E-1   -7.747899101959285E-2
 6.457060226875000E9    -5.679341011511432E-1   -1.665938860088467E-1   -8.772637662964152E-3    3.362796319600096E-2   -6.961540025837033E-3    3.359402753956072E-2   -5.342855782767049E-1   -7.632285806218485E-2
 6.457071642050000E9    -5.682362895643962E-1   -1.655958560443501E-1   -8.676867727775693E-3    3.389022856343997E-2   -6.920779655637467E-3    3.373291388893222E-2   -5.344291248325825E-1   -7.506201132759506E-2
 6.457083057225000E9    -5.684475820623426E-1   -1.647801758750579E-1   -8.707884225126094E-3    3.407584189911074E-2   -6.923914979907012E-3    3.395656808481248E-2   -5.344270580828472E-1   -7.391414450390418E-2
 6.457094472400000E9    -5.687343930910932E-1   -1.636816039511637E-1   -8.642145530302955E-3    3.417164728178545E-2   -6.868892014276682E-3    3.411282718877626E-2   -5.346989307202531E-1   -7.252682893403874E-2
 6.457105887575000E9    -5.688812659792049E-1   -1.627184652623968E-1   -8.605623060880542E-3    3.438147975256509E-2   -6.824188017159719E-3    3.436946006379533E-2   -5.348908323756223E-1   -7.148488747788617E-2
 6.457117302750000E9    -5.692251687900545E-1   -1.617101405891463E-1   -8.512449266119522E-3    3.465282318416502E-2   -6.784149279251668E-3    3.449687009585403E-2   -5.351568671031857E-1   -7.027411881602272E-2
 6.457128717925000E9    -5.694534977627352E-1   -1.609031486558784E-1   -8.548641799247542E-3    3.483156603844868E-2   -6.782797747294952E-3    3.472097729131660E-2   -5.353496055741577E-1   -6.916330919960743E-2
 6.457140133100000E9    -5.697847795481358E-1   -1.598744340754003E-1   -8.430527058986297E-3    3.506388009838290E-2   -6.724174267810627E-3    3.493074738335903E-2   -5.351569782046870E-1   -6.785200802956386E-2
 6.457151548275000E9    -5.699352745185061E-1   -1.589955347246016E-1   -8.534670000120436E-3    3.527141571593131E-2   -6.659469442482332E-3    3.505400697444386E-2   -5.356190116598313E-1   -6.664439246900236E-2
 6.457162963450000E9    -5.701639066919036E-1   -1.579832330008631E-1   -8.527765163834031E-3    3.536132633223518E-2   -6.655261894859130E-3    3.527024728442579E-2   -5.356787762092948E-1   -6.546171897833590E-2
 6.457174378625000E9    -5.704002508689385E-1   -1.570219548739491E-1   -8.525681942865531E-3    3.560247505712261E-2   -6.622869621656354E-3    3.553772919489676E-2   -5.358849187032654E-1   -6.415501135634150E-2
 6.457185793800000E9    -5.707983102151083E-1   -1.559751561770295E-1   -8.476918836326010E-3    3.590664057527651E-2   -6.581633115618686E-3    3.570419559447915E-2   -5.359116940643536E-1   -6.290481233407022E-2
 6.457197208975000E9    -5.708607950899267E-1   -1.550911412017639E-1   -8.443335514066320E-3    3.597582257131641E-2   -6.506038581266325E-3    3.595299475044102E-2   -5.360560534012964E-1   -6.161857865671181E-2
 6.457208624150000E9    -5.711037019778681E-1   -1.540103580699458E-1   -8.312979099394458E-3    3.634736231203674E-2   -6.533297008558959E-3    3.616171251292184E-2   -5.361993978508343E-1   -6.048224929181382E-2
 6.457220039325000E9    -5.714336924487410E-1   -1.530399626716666E-1   -8.383774849745104E-3    3.656896102486073E-2   -6.448592983368810E-3    3.635826371345516E-2   -5.362164389450714E-1   -5.915025349553733E-2
 6.457231454500000E9    -5.716675516227013E-1   -1.521452884759152E-1   -8.216927163042982E-3    3.674347087401508E-2   -6.398749696997650E-3    3.658486445634806E-2   -5.363929686830070E-1   -5.787681213265126E-2
 6.457242869675000E9    -5.718460995266405E-1   -1.511741331824231E-1   -8.134799467176778E-3    3.701930776868800E-2   -6.344989823544313E-3    3.676995042514875E-2   -5.365554964347132E-1   -5.670174195553591E-2
 6.457254284850000E9    -5.721328842653558E-1   -1.502571133278925E-1   -8.154809870124324E-3    3.719878251737928E-2   -6.309641616776340E-3    3.695046685902656E-2   -5.365616546867992E-1   -5.531915646186236E-2
 6.457265700025000E9    -5.723005565709565E-1   -1.492324962592579E-1   -8.143674398972487E-3    3.749696117251850E-2   -6.166530976911728E-3    3.731244524462666E-2   -5.368107896271175E-1   -5.411876828885823E-2
 6.457277115200000E9    -5.726520305332347E-1   -1.482677821303069E-1   -8.144974892250361E-3    3.766447188694720E-2   -6.306313020137359E-3    3.755180160646703E-2   -5.368597248752374E-1   -5.274493514666526E-2
 6.457288530375000E9    -5.727078517887046E-1   -1.472740333315658E-1   -7.990904046067452E-3    3.780876681754712E-2   -6.210234807330506E-3    3.762387270245659E-2   -5.370971052588691E-1   -5.146608076836079E-2
 6.457299945550000E9    -5.730170264239280E-1   -1.462782491078189E-1   -8.144011186305084E-3    3.809550546488197E-2   -6.114563253328146E-3    3.800749600306120E-2   -5.371451236276582E-1   -5.021830211008308E-2
 6.457311360725000E9    -5.732351581012768E-1   -1.452655660127747E-1   -8.082136373113105E-3    3.826742115009189E-2   -6.054370322824457E-3    3.820221140064947E-2   -5.372004501087690E-1   -4.909564675003673E-2
 6.457322775900000E9    -5.734491760159990E-1   -1.443386681335422E-1   -7.973703681152428E-3    3.863064746716098E-2   -6.004481477882267E-3    3.842553542050250E-2   -5.373045017105049E-1   -4.779595628137141E-2
 6.457334191075000E9    -5.737072680290537E-1   -1.434116453438902E-1   -7.939513881980789E-3    3.891358021591913E-2   -6.057906470162746E-3    3.862274079537246E-2   -5.374280137508715E-1   -4.632517786037361E-2
 6.457345606250000E9    -5.738754806451120E-1   -1.423759774067315E-1   -7.917599361089557E-3    3.909809160564784E-2   -5.826743453620894E-3    3.895166394373870E-2   -5.374532325818675E-1   -4.518706844014053E-2
 6.457357021425000E9    -5.741462026642088E-1   -1.412899099733239E-1   -7.874439988176317E-3    3.920778293583946E-2   -5.896932158670493E-3    3.908678162690718E-2   -5.375657029632998E-1   -4.380686167691841E-2
 6.457368436600000E9    -5.744066436092941E-1   -1.404159481830191E-1   -7.905512391632190E-3    3.951793429697272E-2   -5.655709249497081E-3    3.941712747936435E-2   -5.376609476432983E-1   -4.241727871983643E-2
 6.457379851775000E9    -5.745284457776143E-1   -1.393407204873958E-1   -7.748701935167482E-3    3.995002383761165E-2   -5.668500286668651E-3    3.958835121076473E-2   -5.377899861358575E-1   -4.120210173410793E-2
 6.457391266950000E9    -5.747342363468265E-1   -1.385055657824355E-1   -7.718313347272089E-3    4.013790921303863E-2   -5.646451910508987E-3    3.983276026041537E-2   -5.378378018856015E-1   -3.975795700618009E-2
 6.457402682125000E9    -5.749109110358920E-1   -1.374042095946855E-1   -7.634341060757764E-3    4.043452315768156E-2   -5.651607061494888E-3    4.020522806792588E-2   -5.378776230185954E-1   -3.857047905869335E-2
 6.457414097300000E9    -5.751818986968734E-1   -1.363868596757796E-1   -7.805629765436279E-3    4.062397158224432E-2   -5.536371993257814E-3    4.043696801527921E-2   -5.380663069097740E-1   -3.719864397018334E-2
 6.457425512475000E9    -5.752888914499313E-1   -1.353665391972954E-1   -7.616209509341985E-3    4.093805913003853E-2   -5.439253808561842E-3    4.061288263625124E-2   -5.381333076557866E-1   -3.589214027952462E-2
 6.457436927650000E9    -5.755833268608165E-1   -1.344375986833573E-1   -7.380253283833849E-3    4.126677149217321E-2   -5.473566586371774E-3    4.091062352946255E-2   -5.380699493148015E-1   -3.456445078769742E-2
 6.457448342825000E9    -5.757578812679096E-1   -1.333503577662679E-1   -7.459415874033450E-3    4.146087471982843E-2   -5.337548778151522E-3    4.107390456459822E-2   -5.382829075978423E-1   -3.328895299143300E-2
 6.457459758000000E9    -5.759770092619939E-1   -1.324114207109244E-1   -7.479396106365901E-3    4.179077479340277E-2   -5.189317370986418E-3    4.150010050837626E-2   -5.382018613957058E-1   -3.177023750939794E-2
 6.457471173175000E9    -5.761295477996403E-1   -1.314152990251944E-1   -7.344475556633040E-3    4.210095652298630E-2   -5.197277301621717E-3    4.174165294338608E-2   -5.382965078104085E-1   -3.049465127288337E-2
 6.457482588350000E9    -5.763567464504865E-1   -1.303204669236601E-1   -7.277106543184581E-3    4.238935070055095E-2   -5.243440608893901E-3    4.191365425514216E-2   -5.384924748257002E-1   -2.905718492852787E-2
 6.457494003525000E9    -5.764466769630312E-1   -1.293779989244240E-1   -7.315504907004662E-3    4.255685633993296E-2   -5.107910676361173E-3    4.231407964590887E-2   -5.385391943040089E-1   -2.777540199026112E-2
 6.457505418700000E9    -5.767545930255747E-1   -1.283826249550846E-1   -7.269111812486961E-3    4.291739809310208E-2   -5.074172801736573E-3    4.253368375839271E-2   -5.385969533209963E-1   -2.622042940793460E-2
 6.457516833875000E9    -5.768939693363653E-1   -1.273784515943879E-1   -7.167038450632754E-3    4.319840102366902E-2   -5.049489635102893E-3    4.294522704238399E-2   -5.386661400003158E-1   -2.492189963663725E-2
 6.457528249050000E9    -5.771381909617910E-1   -1.262666124064725E-1   -7.145001387840918E-3    4.345728984868594E-2   -4.884019829927486E-3    4.315445761978937E-2   -5.385997779020060E-1   -2.351311167409520E-2
 6.457539664225000E9    -5.772488701564580E-1   -1.252872313163957E-1   -7.038715294837958E-3    4.386984292039928E-2   -4.863895097694535E-3    4.343801725227887E-2   -5.385947970623460E-1   -2.215738480499831E-2
 6.457551079400000E9    -5.774014487080786E-1   -1.241890175997656E-1   -6.952647283462190E-3    4.400678708498753E-2   -4.681913363480494E-3    4.378044488994710E-2   -5.386765146803378E-1   -2.070270653250366E-2
 6.457562494575000E9    -5.776754272506222E-1   -1.231913093848854E-1   -7.002542080654970E-3    4.441420227784582E-2   -4.591350526548615E-3    4.405652484457866E-2   -5.388348483996281E-1   -1.928042485221263E-2
 6.457573909750000E9    -5.778461505962548E-1   -1.222641750526533E-1   -6.869261187218804E-3    4.470511924216592E-2   -4.635777473114620E-3    4.432253874892284E-2   -5.388485789094363E-1   -1.785807713820818E-2
 6.457585324925000E9    -5.780323378289731E-1   -1.212674568374505E-1   -6.790311649786706E-3    4.512613255872541E-2   -4.531425592306492E-3    4.462642974951592E-2   -5.387979630148639E-1   -1.636669401562090E-2
 6.457596740100000E9    -5.781740044028217E-1   -1.201655052791627E-1   -6.810130180042882E-3    4.531819026751732E-2   -4.416063222433281E-3    4.497147139620828E-2   -5.387146731397859E-1   -1.488563274588039E-2
 6.457608155275000E9    -5.782695623968254E-1   -1.191639736138768E-1   -6.667633150305537E-3    4.569728577736733E-2   -4.387966742690115E-3    4.525700662139728E-2   -5.386894944013579E-1   -1.339242948934915E-2
 6.457619570450000E9    -5.785031342674659E-1   -1.181506008267288E-1   -6.601914088438044E-3    4.611575045856624E-2   -4.223160372938052E-3    4.553541045368260E-2   -5.389325663931515E-1   -1.194568084429358E-2
 6.457630985625000E9    -5.788014218182856E-1   -1.171075809742165E-1   -6.589696106502478E-3    4.641378941260531E-2   -4.263129249135164E-3    4.587847217090128E-2   -5.387710805720731E-1   -1.064279378962723E-2
 6.457642400800000E9    -5.789328545925625E-1   -1.159954283166950E-1   -6.223166855535216E-3    4.668940934419575E-2   -4.125498418457003E-3    4.622523120394876E-2   -5.388337830808908E-1   -9.091758390581134E-3
 6.457653815975000E9    -5.790446469886151E-1   -1.149846758297850E-1   -6.317316064016086E-3    4.699668860539223E-2   -3.990005738733805E-3    4.650443149890730E-2   -5.388172611949977E-1   -7.704704604975073E-3
 6.457665231150000E9    -5.791978673272803E-1   -1.138974276867663E-1   -6.348477069576190E-3    4.738998657594825E-2   -3.896750318614492E-3    4.687056081544817E-2   -5.387917120131916E-1   -6.077357293327027E-3
 6.457676646325000E9    -5.793791487480415E-1   -1.127563556553954E-1   -6.261493308500859E-3    4.778136939400090E-2   -3.765915763048471E-3    4.723859095657703E-2   -5.387442236539638E-1   -4.630860802000062E-3
 6.457688061500000E9    -5.794411360715280E-1   -1.118435787283402E-1   -6.212880553550381E-3    4.823659307244052E-2   -3.623958489616589E-3    4.761492569028974E-2   -5.386510932082770E-1   -3.138809978396059E-3
 6.457699476675000E9    -5.794919346310486E-1   -1.107312675790828E-1   -6.064724713646388E-3    4.846810508568811E-2   -3.612770583976546E-3    4.793399402392091E-2   -5.385891141524292E-1   -1.530585686282405E-3
 6.457710891850000E9    -5.798192631369854E-1   -1.096645188369437E-1   -6.168183856633232E-3    4.875112961331673E-2   -3.509028451718476E-3    4.829120550524445E-2   -5.386117635475622E-1   -1.680802294686823E-4
 6.457722307025000E9    -5.799461921433864E-1   -1.086200869006438E-1   -5.962876829662798E-3    4.930208907201611E-2   -3.414557649646486E-3    4.864519388944406E-2   -5.386460940691794E-1    1.341746119161408E-3
 6.457733722200000E9    -5.800903554813976E-1   -1.076821203654895E-1   -5.765217577685741E-3    4.953022559055949E-2   -3.319254705693379E-3    4.909281570969844E-2   -5.385114118505966E-1    2.922832559880571E-3
 6.457745137375000E9    -5.802932121229142E-1   -1.065556303496355E-1   -5.807456689834182E-3    4.998537678729854E-2   -3.196838673569010E-3    4.939595247808155E-2   -5.385225364360575E-1    4.521523276891390E-3
 6.457756552550000E9    -5.804079454576757E-1   -1.054792988071356E-1   -5.622541441420700E-3    5.041289233639625E-2   -3.131043466238243E-3    4.969794632157794E-2   -5.383163091240631E-1    6.167322611249598E-3
 6.457767967725000E9    -5.804761960033193E-1   -1.042821789676661E-1   -5.592462316140133E-3    5.082760809814724E-2   -3.061474703033576E-3    5.014583354260926E-2   -5.383050440721677E-1    7.625341241731678E-3
 6.457779382900000E9    -5.806795984116115E-1   -1.032867546694577E-1   -5.444356452894174E-3    5.120906948404685E-2   -2.846008906681744E-3    5.052432661967814E-2   -5.382417768826440E-1    9.250666971114981E-3
 6.457790798075000E9    -5.807752731187509E-1   -1.020511896011501E-1   -5.328252445587545E-3    5.156162373177790E-2   -2.819509037640187E-3    5.086222923076433E-2   -5.381958789625869E-1    1.091799258908428E-2
 6.457802213250000E9    -5.809626643652128E-1   -1.011278030819459E-1   -5.242039956733393E-3    5.203607192908925E-2   -2.619179717179279E-3    5.128586722198138E-2   -5.380957847062556E-1    1.234361032598795E-2
 6.457813628425000E9    -5.810767109655802E-1   -1.000520845833281E-1   -5.069462320669945E-3    5.237117340186528E-2   -2.513966518498416E-3    5.169060583171953E-2   -5.381266327539185E-1    1.404164195089950E-2
 6.457825043600000E9    -5.812190464356460E-1   -9.890249489766409E-2   -5.083485010945824E-3    5.272938505842158E-2   -2.389825977373166E-3    5.210377757570002E-2   -5.380826974179439E-1    1.570363756158213E-2
 6.457836458775000E9    -5.813039944945527E-1   -9.794208832583717E-2   -4.779630392609110E-3    5.316173876965769E-2   -2.290773028707684E-3    5.251574004276931E-2   -5.377775782284439E-1    1.732676905863731E-2
 6.457847873950000E9    -5.814428133918643E-1   -9.669864073400947E-2   -4.789910714307714E-3    5.369454562137643E-2   -2.181068783457658E-3    5.289502470921176E-2   -5.377474675937975E-1    1.898184039017412E-2
 6.457859289125000E9    -5.814691227699172E-1   -9.570039461725928E-2   -4.841213882854995E-3    5.408903646529165E-2   -2.026249803033653E-3    5.329736851437962E-2   -5.376169693095596E-1    2.060503447164565E-2
 6.457870704300000E9    -5.815359461855877E-1   -9.449082754304795E-2   -4.475012047277826E-3    5.446063630534004E-2   -1.798509558430072E-3    5.386779394393811E-2   -5.374317623709044E-1    2.225348740137654E-2
 6.457882119475000E9    -5.817252809100638E-1   -9.349521651624940E-2   -4.347348181651708E-3    5.495540858825689E-2   -1.767013489522042E-3    5.422797364092377E-2   -5.373546422533274E-1    2.396876674078394E-2
 6.457893534650000E9    -5.819530448116159E-1   -9.228472858961125E-2   -4.359222964355875E-3    5.544006839113081E-2   -1.667805894816428E-3    5.462421466616298E-2   -5.371905366880426E-1    2.568528773453642E-2
 6.457904949825000E9    -5.819820322767743E-1   -9.118986675097748E-2   -4.178484289924463E-3    5.583640795123505E-2   -1.445347191207372E-3    5.517616345314372E-2   -5.371569929577504E-1    2.741194359517382E-2
 6.457916365000000E9    -5.820971211112097E-1   -9.004377209300836E-2   -4.146031091845841E-3    5.629973398998457E-2   -1.315641868179418E-3    5.565911838277699E-2   -5.369564366080904E-1    2.913118213406051E-2
 6.457927780175000E9    -5.821685179056929E-1   -8.901179457101518E-2   -3.884378624834376E-3    5.699781751727740E-2   -1.167126100981504E-3    5.607003615401122E-2   -5.367420734363081E-1    3.088825272654746E-2
 6.457939195350000E9    -5.822472359574168E-1   -8.787308726351722E-2   -3.749435769625304E-3    5.724083515817008E-2   -1.017367828639387E-3    5.643603874078647E-2   -5.366439505159561E-1    3.252648811551271E-2
 6.457950610525000E9    -5.823596069542919E-1   -8.670343287252709E-2   -3.728250936892754E-3    5.778638796666691E-2   -8.463557793993635E-4    5.692633321311039E-2   -5.363208206088271E-1    3.430177435260328E-2
 6.457962025700000E9    -5.823646375750308E-1   -8.561814778840596E-2   -3.501457823344835E-3    5.826857839553006E-2   -6.680298331682595E-4    5.737364347929923E-2   -5.361692231867676E-1    3.612121954065101E-2
 6.457973440875000E9    -5.824504975348642E-1   -8.440946539052126E-2   -3.349150410477718E-3    5.897558761880566E-2   -5.732007885754299E-4    5.797190525003610E-2   -5.359694016786204E-1    3.783991374753778E-2
 6.457984856050000E9    -5.826284328137499E-1   -8.326831017367035E-2   -3.158661461330101E-3    5.949776362102847E-2   -3.552194445045447E-4    5.848799567307505E-2   -5.357719634314285E-1    3.968992474529229E-2
 6.457996271225000E9    -5.827355104284326E-1   -8.214263399812813E-2   -2.929572604568382E-3    5.989635717018837E-2   -1.655984861436015E-4    5.891743385874839E-2   -5.354932897406095E-1    4.144046252843558E-2
 6.458007686400000E9    -5.828697772433428E-1   -8.115443960221448E-2   -2.910180681610498E-3    6.049213153378859E-2    1.302462868062237E-4    5.943397225839273E-2   -5.351707743073103E-1    4.322763817551456E-2
 6.458019101575000E9    -5.829121408690178E-1   -7.987332301016453E-2   -2.710668291096008E-3    6.101840219406264E-2    1.769061555841403E-4    6.007688750857842E-2   -5.349468699763351E-1    4.510224060025288E-2
 6.458030516750000E9    -5.828570215498950E-1   -7.869943747298583E-2   -2.562654164815707E-3    6.152199931393403E-2    4.604290559786218E-4    6.050250131552429E-2   -5.347533139064629E-1    4.704364307376775E-2
