#  HZ   S   RI   R     50.00 
! Rohde & Schwarz Vector Network Analyzer 
! Rohde-Schwarz,ZNB20-2Port,1311601062101988,3.16
! Created: UTC 3/20/2024, 10:58:16 PM
! freq[Hz]                re:S11                  im:S11                  re:S21                  im:S21                  re:S12                  im:S12                  re:S22                  im:S22
 6.456993644000000E9    -5.664159173521727E-1   -1.723075947362900E-1   -8.957368860450062E-3    3.280782254862363E-2   -7.154315877668373E-3    3.262231084104728E-2   -5.328059206006202E-1   -8.389215532441539E-2
 6.457005084325000E9    -5.667110771158491E-1   -1.713087830448841E-1   -8.886788369589430E-3    3.283704043784700E-2   -7.127550451077337E-3    3.270570603330198E-2   -5.330394997050515E-1   -8.270008502477040E-2
 6.457016524650000E9    -5.670008861251901E-1   -1.703864129587137E-1   -8.811416016553964E-3    3.296647451792063E-2   -7.200254009837968E-3    3.291947733966603E-2   -5.332406837817270E-1   -8.146526962036978E-2
 6.457027964975000E9    -5.673418048149829E-1   -1.694814509855807E-1   -8.750746989017292E-3    3.322041323192578E-2   -7.044380683819043E-3    3.308161652306214E-2   -5.333199878453133E-1   -8.031974397134176E-2
 6.457039405300000E9    -5.674663666824625E-1   -1.683738383858954E-1   -8.892430409254172E-3    3.340228060105650E-2   -7.110421756900151E-3    3.326132260571406E-2   -5.336350480774441E-1   -7.897525816214390E-2
 6.457050845625000E9    -5.677252235677919E-1   -1.675540470032384E-1   -8.670933695171700E-3    3.361370408291948E-2   -7.061713798584695E-3    3.339210214654104E-2   -5.336494746120969E-1   -7.794673948111065E-2
 6.457062285950000E9    -5.681184375946128E-1   -1.665140956925769E-1   -8.840613058446439E-3    3.373148513719381E-2   -7.006217797484086E-3    3.378151118796558E-2   -5.338512482134544E-1   -7.678771799094163E-2
 6.457073726275000E9    -5.682620132894974E-1   -1.656174134526864E-1   -8.811423532503264E-3    3.403354938261428E-2   -6.965959369378896E-3    3.385095146638609E-2   -5.340305322301353E-1   -7.555688916459830E-2
 6.457085166600000E9    -5.686080461255928E-1   -1.646574116256223E-1   -8.683374033363772E-3    3.417741229943192E-2   -6.885517276130429E-3    3.406259485524196E-2   -5.341267696571245E-1   -7.429308355237176E-2
 6.457096606925000E9    -5.687589271855307E-1   -1.636655806773549E-1   -8.674541663341981E-3    3.424656290655942E-2   -6.859968289676460E-3    3.426978338773850E-2   -5.344491354776355E-1   -7.314421111514001E-2
 6.457108047250000E9    -5.690552430660685E-1   -1.627399111904631E-1   -8.562297464128817E-3    3.447396475217973E-2   -6.910828523921430E-3    3.449717451488441E-2   -5.344730838894723E-1   -7.189832949776827E-2
 6.457119487575000E9    -5.692040161601333E-1   -1.618311469290990E-1   -8.575051533502418E-3    3.470812585159709E-2   -6.814563366832560E-3    3.469038704743890E-2   -5.346938609106899E-1   -7.061759424716983E-2
 6.457130927900000E9    -5.694911989757698E-1   -1.608288724362242E-1   -8.574004221036206E-3    3.487359563059189E-2   -6.776174473338944E-3    3.484123688093624E-2   -5.348007984187236E-1   -6.942091075033922E-2
 6.457142368225000E9    -5.699342281974854E-1   -1.598347093021808E-1   -8.594952261397084E-3    3.506981883845746E-2   -6.681924138445365E-3    3.506225871790514E-2   -5.349263344478578E-1   -6.830666947483378E-2
 6.457153808550000E9    -5.701488930800011E-1   -1.589171413861092E-1   -8.572397598522571E-3    3.529642896679813E-2   -6.661392688999433E-3    3.524766544116814E-2   -5.351187125742410E-1   -6.698742770574079E-2
 6.457165248875000E9    -5.702832354815142E-1   -1.579376233510831E-1   -8.548593695317802E-3    3.555243584599235E-2   -6.603881109968339E-3    3.547185773049268E-2   -5.352126665090824E-1   -6.580280173109351E-2
 6.457176689200000E9    -5.706029329786473E-1   -1.569030701265647E-1   -8.448699627747436E-3    3.577519880145017E-2   -6.569842183601105E-3    3.565053813028701E-2   -5.354693998400775E-1   -6.449311767989466E-2
 6.457188129525000E9    -5.708700990711641E-1   -1.559541965980791E-1   -8.466728464995077E-3    3.602037954950112E-2   -6.568690223131930E-3    3.585681313119725E-2   -5.355012430738127E-1   -6.324121003336730E-2
 6.457199569850000E9    -5.710235745586830E-1   -1.551074476203334E-1   -8.414955935646336E-3    3.618883431131480E-2   -6.557886394793645E-3    3.609893747400010E-2   -5.356532267930444E-1   -6.208046202684241E-2
 6.457211010175000E9    -5.712640187548113E-1   -1.540441300446027E-1   -8.444567159308022E-3    3.648682397623117E-2   -6.373232033578197E-3    3.633154248984134E-2   -5.357852130003330E-1   -6.085118934723589E-2
 6.457222450500000E9    -5.714224986316848E-1   -1.530205303738457E-1   -8.447931762351327E-3    3.661681374738678E-2   -6.400030493906342E-3    3.660688445431610E-2   -5.359472245863943E-1   -5.959523304360088E-2
 6.457233890825000E9    -5.717470006697549E-1   -1.520836747247354E-1   -8.391079822159661E-3    3.687497915612359E-2   -6.456676168964646E-3    3.676570092182371E-2   -5.361333798360535E-1   -5.819703477344414E-2
 6.457245331150000E9    -5.718952241583073E-1   -1.510724345387145E-1   -8.311055904628396E-3    3.709724517957592E-2   -6.314935655022467E-3    3.693515497578270E-2   -5.361376033518643E-1   -5.700778723799006E-2
 6.457256771475000E9    -5.721468334374101E-1   -1.501970427024308E-1   -8.329792525292938E-3    3.736074204813293E-2   -6.289787863691460E-3    3.712604916094665E-2   -5.362043128149014E-1   -5.576620477640756E-2
 6.457268211800000E9    -5.723544693837038E-1   -1.491887376077042E-1   -8.277296719101237E-3    3.751711960909458E-2   -6.374182568650601E-3    3.748433776512679E-2   -5.365036844472394E-1   -5.453457333144050E-2
 6.457279652125000E9    -5.725569720312651E-1   -1.481488445630089E-1   -8.186154217576702E-3    3.775499748790127E-2   -6.234940888906726E-3    3.757215919193179E-2   -5.364254604770644E-1   -5.319079657318752E-2
 6.457291092450000E9    -5.730034175244080E-1   -1.470490888726973E-1   -8.277661235939411E-3    3.807703161734761E-2   -6.179056911236171E-3    3.789979810447713E-2   -5.365959497570313E-1   -5.199319290596507E-2
 6.457302532775000E9    -5.730666130753578E-1   -1.462058046313946E-1   -8.112197944052161E-3    3.830874568183554E-2   -6.121708922178937E-3    3.808715825109166E-2   -5.367772617203354E-1   -5.064058008158086E-2
 6.457313973100000E9    -5.733388494090408E-1   -1.451347336954472E-1   -8.068653393585990E-3    3.866904091036356E-2   -6.031406866370661E-3    3.836585276051545E-2   -5.370122301445802E-1   -4.928031375229032E-2
 6.457325413425000E9    -5.735590955500640E-1   -1.441995720295439E-1   -7.889340540983003E-3    3.880902810250372E-2   -6.049593133520200E-3    3.865810117518317E-2   -5.369183974403461E-1   -4.800724186127009E-2
 6.457336853750000E9    -5.738828025929249E-1   -1.432422119443663E-1   -7.910888368485983E-3    3.892673720170145E-2   -5.962712945136998E-3    3.888890917932180E-2   -5.371294336460419E-1   -4.673713229316985E-2
 6.457348294075000E9    -5.739888940807474E-1   -1.422479264289979E-1   -7.847220101064789E-3    3.923675558755590E-2   -5.904492287226057E-3    3.909449931189173E-2   -5.371761224924329E-1   -4.530141541427648E-2
 6.457359734400000E9    -5.740999361378335E-1   -1.412051130412618E-1   -8.148484817500419E-3    3.953390900977918E-2   -5.776177237125269E-3    3.929692843482162E-2   -5.372393183227967E-1   -4.401853026937200E-2
 6.457371174725000E9    -5.744397909529114E-1   -1.401669532513591E-1   -7.973217643020709E-3    3.976770415348217E-2   -5.760856458747837E-3    3.956259076682159E-2   -5.373553252813189E-1   -4.275924310804979E-2
 6.457382615050000E9    -5.745609739108168E-1   -1.392237365713732E-1   -7.796717378172928E-3    4.007177290546909E-2   -5.737641570920114E-3    3.981905461101719E-2   -5.374862969986870E-1   -4.145101082417457E-2
 6.457394055375000E9    -5.748235221216603E-1   -1.382746339808552E-1   -7.694492514871308E-3    4.039012489957319E-2   -5.656031657798352E-3    4.001374894569336E-2   -5.375114079647285E-1   -4.015463368212192E-2
 6.457405495700000E9    -5.751234918600736E-1   -1.372628100566461E-1   -7.768531045899829E-3    4.055261896054860E-2   -5.554776279476075E-3    4.036291513567098E-2   -5.375263889132579E-1   -3.872662368029219E-2
 6.457416936025000E9    -5.752349776455620E-1   -1.362269123960248E-1   -7.588695927244305E-3    4.087200146652884E-2   -5.531693059540268E-3    4.056353138049208E-2   -5.376810970009229E-1   -3.736465227755625E-2
 6.457428376350000E9    -5.753691765774867E-1   -1.352421045607774E-1   -7.697653158253320E-3    4.110046251629670E-2   -5.543100129898682E-3    4.091087524199255E-2   -5.377580687169465E-1   -3.611052369231992E-2
 6.457439816675000E9    -5.757117242959916E-1   -1.343242463127478E-1   -7.663871315316497E-3    4.124519288397789E-2   -5.455515787640248E-3    4.105993537425610E-2   -5.378544993189076E-1   -3.467417609356022E-2
 6.457451257000000E9    -5.757707110904557E-1   -1.332537530471363E-1   -7.538319398369749E-3    4.172464849569803E-2   -5.494074219054338E-3    4.146127867720892E-2   -5.379992737524590E-1   -3.338679895010604E-2
 6.457462697325000E9    -5.760372585270591E-1   -1.322198567302039E-1   -7.521264277759540E-3    4.195665087951068E-2   -5.355606365580306E-3    4.165070752186534E-2   -5.380251357658803E-1   -3.201687694091683E-2
 6.457474137650000E9    -5.763638037357818E-1   -1.313017075351028E-1   -7.365249521839752E-3    4.223648739439381E-2   -5.191430491499195E-3    4.195688652101226E-2   -5.379801734624772E-1   -3.066402233901020E-2
 6.457485577975000E9    -5.764498873138643E-1   -1.301281012992265E-1   -7.367897592964914E-3    4.255949899007305E-2   -5.172793014149365E-3    4.217737054667327E-2   -5.379618753184476E-1   -2.927635212100452E-2
 6.457497018300000E9    -5.766388846216957E-1   -1.292275726312108E-1   -7.248619992202647E-3    4.296922281723737E-2   -5.095225007805123E-3    4.245537017248057E-2   -5.381082164508793E-1   -2.793029234084617E-2
 6.457508458625000E9    -5.768523297375326E-1   -1.282001045099928E-1   -7.326871012682660E-3    4.321936788918181E-2   -5.016493027674318E-3    4.272886565130991E-2   -5.381447106180417E-1   -2.654454169633513E-2
 6.457519898950000E9    -5.769932631026813E-1   -1.271850455970760E-1   -7.136786613089630E-3    4.344638024424538E-2   -5.088508942114422E-3    4.316196098356378E-2   -5.382677623486464E-1   -2.487070216715366E-2
 6.457531339275000E9    -5.771861123438634E-1   -1.261354807813296E-1   -7.165753329581709E-3    4.370481172280059E-2   -4.828643618297656E-3    4.337973054867920E-2   -5.383920065864379E-1   -2.363298530670045E-2
 6.457542779600000E9    -5.774370212731064E-1   -1.251746735269373E-1   -7.124679984997089E-3    4.409323834787281E-2   -4.830679838534305E-3    4.370551424246025E-2   -5.383104783931569E-1   -2.225049832625546E-2
 6.457554219925000E9    -5.775956674046330E-1   -1.240869588246531E-1   -7.103055975076298E-3    4.436580746449287E-2   -4.743501414167842E-3    4.398257458097512E-2   -5.383717439704103E-1   -2.077737794883531E-2
 6.457565660250000E9    -5.777080867513645E-1   -1.230085894539069E-1   -7.010604661756972E-3    4.484606998459854E-2   -4.557678397500010E-3    4.433193064595082E-2   -5.382773494544792E-1   -1.943981039584071E-2
 6.457577100575000E9    -5.778936137291613E-1   -1.219868789687762E-1   -6.976595768144588E-3    4.501952412190513E-2   -4.519222326263040E-3    4.452242876921252E-2   -5.384287201044378E-1   -1.789272105160615E-2
 6.457588540900000E9    -5.781308848900972E-1   -1.210191334662301E-1   -6.790279689734989E-3    4.523932686124328E-2   -4.512706917734590E-3    4.488025199012372E-2   -5.383501120675708E-1   -1.649866557322528E-2
 6.457599981225000E9    -5.781635048296402E-1   -1.199380702845082E-1   -6.786528294946655E-3    4.557161738245563E-2   -4.440140658672162E-3    4.528286895093837E-2   -5.384637611440548E-1   -1.513246294430520E-2
 6.457611421550000E9    -5.785111553414649E-1   -1.189191986178611E-1   -6.699882386320443E-3    4.592827969611862E-2   -4.374466226574923E-3    4.558156768250936E-2   -5.385286116475364E-1   -1.356915307365535E-2
 6.457622861875000E9    -5.785560750492577E-1   -1.178850165794760E-1   -6.461474523437710E-3    4.628409694074825E-2   -4.279628290703587E-3    4.584377994808214E-2   -5.382909159010565E-1   -1.209463775396367E-2
 6.457634302200000E9    -5.787727203944235E-1   -1.168182814756122E-1   -6.504232653246705E-3    4.654108786419937E-2   -4.214184336586995E-3    4.623876241958844E-2   -5.383450291755029E-1   -1.061484203455861E-2
 6.457645742525000E9    -5.788391206572912E-1   -1.158045015168513E-1   -6.473982751787360E-3    4.693345788967688E-2   -4.068265309546460E-3    4.652402553426162E-2   -5.383804272121614E-1   -9.302785540387168E-3
 6.457657182850000E9    -5.790749977286281E-1   -1.147791187534871E-1   -6.427452343830185E-3    4.729911673827820E-2   -4.034091184640998E-3    4.684894831736632E-2   -5.382656306938073E-1   -7.684221366827478E-3
 6.457668623175000E9    -5.792413916417115E-1   -1.136709423374201E-1   -6.436291250188035E-3    4.775993942704566E-2   -3.827267953669477E-3    4.720572237419422E-2   -5.384325008608454E-1   -6.280467964532938E-3
 6.457680063500000E9    -5.794606810298597E-1   -1.125568530729779E-1   -6.099580186346591E-3    4.808432220676155E-2   -3.896642184629040E-3    4.755978221448935E-2   -5.382152775809259E-1   -4.632118949178191E-3
 6.457691503825000E9    -5.796564728911381E-1   -1.115432339185882E-1   -6.058619575226852E-3    4.835529229058196E-2   -3.750062772797972E-3    4.785212406109891E-2   -5.383675503034653E-1   -3.058227285249674E-3
 6.457702944150000E9    -5.796844263401739E-1   -1.104766228990799E-1   -6.022486626927788E-3    4.876038251635246E-2   -3.656369735703529E-3    4.809919116563684E-2   -5.383814555423591E-1   -1.519616380965473E-3
 6.457714384475000E9    -5.799723952450793E-1   -1.093636154720245E-1   -5.931770322622089E-3    4.911433826547287E-2   -3.473626781690913E-3    4.853238591509230E-2   -5.383370590551826E-1    1.443254607365873E-5
 6.457725824800000E9    -5.800249022579315E-1   -1.083665159477486E-1   -5.828368163378739E-3    4.953133442461791E-2   -3.350141672886837E-3    4.902011080790607E-2   -5.381734900691149E-1    1.503767782305872E-3
 6.457737265125000E9    -5.801678326830857E-1   -1.072304729286709E-1   -5.756988523596370E-3    4.992711769413934E-2   -3.333257418990657E-3    4.936529622264531E-2   -5.381451349654431E-1    3.001955786048199E-3
 6.457748705450000E9    -5.803166261246603E-1   -1.062221983378538E-1   -5.667634357944627E-3    5.016462909433238E-2   -3.231679045228260E-3    4.964552494290694E-2   -5.380266249201120E-1    4.461839544209465E-3
 6.457760145775000E9    -5.805678485584129E-1   -1.052138006085699E-1   -5.616063840557327E-3    5.068505972132609E-2   -3.156450193593124E-3    5.008176835950274E-2   -5.379260881537433E-1    6.189046008090430E-3
 6.457771586100000E9    -5.806864789609402E-1   -1.041214421309072E-1   -5.541517699910205E-3    5.095098023014008E-2   -3.069867600326105E-3    5.035237572142962E-2   -5.379204091315712E-1    7.660415566937684E-3
 6.457783026425000E9    -5.806902305096522E-1   -1.030006006150012E-1   -5.349985441652188E-3    5.137718457884422E-2   -2.846945138861857E-3    5.080145154577750E-2   -5.379830717451632E-1    9.320889664199692E-3
 6.457794466750000E9    -5.808390598720014E-1   -1.018883371088065E-1   -5.322994674675074E-3    5.174750214256200E-2   -2.733600869468450E-3    5.121039139492339E-2   -5.377925079682812E-1    1.090202271534673E-2
 6.457805907075000E9    -5.809845024074977E-1   -1.007203233899215E-1   -5.269551173466802E-3    5.222833343885685E-2   -2.664032777440258E-3    5.160778530466485E-2   -5.377308573294297E-1    1.242200994928705E-2
 6.457817347400000E9    -5.811267069519596E-1   -9.976314226566506E-2   -5.112844474389333E-3    5.267338648376933E-2   -2.464336380456497E-3    5.206545594804605E-2   -5.377218371892230E-1    1.409914272217609E-2
 6.457828787725000E9    -5.812457247647692E-1   -9.861569753263059E-2   -4.991259269125350E-3    5.313599909827676E-2   -2.397809607262241E-3    5.241661946764486E-2   -5.375497028954048E-1    1.575714615242955E-2
 6.457840228050000E9    -5.813022554467624E-1   -9.757458477951730E-2   -4.925833126473893E-3    5.353554894911346E-2   -2.258635796502729E-3    5.286635018658967E-2   -5.374396055731333E-1    1.738691368176849E-2
 6.457851668375000E9    -5.814723549194035E-1   -9.639778395653642E-2   -4.733163118688774E-3    5.398278800440243E-2   -2.123310853341945E-3    5.321423136347388E-2   -5.374201483453511E-1    1.899434714144314E-2
 6.457863108700000E9    -5.815610540381119E-1   -9.532114260320040E-2   -4.614821838632602E-3    5.431743900735050E-2   -1.906179466981235E-3    5.376488901911086E-2   -5.374151004191626E-1    2.070261673368451E-2
 6.457874549025000E9    -5.817306274081667E-1   -9.408895902545575E-2   -4.554153759013677E-3    5.504104635253328E-2   -1.855619094475338E-3    5.408531173199759E-2   -5.371074396752873E-1    2.238441995859489E-2
 6.457885989350000E9    -5.817332163369996E-1   -9.307998392551552E-2   -4.412950828728886E-3    5.533921669737894E-2   -1.761896597162731E-3    5.452333348426112E-2   -5.370520777920019E-1    2.409960694668658E-2
 6.457897429675000E9    -5.818625643841914E-1   -9.197612745846880E-2   -4.221873471466484E-3    5.572903393860856E-2   -1.532019072145495E-3    5.501979857763319E-2   -5.367737153719504E-1    2.584928064743307E-2
 6.457908870000000E9    -5.820229074209410E-1   -9.091314576051295E-2   -4.195411630148309E-3    5.622092118253996E-2   -1.384890002568919E-3    5.542281556651969E-2   -5.367143388338224E-1    2.755947839202915E-2
 6.457920310325000E9    -5.820109459812809E-1   -8.967374649753705E-2   -4.042656909119584E-3    5.684382222779154E-2   -1.273083382282356E-3    5.600323925824385E-2   -5.364937941886964E-1    2.925667437166067E-2
 6.457931750650000E9    -5.821897277841287E-1   -8.866616248789050E-2   -3.917739403350061E-3    5.718472756519927E-2   -1.029009222042789E-3    5.642871310888856E-2   -5.362785979663145E-1    3.108453386050928E-2
 6.457943190975000E9    -5.823797233043676E-1   -8.749568862824919E-2   -3.647970306002925E-3    5.771630464053192E-2   -8.909733087129507E-4    5.687618303036378E-2   -5.362351047157806E-1    3.278812255703351E-2
 6.457954631300000E9    -5.823756328395721E-1   -8.633023933602760E-2   -3.489476466444961E-3    5.817319277178094E-2   -7.795540601981168E-4    5.730356740046409E-2   -5.359238076774838E-1    3.456861471007673E-2
 6.457966071625000E9    -5.825321200899033E-1   -8.516599646762743E-2   -3.500713679756841E-3    5.870588571894413E-2   -6.673205653000183E-4    5.785703998542444E-2   -5.356714572711363E-1    3.615701798432553E-2
 6.457977511950000E9    -5.825070168463637E-1   -8.401377701730693E-2   -3.389328450645150E-3    5.921056889270609E-2   -4.971876023147386E-4    5.837404291798687E-2   -5.354747558705760E-1    3.814081107621797E-2
 6.457988952275000E9    -5.825917401425702E-1   -8.299212263623075E-2   -3.059439882354691E-3    5.975764699772863E-2   -2.664636776104395E-4    5.890774915404376E-2   -5.354004451658871E-1    3.986831672675215E-2
 6.458000392600000E9    -5.826804797699041E-1   -8.173543720713983E-2   -2.992156413776523E-3    6.039017589394898E-2   -7.300985566956505E-5    5.937427336078963E-2   -5.350665776885372E-1    4.168545824956427E-2
 6.458011832925000E9    -5.828466691744681E-1   -8.068838783760107E-2   -2.726978098014894E-3    6.091618193345597E-2    9.874423659600696E-5    5.992877035838785E-2   -5.348706434275199E-1    4.365571806090150E-2
 6.458023273250000E9    -5.828653591282097E-1   -7.935593609476800E-2   -2.617160197924582E-3    6.137492945788463E-2    2.413049597303287E-4    6.044596849686209E-2   -5.345776806028444E-1    4.551513744123246E-2
