#  HZ   S   RI   R     50.00 
! Rohde & Schwarz Vector Network Analyzer 
! Rohde-Schwarz,ZNB20-2Port,1311601062101988,3.16
! Created: UTC 3/20/2024, 10:58:23 PM
! freq[Hz]                re:S11                  im:S11                  re:S21                  im:S21                  re:S12                  im:S12                  re:S22                  im:S22
 6.456992665000000E9    -5.664876491921670E-1   -1.723351662935176E-1   -8.896373122566749E-3    3.259291253944359E-2   -7.150760799690042E-3    3.253623502468542E-2   -5.326571766386209E-1   -8.404946165137292E-2
 6.457004105725000E9    -5.666944921541970E-1   -1.714429873912673E-1   -8.804089341194640E-3    3.277042666602206E-2   -7.239065931134821E-3    3.273764593646145E-2   -5.329040416791810E-1   -8.286221198733842E-2
 6.457015546450000E9    -5.669856483148038E-1   -1.704008552537415E-1   -8.914569525723833E-3    3.302894948721416E-2   -7.251287378137658E-3    3.290304445664596E-2   -5.330201157487040E-1   -8.176881026179161E-2
 6.457026987175000E9    -5.672653721449022E-1   -1.695593410726820E-1   -8.810043578211966E-3    3.312838683116118E-2   -7.093488313335532E-3    3.314258418431846E-2   -5.332381140123900E-1   -8.062273748309502E-2
 6.457038427900000E9    -5.675730621778765E-1   -1.686052354510897E-1   -8.830020271780143E-3    3.339812230394770E-2   -7.066745947953168E-3    3.336557332015862E-2   -5.334819747552780E-1   -7.928484984451852E-2
 6.457049868625000E9    -5.677688879025745E-1   -1.676735859256558E-1   -8.898720424086187E-3    3.355465073860277E-2   -7.036033779580838E-3    3.347282302696565E-2   -5.336206466779270E-1   -7.824124093703036E-2
 6.457061309350000E9    -5.679973735803107E-1   -1.666995620703400E-1   -8.723365572971594E-3    3.379477794993944E-2   -7.069652460127031E-3    3.367911643978044E-2   -5.338155571682570E-1   -7.691943780113364E-2
 6.457072750075000E9    -5.683217556104934E-1   -1.657057997771653E-1   -8.785654897957355E-3    3.389470416545685E-2   -6.926184047531174E-3    3.398733884675425E-2   -5.340402777650608E-1   -7.575319928142826E-2
 6.457084190800000E9    -5.685551718267715E-1   -1.646931360504307E-1   -8.730591308521492E-3    3.410695613122307E-2   -6.954362435863823E-3    3.406808091203499E-2   -5.340775452141199E-1   -7.447113392421845E-2
 6.457095631525000E9    -5.688688149025243E-1   -1.637323565119860E-1   -8.668143221865612E-3    3.436399113908391E-2   -6.988061913653048E-3    3.421378404775120E-2   -5.344698223149303E-1   -7.326422581432773E-2
 6.457107072250000E9    -5.691869802538995E-1   -1.628044960366981E-1   -8.551181351166880E-3    3.451804514500239E-2   -6.885618523756635E-3    3.440695863880280E-2   -5.344789442226348E-1   -7.211269363083229E-2
 6.457118512975000E9    -5.693017237668729E-1   -1.618798261448959E-1   -8.658790323632700E-3    3.472048320421889E-2   -6.834407320338193E-3    3.464447684444959E-2   -5.346496172656648E-1   -7.092372506018073E-2
 6.457129953700000E9    -5.696027249351765E-1   -1.608625878900257E-1   -8.626312639337700E-3    3.501766283036884E-2   -6.734865408955525E-3    3.486634478044699E-2   -5.346966367946830E-1   -6.968417014334755E-2
 6.457141394425000E9    -5.698544362444730E-1   -1.599127573829481E-1   -8.653806888519794E-3    3.517532559613020E-2   -6.770463597061238E-3    3.509718304441658E-2   -5.348248574580519E-1   -6.837710144526292E-2
 6.457152835150000E9    -5.700954062674956E-1   -1.590446871984706E-1   -8.539267291126886E-3    3.542422720472547E-2   -6.732176258911903E-3    3.528495560602952E-2   -5.350813054131566E-1   -6.715484958719570E-2
 6.457164275875000E9    -5.702645742779588E-1   -1.579689340019844E-1   -8.514665818235054E-3    3.545799522415297E-2   -6.599462690990524E-3    3.545539358444830E-2   -5.351870881184559E-1   -6.590795442274745E-2
 6.457175716600000E9    -5.705683008864100E-1   -1.570514890138709E-1   -8.556052186440358E-3    3.582210616270897E-2   -6.626830291916004E-3    3.579614521435420E-2   -5.353348936955182E-1   -6.479110977057308E-2
 6.457187157325000E9    -5.707776820981232E-1   -1.560520091638596E-1   -8.596598335109036E-3    3.593771896996074E-2   -6.626493880903105E-3    3.593187106052696E-2   -5.355158650579078E-1   -6.353627666669134E-2
 6.457198598050000E9    -5.708842024057948E-1   -1.550239030860023E-1   -8.358918879840582E-3    3.631630943118468E-2   -6.506061817521241E-3    3.610819836375989E-2   -5.355644897474030E-1   -6.226284809380147E-2
 6.457210038775000E9    -5.712944171896481E-1   -1.541822403675239E-1   -8.408411179911221E-3    3.637585243120984E-2   -6.486503661681901E-3    3.631642452728753E-2   -5.357193172740496E-1   -6.107364873274945E-2
 6.457221479500000E9    -5.714447351140104E-1   -1.531407091287630E-1   -8.452457004809568E-3    3.660745462381720E-2   -6.482536988005150E-3    3.646086120190078E-2   -5.358763033479281E-1   -5.963119717024040E-2
 6.457232920225000E9    -5.717292611990374E-1   -1.521169659711592E-1   -8.391317798406487E-3    3.699451424831108E-2   -6.419012861676661E-3    3.666845769188169E-2   -5.359597910511118E-1   -5.842521515017794E-2
 6.457244360950000E9    -5.720614437611254E-1   -1.512417055531527E-1   -8.321930477772842E-3    3.717495820641721E-2   -6.311004161096275E-3    3.699243380170308E-2   -5.361124966850144E-1   -5.726947858532620E-2
 6.457255801675000E9    -5.722451982784510E-1   -1.502721537066330E-1   -8.206541175291267E-3    3.725704361104001E-2   -6.374549193939006E-3    3.718771749009857E-2   -5.362360531320747E-1   -5.587961644112890E-2
 6.457267242400000E9    -5.724559956961273E-1   -1.491657547224192E-1   -8.099702055825775E-3    3.757961761101662E-2   -6.238234068153825E-3    3.742083237133709E-2   -5.362668012097017E-1   -5.469488557293101E-2
 6.457278683125000E9    -5.726013597784014E-1   -1.482924271965335E-1   -8.197257912202195E-3    3.777631746371703E-2   -6.264755403927668E-3    3.770160746146463E-2   -5.364364360187148E-1   -5.338568891972061E-2
 6.457290123850000E9    -5.727400579546733E-1   -1.471816240174114E-1   -8.109687311585323E-3    3.807671731833031E-2   -6.209223966367796E-3    3.797403279216544E-2   -5.365827890237247E-1   -5.216462785613490E-2
 6.457301564575000E9    -5.730741721057527E-1   -1.463068224900615E-1   -8.084916929207280E-3    3.824380325014161E-2   -6.052290541764287E-3    3.814381978696639E-2   -5.366412963393441E-1   -5.076179670831073E-2
 6.457313005300000E9    -5.732896275851576E-1   -1.453237161406645E-1   -8.095410691885720E-3    3.847422787041529E-2   -6.042566481921361E-3    3.839612556858018E-2   -5.369443905930537E-1   -4.941692269261665E-2
 6.457324446025000E9    -5.734491881388257E-1   -1.443786461125299E-1   -8.007964848039320E-3    3.878436085546381E-2   -6.036428309899217E-3    3.852913318168440E-2   -5.368589153258545E-1   -4.814065745970834E-2
 6.457335886750000E9    -5.737096573000786E-1   -1.432924144655906E-1   -8.020977921445169E-3    3.893786705686003E-2   -5.962820492339257E-3    3.880706771958269E-2   -5.369895679800184E-1   -4.694023948739069E-2
 6.457347327475000E9    -5.740342379462676E-1   -1.422872500047749E-1   -7.924816024168753E-3    3.938202924772204E-2   -5.938229027487243E-3    3.904957346388804E-2   -5.370474364366955E-1   -4.565639380447777E-2
 6.457358768200000E9    -5.742293259717965E-1   -1.414181749229568E-1   -7.815955108858132E-3    3.951367747966265E-2   -5.758662572422620E-3    3.938471667396069E-2   -5.371008575873750E-1   -4.422416882994595E-2
 6.457370208925000E9    -5.744085826132358E-1   -1.403347968299329E-1   -7.913940416728278E-3    3.976321624532713E-2   -5.788654573301294E-3    3.955907091708929E-2   -5.372325480060901E-1   -4.285803271365658E-2
 6.457381649650000E9    -5.746336064322330E-1   -1.393160983698234E-1   -7.811727287918552E-3    4.002835253631409E-2   -5.727712672430993E-3    3.988810598408350E-2   -5.374246888867922E-1   -4.152952530384681E-2
 6.457393090375000E9    -5.748865069332998E-1   -1.382968843759261E-1   -7.773177076780287E-3    4.023208956014779E-2   -5.698464152976045E-3    4.005561474256272E-2   -5.375145151078806E-1   -4.027593577986034E-2
 6.457404531100000E9    -5.749737376233944E-1   -1.373191904902291E-1   -7.686854201343641E-3    4.056879640290109E-2   -5.516940484080187E-3    4.032559355359419E-2   -5.375316160592299E-1   -3.912900296876364E-2
 6.457415971825000E9    -5.752931932207339E-1   -1.363626478149799E-1   -7.730363395730792E-3    4.080289060739564E-2   -5.538177232383886E-3    4.060999489543882E-2   -5.377065942181630E-1   -3.769118784121089E-2
 6.457427412550000E9    -5.755186159765298E-1   -1.353016935240059E-1   -7.711427705140958E-3    4.109254202293555E-2   -5.481727479525208E-3    4.078188752553247E-2   -5.376550526150429E-1   -3.636033699187634E-2
 6.457438853275000E9    -5.756942990326767E-1   -1.343353477281456E-1   -7.474070076341073E-3    4.133934407576539E-2   -5.504060330053051E-3    4.113278563388391E-2   -5.377275645109533E-1   -3.502233959226100E-2
 6.457450294000000E9    -5.759429927555393E-1   -1.333388289509184E-1   -7.641265778819634E-3    4.173625372175192E-2   -5.379137315609974E-3    4.142848976304513E-2   -5.377596628471287E-1   -3.351655110042032E-2
 6.457461734725000E9    -5.760808421259900E-1   -1.322626169916997E-1   -7.562809688008014E-3    4.202884773937333E-2   -5.319883822008553E-3    4.169644144644286E-2   -5.379756616689335E-1   -3.218472613755725E-2
 6.457473175450000E9    -5.762392861390654E-1   -1.313217078175016E-1   -7.510431327916446E-3    4.228654131509577E-2   -5.210966905094378E-3    4.196254434282933E-2   -5.378535553194880E-1   -3.081231742466689E-2
 6.457484616175000E9    -5.763983917730654E-1   -1.303048072863928E-1   -7.505572936384522E-3    4.246087050882102E-2   -5.259194526568531E-3    4.221081635280999E-2   -5.379866758489597E-1   -2.942014064730197E-2
 6.457496056900000E9    -5.765585989836691E-1   -1.292636158572075E-1   -7.270624196155797E-3    4.291512570518411E-2   -5.106758007553047E-3    4.239594258023014E-2   -5.381560973953395E-1   -2.811010941070061E-2
 6.457507497625000E9    -5.767816241405429E-1   -1.282549461998418E-1   -7.346106087296559E-3    4.308728313950392E-2   -5.072376838013648E-3    4.279616116806161E-2   -5.381728541766144E-1   -2.655493278115992E-2
 6.457518938350000E9    -5.769913083459612E-1   -1.272238245754256E-1   -7.293430477236557E-3    4.335566339043861E-2   -4.926151680402229E-3    4.302836786961682E-2   -5.380833289339872E-1   -2.533583649918131E-2
 6.457530379075000E9    -5.772627668980572E-1   -1.261258519504124E-1   -7.149493038900921E-3    4.376576442261946E-2   -4.945332687978504E-3    4.343284250632126E-2   -5.381518688064031E-1   -2.386589253408616E-2
 6.457541819800000E9    -5.774293355138439E-1   -1.251992267189552E-1   -6.969108992891012E-3    4.409522388181372E-2   -4.785321144736051E-3    4.367758996436934E-2   -5.382117945054271E-1   -2.248668895920802E-2
 6.457553260525000E9    -5.774982365980799E-1   -1.240908698390357E-1   -7.019860085803635E-3    4.414137329558083E-2   -4.721672271841888E-3    4.399986986306679E-2   -5.382296498183502E-1   -2.101589142713063E-2
 6.457564701250000E9    -5.777210245043803E-1   -1.230395168761901E-1   -7.001962132457394E-3    4.463449181869402E-2   -4.661454362814858E-3    4.418040303173869E-2   -5.383016307832871E-1   -1.944104422046724E-2
 6.457576141975000E9    -5.778625062098582E-1   -1.220673827317482E-1   -6.806334901444946E-3    4.501422200461073E-2   -4.559315656862920E-3    4.454016411222968E-2   -5.383995017423290E-1   -1.815398335399386E-2
 6.457587582700000E9    -5.779521224598507E-1   -1.211212981428573E-1   -6.921359840352023E-3    4.522950955528886E-2   -4.587483280937140E-3    4.496322470374388E-2   -5.382856338780290E-1   -1.687927547934081E-2
 6.457599023425000E9    -5.782342259828838E-1   -1.200441710942736E-1   -6.646015429650554E-3    4.556915261208250E-2   -4.450933476750846E-3    4.530032244313795E-2   -5.383696746869394E-1   -1.519034397357566E-2
 6.457610464150000E9    -5.783428077630171E-1   -1.189246013665358E-1   -6.691511812232706E-3    4.587434158240188E-2   -4.399313801512829E-3    4.544579914762521E-2   -5.383405354751760E-1   -1.372463722645750E-2
 6.457621904875000E9    -5.785972772463701E-1   -1.178844680320948E-1   -6.614242414144601E-3    4.625832929493752E-2   -4.293581008986348E-3    4.588335048487181E-2   -5.383939634305376E-1   -1.242142762163952E-2
 6.457633345600000E9    -5.787942901105276E-1   -1.168230966729163E-1   -6.467676615456464E-3    4.667106079056441E-2   -4.215781329299555E-3    4.618133132664054E-2   -5.383304720571211E-1   -1.070298576021799E-2
 6.457644786325000E9    -5.788601736219363E-1   -1.158983276239208E-1   -6.490653398736224E-3    4.696994429799918E-2   -4.106117636882596E-3    4.645210670561880E-2   -5.383126509722104E-1   -9.429974935533176E-3
 6.457656227050000E9    -5.790370916507713E-1   -1.147569657765707E-1   -6.410017446718146E-3    4.723596623433202E-2   -4.071004192183016E-3    4.680918254916726E-2   -5.382007693043099E-1   -7.868741072080658E-3
 6.457667667775000E9    -5.791956369394923E-1   -1.136569959628561E-1   -6.305629654740319E-3    4.779138551283869E-2   -3.976253240990789E-3    4.723183649284139E-2   -5.383719306383447E-1   -6.315691071656958E-3
 6.457679108500000E9    -5.793859300150801E-1   -1.125688266046145E-1   -6.366545978817737E-3    4.799627154836358E-2   -3.875975066426283E-3    4.748490627765960E-2   -5.382533507703098E-1   -4.981585719116916E-3
 6.457690549225000E9    -5.795197377776973E-1   -1.115786795686578E-1   -6.134598053672499E-3    4.835452265357320E-2   -3.703732749559852E-3    4.782253451508506E-2   -5.383741596681033E-1   -3.321290795815704E-3
 6.457701989950000E9    -5.797132167131516E-1   -1.106445942616418E-1   -6.110625236329914E-3    4.877734729582793E-2   -3.587627753939863E-3    4.824723594464900E-2   -5.382306943453140E-1   -1.799429585145704E-3
 6.457713430675000E9    -5.798129124012849E-1   -1.094442556692206E-1   -6.015995737233631E-3    4.899715604981843E-2   -3.516828059085364E-3    4.859930319981819E-2   -5.381691028400492E-1   -3.548121199350767E-4
 6.457724871400000E9    -5.801556852735921E-1   -1.084020141457327E-1   -5.922799627729319E-3    4.930747829891802E-2   -3.462341447840839E-3    4.895220798930072E-2   -5.379978008613470E-1    1.257170678394947E-3
 6.457736312125000E9    -5.802373802080644E-1   -1.073910569926309E-1   -5.883634346441973E-3    4.987698734573411E-2   -3.285927993466030E-3    4.933650976519386E-2   -5.380713701186842E-1    2.960393160334505E-3
 6.457747752850000E9    -5.803024624118925E-1   -1.062493389885113E-1   -5.796723580016205E-3    5.024516217747470E-2   -3.191308316789778E-3    4.963724769683851E-2   -5.380047662500256E-1    4.328610878290709E-3
 6.457759193575000E9    -5.804175692859523E-1   -1.051850412380290E-1   -5.525983936696916E-3    5.063721868774246E-2   -3.121529769474122E-3    5.003923080166421E-2   -5.380766627413122E-1    5.858510015804976E-3
 6.457770634300000E9    -5.805588649054075E-1   -1.041887704298966E-1   -5.626601261853204E-3    5.098909149851560E-2   -2.976422220878804E-3    5.045171975444685E-2   -5.379468889059194E-1    7.460313371442048E-3
 6.457782075025000E9    -5.806843942454816E-1   -1.030168016508333E-1   -5.477342536592455E-3    5.137265277038990E-2   -2.916408671580017E-3    5.071622731006824E-2   -5.379187789018356E-1    9.019236499387242E-3
 6.457793515750000E9    -5.808215985655585E-1   -1.020388329974924E-1   -5.355599626824712E-3    5.183405684628111E-2   -2.667950660435067E-3    5.122530499414227E-2   -5.376836339082660E-1    1.063130172062489E-2
 6.457804956475000E9    -5.809194802806228E-1   -1.008657253501407E-1   -5.159833878265304E-3    5.221999416489520E-2   -2.554800328107580E-3    5.171057618675342E-2   -5.376887721661467E-1    1.225232216401593E-2
 6.457816397200000E9    -5.810475398056044E-1   -9.975626442180886E-2   -5.096331978172810E-3    5.270930464488235E-2   -2.516993101129191E-3    5.198468440238355E-2   -5.375002917877554E-1    1.388726149504463E-2
 6.457827837925000E9    -5.812053782134791E-1   -9.881766481519300E-2   -4.935790720485734E-3    5.296792870913438E-2   -2.393371217732389E-3    5.246941405776778E-2   -5.374158817746367E-1    1.556765265951855E-2
 6.457839278650000E9    -5.813577670590329E-1   -9.766511521529847E-2   -4.968158354927524E-3    5.350330040678148E-2   -2.188574759821271E-3    5.291041508094545E-2   -5.374069621675633E-1    1.719118122157881E-2
 6.457850719375000E9    -5.815416388725176E-1   -9.648919565614365E-2   -4.834723245448772E-3    5.389047944784152E-2   -2.157795997249827E-3    5.324004444448682E-2   -5.373241431308766E-1    1.884086454061480E-2
 6.457862160100000E9    -5.815233649089810E-1   -9.536087224701964E-2   -4.629359706651315E-3    5.433802124543961E-2   -2.024531115010932E-3    5.367388221649376E-2   -5.371340062622140E-1    2.043760799264714E-2
 6.457873600825000E9    -5.817478269946248E-1   -9.432615602380717E-2   -4.585763585556762E-3    5.495613350016335E-2   -1.828771047903705E-3    5.410488828781967E-2   -5.370353378687386E-1    2.218176701060070E-2
 6.457885041550000E9    -5.817447559750948E-1   -9.318556600900819E-2   -4.480540904080744E-3    5.536556550619612E-2   -1.795436813605558E-3    5.458361453589183E-2   -5.366846289556273E-1    2.387321069121373E-2
 6.457896482275000E9    -5.818683974195296E-1   -9.204314995083561E-2   -4.210546830869506E-3    5.590788205455337E-2   -1.559264714467558E-3    5.504663998616534E-2   -5.368043770624484E-1    2.566903731652917E-2
 6.457907923000000E9    -5.820198419159806E-1   -9.097488115754024E-2   -4.141914812017370E-3    5.631718227904365E-2   -1.381211805691583E-3    5.543193259436440E-2   -5.364052137773557E-1    2.724895348037702E-2
 6.457919363725000E9    -5.822335018290404E-1   -8.987521154875727E-2   -4.062325918397115E-3    5.679930303392757E-2   -1.281756427121095E-3    5.589393846543268E-2   -5.364556926766384E-1    2.902380697180367E-2
 6.457930804450000E9    -5.821405648393093E-1   -8.868404385101659E-2   -3.967943350461041E-3    5.721893920580132E-2   -1.073544066349748E-3    5.640740639547123E-2   -5.363619152760897E-1    3.078388069482155E-2
 6.457942245175000E9    -5.822890334418150E-1   -8.756883798112285E-2   -3.833450614034006E-3    5.782474231675429E-2   -9.769401703490113E-4    5.685294373877955E-2   -5.360777550333303E-1    3.264327022967096E-2
 6.457953685900000E9    -5.823739072125684E-1   -8.637300758432040E-2   -3.720253709734529E-3    5.825757121118382E-2   -7.810022891379839E-4    5.731670474964168E-2   -5.357528661130874E-1    3.434216435527800E-2
 6.457965126625000E9    -5.825806304185339E-1   -8.531601391824764E-2   -3.520908790431549E-3    5.863154266139228E-2   -7.560785249295920E-4    5.781514259494278E-2   -5.357882304160864E-1    3.606484820956805E-2
 6.457976567350000E9    -5.825198149769862E-1   -8.414929854064582E-2   -3.375939767354978E-3    5.935285326979643E-2   -4.390719713883652E-4    5.833323941475765E-2   -5.355292588916749E-1    3.785670275378222E-2
 6.457988008075000E9    -5.826006023313721E-1   -8.302359904997837E-2   -3.080624618169154E-3    6.000297110541047E-2   -2.483382334496353E-4    5.897014726379662E-2   -5.352523808439873E-1    3.970154332287865E-2
 6.457999448800000E9    -5.827027008659380E-1   -8.179186848744713E-2   -3.004679563969706E-3    6.041183996524570E-2   -6.247981036193703E-5    5.930513789090842E-2   -5.350970228846252E-1    4.151450560979117E-2
 6.458010889525000E9    -5.828686825254838E-1   -8.065674182759296E-2   -2.838008741708367E-3    6.088190733533268E-2    8.012702137331937E-5    5.987545878153371E-2   -5.347466743500660E-1    4.353353884367071E-2
 6.458022330250000E9    -5.829361373169220E-1   -7.946291188325340E-2   -2.725520474350330E-3    6.140065368244740E-2    2.832777940854108E-4    6.039277911616765E-2   -5.346306381358860E-1    4.518124798347971E-2
