#  HZ   S   RI   R     50.00 
! Rohde & Schwarz Vector Network Analyzer 
! Rohde-Schwarz,ZNB20-2Port,1311601062101988,3.16
! Created: UTC 3/20/2024, 10:58:45 PM
! freq[Hz]                re:S11                  im:S11                  re:S21                  im:S21                  re:S12                  im:S12                  re:S22                  im:S22
 6.456987256000000E9    -5.663961853618432E-1   -1.727722866501347E-1   -9.006838787322322E-3    3.266544534483233E-2   -7.258474625480370E-3    3.249594639859861E-2   -5.320871562198062E-1   -8.478104990779478E-2
 6.456998710975000E9    -5.666790255413853E-1   -1.718000401252323E-1   -8.951617288686800E-3    3.272025925539663E-2   -7.279074026071382E-3    3.269513312442660E-2   -5.323518624240224E-1   -8.371166471111667E-2
 6.457010165950000E9    -5.668597582431425E-1   -1.708590974815360E-1   -8.942725299808187E-3    3.286720796257193E-2   -7.160905480921300E-3    3.284209171641606E-2   -5.325313897214581E-1   -8.260230636795952E-2
 6.457021620925000E9    -5.671547593347921E-1   -1.698238937922915E-1   -8.951229402629348E-3    3.298160785400319E-2   -7.145517818717790E-3    3.314496896778989E-2   -5.326945766572385E-1   -8.145844915394639E-2
 6.457033075900000E9    -5.672843655954989E-1   -1.689333491184023E-1   -8.786634776947288E-3    3.330737071010630E-2   -7.088459293109421E-3    3.324506299844494E-2   -5.329661550739273E-1   -8.021838033797171E-2
 6.457044530875000E9    -5.675763802292639E-1   -1.679519036053164E-1   -8.910274670112447E-3    3.353720455538522E-2   -7.168844431070667E-3    3.344291883181887E-2   -5.331805059128349E-1   -7.903247287896566E-2
 6.457055985850000E9    -5.679258201402307E-1   -1.669923876559879E-1   -8.818560689822395E-3    3.361892020633927E-2   -7.075674853512852E-3    3.375856940882171E-2   -5.333523890801493E-1   -7.775206389107774E-2
 6.457067440825000E9    -5.681439978419311E-1   -1.661482057753831E-1   -8.823551716819231E-3    3.381491012733551E-2   -6.976160611517918E-3    3.379396056876906E-2   -5.334022162115556E-1   -7.653186512863226E-2
 6.457078895800000E9    -5.682919916872476E-1   -1.651215295406154E-1   -8.889180232057882E-3    3.410279786422454E-2   -6.998743795931243E-3    3.410152886943735E-2   -5.335742045993583E-1   -7.532089155472217E-2
 6.457090350775000E9    -5.686860372060134E-1   -1.641248043398554E-1   -8.810200689567197E-3    3.433882753511776E-2   -6.987610769630601E-3    3.416424322750559E-2   -5.338416532656747E-1   -7.431280180647443E-2
 6.457101805750000E9    -5.689837069132492E-1   -1.633365876442172E-1   -8.735773249785712E-3    3.437184227175517E-2   -6.870805201655836E-3    3.439736712409856E-2   -5.339860226393134E-1   -7.302099438096424E-2
 6.457113260725000E9    -5.691105406123084E-1   -1.623195696344051E-1   -8.670203393086363E-3    3.470268621793912E-2   -6.782717245488602E-3    3.457214378674797E-2   -5.341734355712827E-1   -7.176071897687258E-2
 6.457124715700000E9    -5.694750556162866E-1   -1.611812543862941E-1   -8.613972859962158E-3    3.505623087031692E-2   -6.873928512795246E-3    3.476668462279277E-2   -5.341247826392994E-1   -7.049993233835052E-2
 6.457136170675000E9    -5.697094565287334E-1   -1.603312929498456E-1   -8.555795028599099E-3    3.501540402800533E-2   -6.861223733152854E-3    3.500406493085184E-2   -5.344414993044818E-1   -6.916759038039398E-2
 6.457147625650000E9    -5.699293352200162E-1   -1.593876446638073E-1   -8.637940581231681E-3    3.548350919023213E-2   -6.761021648036135E-3    3.523126834983031E-2   -5.344125316991383E-1   -6.803036325470704E-2
 6.457159080625000E9    -5.700657113627854E-1   -1.582738729019471E-1   -8.651777776161225E-3    3.549014199461387E-2   -6.728788889662235E-3    3.539454647566539E-2   -5.347980630138758E-1   -6.683837609862071E-2
 6.457170535600000E9    -5.703196779495665E-1   -1.574914768223266E-1   -8.571406512831408E-3    3.571827289296424E-2   -6.622353887503633E-3    3.567287202592758E-2   -5.348527441176311E-1   -6.549440887960574E-2
 6.457181990575000E9    -5.708083870659917E-1   -1.564580367032721E-1   -8.532777540833493E-3    3.602508379750994E-2   -6.495986159071205E-3    3.583313646002644E-2   -5.348641013442583E-1   -6.444334384097808E-2
 6.457193445550000E9    -5.709042862962022E-1   -1.554839611855963E-1   -8.521461546169395E-3    3.615785271867131E-2   -6.663635245606308E-3    3.607184293626990E-2   -5.351152893421316E-1   -6.308598461736824E-2
 6.457204900525000E9    -5.711467214096548E-1   -1.544418172567835E-1   -8.595192049010856E-3    3.634005257244289E-2   -6.479483549763677E-3    3.631748571687127E-2   -5.351781444899761E-1   -6.178760113872628E-2
 6.457216355500000E9    -5.713193850877494E-1   -1.535020565050385E-1   -8.388011650523898E-3    3.675771516694391E-2   -6.448000776370292E-3    3.644102395807128E-2   -5.352889024310448E-1   -6.059806428306205E-2
 6.457227810475000E9    -5.715726933352194E-1   -1.525217483724258E-1   -8.355787237745818E-3    3.681602535922696E-2   -6.443585621218224E-3    3.662956733146620E-2   -5.355920990761482E-1   -5.936048996662763E-2
 6.457239265450000E9    -5.718753068258664E-1   -1.516122234229059E-1   -8.418926140052740E-3    3.718177177121650E-2   -6.430345800899979E-3    3.685097609369991E-2   -5.357198646325828E-1   -5.800479275026448E-2
 6.457250720425000E9    -5.720851858092882E-1   -1.505994643633060E-1   -8.377824841547792E-3    3.732063010589787E-2   -6.378524589525622E-3    3.709742801619249E-2   -5.357001923387963E-1   -5.673451851912637E-2
 6.457262175400000E9    -5.722227089890503E-1   -1.495902317409941E-1   -8.263616182764898E-3    3.753221217381004E-2   -6.322870821842653E-3    3.733331514428188E-2   -5.358640996481909E-1   -5.547567782669256E-2
 6.457273630375000E9    -5.724961714356784E-1   -1.487118803478855E-1   -8.181577750886652E-3    3.771066810432958E-2   -6.179106481588419E-3    3.753703087226103E-2   -5.360414418016214E-1   -5.419351097313539E-2
 6.457285085350000E9    -5.729229677354098E-1   -1.476125158151641E-1   -8.191181387138416E-3    3.792753193218713E-2   -6.188996184198650E-3    3.778515272457497E-2   -5.360320922978710E-1   -5.291636321919836E-2
 6.457296540325000E9    -5.729605893618952E-1   -1.466293922949191E-1   -8.213642774875050E-3    3.831827855207608E-2   -6.163551104803236E-3    3.806409413295694E-2   -5.360894739614869E-1   -5.170640605188963E-2
 6.457307995300000E9    -5.732394419813781E-1   -1.456611021108027E-1   -8.244116018486330E-3    3.833711747954323E-2   -6.115146231922859E-3    3.828568256005913E-2   -5.362132430920195E-1   -5.046411802311984E-2
 6.457319450275000E9    -5.734432854724387E-1   -1.448195311624155E-1   -7.918924812076879E-3    3.864526438494242E-2   -6.082180930231283E-3    3.857441237189612E-2   -5.364833247982360E-1   -4.908531462836474E-2
 6.457330905250000E9    -5.736173868392758E-1   -1.436747810458773E-1   -7.926034714781897E-3    3.903697452349153E-2   -6.070577859127855E-3    3.876076538688122E-2   -5.365015099160765E-1   -4.782262023603230E-2
 6.457342360225000E9    -5.738633105401261E-1   -1.426335733057659E-1   -8.044022387564831E-3    3.932681633253889E-2   -6.026343377320751E-3    3.900478125706234E-2   -5.367858519024804E-1   -4.641394010141560E-2
 6.457353815200000E9    -5.739802349222838E-1   -1.416924700123181E-1   -8.005971946749664E-3    3.942909239173840E-2   -5.833342717336073E-3    3.924073304242535E-2   -5.367894365117802E-1   -4.511018567549249E-2
 6.457365270175000E9    -5.743046897776590E-1   -1.407692228015198E-1   -7.942102600194434E-3    3.983728306661791E-2   -5.882462255943692E-3    3.947005493923611E-2   -5.368800730348788E-1   -4.394066540911339E-2
 6.457376725150000E9    -5.744587781065102E-1   -1.398063688991039E-1   -7.838805327709039E-3    4.012814123037238E-2   -5.869077158326521E-3    3.968891724973901E-2   -5.369413285833106E-1   -4.260957357942593E-2
 6.457388180125000E9    -5.746864119137658E-1   -1.387075313533155E-1   -7.879515996544425E-3    4.015619484450837E-2   -5.727262951185191E-3    3.999419232118542E-2   -5.371015316759074E-1   -4.115244746518425E-2
 6.457399635100000E9    -5.748965090578768E-1   -1.376879852248403E-1   -7.875009111316616E-3    4.059987761472039E-2   -5.730441644466309E-3    4.033808248489140E-2   -5.371162731117725E-1   -3.974977619150374E-2
 6.457411090075000E9    -5.750788968426336E-1   -1.367538621149865E-1   -7.594423111694264E-3    4.079982876793587E-2   -5.647997438577244E-3    4.049206725160059E-2   -5.372577636074675E-1   -3.852433858547441E-2
 6.457422545050000E9    -5.754150784269140E-1   -1.356977326785656E-1   -7.578751536467684E-3    4.099627112240670E-2   -5.553574144637033E-3    4.084003753937298E-2   -5.373776204923562E-1   -3.717105200886312E-2
 6.457434000025000E9    -5.754946291468377E-1   -1.346925346331922E-1   -7.638158405033581E-3    4.143070412954226E-2   -5.484906349122594E-3    4.102064378988360E-2   -5.372914585310457E-1   -3.591217588790934E-2
 6.457445455000000E9    -5.757258515536657E-1   -1.337623872314129E-1   -7.574639275214972E-3    4.160360983851884E-2   -5.375541576185369E-3    4.133205573663403E-2   -5.374408330175817E-1   -3.440141013727541E-2
 6.457456909975000E9    -5.759334846632512E-1   -1.326337992711866E-1   -7.408760072174252E-3    4.178057732576634E-2   -5.420514352599903E-3    4.156561947829145E-2   -5.375179034135771E-1   -3.294263728455658E-2
 6.457468364950000E9    -5.761485640700709E-1   -1.317220795904851E-1   -7.558036982383627E-3    4.214265194253906E-2   -5.200812093961527E-3    4.188149588867959E-2   -5.373289417881432E-1   -3.158102040234915E-2
 6.457479819925000E9    -5.763935537011992E-1   -1.306287831178426E-1   -7.414242795177799E-3    4.247958275051503E-2   -5.197803389749335E-3    4.217106692058751E-2   -5.375836139136535E-1   -3.032830229282582E-2
 6.457491274900000E9    -5.765099350386460E-1   -1.296575397507938E-1   -7.334479455037095E-3    4.279175310683103E-2   -5.229959243555570E-3    4.243803935090745E-2   -5.377165811203781E-1   -2.896866296108715E-2
 6.457502729875000E9    -5.767224188149950E-1   -1.285478878990891E-1   -7.246682270995951E-3    4.313757416117455E-2   -5.107044281416253E-3    4.266498779453400E-2   -5.377293755115231E-1   -2.748324134529659E-2
 6.457514184850000E9    -5.769963302521393E-1   -1.277387783074909E-1   -7.234109129655404E-3    4.331797857964980E-2   -5.030179498495053E-3    4.299408580516334E-2   -5.377064397273567E-1   -2.610389621163707E-2
 6.457525639825000E9    -5.770456907052469E-1   -1.265467551537977E-1   -7.303908278592175E-3    4.373562648975245E-2   -4.915093675604385E-3    4.330692820639270E-2   -5.377702170805917E-1   -2.472537459384000E-2
 6.457537094800000E9    -5.772115058677322E-1   -1.255328560602898E-1   -7.127406819280260E-3    4.400141276580354E-2   -4.949336762421794E-3    4.362158532463899E-2   -5.378576851261927E-1   -2.348999829590023E-2
 6.457548549775000E9    -5.774999857798121E-1   -1.244703528244559E-1   -6.977489393822949E-3    4.417611578588122E-2   -4.794149255372815E-3    4.391096866853337E-2   -5.378306911214991E-1   -2.184246417287167E-2
 6.457560004750000E9    -5.776367844716715E-1   -1.235594633224713E-1   -6.909646528619336E-3    4.457792929508576E-2   -4.811119110531669E-3    4.424702254447695E-2   -5.379178591265372E-1   -2.054744524621113E-2
 6.457571459725000E9    -5.778818747698381E-1   -1.224355363564210E-1   -6.850205653292790E-3    4.495468524402145E-2   -4.612423709351785E-3    4.452035987696146E-2   -5.378587353058568E-1   -1.895853571679847E-2
 6.457582914700000E9    -5.780531466304145E-1   -1.215070723692789E-1   -7.034256906711689E-3    4.531887811930073E-2   -4.638924311630908E-3    4.482636837669121E-2   -5.380200737048989E-1   -1.752438191622788E-2
 6.457594369675000E9    -5.782694827382661E-1   -1.202784534443396E-1   -6.857252803482779E-3    4.552045852293214E-2   -4.430448917171469E-3    4.512409111171904E-2   -5.379209561561942E-1   -1.607509701510494E-2
 6.457605824650000E9    -5.783850928322229E-1   -1.194348115415527E-1   -6.763848429242409E-3    4.583490675498502E-2   -4.339561707799171E-3    4.543937932862233E-2   -5.379882726385748E-1   -1.463241456809408E-2
 6.457617279625000E9    -5.785062394172465E-1   -1.182632040047975E-1   -6.779606647557699E-3    4.623710578825235E-2   -4.344438914085159E-3    4.578527025315784E-2   -5.378266681920251E-1   -1.311252722257453E-2
 6.457628734600000E9    -5.786448676143050E-1   -1.171583365792293E-1   -6.628060515450252E-3    4.652041358328896E-2   -4.266557951705143E-3    4.605894775424597E-2   -5.379864789554407E-1   -1.164434859228157E-2
 6.457640189575000E9    -5.788900795367582E-1   -1.162192384623344E-1   -6.540854982598611E-3    4.685060204827576E-2   -4.202338293210288E-3    4.640701640464231E-2   -5.380159812277798E-1   -1.025038322968358E-2
 6.457651644550000E9    -5.790489936855965E-1   -1.151249738867390E-1   -6.488733869464556E-3    4.720152657936037E-2   -4.076415668388221E-3    4.674993864881621E-2   -5.380284000213674E-1   -8.822916791999015E-3
 6.457663099525000E9    -5.791472950561252E-1   -1.141351684491951E-1   -6.500022194370386E-3    4.766699676826684E-2   -4.071232401005007E-3    4.710659626325797E-2   -5.379001432967644E-1   -7.228715675736400E-3
 6.457674554500000E9    -5.792685457643237E-1   -1.130783817618592E-1   -6.310648908256514E-3    4.802172777305723E-2   -3.876410353328867E-3    4.747937142495616E-2   -5.379193668388667E-1   -5.678930336776419E-3
 6.457686009475000E9    -5.796536253949263E-1   -1.119168331252265E-1   -6.223101181970109E-3    4.830648081398846E-2   -3.732450090388134E-3    4.777071369457485E-2   -5.378766575537851E-1   -4.173344086608718E-3
 6.457697464450000E9    -5.796281099210133E-1   -1.108750238950185E-1   -6.063459966959257E-3    4.858373527369061E-2   -3.697090310094252E-3    4.809780703690036E-2   -5.377167996128048E-1   -2.760589954863873E-3
 6.457708919425000E9    -5.798300648203421E-1   -1.099093241202287E-1   -6.130847655172066E-3    4.904118238713537E-2   -3.602020294194645E-3    4.849332688492462E-2   -5.378766870702270E-1   -1.273934809771574E-3
 6.457720374400000E9    -5.799193161899320E-1   -1.088123963913618E-1   -6.021788813321747E-3    4.938438730748793E-2   -3.378989558013168E-3    4.889407098256999E-2   -5.378921152370082E-1    5.157418890652780E-4
 6.457731829375000E9    -5.801815690662083E-1   -1.077202221240573E-1   -5.946074792225012E-3    4.977510546744402E-2   -3.368123995094899E-3    4.920293943319255E-2   -5.377807574163139E-1    1.905910348509016E-3
 6.457743284350000E9    -5.802976163114368E-1   -1.066741143718108E-1   -5.818142195889378E-3    5.012247265252842E-2   -3.315790861466525E-3    4.952941320585429E-2   -5.375737896674040E-1    3.512255417696009E-3
 6.457754739325000E9    -5.803756498869098E-1   -1.055747813874000E-1   -5.710553772355447E-3    5.053120457093808E-2   -3.119107675334331E-3    5.003043409427071E-2   -5.375133220978343E-1    5.078512986204768E-3
 6.457766194300000E9    -5.805078014969510E-1   -1.044867336319998E-1   -5.605606313675223E-3    5.104461253319230E-2   -2.991390082991992E-3    5.032529466924173E-2   -5.376923251694747E-1    6.606667230492590E-3
 6.457777649275000E9    -5.805639400106755E-1   -1.033664032648596E-1   -5.439007889145087E-3    5.140222257827300E-2   -2.927156952387591E-3    5.075030961042372E-2   -5.375452489156194E-1    8.182432110769525E-3
 6.457789104250000E9    -5.807934606363585E-1   -1.024026057105479E-1   -5.363798445070868E-3    5.178605434045434E-2   -2.837605730719701E-3    5.118930615607722E-2   -5.374179169018733E-1    9.813773429114180E-3
 6.457800559225000E9    -5.809272443400230E-1   -1.011989667206509E-1   -5.368213922871838E-3    5.219618369695061E-2   -2.765741165283893E-3    5.157102248105596E-2   -5.373272665546348E-1    1.147677603686136E-2
 6.457812014200000E9    -5.811004287222735E-1   -1.002072410067168E-1   -5.190381584680446E-3    5.259521561282183E-2   -2.558220789601885E-3    5.205104621229600E-2   -5.372819401325107E-1    1.315055388943071E-2
 6.457823469175000E9    -5.812244851840819E-1   -9.904594492373424E-2   -5.228322548832542E-3    5.310800549848018E-2   -2.425873921681922E-3    5.237780679085136E-2   -5.372565646657115E-1    1.459413275327498E-2
 6.457834924150000E9    -5.812205528494321E-1   -9.795305233470734E-2   -4.818820350873185E-3    5.339399705426495E-2   -2.356052829198240E-3    5.283097156423178E-2   -5.369775458969946E-1    1.632245539359060E-2
 6.457846379125000E9    -5.813684310286280E-1   -9.682042139179131E-2   -4.986958495870762E-3    5.398323228370353E-2   -2.131286150117468E-3    5.325410725314560E-2   -5.369928470825407E-1    1.806004790882323E-2
 6.457857834100000E9    -5.814347144918762E-1   -9.575119271469994E-2   -4.627893203856595E-3    5.441589697539442E-2   -2.117909141288701E-3    5.358453842341283E-2   -5.369513166697013E-1    1.971890963706533E-2
 6.457869289075000E9    -5.816278198395517E-1   -9.457689274662417E-2   -4.684567938997858E-3    5.490609078190951E-2   -1.892435998103380E-3    5.411165161816450E-2   -5.367137374569727E-1    2.130716722757818E-2
 6.457880744050000E9    -5.818141108272253E-1   -9.344514536922296E-2   -4.426554984497252E-3    5.532245625814914E-2   -1.774118141291635E-3    5.450995760295109E-2   -5.365732082036421E-1    2.292864759749169E-2
 6.457892199025000E9    -5.819192872240059E-1   -9.243139637472431E-2   -4.291441137257436E-3    5.573597351395699E-2   -1.635523128184583E-3    5.495777747933453E-2   -5.363665184192000E-1    2.471873486038293E-2
 6.457903654000000E9    -5.820369318727128E-1   -9.124477217931108E-2   -4.316876577229174E-3    5.608793972534853E-2   -1.412708931835115E-3    5.541674765329818E-2   -5.362023486672906E-1    2.659936271024886E-2
 6.457915108975000E9    -5.820772243118143E-1   -9.022646733467982E-2   -4.184692952449161E-3    5.660629542604976E-2   -1.206233012461518E-3    5.580218881666734E-2   -5.362222811579894E-1    2.820632400402161E-2
 6.457926563950000E9    -5.821376878310774E-1   -8.897413963449208E-2   -3.997381190659469E-3    5.708343243589669E-2   -1.165200263625099E-3    5.645523652910496E-2   -5.359207524036318E-1    2.980670820209018E-2
 6.457938018925000E9    -5.821965251507104E-1   -8.792036575580349E-2   -3.819288865429055E-3    5.760179011266850E-2   -1.054390764688612E-3    5.687804989863744E-2   -5.357675681147901E-1    3.177450827738783E-2
 6.457949473900000E9    -5.824158465753770E-1   -8.669814072688919E-2   -3.728868911254943E-3    5.815460774085984E-2   -7.545261921694762E-4    5.737080306070976E-2   -5.355790176140273E-1    3.345639146276756E-2
 6.457960928875000E9    -5.824544666255427E-1   -8.566269297443070E-2   -3.595407639646659E-3    5.867316475633714E-2   -7.245251242695721E-4    5.779647833916721E-2   -5.355094813862347E-1    3.534040402985295E-2
 6.457972383850000E9    -5.825046331192610E-1   -8.456255663064430E-2   -3.300033244012160E-3    5.920971390471308E-2   -4.887499074516166E-4    5.831453362506283E-2   -5.351886849923814E-1    3.725924026628143E-2
 6.457983838825000E9    -5.826268599929155E-1   -8.336380218105803E-2   -3.224192339972999E-3    5.969515409857673E-2   -3.334304996939841E-4    5.877933038552773E-2   -5.350694123214949E-1    3.887247614102075E-2
 6.457995293800000E9    -5.827201024291673E-1   -8.214862353003886E-2   -3.004702021378115E-3    6.027804275369773E-2   -1.533806777720669E-4    5.933272000023338E-2   -5.346436384424385E-1    4.064823048936730E-2
 6.458006748775000E9    -5.828708721689944E-1   -8.101149270144670E-2   -2.858199324798575E-3    6.083005160387096E-2   -1.250364230362704E-5    5.983843530384320E-2   -5.345495475448947E-1    4.263898723305128E-2
 6.458018203750000E9    -5.828380204007521E-1   -7.983639201333879E-2   -2.748945776975904E-3    6.141763082454358E-2    2.111209087054431E-4    6.046878624712412E-2   -5.343518927254320E-1    4.442574033491005E-2
