#  HZ   S   RI   R     50.00 
! Rohde & Schwarz Vector Network Analyzer 
! Rohde-Schwarz,ZNB20-2Port,1311601062101988,3.16
! Created: UTC 3/20/2024, 10:52:42 PM
! freq[Hz]                re:S11                  im:S11                  re:S21                  im:S21                  re:S12                  im:S12                  re:S22                  im:S22
 6.457044678000000E9    -5.674286470946157E-1   -1.686080673390490E-1   -8.680228584634119E-3    3.300366556325521E-2   -6.913757367774685E-3    3.291159725897409E-2   -5.342963566299819E-1   -7.825955824021515E-2
 6.457056036450000E9    -5.675443192542049E-1   -1.676173059923040E-1   -8.789921673820079E-3    3.301436916786765E-2   -7.049518588672295E-3    3.306734819862010E-2   -5.345018564674050E-1   -7.703264083378622E-2
 6.457067394900000E9    -5.679829800541051E-1   -1.666947405295360E-1   -8.706047529995476E-3    3.335713411905549E-2   -6.937424712010021E-3    3.315231026033583E-2   -5.347269113329205E-1   -7.586686550060989E-2
 6.457078753350000E9    -5.681244763708736E-1   -1.658667936653183E-1   -8.591520805477679E-3    3.358072601652829E-2   -6.926579118537216E-3    3.339883551905917E-2   -5.348789472717058E-1   -7.477037749033306E-2
 6.457090111800000E9    -5.683234124082623E-1   -1.648247519452093E-1   -8.624681477146569E-3    3.378229544289652E-2   -6.828448990589845E-3    3.359621962593707E-2   -5.349175991310738E-1   -7.339027274339471E-2
 6.457101470250000E9    -5.687191409894647E-1   -1.639107411476246E-1   -8.614785172434417E-3    3.393604093662391E-2   -6.792528298964696E-3    3.378873663069350E-2   -5.352357620195924E-1   -7.223488451475228E-2
 6.457112828700000E9    -5.689497112060754E-1   -1.629281590633853E-1   -8.553350716768498E-3    3.400044232597547E-2   -6.783597067861778E-3    3.397602435344933E-2   -5.352042485511818E-1   -7.098715592011207E-2
 6.457124187150000E9    -5.691460331696904E-1   -1.619845652994421E-1   -8.598449272482133E-3    3.426993433546122E-2   -6.701228800410468E-3    3.415017754975586E-2   -5.353918372967253E-1   -6.989484256705346E-2
 6.457135545600000E9    -5.694152827747421E-1   -1.611120473017753E-1   -8.316919736488975E-3    3.452979156918880E-2   -6.626074920865374E-3    3.431941687494210E-2   -5.356495564776254E-1   -6.878471364690417E-2
 6.457146904050000E9    -5.695896412636383E-1   -1.600903958741491E-1   -8.469867877890955E-3    3.473990880447131E-2   -6.673235221392806E-3    3.455851623333336E-2   -5.358578333120206E-1   -6.749483454183101E-2
 6.457158262500000E9    -5.699097007808588E-1   -1.591713738964138E-1   -8.456703205990687E-3    3.489686020767255E-2   -6.540429711773738E-3    3.477678349362424E-2   -5.359182789765523E-1   -6.631551458937424E-2
 6.457169620950000E9    -5.701455978876210E-1   -1.581457088811435E-1   -8.496500658143554E-3    3.521565229401676E-2   -6.581541600649227E-3    3.496357586235041E-2   -5.360446230328099E-1   -6.507389362765095E-2
 6.457180979400000E9    -5.702645521067341E-1   -1.572669370358581E-1   -8.453207754646277E-3    3.531900922532123E-2   -6.547146933852967E-3    3.511500554310266E-2   -5.362455368543362E-1   -6.380054719735645E-2
 6.457192337850000E9    -5.706021031407935E-1   -1.563486904169094E-1   -8.397926016803529E-3    3.546781254964835E-2   -6.460280845891282E-3    3.533753872972837E-2   -5.364065638080956E-1   -6.244376326781092E-2
 6.457203696300000E9    -5.707866170221704E-1   -1.553663715229863E-1   -8.304360004271776E-3    3.570044739422791E-2   -6.381139750451535E-3    3.556677726169159E-2   -5.364116778256989E-1   -6.149323980874686E-2
 6.457215054750000E9    -5.710160658830180E-1   -1.543510454627224E-1   -8.277070559467484E-3    3.585012933640271E-2   -6.362125591730749E-3    3.579723660789992E-2   -5.366725192789870E-1   -5.997697488129443E-2
 6.457226413200000E9    -5.713561923507150E-1   -1.534596729510510E-1   -8.287415994560642E-3    3.624929571438370E-2   -6.413201152825432E-3    3.599100605889513E-2   -5.366402280486195E-1   -5.894461565873281E-2
 6.457237771650000E9    -5.715517529954036E-1   -1.524127442687853E-1   -8.318591302673848E-3    3.635011300523421E-2   -6.354183441071150E-3    3.628146361027130E-2   -5.368833624222487E-1   -5.750743576768741E-2
 6.457249130100000E9    -5.718472549621978E-1   -1.515013362423835E-1   -8.175903484894753E-3    3.668432591513687E-2   -6.328277013619845E-3    3.646155905247031E-2   -5.369688546321925E-1   -5.654788585507367E-2
 6.457260488550000E9    -5.720599332339512E-1   -1.505235809329571E-1   -8.207013459632928E-3    3.681342594733363E-2   -6.298897608819629E-3    3.665224761064207E-2   -5.370659385370106E-1   -5.511806118634233E-2
 6.457271847000000E9    -5.722306318567485E-1   -1.495618226587086E-1   -8.129651635364011E-3    3.713420487803398E-2   -6.291386649712986E-3    3.693432133840220E-2   -5.372598542581379E-1   -5.398288228463920E-2
 6.457283205450000E9    -5.724853782970702E-1   -1.484312886712293E-1   -8.133645203169495E-3    3.726836035331926E-2   -6.063453078782818E-3    3.710538398491156E-2   -5.373472771460223E-1   -5.262813031781628E-2
 6.457294563900000E9    -5.727901147013138E-1   -1.474623389078686E-1   -8.202526872178911E-3    3.740430612541820E-2   -6.141470573900886E-3    3.729700376977379E-2   -5.374086362679643E-1   -5.145617534024657E-2
 6.457305922350000E9    -5.729380043989176E-1   -1.466254677012287E-1   -8.060535738761830E-3    3.753943473753870E-2   -5.966869452974940E-3    3.745869146347043E-2   -5.375709719206625E-1   -5.026105046660381E-2
 6.457317280800000E9    -5.732231361145222E-1   -1.456385775944867E-1   -8.099781832219773E-3    3.800679129904637E-2   -6.041610412680331E-3    3.768788310309032E-2   -5.375979423920052E-1   -4.880765326333769E-2
 6.457328639250000E9    -5.732928032426270E-1   -1.446951703383291E-1   -7.992759384650456E-3    3.814248683513633E-2   -5.936892003780457E-3    3.798722916200594E-2   -5.377829816232763E-1   -4.766502491959029E-2
 6.457339997700000E9    -5.736206856280480E-1   -1.435908935040607E-1   -7.876092092579947E-3    3.842921413099920E-2   -5.960125674051490E-3    3.819072676460172E-2   -5.378915442040851E-1   -4.621854483178296E-2
 6.457351356150000E9    -5.737734952824715E-1   -1.426970924969168E-1   -7.832318357569697E-3    3.870076514785750E-2   -5.786603432240869E-3    3.843534413237944E-2   -5.379299277823036E-1   -4.504440211078215E-2
 6.457362714600000E9    -5.740167568510727E-1   -1.417690919197823E-1   -7.817573995198793E-3    3.881310238029801E-2   -5.823555551140240E-3    3.860621775822777E-2   -5.381117129786490E-1   -4.369780347596005E-2
 6.457374073050000E9    -5.742217295268430E-1   -1.406138922253038E-1   -7.792007453172984E-3    3.913171538317143E-2   -5.772507958608337E-3    3.892591540703948E-2   -5.380929873917876E-1   -4.245607599041813E-2
 6.457385431500000E9    -5.743880204462067E-1   -1.397272428910795E-1   -7.770142731644438E-3    3.938786259398346E-2   -5.768033972050079E-3    3.908585179159287E-2   -5.381485902422973E-1   -4.105430569056143E-2
 6.457396789950000E9    -5.746888312197842E-1   -1.387107171375154E-1   -7.611643745746565E-3    3.965924409553449E-2   -5.648077108930705E-3    3.937954090437871E-2   -5.382718310849054E-1   -3.984714369499413E-2
 6.457408148400000E9    -5.748529220454881E-1   -1.378014010550896E-1   -7.584883214435355E-3    3.984401365401743E-2   -5.586397519701212E-3    3.957486965633192E-2   -5.383693733333382E-1   -3.853429195450940E-2
 6.457419506850000E9    -5.750449713579391E-1   -1.368193812869881E-1   -7.540958241701918E-3    4.001661233479884E-2   -5.512308328849618E-3    3.982940057048074E-2   -5.383793434344645E-1   -3.723726995415601E-2
 6.457430865300000E9    -5.751505341817645E-1   -1.357739753628626E-1   -7.499737249873550E-3    4.035623655415804E-2   -5.479725708412552E-3    4.021029965247664E-2   -5.385861289605068E-1   -3.581529447446108E-2
 6.457442223750000E9    -5.755270597282269E-1   -1.347379398566077E-1   -7.662576466098479E-3    4.076698142478468E-2   -5.368307817676973E-3    4.048567997447505E-2   -5.385939291238701E-1   -3.449641280872711E-2
 6.457453582200000E9    -5.756784962323940E-1   -1.338036521920623E-1   -7.491706486761984E-3    4.086712897896735E-2   -5.318212858422640E-3    4.066420781123822E-2   -5.386278242459807E-1   -3.321980547647819E-2
 6.457464940650000E9    -5.759094125067908E-1   -1.327214246748527E-1   -7.383739272557235E-3    4.120443712478818E-2   -5.330393107938429E-3    4.091236426432401E-2   -5.387858830403494E-1   -3.199161319829582E-2
 6.457476299100000E9    -5.760723472547744E-1   -1.317867924922509E-1   -7.340912866802125E-3    4.158429280917772E-2   -5.241035373204238E-3    4.118502936942297E-2   -5.388309211543036E-1   -3.049249600033525E-2
 6.457487657550000E9    -5.763514608765018E-1   -1.307495063305456E-1   -7.327884211909020E-3    4.179553787811546E-2   -5.154869270976524E-3    4.147343139069300E-2   -5.388392541867374E-1   -2.910385486317282E-2
 6.457499016000000E9    -5.764479795418329E-1   -1.297635355637229E-1   -7.351926986627387E-3    4.208567636329640E-2   -5.082685542213972E-3    4.167595088823139E-2   -5.388391759054875E-1   -2.788757292909345E-2
 6.457510374450000E9    -5.766053808659973E-1   -1.287465128997952E-1   -7.202126655964165E-3    4.242740605591110E-2   -5.090440026377089E-3    4.201551065635321E-2   -5.390178081720955E-1   -2.652305603039358E-2
 6.457521732900000E9    -5.768353745179622E-1   -1.276631904876193E-1   -7.205164330568459E-3    4.260452213211166E-2   -4.945107016255818E-3    4.225630081579822E-2   -5.388715482765460E-1   -2.510605006224777E-2
 6.457533091350000E9    -5.769998639262783E-1   -1.266609610896023E-1   -7.106326022208858E-3    4.282851286415180E-2   -4.961084232531964E-3    4.255448098006049E-2   -5.390549137339063E-1   -2.374169362127302E-2
 6.457544449800000E9    -5.772120809333680E-1   -1.257918178947814E-1   -7.083621718604802E-3    4.324611536158438E-2   -4.777512071074731E-3    4.283051311716704E-2   -5.390161451489778E-1   -2.230729947659809E-2
 6.457555808250000E9    -5.773729796515027E-1   -1.247057682987568E-1   -6.958885187762035E-3    4.346379483029524E-2   -4.792880741744589E-3    4.315326247858920E-2   -5.389954887012403E-1   -2.102246448878259E-2
 6.457567166700000E9    -5.775413369227655E-1   -1.237246134807215E-1   -6.965292493760442E-3    4.377919416037514E-2   -4.680076932349715E-3    4.332534736875104E-2   -5.390738423039966E-1   -1.947668985605104E-2
 6.457578525150000E9    -5.777384724984032E-1   -1.226394050002211E-1   -6.828016314572384E-3    4.395779346624235E-2   -4.522759999721303E-3    4.363138078363352E-2   -5.392300369876188E-1   -1.804089307029896E-2
 6.457589883600000E9    -5.779593870421095E-1   -1.216608340442844E-1   -6.768135609915998E-3    4.431110711420215E-2   -4.515750469700639E-3    4.407083901687544E-2   -5.390500534304533E-1   -1.653392437329448E-2
 6.457601242050000E9    -5.780983687759970E-1   -1.205835230761849E-1   -6.804644824609826E-3    4.472011929936250E-2   -4.488475014095733E-3    4.434919750155516E-2   -5.392141318064396E-1   -1.521453961121304E-2
 6.457612600500000E9    -5.781909705144829E-1   -1.197015733267128E-1   -6.551560111631050E-3    4.498304656847668E-2   -4.359412286050669E-3    4.464456881051930E-2   -5.391006633983679E-1   -1.391552366840794E-2
 6.457623958950000E9    -5.783735176195111E-1   -1.186810426826218E-1   -6.600262626075722E-3    4.541793033505877E-2   -4.288250622092120E-3    4.490993475776073E-2   -5.392838730161459E-1   -1.247167352402533E-2
 6.457635317400000E9    -5.786060353654304E-1   -1.174779490361500E-1   -6.539689627958803E-3    4.558503274134608E-2   -4.185742339729718E-3    4.516211245312856E-2   -5.391758152768413E-1   -1.112688776660623E-2
 6.457646675850000E9    -5.787025698856469E-1   -1.165436826267111E-1   -6.567109288998038E-3    4.599960608301217E-2   -4.153488118280531E-3    4.552286398591733E-2   -5.391485403164478E-1   -9.549869680430447E-3
 6.457658034300000E9    -5.789127538902676E-1   -1.155156918291704E-1   -6.272037954862078E-3    4.636346989239740E-2   -4.000922439725019E-3    4.586677257291512E-2   -5.392325482432108E-1   -8.049666771045185E-3
 6.457669392750000E9    -5.791220548639482E-1   -1.144166325851636E-1   -6.347784992011783E-3    4.668595991956766E-2   -3.893686194976869E-3    4.620196176968377E-2   -5.391968365123885E-1   -6.617110561978774E-3
 6.457680751200000E9    -5.792286650199886E-1   -1.134124106329483E-1   -6.292530776974348E-3    4.698183343182184E-2   -3.886974506381975E-3    4.659707659341715E-2   -5.391852408733998E-1   -5.054862843287039E-3
 6.457692109650000E9    -5.794030207012799E-1   -1.124601958639853E-1   -6.188461646321319E-3    4.738385279099387E-2   -3.677195004754603E-3    4.684805018577740E-2   -5.391083077975485E-1   -3.625834473736885E-3
 6.457703468100000E9    -5.796334765180297E-1   -1.112696868020198E-1   -6.125910252529728E-3    4.778088986661732E-2   -3.679033177073871E-3    4.716400392096614E-2   -5.390319741458542E-1   -2.157097376976229E-3
 6.457714826550000E9    -5.797350356313827E-1   -1.103201711690092E-1   -5.944977085001605E-3    4.800890835527825E-2   -3.662739303439324E-3    4.767852826362201E-2   -5.390811250711435E-1   -6.521571815604929E-4
 6.457726185000000E9    -5.799493467682734E-1   -1.091713816310222E-1   -6.014509105826861E-3    4.841527758922461E-2   -3.465133488068542E-3    4.791105506070068E-2   -5.389612051806902E-1    7.986433333522728E-4
 6.457737543450000E9    -5.800548779327780E-1   -1.081487593941898E-1   -5.825360886572126E-3    4.888162326880479E-2   -3.462155446009321E-3    4.818538175398139E-2   -5.389963598222329E-1    2.424384508636474E-3
 6.457748901900000E9    -5.801236181268099E-1   -1.071493456627015E-1   -5.837733187334279E-3    4.915577473714146E-2   -3.295517298683083E-3    4.856002226134352E-2   -5.390633685623855E-1    3.847165397430957E-3
 6.457760260350000E9    -5.802205308104019E-1   -1.059150631191026E-1   -5.828481825025478E-3    4.953875588290562E-2   -3.157498449176791E-3    4.886448918264639E-2   -5.388907941843729E-1    5.332319804023082E-3
 6.457771618800000E9    -5.804307980385166E-1   -1.049060874877375E-1   -5.481484072889953E-3    4.991300338873041E-2   -3.086971666451527E-3    4.925192192981407E-2   -5.389383400564253E-1    6.957454937208340E-3
 6.457782977250000E9    -5.805177121096278E-1   -1.038368953731972E-1   -5.459792439450941E-3    5.032783518646514E-2   -3.004623018444913E-3    4.960388514806249E-2   -5.387797431222719E-1    8.510637840197689E-3
 6.457794335700000E9    -5.807286647590535E-1   -1.028308442736279E-1   -5.304535667694153E-3    5.059604237888356E-2   -2.816498629351218E-3    4.995831470837290E-2   -5.387120213638094E-1    1.008168246878683E-2
 6.457805694150000E9    -5.807984848989497E-1   -1.018315854444038E-1   -5.251959339258628E-3    5.112020940708553E-2   -2.785498293820043E-3    5.048514609916730E-2   -5.386674954106025E-1    1.165327368216178E-2
 6.457817052600000E9    -5.809191308269024E-1   -1.006895780180169E-1   -5.236657304261362E-3    5.151383312944915E-2   -2.601597726379888E-3    5.085277584005548E-2   -5.384805215668240E-1    1.321459072600937E-2
 6.457828411050000E9    -5.810861392650009E-1   -9.968162248726439E-2   -5.188128577803783E-3    5.184052287566880E-2   -2.461532786502282E-3    5.118641176960686E-2   -5.384608363934867E-1    1.476242326155819E-2
 6.457839769500000E9    -5.812634492658418E-1   -9.861232368483343E-2   -4.998562043827858E-3    5.221816374866775E-2   -2.337901670244029E-3    5.156574168339442E-2   -5.384054562325884E-1    1.644628035023631E-2
 6.457851127950000E9    -5.812393674751432E-1   -9.745207585173242E-2   -4.932129247524823E-3    5.261233619267797E-2   -2.343357765891158E-3    5.196107081835741E-2   -5.382933400419443E-1    1.805903208955382E-2
 6.457862486400000E9    -5.814500531365956E-1   -9.639612771663390E-2   -4.784865665432748E-3    5.318169166648080E-2   -2.129473772588266E-3    5.231868665299871E-2   -5.381866349055540E-1    1.968673045447459E-2
 6.457873844850000E9    -5.815418562260444E-1   -9.526336715659281E-2   -4.669643794116513E-3    5.355889569649858E-2   -1.974020614494483E-3    5.280098072713361E-2   -5.380962414580241E-1    2.123788299145312E-2
 6.457885203300000E9    -5.817683141572142E-1   -9.420179660113503E-2   -4.575294340301302E-3    5.393931977751493E-2   -1.846976878860053E-3    5.320120442259911E-2   -5.378601749539991E-1    2.288473478394733E-2
 6.457896561750000E9    -5.818829362448815E-1   -9.306767071529475E-2   -4.388240979515951E-3    5.441376640951408E-2   -1.755687423722105E-3    5.368767400122538E-2   -5.377858384179772E-1    2.467316384285440E-2
 6.457907920200000E9    -5.819335668465033E-1   -9.192498250503901E-2   -4.282721626237366E-3    5.493311961870607E-2   -1.605390146354799E-3    5.407764076213754E-2   -5.376320719304983E-1    2.627311354277941E-2
 6.457919278650000E9    -5.820187908370837E-1   -9.087318768033439E-2   -4.222472337354222E-3    5.522445436865793E-2   -1.549047030330652E-3    5.448600669983649E-2   -5.374639344853841E-1    2.789553316397765E-2
 6.457930637100000E9    -5.821491448211323E-1   -8.973338540240892E-2   -3.973240720643814E-3    5.572298052846590E-2   -1.223837399176678E-3    5.491694776653823E-2   -5.373789213012631E-1    2.961952857361328E-2
 6.457941995550000E9    -5.821784866745076E-1   -8.877656551002978E-2   -4.026161678211477E-3    5.618588488816264E-2   -1.153368535961812E-3    5.531939257950371E-2   -5.371271883366628E-1    3.120334427742880E-2
 6.457953354000000E9    -5.823115196501288E-1   -8.752656825975584E-2   -3.860598202129035E-3    5.673947823954455E-2   -1.042726234572974E-3    5.588770670896089E-2   -5.371026940809591E-1    3.295030113731409E-2
 6.457964712450000E9    -5.824828988066081E-1   -8.651354352649585E-2   -3.670382125913261E-3    5.714112586917339E-2   -8.324586785436749E-4    5.643791756815558E-2   -5.368475607803169E-1    3.483117648399533E-2
 6.457976070900000E9    -5.825447375188553E-1   -8.539197461465180E-2   -3.552935671765555E-3    5.769427968529350E-2   -7.087955646362236E-4    5.677696882061686E-2   -5.366016897523115E-1    3.649880008609012E-2
 6.457987429350000E9    -5.826161174581773E-1   -8.426359611752315E-2   -3.405260200728077E-3    5.812605111742497E-2   -6.415770360954476E-4    5.732735328834655E-2   -5.364588577607952E-1    3.824984877036555E-2
 6.457998787800000E9    -5.827289798840014E-1   -8.323093133957531E-2   -3.142696896457578E-3    5.875715531266392E-2   -3.643426313327308E-4    5.771018464175606E-2   -5.363239586400923E-1    4.003641362450369E-2
 6.458010146250000E9    -5.827105173868424E-1   -8.199006705085395E-2   -3.053926328483683E-3    5.924002464800826E-2   -1.887209592953205E-4    5.826710058215412E-2   -5.359161414636977E-1    4.188076986609278E-2
 6.458021504700000E9    -5.827964421968157E-1   -8.080402222601471E-2   -2.875563636751609E-3    5.969084477108832E-2   -2.418907780933881E-5    5.880171365109306E-2   -5.356828727581278E-1    4.368228698382845E-2
 6.458032863150000E9    -5.829236467073879E-1   -7.964297656628665E-2   -2.785634493819759E-3    6.024465627243061E-2    2.311562808203881E-4    5.928668154622623E-2   -5.356274102708982E-1    4.532063277764897E-2
 6.458044221600000E9    -5.829808535970499E-1   -7.846455376072489E-2   -2.568674552340984E-3    6.083425892292671E-2    2.621012893853920E-4    5.974716518971900E-2   -5.353970404288111E-1    4.720164490554344E-2
 6.458055580050000E9    -5.830850622938063E-1   -7.738980517497145E-2   -2.489968815263738E-3    6.144320524237540E-2    5.818040780668860E-4    6.028850757332219E-2   -5.351668758024726E-1    4.907650335846509E-2
 6.458066938500000E9    -5.830980407570655E-1   -7.619468664812917E-2   -2.196660988669612E-3    6.185610315692760E-2    7.551448354786847E-4    6.082500305981778E-2   -5.348415988525109E-1    5.099105119386558E-2
