#  HZ   S   RI   R     50.00 
! Rohde & Schwarz Vector Network Analyzer 
! Rohde-Schwarz,ZNB20-2Port,1311601062101988,3.16
! Created: UTC 3/20/2024, 10:59:10 PM
! freq[Hz]                re:S11                  im:S11                  re:S21                  im:S21                  re:S12                  im:S12                  re:S22                  im:S22
 6.456983785000000E9    -5.662815028220815E-1   -1.729880522387567E-1   -9.033806854880302E-3    3.238223747100240E-2   -7.301638578139934E-3    3.241689996780666E-2   -5.319110755210031E-1   -8.537760201692633E-2
 6.456995245250000E9    -5.666158606683074E-1   -1.719855814459145E-1   -8.967687607860108E-3    3.258792552662811E-2   -7.272672662053596E-3    3.266095604967859E-2   -5.321156363975011E-1   -8.422211003111511E-2
 6.457006705500000E9    -5.667662820855079E-1   -1.711618338400756E-1   -9.041518811697418E-3    3.274200414880963E-2   -7.230338631218321E-3    3.287969686431392E-2   -5.322491955317094E-1   -8.312892551305048E-2
 6.457018165750000E9    -5.669861304961654E-1   -1.700894396285452E-1   -8.952841653874069E-3    3.313793426915287E-2   -7.193212661412865E-3    3.308317190777243E-2   -5.323294359607413E-1   -8.183983410785252E-2
 6.457029626000000E9    -5.673580426164431E-1   -1.691427365239072E-1   -8.932523820144613E-3    3.328292296945284E-2   -7.148520276584113E-3    3.326615197184359E-2   -5.325853222931114E-1   -8.071872686033106E-2
 6.457041086250000E9    -5.676076987394465E-1   -1.681759968650667E-1   -8.907576246496109E-3    3.337881727320747E-2   -7.080464936652765E-3    3.347550556887544E-2   -5.328261344354838E-1   -7.953416375119435E-2
 6.457052546500000E9    -5.677934091944152E-1   -1.672595603714060E-1   -8.879758352140815E-3    3.372196865395909E-2   -7.002799309341901E-3    3.367032251349070E-2   -5.329840988383330E-1   -7.826164732153895E-2
 6.457064006750000E9    -5.680470225915988E-1   -1.664505543873753E-1   -8.765071946702280E-3    3.384569209731156E-2   -6.980369760991998E-3    3.379412711598249E-2   -5.330851676208970E-1   -7.715299332158863E-2
 6.457075467000000E9    -5.683462140395091E-1   -1.652780763670633E-1   -8.708101135196489E-3    3.401108998985609E-2   -7.049292073323986E-3    3.400801303727518E-2   -5.333127086598189E-1   -7.595973773063405E-2
 6.457086927250000E9    -5.686009760177511E-1   -1.644060767760926E-1   -8.711031009230508E-3    3.430850886151781E-2   -6.948785667134257E-3    3.416386730281182E-2   -5.334958856830492E-1   -7.482468057229043E-2
 6.457098387500000E9    -5.688496343783785E-1   -1.634402666813973E-1   -8.730904811568080E-3    3.440691111320925E-2   -6.903907118702458E-3    3.437376985594485E-2   -5.335883301248618E-1   -7.355018228019214E-2
 6.457109847750000E9    -5.692209204052223E-1   -1.624937490030154E-1   -8.727883112453429E-3    3.456908898678580E-2   -6.942188909368848E-3    3.451917360664852E-2   -5.337931121509016E-1   -7.230633351162474E-2
 6.457121308000000E9    -5.693313825386630E-1   -1.615551209190226E-1   -8.774647327474704E-3    3.484277246264837E-2   -6.844481801681192E-3    3.472340425161088E-2   -5.337726482586402E-1   -7.102723102630776E-2
 6.457132768250000E9    -5.696095836446490E-1   -1.605420997453019E-1   -8.559481437039752E-3    3.502556590460271E-2   -6.867639913491720E-3    3.501961159645049E-2   -5.340891919230244E-1   -6.998415730498211E-2
 6.457144228500000E9    -5.698747680402741E-1   -1.596077861659780E-1   -8.528179095366645E-3    3.526495936284907E-2   -6.803635963456550E-3    3.523927614591343E-2   -5.342610021966047E-1   -6.863456446940958E-2
 6.457155688750000E9    -5.701274252518901E-1   -1.586737233130694E-1   -8.572176877386730E-3    3.560173910539428E-2   -6.741617652830769E-3    3.545725138275418E-2   -5.344728700046338E-1   -6.750170192476773E-2
 6.457167149000000E9    -5.704384900353188E-1   -1.576920307575620E-1   -8.552951658729139E-3    3.568935703645493E-2   -6.758333431849854E-3    3.557514388663510E-2   -5.344924902324965E-1   -6.610009913120657E-2
 6.457178609250000E9    -5.706258724356963E-1   -1.567014454990056E-1   -8.586050875112612E-3    3.596907044729559E-2   -6.663334714450895E-3    3.581296339065689E-2   -5.346641000527552E-1   -6.488763103030906E-2
 6.457190069500000E9    -5.708209154091759E-1   -1.557258289834623E-1   -8.488119323308067E-3    3.612882390025336E-2   -6.597858277513994E-3    3.606650690203679E-2   -5.347466226716151E-1   -6.363284301695289E-2
 6.457201529750000E9    -5.711821853867797E-1   -1.547966472538614E-1   -8.450168659046669E-3    3.637949122212004E-2   -6.523897749683655E-3    3.633331221166192E-2   -5.350208888427470E-1   -6.241606213764781E-2
 6.457212990000000E9    -5.712535793525414E-1   -1.537570553028957E-1   -8.419307929152678E-3    3.648781175361585E-2   -6.584576748522649E-3    3.641978029169777E-2   -5.351763479452234E-1   -6.118809537702720E-2
 6.457224450250000E9    -5.715839350359244E-1   -1.528029962034103E-1   -8.320584644215595E-3    3.687322152673688E-2   -6.449242274883742E-3    3.670557010041087E-2   -5.353583329580475E-1   -5.983652199782467E-2
 6.457235910500000E9    -5.718050004775631E-1   -1.518257806810199E-1   -8.525860804453930E-3    3.700870771133986E-2   -6.441396366900262E-3    3.695791687917734E-2   -5.354283691948352E-1   -5.849609733978570E-2
 6.457247370750000E9    -5.720614822793354E-1   -1.508608887159951E-1   -8.426780404287263E-3    3.736342408035669E-2   -6.349734676107249E-3    3.714816223132945E-2   -5.355853883120489E-1   -5.736647138694066E-2
 6.457258831000000E9    -5.723826811411319E-1   -1.499017945800196E-1   -8.305164026149097E-3    3.757143260992401E-2   -6.385362285024274E-3    3.732971123945993E-2   -5.356794706754168E-1   -5.616435637691491E-2
 6.457270291250000E9    -5.726289843302483E-1   -1.489069706397744E-1   -8.172831108916142E-3    3.778097399854478E-2   -6.255624636268121E-3    3.760486057765839E-2   -5.358251604197181E-1   -5.491483858325784E-2
 6.457281751500000E9    -5.728389029228529E-1   -1.478986076931004E-1   -8.169508624635845E-3    3.796462397687875E-2   -6.397262498325139E-3    3.775908734726930E-2   -5.358217454012690E-1   -5.353257222717544E-2
 6.457293211750000E9    -5.728844591667105E-1   -1.469384363324752E-1   -8.225235018356328E-3    3.814752547654641E-2   -6.146987575022086E-3    3.795029519189982E-2   -5.360380575278293E-1   -5.219168897524202E-2
 6.457304672000000E9    -5.731386433971171E-1   -1.459370676263115E-1   -8.198192795881796E-3    3.838863732515763E-2   -6.090661396394371E-3    3.826725825134300E-2   -5.361330999605359E-1   -5.094515341243547E-2
 6.457316132250000E9    -5.734551777480947E-1   -1.449353429520626E-1   -8.187763056439454E-3    3.870785641388620E-2   -6.025912865656783E-3    3.852998313559825E-2   -5.362188704926536E-1   -4.957296075848799E-2
 6.457327592500000E9    -5.736003070028101E-1   -1.439216762303142E-1   -7.960281851477246E-3    3.887411307446600E-2   -5.996766343345325E-3    3.866862635053158E-2   -5.364192615127736E-1   -4.829032770064529E-2
 6.457339052750000E9    -5.738899300588131E-1   -1.429098542138981E-1   -8.083725704959419E-3    3.932639082550143E-2   -6.053159192716174E-3    3.903308559829826E-2   -5.364167101691546E-1   -4.704797984656997E-2
 6.457350513000000E9    -5.741652348385808E-1   -1.420498433318709E-1   -7.904862540843527E-3    3.932716319833972E-2   -5.985433374119553E-3    3.922044409907029E-2   -5.364230243523596E-1   -4.576052421952897E-2
 6.457361973250000E9    -5.743002064878084E-1   -1.410003811551412E-1   -8.006696868028341E-3    3.973433767281086E-2   -5.810283777130593E-3    3.950886805163139E-2   -5.365857059611899E-1   -4.434684093640991E-2
 6.457373433500000E9    -5.744258691541109E-1   -1.399876045628520E-1   -8.016930284223038E-3    4.001757118179076E-2   -5.791723755914770E-3    3.980910978905170E-2   -5.367026065820311E-1   -4.308311157583555E-2
 6.457384893750000E9    -5.746646996732299E-1   -1.390205240642546E-1   -8.023964142800596E-3    4.016485071316523E-2   -5.790317840612569E-3    4.000059749182553E-2   -5.368225421381135E-1   -4.157339597281347E-2
 6.457396354000000E9    -5.749391777783824E-1   -1.378896067543766E-1   -7.901736545213735E-3    4.048081283811650E-2   -5.635722916457478E-3    4.021283700488530E-2   -5.368727245763094E-1   -4.021160713447827E-2
 6.457407814250000E9    -5.751485701270923E-1   -1.369011868386275E-1   -7.723920908353623E-3    4.090209474175416E-2   -5.687827155315232E-3    4.050067645092202E-2   -5.369956250763583E-1   -3.906989282175682E-2
 6.457419274500000E9    -5.753877830963458E-1   -1.358853790552329E-1   -7.744769605406188E-3    4.106038442695259E-2   -5.593214883450052E-3    4.079563633974576E-2   -5.370271063860084E-1   -3.769689025395969E-2
 6.457430734750000E9    -5.754961564689054E-1   -1.348993786268828E-1   -7.625108386347797E-3    4.133862103277644E-2   -5.635527930115704E-3    4.110475267232694E-2   -5.371101078147282E-1   -3.627434731746598E-2
 6.457442195000000E9    -5.757287340562554E-1   -1.339589209716228E-1   -7.553916505178170E-3    4.156463015954454E-2   -5.475265192447675E-3    4.140609861814247E-2   -5.371855041843259E-1   -3.491889654410615E-2
 6.457453655250000E9    -5.759676097301927E-1   -1.328945095840375E-1   -7.541694919216445E-3    4.196230031833038E-2   -5.403229420761217E-3    4.157328950480504E-2   -5.371378545354829E-1   -3.361847197045053E-2
 6.457465115500000E9    -5.761112824444308E-1   -1.318427581147141E-1   -7.437190605199684E-3    4.219575155387977E-2   -5.402008522687100E-3    4.195368674995620E-2   -5.373153730765291E-1   -3.212514671115441E-2
 6.457476575750000E9    -5.763784724345864E-1   -1.307524129960530E-1   -7.520597588661414E-3    4.267449777882183E-2   -5.355598217999328E-3    4.211170232395049E-2   -5.374071010670989E-1   -3.081758203599699E-2
 6.457488036000000E9    -5.765102745307340E-1   -1.298046295423589E-1   -7.400413726757409E-3    4.275953082722807E-2   -5.252064031384835E-3    4.232587204727897E-2   -5.375100708645570E-1   -2.939838720622083E-2
 6.457499496250000E9    -5.766877762850241E-1   -1.288184966566137E-1   -7.376844005470061E-3    4.299293684395165E-2   -5.115280688570697E-3    4.266043831218772E-2   -5.374512165630797E-1   -2.808628295888489E-2
 6.457510956500000E9    -5.769675570222963E-1   -1.278238957382429E-1   -7.289207150146067E-3    4.333717318993906E-2   -5.112503587201249E-3    4.296567781492688E-2   -5.375501131230465E-1   -2.673861572036150E-2
 6.457522416750000E9    -5.770265188456241E-1   -1.268248100644273E-1   -7.168727334162841E-3    4.359258248382830E-2   -4.915760675946110E-3    4.324842366613373E-2   -5.375501335127105E-1   -2.522961513094014E-2
 6.457533877000000E9    -5.772925336463862E-1   -1.258245515067065E-1   -7.177249152025970E-3    4.395870344920116E-2   -4.997667908441556E-3    4.357478710055630E-2   -5.376178520059558E-1   -2.393596621926614E-2
 6.457545337250000E9    -5.775212717390509E-1   -1.247117945355803E-1   -7.231604331927986E-3    4.427433464021240E-2   -4.810349504981032E-3    4.386754465016358E-2   -5.376735898641917E-1   -2.243086156229378E-2
 6.457556797500000E9    -5.776144537910037E-1   -1.236970931517778E-1   -7.115302825985778E-3    4.456934407007159E-2   -4.686192951814973E-3    4.412233208454593E-2   -5.376632926912162E-1   -2.100737384767232E-2
 6.457568257750000E9    -5.777815449772711E-1   -1.226015002922175E-1   -7.028620418087599E-3    4.486833384234479E-2   -4.620954289596909E-3    4.454328054839647E-2   -5.376412095351705E-1   -1.951219502344802E-2
 6.457579718000000E9    -5.780836230509012E-1   -1.215920117731432E-1   -6.899832758600220E-3    4.529575610729934E-2   -4.605979762961127E-3    4.483261314703747E-2   -5.377764919241358E-1   -1.820177921905163E-2
 6.457591178250000E9    -5.781440653524501E-1   -1.206546627471560E-1   -6.827165438527449E-3    4.539045479661743E-2   -4.506021598969697E-3    4.508462948557405E-2   -5.375208505588455E-1   -1.668662608493273E-2
 6.457602638500000E9    -5.783221112087772E-1   -1.195684629968935E-1   -6.855140009338768E-3    4.597136574029199E-2   -4.384567608741590E-3    4.547882811095225E-2   -5.377446007914451E-1   -1.516788452497915E-2
 6.457614098750000E9    -5.783873027486149E-1   -1.184568711687514E-1   -6.788754239027023E-3    4.618693597193056E-2   -4.365071239105666E-3    4.579743462431979E-2   -5.376761578712732E-1   -1.362597244325986E-2
 6.457625559000000E9    -5.787009869894538E-1   -1.174316531486129E-1   -6.670510695122919E-3    4.662106908549176E-2   -4.196141424688635E-3    4.617426986230554E-2   -5.377170237149277E-1   -1.224373679588514E-2
 6.457637019250000E9    -5.789112407698987E-1   -1.164898980892967E-1   -6.594658226320705E-3    4.680910220714398E-2   -4.158439292414657E-3    4.642874724057149E-2   -5.377380289582244E-1   -1.084213218657726E-2
 6.457648479500000E9    -5.790055202175622E-1   -1.153223022507040E-1   -6.463100271598304E-3    4.724745680127023E-2   -4.074583781797878E-3    4.672760528037927E-2   -5.377062306038326E-1   -9.222743943213225E-3
 6.457659939750000E9    -5.792385248912104E-1   -1.142172920059821E-1   -6.394488312853217E-3    4.758509682403469E-2   -4.036010131585939E-3    4.696995474152735E-2   -5.377510676963198E-1   -7.772517214123227E-3
 6.457671400000000E9    -5.794500547933513E-1   -1.132505921537836E-1   -6.508201338123773E-3    4.796988355371368E-2   -3.925801725868223E-3    4.747726368071679E-2   -5.376500310077892E-1   -6.263999002580587E-3
 6.457682860250000E9    -5.795013701478303E-1   -1.122380246931782E-1   -6.311315146491341E-3    4.840920073619317E-2   -3.954271520368868E-3    4.778545439101314E-2   -5.376089215111431E-1   -4.696524308001639E-3
 6.457694320500000E9    -5.796365157580982E-1   -1.111798145121228E-1   -6.246483180141907E-3    4.864514956037350E-2   -3.787434203343995E-3    4.804255353100609E-2   -5.376708510913045E-1   -3.311579451683144E-3
 6.457705780750000E9    -5.797611389420206E-1   -1.100851211612322E-1   -6.156458194098752E-3    4.902371802613435E-2   -3.599947625289538E-3    4.851648464776073E-2   -5.375690700730504E-1   -1.780080556130388E-3
 6.457717241000000E9    -5.798726008037060E-1   -1.089601291896312E-1   -5.955159975396735E-3    4.946464712733380E-2   -3.506497591840587E-3    4.886666409567250E-2   -5.376148359669103E-1   -1.226532851698409E-4
 6.457728701250000E9    -5.800579877144851E-1   -1.079695720841593E-1   -5.860947088360465E-3    4.983468418441134E-2   -3.421790300704722E-3    4.924466896762086E-2   -5.374055509380110E-1    1.324079510976942E-3
 6.457740161500000E9    -5.802188191216546E-1   -1.069135800458207E-1   -5.768672106580264E-3    5.025543482778581E-2   -3.338953561574778E-3    4.958853733264185E-2   -5.374909827272920E-1    2.826554813256319E-3
 6.457751621750000E9    -5.804275706361317E-1   -1.058326659913757E-1   -5.632328001845967E-3    5.053010736697424E-2   -3.286108355599482E-3    5.001806120139933E-2   -5.373627354146090E-1    4.461595938753712E-3
 6.457763082000000E9    -5.805218754523893E-1   -1.047115546748055E-1   -5.550085815386105E-3    5.097931690688274E-2   -3.097528279594951E-3    5.035380221638117E-2   -5.373912185303603E-1    6.114929172583290E-3
 6.457774542250000E9    -5.806369954313458E-1   -1.036253060783276E-1   -5.624538131858544E-3    5.139988000440494E-2   -2.978260709382658E-3    5.070195117537026E-2   -5.373635352228219E-1    7.766476865609514E-3
 6.457786002500000E9    -5.807721533048793E-1   -1.025155190692392E-1   -5.387000011738420E-3    5.172519074086901E-2   -2.879342276269176E-3    5.118546042345629E-2   -5.371385838428238E-1    9.351354182128076E-3
 6.457797462750000E9    -5.808945774964288E-1   -1.014435796892796E-1   -5.372707469342176E-3    5.209193999230260E-2   -2.747931303883132E-3    5.153673003833719E-2   -5.371002147475432E-1    1.089578232143464E-2
 6.457808923000000E9    -5.810669238747384E-1   -1.002557827274323E-1   -5.236418262062121E-3    5.259709368676513E-2   -2.633243497687807E-3    5.189039523860348E-2   -5.369414806156643E-1    1.251857037569527E-2
 6.457820383250000E9    -5.811970771410662E-1   -9.919807647978618E-2   -5.213851117697455E-3    5.296863164873786E-2   -2.509940049368038E-3    5.229255318663776E-2   -5.370523404322892E-1    1.413355401989573E-2
 6.457831843500000E9    -5.812633010817527E-1   -9.812951913415958E-2   -5.046192636605434E-3    5.354682964089372E-2   -2.369380437128732E-3    5.283092382333687E-2   -5.368202066645132E-1    1.586667676504580E-2
 6.457843303750000E9    -5.814393604349610E-1   -9.704146436355192E-2   -5.043079698997675E-3    5.389524215898881E-2   -2.290963753185985E-3    5.327422467267028E-2   -5.368016353856816E-1    1.743153933598935E-2
 6.457854764000000E9    -5.815827439074833E-1   -9.600908272929755E-2   -4.763347487532461E-3    5.430172407080257E-2   -2.028792725846387E-3    5.364881969066681E-2   -5.367369889677240E-1    1.914108634469185E-2
 6.457866224250000E9    -5.817148174663885E-1   -9.481878485234967E-2   -4.671628348653697E-3    5.483903636565424E-2   -1.960107393658942E-3    5.402006200783856E-2   -5.364232654245797E-1    2.098593113457244E-2
 6.457877684500000E9    -5.817052520233558E-1   -9.372029206683105E-2   -4.479229685772703E-3    5.527015998523140E-2   -1.799502149611930E-3    5.450295202856695E-2   -5.363798394977159E-1    2.259768622379439E-2
 6.457889144750000E9    -5.819229340622976E-1   -9.259200142311094E-2   -4.296859888595322E-3    5.574732549678486E-2   -1.653663540713771E-3    5.491037231443981E-2   -5.362101440603227E-1    2.421522385937343E-2
 6.457900605000000E9    -5.819773118818728E-1   -9.157251759518857E-2   -4.386621877581567E-3    5.615316890452646E-2   -1.532690690021465E-3    5.541397490800530E-2   -5.360653868080103E-1    2.602455682769531E-2
 6.457912065250000E9    -5.820467282653976E-1   -9.039572745628596E-2   -4.146423958538542E-3    5.667283726702542E-2   -1.402339578484676E-3    5.585961559405897E-2   -5.360147176272174E-1    2.760075815931682E-2
 6.457923525500000E9    -5.821330760455045E-1   -8.930207872591092E-2   -4.136429588353110E-3    5.710899760124610E-2   -1.274265003295919E-3    5.628987406880379E-2   -5.357846875945915E-1    2.938516326983844E-2
 6.457934985750000E9    -5.821753042939789E-1   -8.808269419963034E-2   -3.840794489970291E-3    5.766230045348830E-2   -1.041120007162314E-3    5.670353153816054E-2   -5.355780446142355E-1    3.115213467020134E-2
 6.457946446000000E9    -5.823403066504330E-1   -8.689027296893202E-2   -3.824457298783458E-3    5.808828163088980E-2   -8.859030838408131E-4    5.723854661180067E-2   -5.354315478989344E-1    3.295388344497134E-2
 6.457957906250000E9    -5.824597009131370E-1   -8.583620238018982E-2   -3.683401640237357E-3    5.873472185636832E-2   -7.764205588570881E-4    5.772146000523232E-2   -5.352223116993449E-1    3.483754924193284E-2
 6.457969366500000E9    -5.825123245408315E-1   -8.466241808104324E-2   -3.405932599376508E-3    5.926615032725711E-2   -6.270585939976563E-4    5.823990259549639E-2   -5.350647120708356E-1    3.653606211421435E-2
 6.457980826750000E9    -5.826429205696413E-1   -8.360163528825548E-2   -3.161620039441968E-3    5.967202396062144E-2   -3.530700962601061E-4    5.871276676309253E-2   -5.347127516853218E-1    3.828102058090187E-2
 6.457992287000000E9    -5.826506126456756E-1   -8.244152814213375E-2   -3.127409419476875E-3    6.023712455283452E-2   -1.751507229456734E-4    5.930324253670582E-2   -5.347434609608123E-1    4.018025381553923E-2
 6.458003747250000E9    -5.827592701992196E-1   -8.124694758684653E-2   -2.991109889991822E-3    6.079834756483199E-2   -8.102684994366924E-5    5.977502413406383E-2   -5.344775623587866E-1    4.200978636820879E-2
 6.458015207500000E9    -5.827566854467939E-1   -8.012053387255152E-2   -2.791952100278427E-3    6.156213063584592E-2    2.135707970305991E-4    6.035461524042306E-2   -5.341930417081591E-1    4.386350231618072E-2
