#  HZ   S   RI   R     50.00 
! Rohde & Schwarz Vector Network Analyzer 
! Rohde-Schwarz,ZNB20-2Port,1311601062101988,3.16
! Created: UTC 3/20/2024, 10:59:27 PM
! freq[Hz]                re:S11                  im:S11                  re:S21                  im:S21                  re:S12                  im:S12                  re:S22                  im:S22
 6.456976573000000E9    -5.661524548073720E-1   -1.735251267448143E-1   -9.132337300104872E-3    3.236191559792898E-2   -7.301710404533234E-3    3.239662171828081E-2   -5.315843778038406E-1   -8.635118883821942E-2
 6.456988060350000E9    -5.663918597306634E-1   -1.726369107808260E-1   -9.028671580009421E-3    3.267125575304681E-2   -7.287167278154337E-3    3.255663344272606E-2   -5.318076853446001E-1   -8.520230298635315E-2
 6.456999547700000E9    -5.666051736554972E-1   -1.716603205990529E-1   -9.033355785643455E-3    3.278621460220821E-2   -7.191617044525314E-3    3.281377928989410E-2   -5.320361923776540E-1   -8.404067413451738E-2
 6.457011035050000E9    -5.669658675187822E-1   -1.706770842184503E-1   -8.922446802806386E-3    3.299960273588219E-2   -7.175116078278732E-3    3.292834736387092E-2   -5.322526983435150E-1   -8.291608292426324E-2
 6.457022522400000E9    -5.672193563924666E-1   -1.696304115843112E-1   -8.958899898738800E-3    3.315104643250811E-2   -7.158702250422201E-3    3.320547270495092E-2   -5.325807604341483E-1   -8.163839642266216E-2
 6.457034009750000E9    -5.674743982988479E-1   -1.687739372970310E-1   -8.922800337746777E-3    3.334221777785032E-2   -7.119833709117054E-3    3.326911470880751E-2   -5.325695959665956E-1   -8.046553238447580E-2
 6.457045497100000E9    -5.676666532262575E-1   -1.679261244854112E-1   -8.818586281557265E-3    3.364608858610914E-2   -7.078788338611345E-3    3.349070695907930E-2   -5.327459271914591E-1   -7.932462896318911E-2
 6.457056984450000E9    -5.680258346462547E-1   -1.668645729453304E-1   -8.758429715479516E-3    3.382995665353585E-2   -7.122796966663731E-3    3.365233882355241E-2   -5.328754634787242E-1   -7.799562994399824E-2
 6.457068471800000E9    -5.683711137513262E-1   -1.659759182848818E-1   -8.783286248262027E-3    3.396263098338813E-2   -7.015657085551503E-3    3.393778543832050E-2   -5.328939409322008E-1   -7.684907588439480E-2
 6.457079959150000E9    -5.684926410626107E-1   -1.649221895105803E-1   -8.784240318527470E-3    3.411675544814417E-2   -7.015473876203926E-3    3.421008997715291E-2   -5.332330792723005E-1   -7.568058731537868E-2
 6.457091446500000E9    -5.687749886014293E-1   -1.640561504326100E-1   -8.866897377291901E-3    3.434634431631078E-2   -6.979256618640544E-3    3.430654337227075E-2   -5.333708412114078E-1   -7.439253868458193E-2
 6.457102933850000E9    -5.689786160326538E-1   -1.630765405212251E-1   -8.702587166029228E-3    3.461894773669105E-2   -6.920311788338759E-3    3.451951936272009E-2   -5.335351602050695E-1   -7.299438070000126E-2
 6.457114421200000E9    -5.692703362848094E-1   -1.621127907471971E-1   -8.758814656412836E-3    3.480427123158604E-2   -6.865524115970645E-3    3.473243416422332E-2   -5.336926579299133E-1   -7.203693989568777E-2
 6.457125908550000E9    -5.696087089807057E-1   -1.611151629415152E-1   -8.734795520369218E-3    3.507697758438771E-2   -6.803746992827674E-3    3.494195785519182E-2   -5.337541718744480E-1   -7.083047250239288E-2
 6.457137395900000E9    -5.697956539345335E-1   -1.602232403928535E-1   -8.758020307632130E-3    3.521325864280682E-2   -6.875069252276969E-3    3.514645122431152E-2   -5.339349095358767E-1   -6.954531384337770E-2
 6.457148883250000E9    -5.701003270247151E-1   -1.591555938155132E-1   -8.725167958954595E-3    3.549745221235295E-2   -6.747060871304183E-3    3.527990422268605E-2   -5.341947595576017E-1   -6.835165320335178E-2
 6.457160370600000E9    -5.703000751045429E-1   -1.582053250209508E-1   -8.615437673578228E-3    3.560377975677543E-2   -6.679187441230534E-3    3.548045031872303E-2   -5.342871700509126E-1   -6.714954661991181E-2
 6.457171857950000E9    -5.704569258986264E-1   -1.571884905443113E-1   -8.607939491245753E-3    3.581960705479680E-2   -6.739036483528303E-3    3.578812679231325E-2   -5.343921650300937E-1   -6.585349132383490E-2
 6.457183345300000E9    -5.707407463832188E-1   -1.562782383296552E-1   -8.604230607034576E-3    3.597211645568063E-2   -6.649296023147239E-3    3.595304882402434E-2   -5.344130292358591E-1   -6.460262709032524E-2
 6.457194832650000E9    -5.710541654249647E-1   -1.552828130558602E-1   -8.387114148961063E-3    3.623718659396075E-2   -6.567818785143397E-3    3.617162509703150E-2   -5.346638276172211E-1   -6.336518761937235E-2
 6.457206320000000E9    -5.712783376461399E-1   -1.542849322175064E-1   -8.451969936857512E-3    3.656789725089598E-2   -6.567012521569623E-3    3.637552794336322E-2   -5.348147480577119E-1   -6.199866823646007E-2
 6.457217807350000E9    -5.714518184555675E-1   -1.532735768852264E-1   -8.559209572625221E-3    3.668043724899652E-2   -6.424662450649890E-3    3.665421696873281E-2   -5.351779692837599E-1   -6.089605346653320E-2
 6.457229294700000E9    -5.716669341130463E-1   -1.523533762195363E-1   -8.566758765987397E-3    3.694077972744021E-2   -6.461429466336865E-3    3.675710014597503E-2   -5.351161314064482E-1   -5.957227529079635E-2
 6.457240782050000E9    -5.720041914598694E-1   -1.513878796068497E-1   -8.539739401137317E-3    3.735167346133055E-2   -6.511393706062274E-3    3.701507285355775E-2   -5.352111548354415E-1   -5.825683212734557E-2
 6.457252269400000E9    -5.721008027900163E-1   -1.504028569501863E-1   -8.285176175466671E-3    3.749858946165628E-2   -6.406373669343737E-3    3.729977104248083E-2   -5.353749341089022E-1   -5.709110707136693E-2
 6.457263756750000E9    -5.723278919863880E-1   -1.494087172748855E-1   -8.309772266658676E-3    3.763604441543518E-2   -6.328011156151898E-3    3.745253762203007E-2   -5.354529368403059E-1   -5.573521345618313E-2
 6.457275244100000E9    -5.725823872931590E-1   -1.483891181854263E-1   -8.325664599417509E-3    3.789933201681783E-2   -6.311851080171488E-3    3.774758202639969E-2   -5.356090292070529E-1   -5.445235491753019E-2
 6.457286731450000E9    -5.727935207537735E-1   -1.474439990065750E-1   -8.224444614111048E-3    3.820890295157624E-2   -6.308383291062601E-3    3.797834430813201E-2   -5.357754100453063E-1   -5.306902349650338E-2
 6.457298218800000E9    -5.730871114277009E-1   -1.464975809747721E-1   -8.192183330324522E-3    3.839282964572826E-2   -6.166353242185076E-3    3.826686436864955E-2   -5.358945847910945E-1   -5.180764260120835E-2
 6.457309706150000E9    -5.733239470011164E-1   -1.453374647981130E-1   -8.248402191613886E-3    3.850030586679192E-2   -6.172001602252105E-3    3.834280080948307E-2   -5.359191137302143E-1   -5.057107872740691E-2
 6.457321193500000E9    -5.735088438899421E-1   -1.445282667038935E-1   -7.986485293534471E-3    3.884610018170097E-2   -6.044911727030648E-3    3.859928228049005E-2   -5.360551018769639E-1   -4.927793570176697E-2
 6.457332680850000E9    -5.737044457944780E-1   -1.435358640344002E-1   -8.113067388812425E-3    3.906764184408602E-2   -6.082220489041197E-3    3.897266995512257E-2   -5.362460158475072E-1   -4.786695845005568E-2
 6.457344168200000E9    -5.739682147643784E-1   -1.424273289209896E-1   -8.024763221387744E-3    3.935977565718787E-2   -5.983533660566158E-3    3.920273376507775E-2   -5.362934335018569E-1   -4.663007519039217E-2
 6.457355655550000E9    -5.741952674774773E-1   -1.415537693062937E-1   -8.044042204957696E-3    3.973641953264256E-2   -5.962727095154415E-3    3.936086382295490E-2   -5.363001052328179E-1   -4.529340775575474E-2
 6.457367142900000E9    -5.744205733270754E-1   -1.404732113857093E-1   -8.022543156827391E-3    3.996063362720965E-2   -5.887990840248064E-3    3.964702478381307E-2   -5.365274130238665E-1   -4.390752702702604E-2
 6.457378630250000E9    -5.745585649369727E-1   -1.395663113763268E-1   -7.849030106064907E-3    4.016965021815135E-2   -5.778969122999909E-3    4.000375465777137E-2   -5.364789395465394E-1   -4.263638254032828E-2
 6.457390117600000E9    -5.748025701158654E-1   -1.384769635359716E-1   -7.899354217257282E-3    4.037868126539267E-2   -5.663498008193135E-3    4.016058847284863E-2   -5.367276733169528E-1   -4.130611786473871E-2
 6.457401604950000E9    -5.749222625784690E-1   -1.373957864998863E-1   -7.923166928815674E-3    4.071830806880126E-2   -5.754196962889290E-3    4.049291573449142E-2   -5.367101744899451E-1   -3.990575371827480E-2
 6.457413092300000E9    -5.751201181874863E-1   -1.363944577831492E-1   -7.774860819689453E-3    4.092277074209479E-2   -5.601521424653685E-3    4.055948541344453E-2   -5.368750049018437E-1   -3.853214543614585E-2
 6.457424579650000E9    -5.755021564796788E-1   -1.355862345894985E-1   -7.736413590041476E-3    4.124967217989789E-2   -5.558875642938252E-3    4.102062375991552E-2   -5.368954194173056E-1   -3.720896434470902E-2
 6.457436067000000E9    -5.756097362942286E-1   -1.343937177540880E-1   -7.650196377480366E-3    4.148579140751316E-2   -5.559201814796162E-3    4.122959154725016E-2   -5.370371315536258E-1   -3.578465978079728E-2
 6.457447554350000E9    -5.758402619945523E-1   -1.333921004128855E-1   -7.660042357795958E-3    4.183490063095986E-2   -5.483705142336237E-3    4.148093775487235E-2   -5.370029126966233E-1   -3.448573409101349E-2
 6.457459041700000E9    -5.760098904237384E-1   -1.324801082387809E-1   -7.544854633005043E-3    4.211429176208829E-2   -5.407691500578963E-3    4.181809689022403E-2   -5.370819004929281E-1   -3.304121109080520E-2
 6.457470529050000E9    -5.763122800823608E-1   -1.313644934917287E-1   -7.499509573415969E-3    4.227561885787305E-2   -5.409498439416060E-3    4.208029605268430E-2   -5.370438313294249E-1   -3.178214244396366E-2
 6.457482016400000E9    -5.764153512614097E-1   -1.303045419701146E-1   -7.504011933861320E-3    4.263055046589189E-2   -5.220581317312250E-3    4.232624278538834E-2   -5.372494470981215E-1   -3.037187901072435E-2
 6.457493503750000E9    -5.765906181412839E-1   -1.293059349694594E-1   -7.420781541163973E-3    4.290141258355792E-2   -5.218029106721016E-3    4.254730826641775E-2   -5.374556461422815E-1   -2.891005244845128E-2
 6.457504991100000E9    -5.768465159082168E-1   -1.283705690587250E-1   -7.310662331088249E-3    4.327683674208594E-2   -5.072522974038828E-3    4.298628991979159E-2   -5.372624344147073E-1   -2.763677389678598E-2
 6.457516478450000E9    -5.769471507706213E-1   -1.272391192633506E-1   -7.330050267625433E-3    4.368162621101118E-2   -5.046437230660743E-3    4.318535236145124E-2   -5.374064439148359E-1   -2.614600223507065E-2
 6.457527965800000E9    -5.771246952975432E-1   -1.262723089394176E-1   -7.257783450423237E-3    4.381616560461096E-2   -4.957278594792539E-3    4.349825025209868E-2   -5.374368201450080E-1   -2.478038552164751E-2
 6.457539453150000E9    -5.774535847861203E-1   -1.252721487402950E-1   -7.198953359321287E-3    4.420611898110161E-2   -4.789563458972524E-3    4.373391912861236E-2   -5.374544097705669E-1   -2.342942139625990E-2
 6.457550940500000E9    -5.776658906496832E-1   -1.241865655925595E-1   -7.202127288893773E-3    4.444018784947633E-2   -4.741943814539516E-3    4.406216831925464E-2   -5.374414664495254E-1   -2.186655429630592E-2
 6.457562427850000E9    -5.778403244598858E-1   -1.232394761030988E-1   -7.063593632118565E-3    4.481113076117062E-2   -4.775756688958816E-3    4.438923695039121E-2   -5.376164882380448E-1   -2.046895727486418E-2
 6.457573915200000E9    -5.780237062102517E-1   -1.221075612215179E-1   -7.017720816293320E-3    4.513166036550778E-2   -4.674977075109072E-3    4.464368289139446E-2   -5.376125444997406E-1   -1.881857647088753E-2
 6.457585402550000E9    -5.781536278689824E-1   -1.210216274332852E-1   -6.842825512221097E-3    4.537490062456118E-2   -4.634842529783206E-3    4.498782923054075E-2   -5.376048688086899E-1   -1.757010653103026E-2
 6.457596889900000E9    -5.782792892046220E-1   -1.201167719083097E-1   -6.960760914325372E-3    4.568474317081363E-2   -4.449571077627487E-3    4.531295140450835E-2   -5.375920731120967E-1   -1.592888462525770E-2
 6.457608377250000E9    -5.785394527752448E-1   -1.189499024306846E-1   -6.747427135666085E-3    4.603064612563118E-2   -4.402493179539575E-3    4.562530546944738E-2   -5.375407457432726E-1   -1.472029546251993E-2
 6.457619864600000E9    -5.786128176587403E-1   -1.178889214727453E-1   -6.648262687270743E-3    4.636372460749675E-2   -4.343200845112708E-3    4.600313355938660E-2   -5.375906797651860E-1   -1.321210056482329E-2
 6.457631351950000E9    -5.787664167067569E-1   -1.168625567578333E-1   -6.686767853530080E-3    4.687491526806631E-2   -4.242373559254280E-3    4.630506013661914E-2   -5.377007061007512E-1   -1.173406186565908E-2
 6.457642839300000E9    -5.789983657707094E-1   -1.158942722966503E-1   -6.551493643558490E-3    4.705910036135242E-2   -4.173195438444546E-3    4.660264801158705E-2   -5.375122452899783E-1   -1.013438255740726E-2
 6.457654326650000E9    -5.791806719780024E-1   -1.147727958108000E-1   -6.404836045731023E-3    4.750941337145510E-2   -4.007198720362433E-3    4.700766477847875E-2   -5.375240626408881E-1   -8.592145120992559E-3
 6.457665814000000E9    -5.792613611065424E-1   -1.138686446368709E-1   -6.427217767516905E-3    4.789402952029457E-2   -3.895483382723879E-3    4.728956020814959E-2   -5.376787866724007E-1   -7.159373422252232E-3
 6.457677301350000E9    -5.794763497466104E-1   -1.125702907781613E-1   -6.384639015847751E-3    4.827477963172935E-2   -3.861642809436664E-3    4.771918309131280E-2   -5.375953236419864E-1   -5.496562932226118E-3
 6.457688788700000E9    -5.795420456655513E-1   -1.116633611049148E-1   -6.130473955118837E-3    4.845254761945907E-2   -3.794772760340459E-3    4.801248395366139E-2   -5.375021608248726E-1   -4.184965333361007E-3
 6.457700276050000E9    -5.797991976298597E-1   -1.104307220648362E-1   -6.056877928346195E-3    4.892689228102802E-2   -3.642013152247358E-3    4.834384054850185E-2   -5.374882743915971E-1   -2.575928918623840E-3
 6.457711763400000E9    -5.798476786144798E-1   -1.095040254501766E-1   -5.987358785902976E-3    4.923626470778809E-2   -3.546305421069039E-3    4.869118789586382E-2   -5.374274660283894E-1   -1.030357028653104E-3
 6.457723250750000E9    -5.800751068794610E-1   -1.084011103355537E-1   -5.846405478073820E-3    4.972580291275510E-2   -3.546505444799547E-3    4.903569407535813E-2   -5.374851930275852E-1    5.032951716379475E-4
 6.457734738100000E9    -5.801671160421121E-1   -1.073022425436678E-1   -5.859558139158758E-3    4.997133135511981E-2   -3.367466839317969E-3    4.952865321626262E-2   -5.375311429521897E-1    1.917131373311932E-3
 6.457746225450000E9    -5.803064530348591E-1   -1.063350620921249E-1   -5.873579230095526E-3    5.046976591220299E-2   -3.225592105770760E-3    4.983687549878940E-2   -5.373308568976067E-1    3.592375774544355E-3
 6.457757712800000E9    -5.804530744055929E-1   -1.052080523827941E-1   -5.726027043649324E-3    5.077765348905666E-2   -3.162940716019225E-3    5.023779180205837E-2   -5.372475745010975E-1    5.212621936590561E-3
 6.457769200150000E9    -5.806658874062263E-1   -1.040332444635423E-1   -5.584820865033408E-3    5.115259878683456E-2   -3.004433114444209E-3    5.063127373370510E-2   -5.372291866322197E-1    6.691721659959238E-3
 6.457780687500000E9    -5.807823346460852E-1   -1.029764458573784E-1   -5.469622886880870E-3    5.156364874646823E-2   -2.924136192549192E-3    5.103244633522901E-2   -5.371316420625418E-1    8.391540523670613E-3
 6.457792174850000E9    -5.807639835780075E-1   -1.019123636508374E-1   -5.520947278414084E-3    5.199034688856528E-2   -2.798475381500566E-3    5.146162961766050E-2   -5.372009606364256E-1    9.977515081998461E-3
 6.457803662200000E9    -5.810332255508248E-1   -1.008412499336563E-1   -5.249725129111236E-3    5.254512704353081E-2   -2.593538559948805E-3    5.185136966188644E-2   -5.370938994770058E-1    1.176786419522550E-2
 6.457815149550000E9    -5.810731648641257E-1   -9.976745300160308E-2   -5.150600996805787E-3    5.285371007423941E-2   -2.651633001377708E-3    5.223931928459294E-2   -5.369766780319765E-1    1.332101071618108E-2
 6.457826636900000E9    -5.812369896955326E-1   -9.865505327263167E-2   -5.057885010202183E-3    5.330565435010447E-2   -2.247586524666938E-3    5.263596861644393E-2   -5.368004121112286E-1    1.497801431642466E-2
 6.457838124250000E9    -5.813986349146403E-1   -9.751587469756728E-2   -4.933747487624112E-3    5.375362259929836E-2   -2.337391812092122E-3    5.306286210115266E-2   -5.366646409162492E-1    1.659302301977570E-2
 6.457849611600000E9    -5.815363014615370E-1   -9.626736033762121E-2   -4.789194517540625E-3    5.422918902875410E-2   -2.148430336265888E-3    5.347195042827420E-2   -5.365666040120508E-1    1.824899224559207E-2
 6.457861098950000E9    -5.816240072168618E-1   -9.527305511683866E-2   -4.744645694154116E-3    5.464247646836234E-2   -2.018269514528717E-3    5.389258353325436E-2   -5.363723743499970E-1    1.982960640218069E-2
 6.457872586300000E9    -5.816936186939496E-1   -9.417864531419121E-2   -4.477079410329353E-3    5.525212326800288E-2   -1.986823790148451E-3    5.438778661827341E-2   -5.362270053296433E-1    2.155437770759809E-2
 6.457884073650000E9    -5.818316397696965E-1   -9.306782899033740E-2   -4.511610728220219E-3    5.565919772049701E-2   -1.743111449991161E-3    5.476543530446128E-2   -5.361100989286584E-1    2.332262705115941E-2
 6.457895561000000E9    -5.819136832273233E-1   -9.201974180018832E-2   -4.236544107018986E-3    5.604828712422238E-2   -1.551387519757286E-3    5.529548142729802E-2   -5.360617523679380E-1    2.508392742266060E-2
 6.457907048350000E9    -5.820319535460403E-1   -9.076667122953519E-2   -4.201040536076702E-3    5.663711141723443E-2   -1.411955984316248E-3    5.579923952571265E-2   -5.358607339469664E-1    2.683827297978861E-2
 6.457918535700000E9    -5.821951796759894E-1   -8.965811256777288E-2   -4.056397508608196E-3    5.705878965507668E-2   -1.318395732937396E-3    5.618947436989889E-2   -5.357180119419636E-1    2.857510852374025E-2
 6.457930023050000E9    -5.821616326108613E-1   -8.860363432658250E-2   -4.019155236330937E-3    5.759880478911726E-2   -1.191700516634996E-3    5.662884487997134E-2   -5.355622943453840E-1    3.035772294136176E-2
 6.457941510400000E9    -5.822996774250208E-1   -8.737338087108727E-2   -3.825449929800477E-3    5.802527222071718E-2   -9.629890359220064E-4    5.716922969454585E-2   -5.354065364086295E-1    3.200773316460157E-2
 6.457952997750000E9    -5.823997032549734E-1   -8.635496449647129E-2   -3.607487174208246E-3    5.843937235176378E-2   -7.923823190844857E-4    5.771873584671212E-2   -5.350988464938816E-1    3.395089477044501E-2
 6.457964485100000E9    -5.824782154641949E-1   -8.509073013253027E-2   -3.460429599635213E-3    5.904840004791275E-2   -6.706335492491589E-4    5.819796317813666E-2   -5.348713403286531E-1    3.571554312859282E-2
 6.457975972450000E9    -5.825796921243460E-1   -8.390117770306432E-2   -3.368007589174581E-3    5.960211349175078E-2   -4.483826734981608E-4    5.864878041611161E-2   -5.348370925057218E-1    3.751143192814704E-2
 6.457987459800000E9    -5.826881461904293E-1   -8.273787036966571E-2   -3.227680716594356E-3    6.015884962803856E-2   -1.992840901825247E-4    5.920417389138954E-2   -5.345344545212295E-1    3.929255486615740E-2
 6.457998947150000E9    -5.827255312907079E-1   -8.168716944333100E-2   -2.894888523310989E-3    6.070292066205076E-2   -5.709895123015138E-5    5.965362655624516E-2   -5.343885910624734E-1    4.112804212911408E-2
 6.458010434500000E9    -5.829133134103883E-1   -8.052867339047305E-2   -2.803996422626217E-3    6.132219762844639E-2    1.172342317179442E-4    6.017808690949682E-2   -5.340956897077650E-1    4.306637564873265E-2
