#  HZ   S   RI   R     50.00 
! Rohde & Schwarz Vector Network Analyzer 
! Rohde-Schwarz,ZNB20-2Port,1311601062101988,3.16
! Created: UTC 3/20/2024, 10:59:59 PM
! freq[Hz]                re:S11                  im:S11                  re:S21                  im:S21                  re:S12                  im:S12                  re:S22                  im:S22
 6.456968894000000E9    -5.659493250271711E-1   -1.740535753473182E-1   -9.109535481761081E-3    3.237099063157078E-2   -7.326641922819415E-3    3.229599812761036E-2   -5.313992176931077E-1   -8.748810747222953E-2
 6.456980402275000E9    -5.661957439909665E-1   -1.731181530377619E-1   -8.927074889716915E-3    3.258707925722976E-2   -7.325527592430537E-3    3.260313169226859E-2   -5.313425183582408E-1   -8.617905781139598E-2
 6.456991910550000E9    -5.664695400253492E-1   -1.722743246631327E-1   -9.074641381997012E-3    3.270129259667035E-2   -7.252793399010768E-3    3.276547441586920E-2   -5.316541924912622E-1   -8.513868054882091E-2
 6.457003418825000E9    -5.667392471916027E-1   -1.713236802957243E-1   -9.040940573028497E-3    3.287603609136196E-2   -7.245245262359762E-3    3.292371840000786E-2   -5.318730551359394E-1   -8.394093788171056E-2
 6.457014927100000E9    -5.669919211575577E-1   -1.704783391628090E-1   -9.001904050498144E-3    3.321229064638131E-2   -7.217178893224731E-3    3.310050188923043E-2   -5.321582659442345E-1   -8.276571146571797E-2
 6.457026435375000E9    -5.672726247848677E-1   -1.694337395888472E-1   -8.929670897657605E-3    3.325807023575494E-2   -7.197834273229110E-3    3.324130762101809E-2   -5.321978854916505E-1   -8.159756317670171E-2
 6.457037943650000E9    -5.676175955051103E-1   -1.684109921220765E-1   -8.784299365045295E-3    3.348642535260055E-2   -7.021951383183723E-3    3.350857062057571E-2   -5.323450103901698E-1   -8.033795260684412E-2
 6.457049451925000E9    -5.678530803997331E-1   -1.675125355923742E-1   -8.847596803566051E-3    3.367409922113257E-2   -7.082392662784975E-3    3.355954146607640E-2   -5.325789843513753E-1   -7.921079450827005E-2
 6.457060960200000E9    -5.680256345938357E-1   -1.665505297023361E-1   -8.971205584270210E-3    3.388491019806952E-2   -7.170007725305145E-3    3.395725559108678E-2   -5.328783400829840E-1   -7.808020659742164E-2
 6.457072468475000E9    -5.683171924253959E-1   -1.655149898750121E-1   -8.699647047563179E-3    3.410801518189732E-2   -7.001666086203371E-3    3.399235621587031E-2   -5.330053219447141E-1   -7.680173411991073E-2
 6.457083976750000E9    -5.685553481110903E-1   -1.646075910551009E-1   -8.926851294583314E-3    3.419911629803880E-2   -6.971770184220795E-3    3.423231601199010E-2   -5.330769439707553E-1   -7.546470292444424E-2
 6.457095485025000E9    -5.688247942129235E-1   -1.636045120781149E-1   -8.938427623836254E-3    3.453174790427620E-2   -6.992252346061841E-3    3.435606487056358E-2   -5.332729265987424E-1   -7.423731165549292E-2
 6.457106993300000E9    -5.691698260998178E-1   -1.626931137541867E-1   -8.690151228223567E-3    3.477082594592504E-2   -6.909542927128885E-3    3.455834300825201E-2   -5.333892406707930E-1   -7.304599872565322E-2
 6.457118501575000E9    -5.693705970823182E-1   -1.616841699384426E-1   -8.733383433708879E-3    3.492850004497247E-2   -6.927282968358833E-3    3.479091574609552E-2   -5.335302946879757E-1   -7.185290351542203E-2
 6.457130009850000E9    -5.696216934915521E-1   -1.606837064297473E-1   -8.662397859170426E-3    3.519682430767940E-2   -6.872193598311651E-3    3.501185495377616E-2   -5.337651087479681E-1   -7.057043923094053E-2
 6.457141518125000E9    -5.698784905451970E-1   -1.598205213616347E-1   -8.739261826293089E-3    3.522782089848511E-2   -6.793183999725403E-3    3.525582588137690E-2   -5.339124166576824E-1   -6.919951859269666E-2
 6.457153026400000E9    -5.699785784659999E-1   -1.587543848587894E-1   -8.742799346199894E-3    3.557042407027360E-2   -6.692463896274506E-3    3.548815126120814E-2   -5.340317074501817E-1   -6.816604021355570E-2
 6.457164534675000E9    -5.703811097489920E-1   -1.578924033320769E-1   -8.630952307029999E-3    3.570792524328160E-2   -6.681236290585317E-3    3.573843755444034E-2   -5.343134540200241E-1   -6.696470831936281E-2
 6.457176042950000E9    -5.705782807938508E-1   -1.567891125056967E-1   -8.597349291687614E-3    3.602378766734894E-2   -6.713807314827511E-3    3.582034498876269E-2   -5.343063693944645E-1   -6.564559069407984E-2
 6.457187551225000E9    -5.708642846790568E-1   -1.558544958180017E-1   -8.596959237273641E-3    3.614171988153175E-2   -6.563935033101046E-3    3.618124083684304E-2   -5.345570395891508E-1   -6.439170355547746E-2
 6.457199059500000E9    -5.710659599247905E-1   -1.548016488228975E-1   -8.633590711011496E-3    3.637596859400422E-2   -6.601327858879017E-3    3.639622627119896E-2   -5.346023268503807E-1   -6.312246394055507E-2
 6.457210567775000E9    -5.713675367894564E-1   -1.539845085190362E-1   -8.447179007033961E-3    3.658738461469512E-2   -6.558087076683841E-3    3.660586855954507E-2   -5.346984482958068E-1   -6.189666207052063E-2
 6.457222076050000E9    -5.715877841979651E-1   -1.529903698272684E-1   -8.385205829801179E-3    3.678770011251097E-2   -6.423443434155918E-3    3.672275807125401E-2   -5.348972733439509E-1   -6.060827084640244E-2
 6.457233584325000E9    -5.717643523709798E-1   -1.518942622464926E-1   -8.537198712987847E-3    3.700197129694477E-2   -6.453934759338956E-3    3.698331434486552E-2   -5.350262091314321E-1   -5.947286412026532E-2
 6.457245092600000E9    -5.719609537279096E-1   -1.510142460219198E-1   -8.277420414307008E-3    3.731090418534980E-2   -6.467260976446071E-3    3.719908101908589E-2   -5.351206772111107E-1   -5.791889854809958E-2
 6.457256600875000E9    -5.722171848555603E-1   -1.498845612650218E-1   -8.355946447634231E-3    3.752680702552331E-2   -6.312513646222148E-3    3.742449545548773E-2   -5.353028855436293E-1   -5.682449619614446E-2
 6.457268109150000E9    -5.724068109806012E-1   -1.489168288203164E-1   -8.369015473922901E-3    3.778506280599774E-2   -6.327823609393700E-3    3.765938402087038E-2   -5.353252318350432E-1   -5.540477090350390E-2
 6.457279617425000E9    -5.726490152677925E-1   -1.480075079669258E-1   -8.302403819576218E-3    3.808344363639492E-2   -6.269440014699992E-3    3.789225154818689E-2   -5.353701149435839E-1   -5.400087185359050E-2
 6.457291125700000E9    -5.730042709785786E-1   -1.469721539551636E-1   -8.124323731904075E-3    3.829131267909327E-2   -6.277189607697614E-3    3.804712178657336E-2   -5.356063021821935E-1   -5.277456690686752E-2
 6.457302633975000E9    -5.731782111316209E-1   -1.459706105606290E-1   -8.196222761938123E-3    3.854380276417953E-2   -6.180264849211420E-3    3.833354455905134E-2   -5.356639537153387E-1   -5.164382847470123E-2
 6.457314142250000E9    -5.733785522839094E-1   -1.449829694831462E-1   -8.121358843012129E-3    3.870863176032076E-2   -6.170364143644262E-3    3.855973898333517E-2   -5.358204796318068E-1   -5.025460927748455E-2
 6.457325650525000E9    -5.736636884607329E-1   -1.440520979583496E-1   -8.076158370719334E-3    3.901642757904983E-2   -6.126452351025859E-3    3.887413108777604E-2   -5.360409195324242E-1   -4.902970982767801E-2
 6.457337158800000E9    -5.737905462772606E-1   -1.430141521123187E-1   -8.089969704026898E-3    3.914628362307587E-2   -5.985104317003006E-3    3.909723170462346E-2   -5.359826285086411E-1   -4.766338220327231E-2
 6.457348667075000E9    -5.739577134837092E-1   -1.420163936993507E-1   -8.009073723541996E-3    3.958406436604484E-2   -5.920486126734232E-3    3.925753521112172E-2   -5.360367189394899E-1   -4.634312961182865E-2
 6.457360175350000E9    -5.743461206143761E-1   -1.410121700113250E-1   -7.990707982102753E-3    3.981287389662518E-2   -5.917947282827346E-3    3.957512139963902E-2   -5.362512088319896E-1   -4.502405195795439E-2
 6.457371683625000E9    -5.744898407947743E-1   -1.400561367964214E-1   -8.092968794498756E-3    3.995414128653293E-2   -5.936666695993660E-3    3.983676897879884E-2   -5.362951479501378E-1   -4.378250071167626E-2
 6.457383191900000E9    -5.747437251313666E-1   -1.389343164834587E-1   -7.984540775892448E-3    4.032980214959538E-2   -5.739826641931628E-3    4.005021133228130E-2   -5.364661811911408E-1   -4.237559610393085E-2
 6.457394700175000E9    -5.748094572981798E-1   -1.380453565777053E-1   -7.772615274070339E-3    4.045588913778170E-2   -5.748121336805517E-3    4.043348000256929E-2   -5.365256831529157E-1   -4.088533511328397E-2
 6.457406208450000E9    -5.750968782845316E-1   -1.369605145289441E-1   -7.839254605928556E-3    4.088789959217599E-2   -5.649114913312399E-3    4.063080112976895E-2   -5.366893934140841E-1   -3.960736878052130E-2
 6.457417716725000E9    -5.752601574616253E-1   -1.360291895834619E-1   -7.716290051085432E-3    4.111072500248532E-2   -5.600837098349028E-3    4.082219951771537E-2   -5.367133373174908E-1   -3.829870997171981E-2
 6.457429225000000E9    -5.756180277200384E-1   -1.348980957665784E-1   -7.782577724990860E-3    4.139722612586060E-2   -5.606393868654801E-3    4.123213030165490E-2   -5.368415153165631E-1   -3.699460353209388E-2
 6.457440733275000E9    -5.758265457440545E-1   -1.339232148715076E-1   -7.701092975310030E-3    4.172280532835436E-2   -5.505475449891560E-3    4.142949543935280E-2   -5.368363500045348E-1   -3.544922069007767E-2
 6.457452241550000E9    -5.759046452625106E-1   -1.328352377360773E-1   -7.440726105021849E-3    4.204075663988308E-2   -5.469502196897229E-3    4.172810638811830E-2   -5.368949283573926E-1   -3.402411902770910E-2
 6.457463749825000E9    -5.761643006843886E-1   -1.319278043192006E-1   -7.545562624645567E-3    4.221980519355280E-2   -5.343523485301453E-3    4.191848325306032E-2   -5.369004076885060E-1   -3.282332882665369E-2
 6.457475258100000E9    -5.763082831266916E-1   -1.309171488273966E-1   -7.607540243525614E-3    4.250959532984940E-2   -5.296424418036690E-3    4.228693986093028E-2   -5.371620813632207E-1   -3.143134834376754E-2
 6.457486766375000E9    -5.764599033267478E-1   -1.299587950032871E-1   -7.380038102471071E-3    4.289572654431300E-2   -5.142922015887673E-3    4.258265855292295E-2   -5.371792786258932E-1   -3.011732491683446E-2
 6.457498274650000E9    -5.767278554675053E-1   -1.288836152467738E-1   -7.372965904003175E-3    4.295354320617249E-2   -5.185834535522474E-3    4.274156283973624E-2   -5.371734537492369E-1   -2.863183090938785E-2
 6.457509782925000E9    -5.769354044674612E-1   -1.278689248658931E-1   -7.332613662206691E-3    4.344092572131759E-2   -5.069279540203092E-3    4.319307665155236E-2   -5.372711806261762E-1   -2.708172255372640E-2
 6.457521291200000E9    -5.771065949530125E-1   -1.267206152801029E-1   -7.336557852658309E-3    4.377789618668268E-2   -5.015055185244820E-3    4.337797879615666E-2   -5.372693133332760E-1   -2.568707818610610E-2
 6.457532799475000E9    -5.771968359182695E-1   -1.257614433573014E-1   -7.203277477777719E-3    4.408263550085503E-2   -4.987268992077456E-3    4.370194521387407E-2   -5.372739374133394E-1   -2.446814920788144E-2
 6.457544307750000E9    -5.774174509006499E-1   -1.248402879791507E-1   -7.326363861377944E-3    4.436071098987036E-2   -4.859254600799417E-3    4.402296823482632E-2   -5.373160600756872E-1   -2.286669546427626E-2
 6.457555816025000E9    -5.775995276672178E-1   -1.237479219360444E-1   -7.070051524823697E-3    4.469578027432750E-2   -4.701545282358637E-3    4.438079277681913E-2   -5.373789557440538E-1   -2.152293287799452E-2
 6.457567324300000E9    -5.778125412572109E-1   -1.227062002833832E-1   -6.954516479747827E-3    4.506125836149091E-2   -4.627455774310637E-3    4.458543411783890E-2   -5.374915369094861E-1   -2.018912545227319E-2
 6.457578832575000E9    -5.780032269315389E-1   -1.216816863840031E-1   -7.016423055227758E-3    4.528302230793795E-2   -4.520983315465422E-3    4.498832964863669E-2   -5.373546473215637E-1   -1.856610946903355E-2
 6.457590340850000E9    -5.782581630850602E-1   -1.205941636695811E-1   -6.815379623664648E-3    4.570024999005474E-2   -4.563078838606981E-3    4.527932952679229E-2   -5.374685502904808E-1   -1.731811999874544E-2
 6.457601849125000E9    -5.783609065771951E-1   -1.195421094778923E-1   -6.813474224560112E-3    4.601680945619874E-2   -4.453967983781123E-3    4.556502578295842E-2   -5.374394817590709E-1   -1.556836514169631E-2
 6.457613357400000E9    -5.785318964979461E-1   -1.184645439458228E-1   -6.679841730079962E-3    4.621437451983337E-2   -4.300893548699583E-3    4.596130188619839E-2   -5.375369780146602E-1   -1.423749771892164E-2
 6.457624865675000E9    -5.786333901780043E-1   -1.173379141237259E-1   -6.730404576487631E-3    4.671572495489678E-2   -4.236356323762694E-3    4.620501095767949E-2   -5.373933015121513E-1   -1.269195753291165E-2
 6.457636373950000E9    -5.788179126363754E-1   -1.164060816082156E-1   -6.675046451613915E-3    4.713089435994830E-2   -4.203183814777579E-3    4.659228306630672E-2   -5.373569262370917E-1   -1.134105492709068E-2
 6.457647882225000E9    -5.790110644555423E-1   -1.153547024944607E-1   -6.641059188574533E-3    4.739731052603073E-2   -4.083737450077079E-3    4.691934009418790E-2   -5.375162005131278E-1   -9.667230896915204E-3
 6.457659390500000E9    -5.792410318513459E-1   -1.143088114430198E-1   -6.472915786807250E-3    4.768124353635586E-2   -4.012201822711400E-3    4.723512590019386E-2   -5.372956761426759E-1   -8.265820705959820E-3
 6.457670898775000E9    -5.792844505723999E-1   -1.132261367690004E-1   -6.295251199360272E-3    4.807497458207911E-2   -3.939125708080624E-3    4.761485524398663E-2   -5.373446109859941E-1   -6.694372753506261E-3
 6.457682407050000E9    -5.795732618851042E-1   -1.121289738632826E-1   -6.299701907573017E-3    4.857404956911103E-2   -3.805203422406787E-3    4.793860420654991E-2   -5.372993539136591E-1   -5.240538318134299E-3
 6.457693915325000E9    -5.796185062275114E-1   -1.109982953368241E-1   -6.249956122613877E-3    4.877501249104324E-2   -3.733630468091733E-3    4.840583181320156E-2   -5.374396423283412E-1   -3.683382731285193E-3
 6.457705423600000E9    -5.798889031415012E-1   -1.100106912127061E-1   -5.987498921951142E-3    4.918890386970095E-2   -3.656957695042876E-3    4.871986479914905E-2   -5.372739810739459E-1   -2.021212347090442E-3
 6.457716931875000E9    -5.800007087396244E-1   -1.089102973959168E-1   -6.113456516285851E-3    4.965939269611139E-2   -3.533905928241483E-3    4.906813104865720E-2   -5.373949734970407E-1   -5.522276294227507E-4
 6.457728440150000E9    -5.801467196808380E-1   -1.078547022343590E-1   -6.025991434202277E-3    4.993718317316335E-2   -3.424218987626315E-3    4.933727921971616E-2   -5.373252108585036E-1    1.137774256744687E-3
 6.457739948425000E9    -5.802699481102106E-1   -1.069327587078144E-1   -5.890688973241612E-3    5.046038265810205E-2   -3.356020962601778E-3    4.978782714610887E-2   -5.371309076651484E-1    2.579033439900269E-3
 6.457751456700000E9    -5.804262848139344E-1   -1.057153904579700E-1   -5.821218988106960E-3    5.074726566616798E-2   -3.202217460645572E-3    5.014310125362352E-2   -5.371555666550391E-1    4.067732028227999E-3
 6.457762964975000E9    -5.804794481067788E-1   -1.045894325400635E-1   -5.646034637786723E-3    5.118782002718150E-2   -3.086969037358279E-3    5.058500654171555E-2   -5.370497632471533E-1    5.761996362856981E-3
 6.457774473250000E9    -5.805696270741072E-1   -1.034672861459806E-1   -5.519845130094962E-3    5.149664426138878E-2   -2.905185367594317E-3    5.095963857223759E-2   -5.369931181140259E-1    7.482009265282550E-3
 6.457785981525000E9    -5.807603054092182E-1   -1.023522146846839E-1   -5.458631225605070E-3    5.193824235953826E-2   -2.847898181010735E-3    5.128965978934167E-2   -5.369255319864440E-1    8.888874290492423E-3
 6.457797489800000E9    -5.808796505850219E-1   -1.013107333466162E-1   -5.379095838625895E-3    5.237450919826560E-2   -2.693192375239574E-3    5.174890296536845E-2   -5.367522966983681E-1    1.056328497326210E-2
 6.457808998075000E9    -5.809764171963566E-1   -1.002668146396982E-1   -5.137992728393394E-3    5.278966447100642E-2   -2.613548526590658E-3    5.214555906894356E-2   -5.367987411419569E-1    1.219636318054002E-2
 6.457820506350000E9    -5.811747079953021E-1   -9.917550808427757E-2   -5.180985820400565E-3    5.330507217168796E-2   -2.494560087151390E-3    5.261567422136769E-2   -5.368987194304242E-1    1.390369061939254E-2
 6.457832014625000E9    -5.813156109038330E-1   -9.804901514672412E-2   -5.007227861300962E-3    5.362353716276082E-2   -2.316117454963987E-3    5.309881623602108E-2   -5.366645201531411E-1    1.561369903584902E-2
 6.457843522900000E9    -5.812595209545455E-1   -9.696447050547251E-2   -4.906038307186735E-3    5.397166613516421E-2   -2.210134021020583E-3    5.347352754821554E-2   -5.364504602290000E-1    1.730190568628062E-2
 6.457855031175000E9    -5.814732539069355E-1   -9.573871451974691E-2   -4.717336047477172E-3    5.466060953845927E-2   -2.082562378770574E-3    5.387900945950850E-2   -5.363759833307633E-1    1.895507782980218E-2
 6.457866539450000E9    -5.815663080189445E-1   -9.456978977591182E-2   -4.525444959351991E-3    5.504449482363173E-2   -1.882659087190786E-3    5.432942891916662E-2   -5.361657934240385E-1    2.061096411938917E-2
 6.457878047725000E9    -5.818136373242175E-1   -9.354866535821657E-2   -4.432080330443944E-3    5.552038469331041E-2   -1.807895049474027E-3    5.472825524215595E-2   -5.360177080030422E-1    2.232239505090078E-2
 6.457889556000000E9    -5.819340971796259E-1   -9.246389848830584E-2   -4.454530209778518E-3    5.594543514920013E-2   -1.635561081769297E-3    5.518298463883485E-2   -5.360623735747210E-1    2.400973806957122E-2
 6.457901064275000E9    -5.819178703536546E-1   -9.137707653733045E-2   -4.304550898656668E-3    5.650263212277330E-2   -1.604296769187492E-3    5.561351563338989E-2   -5.356997350744577E-1    2.583311075163764E-2
 6.457912572550000E9    -5.820154074685028E-1   -9.015840602001482E-2   -4.225379528125957E-3    5.702124599237165E-2   -1.328994281349363E-3    5.608149033556255E-2   -5.355408145008622E-1    2.751927935387815E-2
 6.457924080825000E9    -5.821702037384563E-1   -8.895155337510832E-2   -4.015821425486377E-3    5.746738844374150E-2   -1.284105727475197E-3    5.649982388601065E-2   -5.354796437808658E-1    2.949134298652921E-2
 6.457935589100000E9    -5.822131108742030E-1   -8.800028916225813E-2   -3.905572859992807E-3    5.788993406304185E-2   -1.003084411142803E-3    5.699867052891305E-2   -5.353204325488337E-1    3.116288669381255E-2
 6.457947097375000E9    -5.822753873932344E-1   -8.671902282092020E-2   -3.691869103139583E-3    5.843188162227996E-2   -8.620397435952282E-4    5.759215396012380E-2   -5.351140097040306E-1    3.280411833097644E-2
 6.457958605650000E9    -5.824992246491698E-1   -8.560146824509386E-2   -3.544891820560155E-3    5.887401191417325E-2   -6.682713534740300E-4    5.795679250950005E-2   -5.347998797746616E-1    3.471372248750619E-2
 6.457970113925000E9    -5.825513805245750E-1   -8.455878804894379E-2   -3.427315591365702E-3    5.947157949073651E-2   -5.131357987509109E-4    5.848903568077268E-2   -5.346717718233619E-1    3.647406688373880E-2
 6.457981622200000E9    -5.825450757637576E-1   -8.327976332624999E-2   -3.241308577731444E-3    6.004613956004370E-2   -3.089322241188978E-4    5.910573741349416E-2   -5.345656309450693E-1    3.830823710229443E-2
 6.457993130475000E9    -5.825946237845511E-1   -8.212491652315701E-2   -3.180326454361857E-3    6.056647865325610E-2   -1.717786529673387E-4    5.960607781807561E-2   -5.343723063202683E-1    4.020039177341281E-2
 6.458004638750000E9    -5.828316676399852E-1   -8.100395093140386E-2   -2.906281443606975E-3    6.120742762236805E-2   -1.981765421153885E-5    6.009413021991829E-2   -5.340339702677712E-1    4.200259424899930E-2
