#  HZ   S   RI   R     50.00 
! Rohde & Schwarz Vector Network Analyzer 
! Rohde-Schwarz,ZNB20-2Port,1311601062101988,3.16
! Created: UTC 3/20/2024, 11:00:39 PM
! freq[Hz]                re:S11                  im:S11                  re:S21                  im:S21                  re:S12                  im:S12                  re:S22                  im:S22
 6.456959354000000E9    -5.656839017075969E-1   -1.748239778280075E-1   -9.030690441800411E-3    3.217987612364995E-2   -7.433378082366169E-3    3.226331381078180E-2   -5.311102231358349E-1   -8.879621631772427E-2
 6.456970888900000E9    -5.659793318829570E-1   -1.739011749227106E-1   -8.942377802132459E-3    3.243911180167490E-2   -7.342967340476658E-3    3.251807181038225E-2   -5.311701515638583E-1   -8.771177489996249E-2
 6.456982423800000E9    -5.663292672197217E-1   -1.730204572311496E-1   -9.161428265173879E-3    3.258712372767304E-2   -7.226282069441768E-3    3.264771708586257E-2   -5.313498687026657E-1   -8.643243211901745E-2
 6.456993958700000E9    -5.666506908307236E-1   -1.718878657545037E-1   -9.006426154074230E-3    3.282127800772032E-2   -7.239244831635301E-3    3.275956425168897E-2   -5.315202755645957E-1   -8.525274450993511E-2
 6.457005493600000E9    -5.669274727292443E-1   -1.709600905576575E-1   -8.949685446064110E-3    3.306960718764425E-2   -7.169756071911068E-3    3.296986275260605E-2   -5.318667687316296E-1   -8.410755574522119E-2
 6.457017028500000E9    -5.671497844004505E-1   -1.700240298758583E-1   -9.062036444215741E-3    3.325256637584492E-2   -7.209731503650217E-3    3.312969164171872E-2   -5.319614010269632E-1   -8.283416147384268E-2
 6.457028563400000E9    -5.673868651926920E-1   -1.691506923638169E-1   -8.910673960311047E-3    3.342284647986161E-2   -7.065324138479584E-3    3.333186571218155E-2   -5.321538392118284E-1   -8.177298836505588E-2
 6.457040098300000E9    -5.676533251060533E-1   -1.681471058036582E-1   -8.985860250942610E-3    3.356774204853610E-2   -7.097071744104328E-3    3.353159228737917E-2   -5.324199096968315E-1   -8.044363216104898E-2
 6.457051633200000E9    -5.678439907260848E-1   -1.671385926094658E-1   -9.045521390074618E-3    3.384892424832575E-2   -7.077169645430276E-3    3.380772224069441E-2   -5.324983288019286E-1   -7.939606513661183E-2
 6.457063168100000E9    -5.681475335310128E-1   -1.661757550303667E-1   -8.890619523245977E-3    3.398493948132717E-2   -7.055544518630825E-3    3.395760918161997E-2   -5.327886765850205E-1   -7.808813106417198E-2
 6.457074703000000E9    -5.684102901971648E-1   -1.652877570680648E-1   -8.798615878399696E-3    3.423681145191795E-2   -7.037086560862771E-3    3.421752201363450E-2   -5.329043507319828E-1   -7.699926116338125E-2
 6.457086237900000E9    -5.686437536869287E-1   -1.641676326224580E-1   -8.766623461292372E-3    3.435140674034446E-2   -6.975756410365432E-3    3.437539793468731E-2   -5.330340049106386E-1   -7.554091391215771E-2
 6.457097772800000E9    -5.689604596125472E-1   -1.631382538910216E-1   -8.766317656880643E-3    3.448324375523559E-2   -6.942696513943023E-3    3.449014871839209E-2   -5.331390050811950E-1   -7.456124042167410E-2
 6.457109307700000E9    -5.691645009011771E-1   -1.623192901683523E-1   -8.824664173727841E-3    3.477481297726805E-2   -6.911251759658121E-3    3.469948766942200E-2   -5.333268686337684E-1   -7.323352103301034E-2
 6.457120842600000E9    -5.694544434372756E-1   -1.613380059632027E-1   -8.869487955801378E-3    3.508234991795984E-2   -6.861556545930288E-3    3.498605237918199E-2   -5.335292385806386E-1   -7.189734719121867E-2
 6.457132377500000E9    -5.697471628769633E-1   -1.604328116978632E-1   -8.743758922127720E-3    3.518113553489804E-2   -6.940260819310643E-3    3.529817810950819E-2   -5.338369240185143E-1   -7.064149203636788E-2
 6.457143912400000E9    -5.698734570248740E-1   -1.593735989227625E-1   -8.718795053745995E-3    3.546641659258034E-2   -6.838573575777746E-3    3.543415498918655E-2   -5.338593700069684E-1   -6.952095190710508E-2
 6.457155447300000E9    -5.701101171148096E-1   -1.584326218345507E-1   -8.510108110210303E-3    3.571714937837070E-2   -6.853695475065520E-3    3.562290718076296E-2   -5.340319915482330E-1   -6.822912506457196E-2
 6.457166982200000E9    -5.703664841932463E-1   -1.574630107624216E-1   -8.583952654228328E-3    3.591506954531883E-2   -6.702519961280815E-3    3.585181301801062E-2   -5.340403582319919E-1   -6.697938429311161E-2
 6.457178517100000E9    -5.706645630903485E-1   -1.565055858458900E-1   -8.535329726193889E-3    3.611329101348401E-2   -6.720882978818641E-3    3.600837063558164E-2   -5.343544563076331E-1   -6.574482999491418E-2
 6.457190052000000E9    -5.709641818850820E-1   -1.555705515382431E-1   -8.522094109354316E-3    3.640235192685261E-2   -6.656999474187669E-3    3.620701158922556E-2   -5.344206243340525E-1   -6.453123312066737E-2
 6.457201586900000E9    -5.711279142617631E-1   -1.545023581869249E-1   -8.583430707769712E-3    3.664025273871677E-2   -6.610971018730962E-3    3.643989077288660E-2   -5.344910275004021E-1   -6.317748589855775E-2
 6.457213121800000E9    -5.714134225591111E-1   -1.535704637466073E-1   -8.521389557007182E-3    3.674735155685720E-2   -6.570038741059401E-3    3.669460266826047E-2   -5.347423946496335E-1   -6.192453337797176E-2
 6.457224656700000E9    -5.716738233534269E-1   -1.525092206655697E-1   -8.484961357720807E-3    3.698304840821724E-2   -6.540029094600820E-3    3.698036617719756E-2   -5.348670115357691E-1   -6.064611259104073E-2
 6.457236191600000E9    -5.718411665852187E-1   -1.515897465786953E-1   -8.425102005775533E-3    3.725761582364892E-2   -6.363507482613729E-3    3.704570904416456E-2   -5.348513406843879E-1   -5.927938029972508E-2
 6.457247726500000E9    -5.721164065216793E-1   -1.505693234829497E-1   -8.280618105012690E-3    3.757963792022580E-2   -6.347419640254421E-3    3.731228161257194E-2   -5.350914542557257E-1   -5.814566987770910E-2
 6.457259261400000E9    -5.722601956252433E-1   -1.495520839313836E-1   -8.295172417771014E-3    3.771600315994296E-2   -6.408626566096911E-3    3.754348195742399E-2   -5.352216784592172E-1   -5.689822798498505E-2
 6.457270796300000E9    -5.725533966818234E-1   -1.485943752535513E-1   -8.410103745414559E-3    3.800008381129719E-2   -6.454480395822973E-3    3.778587118410572E-2   -5.354107901801011E-1   -5.550971766532418E-2
 6.457282331200000E9    -5.727444663451738E-1   -1.476286719878970E-1   -8.252095294989001E-3    3.815166475798756E-2   -6.270041522292710E-3    3.803992273060867E-2   -5.354851212603624E-1   -5.418043665202597E-2
 6.457293866100000E9    -5.729671340870889E-1   -1.465959937711405E-1   -8.290923576552764E-3    3.847859758415734E-2   -6.234182662199407E-3    3.825651153694757E-2   -5.355144350560287E-1   -5.303973885534221E-2
 6.457305401000000E9    -5.732757161422513E-1   -1.456731025489543E-1   -8.238022695601598E-3    3.863985791718346E-2   -6.144014102287792E-3    3.850131279334141E-2   -5.357572764903765E-1   -5.162641850003616E-2
 6.457316935900000E9    -5.734848399244333E-1   -1.445904850822889E-1   -8.158463470869650E-3    3.897116298184437E-2   -6.138877202032683E-3    3.868132631801303E-2   -5.357185614445727E-1   -5.036783773860632E-2
 6.457328470800000E9    -5.735563494001625E-1   -1.436083647039021E-1   -8.161266848933613E-3    3.911634764242245E-2   -6.015916429286699E-3    3.892385976586488E-2   -5.358674543841899E-1   -4.902035945913080E-2
 6.457340005700000E9    -5.738772535567949E-1   -1.426565055671429E-1   -8.010324400074943E-3    3.945279768533195E-2   -5.963333141179424E-3    3.918110272094731E-2   -5.361100339390414E-1   -4.759872424948075E-2
 6.457351540600000E9    -5.740449061996932E-1   -1.416509017078799E-1   -8.005819536019296E-3    3.972005651197962E-2   -5.959302462199042E-3    3.944788971297269E-2   -5.361261335993790E-1   -4.640460062383542E-2
 6.457363075500000E9    -5.742604355947649E-1   -1.405991119213448E-1   -7.966655467590426E-3    3.994473940217369E-2   -5.940555544758389E-3    3.973084583711940E-2   -5.363197980336185E-1   -4.517343179200325E-2
 6.457374610400000E9    -5.744695165319815E-1   -1.395077475004696E-1   -7.903038076407576E-3    4.039385758155503E-2   -5.769474918373857E-3    4.000834809850043E-2   -5.363810167509553E-1   -4.364412613084222E-2
 6.457386145300000E9    -5.746962738447913E-1   -1.385854077637772E-1   -7.988890822463263E-3    4.056567471784119E-2   -5.782255477681878E-3    4.031334652244003E-2   -5.363917507980113E-1   -4.226544650911818E-2
 6.457397680200000E9    -5.749993792407572E-1   -1.375408839803548E-1   -7.850810376567329E-3    4.087293956135551E-2   -5.697574017612729E-3    4.049778352161280E-2   -5.364853087595982E-1   -4.104110981639453E-2
 6.457409215100000E9    -5.751781712235714E-1   -1.365793679730436E-1   -7.636238452857384E-3    4.100520439218308E-2   -5.698150934135995E-3    4.085532729181688E-2   -5.366277301703141E-1   -3.950596161272096E-2
 6.457420750000000E9    -5.754327805614836E-1   -1.355069133256963E-1   -7.688360231618310E-3    4.132652018455902E-2   -5.640084994456572E-3    4.107984534622182E-2   -5.365561354845551E-1   -3.805222807697822E-2
 6.457432284900000E9    -5.756027538721762E-1   -1.345631123774861E-1   -7.779445556348490E-3    4.153437955116668E-2   -5.508821240037340E-3    4.130070867821324E-2   -5.367829724670991E-1   -3.694692724926818E-2
 6.457443819800000E9    -5.758204506690274E-1   -1.334554979333422E-1   -7.641341801268473E-3    4.192602266212743E-2   -5.411384382296986E-3    4.156336865407424E-2   -5.367845912724808E-1   -3.541805897245947E-2
 6.457455354700000E9    -5.760639432612520E-1   -1.326049583154995E-1   -7.625950606615546E-3    4.207563276433517E-2   -5.395750492149191E-3    4.184423363300959E-2   -5.369042420374729E-1   -3.414873055072163E-2
 6.457466889600000E9    -5.761993437191067E-1   -1.314406895613386E-1   -7.638013472987668E-3    4.236196714605533E-2   -5.289456678707664E-3    4.221317438533578E-2   -5.368486064018181E-1   -3.274335321832249E-2
 6.457478424500000E9    -5.763814423519151E-1   -1.304809895448719E-1   -7.493602280115468E-3    4.272392864893969E-2   -5.349301783278923E-3    4.241445633202307E-2   -5.370172560528899E-1   -3.123000232654590E-2
 6.457489959400000E9    -5.766594667510102E-1   -1.294120741907369E-1   -7.354000369353194E-3    4.318625820832939E-2   -5.161081454606569E-3    4.274164076525113E-2   -5.370147611706607E-1   -3.008246421066818E-2
 6.457501494300000E9    -5.768099155953599E-1   -1.283966848033020E-1   -7.387967655303290E-3    4.344141865436237E-2   -5.166634382029522E-3    4.299201492381530E-2   -5.370858080800298E-1   -2.851282611539002E-2
 6.457513029200000E9    -5.769796473059962E-1   -1.273086588100309E-1   -7.273062558257931E-3    4.359662190033879E-2   -5.061701901409529E-3    4.335697826695361E-2   -5.371039262035481E-1   -2.715697840049478E-2
 6.457524564100000E9    -5.772037188886610E-1   -1.263749806837902E-1   -7.260957520882760E-3    4.402482928883943E-2   -5.000403783539695E-3    4.356550949415378E-2   -5.371277058292475E-1   -2.576191051029969E-2
 6.457536099000000E9    -5.772831276345282E-1   -1.253372631090651E-1   -7.215678345589682E-3    4.430449723566112E-2   -4.916663434155801E-3    4.391688047745330E-2   -5.371357254123664E-1   -2.419283903604898E-2
 6.457547633900000E9    -5.774744714442771E-1   -1.241618457705197E-1   -7.101729939687173E-3    4.464400535885933E-2   -4.882847477658298E-3    4.421283463508103E-2   -5.372572397984935E-1   -2.278459826200662E-2
 6.457559168800000E9    -5.776880047064764E-1   -1.231570103514597E-1   -7.025186253073086E-3    4.491068874061458E-2   -4.754428012961653E-3    4.457838194087600E-2   -5.373040282569438E-1   -2.134116813356268E-2
 6.457570703700000E9    -5.777851555952712E-1   -1.221917790626528E-1   -6.965873068812314E-3    4.526246647368364E-2   -4.685256126453963E-3    4.489713728109088E-2   -5.374152785853873E-1   -1.985983197747759E-2
 6.457582238600000E9    -5.780681193630381E-1   -1.210451603818625E-1   -6.909642139473262E-3    4.559986208110697E-2   -4.628195411297132E-3    4.515780947400256E-2   -5.374158915887844E-1   -1.853501822309369E-2
 6.457593773500000E9    -5.782276857784440E-1   -1.201443980664559E-1   -6.840527587766099E-3    4.586261041100066E-2   -4.488417569746896E-3    4.552605332959396E-2   -5.374336598811318E-1   -1.687042356664273E-2
 6.457605308400000E9    -5.783876863341969E-1   -1.189857198104042E-1   -6.778955662992849E-3    4.619140255962201E-2   -4.420211801353533E-3    4.575312586719462E-2   -5.375901328770297E-1   -1.552900300106930E-2
 6.457616843300000E9    -5.785658045152928E-1   -1.179395394569622E-1   -6.549120480927323E-3    4.674968926831740E-2   -4.319420460930755E-3    4.608026060546664E-2   -5.373050437682807E-1   -1.408027748778175E-2
 6.457628378200000E9    -5.787020468046166E-1   -1.169939033172482E-1   -6.700624373674882E-3    4.683882420600548E-2   -4.225188887409095E-3    4.648399787952157E-2   -5.373444307393734E-1   -1.240588969803573E-2
 6.457639913100000E9    -5.789519450369509E-1   -1.158838341904005E-1   -6.559582694147676E-3    4.726293948884651E-2   -4.149095132673383E-3    4.680743760828222E-2   -5.374499918760668E-1   -1.102243783015925E-2
 6.457651448000000E9    -5.790668318458098E-1   -1.149211113339301E-1   -6.484206391062311E-3    4.769492848068616E-2   -4.099442760528637E-3    4.711566570709217E-2   -5.372934077416740E-1   -9.492565223007324E-3
 6.457662982900000E9    -5.791659444561201E-1   -1.137928086590368E-1   -6.437334648377436E-3    4.792668879125760E-2   -3.929445793248880E-3    4.747052899527481E-2   -5.374450753174168E-1   -8.031421363947775E-3
 6.457674517800000E9    -5.793650320478604E-1   -1.126485374590234E-1   -6.230559844930974E-3    4.825302982200130E-2   -3.817293965409101E-3    4.786576488049222E-2   -5.372746224999805E-1   -6.510735080163368E-3
 6.457686052700000E9    -5.795909205041777E-1   -1.116393608537026E-1   -6.274559879525703E-3    4.879294621144604E-2   -3.836608364050613E-3    4.819012830676885E-2   -5.373187105734264E-1   -4.903714640085576E-3
 6.457697587600000E9    -5.796879119109283E-1   -1.105177225089356E-1   -6.148279998838505E-3    4.914868854179862E-2   -3.672356767772496E-3    4.862733788606532E-2   -5.373541195065918E-1   -3.327043032943927E-3
 6.457709122500000E9    -5.798368668662911E-1   -1.095311153677364E-1   -5.976780082881334E-3    4.950165573680690E-2   -3.578969110276338E-3    4.895776556780933E-2   -5.372184633799874E-1   -1.860368002057977E-3
 6.457720657400000E9    -5.800165062179161E-1   -1.083357706828078E-1   -5.970160633514967E-3    4.974287817225288E-2   -3.391157000729313E-3    4.932144746170623E-2   -5.371862277632001E-1   -1.645923157860179E-4
 6.457732192300000E9    -5.800779227806179E-1   -1.072910346272562E-1   -5.888486503341262E-3    5.020746762197385E-2   -3.381998132304020E-3    4.961137521728717E-2   -5.372550590958142E-1    1.348272083953726E-3
 6.457743727200000E9    -5.802560770887731E-1   -1.061996258435189E-1   -5.809164578057840E-3    5.064897995918279E-2   -3.266901559577223E-3    5.009645805783999E-2   -5.371719500475429E-1    3.016687786494971E-3
 6.457755262100000E9    -5.804515728182491E-1   -1.052338726170022E-1   -5.809202315933921E-3    5.097650591506657E-2   -3.132067558833843E-3    5.045266701632321E-2   -5.371272917881332E-1    4.530097938324104E-3
 6.457766797000000E9    -5.805290325061805E-1   -1.041201259421144E-1   -5.616533611385819E-3    5.142086844505732E-2   -2.981507106142007E-3    5.081498509544638E-2   -5.369519620445515E-1    6.127432975513001E-3
 6.457778331900000E9    -5.806448172952008E-1   -1.029480451940206E-1   -5.553729722046876E-3    5.192879248846186E-2   -2.921519157087142E-3    5.128171166010996E-2   -5.369669363589277E-1    7.755339279625725E-3
 6.457789866800000E9    -5.808124496302957E-1   -1.018533460964902E-1   -5.366710506326410E-3    5.218422174768102E-2   -2.874646364867561E-3    5.166095926100852E-2   -5.368703540850974E-1    9.271280507858528E-3
 6.457801401700000E9    -5.809906815252498E-1   -1.007010889506252E-1   -5.271869812121087E-3    5.258996534484383E-2   -2.662182726948281E-3    5.202056589088320E-2   -5.366778505343762E-1    1.099538749002035E-2
 6.457812936600000E9    -5.811403061690295E-1   -9.961327079876083E-2   -5.199949765221579E-3    5.310949881109636E-2   -2.518150833361241E-3    5.247153790499596E-2   -5.367460405100356E-1    1.267421294319507E-2
 6.457824471500000E9    -5.811887538454491E-1   -9.850913055032962E-2   -5.083690590389780E-3    5.348512423203002E-2   -2.398803595511458E-3    5.284598290579521E-2   -5.366721823519497E-1    1.438126872628458E-2
 6.457836006400000E9    -5.813780192625763E-1   -9.749302752720508E-2   -4.934015559236217E-3    5.399818226143503E-2   -2.334626078113401E-3    5.322879660423995E-2   -5.365005791183983E-1    1.593160233432723E-2
 6.457847541300000E9    -5.813688076394917E-1   -9.636957861991903E-2   -4.877809427882922E-3    5.441864596570135E-2   -2.168272827781557E-3    5.370363870748886E-2   -5.363484427737898E-1    1.770599671704046E-2
 6.457859076200000E9    -5.815534753908291E-1   -9.532232268274821E-2   -4.832991111281429E-3    5.486501968503295E-2   -1.907184798975992E-3    5.414598193326403E-2   -5.362701929824193E-1    1.948749741403729E-2
 6.457870611100000E9    -5.816567763779721E-1   -9.409034073754489E-2   -4.662494953928111E-3    5.533231160198186E-2   -1.826755284994251E-3    5.461156871735048E-2   -5.360722157335601E-1    2.114557905553453E-2
 6.457882146000000E9    -5.817721714110720E-1   -9.299541388543929E-2   -4.449147822019821E-3    5.586224708404843E-2   -1.666232042239886E-3    5.514083840452918E-2   -5.359578197318716E-1    2.289450193427582E-2
 6.457893680900000E9    -5.819479171447108E-1   -9.185920939627390E-2   -4.237232380920096E-3    5.634786313159260E-2   -1.591950121502293E-3    5.554164695937425E-2   -5.357611806918998E-1    2.443382560868250E-2
 6.457905215800000E9    -5.819095658012399E-1   -9.077079869058208E-2   -4.220845112957698E-3    5.699942243272533E-2   -1.408150654108903E-3    5.608311792099545E-2   -5.356783544963141E-1    2.623127539438264E-2
 6.457916750700000E9    -5.821311316150707E-1   -8.966628893203310E-2   -4.107062312929948E-3    5.734496963943820E-2   -1.263600067210402E-3    5.637529502570955E-2   -5.354893661233486E-1    2.812514684850831E-2
 6.457928285600000E9    -5.822056313965697E-1   -8.846425770507162E-2   -4.014936064134983E-3    5.789248788192838E-2   -1.097495158822768E-3    5.692078484559494E-2   -5.353713877076309E-1    2.977390726481942E-2
 6.457939820500000E9    -5.823172418442694E-1   -8.724861191623123E-2   -3.627930402074152E-3    5.837926394159956E-2   -9.619371006060145E-4    5.745021640139940E-2   -5.349875350770514E-1    3.154403229887360E-2
 6.457951355400000E9    -5.822149852880759E-1   -8.620938428758886E-2   -3.648103445356595E-3    5.881915649338629E-2   -6.823112683884409E-4    5.797741724300916E-2   -5.350694258129675E-1    3.341957659275939E-2
 6.457962890300000E9    -5.825264271654540E-1   -8.488549704195091E-2   -3.439421697407658E-3    5.923785362314796E-2   -7.081932159816997E-4    5.849205737158167E-2   -5.348210187445031E-1    3.521968754917789E-2
 6.457974425200000E9    -5.824907879453970E-1   -8.397845011623720E-2   -3.343388001543557E-3    5.984606368621233E-2   -4.650614051297340E-4    5.883286113122258E-2   -5.344946817309418E-1    3.706877329309784E-2
 6.457985960100000E9    -5.826313232742498E-1   -8.260424537010494E-2   -3.222226476411032E-3    6.038546567934484E-2   -2.558259589686564E-4    5.945339925547941E-2   -5.342942745072806E-1    3.899218461471105E-2
 6.457997495000000E9    -5.825856366940423E-1   -8.143918226422878E-2   -2.934276411983328E-3    6.088404797419922E-2   -5.835020755143376E-5    6.003180640995530E-2   -5.341292187747460E-1    4.071645589759782E-2
