#  HZ   S   RI   R     50.00 
! Rohde & Schwarz Vector Network Analyzer 
! Rohde-Schwarz,ZNB20-2Port,1311601062101988,3.16
! Created: UTC 3/20/2024, 11:01:13 PM
! freq[Hz]                re:S11                  im:S11                  re:S21                  im:S21                  re:S12                  im:S12                  re:S22                  im:S22
 6.456949382000000E9    -5.656941502551215E-1   -1.754069585867573E-1   -9.325156882618915E-3    3.225646524003915E-2   -7.391594740692735E-3    3.221210672008696E-2   -5.309698966848002E-1   -9.031996526956906E-2
 6.456960951050000E9    -5.657951443461972E-1   -1.745200637434758E-1   -8.993646711092890E-3    3.235970256198483E-2   -7.296375543047465E-3    3.243697945312553E-2   -5.310744031381526E-1   -8.905367802681667E-2
 6.456972520100000E9    -5.660797186784451E-1   -1.736293890449419E-1   -9.091332009371220E-3    3.265831572965128E-2   -7.310391111898654E-3    3.254234096217819E-2   -5.314037388375372E-1   -8.790169444501977E-2
 6.456984089150000E9    -5.663614270311620E-1   -1.726576412932634E-1   -9.072137733844601E-3    3.279263366675507E-2   -7.425737926433466E-3    3.269884003761766E-2   -5.315970264111469E-1   -8.666820046669149E-2
 6.456995658200000E9    -5.666581274907573E-1   -1.716907619195271E-1   -9.045049095939488E-3    3.277977844009192E-2   -7.315164038620189E-3    3.293540342832062E-2   -5.317981486706392E-1   -8.551282269989229E-2
 6.457007227250000E9    -5.668443170716598E-1   -1.707862756162524E-1   -8.899739472229736E-3    3.319125582615527E-2   -7.292572773717235E-3    3.317282850831223E-2   -5.318258733183834E-1   -8.441588539456894E-2
 6.457018796300000E9    -5.672146952737661E-1   -1.698112373893937E-1   -8.912612929857799E-3    3.335522398166976E-2   -7.217083349755809E-3    3.334950347552298E-2   -5.321297186957286E-1   -8.309503376028123E-2
 6.457030365350000E9    -5.674536427693823E-1   -1.688861714106760E-1   -8.842486726317525E-3    3.354501749610685E-2   -7.157582574882488E-3    3.354923750053922E-2   -5.323356396070893E-1   -8.199380056099920E-2
 6.457041934400000E9    -5.676533810150844E-1   -1.678811768303531E-1   -8.816276279801107E-3    3.385479617612799E-2   -7.145666832714687E-3    3.364279290381417E-2   -5.324695960721231E-1   -8.076897838891441E-2
 6.457053503450000E9    -5.680366564813002E-1   -1.668234361966272E-1   -8.954488164350996E-3    3.394502950423769E-2   -7.136214209982758E-3    3.385483465941119E-2   -5.326940082306458E-1   -7.968205726597827E-2
 6.457065072500000E9    -5.682862775606655E-1   -1.658656662135769E-1   -8.915602168524167E-3    3.416909422149680E-2   -7.086770293592753E-3    3.412042228249575E-2   -5.327797744570489E-1   -7.817143815945220E-2
 6.457076641550000E9    -5.685128223953037E-1   -1.649895621448681E-1   -8.818600452193608E-3    3.422168864258695E-2   -7.110848066696179E-3    3.429605019607147E-2   -5.329535023893003E-1   -7.701160737403608E-2
 6.457088210600000E9    -5.687566757101392E-1   -1.639990085006303E-1   -8.830154475379352E-3    3.445645390437153E-2   -6.997900234738242E-3    3.449323070793431E-2   -5.331824679987243E-1   -7.563843724977054E-2
 6.457099779650000E9    -5.690531538936867E-1   -1.629614777220742E-1   -8.915444208270612E-3    3.477363083500479E-2   -6.967611501492756E-3    3.467927015372516E-2   -5.331805600319418E-1   -7.457712396895842E-2
 6.457111348700000E9    -5.693299429958844E-1   -1.619717671334884E-1   -8.871801684529956E-3    3.496890826911871E-2   -6.871987986382049E-3    3.487652588439283E-2   -5.335133213340510E-1   -7.347041954714201E-2
 6.457122917750000E9    -5.694897172339852E-1   -1.610157161345794E-1   -8.894001088346017E-3    3.515994550809176E-2   -6.896192612615056E-3    3.506979974386213E-2   -5.336172546073866E-1   -7.201928671232985E-2
 6.457134486800000E9    -5.697244570203921E-1   -1.600687711555010E-1   -8.719703150811541E-3    3.542903198430350E-2   -6.763115245479678E-3    3.535092859624265E-2   -5.337404958837467E-1   -7.082913930586181E-2
 6.457146055850000E9    -5.700054452976494E-1   -1.591661976694655E-1   -8.607577255319167E-3    3.562322004949544E-2   -6.847533558628355E-3    3.550895719759678E-2   -5.339647097491645E-1   -6.974392690504419E-2
 6.457157624900000E9    -5.703307223259775E-1   -1.581463767832670E-1   -8.499165420036463E-3    3.573983206502274E-2   -6.757504186481599E-3    3.569220869493812E-2   -5.339901449432047E-1   -6.834215332575561E-2
 6.457169193950000E9    -5.704722475154397E-1   -1.571398513619296E-1   -8.643272095314647E-3    3.601002198454824E-2   -6.658090314865073E-3    3.594387784815702E-2   -5.342715363795740E-1   -6.725396958654617E-2
 6.457180763000000E9    -5.706926858420973E-1   -1.561789236319814E-1   -8.612016878421898E-3    3.625058363907544E-2   -6.720289729530593E-3    3.615868459543079E-2   -5.343067268680156E-1   -6.599220529494927E-2
 6.457192332050000E9    -5.709899926852704E-1   -1.552089344474211E-1   -8.509730501042262E-3    3.650284753553377E-2   -6.661587124144188E-3    3.638236821797620E-2   -5.345104380217458E-1   -6.447815028398096E-2
 6.457203901100000E9    -5.711122482949803E-1   -1.541732951120467E-1   -8.604470378513848E-3    3.687664377849806E-2   -6.629465924781822E-3    3.661743178945434E-2   -5.347293561510272E-1   -6.331554733305005E-2
 6.457215470150000E9    -5.714913722138275E-1   -1.533039795652697E-1   -8.527199042343319E-3    3.688449553156934E-2   -6.513430350385043E-3    3.682176363731864E-2   -5.348955774052534E-1   -6.198823392708893E-2
 6.457227039200000E9    -5.717677686101732E-1   -1.522582694474182E-1   -8.523629665717724E-3    3.722478400477015E-2   -6.529308796140298E-3    3.703398530082951E-2   -5.348539502828441E-1   -6.080268894404656E-2
 6.457238608250000E9    -5.719326022782346E-1   -1.511934405926122E-1   -8.490582141995391E-3    3.723992033329458E-2   -6.415154772381478E-3    3.726143951287823E-2   -5.350505662577157E-1   -5.954858336346357E-2
 6.457250177300000E9    -5.721019734845029E-1   -1.502922939417649E-1   -8.454423727804885E-3    3.756627346211722E-2   -6.372779795724814E-3    3.750277047365418E-2   -5.351670205345550E-1   -5.812855978445521E-2
 6.457261746350000E9    -5.725152235686074E-1   -1.492117016198359E-1   -8.408181262792455E-3    3.799061254874878E-2   -6.399707363842885E-3    3.769404477943317E-2   -5.354085363072154E-1   -5.693122456946111E-2
 6.457273315400000E9    -5.726215475124707E-1   -1.482585017104727E-1   -8.290295780036384E-3    3.814055743147678E-2   -6.309325846868677E-3    3.778812969139795E-2   -5.353884921397678E-1   -5.556388126895419E-2
 6.457284884450000E9    -5.728853518249102E-1   -1.472972736153283E-1   -8.357968706396745E-3    3.832551669445844E-2   -6.290486381357831E-3    3.816132292978112E-2   -5.355693734782503E-1   -5.432925531210387E-2
 6.457296453500000E9    -5.730431387018429E-1   -1.462573037590269E-1   -8.232399553159941E-3    3.863656889281916E-2   -6.199598777664334E-3    3.840797043466226E-2   -5.357968538069818E-1   -5.297553410689709E-2
 6.457308022550000E9    -5.734013769777612E-1   -1.452932686314350E-1   -8.181336022795841E-3    3.878631853369854E-2   -6.142351309397733E-3    3.865896324926779E-2   -5.357448985625854E-1   -5.167678748750968E-2
 6.457319591600000E9    -5.734778320618832E-1   -1.442699201622462E-1   -8.126565524634822E-3    3.900305580562678E-2   -6.044874789726600E-3    3.886377054913761E-2   -5.359521788735864E-1   -5.027974526294681E-2
 6.457331160650000E9    -5.738051293811801E-1   -1.432704293312678E-1   -8.012839427684458E-3    3.936876852629605E-2   -6.071654843895239E-3    3.916342146791237E-2   -5.358804527676857E-1   -4.887979956834056E-2
 6.457342729700000E9    -5.739537998782640E-1   -1.422784515283779E-1   -8.074643178339735E-3    3.965401442074186E-2   -5.963399638818677E-3    3.937711065643711E-2   -5.361342648943108E-1   -4.758068571967516E-2
 6.457354298750000E9    -5.741355508444359E-1   -1.412188250179770E-1   -7.974695892501740E-3    3.977183357828314E-2   -5.993151317745534E-3    3.956638031576585E-2   -5.363208485626481E-1   -4.632314339548913E-2
 6.457365867800000E9    -5.743791027940954E-1   -1.403477070986684E-1   -8.065644508742330E-3    4.010058627843169E-2   -5.940647994036117E-3    3.985241780066035E-2   -5.362038258585381E-1   -4.506803045178685E-2
 6.457377436850000E9    -5.746738672001663E-1   -1.392670789641739E-1   -7.898462844934423E-3    4.024138303725685E-2   -5.745222232154800E-3    4.021385846102467E-2   -5.362690498720777E-1   -4.360772862084886E-2
 6.457389005900000E9    -5.747751918896356E-1   -1.381926340709055E-1   -7.871663222598687E-3    4.067940582451165E-2   -5.848269343636027E-3    4.038985852431300E-2   -5.364659971906905E-1   -4.236929025359362E-2
 6.457400574950000E9    -5.750638906917058E-1   -1.371603117811642E-1   -7.749261166719696E-3    4.088837062946350E-2   -5.640939164127306E-3    4.061745630204197E-2   -5.366392277200778E-1   -4.107387350509860E-2
 6.457412144000000E9    -5.752238088324862E-1   -1.361334659032915E-1   -7.790442046915656E-3    4.116889416553984E-2   -5.615673830207988E-3    4.091191862077416E-2   -5.367126813616936E-1   -3.967382761494321E-2
 6.457423713050000E9    -5.754533214023605E-1   -1.351549825866410E-1   -7.825198693140495E-3    4.157485833303106E-2   -5.517587148248959E-3    4.119967580111898E-2   -5.367867840130089E-1   -3.819066845470835E-2
 6.457435282100000E9    -5.757128475070368E-1   -1.341297513185072E-1   -7.617397281079523E-3    4.171925881626352E-2   -5.538253968040151E-3    4.146700345476002E-2   -5.367547744781034E-1   -3.680061284205447E-2
 6.457446851150000E9    -5.758269854266986E-1   -1.332144737706931E-1   -7.642831933101880E-3    4.204367214309707E-2   -5.424902208482545E-3    4.179172290034843E-2   -5.367872922718737E-1   -3.550509829412461E-2
 6.457458420200000E9    -5.760204274791036E-1   -1.321376928834803E-1   -7.605373524728386E-3    4.232428160630697E-2   -5.392527723000851E-3    4.209525310120509E-2   -5.369501300092757E-1   -3.399647180285972E-2
 6.457469989250000E9    -5.762775569815377E-1   -1.311345035293247E-1   -7.539233607488371E-3    4.271383233583430E-2   -5.304729796887583E-3    4.231862668871663E-2   -5.370596944771112E-1   -3.276782484549186E-2
 6.457481558300000E9    -5.764277795464894E-1   -1.300577763817158E-1   -7.509775757189607E-3    4.289629026799720E-2   -5.279795171305951E-3    4.258257523306620E-2   -5.370075836580255E-1   -3.133129416445968E-2
 6.457493127350000E9    -5.765864111754903E-1   -1.290799436279849E-1   -7.352319214804341E-3    4.320086837903612E-2   -5.181620466165735E-3    4.288801603419348E-2   -5.369860204021256E-1   -2.988973603628575E-2
 6.457504696400000E9    -5.768377569860090E-1   -1.280123660065690E-1   -7.445515422305789E-3    4.361771632685940E-2   -5.135591425938489E-3    4.319946503130586E-2   -5.371513803251526E-1   -2.844118018826477E-2
 6.457516265450000E9    -5.770100991741026E-1   -1.269678421963145E-1   -7.258267884970248E-3    4.369567265426205E-2   -5.046160959734305E-3    4.355713458372967E-2   -5.372556239717775E-1   -2.700385986082547E-2
 6.457527834500000E9    -5.771574310304232E-1   -1.259146416643729E-1   -7.121813605347365E-3    4.430227248809535E-2   -4.915001558516926E-3    4.376445412557513E-2   -5.373117122530301E-1   -2.547138062331806E-2
 6.457539403550000E9    -5.774770319303537E-1   -1.249056536057707E-1   -7.129291591858928E-3    4.446283625896964E-2   -4.845369535800506E-3    4.414754018698407E-2   -5.373293503391319E-1   -2.409709413842861E-2
 6.457550972600000E9    -5.776109951113838E-1   -1.238094890514961E-1   -7.061817739269598E-3    4.485065649879202E-2   -4.790038777652038E-3    4.444109843188890E-2   -5.372880845461813E-1   -2.272350269571767E-2
 6.457562541650000E9    -5.777751397091825E-1   -1.228127233000277E-1   -7.098367888050253E-3    4.506448284905366E-2   -4.804660150353614E-3    4.487084755296517E-2   -5.373733516624571E-1   -2.126731177243546E-2
 6.457574110700000E9    -5.779282873433695E-1   -1.216251433463157E-1   -6.919588690816166E-3    4.543475150681452E-2   -4.592595454337128E-3    4.501042671632267E-2   -5.375565847606579E-1   -1.969078675522086E-2
 6.457585679750000E9    -5.780793336049525E-1   -1.207157266674647E-1   -6.894580410528334E-3    4.583382577422831E-2   -4.588146714434775E-3    4.531992286677100E-2   -5.373705803095018E-1   -1.820997985585146E-2
 6.457597248800000E9    -5.782192432651924E-1   -1.196393849681618E-1   -6.724891837271632E-3    4.605708311533410E-2   -4.571682295887123E-3    4.566119869906359E-2   -5.374054728060113E-1   -1.670772101293556E-2
 6.457608817850000E9    -5.784674247515685E-1   -1.186266020986235E-1   -6.787949966854634E-3    4.653140292301697E-2   -4.426338131878788E-3    4.596693131417751E-2   -5.374269691564328E-1   -1.542646054298054E-2
 6.457620386900000E9    -5.786129799488332E-1   -1.175336901856572E-1   -6.621452675114454E-3    4.682891190891957E-2   -4.315959306928940E-3    4.623456406105520E-2   -5.375787852361942E-1   -1.382210247216783E-2
 6.457631955950000E9    -5.786994016821141E-1   -1.164248790394921E-1   -6.640299576863230E-3    4.712228261817063E-2   -4.250756131851481E-3    4.668396063815070E-2   -5.374992410666209E-1   -1.238644139908281E-2
 6.457643525000000E9    -5.790508998676739E-1   -1.155629339882499E-1   -6.508703918942077E-3    4.759689491957910E-2   -4.143490619832513E-3    4.708581599608550E-2   -5.374774110464678E-1   -1.083357786420519E-2
 6.457655094050000E9    -5.791597101000875E-1   -1.143077753000234E-1   -6.554787893422140E-3    4.777339586737998E-2   -4.005436322924089E-3    4.747055220869668E-2   -5.374150944908497E-1   -9.353178079508848E-3
 6.457666663100000E9    -5.792448362107955E-1   -1.133066863873916E-1   -6.332535123669807E-3    4.820271680110669E-2   -3.960920404627442E-3    4.769438016407661E-2   -5.374222894898982E-1   -7.801522978406382E-3
 6.457678232150000E9    -5.794331292343440E-1   -1.121900735770373E-1   -6.313367647296917E-3    4.858602951998943E-2   -3.805891870375764E-3    4.805226875482530E-2   -5.374374851628102E-1   -6.122278883312925E-3
 6.457689801200000E9    -5.795723967282862E-1   -1.111309876923031E-1   -6.130668545076347E-3    4.904645180473997E-2   -3.764269176239256E-3    4.842325038150717E-2   -5.373602345695937E-1   -4.715970985340602E-3
 6.457701370250000E9    -5.797437959779748E-1   -1.101178460654450E-1   -6.168289776025993E-3    4.938736168090680E-2   -3.654951999777608E-3    4.879905790956773E-2   -5.373485989659826E-1   -3.045452886042915E-3
 6.457712939300000E9    -5.799091862854474E-1   -1.089959313132887E-1   -6.038663158640770E-3    4.965984273916368E-2   -3.579773470643169E-3    4.922631627283190E-2   -5.373091407781589E-1   -1.568481890607890E-3
 6.457724508350000E9    -5.800918710512327E-1   -1.079509777429411E-1   -5.849298911872487E-3    5.019056013008057E-2   -3.438337584999164E-3    4.951183327098151E-2   -5.371639967437706E-1    9.923069350260317E-5
 6.457736077400000E9    -5.802417347736150E-1   -1.067673189564897E-1   -5.810785888164742E-3    5.046544253079007E-2   -3.318272747356672E-3    4.988986008704153E-2   -5.371688091193748E-1    1.604890129047440E-3
 6.457747646450000E9    -5.803248942266348E-1   -1.057604608817090E-1   -5.794570948474328E-3    5.096979091055026E-2   -3.246943533011421E-3    5.030527817631084E-2   -5.371062545059613E-1    3.266406112160467E-3
 6.457759215500000E9    -5.805102806180397E-1   -1.045938340930666E-1   -5.683929521389083E-3    5.125097502040373E-2   -3.107316374272181E-3    5.066310396023752E-2   -5.371406566197932E-1    4.892943027728987E-3
 6.457770784550000E9    -5.805515176412945E-1   -1.035302747025824E-1   -5.588243942764037E-3    5.166174424833221E-2   -2.942188740590447E-3    5.111689891379962E-2   -5.369597380888995E-1    6.627806993303778E-3
 6.457782353600000E9    -5.807197049110937E-1   -1.023735714594276E-1   -5.486221778003560E-3    5.207168514919143E-2   -2.856062139493030E-3    5.151625536813579E-2   -5.368435658491341E-1    8.079618961013309E-3
 6.457793922650000E9    -5.809776261627042E-1   -1.012916817270684E-1   -5.531129236465102E-3    5.249192205840188E-2   -2.762828837514207E-3    5.194994856505235E-2   -5.368164202887442E-1    9.733584020343980E-3
 6.457805491700000E9    -5.810105227859425E-1   -1.001965237948435E-1   -5.173734062916857E-3    5.300007003940415E-2   -2.576727409705107E-3    5.234400448538549E-2   -5.368221884811002E-1    1.131870209975145E-2
 6.457817060750000E9    -5.811748675481496E-1   -9.922188684774021E-2   -5.143639870795869E-3    5.332628389865635E-2   -2.563299445138922E-3    5.268909162726116E-2   -5.366437837638581E-1    1.308149768654050E-2
 6.457828629800000E9    -5.812246834800400E-1   -9.792078808783247E-2   -5.005386632737104E-3    5.381588573351586E-2   -2.358329518029307E-3    5.309185560229843E-2   -5.366396411830993E-1    1.469755116680709E-2
 6.457840198850000E9    -5.813365406723403E-1   -9.689048339439968E-2   -5.006448891963872E-3    5.437240710540841E-2   -2.214960801676034E-3    5.364734948699361E-2   -5.364619852995458E-1    1.629189994487916E-2
 6.457851767900000E9    -5.814530073972548E-1   -9.580684210978754E-2   -4.801084289957037E-3    5.472563376344167E-2   -2.079378499272408E-3    5.405857628353622E-2   -5.363240677775281E-1    1.801641739702843E-2
 6.457863336950000E9    -5.815454452023096E-1   -9.469004960326723E-2   -4.675873804472097E-3    5.535428988613713E-2   -1.920799769287557E-3    5.442862151245812E-2   -5.362296964101835E-1    1.979505183162067E-2
 6.457874906000000E9    -5.817019851209297E-1   -9.354852885198106E-2   -4.621925355771361E-3    5.572860984361044E-2   -1.821270036072515E-3    5.487644584941380E-2   -5.360777284603523E-1    2.144383822187716E-2
 6.457886475050000E9    -5.818416889051080E-1   -9.242712104695106E-2   -4.497079776342894E-3    5.611386761295988E-2   -1.704557654749387E-3    5.543041257715008E-2   -5.359600004159846E-1    2.321718746063888E-2
 6.457898044100000E9    -5.819750514969892E-1   -9.130998602569410E-2   -4.326899299543136E-3    5.646828908332362E-2   -1.476199669361795E-3    5.589084008278759E-2   -5.358271718842788E-1    2.489366924179359E-2
 6.457909613150000E9    -5.820981031304042E-1   -9.004386427315779E-2   -4.117776661862815E-3    5.726969533082309E-2   -1.396852690725276E-3    5.630202951942680E-2   -5.355800406593316E-1    2.679814619252058E-2
 6.457921182200000E9    -5.821467830405209E-1   -8.893068322453765E-2   -3.967750431066333E-3    5.758681846157618E-2   -1.143732573075280E-3    5.680237872822261E-2   -5.354010583158939E-1    2.854932218273407E-2
 6.457932751250000E9    -5.822233952745515E-1   -8.778622522785806E-2   -3.784831524489114E-3    5.824947997982469E-2   -1.049771887012759E-3    5.724003928934363E-2   -5.353753296241429E-1    3.043534750836424E-2
 6.457944320300000E9    -5.823610695830460E-1   -8.673426517875533E-2   -3.706732440374628E-3    5.858203188800495E-2   -8.062353626896264E-4    5.768843926824392E-2   -5.349352387257598E-1    3.210728056981230E-2
 6.457955889350000E9    -5.824693890141643E-1   -8.552825628416479E-2   -3.604597216323133E-3    5.911708284488135E-2   -7.709543191055406E-4    5.824344966565290E-2   -5.348635330412110E-1    3.388576902076261E-2
 6.457967458400000E9    -5.824626926817460E-1   -8.439311644229641E-2   -3.374078110785938E-3    5.967823102167421E-2   -5.101336273725197E-4    5.872769277656102E-2   -5.346724797068785E-1    3.583642203485917E-2
 6.457979027450000E9    -5.825587234130049E-1   -8.316155974337096E-2   -3.253151741782253E-3    6.039571567147808E-2   -2.617123730383213E-4    5.941480981929185E-2   -5.345170778526100E-1    3.762175847121515E-2
 6.457990596500000E9    -5.826871506527503E-1   -8.212244495407507E-2   -3.004841078542344E-3    6.078246887211868E-2   -1.472952077609804E-4    5.983782550537432E-2   -5.343807362970060E-1    3.940431678826286E-2
