#  HZ   S   RI   R     50.00 
! Rohde & Schwarz Vector Network Analyzer 
! Rohde-Schwarz,ZNB20-2Port,1311601062101988,3.16
! Created: UTC 3/20/2024, 11:01:18 PM
! freq[Hz]                re:S11                  im:S11                  re:S21                  im:S21                  re:S12                  im:S12                  re:S22                  im:S22
 6.456950334000000E9    -5.655813828378516E-1   -1.754760441970789E-1   -9.030584334706566E-3    3.221632315314808E-2   -7.407102062925920E-3    3.227917825678478E-2   -5.309525740225488E-1   -9.027891696115679E-2
 6.456961895850000E9    -5.657993400055520E-1   -1.745150251067471E-1   -9.174446896408405E-3    3.253333445740494E-2   -7.363457105808504E-3    3.235787407353279E-2   -5.312027855873113E-1   -8.909672169947760E-2
 6.456973457700000E9    -5.661602334943863E-1   -1.735862735071974E-1   -8.989066826766937E-3    3.262495010176900E-2   -7.356518835604284E-3    3.253025838106664E-2   -5.313186588630621E-1   -8.789131344045223E-2
 6.456985019550000E9    -5.664107692605871E-1   -1.725670516572020E-1   -9.086226668772419E-3    3.274484450113558E-2   -7.304271770117565E-3    3.276158698969791E-2   -5.316507909831379E-1   -8.667656903744504E-2
 6.456996581400000E9    -5.666440149143285E-1   -1.715688980188296E-1   -9.075961180442387E-3    3.298781319315795E-2   -7.317940031226106E-3    3.299478929089890E-2   -5.318376492247526E-1   -8.557776447684041E-2
 6.457008143250000E9    -5.668505452616200E-1   -1.707711361022987E-1   -8.952872952722709E-3    3.306701733460660E-2   -7.206004439259957E-3    3.318130364708254E-2   -5.319518374777937E-1   -8.433121977022674E-2
 6.457019705100000E9    -5.671280228134361E-1   -1.697430345123242E-1   -8.970499004619143E-3    3.331516885848159E-2   -7.234519547792484E-3    3.335620487015749E-2   -5.322159706254075E-1   -8.302677166805310E-2
 6.457031266950000E9    -5.674012530673446E-1   -1.687436005190338E-1   -8.927549640312237E-3    3.359593589666796E-2   -7.019761611849854E-3    3.351876945653857E-2   -5.321659288628507E-1   -8.196590826160534E-2
 6.457042828800000E9    -5.676536228959101E-1   -1.677326151636056E-1   -8.844098689220523E-3    3.373526591139898E-2   -7.127478071128765E-3    3.366362292219646E-2   -5.324351430345666E-1   -8.055410381649493E-2
 6.457054390650000E9    -5.679490953907015E-1   -1.668438861754585E-1   -8.942482265207875E-3    3.388339671041871E-2   -7.115983238618906E-3    3.386011530103325E-2   -5.327285199327286E-1   -7.936547082944505E-2
 6.457065952500000E9    -5.683463182636637E-1   -1.658899243055365E-1   -8.934939339616133E-3    3.411320119948763E-2   -7.083448836903797E-3    3.411597895648765E-2   -5.327554942822235E-1   -7.824809722939002E-2
 6.457077514350000E9    -5.684174212191520E-1   -1.649227449229840E-1   -8.966758618248177E-3    3.421035329893535E-2   -7.043284016883043E-3    3.434043851699527E-2   -5.329621304736322E-1   -7.696904366805582E-2
 6.457089076200000E9    -5.686990889434036E-1   -1.639507768379405E-1   -8.827923146799251E-3    3.463734207430681E-2   -7.046656854623357E-3    3.448668005541605E-2   -5.331080578834095E-1   -7.575690632216704E-2
 6.457100638050000E9    -5.689979116195664E-1   -1.628886952415016E-1   -9.002840406863551E-3    3.475206850519220E-2   -6.960829910093266E-3    3.464521833897971E-2   -5.334137990420468E-1   -7.439110867047495E-2
 6.457112199900000E9    -5.692962199387783E-1   -1.618798886119978E-1   -8.760707510887700E-3    3.494249185328546E-2   -6.854263028877822E-3    3.493521524442974E-2   -5.336041685745492E-1   -7.326646132332627E-2
 6.457123761750000E9    -5.695759625175587E-1   -1.610183662780753E-1   -8.778513420383398E-3    3.519609704384923E-2   -6.835772006950733E-3    3.521891962697267E-2   -5.336507313979750E-1   -7.216726562543582E-2
 6.457135323600000E9    -5.696826081720271E-1   -1.600362512268492E-1   -8.705017644744869E-3    3.542054517515528E-2   -6.842663638026504E-3    3.534040838399560E-2   -5.337516285471260E-1   -7.083431162337976E-2
 6.457146885450000E9    -5.699994551169236E-1   -1.590721117041703E-1   -8.676809412931603E-3    3.559977499943052E-2   -6.769853096355933E-3    3.543288748465925E-2   -5.340232431903486E-1   -6.959457843226072E-2
 6.457158447300000E9    -5.702051678109195E-1   -1.580972706790120E-1   -8.664680871867943E-3    3.575694012827177E-2   -6.773144323638547E-3    3.570628215918129E-2   -5.340421329159429E-1   -6.834964784823222E-2
 6.457170009150000E9    -5.703970034723362E-1   -1.571256799593068E-1   -8.687324443698023E-3    3.614872136013775E-2   -6.648261482860686E-3    3.582161923062812E-2   -5.342832173747013E-1   -6.712153659654052E-2
 6.457181571000000E9    -5.706665085307790E-1   -1.561931459676584E-1   -8.704191543847059E-3    3.621408586330459E-2   -6.727193729097550E-3    3.608851821729031E-2   -5.342859619658223E-1   -6.572373495492545E-2
 6.457193132850000E9    -5.711328511386109E-1   -1.551530110897135E-1   -8.666990131851654E-3    3.645514913838282E-2   -6.550458448235185E-3    3.634702800964297E-2   -5.345073747022783E-1   -6.454164625269336E-2
 6.457204694700000E9    -5.712433423110088E-1   -1.541740393726075E-1   -8.454115681920281E-3    3.687095437377028E-2   -6.682252125595976E-3    3.659140328627337E-2   -5.348103751299699E-1   -6.316655494467426E-2
 6.457216256550000E9    -5.714929651055330E-1   -1.532327567198152E-1   -8.512765895830887E-3    3.691518586287615E-2   -6.645690692968028E-3    3.684082953857753E-2   -5.348429856559455E-1   -6.205366354986593E-2
 6.457227818400000E9    -5.716572077439198E-1   -1.521951040432951E-1   -8.511355147968202E-3    3.718079279379832E-2   -6.504285797900928E-3    3.694252100309108E-2   -5.349410524635495E-1   -6.074636471899050E-2
 6.457239380250000E9    -5.719129541772129E-1   -1.512245378419808E-1   -8.353482084435740E-3    3.741535810171587E-2   -6.478553817871133E-3    3.730933815835109E-2   -5.351877835456453E-1   -5.943173951381454E-2
 6.457250942100000E9    -5.720912179758401E-1   -1.502438890977133E-1   -8.427296153233911E-3    3.763618769078492E-2   -6.427976637211587E-3    3.750159877294541E-2   -5.352641164796794E-1   -5.816791671839282E-2
 6.457262503950000E9    -5.725015647701365E-1   -1.491506178135121E-1   -8.426578150081437E-3    3.785303462922410E-2   -6.284177030216283E-3    3.776391667016479E-2   -5.352049474598557E-1   -5.678990171637222E-2
 6.457274065800000E9    -5.726168611616916E-1   -1.481790166412498E-1   -8.467775623452349E-3    3.817124644115733E-2   -6.356912066481158E-3    3.799056973406741E-2   -5.354050436537638E-1   -5.549322328069937E-2
 6.457285627650000E9    -5.728126107392707E-1   -1.472514050770294E-1   -8.177611635126158E-3    3.839171805730501E-2   -6.316362030761292E-3    3.823464364326250E-2   -5.355739758027754E-1   -5.432270090386533E-2
 6.457297189500000E9    -5.730820110984455E-1   -1.462267401409131E-1   -8.267872539634524E-3    3.856932551521201E-2   -6.171849831736708E-3    3.852564784366532E-2   -5.355781638996535E-1   -5.290915486389335E-2
 6.457308751350000E9    -5.732338285388825E-1   -1.452168175143120E-1   -8.089984215834376E-3    3.888194925634977E-2   -6.169731825897542E-3    3.864541928801228E-2   -5.357907704952543E-1   -5.159975215133859E-2
 6.457320313200000E9    -5.735066138781577E-1   -1.442372072966034E-1   -8.196931065384570E-3    3.909121846254340E-2   -6.121164586279031E-3    3.897653541792916E-2   -5.359512800204880E-1   -5.035675248839636E-2
 6.457331875050000E9    -5.737050175531968E-1   -1.431578092911827E-1   -8.191930733524345E-3    3.931439675515536E-2   -6.048418221863370E-3    3.916455212518229E-2   -5.360776205007138E-1   -4.892766099668650E-2
 6.457343436900000E9    -5.738643452809256E-1   -1.422321244080644E-1   -8.108004997816149E-3    3.959036919991665E-2   -5.988990436632360E-3    3.947244602532998E-2   -5.362115267094072E-1   -4.763086626898649E-2
 6.457354998750000E9    -5.741798170217455E-1   -1.412836438573512E-1   -7.992166858407595E-3    3.986221616917376E-2   -5.980791247542458E-3    3.957084299417957E-2   -5.363596543545514E-1   -4.623792674231500E-2
 6.457366560600000E9    -5.743080740068413E-1   -1.401470080997398E-1   -8.130977507557065E-3    4.023895257909323E-2   -5.818666914140258E-3    3.989465313881896E-2   -5.362646627936691E-1   -4.500382070045318E-2
 6.457378122450000E9    -5.746614143601609E-1   -1.392396500020734E-1   -8.006822849960828E-3    4.053521180187892E-2   -5.863034541487944E-3    4.013907269315422E-2   -5.363375750104876E-1   -4.363359123806224E-2
 6.457389684300000E9    -5.747362668209826E-1   -1.381488113777959E-1   -7.818434836089549E-3    4.072212606960465E-2   -5.772676387396421E-3    4.047000644994720E-2   -5.364542931560382E-1   -4.221010154979216E-2
 6.457401246150000E9    -5.750997652555349E-1   -1.371852220856912E-1   -7.948518898478273E-3    4.101851976966879E-2   -5.706168946497347E-3    4.062214237974523E-2   -5.366458847026376E-1   -4.080034157115994E-2
 6.457412808000000E9    -5.752586203413377E-1   -1.361689386006288E-1   -7.757205604396248E-3    4.118570031842208E-2   -5.572909387492033E-3    4.093510617924825E-2   -5.366771647906677E-1   -3.960188758383861E-2
 6.457424369850000E9    -5.753336764534296E-1   -1.351206589133790E-1   -7.723167428985636E-3    4.146309030768688E-2   -5.558141249340092E-3    4.125339402222760E-2   -5.368155440434095E-1   -3.814245559177933E-2
 6.457435931700000E9    -5.756316290404165E-1   -1.340881068899774E-1   -7.655770921951435E-3    4.179280479081725E-2   -5.428049540406790E-3    4.154894739379319E-2   -5.368903615716921E-1   -3.655651922725806E-2
 6.457447493550000E9    -5.758390799592781E-1   -1.330458672296820E-1   -7.592668654524668E-3    4.205273277829437E-2   -5.343467454883240E-3    4.179374442752264E-2   -5.368387564246428E-1   -3.544226796856154E-2
 6.457459055400000E9    -5.760404839333564E-1   -1.321255868212496E-1   -7.555430938270043E-3    4.243815954012190E-2   -5.355025837478034E-3    4.209342668673432E-2   -5.370222299151731E-1   -3.408641537706728E-2
 6.457470617250000E9    -5.762001061551033E-1   -1.309104238409459E-1   -7.444510929182227E-3    4.258428327471882E-2   -5.237181313319353E-3    4.240371274851678E-2   -5.371027423105423E-1   -3.257343731994364E-2
 6.457482179100000E9    -5.763706421776768E-1   -1.299321893692701E-1   -7.319669971223916E-3    4.306218283569357E-2   -5.277266007102249E-3    4.264651428828898E-2   -5.371021256900692E-1   -3.123319259239915E-2
 6.457493740950000E9    -5.766087557934340E-1   -1.289853305172586E-1   -7.448052391634180E-3    4.327187867422292E-2   -5.142593546752334E-3    4.302126716419669E-2   -5.371509975039679E-1   -2.989620354632770E-2
 6.457505302800000E9    -5.769033610196262E-1   -1.279706659617295E-1   -7.374909546085073E-3    4.358145441813996E-2   -5.143821972614649E-3    4.323047780963533E-2   -5.371379886920897E-1   -2.835820648520537E-2
 6.457516864650000E9    -5.770907589078640E-1   -1.268252496315717E-1   -7.352509809203437E-3    4.383638453770538E-2   -5.047510987199909E-3    4.350195186318032E-2   -5.372776027540174E-1   -2.693411594930886E-2
 6.457528426500000E9    -5.772360734869529E-1   -1.258506604897252E-1   -7.245539861980205E-3    4.409248847034913E-2   -5.016108655959477E-3    4.383748725497087E-2   -5.373608189796395E-1   -2.547085621772569E-2
 6.457539988350000E9    -5.774593974530942E-1   -1.248018892185981E-1   -7.185860999937216E-3    4.455792472236666E-2   -4.888141349548110E-3    4.415130958404442E-2   -5.372412319261253E-1   -2.410108778661680E-2
 6.457551550200000E9    -5.775806427238889E-1   -1.238551447079475E-1   -7.185541562008719E-3    4.480159507749638E-2   -4.833682663925860E-3    4.445036238178421E-2   -5.373899615817469E-1   -2.253629415490295E-2
 6.457563112050000E9    -5.777291654020124E-1   -1.227782106221766E-1   -7.150996256764049E-3    4.514594014379501E-2   -4.699979696956382E-3    4.478641797290332E-2   -5.373084573124666E-1   -2.107727960272748E-2
 6.457574673900000E9    -5.779418951958013E-1   -1.217624105802491E-1   -6.901014111213532E-3    4.555642037562323E-2   -4.662671560419461E-3    4.497442664812703E-2   -5.374566092858953E-1   -1.965939316505808E-2
 6.457586235750000E9    -5.781375190803993E-1   -1.205849016077421E-1   -6.998662531939799E-3    4.576828531604686E-2   -4.575343351174491E-3    4.540838499275463E-2   -5.375170952546398E-1   -1.822282566287977E-2
 6.457597797600000E9    -5.783360789454652E-1   -1.195487619368127E-1   -6.798453123950525E-3    4.602966127810924E-2   -4.466659052612868E-3    4.580168140656400E-2   -5.374533435153903E-1   -1.679899061735825E-2
 6.457609359450000E9    -5.784151730645012E-1   -1.184104295565808E-1   -6.749412987146451E-3    4.656516061839095E-2   -4.456786423681075E-3    4.603024365283533E-2   -5.373667369342660E-1   -1.537556046367917E-2
 6.457620921300000E9    -5.785339814431777E-1   -1.174285301741265E-1   -6.658271409079941E-3    4.681723261545209E-2   -4.403869913886585E-3    4.637347733910185E-2   -5.374163288459611E-1   -1.371458561158056E-2
 6.457632483150000E9    -5.787702262041726E-1   -1.164463538113300E-1   -6.673046532398840E-3    4.711275586308523E-2   -4.206582911303121E-3    4.670001609283470E-2   -5.374094121930048E-1   -1.225340041317786E-2
 6.457644045000000E9    -5.788940897656810E-1   -1.153971068137068E-1   -6.418898326542346E-3    4.755171673234689E-2   -4.101513225527088E-3    4.705412319428828E-2   -5.373870032092942E-1   -1.069738190764934E-2
 6.457655606850000E9    -5.790977252689968E-1   -1.143423675653270E-1   -6.358312980257587E-3    4.784901091145740E-2   -3.968481042646931E-3    4.736409010866847E-2   -5.374840298021804E-1   -9.200824984477969E-3
 6.457667168700000E9    -5.793028207957659E-1   -1.132255303956651E-1   -6.412778698367432E-3    4.822853316458752E-2   -3.958592489247702E-3    4.776521603822090E-2   -5.374854224256426E-1   -7.768640673370048E-3
 6.457678730550000E9    -5.793803330761740E-1   -1.121342868745148E-1   -6.320744882418359E-3    4.865743581883351E-2   -3.834872977520758E-3    4.813372994408549E-2   -5.373813199263374E-1   -6.041563997214513E-3
 6.457690292400000E9    -5.794873905867366E-1   -1.111012428745445E-1   -6.295489343782973E-3    4.898517497566809E-2   -3.744368557491928E-3    4.844319694969876E-2   -5.374008953897574E-1   -4.640995357572028E-3
 6.457701854250000E9    -5.797527185288074E-1   -1.100823812647149E-1   -6.052337628810044E-3    4.941270041681037E-2   -3.668803517458016E-3    4.881417636546821E-2   -5.373090717301787E-1   -3.009514722952069E-3
 6.457713416100000E9    -5.798585437731688E-1   -1.089486758797878E-1   -6.178857734783372E-3    4.986297017223093E-2   -3.541403640149239E-3    4.918398797781863E-2   -5.372758286845715E-1   -1.472941097374000E-3
 6.457724977950000E9    -5.801050767351588E-1   -1.079348583427197E-1   -5.788388008402500E-3    5.017215017535273E-2   -3.406599184389130E-3    4.965921582909212E-2   -5.373944885861550E-1    1.391251767262065E-4
 6.457736539800000E9    -5.802185789181961E-1   -1.068051741333929E-1   -5.907674496106493E-3    5.068512243161077E-2   -3.289176614057968E-3    4.995324931396095E-2   -5.371251619248634E-1    1.604564539997989E-3
 6.457748101650000E9    -5.803098247228642E-1   -1.056649781599019E-1   -5.762855113176096E-3    5.097525479529773E-2   -3.274359173651419E-3    5.040310896172818E-2   -5.370957479532958E-1    3.144093635916529E-3
 6.457759663500000E9    -5.805526629575271E-1   -1.046977434961552E-1   -5.709199723173321E-3    5.121453694075076E-2   -3.161359794613200E-3    5.067745652968736E-2   -5.371337651670769E-1    4.910664244745585E-3
 6.457771225350000E9    -5.806059540571336E-1   -1.035460141656275E-1   -5.509524893566591E-3    5.180550719127647E-2   -2.938067327444998E-3    5.118515612938659E-2   -5.371307581692102E-1    6.464773535429365E-3
 6.457782787200000E9    -5.807976631799038E-1   -1.024351094952279E-1   -5.463096689671832E-3    5.213676009727117E-2   -2.894642912652900E-3    5.153577418598291E-2   -5.368726504533414E-1    8.110292582247269E-3
 6.457794349050000E9    -5.809638144236202E-1   -1.013265614361840E-1   -5.427389735619996E-3    5.265829913884317E-2   -2.797891300230603E-3    5.193160744467255E-2   -5.368148946100865E-1    9.620134843056915E-3
 6.457805910900000E9    -5.810276106101793E-1   -1.001026396314857E-1   -5.248696618189714E-3    5.293672154223274E-2   -2.536571737945804E-3    5.236278794128326E-2   -5.367988692241120E-1    1.146234030899075E-2
 6.457817472750000E9    -5.810567451542329E-1   -9.905556511377361E-2   -5.233137308109003E-3    5.337988145209360E-2   -2.465954802401852E-3    5.288239593008408E-2   -5.366365857157935E-1    1.315168032858840E-2
 6.457829034600000E9    -5.812363690023901E-1   -9.800545184677517E-2   -4.935226336529282E-3    5.383075734981284E-2   -2.327955122262705E-3    5.316917535360834E-2   -5.365819699181651E-1    1.473359767545008E-2
 6.457840596450000E9    -5.813246203625314E-1   -9.686070373555958E-2   -4.901041541225719E-3    5.441560225021568E-2   -2.176957822352467E-3    5.363854121689346E-2   -5.365621928561948E-1    1.656934812000881E-2
 6.457852158300000E9    -5.814767771674714E-1   -9.571013795416476E-2   -4.728040829607999E-3    5.488242220318332E-2   -2.059688508034679E-3    5.410199840363192E-2   -5.364318212052961E-1    1.814989893034180E-2
 6.457863720150000E9    -5.815084890909692E-1   -9.462964826526239E-2   -4.635241735679267E-3    5.519156683445305E-2   -1.899335739248097E-3    5.450580415007961E-2   -5.362950278378044E-1    1.988284073664288E-2
 6.457875282000000E9    -5.817427513750326E-1   -9.351718675407200E-2   -4.548443599983145E-3    5.576169088568798E-2   -1.756354154692747E-3    5.497401457258756E-2   -5.361437257228845E-1    2.142114878564222E-2
 6.457886843850000E9    -5.817722346306714E-1   -9.239169011107880E-2   -4.311412966919927E-3    5.626317288743329E-2   -1.606167013864720E-3    5.536722257524958E-2   -5.358740177431219E-1    2.337562321655621E-2
 6.457898405700000E9    -5.819672903486519E-1   -9.119667677279508E-2   -4.238145000746251E-3    5.665642128865102E-2   -1.516183810814501E-3    5.589927781871825E-2   -5.358341446957695E-1    2.498564208373966E-2
 6.457909967550000E9    -5.821029675240943E-1   -9.015766457870270E-2   -4.217628523309511E-3    5.722645857321979E-2   -1.379618209864112E-3    5.633675720694906E-2   -5.356072759669170E-1    2.673539188532431E-2
 6.457921529400000E9    -5.821645639460296E-1   -8.894218408486124E-2   -4.061955400527989E-3    5.782211500608071E-2   -1.163804531360384E-3    5.690615034099492E-2   -5.354289701610054E-1    2.859776531390487E-2
 6.457933091250000E9    -5.822351117782186E-1   -8.789002379605040E-2   -3.778392880410814E-3    5.818184016233557E-2   -1.007046791924651E-3    5.734462003015187E-2   -5.353291331505008E-1    3.046304176626896E-2
 6.457944653100000E9    -5.822564742991801E-1   -8.656838774927428E-2   -3.662676267211974E-3    5.874689117129082E-2   -8.776038103902794E-4    5.778150237124506E-2   -5.351062160740023E-1    3.208647172689098E-2
 6.457956214950000E9    -5.823191433004956E-1   -8.551187517179126E-2   -3.582777905375198E-3    5.924707543200430E-2   -6.469779489143844E-4    5.830297386295188E-2   -5.348513979072631E-1    3.410543260175930E-2
 6.457967776800000E9    -5.825009645949046E-1   -8.438808262025004E-2   -3.443886949955129E-3    5.979108968176083E-2   -4.597197536530903E-4    5.885315727909587E-2   -5.344875528495975E-1    3.590284599003998E-2
 6.457979338650000E9    -5.825549229888090E-1   -8.309200663559740E-2   -3.262984426902204E-3    6.021100680747284E-2   -2.937031058684718E-4    5.933350636607913E-2   -5.344826933421930E-1    3.765503932165253E-2
 6.457990900500000E9    -5.825104743108325E-1   -8.199059896004808E-2   -3.098994840444751E-3    6.093378925457265E-2   -1.393812379811725E-4    5.981019295182293E-2   -5.343739464988727E-1    3.960923811608592E-2
