#  HZ   S   RI   R     50.00 
! Rohde & Schwarz Vector Network Analyzer 
! Rohde-Schwarz,ZNB20-2Port,1311601062101988,3.16
! Created: UTC 3/20/2024, 10:52:56 PM
! freq[Hz]                re:S11                  im:S11                  re:S21                  im:S21                  re:S12                  im:S12                  re:S22                  im:S22
 6.457055938000000E9    -5.676182290713824E-1   -1.676470938127260E-1   -8.602276297280373E-3    3.292506760250530E-2   -6.946231593499413E-3    3.297583171808514E-2   -5.344700069369250E-1   -7.733283394093744E-2
 6.457067277650000E9    -5.678882991242569E-1   -1.668324944820783E-1   -8.566296474815551E-3    3.322307965117573E-2   -6.849821908787627E-3    3.305999565555862E-2   -5.346836211001342E-1   -7.602179321520722E-2
 6.457078617300000E9    -5.681860759743148E-1   -1.657685593268661E-1   -8.617332633839091E-3    3.334994474361287E-2   -6.830639832900188E-3    3.329604487913396E-2   -5.346838643030289E-1   -7.491669122325943E-2
 6.457089956950000E9    -5.684448989089098E-1   -1.649392968567925E-1   -8.659915007634239E-3    3.350828337001298E-2   -6.820132632587086E-3    3.342936609403752E-2   -5.348670215422162E-1   -7.371977850406021E-2
 6.457101296600000E9    -5.686820904116193E-1   -1.638992724298658E-1   -8.623744044841659E-3    3.362305300673987E-2   -6.879692554751774E-3    3.365108479229361E-2   -5.351903492891715E-1   -7.262950135964689E-2
 6.457112636250000E9    -5.689740048847658E-1   -1.629427602390400E-1   -8.481845841957174E-3    3.391220035219342E-2   -6.666670503538729E-3    3.388333754799921E-2   -5.353392968655077E-1   -7.134290626626946E-2
 6.457123975900000E9    -5.691613681590433E-1   -1.620688869077825E-1   -8.426823267229450E-3    3.400318744736605E-2   -6.692999225349916E-3    3.398973620387318E-2   -5.355328043455247E-1   -7.014669357343774E-2
 6.457135315550000E9    -5.694517608468718E-1   -1.611094876523201E-1   -8.522293896673938E-3    3.438074348389560E-2   -6.652354255835618E-3    3.420673428040836E-2   -5.356811249958436E-1   -6.891015964314136E-2
 6.457146655200000E9    -5.696811584779685E-1   -1.601540740480466E-1   -8.454134961335789E-3    3.447146710196644E-2   -6.621933000203308E-3    3.442801367542912E-2   -5.357120710618892E-1   -6.767985035577893E-2
 6.457157994850000E9    -5.698739826083686E-1   -1.591303701536550E-1   -8.490900654208247E-3    3.463224706403661E-2   -6.601532520093155E-3    3.467488375188277E-2   -5.359589277792869E-1   -6.653521427009944E-2
 6.457169334500000E9    -5.700040984382464E-1   -1.581571600140013E-1   -8.417719574616237E-3    3.487313064533713E-2   -6.482809287340154E-3    3.477620731543708E-2   -5.360964010209605E-1   -6.526752213454683E-2
 6.457180674150000E9    -5.703942657237823E-1   -1.571689793093400E-1   -8.316401511213645E-3    3.512921008235535E-2   -6.478104209800902E-3    3.507680328719912E-2   -5.361143062996310E-1   -6.399899752673820E-2
 6.457192013800000E9    -5.705904059626924E-1   -1.564379474446488E-1   -8.268967763732073E-3    3.533980485680226E-2   -6.546889495481685E-3    3.517167474972997E-2   -5.364184116474344E-1   -6.282725938022601E-2
 6.457203353450000E9    -5.709098450100312E-1   -1.553976608347072E-1   -8.429689296663618E-3    3.553428425923176E-2   -6.467621438955489E-3    3.534275873550952E-2   -5.364204644945930E-1   -6.165011831149006E-2
 6.457214693100000E9    -5.709761904876290E-1   -1.543290918876214E-1   -8.283818939232041E-3    3.569568209120042E-2   -6.430052900183456E-3    3.558494382898589E-2   -5.365682291442504E-1   -6.048168716731669E-2
 6.457226032750000E9    -5.713582052778212E-1   -1.533111108519473E-1   -8.307771519185277E-3    3.601525148226360E-2   -6.430350354193605E-3    3.592302867254440E-2   -5.367005527779425E-1   -5.915468661179814E-2
 6.457237372400000E9    -5.715975188181543E-1   -1.524983717500941E-1   -8.173971581537536E-3    3.617389077302493E-2   -6.355756049538763E-3    3.605313813961380E-2   -5.367803638450334E-1   -5.804470553438310E-2
 6.457248712050000E9    -5.718198826311670E-1   -1.515593028119690E-1   -8.200750975894743E-3    3.638142763563750E-2   -6.253635150529004E-3    3.620125547909378E-2   -5.368408544724695E-1   -5.692670956982306E-2
 6.457260051700000E9    -5.719307975874577E-1   -1.505455741610417E-1   -8.192291390011619E-3    3.658540337941169E-2   -6.301207172325306E-3    3.646322434762472E-2   -5.369776716164628E-1   -5.557709010065308E-2
 6.457271391350000E9    -5.722370167623194E-1   -1.495689435821352E-1   -8.164821404880859E-3    3.675049267278473E-2   -6.258739069785621E-3    3.664045560647421E-2   -5.372267209630436E-1   -5.418752541617772E-2
 6.457282731000000E9    -5.725024759636991E-1   -1.486551558303789E-1   -8.118585248282304E-3    3.707577535960568E-2   -6.140303324708447E-3    3.686765797128192E-2   -5.374071934912151E-1   -5.302452293202537E-2
 6.457294070650000E9    -5.726680470395815E-1   -1.476042052825472E-1   -8.053713447849669E-3    3.720555536129474E-2   -6.113164806699488E-3    3.721053485438273E-2   -5.375591035706316E-1   -5.173127822891974E-2
 6.457305410300000E9    -5.729355524655081E-1   -1.467183824173285E-1   -7.951933833472907E-3    3.754194605564342E-2   -6.041078668809831E-3    3.726604506805912E-2   -5.375042857522165E-1   -5.038164915791876E-2
 6.457316749950000E9    -5.731288286312087E-1   -1.457228870844825E-1   -7.974122315222668E-3    3.778096392527656E-2   -6.075590778611313E-3    3.760396811860486E-2   -5.375867838002782E-1   -4.930038493998323E-2
 6.457328089600000E9    -5.733572672411992E-1   -1.447878354317068E-1   -7.925452868109611E-3    3.803263152934001E-2   -5.947990394627490E-3    3.784262434142371E-2   -5.378667808196543E-1   -4.792361400062512E-2
 6.457339429250000E9    -5.736105443559466E-1   -1.437511741002914E-1   -7.988627331915726E-3    3.817644496550929E-2   -5.859775851991920E-3    3.795530629108170E-2   -5.378727031408410E-1   -4.662587822230062E-2
 6.457350768900000E9    -5.737948580158648E-1   -1.428601546274870E-1   -7.855598750912482E-3    3.848472154338034E-2   -5.745070903508019E-3    3.830189875742678E-2   -5.380287588253995E-1   -4.543726803095472E-2
 6.457362108550000E9    -5.740634964690748E-1   -1.417761992898065E-1   -7.950179969206156E-3    3.862089376663563E-2   -5.761644732513700E-3    3.851276661925934E-2   -5.380124209644738E-1   -4.402466946044443E-2
 6.457373448200000E9    -5.742546647128777E-1   -1.408008720316286E-1   -7.726745227750065E-3    3.901767419465110E-2   -5.769821655876283E-3    3.870744277148142E-2   -5.380966335564420E-1   -4.278831191619702E-2
 6.457384787850000E9    -5.744338575573212E-1   -1.398142910957086E-1   -7.734244329574162E-3    3.924110727426575E-2   -5.729793213466996E-3    3.888199437309583E-2   -5.381712891871488E-1   -4.163170874195535E-2
 6.457396127500000E9    -5.746228934601615E-1   -1.388490621327544E-1   -7.811343348444332E-3    3.943250505828545E-2   -5.709851778192459E-3    3.908436180574659E-2   -5.382504936654212E-1   -4.014385196225055E-2
 6.457407467150000E9    -5.748777402777362E-1   -1.378258148482555E-1   -7.670672048600832E-3    3.975012336318341E-2   -5.527377434015187E-3    3.940986964036902E-2   -5.384450955042853E-1   -3.879625515582527E-2
 6.457418806800000E9    -5.750031891541252E-1   -1.368531799914299E-1   -7.663010471207849E-3    3.982672976404421E-2   -5.492785041580094E-3    3.967248670934218E-2   -5.384217434723448E-1   -3.758600306379775E-2
 6.457430146450000E9    -5.753294144671489E-1   -1.358794819012127E-1   -7.490502853393783E-3    4.020064291284210E-2   -5.454701554602518E-3    3.990959323631880E-2   -5.384662680104819E-1   -3.634542735871394E-2
 6.457441486100000E9    -5.754848202175933E-1   -1.349495503093573E-1   -7.564953134084601E-3    4.064099742996345E-2   -5.377762431617687E-3    4.023690050774990E-2   -5.384878027950231E-1   -3.494612883643983E-2
 6.457452825750000E9    -5.756357273438153E-1   -1.338693826120305E-1   -7.495622296110420E-3    4.073499295794862E-2   -5.372836451996194E-3    4.047003185257304E-2   -5.385604659084356E-1   -3.360232394815020E-2
 6.457464165400000E9    -5.758082762388880E-1   -1.329911608643480E-1   -7.436199321525680E-3    4.099324704909783E-2   -5.343055685951877E-3    4.067907815281767E-2   -5.388947030946236E-1   -3.223715923318840E-2
 6.457475505050000E9    -5.761039959676022E-1   -1.319134437737960E-1   -7.318210891967687E-3    4.144239524276193E-2   -5.293883172050515E-3    4.092295851854807E-2   -5.389178193596387E-1   -3.087873646068075E-2
 6.457486844700000E9    -5.762095520137315E-1   -1.308525461547374E-1   -7.269384479545810E-3    4.153711780660541E-2   -5.193516308800992E-3    4.126117894662527E-2   -5.388187385923412E-1   -2.950340445825497E-2
 6.457498184350000E9    -5.764659891959327E-1   -1.298784163837209E-1   -7.337966158550337E-3    4.186142548105211E-2   -4.991302885040519E-3    4.150509889607153E-2   -5.389527832962127E-1   -2.822909526420688E-2
 6.457509524000000E9    -5.765556194238292E-1   -1.288917221002188E-1   -7.153174830088808E-3    4.204558817427580E-2   -5.078801545178186E-3    4.173487918580949E-2   -5.389119216602913E-1   -2.690652856059467E-2
 6.457520863650000E9    -5.768289177829878E-1   -1.279514239792724E-1   -7.082814026619728E-3    4.247416560532410E-2   -4.987766102308091E-3    4.202440932159588E-2   -5.388864333821710E-1   -2.545269167440754E-2
 6.457532203300000E9    -5.770276607564884E-1   -1.269432093261011E-1   -7.114865153813103E-3    4.262921716589289E-2   -4.834598283549859E-3    4.232737970633511E-2   -5.389458400709205E-1   -2.411971399566638E-2
 6.457543542950000E9    -5.771353748855060E-1   -1.259352027716124E-1   -7.116505898246846E-3    4.289809319336510E-2   -4.792487423593480E-3    4.248875295106374E-2   -5.390038756714041E-1   -2.285170712360289E-2
 6.457554882600000E9    -5.774171641432806E-1   -1.249653572008930E-1   -6.930187208656788E-3    4.333705851737241E-2   -4.775599676140226E-3    4.285396380005173E-2   -5.390343364140201E-1   -2.141646106302997E-2
 6.457566222250000E9    -5.774601987949205E-1   -1.238013827239238E-1   -6.975280727696438E-3    4.349868111596850E-2   -4.634464961911962E-3    4.324682260491161E-2   -5.391567665009319E-1   -2.007123541868480E-2
 6.457577561900000E9    -5.776903797573487E-1   -1.228120201149822E-1   -6.915345845919047E-3    4.382672561157237E-2   -4.585694326644695E-3    4.342797100203126E-2   -5.392199824481995E-1   -1.855491024708625E-2
 6.457588901550000E9    -5.780010624643044E-1   -1.218994225669133E-1   -6.715561248462895E-3    4.425436001690720E-2   -4.509467931785776E-3    4.368006076713669E-2   -5.392094677029594E-1   -1.720650450754402E-2
 6.457600241200000E9    -5.781120947206611E-1   -1.208479077120591E-1   -6.599227434087570E-3    4.455784792692591E-2   -4.551751699830963E-3    4.397124314818294E-2   -5.392435207472800E-1   -1.589414577370036E-2
 6.457611580850000E9    -5.783073827754284E-1   -1.197284388861979E-1   -6.726954199897941E-3    4.468531095972991E-2   -4.357428888707398E-3    4.426865064981435E-2   -5.391886962029450E-1   -1.431132654629291E-2
 6.457622920500000E9    -5.784539866213653E-1   -1.187146709496078E-1   -6.628968193762305E-3    4.511054427892015E-2   -4.295582019278296E-3    4.465709466642292E-2   -5.392501502447022E-1   -1.302530269942397E-2
 6.457634260150000E9    -5.786858837371511E-1   -1.176950476390124E-1   -6.563796349195626E-3    4.541594060326705E-2   -4.181841809194621E-3    4.494420425474831E-2   -5.391654099599896E-1   -1.155167960716160E-2
 6.457645599800000E9    -5.786838433362153E-1   -1.167165295141645E-1   -6.466310696289088E-3    4.577638300259298E-2   -4.159693081304455E-3    4.522037865767360E-2   -5.393478461512122E-1   -1.000541669143523E-2
 6.457656939450000E9    -5.789559190412437E-1   -1.157328652489192E-1   -6.326757915991710E-3    4.600279634295855E-2   -4.009333699567260E-3    4.564074678083360E-2   -5.392747848965442E-1   -8.561568164340790E-3
 6.457668279100000E9    -5.790708253014452E-1   -1.146884984242073E-1   -6.468568881349984E-3    4.635806982668607E-2   -3.952939734467722E-3    4.588856466872886E-2   -5.391934978672326E-1   -7.077275718312729E-3
 6.457679618750000E9    -5.791793248721043E-1   -1.135917340826034E-1   -6.277192664302214E-3    4.678670108108448E-2   -3.815244843166047E-3    4.625076366395470E-2   -5.391643385190991E-1   -5.641493960550433E-3
 6.457690958400000E9    -5.793747337210885E-1   -1.126228350214445E-1   -6.230979227506803E-3    4.715902593485210E-2   -3.766786068745556E-3    4.655069751626675E-2   -5.392174248183778E-1   -4.171858429810939E-3
 6.457702298050000E9    -5.795470478751162E-1   -1.114890699585689E-1   -6.095010595371479E-3    4.740976988711603E-2   -3.669921731675428E-3    4.692037425377758E-2   -5.392393765745908E-1   -2.828085881995570E-3
 6.457713637700000E9    -5.796501388320731E-1   -1.104011548309565E-1   -6.056103192275684E-3    4.779537069061422E-2   -3.545865273920329E-3    4.719816651935158E-2   -5.391294414092730E-1   -1.353274116188216E-3
 6.457724977350000E9    -5.799121653793620E-1   -1.094236362948341E-1   -5.886801355297084E-3    4.795049200691600E-2   -3.503863524649374E-3    4.755062997167641E-2   -5.390848152049693E-1    2.932036174231128E-4
 6.457736317000000E9    -5.800900410359722E-1   -1.083627499578279E-1   -5.825450268747187E-3    4.848384757428308E-2   -3.435425185010184E-3    4.795955098198015E-2   -5.390252043378372E-1    1.716467412798115E-3
 6.457747656650000E9    -5.801012284424464E-1   -1.073262457168854E-1   -5.693389529502422E-3    4.888445632484232E-2   -3.387822454236927E-3    4.828883375393885E-2   -5.389993713660109E-1    3.259917410458922E-3
 6.457758996300000E9    -5.803112670880713E-1   -1.061798229125461E-1   -5.737022757117453E-3    4.926378997956577E-2   -3.200541341884001E-3    4.862679560091653E-2   -5.391828372531176E-1    4.758101130765013E-3
 6.457770335950000E9    -5.805271220803226E-1   -1.052399022589779E-1   -5.591252476515681E-3    4.959283409938658E-2   -3.117676783887179E-3    4.897613206156076E-2   -5.388268842492239E-1    6.310696176082425E-3
 6.457781675600000E9    -5.806083370756386E-1   -1.041491614010891E-1   -5.591226380989487E-3    4.993335517455744E-2   -2.971301468441022E-3    4.929266363401485E-2   -5.387993539259980E-1    7.868913139659865E-3
 6.457793015250000E9    -5.807801165742107E-1   -1.030595992413166E-1   -5.357655860198431E-3    5.033228442285048E-2   -3.007092941567203E-3    4.970865216709415E-2   -5.387936194661636E-1    9.361549269887505E-3
 6.457804354900000E9    -5.809110470132846E-1   -1.019989560007140E-1   -5.247580460692027E-3    5.079795507237956E-2   -2.781678956107491E-3    5.012371155306055E-2   -5.386992771629040E-1    1.103564075541033E-2
 6.457815694550000E9    -5.810343186815995E-1   -1.009863324034495E-1   -5.189330001384476E-3    5.122545720857897E-2   -2.674424706663471E-3    5.049144999340272E-2   -5.386134167081552E-1    1.251521682364432E-2
 6.457827034200000E9    -5.810969022049998E-1   -9.988373633745568E-2   -5.088778582690140E-3    5.150998352099417E-2   -2.591016625038633E-3    5.089490775077821E-2   -5.385623253090815E-1    1.417959951465313E-2
 6.457838373850000E9    -5.811541850545585E-1   -9.888257842372193E-2   -4.993360808578807E-3    5.196122171712367E-2   -2.410813565877179E-3    5.121477097538949E-2   -5.383351799416941E-1    1.564265598730754E-2
 6.457849713500000E9    -5.813712579115290E-1   -9.772016462249687E-2   -5.038261364692972E-3    5.229675862448450E-2   -2.350633739293630E-3    5.161241230453534E-2   -5.383770934503488E-1    1.720558282665643E-2
 6.457861053150000E9    -5.814010853412266E-1   -9.669066585149813E-2   -4.693276215916941E-3    5.279499863731715E-2   -2.221686174117303E-3    5.202791930833164E-2   -5.382632267382671E-1    1.894151232002525E-2
 6.457872392800000E9    -5.816009714120574E-1   -9.545719257014464E-2   -4.618978058451829E-3    5.310285744759253E-2   -2.041540194981218E-3    5.243186804346918E-2   -5.380753792093880E-1    2.052624799162373E-2
 6.457883732450000E9    -5.816747507927263E-1   -9.446372547854474E-2   -4.614378229622049E-3    5.355222973583911E-2   -1.879737704266562E-3    5.280855447799493E-2   -5.380406945708341E-1    2.215538546700020E-2
 6.457895072100000E9    -5.819579355193083E-1   -9.333734915859215E-2   -4.490569302482569E-3    5.397661722541066E-2   -1.774270499330515E-3    5.330961956925204E-2   -5.378908910616903E-1    2.379624001150503E-2
 6.457906411750000E9    -5.819649359569887E-1   -9.233121672568377E-2   -4.327844453394326E-3    5.452764403563310E-2   -1.660100185505105E-3    5.382542658616542E-2   -5.376774928176474E-1    2.543914836053264E-2
 6.457917751400000E9    -5.821007747052158E-1   -9.111284196729687E-2   -4.120764596813325E-3    5.485423582428962E-2   -1.522525076289374E-3    5.406773927572495E-2   -5.375318299732452E-1    2.714408116174626E-2
 6.457929091050000E9    -5.821815203276015E-1   -9.009326052313113E-2   -4.003328130794843E-3    5.540327380622503E-2   -1.339839190537342E-3    5.457247934319454E-2   -5.375086969026149E-1    2.872339427387418E-2
 6.457940430700000E9    -5.822496300332073E-1   -8.889286224887215E-2   -4.002618061300937E-3    5.577160349608531E-2   -1.228171380239290E-3    5.498991814457574E-2   -5.372824215181186E-1    3.048862396208029E-2
 6.457951770350000E9    -5.823698284311422E-1   -8.793028293904634E-2   -3.841406753949408E-3    5.635318955966584E-2   -1.046071809457415E-3    5.543712584824939E-2   -5.370660398098648E-1    3.215522315011361E-2
 6.457963110000000E9    -5.824554825918693E-1   -8.683659039381839E-2   -3.752955491924202E-3    5.682326031430674E-2   -1.007315802561842E-3    5.582386729457661E-2   -5.368144409343557E-1    3.390383173005257E-2
 6.457974449650000E9    -5.825863147140615E-1   -8.561992194864447E-2   -3.564291834114923E-3    5.736286148746388E-2   -8.118455043159508E-4    5.634972108742847E-2   -5.368451642828802E-1    3.560520165214880E-2
 6.457985789300000E9    -5.826600735091700E-1   -8.457564847210547E-2   -3.470667420699683E-3    5.777369098959077E-2   -6.159343704777854E-4    5.684827649175658E-2   -5.364978181434579E-1    3.736936957001322E-2
 6.457997128950000E9    -5.827535055639321E-1   -8.335617800609794E-2   -3.272042523769938E-3    5.824771166145346E-2   -3.952814140990650E-4    5.730134065453454E-2   -5.363101630620473E-1    3.911395409289965E-2
 6.458008468600000E9    -5.828472027460506E-1   -8.236174807441027E-2   -2.983652772686008E-3    5.889430925565689E-2   -2.525506154052875E-4    5.779693263510954E-2   -5.361067879087261E-1    4.095081040197113E-2
 6.458019808250000E9    -5.829006086379365E-1   -8.112681420850178E-2   -2.939986165897880E-3    5.907696647281942E-2   -7.179230821649063E-5    5.827088455306644E-2   -5.360244236991853E-1    4.267041139128688E-2
 6.458031147900000E9    -5.830098040892202E-1   -8.004852678723669E-2   -2.772954791423689E-3    5.973232267219068E-2    6.774830441506961E-5    5.874977418331143E-2   -5.357858304457227E-1    4.449237527804618E-2
 6.458042487550000E9    -5.830157003140694E-1   -7.889531107423384E-2   -2.658009078154849E-3    6.028932719380735E-2    2.449954599988624E-4    5.935863898873461E-2   -5.354844062273090E-1    4.620820891665302E-2
 6.458053827200000E9    -5.831073745254736E-1   -7.762510492671705E-2   -2.503031029055518E-3    6.084762281344085E-2    3.619904186357546E-4    5.982543079457898E-2   -5.353235601052153E-1    4.810621160857013E-2
 6.458065166850000E9    -5.830869376846064E-1   -7.660970101769107E-2   -2.308897496258653E-3    6.135532529165330E-2    6.335401342059365E-4    6.019138576582303E-2   -5.350780903661415E-1    4.996319860502735E-2
 6.458076506500000E9    -5.832802546272501E-1   -7.547156329740404E-2   -2.139240608433362E-3    6.194270274566017E-2    7.203654037872828E-4    6.079807602570517E-2   -5.347561841189405E-1    5.166841454956313E-2
