#  HZ   S   RI   R     50.00 
! Rohde & Schwarz Vector Network Analyzer 
! Rohde-Schwarz,ZNB20-2Port,1311601062101988,3.16
! Created: UTC 3/20/2024, 11:01:27 PM
! freq[Hz]                re:S11                  im:S11                  re:S21                  im:S21                  re:S12                  im:S12                  re:S22                  im:S22
 6.456949996000000E9    -5.656369792198390E-1   -1.754622045337275E-1   -9.185047664311516E-3    3.220338172190568E-2   -7.387868775065907E-3    3.228420569663339E-2   -5.310047494778395E-1   -9.021945046069829E-2
 6.456961555675000E9    -5.657649269943571E-1   -1.746305082523008E-1   -9.025330006987900E-3    3.237565662303684E-2   -7.391409168355853E-3    3.234080166286240E-2   -5.313531845885571E-1   -8.922156723414026E-2
 6.456973115350000E9    -5.661048553691741E-1   -1.734949843087933E-1   -9.147629231285526E-3    3.261057020021941E-2   -7.276018841580981E-3    3.255945403489471E-2   -5.314365367540708E-1   -8.783660513253302E-2
 6.456984675025000E9    -5.663592547398602E-1   -1.726375420336323E-1   -9.018671558348344E-3    3.269311865729480E-2   -7.358827022208229E-3    3.281489457090943E-2   -5.316742566198338E-1   -8.666569798831061E-2
 6.456996234700000E9    -5.667335094427153E-1   -1.716544691030834E-1   -9.047960855592134E-3    3.293737078555663E-2   -7.329838671795872E-3    3.304488433196656E-2   -5.317814714417345E-1   -8.555273416934363E-2
 6.457007794375000E9    -5.668503490903061E-1   -1.707230039558280E-1   -9.018457192241357E-3    3.323788432552229E-2   -7.325026041785507E-3    3.314581041221498E-2   -5.319399403572345E-1   -8.438626608937011E-2
 6.457019354050000E9    -5.672507838455122E-1   -1.697410927006401E-1   -8.834012175695504E-3    3.330968642556080E-2   -7.150070572540807E-3    3.322029174491956E-2   -5.321888086212668E-1   -8.321681750309068E-2
 6.457030913725000E9    -5.675348448599981E-1   -1.687050473831479E-1   -8.950768535197894E-3    3.357131685401764E-2   -7.097987907717373E-3    3.350906116955454E-2   -5.324187200053937E-1   -8.195459629510608E-2
 6.457042473400000E9    -5.677174501123442E-1   -1.677803725634232E-1   -8.965307961960253E-3    3.375396976173275E-2   -7.090080443643432E-3    3.378592796498378E-2   -5.325809678991706E-1   -8.080187514605289E-2
 6.457054033075000E9    -5.679295983201238E-1   -1.668141888126233E-1   -8.973670929327063E-3    3.400793624812212E-2   -7.043800148401079E-3    3.396027176252517E-2   -5.326614084424416E-1   -7.958724289147309E-2
 6.457065592750000E9    -5.681559403756640E-1   -1.658344659598638E-1   -8.947087858679127E-3    3.414097058454337E-2   -6.983027074896804E-3    3.410142449555602E-2   -5.329192294493811E-1   -7.842609663375409E-2
 6.457077152425000E9    -5.685258291550084E-1   -1.649032925287695E-1   -8.788700117895417E-3    3.440758841426229E-2   -7.055426936729267E-3    3.438324506428383E-2   -5.331921512643867E-1   -7.708030917531775E-2
 6.457088712100000E9    -5.687739173049199E-1   -1.639254957444156E-1   -8.737789896090612E-3    3.467383922942725E-2   -6.949015605170317E-3    3.447740526816273E-2   -5.332557965792002E-1   -7.577844878549697E-2
 6.457100271775000E9    -5.689914238758736E-1   -1.629888783829606E-1   -8.704588825548568E-3    3.488234849369474E-2   -6.921242550493967E-3    3.469920232315937E-2   -5.334467603905884E-1   -7.459065224556101E-2
 6.457111831450000E9    -5.692611318849474E-1   -1.620124775602724E-1   -8.783240766654380E-3    3.491119882484117E-2   -6.851864765196416E-3    3.493779619307162E-2   -5.335008243558864E-1   -7.333634150295913E-2
 6.457123391125000E9    -5.695375793909889E-1   -1.610278439508093E-1   -8.754450491918584E-3    3.514309368815630E-2   -6.875042405158949E-3    3.506674426109045E-2   -5.336713024714727E-1   -7.225786839635524E-2
 6.457134950800000E9    -5.697999373827668E-1   -1.599754618010004E-1   -8.729133174304737E-3    3.536039843096743E-2   -6.842143806444540E-3    3.533992124150769E-2   -5.339970239071301E-1   -7.088830804800444E-2
 6.457146510475000E9    -5.699526981731869E-1   -1.590753737193716E-1   -8.771158153088798E-3    3.557760918731442E-2   -6.728022867673523E-3    3.552763721595427E-2   -5.340568599642864E-1   -6.969060293751826E-2
 6.457158070150000E9    -5.702432245417642E-1   -1.580642784310418E-1   -8.630631156978038E-3    3.586272429448980E-2   -6.755956794072602E-3    3.574747022132214E-2   -5.342359615532601E-1   -6.835904663045023E-2
 6.457169629825000E9    -5.705778094471318E-1   -1.571459966830038E-1   -8.744350697808070E-3    3.602479975393194E-2   -6.652572641047608E-3    3.592167595567899E-2   -5.342772195664496E-1   -6.714228680674597E-2
 6.457181189500000E9    -5.707964236852053E-1   -1.562203973006314E-1   -8.635072946274086E-3    3.623999719769662E-2   -6.733663460704523E-3    3.613511856276548E-2   -5.344150468487466E-1   -6.593957884450001E-2
 6.457192749175000E9    -5.710172702508933E-1   -1.552134087808506E-1   -8.460471382866909E-3    3.653190420338037E-2   -6.702711188272408E-3    3.642387427408302E-2   -5.345690189292748E-1   -6.466850157955148E-2
 6.457204308850000E9    -5.713428027167718E-1   -1.541721462734227E-1   -8.561662769820786E-3    3.669803727899339E-2   -6.568266867842201E-3    3.665538422697469E-2   -5.347387814879571E-1   -6.347615371389172E-2
 6.457215868525000E9    -5.714271946111652E-1   -1.532323183736825E-1   -8.471615990029418E-3    3.698701121296893E-2   -6.489695813866224E-3    3.679443489452391E-2   -5.349384888174035E-1   -6.202727719047282E-2
 6.457227428200000E9    -5.715985214651470E-1   -1.522403651582326E-1   -8.489446806262591E-3    3.723182724539673E-2   -6.559962252729762E-3    3.707914147252312E-2   -5.348618766674206E-1   -6.071480413332823E-2
 6.457238987875000E9    -5.720647987641363E-1   -1.511389734807528E-1   -8.459271186006798E-3    3.738000001249413E-2   -6.425775553193876E-3    3.732174792029289E-2   -5.353256560636881E-1   -5.952525739304854E-2
 6.457250547550000E9    -5.722021504545443E-1   -1.502182229955451E-1   -8.442520155519101E-3    3.760469021301132E-2   -6.347962608787915E-3    3.753687814043298E-2   -5.353128844715429E-1   -5.820789440201591E-2
 6.457262107225000E9    -5.724407126687192E-1   -1.491986914847497E-1   -8.369519209744604E-3    3.796987259084798E-2   -6.367477379135445E-3    3.769453136467903E-2   -5.353918508827211E-1   -5.704875484473727E-2
 6.457273666900000E9    -5.726228925404834E-1   -1.482441782221106E-1   -8.207467124794070E-3    3.809445085778209E-2   -6.270147749212453E-3    3.792126946109914E-2   -5.355924794757371E-1   -5.560487272205853E-2
 6.457285226575000E9    -5.728519036985826E-1   -1.473226687612414E-1   -8.370510841580740E-3    3.834491349856189E-2   -6.280615940555631E-3    3.825265009991340E-2   -5.356687263275062E-1   -5.431990619873239E-2
 6.457296786250000E9    -5.731203566901263E-1   -1.462700163739347E-1   -8.291073284585232E-3    3.875910106377410E-2   -6.161394828870214E-3    3.848384323832057E-2   -5.357387140930360E-1   -5.289081937017206E-2
 6.457308345925000E9    -5.733620410015946E-1   -1.452958101631779E-1   -8.151787366927017E-3    3.893944354324556E-2   -6.182126407731339E-3    3.868301654498415E-2   -5.357948915764680E-1   -5.175341440394822E-2
 6.457319905600000E9    -5.735884141703725E-1   -1.442356709308573E-1   -8.222619658892195E-3    3.905520708263868E-2   -6.087092863405332E-3    3.891366273657039E-2   -5.359810085053961E-1   -5.036924111107483E-2
 6.457331465275000E9    -5.737836431007248E-1   -1.431548569808754E-1   -8.243781284391774E-3    3.942632731679216E-2   -6.071428468075965E-3    3.923233919337021E-2   -5.361512581264215E-1   -4.909377154057620E-2
 6.457343024950000E9    -5.739582242005830E-1   -1.423299327106473E-1   -8.033601682402554E-3    3.965054736908580E-2   -6.079122853192695E-3    3.940269212633671E-2   -5.362106481415091E-1   -4.774286541508500E-2
 6.457354584625000E9    -5.741384503407035E-1   -1.412749386545585E-1   -7.982092297328547E-3    3.992637245548526E-2   -5.953006309633321E-3    3.962853403339180E-2   -5.363088251899192E-1   -4.634742265589144E-2
 6.457366144300000E9    -5.744591268443751E-1   -1.402928269359711E-1   -7.986378409987028E-3    4.008146842180377E-2   -5.913467382833265E-3    3.992304522841537E-2   -5.363762739715333E-1   -4.503883526897094E-2
 6.457377703975000E9    -5.746320291035379E-1   -1.392529392923330E-1   -7.755577438118986E-3    4.039644464224822E-2   -5.813286425151623E-3    4.016350434387166E-2   -5.365077988592530E-1   -4.363828502295607E-2
 6.457389263650000E9    -5.749435081017756E-1   -1.381971196154134E-1   -7.990977717045678E-3    4.071238689246621E-2   -5.748800490414761E-3    4.043168994568830E-2   -5.365815756515806E-1   -4.230964468801697E-2
 6.457400823325000E9    -5.749834837241353E-1   -1.371720076673008E-1   -7.902825171357665E-3    4.095393565118785E-2   -5.741510622665658E-3    4.064073186522998E-2   -5.366884765274493E-1   -4.103067994878232E-2
 6.457412383000000E9    -5.752142825957732E-1   -1.362333945335259E-1   -7.816910661138269E-3    4.124105311716594E-2   -5.579140557805524E-3    4.095973089013415E-2   -5.366801247932280E-1   -3.968568125574586E-2
 6.457423942675000E9    -5.754804707440746E-1   -1.350926042276258E-1   -7.836662744296783E-3    4.157547720114699E-2   -5.573143807673680E-3    4.128422836705623E-2   -5.368518788185515E-1   -3.828219199633077E-2
 6.457435502350000E9    -5.757031273987607E-1   -1.342204764608301E-1   -7.700629841594139E-3    4.184790487885322E-2   -5.541931159801252E-3    4.150328595204390E-2   -5.369571855512013E-1   -3.674636898021483E-2
 6.457447062025000E9    -5.758524066529791E-1   -1.331458710249862E-1   -7.608329645162423E-3    4.217139172605423E-2   -5.467295793746164E-3    4.183121131357292E-2   -5.370712699611703E-1   -3.540462597968690E-2
 6.457458621700000E9    -5.760504520880139E-1   -1.321024785398358E-1   -7.570209758390394E-3    4.247962235835805E-2   -5.378796872609847E-3    4.207420369768292E-2   -5.369528920239387E-1   -3.426615411167613E-2
 6.457470181375000E9    -5.761380327692558E-1   -1.311451480682382E-1   -7.607458342037826E-3    4.271804569997950E-2   -5.326073954440405E-3    4.231207928938340E-2   -5.371673172644190E-1   -3.273640269323649E-2
 6.457481741050000E9    -5.763939049317024E-1   -1.300580014274733E-1   -7.433458654541223E-3    4.303610168771852E-2   -5.266706281259020E-3    4.261464067845661E-2   -5.372773863477394E-1   -3.134394305222617E-2
 6.457493300725000E9    -5.766048238041923E-1   -1.289698954895092E-1   -7.463984713823545E-3    4.328607662736725E-2   -5.260912641741215E-3    4.294807094501446E-2   -5.372682569430306E-1   -2.988018741831966E-2
 6.457504860400000E9    -5.768292834662901E-1   -1.279494168151612E-1   -7.389770149952527E-3    4.362059851456845E-2   -5.035879041486761E-3    4.327376024772769E-2   -5.372833330134992E-1   -2.847282853151105E-2
 6.457516420075000E9    -5.770020294522434E-1   -1.270106956777168E-1   -7.326527299730589E-3    4.395414932520254E-2   -5.085877004724029E-3    4.348301042820135E-2   -5.373574634287701E-1   -2.699654562398353E-2
 6.457527979750000E9    -5.771417104666684E-1   -1.259801419926632E-1   -7.247669779500185E-3    4.429449269855897E-2   -4.987716757442694E-3    4.376522664000255E-2   -5.372948264287524E-1   -2.559365026363682E-2
 6.457539539425000E9    -5.775167157819499E-1   -1.247668378130909E-1   -7.091850911391971E-3    4.452310022163342E-2   -4.950380826101912E-3    4.418255123149098E-2   -5.375650739882458E-1   -2.409942303429729E-2
 6.457551099100000E9    -5.775999792617700E-1   -1.237697091180766E-1   -7.251669669640551E-3    4.481608027738317E-2   -4.872470235373388E-3    4.450226537406080E-2   -5.374610614937528E-1   -2.272603916554390E-2
 6.457562658775000E9    -5.778400427481633E-1   -1.227671488750549E-1   -7.122171912619083E-3    4.507727426775135E-2   -4.752578029224472E-3    4.490594455435331E-2   -5.374878331856754E-1   -2.133425800546758E-2
 6.457574218450000E9    -5.779598930732922E-1   -1.216782726276160E-1   -7.015204754636319E-3    4.540965633305083E-2   -4.685461762336327E-3    4.513414000814742E-2   -5.374208163278152E-1   -1.990494102561035E-2
 6.457585778125000E9    -5.782115086267288E-1   -1.207128917125418E-1   -6.958805762445030E-3    4.587119918572772E-2   -4.613722140904905E-3    4.548524584852102E-2   -5.374700867802319E-1   -1.837434833293132E-2
 6.457597337800000E9    -5.782537286748137E-1   -1.196858862084353E-1   -6.886021428815409E-3    4.615046754653525E-2   -4.462049654607117E-3    4.576998414978192E-2   -5.375501077014256E-1   -1.689668848950033E-2
 6.457608897475000E9    -5.785369126429386E-1   -1.186174916385158E-1   -6.790019433695860E-3    4.656030448561874E-2   -4.395646117904222E-3    4.599269754775628E-2   -5.376012799992882E-1   -1.534898652847965E-2
 6.457620457150000E9    -5.787710581461917E-1   -1.176090092696136E-1   -6.618469442909596E-3    4.679048430227276E-2   -4.369612549854415E-3    4.639286071079667E-2   -5.375522058968776E-1   -1.393254652886040E-2
 6.457632016825000E9    -5.788411005961998E-1   -1.164870285890010E-1   -6.703548625155437E-3    4.727013057820851E-2   -4.203657342753343E-3    4.678840643272243E-2   -5.375483566420045E-1   -1.240400022619605E-2
 6.457643576500000E9    -5.789536012498558E-1   -1.154978520798789E-1   -6.487064982303665E-3    4.756295436252338E-2   -4.192396024016120E-3    4.714466081959377E-2   -5.374745602219558E-1   -1.064300723857270E-2
 6.457655136175000E9    -5.792216355560046E-1   -1.143621199569552E-1   -6.355841486030633E-3    4.783293518761065E-2   -4.015575658310427E-3    4.737200662682758E-2   -5.374171699649710E-1   -9.235921357992794E-3
 6.457666695850000E9    -5.793487171929427E-1   -1.133443792975848E-1   -6.356290805797173E-3    4.829017222186454E-2   -3.923549808986088E-3    4.774969158295378E-2   -5.376279074478245E-1   -7.800032758259924E-3
 6.457678255525000E9    -5.794669977154240E-1   -1.122629988925777E-1   -6.372381063161734E-3    4.868482826521014E-2   -3.897139341652000E-3    4.811973425846865E-2   -5.375113521766087E-1   -6.249812679695610E-3
 6.457689815200000E9    -5.796007625021807E-1   -1.111156251977030E-1   -6.247556662569745E-3    4.909476651049600E-2   -3.765079195015799E-3    4.854402226160995E-2   -5.374817967790780E-1   -4.730371838062357E-3
 6.457701374875000E9    -5.799362658121012E-1   -1.100816048862068E-1   -6.168643963145004E-3    4.937439249809415E-2   -3.758283395353937E-3    4.885744050714508E-2   -5.374339670030918E-1   -3.180465018990720E-3
 6.457712934550000E9    -5.799848399243887E-1   -1.089488743480855E-1   -6.040420159962759E-3    4.976895920961893E-2   -3.563324089460849E-3    4.925503105454666E-2   -5.373638921696896E-1   -1.412923926174120E-3
 6.457724494225000E9    -5.801255046739030E-1   -1.079813544814769E-1   -5.934738208010111E-3    5.006222066417699E-2   -3.415438554515428E-3    4.963821088510185E-2   -5.373772455853481E-1   -4.989875706250430E-5
 6.457736053900000E9    -5.802364058958707E-1   -1.068967109644424E-1   -5.945799029723134E-3    5.054594460075413E-2   -3.441070537019929E-3    4.997173129742822E-2   -5.373790709274314E-1    1.488130996475122E-3
 6.457747613575000E9    -5.804341101409145E-1   -1.056888519904502E-1   -5.776681913460496E-3    5.099575690524646E-2   -3.279577881864644E-3    5.032428710257892E-2   -5.373926658081702E-1    3.271955455200985E-3
 6.457759173250000E9    -5.805477484922797E-1   -1.046273642820433E-1   -5.657282494054768E-3    5.134586208955196E-2   -3.078877018433016E-3    5.086601329616342E-2   -5.371135908979494E-1    4.781213501735903E-3
 6.457770732925000E9    -5.807247628720685E-1   -1.034729008760210E-1   -5.564131905006249E-3    5.180764494500208E-2   -3.107836088728362E-3    5.107564451119487E-2   -5.370429754216255E-1    6.528876320461583E-3
 6.457782292600000E9    -5.807440775441629E-1   -1.024906113162790E-1   -5.441507862032628E-3    5.213632420842734E-2   -2.887982568199159E-3    5.149938439356504E-2   -5.370603861227722E-1    8.157464700467540E-3
 6.457793852275000E9    -5.807953183041572E-1   -1.013188818757040E-1   -5.326702828556003E-3    5.261351868822831E-2   -2.630951201086799E-3    5.186416170564575E-2   -5.370927925322768E-1    9.717105561360358E-3
 6.457805411950000E9    -5.811151623870375E-1   -1.002972236446204E-1   -5.280254577239337E-3    5.308575569230078E-2   -2.636846821569111E-3    5.233207543785821E-2   -5.367985144688063E-1    1.142701045271408E-2
 6.457816971625000E9    -5.811377358601046E-1   -9.905536673251028E-2   -5.159259795580265E-3    5.340908263654071E-2   -2.451752812677139E-3    5.269701758938668E-2   -5.367672870208626E-1    1.299871154560965E-2
 6.457828531300000E9    -5.812996949739486E-1   -9.799598592918195E-2   -5.070053974918109E-3    5.385854700546572E-2   -2.328645113041519E-3    5.325462629510143E-2   -5.367159293390625E-1    1.464005062352361E-2
 6.457840090975000E9    -5.814531087805886E-1   -9.687143005986615E-2   -4.852607004289329E-3    5.439390773106670E-2   -2.279058427361292E-3    5.362185561296346E-2   -5.365300032689196E-1    1.633290529528584E-2
 6.457851650650000E9    -5.815265160825002E-1   -9.585882970361623E-2   -4.702280403934098E-3    5.484208419043481E-2   -2.049161474330999E-3    5.408235467456825E-2   -5.364493253712840E-1    1.808677548567439E-2
 6.457863210325000E9    -5.816438269227162E-1   -9.460061758862595E-2   -4.736237057361032E-3    5.531941314222581E-2   -1.883617185953603E-3    5.455589197283053E-2   -5.363770395144513E-1    1.971815225239230E-2
 6.457874770000000E9    -5.816782108438086E-1   -9.357185467297896E-2   -4.485612938179126E-3    5.584541815109510E-2   -1.806859766225992E-3    5.502112514770872E-2   -5.362172197281153E-1    2.147194770065472E-2
 6.457886329675000E9    -5.819113211647647E-1   -9.240126388128329E-2   -4.482711925689525E-3    5.621119597818267E-2   -1.622985883769267E-3    5.546922080460023E-2   -5.360473310516278E-1    2.310767817041121E-2
 6.457897889350000E9    -5.819801145302493E-1   -9.132824497891705E-2   -4.276369033863287E-3    5.672955939304842E-2   -1.527199830021958E-3    5.591269628128981E-2   -5.357676833841273E-1    2.499292068635501E-2
 6.457909449025000E9    -5.819997203815831E-1   -9.009967729600148E-2   -4.046143167642981E-3    5.712411743227882E-2   -1.322400713411125E-3    5.645637454519492E-2   -5.356530455064883E-1    2.670284289828602E-2
 6.457921008700000E9    -5.821085810750938E-1   -8.902990718713652E-2   -3.975620724412418E-3    5.766805296010762E-2   -1.135318961815111E-3    5.684921584982597E-2   -5.355551704291378E-1    2.852111118987635E-2
 6.457932568375000E9    -5.822039588569725E-1   -8.787443511128316E-2   -3.907587608289908E-3    5.813019521434144E-2   -1.003841337576399E-3    5.736535821589788E-2   -5.353824354078668E-1    3.022712213256382E-2
 6.457944128050000E9    -5.823336669166220E-1   -8.665416314712145E-2   -3.686517182186072E-3    5.855314813042642E-2   -8.340612787277873E-4    5.791543689570745E-2   -5.351807158166725E-1    3.218076081574864E-2
 6.457955687725000E9    -5.824957383448316E-1   -8.552818174398803E-2   -3.444230701106877E-3    5.910850216070067E-2   -5.725331736742745E-4    5.835625795052370E-2   -5.349971457573026E-1    3.393405388691476E-2
 6.457967247400000E9    -5.826168697765028E-1   -8.439892057442681E-2   -3.302984328260512E-3    5.970408324850330E-2   -4.304234541280526E-4    5.886851319818805E-2   -5.347681582518626E-1    3.572440717979472E-2
 6.457978807075000E9    -5.826357855434614E-1   -8.325174270506337E-2   -3.207201726684399E-3    6.039066934622073E-2   -2.819043113369757E-4    5.943951235923117E-2   -5.346806678756753E-1    3.767832338551006E-2
 6.457990366750000E9    -5.826469061960358E-1   -8.215253049873876E-2   -2.973541943389523E-3    6.092178459231562E-2   -3.516985158435884E-5    5.993110396172908E-2   -5.344433442653228E-1    3.959128711642838E-2
