#  HZ   S   RI   R     50.00 
! Rohde & Schwarz Vector Network Analyzer 
! Rohde-Schwarz,ZNB20-2Port,1311601062101988,3.16
! Created: UTC 3/20/2024, 11:01:36 PM
! freq[Hz]                re:S11                  im:S11                  re:S21                  im:S21                  re:S12                  im:S12                  re:S22                  im:S22
 6.456948717000000E9    -5.655320278330345E-1   -1.752325409619472E-1   -9.158048972801714E-3    3.218236543792925E-2   -7.399227827340163E-3    3.220630583471230E-2   -5.310341950021807E-1   -9.048374433764726E-2
 6.456960279175000E9    -5.657414061731147E-1   -1.743031741110263E-1   -9.160463008816790E-3    3.228991373161301E-2   -7.386556093959382E-3    3.238162734107101E-2   -5.311422320201321E-1   -8.922452430542005E-2
 6.456971841350000E9    -5.659917791735783E-1   -1.734725650457929E-1   -9.010808270677901E-3    3.263916885532840E-2   -7.327062896065784E-3    3.257523574074667E-2   -5.314589246124033E-1   -8.808054908833372E-2
 6.456983403525000E9    -5.662811195191225E-1   -1.724129231241370E-1   -8.892185556149866E-3    3.279300803134551E-2   -7.349658315179555E-3    3.276345160718899E-2   -5.314815538935626E-1   -8.690007426594584E-2
 6.456994965700000E9    -5.666382572268158E-1   -1.713928149083187E-1   -8.985668140301935E-3    3.296443850393121E-2   -7.261096698680362E-3    3.292749947353200E-2   -5.316950415485655E-1   -8.574619644194276E-2
 6.457006527875000E9    -5.668785108065327E-1   -1.705214931820205E-1   -9.018598469088550E-3    3.319883956898079E-2   -7.259358171182408E-3    3.315518731106350E-2   -5.319803893125101E-1   -8.454713096934149E-2
 6.457018090050000E9    -5.671739172797056E-1   -1.695068284087830E-1   -8.922299819191975E-3    3.328796464745951E-2   -7.194841635346605E-3    3.336086318411458E-2   -5.319697437321874E-1   -8.323975030685651E-2
 6.457029652225000E9    -5.674966192017286E-1   -1.687483092513026E-1   -8.944432128347788E-3    3.362495059021754E-2   -7.173397707515420E-3    3.345401223542056E-2   -5.322673567795736E-1   -8.220827940887290E-2
 6.457041214400000E9    -5.677351110240960E-1   -1.675656244638198E-1   -8.956523036337585E-3    3.372715055672194E-2   -7.128765583696356E-3    3.371778563500251E-2   -5.323945031301417E-1   -8.072040407162070E-2
 6.457052776575000E9    -5.679852267336527E-1   -1.667391126080676E-1   -8.703131199086838E-3    3.389630100525971E-2   -7.201312475409635E-3    3.398676281655667E-2   -5.327214332444669E-1   -7.971028122298661E-2
 6.457064338750000E9    -5.682206271890669E-1   -1.657804705952486E-1   -8.772988800163851E-3    3.407555895367457E-2   -7.045010958558212E-3    3.411957875122004E-2   -5.327616676603205E-1   -7.842928070702082E-2
 6.457075900925000E9    -5.685253440891815E-1   -1.645501128000514E-1   -8.952812709849739E-3    3.430811395103239E-2   -7.011938310829249E-3    3.418329177863311E-2   -5.329983516698473E-1   -7.720873600913637E-2
 6.457087463100000E9    -5.687491292142106E-1   -1.637821881247992E-1   -8.732229297082516E-3    3.451419897268591E-2   -6.982695034077264E-3    3.444185919062988E-2   -5.332102398641310E-1   -7.600518254524516E-2
 6.457099025275000E9    -5.690986422749467E-1   -1.627759883846295E-1   -8.795343515934227E-3    3.468414457066197E-2   -6.949710097920313E-3    3.472295537306332E-2   -5.333796106302372E-1   -7.468338615355344E-2
 6.457110587450000E9    -5.692909720998310E-1   -1.619238542065991E-1   -8.750218080039750E-3    3.498199542061876E-2   -6.989244372289637E-3    3.488469157404874E-2   -5.334478586095150E-1   -7.349242725029377E-2
 6.457122149625000E9    -5.694316095537825E-1   -1.608723165699499E-1   -8.764348088207422E-3    3.513102090210123E-2   -6.893905714657634E-3    3.512898137231205E-2   -5.337314206160636E-1   -7.226933973881226E-2
 6.457133711800000E9    -5.698129123706974E-1   -1.599026789367610E-1   -8.676575054827862E-3    3.535610034407495E-2   -6.792112615343716E-3    3.532485274684538E-2   -5.337595324220409E-1   -7.103981639414873E-2
 6.457145273975000E9    -5.700141854068683E-1   -1.589933696331773E-1   -8.671427471553667E-3    3.561759717144897E-2   -6.806573520700067E-3    3.550341099808051E-2   -5.340021742219935E-1   -6.963350086354825E-2
 6.457156836150000E9    -5.703224207596855E-1   -1.580316988420600E-1   -8.617852562299803E-3    3.589984142072109E-2   -6.688548253659736E-3    3.569953637802944E-2   -5.342050185699864E-1   -6.848487100340561E-2
 6.457168398325000E9    -5.704620327959989E-1   -1.569718299193714E-1   -8.637100920247311E-3    3.608238527191718E-2   -6.750167768457850E-3    3.583114075263617E-2   -5.341599309313018E-1   -6.726721289117057E-2
 6.457179960500000E9    -5.707831872901398E-1   -1.560766722572153E-1   -8.719981872437192E-3    3.618846372216395E-2   -6.710448883600884E-3    3.612506726343634E-2   -5.342949341361850E-1   -6.609611262974938E-2
 6.457191522675000E9    -5.709563128549707E-1   -1.549509806545203E-1   -8.519188815793510E-3    3.648337124195781E-2   -6.623040402043960E-3    3.630939545796180E-2   -5.345504765403050E-1   -6.478484476085188E-2
 6.457203084850000E9    -5.712238417527248E-1   -1.540984484659605E-1   -8.534327269567758E-3    3.670282756692880E-2   -6.605692868650421E-3    3.658150439719939E-2   -5.347246680708747E-1   -6.352420536064608E-2
 6.457214647025000E9    -5.714353301179760E-1   -1.531906932313536E-1   -8.518302471700313E-3    3.686717777203950E-2   -6.447383972396978E-3    3.683889811805993E-2   -5.348381538172996E-1   -6.235041598912418E-2
 6.457226209200000E9    -5.716475578914990E-1   -1.521726596778240E-1   -8.508224461445172E-3    3.718626540620049E-2   -6.564855990294943E-3    3.711745096886209E-2   -5.349750690084378E-1   -6.088508674315701E-2
 6.457237771375000E9    -5.719752914734657E-1   -1.511336044709994E-1   -8.250237895739943E-3    3.733384621253217E-2   -6.453139937858964E-3    3.734225478121980E-2   -5.351765298892254E-1   -5.961959553100084E-2
 6.457249333550000E9    -5.721792664408670E-1   -1.500941692836040E-1   -8.364224649460033E-3    3.772957904397479E-2   -6.391906152000758E-3    3.754812572134580E-2   -5.352944807587708E-1   -5.851119429575915E-2
 6.457260895725000E9    -5.723948129447928E-1   -1.490735762759520E-1   -8.325627865841598E-3    3.786926477095300E-2   -6.391596512269475E-3    3.774585239026879E-2   -5.354205196550931E-1   -5.713233213955646E-2
 6.457272457900000E9    -5.725929816279066E-1   -1.481576741515987E-1   -8.275579549121406E-3    3.811238857114457E-2   -6.324428012761385E-3    3.798240405312522E-2   -5.356466575245555E-1   -5.568597580459341E-2
 6.457284020075000E9    -5.730019521762005E-1   -1.471570911318250E-1   -8.232913855111627E-3    3.841213969093545E-2   -6.273829623708239E-3    3.822899654357905E-2   -5.357085920528638E-1   -5.445714312814517E-2
 6.457295582250000E9    -5.730942006253849E-1   -1.461930540380732E-1   -8.276194666269034E-3    3.863993250206158E-2   -6.175403961274677E-3    3.849257670958479E-2   -5.357657888867153E-1   -5.324770930033907E-2
 6.457307144425000E9    -5.733826084936829E-1   -1.451833520193120E-1   -8.170273882020998E-3    3.880116930301137E-2   -6.121690031025320E-3    3.868976890315404E-2   -5.359451373130754E-1   -5.192556686284154E-2
 6.457318706600000E9    -5.734105821022468E-1   -1.441035958103076E-1   -7.951170246092399E-3    3.916049595379324E-2   -6.097068066641662E-3    3.890443023221557E-2   -5.360232388855860E-1   -5.052624734218317E-2
 6.457330268775000E9    -5.737575728079320E-1   -1.431701876933920E-1   -8.115937276053307E-3    3.927263051666254E-2   -6.012160471222102E-3    3.911807620642114E-2   -5.360329043513843E-1   -4.909849670902380E-2
 6.457341830950000E9    -5.739390544829525E-1   -1.420676884444023E-1   -8.019966539102707E-3    3.974454834822636E-2   -5.966254173791750E-3    3.934611226179065E-2   -5.360833360777896E-1   -4.779274940315279E-2
 6.457353393125000E9    -5.741760426227578E-1   -1.410917828360331E-1   -7.963062852647310E-3    3.984933591733434E-2   -5.964121259405015E-3    3.967359923581767E-2   -5.363965728367174E-1   -4.652750177540514E-2
 6.457364955300000E9    -5.743901839601374E-1   -1.401215287460653E-1   -8.045830233538687E-3    4.026738445713070E-2   -5.874738541626270E-3    3.996284536060932E-2   -5.362938290747257E-1   -4.520077388518774E-2
 6.457376517475000E9    -5.746228155298420E-1   -1.391624322579031E-1   -7.963353851609995E-3    4.042941640846953E-2   -5.909198441433915E-3    4.010469625709635E-2   -5.365260179019038E-1   -4.390346590543403E-2
 6.457388079650000E9    -5.748040194102445E-1   -1.380962850703075E-1   -8.025610257435320E-3    4.068460090743390E-2   -5.817241994636987E-3    4.045523978745023E-2   -5.365746146070132E-1   -4.248502756098177E-2
 6.457399641825000E9    -5.750870364206802E-1   -1.371820664836748E-1   -7.755376698989212E-3    4.099117731357377E-2   -5.735915838925761E-3    4.069305529851323E-2   -5.366006475030006E-1   -4.098928581575276E-2
 6.457411204000000E9    -5.752819004034228E-1   -1.360876939278570E-1   -7.842355964273944E-3    4.137311977700824E-2   -5.629593495243645E-3    4.103552289914236E-2   -5.367972916379822E-1   -3.974476315071582E-2
 6.457422766175000E9    -5.754260417046447E-1   -1.351389407909173E-1   -7.751617810519387E-3    4.139927366886433E-2   -5.581457549822531E-3    4.127352009041472E-2   -5.367407167016814E-1   -3.841223509645113E-2
 6.457434328350000E9    -5.756500691776628E-1   -1.340287749167162E-1   -7.779390378443340E-3    4.187032532140527E-2   -5.560828431669190E-3    4.160438396857405E-2   -5.368923567108753E-1   -3.710565521479486E-2
 6.457445890525000E9    -5.757396113159985E-1   -1.331306422250711E-1   -7.624200605415116E-3    4.204272033381568E-2   -5.441455641235610E-3    4.172101656240845E-2   -5.369002532636834E-1   -3.566203312855565E-2
 6.457457452700000E9    -5.760958352290378E-1   -1.319584419289538E-1   -7.587381405210324E-3    4.238963762287595E-2   -5.430516244647549E-3    4.212838765180311E-2   -5.369945911113946E-1   -3.419384630743526E-2
 6.457469014875000E9    -5.762187482529144E-1   -1.309580929080109E-1   -7.527851591177924E-3    4.267266027682853E-2   -5.345301443173924E-3    4.239852373013170E-2   -5.369666209636332E-1   -3.288823142299493E-2
 6.457480577050000E9    -5.764521864513678E-1   -1.299406462948140E-1   -7.433516857071022E-3    4.301963805713261E-2   -5.315066881345865E-3    4.267897992665009E-2   -5.371488153598949E-1   -3.140668786340584E-2
 6.457492139225000E9    -5.766817136312317E-1   -1.288996905800653E-1   -7.444152219816993E-3    4.323515778597254E-2   -5.193069302889906E-3    4.290949552283203E-2   -5.370540771070975E-1   -3.011653467567948E-2
 6.457503701400000E9    -5.768220561614067E-1   -1.279248859490702E-1   -7.426913888910445E-3    4.355421226761773E-2   -5.098657661240128E-3    4.334431820488889E-2   -5.373580792497518E-1   -2.854096945684290E-2
 6.457515263575000E9    -5.770138836718131E-1   -1.267930723806920E-1   -7.247789146611954E-3    4.385040686570248E-2   -4.990517756857469E-3    4.348376779461312E-2   -5.373591237528090E-1   -2.711545462985921E-2
 6.457526825750000E9    -5.772924872460833E-1   -1.257885667569022E-1   -7.136655542621616E-3    4.414515659578962E-2   -5.017806054372983E-3    4.385011565080611E-2   -5.373328439064304E-1   -2.580593529367772E-2
 6.457538387925000E9    -5.774632483607565E-1   -1.247443437563228E-1   -7.162442500836539E-3    4.446973248594478E-2   -4.902297434774341E-3    4.416559492111470E-2   -5.374017866559122E-1   -2.432934408389274E-2
 6.457549950100000E9    -5.775834475128278E-1   -1.236818321313499E-1   -7.033844499714983E-3    4.487643757011733E-2   -4.799873664495035E-3    4.447635764823608E-2   -5.373984867355002E-1   -2.293053520720499E-2
 6.457561512275000E9    -5.776990837296719E-1   -1.226728339093211E-1   -6.919398222728991E-3    4.512284514635151E-2   -4.667998559454827E-3    4.468141525898566E-2   -5.373859251017582E-1   -2.134662399080819E-2
 6.457573074450000E9    -5.779475353854102E-1   -1.216935883379379E-1   -6.926014830874324E-3    4.550597599490411E-2   -4.722816389964856E-3    4.514405520402323E-2   -5.373267107609215E-1   -1.984700429486370E-2
 6.457584636625000E9    -5.781180600483726E-1   -1.206036003851886E-1   -6.927757624295409E-3    4.585103164565635E-2   -4.559669232140889E-3    4.542970885311228E-2   -5.375361234246937E-1   -1.845263181709988E-2
 6.457596198800000E9    -5.782591522894512E-1   -1.195881676056304E-1   -6.869118059612903E-3    4.610997441660743E-2   -4.482625684762313E-3    4.571581120773013E-2   -5.375124819391102E-1   -1.696466938242498E-2
 6.457607760975000E9    -5.784215964152096E-1   -1.184755907643677E-1   -6.741428115564227E-3    4.645720400367901E-2   -4.413576241631341E-3    4.602574222193864E-2   -5.375717967096075E-1   -1.552270109884791E-2
 6.457619323150000E9    -5.785967448574255E-1   -1.175084582679572E-1   -6.707995324359635E-3    4.684087162361341E-2   -4.291683637172766E-3    4.634671343850159E-2   -5.375259736371811E-1   -1.393471783230980E-2
 6.457630885325000E9    -5.787607032849288E-1   -1.163549572466520E-1   -6.538066337936950E-3    4.714618919719939E-2   -4.272438365106300E-3    4.666827339829119E-2   -5.374893960277747E-1   -1.260270688324927E-2
 6.457642447500000E9    -5.788385843411756E-1   -1.153345932158828E-1   -6.642702073581253E-3    4.752790022360290E-2   -4.083465329775087E-3    4.700596256163020E-2   -5.376701363180821E-1   -1.095336482375537E-2
 6.457654009675000E9    -5.791138403947971E-1   -1.142623028942414E-1   -6.549461096799000E-3    4.785067447633545E-2   -4.079503026601013E-3    4.738387609606218E-2   -5.375946155773696E-1   -9.374241883713864E-3
 6.457665571850000E9    -5.792649981627950E-1   -1.131839873590176E-1   -6.351646080464944E-3    4.821819609230830E-2   -4.000336845188576E-3    4.775217135258014E-2   -5.375463486875869E-1   -7.996946220314450E-3
 6.457677134025000E9    -5.794192115737810E-1   -1.120788026024165E-1   -6.414919239468166E-3    4.855556536291395E-2   -3.837263463528656E-3    4.809138756334913E-2   -5.374976306605682E-1   -6.496519655409826E-3
 6.457688696200000E9    -5.794850475960998E-1   -1.110581860217076E-1   -6.091099386052684E-3    4.912141291439830E-2   -3.777750202258032E-3    4.841395543738433E-2   -5.374718061095360E-1   -5.003766720721027E-3
 6.457700258375000E9    -5.796992320912436E-1   -1.099882498020798E-1   -6.119381092863713E-3    4.939567097811514E-2   -3.574601446002010E-3    4.881852872869332E-2   -5.374838724004277E-1   -3.223800453919874E-3
 6.457711820550000E9    -5.798966313665039E-1   -1.088844639945360E-1   -6.071912942488846E-3    4.991588670092981E-2   -3.475824984153103E-3    4.925130058411318E-2   -5.372635774494613E-1   -1.717495518097686E-3
 6.457723382725000E9    -5.799965904780322E-1   -1.078471780714354E-1   -5.953845513237251E-3    5.008819107023429E-2   -3.408093526583447E-3    4.952053698375340E-2   -5.373217995608643E-1   -1.201076074520203E-4
 6.457734944900000E9    -5.801160284426272E-1   -1.067391770286457E-1   -5.896244075963866E-3    5.051359977325851E-2   -3.336284823536329E-3    5.000508229590359E-2   -5.372333077745568E-1    1.432980072235705E-3
 6.457746507075000E9    -5.803842940503331E-1   -1.055163309664563E-1   -5.710999586945971E-3    5.089870713333420E-2   -3.256447395226042E-3    5.035041542713013E-2   -5.372779240270079E-1    3.132864420703604E-3
 6.457758069250000E9    -5.804309141502034E-1   -1.044396463990952E-1   -5.757640459516035E-3    5.119615072665034E-2   -3.077416487556324E-3    5.078636995297754E-2   -5.370795523464430E-1    4.611544855921906E-3
 6.457769631425000E9    -5.806860196808998E-1   -1.034925882297272E-1   -5.604478614985253E-3    5.176840415789673E-2   -2.925235549454242E-3    5.123048427451494E-2   -5.371761795975925E-1    6.384307409072307E-3
 6.457781193600000E9    -5.807126139360937E-1   -1.024760442617748E-1   -5.554117022978438E-3    5.207145042176751E-2   -2.777685562925119E-3    5.151327151467145E-2   -5.369653017914646E-1    7.817923170706061E-3
 6.457792755775000E9    -5.808804276674111E-1   -1.013759800717348E-1   -5.367228006283968E-3    5.260087254778806E-2   -2.686043384503634E-3    5.197483297156535E-2   -5.369387228325200E-1    9.657727105613675E-3
 6.457804317950000E9    -5.809634389805788E-1   -1.001851510266575E-1   -5.333708248064313E-3    5.303523006662404E-2   -2.650594134663734E-3    5.225660430819894E-2   -5.367806796257898E-1    1.114211694900813E-2
 6.457815880125000E9    -5.811803799129817E-1   -9.905310323262133E-2   -5.154446729052986E-3    5.354069821859268E-2   -2.481221510926588E-3    5.271353686704952E-2   -5.367730315178051E-1    1.299092389043123E-2
 6.457827442300000E9    -5.812471576019909E-1   -9.795004130468554E-2   -5.052231520173553E-3    5.398246603837829E-2   -2.367723628303615E-3    5.328681084955124E-2   -5.366481430023424E-1    1.455013564101090E-2
 6.457839004475000E9    -5.814468795310030E-1   -9.688360310794436E-2   -4.984582243718681E-3    5.435064708132848E-2   -2.142458450805507E-3    5.362615686912709E-2   -5.366432681489129E-1    1.621938944477979E-2
 6.457850566650000E9    -5.813951551067911E-1   -9.565779187426460E-2   -4.792568148073842E-3    5.480393178984367E-2   -2.047439393121629E-3    5.401761053263440E-2   -5.364820741073392E-1    1.796245022801969E-2
 6.457862128825000E9    -5.816426331484295E-1   -9.467945611633974E-2   -4.596907617708634E-3    5.538072410971630E-2   -1.960432825699638E-3    5.450367131796446E-2   -5.362967959317108E-1    1.972286514017831E-2
 6.457873691000000E9    -5.817485648033008E-1   -9.348185603599912E-2   -4.592008130512740E-3    5.576153060759644E-2   -1.816227203737257E-3    5.494712824714057E-2   -5.362720722544853E-1    2.136165496749610E-2
 6.457885253175000E9    -5.817724495402860E-1   -9.239118660857455E-2   -4.313666212801270E-3    5.620503501999825E-2   -1.721589832780451E-3    5.550322237182920E-2   -5.360573399427331E-1    2.300624003050910E-2
 6.457896815350000E9    -5.818604152401682E-1   -9.112140110860265E-2   -4.251642210643721E-3    5.666209725075239E-2   -1.391500706264764E-3    5.585030828298033E-2   -5.357516308665877E-1    2.489216153902520E-2
 6.457908377525000E9    -5.820384566860941E-1   -9.006019955989124E-2   -4.069985481324908E-3    5.726356761461807E-2   -1.351354611990926E-3    5.629815538066163E-2   -5.357672231158463E-1    2.657379607009568E-2
 6.457919939700000E9    -5.821349647746895E-1   -8.891923882677477E-2   -3.998066959043835E-3    5.768125481437950E-2   -1.075295580551368E-3    5.683298286038141E-2   -5.355307390870795E-1    2.837409355587209E-2
 6.457931501875000E9    -5.821983144641402E-1   -8.774475879723287E-2   -3.778882961311620E-3    5.812111355654419E-2   -9.888065826956526E-4    5.732403664693481E-2   -5.353634202969851E-1    3.016202839838968E-2
 6.457943064050000E9    -5.822989908351730E-1   -8.668575566481819E-2   -3.661033834205909E-3    5.868288553461454E-2   -7.909896894766179E-4    5.783228498809036E-2   -5.351456769043622E-1    3.185527802825547E-2
 6.457954626225000E9    -5.823419937557587E-1   -8.546298354706694E-2   -3.540172353033145E-3    5.924688661124025E-2   -6.615483336662446E-4    5.836352705662495E-2   -5.349176799414189E-1    3.380836654009772E-2
 6.457966188400000E9    -5.823833616324561E-1   -8.431702143373299E-2   -3.408828215789365E-3    5.983817408485933E-2   -5.033099184865998E-4    5.884980043427172E-2   -5.347862114049139E-1    3.569668661609474E-2
 6.457977750575000E9    -5.825911049268033E-1   -8.314112809776808E-2   -3.187942153563570E-3    6.023641199102852E-2   -3.174954416662199E-4    5.931061250678525E-2   -5.344291081012581E-1    3.743434931829903E-2
 6.457989312750000E9    -5.825782655875947E-1   -8.197511734229374E-2   -2.923190419611791E-3    6.078675991250956E-2   -1.063903809551574E-4    5.994063224570911E-2   -5.342904356072171E-1    3.946321386167709E-2
