#  HZ   S   RI   R     50.00 
! Rohde & Schwarz Vector Network Analyzer 
! Rohde-Schwarz,ZNB20-2Port,1311601062101988,3.16
! Created: UTC 3/20/2024, 11:02:15 PM
! freq[Hz]                re:S11                  im:S11                  re:S21                  im:S21                  re:S12                  im:S12                  re:S22                  im:S22
 6.456940400000000E9    -5.654461676072158E-1   -1.760580183501017E-1   -9.158964813852255E-3    3.217419727932078E-2   -7.532084594427383E-3    3.209648640284996E-2   -5.310165016827612E-1   -9.162252542008507E-2
 6.456951986850000E9    -5.656748912299272E-1   -1.750514532009338E-1   -9.143479475256596E-3    3.225757363344301E-2   -7.408948760537153E-3    3.232147648434278E-2   -5.311541533524159E-1   -9.050538780442867E-2
 6.456963573700000E9    -5.660579942616117E-1   -1.741679014973837E-1   -9.068318278569050E-3    3.254588413027775E-2   -7.325660403823553E-3    3.251364286452055E-2   -5.313122162881753E-1   -8.932538731509383E-2
 6.456975160550000E9    -5.662683677314825E-1   -1.731909099867960E-1   -9.067758313813226E-3    3.276853871353268E-2   -7.370566161492954E-3    3.277167724153001E-2   -5.314850479227967E-1   -8.798079696694701E-2
 6.456986747400000E9    -5.664833072789845E-1   -1.722671851785673E-1   -9.079577981080248E-3    3.278076882868537E-2   -7.316774250720992E-3    3.295871687050046E-2   -5.316529549463157E-1   -8.700501050127583E-2
 6.456998334250000E9    -5.667473139904393E-1   -1.711630415131836E-1   -8.947254024544845E-3    3.320784575671528E-2   -7.315586001144138E-3    3.311051798290773E-2   -5.318470511707614E-1   -8.583582489766442E-2
 6.457009921100000E9    -5.669461315038991E-1   -1.703069620348004E-1   -9.100564457299660E-3    3.317614399012494E-2   -7.233782446604589E-3    3.334412284757966E-2   -5.321007270151789E-1   -8.450540329648087E-2
 6.457021507950000E9    -5.674094196646947E-1   -1.693360225636213E-1   -9.068052062259911E-3    3.330750273625042E-2   -7.162855124144269E-3    3.341523716576784E-2   -5.322287818925125E-1   -8.329754281755927E-2
 6.457033094800000E9    -5.674976791235311E-1   -1.684628237266125E-1   -8.957710903825654E-3    3.379914654884916E-2   -7.139984905266805E-3    3.368246553513801E-2   -5.324725590489418E-1   -8.205552104154100E-2
 6.457044681650000E9    -5.678775453006666E-1   -1.674687229067825E-1   -8.907724211621223E-3    3.381718102845850E-2   -7.215809752112623E-3    3.383328423330922E-2   -5.326017397166818E-1   -8.086220769970141E-2
 6.457056268500000E9    -5.681536753912599E-1   -1.664421489114596E-1   -8.941287671765488E-3    3.401361282283054E-2   -7.123588674797080E-3    3.407617957465372E-2   -5.327465553547313E-1   -7.967831214555970E-2
 6.457067855350000E9    -5.682909271722394E-1   -1.654777997594416E-1   -8.978742572317419E-3    3.433108397270271E-2   -7.066266302014590E-3    3.424195395141653E-2   -5.329896570300000E-1   -7.839317830063500E-2
 6.457079442200000E9    -5.686234587335941E-1   -1.645950740621550E-1   -8.859822186507119E-3    3.457599348135632E-2   -7.023007919461634E-3    3.439254417205263E-2   -5.331674717591225E-1   -7.718630210999267E-2
 6.457091029050000E9    -5.688213881513824E-1   -1.634896443069013E-1   -8.717747958485785E-3    3.463662488387616E-2   -6.901496496359590E-3    3.456420971933239E-2   -5.332608372538512E-1   -7.591729400577062E-2
 6.457102615900000E9    -5.690694122899611E-1   -1.626752212802659E-1   -8.964148854281791E-3    3.485324730269106E-2   -6.985011342608117E-3    3.486860759537354E-2   -5.335336977415606E-1   -7.478686123702934E-2
 6.457114202750000E9    -5.693817258381648E-1   -1.616587246246851E-1   -8.721938435852544E-3    3.505344800966689E-2   -6.863606112690709E-3    3.505254117874158E-2   -5.335055650333566E-1   -7.338968766423834E-2
 6.457125789600000E9    -5.697473435502827E-1   -1.606560938386063E-1   -8.686895448242431E-3    3.527842761787397E-2   -6.843557838552499E-3    3.529229558859196E-2   -5.336414804257519E-1   -7.214904856478201E-2
 6.457137376450000E9    -5.698550489000660E-1   -1.595938835657407E-1   -8.720881298356783E-3    3.557445870221720E-2   -6.887231492536950E-3    3.547607337722431E-2   -5.339221886959777E-1   -7.099697407892377E-2
 6.457148963300000E9    -5.701045316493073E-1   -1.587206928435636E-1   -8.667350718588375E-3    3.572387891128095E-2   -6.785318439347292E-3    3.572588308350287E-2   -5.340649401156941E-1   -6.977777670325948E-2
 6.457160550150000E9    -5.703791911033598E-1   -1.576604020867258E-1   -8.756608832860472E-3    3.605827523368414E-2   -6.684893174910978E-3    3.581146880381571E-2   -5.342052332155089E-1   -6.851991434139687E-2
 6.457172137000000E9    -5.705903774307826E-1   -1.567534443894782E-1   -8.767975941886821E-3    3.619323516735414E-2   -6.711618320447126E-3    3.612819836766142E-2   -5.343113161676741E-1   -6.730252576374830E-2
 6.457183723850000E9    -5.707640968319961E-1   -1.556654787451406E-1   -8.648252305626880E-3    3.633184112367972E-2   -6.639625227595054E-3    3.629546310813007E-2   -5.346266734982692E-1   -6.598825483435397E-2
 6.457195310700000E9    -5.711440465900239E-1   -1.547368192360436E-1   -8.540881713419502E-3    3.672971626041523E-2   -6.694988322587444E-3    3.652650730181758E-2   -5.347179698671209E-1   -6.470943497730586E-2
 6.457206897550000E9    -5.713921880854588E-1   -1.537830162722370E-1   -8.585822945497238E-3    3.687511744400644E-2   -6.632476403870583E-3    3.668788684098091E-2   -5.348172268545917E-1   -6.328981073447043E-2
 6.457218484400000E9    -5.716278754345127E-1   -1.527761608830658E-1   -8.397321050968128E-3    3.707897203586395E-2   -6.533551445264417E-3    3.701134484797416E-2   -5.348718845710029E-1   -6.211573359707147E-2
 6.457230071250000E9    -5.718021276582057E-1   -1.517173943693534E-1   -8.395235639823173E-3    3.727148656932337E-2   -6.459500642702438E-3    3.713373502627334E-2   -5.350398863705684E-1   -6.078304647527499E-2
 6.457241658100000E9    -5.721388311253843E-1   -1.507690401056714E-1   -8.424907388303057E-3    3.753237847519415E-2   -6.434209185389020E-3    3.744162156247777E-2   -5.351674439621854E-1   -5.949044611306345E-2
 6.457253244950000E9    -5.722539027487848E-1   -1.498221348059593E-1   -8.371828674180452E-3    3.767485985496336E-2   -6.332068678721908E-3    3.774594002456281E-2   -5.353718198802936E-1   -5.815980933741739E-2
 6.457264831800000E9    -5.723844115616965E-1   -1.487481777238119E-1   -8.365545411196988E-3    3.804593534742295E-2   -6.346135296890496E-3    3.786918817437776E-2   -5.353963781649016E-1   -5.699439640376783E-2
 6.457276418650000E9    -5.727741095596041E-1   -1.478039282088046E-1   -8.345865190819417E-3    3.825797663765395E-2   -6.227272616964862E-3    3.812800661751840E-2   -5.356068724057864E-1   -5.559854270204340E-2
 6.457288005500000E9    -5.730037127389470E-1   -1.467791808565983E-1   -8.244410920099990E-3    3.856393532669124E-2   -6.209476288351122E-3    3.836439083473018E-2   -5.357238721482029E-1   -5.425252607283372E-2
 6.457299592350000E9    -5.732095847317211E-1   -1.458693615374534E-1   -8.121173831866068E-3    3.879998756454282E-2   -6.164323235245789E-3    3.859471018919702E-2   -5.358520435816846E-1   -5.303454219077858E-2
 6.457311179200000E9    -5.734640550455007E-1   -1.448677927843028E-1   -8.241154775113130E-3    3.888981973108997E-2   -6.193433638098414E-3    3.877607308009557E-2   -5.360018262347426E-1   -5.166856309587025E-2
 6.457322766050000E9    -5.737070148642407E-1   -1.439207042444849E-1   -8.244616967585692E-3    3.931547013722963E-2   -6.163743967556392E-3    3.912857379501443E-2   -5.360189837235637E-1   -5.040275092837899E-2
 6.457334352900000E9    -5.738550448045533E-1   -1.427793213237175E-1   -8.114395720022975E-3    3.953327572896078E-2   -6.005768432252626E-3    3.934867401167704E-2   -5.360651353112688E-1   -4.901004811314442E-2
 6.457345939750000E9    -5.741126199651159E-1   -1.417280328170077E-1   -8.083819954858931E-3    3.968683640980039E-2   -6.025505983084353E-3    3.960974238470941E-2   -5.362811482666986E-1   -4.770926053549576E-2
 6.457357526600000E9    -5.743042205788396E-1   -1.407486601784544E-1   -8.029002549548586E-3    4.006892715417536E-2   -5.870448437156542E-3    3.980831589815490E-2   -5.363377208755128E-1   -4.631553933379648E-2
 6.457369113450000E9    -5.745689525952307E-1   -1.397250345661565E-1   -8.008372167765546E-3    4.044828151413020E-2   -5.837170384292243E-3    4.013034189482978E-2   -5.364746562450544E-1   -4.503348032534178E-2
 6.457380700300000E9    -5.747673147779053E-1   -1.388050706864172E-1   -7.947942901540822E-3    4.072395211692559E-2   -5.811971348006465E-3    4.035959129143460E-2   -5.364674346622426E-1   -4.361764112295057E-2
 6.457392287150000E9    -5.749357052006329E-1   -1.377934448099345E-1   -7.781879613526750E-3    4.084246343583756E-2   -5.784441649449140E-3    4.067319285871687E-2   -5.365302466239069E-1   -4.217895685280670E-2
 6.457403874000000E9    -5.751336154082696E-1   -1.366566406610945E-1   -7.735678927001283E-3    4.111837948982532E-2   -5.691071682308426E-3    4.082939330331305E-2   -5.368558941718748E-1   -4.091656363279211E-2
 6.457415460850000E9    -5.753586405034182E-1   -1.356551293375598E-1   -7.790676570852331E-3    4.143168919641976E-2   -5.659798630873780E-3    4.111312500433718E-2   -5.367887539971712E-1   -3.944147645131305E-2
 6.457427047700000E9    -5.755676513383740E-1   -1.346672787454174E-1   -7.625881761218492E-3    4.167096635741156E-2   -5.534331105448467E-3    4.145178512544719E-2   -5.369007995712706E-1   -3.805732010637308E-2
 6.457438634550000E9    -5.758840034715434E-1   -1.335758549171270E-1   -7.625608377650230E-3    4.194237902518744E-2   -5.530387255607909E-3    4.169927926430633E-2   -5.369681445789908E-1   -3.673043738722963E-2
 6.457450221400000E9    -5.759323413783153E-1   -1.326050982551442E-1   -7.591564321339199E-3    4.228743708126091E-2   -5.485817079279082E-3    4.199762402260717E-2   -5.370440894786698E-1   -3.539265198713785E-2
 6.457461808250000E9    -5.761901785840414E-1   -1.315480673002613E-1   -7.587871947226700E-3    4.267039242178777E-2   -5.516585679905270E-3    4.223146574683761E-2   -5.370988638716142E-1   -3.395047903790407E-2
 6.457473395100000E9    -5.763761006631997E-1   -1.306150419096189E-1   -7.521026210990955E-3    4.300335164295712E-2   -5.232939046941603E-3    4.266521910913933E-2   -5.371575983549506E-1   -3.255435902474777E-2
 6.457484981950000E9    -5.764668579920196E-1   -1.294685965641470E-1   -7.354368463301931E-3    4.317454336418109E-2   -5.217784009287131E-3    4.288375747303914E-2   -5.372983169362018E-1   -3.127129186630576E-2
 6.457496568800000E9    -5.767081908500251E-1   -1.284607512808432E-1   -7.361931992409245E-3    4.352735613905421E-2   -5.164956011597882E-3    4.312945400386291E-2   -5.372141162363872E-1   -2.966392428175304E-2
 6.457508155650000E9    -5.769278471047384E-1   -1.274207504471149E-1   -7.376045146919363E-3    4.382749454622113E-2   -5.086102323716093E-3    4.344764952179863E-2   -5.373767059028320E-1   -2.836405763490034E-2
 6.457519742500000E9    -5.770988939071688E-1   -1.263833240879838E-1   -7.282897881991243E-3    4.413360787312431E-2   -4.975202144721961E-3    4.379032470509404E-2   -5.373048591857539E-1   -2.678694875220874E-2
 6.457531329350000E9    -5.773518559854609E-1   -1.254361890329673E-1   -7.258694052050492E-3    4.442392062153815E-2   -4.952469942376256E-3    4.407701781843031E-2   -5.374292878176231E-1   -2.540249647770730E-2
 6.457542916200000E9    -5.774342641392425E-1   -1.243605769637552E-1   -7.266724223095024E-3    4.485157628611825E-2   -4.812971699443769E-3    4.441613389374283E-2   -5.374175875653934E-1   -2.393950973934912E-2
 6.457554503050000E9    -5.776017978652882E-1   -1.232797164583409E-1   -7.221258741834614E-3    4.511101991066166E-2   -4.721005029965151E-3    4.471477821626920E-2   -5.373563762120664E-1   -2.248500182289509E-2
 6.457566089900000E9    -5.778670890911717E-1   -1.222323218713153E-1   -6.923123347410083E-3    4.546143724144480E-2   -4.689711912463025E-3    4.497833423350414E-2   -5.374200361033353E-1   -2.102511774542843E-2
 6.457577676750000E9    -5.780015340902176E-1   -1.211824930860711E-1   -7.010203067679666E-3    4.578060945695801E-2   -4.704821148306266E-3    4.530360319640175E-2   -5.374960578511735E-1   -1.966810821347295E-2
 6.457589263600000E9    -5.782314379896765E-1   -1.202051567477400E-1   -6.901647579293292E-3    4.617685390775018E-2   -4.594465269345729E-3    4.555494400709440E-2   -5.375371155302527E-1   -1.808866603240939E-2
 6.457600850450000E9    -5.783755544889897E-1   -1.192156918146068E-1   -6.844159039019349E-3    4.638485843688184E-2   -4.485734013569617E-3    4.592729552137276E-2   -5.375753998323979E-1   -1.663374748935673E-2
 6.457612437300000E9    -5.785400705712405E-1   -1.180655735597535E-1   -6.819861974013988E-3    4.679493230423365E-2   -4.380089197682726E-3    4.627857252636524E-2   -5.375549783515320E-1   -1.510284382003261E-2
 6.457624024150000E9    -5.786643361064244E-1   -1.170287520936601E-1   -6.704679810731833E-3    4.705819188999699E-2   -4.260782456182963E-3    4.662707807570658E-2   -5.375542291364248E-1   -1.363854002811887E-2
 6.457635611000000E9    -5.789278562169320E-1   -1.158948463718101E-1   -6.553111204446337E-3    4.743131730923342E-2   -4.116650389231632E-3    4.692175150323275E-2   -5.376179635210478E-1   -1.203061752830810E-2
 6.457647197850000E9    -5.790347834278041E-1   -1.149454813945650E-1   -6.398391792245736E-3    4.781118862779086E-2   -4.071462210686987E-3    4.737820742372367E-2   -5.376917599617649E-1   -1.044299108477471E-2
 6.457658784700000E9    -5.791609806667879E-1   -1.137960938257463E-1   -6.555615445551644E-3    4.803259874762476E-2   -3.986463524693253E-3    4.763885546678114E-2   -5.374645731370254E-1   -9.000056615435060E-3
 6.457670371550000E9    -5.795123360694692E-1   -1.127818814437898E-1   -6.365192324108371E-3    4.859103381041334E-2   -3.970248201386507E-3    4.805766508809925E-2   -5.375073093879655E-1   -7.453774531337586E-3
 6.457681958400000E9    -5.795753968229042E-1   -1.115852023550611E-1   -6.199598219221896E-3    4.889001577538773E-2   -3.788342111123646E-3    4.835308927743240E-2   -5.373666084809546E-1   -5.922816508020794E-3
 6.457693545250000E9    -5.797438781186576E-1   -1.106162862410523E-1   -6.105372829656338E-3    4.939067535365858E-2   -3.626758148655580E-3    4.873869743006679E-2   -5.375395174157646E-1   -4.303953645901821E-3
 6.457705132100000E9    -5.798548584242410E-1   -1.094771500067921E-1   -6.132593805735553E-3    4.957945591808941E-2   -3.613610469512576E-3    4.914151131571337E-2   -5.374617333800008E-1   -2.870476139346630E-3
 6.457716718950000E9    -5.799612989917248E-1   -1.083678526778127E-1   -6.022517058650997E-3    5.015493039927499E-2   -3.356433508931484E-3    4.953068988144510E-2   -5.374796356829066E-1   -1.300496719735008E-3
 6.457728305800000E9    -5.801888042803766E-1   -1.072308573799943E-1   -5.979195959318378E-3    5.044404249388643E-2   -3.399943716221648E-3    4.994573653916018E-2   -5.374056303009709E-1    2.511170685647684E-4
 6.457739892650000E9    -5.802764189479771E-1   -1.062943718434885E-1   -5.770362608720984E-3    5.085592503767852E-2   -3.281553218691058E-3    5.021032829997382E-2   -5.372529400350197E-1    1.910409354461889E-3
 6.457751479500000E9    -5.805382180903651E-1   -1.050675639320302E-1   -5.643547527383962E-3    5.133925515354609E-2   -3.038763083225141E-3    5.069303257412951E-2   -5.371490818119019E-1    3.516270672521274E-3
 6.457763066350000E9    -5.806460087898597E-1   -1.039923953017484E-1   -5.617883959259737E-3    5.176345500361081E-2   -3.014837590918714E-3    5.099073108462448E-2   -5.371861786482576E-1    5.123141345622663E-3
 6.457774653200000E9    -5.806966751095370E-1   -1.029335617574848E-1   -5.507971975320105E-3    5.196472595197301E-2   -2.874219741880994E-3    5.153334553356547E-2   -5.370586407755934E-1    6.787974125163868E-3
 6.457786240050000E9    -5.807817105424465E-1   -1.018452669697505E-1   -5.260455510168295E-3    5.260194263015790E-2   -2.733741994741952E-3    5.186146402036522E-2   -5.370029422115506E-1    8.418865986506437E-3
 6.457797826900000E9    -5.808654058193468E-1   -1.007846507831660E-1   -5.411600997595588E-3    5.287925509763522E-2   -2.675885704051036E-3    5.228978474073947E-2   -5.370501696279912E-1    1.012794987149711E-2
 6.457809413750000E9    -5.811184833777124E-1   -9.957376934413849E-2   -5.285159711990969E-3    5.344385249475862E-2   -2.541386852448643E-3    5.265397667302737E-2   -5.369239314577311E-1    1.168452875983205E-2
 6.457821000600000E9    -5.813113460870525E-1   -9.857371680609392E-2   -5.080753468682076E-3    5.378982777035616E-2   -2.359981074787286E-3    5.315397895064081E-2   -5.367102795041118E-1    1.338716215656998E-2
 6.457832587450000E9    -5.813048892905863E-1   -9.737615834963820E-2   -4.978741339471520E-3    5.426612168511671E-2   -2.246337112789262E-3    5.352978006780500E-2   -5.366438861774426E-1    1.509748855629192E-2
 6.457844174300000E9    -5.814894420329947E-1   -9.624567951603469E-2   -4.774042273251498E-3    5.469773478608250E-2   -2.122972313399320E-3    5.406227542305784E-2   -5.365597903852644E-1    1.674918831505428E-2
 6.457855761150000E9    -5.815615822125323E-1   -9.504231651870160E-2   -4.710712625289096E-3    5.517251632914310E-2   -1.923829077652926E-3    5.446851970786626E-2   -5.363928404232589E-1    1.848988172200863E-2
 6.457867348000000E9    -5.816946911712466E-1   -9.402821830256987E-2   -4.657223764258483E-3    5.563413846124284E-2   -1.888565772701160E-3    5.487766758041061E-2   -5.362051030667437E-1    2.024058441053900E-2
 6.457878934850000E9    -5.816487148742190E-1   -9.289477998615804E-2   -4.484898894298823E-3    5.605077478422300E-2   -1.761189587192350E-3    5.527086980991657E-2   -5.361979277947146E-1    2.193814622717764E-2
 6.457890521700000E9    -5.818837325408129E-1   -9.163342755240989E-2   -4.294063840484397E-3    5.650977112655139E-2   -1.584360601312931E-3    5.574623725931951E-2   -5.360762187917899E-1    2.373636003980134E-2
 6.457902108550000E9    -5.820194798745723E-1   -9.054503333159937E-2   -4.090557428387955E-3    5.706944058698310E-2   -1.492068685822652E-3    5.624413615304900E-2   -5.358253590902873E-1    2.556433191949132E-2
 6.457913695400000E9    -5.821178264183280E-1   -8.955298056868800E-2   -3.996686160270737E-3    5.763203588952435E-2   -1.262939098025970E-3    5.680775631341962E-2   -5.357070504770965E-1    2.741077723549615E-2
 6.457925282250000E9    -5.821166729771476E-1   -8.831343397398812E-2   -3.984813994242819E-3    5.804724252009577E-2   -1.117902455297828E-3    5.715904941387314E-2   -5.354159586047281E-1    2.916486288944328E-2
 6.457936869100000E9    -5.822834072076563E-1   -8.719069751312657E-2   -3.919423667021513E-3    5.870888432742058E-2   -7.839082323777834E-4    5.782496807510218E-2   -5.352815523646204E-1    3.089070570238678E-2
 6.457948455950000E9    -5.823116617439839E-1   -8.603916468715407E-2   -3.573759109049786E-3    5.908080337276946E-2   -7.332990287088112E-4    5.826054466279883E-2   -5.350129166358757E-1    3.267340228263758E-2
 6.457960042800000E9    -5.824317948817452E-1   -8.483922933567561E-2   -3.535587007529445E-3    5.964364819476525E-2   -4.965861299094603E-4    5.878895369973543E-2   -5.347570956931554E-1    3.457604907361433E-2
 6.457971629650000E9    -5.824714700547224E-1   -8.371493046423518E-2   -3.284384179637037E-3    6.029092594707687E-2   -4.506135342299851E-4    5.931482282689785E-2   -5.347112275026479E-1    3.645977172125826E-2
 6.457983216500000E9    -5.825335499607476E-1   -8.251420768451781E-2   -3.125441071211316E-3    6.073278824429248E-2   -2.751217278375973E-4    5.983327403903885E-2   -5.344051840743839E-1    3.830693085470053E-2
