#  HZ   S   RI   R     50.00 
! Rohde & Schwarz Vector Network Analyzer 
! Rohde-Schwarz,ZNB20-2Port,1311601062101988,3.16
! Created: UTC 3/20/2024, 11:02:20 PM
! freq[Hz]                re:S11                  im:S11                  re:S21                  im:S21                  re:S12                  im:S12                  re:S22                  im:S22
 6.456938163000000E9    -5.652987136752522E-1   -1.762137366973184E-1   -9.149691453833346E-3    3.210906612632770E-2   -7.447671016722037E-3    3.215569133695622E-2   -5.308113285600660E-1   -9.201993095622529E-2
 6.456949759175000E9    -5.657363184322555E-1   -1.752359618044684E-1   -9.215251754132466E-3    3.229801838608980E-2   -7.427091199158046E-3    3.234354173071392E-2   -5.310840433850536E-1   -9.069778426860602E-2
 6.456961355350000E9    -5.659408654632241E-1   -1.742985565282019E-1   -9.014175059928494E-3    3.249540892921622E-2   -7.371656855042256E-3    3.254587964623773E-2   -5.311654728576043E-1   -8.957152675143180E-2
 6.456972951525000E9    -5.661950609236335E-1   -1.733002532187341E-1   -9.032240256921972E-3    3.274981407022898E-2   -7.371189504364951E-3    3.258998904474216E-2   -5.313295254193025E-1   -8.837603525100406E-2
 6.456984547700000E9    -5.665491203888039E-1   -1.723231615566558E-1   -9.076610218259567E-3    3.288746807332962E-2   -7.316136892556765E-3    3.292872213194248E-2   -5.316003356941086E-1   -8.713365649543038E-2
 6.456996143875000E9    -5.667654323587330E-1   -1.714878338045129E-1   -9.116248898258499E-3    3.317176235247595E-2   -7.315207092162051E-3    3.295275762508075E-2   -5.317361235400145E-1   -8.587955629364853E-2
 6.457007740050000E9    -5.669733787091459E-1   -1.703946764797168E-1   -9.100773993224384E-3    3.324986596503818E-2   -7.348622382483407E-3    3.329484060704512E-2   -5.320985517385777E-1   -8.480816079041260E-2
 6.457019336225000E9    -5.672780193613516E-1   -1.695027036267355E-1   -8.950695015223100E-3    3.335965103017798E-2   -7.315415656412356E-3    3.332135340965316E-2   -5.321384759827565E-1   -8.355673185559551E-2
 6.457030932400000E9    -5.676098321492706E-1   -1.685818474148615E-1   -9.063330928898739E-3    3.355108096361564E-2   -7.164208599702021E-3    3.366401639793421E-2   -5.323154054177535E-1   -8.222377358846460E-2
 6.457042528575000E9    -5.678570745438497E-1   -1.676577577558960E-1   -9.053454319413063E-3    3.384600376010145E-2   -7.234266767523550E-3    3.382785863589423E-2   -5.326720252985840E-1   -8.111863602368659E-2
 6.457054124750000E9    -5.681290787396978E-1   -1.666110616104270E-1   -8.928524261945696E-3    3.409624361051629E-2   -7.134918014732301E-3    3.398483910326641E-2   -5.327219472864237E-1   -7.996326441494712E-2
 6.457065720925000E9    -5.682505404548901E-1   -1.656609127144962E-1   -8.927185857441303E-3    3.428651779458533E-2   -7.090579779940346E-3    3.416803970072085E-2   -5.328639962838719E-1   -7.872028242809563E-2
 6.457077317100000E9    -5.685505593985469E-1   -1.646345597159443E-1   -8.919264705211408E-3    3.452723609514802E-2   -7.111564030684040E-3    3.441167254235079E-2   -5.330948681132039E-1   -7.752647182052692E-2
 6.457088913275000E9    -5.687528611995054E-1   -1.637509743194328E-1   -8.759909498905722E-3    3.467957771683158E-2   -7.070224401955913E-3    3.449765801146990E-2   -5.332464831937235E-1   -7.615990847886925E-2
 6.457100509450000E9    -5.691904283707806E-1   -1.627886917268020E-1   -8.772378742613609E-3    3.487509217031600E-2   -6.932338615387515E-3    3.488578415243049E-2   -5.333444327443756E-1   -7.501544426466468E-2
 6.457112105625000E9    -5.693443343228565E-1   -1.618354271097397E-1   -8.705679812835031E-3    3.507014260714261E-2   -6.911297732951020E-3    3.503555827374288E-2   -5.336662908386139E-1   -7.378273126537563E-2
 6.457123701800000E9    -5.696175417734329E-1   -1.607670533007383E-1   -8.647261080976892E-3    3.526111348393968E-2   -6.870284817218013E-3    3.510044874791516E-2   -5.336677561955687E-1   -7.251526417559341E-2
 6.457135297975000E9    -5.697826333145217E-1   -1.598875610979020E-1   -8.803235870629438E-3    3.548240426407184E-2   -6.897637753767885E-3    3.538531935213260E-2   -5.339446634930186E-1   -7.116343186298481E-2
 6.457146894150000E9    -5.702766254001908E-1   -1.588840186192914E-1   -8.650823591444966E-3    3.580235130815139E-2   -6.834544097433366E-3    3.556099907497676E-2   -5.340082878928445E-1   -7.003680056780646E-2
 6.457158490325000E9    -5.703490542160241E-1   -1.579613449582052E-1   -8.842651227027281E-3    3.590978048441421E-2   -6.761731665769864E-3    3.581605409272243E-2   -5.342060015079932E-1   -6.871178772700945E-2
 6.457170086500000E9    -5.706022030436868E-1   -1.568590290574305E-1   -8.602117042273837E-3    3.626098377507809E-2   -6.764710587141848E-3    3.610135049188172E-2   -5.343655655890274E-1   -6.749815176664867E-2
 6.457181682675000E9    -5.708786341706081E-1   -1.559286368616417E-1   -8.625264295671824E-3    3.636511812203724E-2   -6.766415361990763E-3    3.623991164834350E-2   -5.345252234214481E-1   -6.627412513834520E-2
 6.457193278850000E9    -5.711488215139296E-1   -1.549260733354319E-1   -8.572991765157941E-3    3.665166816045776E-2   -6.622693907171553E-3    3.655113324590960E-2   -5.346264453133768E-1   -6.489704743438819E-2
 6.457204875025000E9    -5.714619011919017E-1   -1.539260082613740E-1   -8.495580007770186E-3    3.679876370306191E-2   -6.560189481389462E-3    3.671090069409920E-2   -5.348332061986494E-1   -6.366239150907863E-2
 6.457216471200000E9    -5.716426319623623E-1   -1.529508883550084E-1   -8.570687035247548E-3    3.719573928582547E-2   -6.612872342515668E-3    3.693597954203215E-2   -5.351006530445471E-1   -6.221178696967559E-2
 6.457228067375000E9    -5.718211434879913E-1   -1.519209171945600E-1   -8.473426322998549E-3    3.722771719718958E-2   -6.413844811463759E-3    3.720760712710715E-2   -5.348984272293112E-1   -6.108204361894318E-2
 6.457239663550000E9    -5.720569291568304E-1   -1.508957617526450E-1   -8.345382581838558E-3    3.753430672605835E-2   -6.421320967825002E-3    3.736965981831714E-2   -5.352161176401431E-1   -5.983675018121511E-2
 6.457251259725000E9    -5.723163034104478E-1   -1.498791704759800E-1   -8.397485274184340E-3    3.792899496592265E-2   -6.390203088625350E-3    3.768592495281650E-2   -5.352532669401342E-1   -5.846940809157170E-2
 6.457262855900000E9    -5.725265583475301E-1   -1.490226425372032E-1   -8.273578615597601E-3    3.806019461628057E-2   -6.353488834730210E-3    3.782992844881371E-2   -5.354224125727747E-1   -5.727228455553526E-2
 6.457274452075000E9    -5.726597377792892E-1   -1.479366673675322E-1   -8.287340121889291E-3    3.823961500103545E-2   -6.308904770591025E-3    3.802891930907877E-2   -5.354859265008912E-1   -5.598130922237877E-2
 6.457286048250000E9    -5.730274933889913E-1   -1.469309452399160E-1   -8.382889764009138E-3    3.853686010158124E-2   -6.204617094418245E-3    3.831063308448523E-2   -5.355891217775253E-1   -5.457723672000805E-2
 6.457297644425000E9    -5.731932633517806E-1   -1.459546137994381E-1   -8.322391453546098E-3    3.870878210992488E-2   -6.225458501653193E-3    3.860067549296292E-2   -5.357157751648179E-1   -5.341151771154528E-2
 6.457309240600000E9    -5.734235000962696E-1   -1.449595827262483E-1   -8.219745437244052E-3    3.893370530711455E-2   -6.275150783166200E-3    3.883637861112175E-2   -5.358702130136824E-1   -5.196963043296209E-2
 6.457320836775000E9    -5.736286733307669E-1   -1.438520551856133E-1   -8.028933864713738E-3    3.935613260886194E-2   -6.062863202639298E-3    3.905411915969528E-2   -5.359229769345595E-1   -5.065568308870821E-2
 6.457332432950000E9    -5.737895711847125E-1   -1.428722464068942E-1   -8.299328356604982E-3    3.946294703343575E-2   -6.049485949005524E-3    3.929062703802250E-2   -5.362554923609300E-1   -4.928418074558708E-2
 6.457344029125000E9    -5.741079659839368E-1   -1.419081103780061E-1   -8.074723318408021E-3    3.972720251984427E-2   -6.105051633905675E-3    3.958562629826224E-2   -5.362134591682053E-1   -4.785980432100038E-2
 6.457355625300000E9    -5.742806489978811E-1   -1.409258210732636E-1   -8.097098619825790E-3    4.009999335877764E-2   -5.904729517227333E-3    3.983130794998534E-2   -5.362647201385520E-1   -4.655316457265535E-2
 6.457367221475000E9    -5.744781696126039E-1   -1.399537524512412E-1   -8.015300451939530E-3    4.032318472512319E-2   -5.928575639577263E-3    4.012446345498371E-2   -5.364005624334127E-1   -4.526035155060752E-2
 6.457378817650000E9    -5.746618861020543E-1   -1.388985756346294E-1   -7.909929588945938E-3    4.059902092483720E-2   -5.778146009031030E-3    4.039711313746365E-2   -5.364415611288462E-1   -4.384883794058822E-2
 6.457390413825000E9    -5.749104880759325E-1   -1.378669520391184E-1   -7.826984107347638E-3    4.092565129708648E-2   -5.683723486977149E-3    4.064612586362629E-2   -5.366389808428360E-1   -4.256347590483792E-2
 6.457402010000000E9    -5.751613014993404E-1   -1.369047672322821E-1   -7.930550853963620E-3    4.109469482338250E-2   -5.614683047384244E-3    4.089624704563735E-2   -5.367513705496096E-1   -4.112047059371363E-2
 6.457413606175000E9    -5.753505500423236E-1   -1.358041279838197E-1   -7.851944814551547E-3    4.144288588547911E-2   -5.629791906447396E-3    4.118631799374958E-2   -5.367995694305465E-1   -3.976716147271616E-2
 6.457425202350000E9    -5.754797370904803E-1   -1.348417891102170E-1   -7.794646455701184E-3    4.182123880447149E-2   -5.591262317821419E-3    4.145844600838132E-2   -5.367503795093463E-1   -3.847937579360074E-2
 6.457436798525000E9    -5.757041613853888E-1   -1.338149977054863E-1   -7.775456959455830E-3    4.197880528968014E-2   -5.437681918196421E-3    4.175477638567769E-2   -5.367915897099805E-1   -3.704563044809922E-2
 6.457448394700000E9    -5.760167729293771E-1   -1.327975711651732E-1   -7.657888544858302E-3    4.215868612894007E-2   -5.491972851399544E-3    4.196503522745972E-2   -5.369240526987830E-1   -3.563846710823521E-2
 6.457459990875000E9    -5.762073849807446E-1   -1.317827757172445E-1   -7.601474418561096E-3    4.255978593247944E-2   -5.393403984840821E-3    4.219413357127985E-2   -5.371000169296625E-1   -3.425010486954233E-2
 6.457471587050000E9    -5.763527975321194E-1   -1.307024679470351E-1   -7.367176125998609E-3    4.279791994539600E-2   -5.216066070966601E-3    4.248752451568394E-2   -5.371511480991584E-1   -3.276133693977993E-2
 6.457483183225000E9    -5.765064872234839E-1   -1.297580238510427E-1   -7.419314719626750E-3    4.319789278298324E-2   -5.235889966404096E-3    4.280450394658522E-2   -5.372298406539149E-1   -3.140750943595742E-2
 6.457494779400000E9    -5.767030558841829E-1   -1.285899361879483E-1   -7.362317574393417E-3    4.346009078946531E-2   -5.143752899163167E-3    4.307223397255702E-2   -5.373198858574222E-1   -2.993823414151938E-2
 6.457506375575000E9    -5.769376110878752E-1   -1.276533840727168E-1   -7.282553795269044E-3    4.379773877150377E-2   -5.088576612997216E-3    4.335008676968135E-2   -5.372560437228945E-1   -2.855978499896716E-2
 6.457517971750000E9    -5.771715184496938E-1   -1.265076619466704E-1   -7.325883293842013E-3    4.410215624983558E-2   -4.980446581336524E-3    4.369361688753222E-2   -5.372845085935920E-1   -2.703135576232738E-2
 6.457529567925000E9    -5.772651643046528E-1   -1.254583571850161E-1   -7.176876003329039E-3    4.433744562690783E-2   -4.919204787367730E-3    4.400894943506860E-2   -5.372780758541146E-1   -2.552218300724633E-2
 6.457541164100000E9    -5.774417150283018E-1   -1.244378094212570E-1   -7.151543299932264E-3    4.478365194493042E-2   -4.834563523884844E-3    4.433677638153837E-2   -5.374060884461787E-1   -2.420944460414521E-2
 6.457552760275000E9    -5.776028098671216E-1   -1.234009696449554E-1   -7.107043407154341E-3    4.500761624413410E-2   -4.833199326337188E-3    4.473100272414826E-2   -5.373146171751133E-1   -2.263857669802412E-2
 6.457564356450000E9    -5.779623676825384E-1   -1.223878884016374E-1   -6.993127736624400E-3    4.544459644565820E-2   -4.816050714570682E-3    4.497582360843134E-2   -5.375472783020376E-1   -2.118036892025838E-2
 6.457575952625000E9    -5.779270897962663E-1   -1.212360481874837E-1   -7.020503937160144E-3    4.568443598531103E-2   -4.646631617112353E-3    4.523776958026029E-2   -5.374652156948494E-1   -1.980563298461240E-2
 6.457587548800000E9    -5.782708680190767E-1   -1.201581529339305E-1   -6.976883536366652E-3    4.601986682996097E-2   -4.489809669524338E-3    4.562704899833826E-2   -5.375509562536263E-1   -1.829817198929978E-2
 6.457599144975000E9    -5.783834706487088E-1   -1.191947969423995E-1   -6.825731308807667E-3    4.631791784995418E-2   -4.367178585828919E-3    4.595867072338164E-2   -5.374824357407169E-1   -1.680412236627138E-2
 6.457610741150000E9    -5.785477482726051E-1   -1.181453096587072E-1   -6.768011994853532E-3    4.667520140085078E-2   -4.424440655928596E-3    4.637345876284839E-2   -5.375341164657386E-1   -1.532838993450692E-2
 6.457622337325000E9    -5.786339529781309E-1   -1.169538120877848E-1   -6.707119265263017E-3    4.709786480603140E-2   -4.133973797579405E-3    4.661670067620639E-2   -5.375388233986652E-1   -1.384169660556594E-2
 6.457633933500000E9    -5.788398862553790E-1   -1.160222890193280E-1   -6.651684853152512E-3    4.749882589651219E-2   -4.253759793656631E-3    4.687624590382216E-2   -5.376218270661394E-1   -1.238939926285020E-2
 6.457645529675000E9    -5.790687741681225E-1   -1.149832480215353E-1   -6.529629665909384E-3    4.779390942723952E-2   -4.075476567828092E-3    4.725722205037958E-2   -5.375500184450550E-1   -1.086839493451684E-2
 6.457657125850000E9    -5.792511510521100E-1   -1.139198222678874E-1   -6.465029265643765E-3    4.802865060733234E-2   -3.928533286745629E-3    4.767599429290997E-2   -5.375354175694400E-1   -9.331345473805484E-3
 6.457668722025000E9    -5.793024150661089E-1   -1.128239396381096E-1   -6.382696609687242E-3    4.847328271069340E-2   -3.948516498388813E-3    4.809376825509327E-2   -5.374679925382954E-1   -7.674157942046381E-3
 6.457680318200000E9    -5.795114078558266E-1   -1.117809342267200E-1   -6.344711202458009E-3    4.887528858157526E-2   -3.852260408648076E-3    4.837219076933517E-2   -5.375472012992850E-1   -6.191406295367925E-3
 6.457691914375000E9    -5.796852272409303E-1   -1.106999338930761E-1   -6.257332112356479E-3    4.936205907095526E-2   -3.589073320061155E-3    4.864425084004666E-2   -5.375517990145549E-1   -4.656538589455062E-3
 6.457703510550000E9    -5.798907377863778E-1   -1.095303362792587E-1   -6.099269903730081E-3    4.971412490417771E-2   -3.732404904535457E-3    4.902635729969013E-2   -5.374002235276170E-1   -3.045294284575999E-3
 6.457715106725000E9    -5.800289691057646E-1   -1.084384013201613E-1   -6.053231909940959E-3    5.010201843755249E-2   -3.451119787652284E-3    4.956172251867441E-2   -5.374343799536428E-1   -1.520359809027786E-3
 6.457726702900000E9    -5.801708786756707E-1   -1.074856320485024E-1   -5.931483018178568E-3    5.051223564915849E-2   -3.303899347710211E-3    4.986736049236058E-2   -5.373705933024657E-1    9.944833799425727E-5
 6.457738299075000E9    -5.803619129043560E-1   -1.063238344931548E-1   -5.883156136847025E-3    5.077200418844867E-2   -3.273461305742775E-3    5.014920940945664E-2   -5.373375774264859E-1    1.760171460342266E-3
 6.457749895250000E9    -5.804567522322429E-1   -1.052492533059733E-1   -5.757047462953625E-3    5.131401482259054E-2   -3.120234973662214E-3    5.060647277874010E-2   -5.369940542872415E-1    3.177670816256562E-3
 6.457761491425000E9    -5.804682607615643E-1   -1.041188509627679E-1   -5.626163411156473E-3    5.164904984176578E-2   -3.008921607923317E-3    5.099856094763710E-2   -5.371776477378933E-1    4.786843623009239E-3
 6.457773087600000E9    -5.807078627921167E-1   -1.030845843330529E-1   -5.497955463887816E-3    5.198719627980211E-2   -2.911455832326299E-3    5.142777964700072E-2   -5.371294812613476E-1    6.502901410440005E-3
 6.457784683775000E9    -5.808562517569041E-1   -1.019006287162887E-1   -5.437539641343307E-3    5.253147868250591E-2   -2.719459063348985E-3    5.185207257035894E-2   -5.370083858210959E-1    8.276625452057592E-3
 6.457796279950000E9    -5.809233706968762E-1   -1.007932750256121E-1   -5.361925777091627E-3    5.287031867641625E-2   -2.644798203679461E-3    5.230423453551347E-2   -5.368427301228819E-1    9.904571395663531E-3
 6.457807876125000E9    -5.811367441894131E-1   -9.974122360636146E-2   -5.208422991648899E-3    5.333396687813807E-2   -2.527865491118263E-3    5.274235378326956E-2   -5.368341388900632E-1    1.170474677690366E-2
 6.457819472300000E9    -5.811645988806166E-1   -9.868637863934732E-2   -5.108510166696511E-3    5.391453833094467E-2   -2.371503600312617E-3    5.303422700106545E-2   -5.367521547146000E-1    1.327518053668100E-2
 6.457831068475000E9    -5.813086276969930E-1   -9.742475302533848E-2   -5.008196625176430E-3    5.413666505494612E-2   -2.211066327602776E-3    5.356874069282318E-2   -5.366753295294980E-1    1.485952622841206E-2
 6.457842664650000E9    -5.814202158699411E-1   -9.640995146137278E-2   -4.875897209282936E-3    5.480632738921720E-2   -2.234385805705888E-3    5.403225839355243E-2   -5.363731672338171E-1    1.668644397967110E-2
 6.457854260825000E9    -5.815459740747149E-1   -9.526523544051220E-2   -4.806286171748396E-3    5.511714435195140E-2   -2.000119426224156E-3    5.440134081697953E-2   -5.364315876729271E-1    1.846862026607287E-2
 6.457865857000000E9    -5.816759276931890E-1   -9.412579258384859E-2   -4.599480087955543E-3    5.572285772261323E-2   -1.828383254318096E-3    5.490183386306480E-2   -5.361761111674994E-1    1.992519947371336E-2
 6.457877453175000E9    -5.817189844153250E-1   -9.302392839845935E-2   -4.531298102827641E-3    5.605985267404032E-2   -1.742536031265117E-3    5.531262266281722E-2   -5.361089468054079E-1    2.185858276380426E-2
 6.457889049350000E9    -5.818360225812359E-1   -9.191742585834660E-2   -4.346508698456149E-3    5.655491605429971E-2   -1.556213786893655E-3    5.574798323929566E-2   -5.361349157820244E-1    2.352306485806531E-2
 6.457900645525000E9    -5.820183650517043E-1   -9.070675650955211E-2   -4.278498296519784E-3    5.714974707099200E-2   -1.372017825113224E-3    5.623441238227160E-2   -5.358020065953290E-1    2.533349938160416E-2
 6.457912241700000E9    -5.820785429050853E-1   -8.955054435407328E-2   -4.083098457173385E-3    5.766545653444394E-2   -1.129428961975581E-3    5.683029664242698E-2   -5.356173971203437E-1    2.712976187465808E-2
 6.457923837875000E9    -5.821645883351831E-1   -8.848678148672273E-2   -3.845749598636595E-3    5.795809755435067E-2   -1.098244579656296E-3    5.709802044319573E-2   -5.354644453037618E-1    2.898257247070055E-2
 6.457935434050000E9    -5.822457886414208E-1   -8.729840330006083E-2   -3.822779665167381E-3    5.847359937217388E-2   -8.916364129790605E-4    5.772890124192551E-2   -5.353807855578102E-1    3.064630431443951E-2
 6.457947030225000E9    -5.823209591406743E-1   -8.606178466943330E-2   -3.606751943767488E-3    5.905234239314268E-2   -7.104976668908334E-4    5.816873724320713E-2   -5.350491984887220E-1    3.257233039533981E-2
 6.457958626400000E9    -5.824081642405433E-1   -8.492138507507205E-2   -3.415585003983739E-3    5.966368770891983E-2   -5.371850813689428E-4    5.867860897905265E-2   -5.348329848647129E-1    3.435029966051759E-2
 6.457970222575000E9    -5.825677599427669E-1   -8.376515181744486E-2   -3.237841143751936E-3    6.020486938741290E-2   -4.326810797897131E-4    5.915114180095396E-2   -5.346506130385380E-1    3.624659581371061E-2
 6.457981818750000E9    -5.826557384035063E-1   -8.252840882818968E-2   -3.118567494407638E-3    6.065695248816027E-2   -1.303903321077286E-4    5.972514213767208E-2   -5.345056601364169E-1    3.816255044218064E-2
