#  HZ   S   RI   R     50.00 
! Rohde & Schwarz Vector Network Analyzer 
! Rohde-Schwarz,ZNB20-2Port,1311601062101988,3.16
! Created: UTC 3/20/2024, 11:02:42 PM
! freq[Hz]                re:S11                  im:S11                  re:S21                  im:S21                  re:S12                  im:S12                  re:S22                  im:S22
 6.456933479000000E9    -5.653129599972662E-1   -1.765355947325229E-1   -9.156727300994866E-3    3.204114690669263E-2   -7.399820034894073E-3    3.209994918325845E-2   -5.309556016142052E-1   -9.241048746632223E-2
 6.456945088350000E9    -5.655707500235212E-1   -1.755368864430657E-1   -9.242849733375027E-3    3.213534909148318E-2   -7.366612043418760E-3    3.230467631471334E-2   -5.311460816474611E-1   -9.134035279138793E-2
 6.456956697700000E9    -5.658177646736375E-1   -1.746893581523337E-1   -9.259799838662805E-3    3.248379118257751E-2   -7.405693115235084E-3    3.239788061062045E-2   -5.314044798520847E-1   -9.009398007036346E-2
 6.456968307050000E9    -5.660991663865912E-1   -1.736698804542461E-1   -9.095177356737599E-3    3.270157057720845E-2   -7.398448609434984E-3    3.270441174643741E-2   -5.316207021594348E-1   -8.898790379208042E-2
 6.456979916400000E9    -5.664713290326439E-1   -1.727506301936085E-1   -9.043204179616493E-3    3.281617079575073E-2   -7.358654591542117E-3    3.283718647906804E-2   -5.318161005574829E-1   -8.771954697953750E-2
 6.456991525750000E9    -5.665888304498842E-1   -1.717679536474572E-1   -8.923365428358079E-3    3.300463894732254E-2   -7.244175108869441E-3    3.305288476146794E-2   -5.319769443518709E-1   -8.655211799783967E-2
 6.457003135100000E9    -5.668668998830307E-1   -1.706869616417863E-1   -9.031363219027035E-3    3.321077379691746E-2   -7.308032771682397E-3    3.327861660087506E-2   -5.322088220554688E-1   -8.527661480280557E-2
 6.457014744450000E9    -5.672661838783591E-1   -1.697626779759822E-1   -9.142996567185408E-3    3.348053523299419E-2   -7.221223482846580E-3    3.334636190205049E-2   -5.323335215997960E-1   -8.397094775592326E-2
 6.457026353800000E9    -5.674144922148181E-1   -1.688471460320189E-1   -8.909553278062615E-3    3.355466111281147E-2   -7.155018957079928E-3    3.355957608788853E-2   -5.326260597405305E-1   -8.280593642761934E-2
 6.457037963150000E9    -5.676779530571138E-1   -1.678354344695360E-1   -8.961803516295875E-3    3.371921259770206E-2   -7.080269380389658E-3    3.382599846494801E-2   -5.327695144387038E-1   -8.173909684152060E-2
 6.457049572500000E9    -5.679245460642920E-1   -1.669895874633596E-1   -9.013928025710792E-3    3.403122217303839E-2   -7.078567666365903E-3    3.399660321769563E-2   -5.330364166819500E-1   -8.046637276403058E-2
 6.457061181850000E9    -5.682979637959094E-1   -1.659318658684845E-1   -8.813864045204161E-3    3.425723281990982E-2   -6.967453112440928E-3    3.409773275713155E-2   -5.330633386958870E-1   -7.926781393303242E-2
 6.457072791200000E9    -5.684871143507341E-1   -1.649119741001147E-1   -8.842553668952854E-3    3.448597510640845E-2   -7.025551213633100E-3    3.439966433178138E-2   -5.333133692099690E-1   -7.812485968614835E-2
 6.457084400550000E9    -5.687214836672009E-1   -1.639069545199498E-1   -8.901166936774818E-3    3.463192195539770E-2   -7.049639682694973E-3    3.456558979505968E-2   -5.332571691590856E-1   -7.684827763356948E-2
 6.457096009900000E9    -5.689788737448486E-1   -1.629690197836194E-1   -8.750062705858378E-3    3.483083274677017E-2   -6.950058707286420E-3    3.481646664065743E-2   -5.335088235629721E-1   -7.537571011748470E-2
 6.457107619250000E9    -5.692467407026948E-1   -1.620068436240997E-1   -8.755378681970544E-3    3.496754640664995E-2   -6.992831963432887E-3    3.501683882368296E-2   -5.337329641287528E-1   -7.435715088678713E-2
 6.457119228600000E9    -5.695099665997352E-1   -1.610390529551616E-1   -8.772834224964467E-3    3.529667506572320E-2   -6.966192363487783E-3    3.517676104199232E-2   -5.338734810034929E-1   -7.315210577499907E-2
 6.457130837950000E9    -5.696623110653559E-1   -1.600574113846180E-1   -8.785428227211388E-3    3.558005688011715E-2   -6.796524102815962E-3    3.528628794153398E-2   -5.340869414425458E-1   -7.181128034033499E-2
 6.457142447300000E9    -5.699566940829641E-1   -1.591178639714715E-1   -8.635662271520263E-3    3.576673997266643E-2   -6.658200485175809E-3    3.551335179328072E-2   -5.342367208999411E-1   -7.054204038091810E-2
 6.457154056650000E9    -5.703465859039900E-1   -1.580367558349303E-1   -8.729273593070344E-3    3.584688509253427E-2   -6.764845986857638E-3    3.579951951319357E-2   -5.344412899017773E-1   -6.938059631916160E-2
 6.457165666000000E9    -5.704946296048906E-1   -1.571727176774724E-1   -8.615174838051992E-3    3.599034404146739E-2   -6.905856861144131E-3    3.603172653590014E-2   -5.345501081536457E-1   -6.805096122716889E-2
 6.457177275350000E9    -5.708286500394519E-1   -1.561101684396969E-1   -8.614207880357196E-3    3.642900129546823E-2   -6.701490114325882E-3    3.617018847137138E-2   -5.347491426512294E-1   -6.673146312938891E-2
 6.457188884700000E9    -5.710292483191990E-1   -1.551579654537004E-1   -8.614070806548444E-3    3.653089616636033E-2   -6.689540882109313E-3    3.647310920113945E-2   -5.348646260468286E-1   -6.524768366591790E-2
 6.457200494050000E9    -5.712123788185758E-1   -1.541351333646271E-1   -8.550722930100186E-3    3.674395343705945E-2   -6.562797092675069E-3    3.671639258910413E-2   -5.349974074101731E-1   -6.428491151688313E-2
 6.457212103400000E9    -5.714282932316376E-1   -1.531690996890221E-1   -8.474080989016333E-3    3.703470429748654E-2   -6.531398590663203E-3    3.704607976214190E-2   -5.351537487201277E-1   -6.273937399384497E-2
 6.457223712750000E9    -5.717836971536077E-1   -1.522118565842414E-1   -8.520242174071336E-3    3.712540499929917E-2   -6.549106547965857E-3    3.715638421972589E-2   -5.352071142330785E-1   -6.155030070753020E-2
 6.457235322100000E9    -5.718824201044588E-1   -1.512397765626552E-1   -8.492504533658190E-3    3.751475740730006E-2   -6.404188203816845E-3    3.748162343415457E-2   -5.354081834053492E-1   -6.034025461458707E-2
 6.457246931450000E9    -5.721633087813413E-1   -1.501291150121691E-1   -8.493736436266601E-3    3.776865909214876E-2   -6.438891498283631E-3    3.755776042943425E-2   -5.353105029053941E-1   -5.901503614999479E-2
 6.457258540800000E9    -5.724783748542008E-1   -1.491594785147064E-1   -8.428386368275047E-3    3.794841212047927E-2   -6.385142652028731E-3    3.785377547533755E-2   -5.356688844674443E-1   -5.777135410116852E-2
 6.457270150150000E9    -5.726080674243729E-1   -1.481617762932045E-1   -8.345844518747307E-3    3.820549842637422E-2   -6.282351159169862E-3    3.805098136007730E-2   -5.357336263022965E-1   -5.639487429790491E-2
 6.457281759500000E9    -5.728037550244547E-1   -1.472731697136270E-1   -8.296438025498287E-3    3.841887161200895E-2   -6.202253213912752E-3    3.833474924175599E-2   -5.359884036688785E-1   -5.505987126231801E-2
 6.457293368850000E9    -5.730768638390336E-1   -1.462354159177623E-1   -8.342232637184067E-3    3.871038453544144E-2   -6.258605690337327E-3    3.849765027396809E-2   -5.360540205504981E-1   -5.389174949598440E-2
 6.457304978200000E9    -5.733230121052901E-1   -1.451673269337169E-1   -8.191281502605570E-3    3.893530767016080E-2   -6.166863781949155E-3    3.884814300642152E-2   -5.360731289742587E-1   -5.253129281293815E-2
 6.457316587550000E9    -5.734736182570632E-1   -1.441609108382468E-1   -8.239733173905656E-3    3.916411023122204E-2   -6.084267889032003E-3    3.904495268722437E-2   -5.361966626167425E-1   -5.113647206809180E-2
 6.457328196900000E9    -5.737755254752526E-1   -1.431597715456870E-1   -8.160703269239723E-3    3.953919958156270E-2   -6.009195213274536E-3    3.933593120910416E-2   -5.362584210803515E-1   -4.978267394701971E-2
 6.457339806250000E9    -5.740224556792856E-1   -1.421979694926236E-1   -7.956180806593523E-3    3.981182340065215E-2   -6.030085689653845E-3    3.954142998433845E-2   -5.363819715096299E-1   -4.831616046738713E-2
 6.457351415600000E9    -5.741555336166330E-1   -1.412689043505931E-1   -8.102668418343733E-3    4.004541311882353E-2   -5.918632912226614E-3    3.978793138749397E-2   -5.365078985576888E-1   -4.714574396589273E-2
 6.457363024950000E9    -5.743988374698187E-1   -1.401726986673409E-1   -8.008571160547076E-3    4.017277208391661E-2   -5.851417803972714E-3    4.008375180864985E-2   -5.365931238704240E-1   -4.574046174710702E-2
 6.457374634300000E9    -5.746303690988034E-1   -1.391222248916407E-1   -7.997827509407592E-3    4.052467076764112E-2   -5.884083203294146E-3    4.036246098002253E-2   -5.368298704910290E-1   -4.429558865250739E-2
 6.457386243650000E9    -5.748170781572975E-1   -1.380885627485402E-1   -7.853282889044083E-3    4.090869488463899E-2   -5.778991833916001E-3    4.055693001929799E-2   -5.366434721398537E-1   -4.300284032731511E-2
 6.457397853000000E9    -5.750569615059067E-1   -1.371141136212313E-1   -7.816421839806315E-3    4.111894459439318E-2   -5.670923252910985E-3    4.075984141084047E-2   -5.369985143314460E-1   -4.164829082712798E-2
 6.457409462350000E9    -5.753136385912414E-1   -1.361578667132664E-1   -7.799410776064013E-3    4.147055079149475E-2   -5.611738339109673E-3    4.108113290269615E-2   -5.369713258516161E-1   -4.035720228036262E-2
 6.457421071700000E9    -5.754184027349757E-1   -1.350508328020498E-1   -7.702715529870109E-3    4.166707410583830E-2   -5.527774985277673E-3    4.137895648307478E-2   -5.369863821520607E-1   -3.890729356520405E-2
 6.457432681050000E9    -5.756282635715073E-1   -1.341171213807151E-1   -7.688336703355023E-3    4.206255845058283E-2   -5.426121947769165E-3    4.168031247450945E-2   -5.371769326566441E-1   -3.754922016567145E-2
 6.457444290400000E9    -5.759311366603052E-1   -1.330509976893322E-1   -7.558998699971404E-3    4.214530648436286E-2   -5.385044711562357E-3    4.191829091893506E-2   -5.373141406675291E-1   -3.618623951042218E-2
 6.457455899750000E9    -5.761084599803817E-1   -1.320982177376217E-1   -7.706334254660899E-3    4.253920065487683E-2   -5.294413444767389E-3    4.221418764024747E-2   -5.372838299612721E-1   -3.468323673369927E-2
 6.457467509100000E9    -5.762899992734843E-1   -1.309892008877316E-1   -7.558392170702677E-3    4.281353007191632E-2   -5.295020424484492E-3    4.254344242267871E-2   -5.373688865370609E-1   -3.334530427435520E-2
 6.457479118450000E9    -5.764818763775343E-1   -1.300522790706576E-1   -7.422791284902041E-3    4.310173473320045E-2   -5.233570380123395E-3    4.271591120915673E-2   -5.373754025890102E-1   -3.185450817282671E-2
 6.457490727800000E9    -5.766070320254556E-1   -1.289013126269279E-1   -7.458183906459487E-3    4.343173824907266E-2   -5.058553884551324E-3    4.310313298744772E-2   -5.374298020536004E-1   -3.063732696540828E-2
 6.457502337150000E9    -5.768957663540808E-1   -1.277820534386597E-1   -7.354145863149925E-3    4.370889125914618E-2   -5.085357540875969E-3    4.343526842732084E-2   -5.374261790391872E-1   -2.903259621025936E-2
 6.457513946500000E9    -5.769778846305098E-1   -1.268448272077040E-1   -7.378595911681834E-3    4.415679451930456E-2   -5.012785019982261E-3    4.371510246821594E-2   -5.374850869381252E-1   -2.750497217781548E-2
 6.457525555850000E9    -5.773760368709968E-1   -1.257947923741249E-1   -7.262632819636130E-3    4.436246524998897E-2   -5.019907338963271E-3    4.400562715628674E-2   -5.375566787033068E-1   -2.612998826017595E-2
 6.457537165200000E9    -5.774840764538438E-1   -1.246465018046103E-1   -7.218573341052640E-3    4.459306653905944E-2   -4.887615963673603E-3    4.419690694764970E-2   -5.376764972847907E-1   -2.460712976215428E-2
 6.457548774550000E9    -5.776727731651822E-1   -1.237227565766012E-1   -7.138586403143959E-3    4.496583604820699E-2   -4.821625855865843E-3    4.459564557886293E-2   -5.376278069586204E-1   -2.318491316621224E-2
 6.457560383900000E9    -5.778260903928022E-1   -1.226081109495505E-1   -7.054570489511432E-3    4.532350285340972E-2   -4.676568997578155E-3    4.486460963410536E-2   -5.377729837839558E-1   -2.170003098897899E-2
 6.457571993250000E9    -5.778493642462473E-1   -1.215752033659672E-1   -7.104584335042597E-3    4.573561403335040E-2   -4.674910650223000E-3    4.508036751476110E-2   -5.377181844011935E-1   -2.032397977109575E-2
 6.457583602600000E9    -5.781447090295920E-1   -1.205906990925152E-1   -6.795822159923207E-3    4.598407350164339E-2   -4.523511006931246E-3    4.559786547493919E-2   -5.376746628896848E-1   -1.871998144995109E-2
 6.457595211950000E9    -5.783084797122485E-1   -1.194889489742165E-1   -6.814302260468506E-3    4.618919297767493E-2   -4.474828099720856E-3    4.590004703218643E-2   -5.377718061606160E-1   -1.753063132074599E-2
 6.457606821300000E9    -5.785309291079844E-1   -1.184111847869361E-1   -6.790054251898393E-3    4.663444582180725E-2   -4.379542960692202E-3    4.615640599093068E-2   -5.377227656363516E-1   -1.600528057527589E-2
 6.457618430650000E9    -5.787713232658250E-1   -1.174518328170597E-1   -6.662970417490982E-3    4.710258296660265E-2   -4.334359540340635E-3    4.651662706104459E-2   -5.378298959009841E-1   -1.438346875219205E-2
 6.457630040000000E9    -5.787767740839344E-1   -1.163217352855996E-1   -6.688744823370205E-3    4.739183383132666E-2   -4.210484712153864E-3    4.688536384084477E-2   -5.377979444354225E-1   -1.290564899351067E-2
 6.457641649350000E9    -5.789770746694053E-1   -1.152789804399355E-1   -6.500412429972448E-3    4.771921656358986E-2   -4.090574978570393E-3    4.729507014196013E-2   -5.378204900940924E-1   -1.127962490642609E-2
 6.457653258700000E9    -5.790921355205966E-1   -1.141318292141829E-1   -6.464310480689361E-3    4.824142973069703E-2   -3.997828164979960E-3    4.750517429260896E-2   -5.376784025472076E-1   -9.774758652977250E-3
 6.457664868050000E9    -5.792899046742900E-1   -1.132171792737539E-1   -6.415704448460963E-3    4.844374356516010E-2   -3.938957491542260E-3    4.794182762175898E-2   -5.377054984107948E-1   -8.219664416198770E-3
 6.457676477400000E9    -5.794373062631109E-1   -1.121229322396677E-1   -6.261919199524430E-3    4.880391504916275E-2   -3.904796700127109E-3    4.823234412134289E-2   -5.377024521579983E-1   -6.696830044470995E-3
 6.457688086750000E9    -5.795432228489135E-1   -1.108342360046306E-1   -6.189450866473980E-3    4.924146300380103E-2   -3.682349856496401E-3    4.863953474103502E-2   -5.377242262420181E-1   -5.239600672223828E-3
 6.457699696100000E9    -5.797478409526222E-1   -1.098633110463646E-1   -6.193810509699803E-3    4.952695660454080E-2   -3.585936810547475E-3    4.903707329855264E-2   -5.377070775997623E-1   -3.580635139274690E-3
 6.457711305450000E9    -5.799480535422887E-1   -1.087378850396717E-1   -5.969448280219686E-3    5.000969080219661E-2   -3.527879785217793E-3    4.937828658143205E-2   -5.376703237408013E-1   -1.917175323092832E-3
 6.457722914800000E9    -5.799852199533966E-1   -1.076262355974943E-1   -5.867553759011281E-3    5.034991457582337E-2   -3.354540198361939E-3    4.984108003690269E-2   -5.374797824867502E-1   -3.702583400813817E-4
 6.457734524150000E9    -5.803414735421188E-1   -1.066432948698824E-1   -5.787606319618777E-3    5.071106337878440E-2   -3.341661098241576E-3    5.024744748468862E-2   -5.374653348254301E-1    1.249235185016886E-3
 6.457746133500000E9    -5.803372908257759E-1   -1.055324886392611E-1   -5.646270784880060E-3    5.110720950024480E-2   -3.160447766298720E-3    5.052438646976475E-2   -5.373839811033804E-1    2.757938111887956E-3
 6.457757742850000E9    -5.804888950166908E-1   -1.044608775801705E-1   -5.645276669841642E-3    5.161970864726148E-2   -2.996324498290918E-3    5.099925802554491E-2   -5.374306221921497E-1    4.401852332028509E-3
 6.457769352200000E9    -5.807130101796768E-1   -1.032397248291638E-1   -5.436502905463028E-3    5.205730733042381E-2   -2.898434297785022E-3    5.143812599019464E-2   -5.373536008211595E-1    6.076699844450278E-3
 6.457780961550000E9    -5.808185128467328E-1   -1.022751064990669E-1   -5.449550449688609E-3    5.255990417276424E-2   -2.700228486936861E-3    5.173835251109379E-2   -5.373195305082569E-1    7.787344074505900E-3
 6.457792570900000E9    -5.808484018070801E-1   -1.010910305404703E-1   -5.367129856655243E-3    5.289153630501665E-2   -2.726047454378062E-3    5.214502505152423E-2   -5.370945461548455E-1    9.435905764265753E-3
 6.457804180250000E9    -5.810032876275693E-1   -9.991435647798839E-2   -5.321165759811320E-3    5.331314187518707E-2   -2.560508351608929E-3    5.259781925236723E-2   -5.370595693488895E-1    1.092741101761629E-2
 6.457815789600000E9    -5.811594297004060E-1   -9.894607617751554E-2   -5.037688470338555E-3    5.371978900749115E-2   -2.424896813790095E-3    5.300715815502591E-2   -5.370827664498443E-1    1.281392828693795E-2
 6.457827398950000E9    -5.813199372782879E-1   -9.775515564918806E-2   -5.048425714297254E-3    5.418533460855892E-2   -2.287611529256264E-3    5.347830695410530E-2   -5.370187885112916E-1    1.442476258723114E-2
 6.457839008300000E9    -5.813153586450877E-1   -9.672151232140241E-2   -4.901345972433472E-3    5.457285493035630E-2   -2.204167320365245E-3    5.391927134325227E-2   -5.367096197203601E-1    1.617672426183104E-2
 6.457850617650000E9    -5.814601525994376E-1   -9.564388131089709E-2   -4.800269772436489E-3    5.503604196797382E-2   -2.035584472768976E-3    5.438688978964274E-2   -5.365402923055640E-1    1.775104435320956E-2
 6.457862227000000E9    -5.815962554292136E-1   -9.435012017272491E-2   -4.684647666790580E-3    5.569142212411722E-2   -1.875799563223361E-3    5.487714398357903E-2   -5.365229246390044E-1    1.950981344556739E-2
 6.457873836350000E9    -5.817804512201612E-1   -9.321664631748115E-2   -4.427871319582869E-3    5.588427241663725E-2   -1.748576336761997E-3    5.530300365720936E-2   -5.364062770032748E-1    2.119432259739069E-2
 6.457885445700000E9    -5.819060147338521E-1   -9.206934747738120E-2   -4.445253799768237E-3    5.642904306382426E-2   -1.543428117857722E-3    5.568404899176339E-2   -5.362989383530798E-1    2.308691673366812E-2
 6.457897055050000E9    -5.819931601830212E-1   -9.092759882400690E-2   -4.094656600088775E-3    5.698216406558660E-2   -1.427946447388215E-3    5.621306665041071E-2   -5.360469456980725E-1    2.479097920554496E-2
 6.457908664400000E9    -5.820835413943484E-1   -8.982580339763006E-2   -4.073376753590679E-3    5.756363800445655E-2   -1.238867880834785E-3    5.666224363188583E-2   -5.358227704409291E-1    2.655060115633442E-2
 6.457920273750000E9    -5.820319554237076E-1   -8.861548525805629E-2   -3.798405838861019E-3    5.791430301505471E-2   -1.004175228438420E-3    5.719716542928884E-2   -5.356266224579360E-1    2.840908015032397E-2
 6.457931883100000E9    -5.821714162527113E-1   -8.764717694038487E-2   -3.787592632711559E-3    5.852414631731857E-2   -9.923483429294278E-4    5.766640786791036E-2   -5.355454212768538E-1    3.025607900677839E-2
 6.457943492450000E9    -5.822878514183928E-1   -8.640121812519722E-2   -3.614926645924165E-3    5.905944241524359E-2   -7.197045843421853E-4    5.812139677287929E-2   -5.353717015641750E-1    3.216647591241186E-2
 6.457955101800000E9    -5.822968916242076E-1   -8.516895346471799E-2   -3.447108339001059E-3    5.943630766176527E-2   -5.386274204299131E-4    5.869329992348248E-2   -5.351340502132154E-1    3.389619186176376E-2
 6.457966711150000E9    -5.825408944498205E-1   -8.401144454992319E-2   -3.499697108426300E-3    6.015403279575747E-2   -3.868900291215485E-4    5.911706748252747E-2   -5.349692897560571E-1    3.570018666593645E-2
 6.457978320500000E9    -5.824892832304219E-1   -8.287007446952732E-2   -3.010959378336137E-3    6.074338586175625E-2   -1.058619292680564E-4    5.974895825291467E-2   -5.347064822915654E-1    3.756283271814388E-2
