#  HZ   S   RI   R     50.00 
! Rohde & Schwarz Vector Network Analyzer 
! Rohde-Schwarz,ZNB20-2Port,1311601062101988,3.16
! Created: UTC 3/20/2024, 11:03:12 PM
! freq[Hz]                re:S11                  im:S11                  re:S21                  im:S21                  re:S12                  im:S12                  re:S22                  im:S22
 6.456928098000000E9    -5.651376668216090E-1   -1.768977073936811E-1   -9.131129153801692E-3    3.204982859402795E-2   -7.433953202154033E-3    3.209659821645364E-2   -5.313125610520728E-1   -9.314291525661121E-2
 6.456939722775000E9    -5.654485820481714E-1   -1.758610788231303E-1   -9.134152214851856E-3    3.215109082472970E-2   -7.458021903759202E-3    3.233062883421446E-2   -5.313848919760016E-1   -9.195300257742310E-2
 6.456951347550000E9    -5.656621166920432E-1   -1.748598239399217E-1   -9.053000164390528E-3    3.244173908932717E-2   -7.424401285980395E-3    3.237220170532589E-2   -5.316401242255971E-1   -9.075986870430422E-2
 6.456962972325000E9    -5.660172683800493E-1   -1.740005142693663E-1   -9.187306620466922E-3    3.259794284412090E-2   -7.368046905299390E-3    3.254557889704490E-2   -5.318587840347653E-1   -8.948426143423839E-2
 6.456974597100000E9    -5.661806659914388E-1   -1.729419985040153E-1   -9.155920844872592E-3    3.277312437329725E-2   -7.352140062495054E-3    3.280802095223368E-2   -5.319498799240411E-1   -8.830294267378630E-2
 6.456986221875000E9    -5.664586541212550E-1   -1.720232473842623E-1   -9.216982426974125E-3    3.296057551489253E-2   -7.191284027001417E-3    3.292257255348496E-2   -5.322027414924883E-1   -8.710461674042574E-2
 6.456997846650000E9    -5.668329188536640E-1   -1.711534927357194E-1   -8.959782819267299E-3    3.317914875462704E-2   -7.210401468488591E-3    3.323495693382223E-2   -5.324167482252876E-1   -8.586736496504972E-2
 6.457009471425000E9    -5.671232747521201E-1   -1.701552430285608E-1   -9.110482220538363E-3    3.345845331581099E-2   -7.226203868027706E-3    3.342127199658913E-2   -5.326129205839160E-1   -8.456356228349321E-2
 6.457021096200000E9    -5.674095388865745E-1   -1.691116320794073E-1   -9.049761649613301E-3    3.361133325299178E-2   -7.168851555226240E-3    3.356350270959797E-2   -5.328219608855469E-1   -8.345424001251930E-2
 6.457032720975000E9    -5.676074262249068E-1   -1.682347145167802E-1   -9.074635497760357E-3    3.375977650527510E-2   -7.162683527427475E-3    3.373033568120079E-2   -5.328528111820685E-1   -8.236261294289909E-2
 6.457044345750000E9    -5.679177873565541E-1   -1.672030671482299E-1   -8.903589613013744E-3    3.390105607907462E-2   -7.128042818749907E-3    3.397382204052114E-2   -5.332185772416014E-1   -8.093431384055388E-2
 6.457055970525000E9    -5.681564804594414E-1   -1.662152531230188E-1   -8.818375053183012E-3    3.415234919480232E-2   -7.114975699036424E-3    3.413861315012436E-2   -5.333685733662726E-1   -7.974128813062963E-2
 6.457067595300000E9    -5.684499153284535E-1   -1.652601784357545E-1   -8.903536749971307E-3    3.427885222715445E-2   -7.045627190605991E-3    3.428000286018301E-2   -5.335880906026023E-1   -7.853897764740504E-2
 6.457079220075000E9    -5.686547086932092E-1   -1.643639073749374E-1   -9.012507647844871E-3    3.439000971307801E-2   -6.981028461279928E-3    3.446576518045211E-2   -5.335361268342361E-1   -7.722215299622200E-2
 6.457090844850000E9    -5.688921483806081E-1   -1.632896168181061E-1   -8.772695597908010E-3    3.482811470096253E-2   -6.918688568603960E-3    3.464542560306542E-2   -5.337718382133259E-1   -7.606805280049722E-2
 6.457102469625000E9    -5.692547356171355E-1   -1.624267693527480E-1   -8.817249421427939E-3    3.494343360336401E-2   -7.035915401269877E-3    3.490340824939155E-2   -5.340016167743639E-1   -7.497518985792140E-2
 6.457114094400000E9    -5.693765001179143E-1   -1.613726642971091E-1   -8.797822460374565E-3    3.519675123013757E-2   -6.932304719402292E-3    3.524811181771234E-2   -5.340939114999794E-1   -7.354658382836869E-2
 6.457125719175000E9    -5.697005332273035E-1   -1.603947267024857E-1   -8.893325052395618E-3    3.551543728583971E-2   -6.844668834723185E-3    3.532477541866390E-2   -5.342648628922549E-1   -7.246906387920107E-2
 6.457137343950000E9    -5.699483008933657E-1   -1.593952504709596E-1   -8.803952556605323E-3    3.575935875787632E-2   -6.836577568535520E-3    3.555010771174464E-2   -5.343567793720695E-1   -7.111348983049820E-2
 6.457148968725000E9    -5.702471286419927E-1   -1.585265993984170E-1   -8.711777356292612E-3    3.596374901685101E-2   -6.828872299788132E-3    3.569302970580822E-2   -5.346070899643300E-1   -6.989004391897349E-2
 6.457160593500000E9    -5.705017616645538E-1   -1.574666308195585E-1   -8.625006783284619E-3    3.610421273601335E-2   -6.712955895733753E-3    3.601654666116027E-2   -5.346593007854723E-1   -6.853378656477918E-2
 6.457172218275000E9    -5.706999962893938E-1   -1.564888799428557E-1   -8.682224230411878E-3    3.638620176811233E-2   -6.686503948408456E-3    3.614736579157965E-2   -5.349113347352774E-1   -6.734418283350115E-2
 6.457183843050000E9    -5.709696146513418E-1   -1.554754363088497E-1   -8.666350333578713E-3    3.652787917317672E-2   -6.627203633418744E-3    3.631359398743557E-2   -5.349414275451009E-1   -6.609098764471644E-2
 6.457195467825000E9    -5.711652306454513E-1   -1.545484202460931E-1   -8.647262983997501E-3    3.673530646284887E-2   -6.656825769292548E-3    3.666054593243615E-2   -5.351891924868463E-1   -6.476176639334301E-2
 6.457207092600000E9    -5.714234077781370E-1   -1.535454062703820E-1   -8.374675651881292E-3    3.703731723488980E-2   -6.516875522746646E-3    3.688770470181811E-2   -5.352457137673026E-1   -6.353996903770791E-2
 6.457218717375000E9    -5.716585378501722E-1   -1.525906791981126E-1   -8.452431550983113E-3    3.722532715948385E-2   -6.579213170620154E-3    3.704931231806078E-2   -5.354504106063027E-1   -6.213142456345763E-2
 6.457230342150000E9    -5.719638588096611E-1   -1.514721498784734E-1   -8.451766285427497E-3    3.745999578910847E-2   -6.493680472066865E-3    3.727142512850549E-2   -5.355655858286420E-1   -6.080240385412621E-2
 6.457241966925000E9    -5.721144790228060E-1   -1.505376295892225E-1   -8.425769247695976E-3    3.758131307934625E-2   -6.461319786481144E-3    3.750257366566163E-2   -5.357786544212166E-1   -5.954701233311818E-2
 6.457253591700000E9    -5.723794539419347E-1   -1.494854274420772E-1   -8.340576780105935E-3    3.799988997956030E-2   -6.405749709934490E-3    3.788005809746646E-2   -5.358691234929281E-1   -5.825817577143055E-2
 6.457265216475000E9    -5.725489652782408E-1   -1.485364297513401E-1   -8.307139450926192E-3    3.832622272191667E-2   -6.292370062404015E-3    3.798343280142853E-2   -5.359502010244054E-1   -5.698632586960908E-2
 6.457276841250000E9    -5.728507728781315E-1   -1.475046418141920E-1   -8.344734603496816E-3    3.828722724529195E-2   -6.339045111285397E-3    3.822478109284650E-2   -5.360770952970367E-1   -5.568139579679481E-2
 6.457288466025000E9    -5.730105758993671E-1   -1.465013498101136E-1   -8.304637623533577E-3    3.877725355712572E-2   -6.292374035804479E-3    3.852597563304019E-2   -5.362331737380173E-1   -5.432282012691002E-2
 6.457300090800000E9    -5.732462512643500E-1   -1.455806507310086E-1   -8.268015438237885E-3    3.897216750678799E-2   -6.090933569333722E-3    3.872993126161686E-2   -5.363856231282071E-1   -5.305135559302618E-2
 6.457311715575000E9    -5.734311246073597E-1   -1.445238306462307E-1   -8.179489951732032E-3    3.919985238942705E-2   -6.058295046484382E-3    3.897427996562643E-2   -5.365371925326851E-1   -5.160498889166440E-2
 6.457323340350000E9    -5.737093525395008E-1   -1.434797547516344E-1   -8.159018046853213E-3    3.938644623966467E-2   -6.057256634270756E-3    3.925044104422644E-2   -5.364658465818466E-1   -5.039632422926361E-2
 6.457334965125000E9    -5.739463260966956E-1   -1.425338027186514E-1   -8.047548732981536E-3    3.961769123424538E-2   -5.955610735103614E-3    3.949323136012483E-2   -5.366163881779592E-1   -4.901897782377206E-2
 6.457346589900000E9    -5.740998884627815E-1   -1.414587714361746E-1   -7.963632712294388E-3    3.976885517031472E-2   -5.990379557584647E-3    3.972536944640687E-2   -5.367738270136361E-1   -4.752766049932360E-2
 6.457358214675000E9    -5.743553032393948E-1   -1.404802204409645E-1   -7.932877174905572E-3    4.028689939232626E-2   -5.912949934480211E-3    3.996432969997377E-2   -5.368100860184682E-1   -4.621042105087478E-2
 6.457369839450000E9    -5.744998531802142E-1   -1.393552269162972E-1   -7.994074639464039E-3    4.045838970525496E-2   -5.839012786741798E-3    4.023723657747010E-2   -5.369476927188038E-1   -4.494631519867672E-2
 6.457381464225000E9    -5.747580993463521E-1   -1.383723783589627E-1   -8.035724628147320E-3    4.078124616247215E-2   -5.807952374932680E-3    4.049433139114759E-2   -5.372095302779297E-1   -4.350251010844235E-2
 6.457393089000000E9    -5.749219669206158E-1   -1.373978147033868E-1   -7.816218132438381E-3    4.105584027808334E-2   -5.697725869829104E-3    4.085231449697278E-2   -5.370937378351679E-1   -4.223837326616500E-2
 6.457404713775000E9    -5.752850954309114E-1   -1.363762022503747E-1   -7.662430802127859E-3    4.131180327512326E-2   -5.562482821152626E-3    4.104689447890658E-2   -5.371761450576044E-1   -4.076315422322723E-2
 6.457416338550000E9    -5.754203313549890E-1   -1.353773660945545E-1   -7.784566556437314E-3    4.159719094561389E-2   -5.597482856647621E-3    4.134562082185791E-2   -5.373818292161769E-1   -3.937286376529057E-2
 6.457427963325000E9    -5.756276721866216E-1   -1.344232609429700E-1   -7.564897261638508E-3    4.181676974953496E-2   -5.621611816507312E-3    4.160958231633608E-2   -5.374542329483455E-1   -3.809939017612254E-2
 6.457439588100000E9    -5.758198986209765E-1   -1.333111699643263E-1   -7.521014982973813E-3    4.217276344159884E-2   -5.389894754909583E-3    4.184249350500204E-2   -5.375076782531710E-1   -3.675548562742829E-2
 6.457451212875000E9    -5.759740344338573E-1   -1.322374552796493E-1   -7.578364904631590E-3    4.246635656558449E-2   -5.404412520398662E-3    4.216011521029667E-2   -5.375494557119840E-1   -3.533990271589636E-2
 6.457462837650000E9    -5.761558212405294E-1   -1.312625403215311E-1   -7.705793607119000E-3    4.275349411187353E-2   -5.205873733172242E-3    4.242293590790869E-2   -5.377481129723657E-1   -3.379060268414211E-2
 6.457474462425000E9    -5.764211967831400E-1   -1.301412450854535E-1   -7.514509428570871E-3    4.310483742998663E-2   -5.161517701297230E-3    4.278563289760693E-2   -5.378356800840288E-1   -3.236747635636765E-2
 6.457486087200000E9    -5.766944497117542E-1   -1.290938706506752E-1   -7.448269388674889E-3    4.341418406048431E-2   -5.212295922402231E-3    4.304778785383470E-2   -5.377972928478203E-1   -3.087246470024457E-2
 6.457497711975000E9    -5.767906857253540E-1   -1.281342104063639E-1   -7.361110506284791E-3    4.368209867845086E-2   -5.067060240117555E-3    4.334769661756020E-2   -5.377931159370372E-1   -2.960995262656489E-2
 6.457509336750000E9    -5.770218294477223E-1   -1.271057871658591E-1   -7.368541434151239E-3    4.383168149227618E-2   -5.136985640242777E-3    4.368522375669785E-2   -5.379109918131323E-1   -2.817016003094835E-2
 6.457520961525000E9    -5.772624813319268E-1   -1.260636691766972E-1   -7.332562341109006E-3    4.436908228226010E-2   -4.902167664159802E-3    4.392865836440588E-2   -5.378050362196044E-1   -2.665046964845705E-2
 6.457532586300000E9    -5.774270288068836E-1   -1.250871689778964E-1   -7.185514139697134E-3    4.443404406920718E-2   -4.940128685453904E-3    4.429928185531663E-2   -5.379039657819881E-1   -2.531962966690793E-2
 6.457544211075000E9    -5.776114083321006E-1   -1.240024675128198E-1   -7.239133725087320E-3    4.491275928080554E-2   -4.701996232968739E-3    4.450137727881056E-2   -5.379055407510817E-1   -2.378382892332703E-2
 6.457555835850000E9    -5.777847755557957E-1   -1.228748980912483E-1   -7.051226387485671E-3    4.503519617904737E-2   -4.782424322889757E-3    4.488597810755096E-2   -5.380216761767953E-1   -2.231773594088608E-2
 6.457567460625000E9    -5.779037270658485E-1   -1.218054047256156E-1   -6.933465728882784E-3    4.542914003677816E-2   -4.645879813422142E-3    4.520381617236238E-2   -5.379534824795047E-1   -2.092117607608849E-2
 6.457579085400000E9    -5.781012651195062E-1   -1.207110182706552E-1   -6.917770628228063E-3    4.592195881892582E-2   -4.543581727959899E-3    4.553880751895664E-2   -5.380589575457817E-1   -1.923834931986115E-2
 6.457590710175000E9    -5.782798678086352E-1   -1.197563493101955E-1   -6.959797711574195E-3    4.633093310181159E-2   -4.597063044811440E-3    4.582529790991328E-2   -5.380736598449560E-1   -1.790347048263816E-2
 6.457602334950000E9    -5.784168876948524E-1   -1.186621623101207E-1   -6.719652134462737E-3    4.669585075034825E-2   -4.434682555547170E-3    4.617267776427813E-2   -5.380711182199326E-1   -1.641063685554695E-2
 6.457613959725000E9    -5.785050804583838E-1   -1.176795767300902E-1   -6.763068347017603E-3    4.685960990336018E-2   -4.316838579481673E-3    4.660752533294989E-2   -5.380296331378380E-1   -1.491634223958653E-2
 6.457625584500000E9    -5.787892115445405E-1   -1.165897247019918E-1   -6.612799978945640E-3    4.727968335509985E-2   -4.171696737294036E-3    4.690808054535854E-2   -5.381034057314620E-1   -1.336298190012185E-2
 6.457637209275000E9    -5.788996012364244E-1   -1.154422063739545E-1   -6.627835491813317E-3    4.768498673210608E-2   -4.099343121780260E-3    4.718468945306110E-2   -5.379988573539113E-1   -1.183999177046310E-2
 6.457648834050000E9    -5.790983388433311E-1   -1.143947444528140E-1   -6.474588666228926E-3    4.802000103761301E-2   -3.912169793414281E-3    4.757252329473378E-2   -5.379876195359976E-1   -1.033953104585387E-2
 6.457660458825000E9    -5.792441574895079E-1   -1.133896910921177E-1   -6.410007950675153E-3    4.835087715895203E-2   -4.000485028289003E-3    4.787031009677895E-2   -5.378779418680832E-1   -8.749833362011157E-3
 6.457672083600000E9    -5.794582606170101E-1   -1.123227102193032E-1   -6.283068531483202E-3    4.888141168350685E-2   -3.827421544103915E-3    4.828673478024815E-2   -5.379370113496155E-1   -7.349771902497106E-3
 6.457683708375000E9    -5.795494274306336E-1   -1.113053245686627E-1   -6.182870289654086E-3    4.909453695408705E-2   -3.777865291074365E-3    4.863883390725368E-2   -5.379518843046763E-1   -5.690866444888811E-3
 6.457695333150000E9    -5.797865328386899E-1   -1.101716780001241E-1   -6.074805571128846E-3    4.952152120114831E-2   -3.569281589419849E-3    4.903074849132957E-2   -5.381215201247134E-1   -4.053753399121379E-3
 6.457706957925000E9    -5.798726179173007E-1   -1.090570426131304E-1   -6.069442686217862E-3    4.990997374241654E-2   -3.548853872392532E-3    4.934763430520446E-2   -5.380374055562032E-1   -2.588500413908458E-3
 6.457718582700000E9    -5.800239843637574E-1   -1.078477692225753E-1   -5.941385557522685E-3    5.029882938365588E-2   -3.428234995077128E-3    4.974624614157341E-2   -5.378547624581991E-1   -8.869385797480286E-4
 6.457730207475000E9    -5.802859946679965E-1   -1.068551812775060E-1   -5.866012166717675E-3    5.086244915197358E-2   -3.263844490118004E-3    5.014808323938549E-2   -5.377455212412959E-1    7.863443427903486E-4
 6.457741832250000E9    -5.802845160827335E-1   -1.057986241071899E-1   -5.824741607360789E-3    5.113360864849042E-2   -3.268802136877387E-3    5.043526072180766E-2   -5.377551593580510E-1    2.438104341946315E-3
 6.457753457025000E9    -5.804425224732127E-1   -1.047056599157273E-1   -5.585294649728425E-3    5.152434740593104E-2   -3.038101302007009E-3    5.090528981804833E-2   -5.377056085781179E-1    4.062817426087164E-3
 6.457765081800000E9    -5.806909489851321E-1   -1.035218889142764E-1   -5.406150485445451E-3    5.202139686283735E-2   -2.927062729212172E-3    5.135078155656062E-2   -5.375594814700659E-1    5.553358474527852E-3
 6.457776706575000E9    -5.807139272562003E-1   -1.024948816786874E-1   -5.458953966929849E-3    5.229349363687396E-2   -2.851970200538671E-3    5.168189984321057E-2   -5.375494390301632E-1    7.180776708947845E-3
 6.457788331350000E9    -5.808189202057445E-1   -1.012801046463628E-1   -5.288726468034555E-3    5.278680852186025E-2   -2.701240152937635E-3    5.207161321401388E-2   -5.374220379175736E-1    8.841844915863553E-3
 6.457799956125000E9    -5.809596004700969E-1   -1.002193441911019E-1   -5.209183757122194E-3    5.310434885341667E-2   -2.644196198695446E-3    5.259411461606535E-2   -5.373933288219139E-1    1.058402313170495E-2
 6.457811580900000E9    -5.810853637250796E-1   -9.909104171937366E-2   -5.117204384538774E-3    5.365162066265828E-2   -2.434243993447330E-3    5.296832224629760E-2   -5.371605281882492E-1    1.224004455514802E-2
 6.457823205675000E9    -5.812218902723515E-1   -9.789273819296092E-2   -4.992301510345565E-3    5.418942119395179E-2   -2.237275740033971E-3    5.348343307791408E-2   -5.370955199338215E-1    1.395426750952652E-2
 6.457834830450000E9    -5.813721212744344E-1   -9.685528596637276E-2   -4.777370617609147E-3    5.468919402067068E-2   -2.162356576082557E-3    5.390369475899644E-2   -5.370636400878305E-1    1.557129806384519E-2
 6.457846455225000E9    -5.814438104234292E-1   -9.575239795899038E-2   -4.692236857676178E-3    5.501370609016717E-2   -2.049520039504509E-3    5.428914055114669E-2   -5.368606854382197E-1    1.725579774484590E-2
 6.457858080000000E9    -5.816375736314737E-1   -9.459695249072399E-2   -4.612110813115557E-3    5.548939477235001E-2   -1.928292280276136E-3    5.470185224480910E-2   -5.368689378272685E-1    1.897942384307809E-2
 6.457869704775000E9    -5.817152571302231E-1   -9.346855583704036E-2   -4.554760634253087E-3    5.596211414735516E-2   -1.689796670460085E-3    5.516422873906718E-2   -5.366268302118453E-1    2.074641589562140E-2
 6.457881329550000E9    -5.817894273481459E-1   -9.236093333057732E-2   -4.250249663733169E-3    5.650316074561624E-2   -1.624425225634573E-3    5.577236674530565E-2   -5.364692337163878E-1    2.252831153538559E-2
 6.457892954325000E9    -5.819305202707487E-1   -9.122148955797321E-2   -4.200087858246303E-3    5.681052779533997E-2   -1.422704761922695E-3    5.616749088140744E-2   -5.363553962995746E-1    2.436537770989720E-2
 6.457904579100000E9    -5.819554941155411E-1   -9.007476170092663E-2   -4.171632005937446E-3    5.744022875804242E-2   -1.225863732397498E-3    5.667950590966694E-2   -5.362741395945935E-1    2.602634872373618E-2
 6.457916203875000E9    -5.821327981118103E-1   -8.873733209914429E-2   -4.032399163943331E-3    5.802119947431220E-2   -1.075025348015426E-3    5.707347533707322E-2   -5.361504880663178E-1    2.794741675759674E-2
 6.457927828650000E9    -5.821855705898572E-1   -8.784195507823672E-2   -3.763867493243615E-3    5.847165543249354E-2   -8.749467664671890E-4    5.762409056726248E-2   -5.357789045358118E-1    2.970164275091422E-2
 6.457939453425000E9    -5.824081785326428E-1   -8.663476434323160E-2   -3.672267211257337E-3    5.913969422154269E-2   -7.151409768231696E-4    5.812204626004102E-2   -5.356248437270876E-1    3.148431585054932E-2
 6.457951078200000E9    -5.823941956882295E-1   -8.542751840712212E-2   -3.509054888270881E-3    5.943835488159958E-2   -6.294231008269044E-4    5.852757962101091E-2   -5.354025302187092E-1    3.329966619228836E-2
 6.457962702975000E9    -5.824757230948296E-1   -8.429697820128762E-2   -3.287959088185469E-3    6.012469914962941E-2   -3.846475859800146E-4    5.912923582648841E-2   -5.353289655226455E-1    3.519477454107037E-2
 6.457974327750000E9    -5.825036106344997E-1   -8.316448104680528E-2   -3.178274228761650E-3    6.079299379643362E-2   -2.245580665813710E-4    5.965043841671748E-2   -5.349756292088585E-1    3.719073173829221E-2
