#  HZ   S   RI   R     50.00 
! Rohde & Schwarz Vector Network Analyzer 
! Rohde-Schwarz,ZNB20-2Port,1311601062101988,3.16
! Created: UTC 3/20/2024, 11:03:47 PM
! freq[Hz]                re:S11                  im:S11                  re:S21                  im:S21                  re:S12                  im:S12                  re:S22                  im:S22
 6.456922210000000E9    -5.650185220000385E-1   -1.770447871425329E-1   -9.006556262241172E-3    3.201132732824168E-2   -7.550916361461390E-3    3.207614649180698E-2   -5.316085470129045E-1   -9.404328691503012E-2
 6.456933850550000E9    -5.652771240178263E-1   -1.762796535556085E-1   -9.157827226383133E-3    3.232283626073502E-2   -7.395940532827459E-3    3.221887447229876E-2   -5.318657879605814E-1   -9.288144690273535E-2
 6.456945491100000E9    -5.656162467526225E-1   -1.752564067745412E-1   -9.058687711395612E-3    3.241965972628070E-2   -7.479387380673429E-3    3.239306335737599E-2   -5.320475392852899E-1   -9.163408832370486E-2
 6.456957131650000E9    -5.659604239011349E-1   -1.742621222711822E-1   -9.055296003971303E-3    3.262686020879323E-2   -7.337416146449274E-3    3.254372437930663E-2   -5.322257571431384E-1   -9.059922850057595E-2
 6.456968772200000E9    -5.662324413123045E-1   -1.733951457078564E-1   -9.126266577614402E-3    3.290563372546201E-2   -7.373126249218626E-3    3.278447220877744E-2   -5.323922883445515E-1   -8.917101994238209E-2
 6.456980412750000E9    -5.664283931982165E-1   -1.723922392880738E-1   -9.163289070988179E-3    3.287983809936711E-2   -7.330826973026284E-3    3.289643751072449E-2   -5.326873187946226E-1   -8.807597475359670E-2
 6.456992053300000E9    -5.667557281959116E-1   -1.714438170180618E-1   -8.991562099957988E-3    3.300007857547729E-2   -7.258888273418947E-3    3.310545701093023E-2   -5.327898155795919E-1   -8.695522955379492E-2
 6.457003693850000E9    -5.669982277581905E-1   -1.703472245199587E-1   -9.012323020362463E-3    3.337726305088437E-2   -7.180297678170729E-3    3.344558479316852E-2   -5.330241660561308E-1   -8.567034158306119E-2
 6.457015334400000E9    -5.671829682324167E-1   -1.694624791676727E-1   -9.043714825366861E-3    3.354084334203782E-2   -7.230261290700464E-3    3.352766112454961E-2   -5.333113288747663E-1   -8.446117057324189E-2
 6.457026974950000E9    -5.675212773610110E-1   -1.684612588806752E-1   -8.970780072518954E-3    3.374833486389881E-2   -7.232896388500521E-3    3.370187160550674E-2   -5.332536211613652E-1   -8.329470954495996E-2
 6.457038615500000E9    -5.678222426470807E-1   -1.674562038940539E-1   -8.993772693242736E-3    3.401181704172426E-2   -7.114950694050954E-3    3.384101309060076E-2   -5.336071823256746E-1   -8.212739382357233E-2
 6.457050256050000E9    -5.680846584923051E-1   -1.665496046540485E-1   -8.915444706410596E-3    3.416126508802866E-2   -7.064064448990299E-3    3.421542457549644E-2   -5.337771190279373E-1   -8.083984196743510E-2
 6.457061896600000E9    -5.684172780099734E-1   -1.655942800844853E-1   -9.035536054078336E-3    3.436229877392649E-2   -7.009135324031269E-3    3.427099725194533E-2   -5.338944132244881E-1   -7.953921112324282E-2
 6.457073537150000E9    -5.686292156649827E-1   -1.645416898091705E-1   -8.904453666735940E-3    3.461492313128205E-2   -7.069177478523734E-3    3.451450054797844E-2   -5.341043033750341E-1   -7.839798137417016E-2
 6.457085177700000E9    -5.688287881493741E-1   -1.634960076701161E-1   -8.842512680612827E-3    3.475256390664947E-2   -7.057934643453026E-3    3.475013088692919E-2   -5.342321524509609E-1   -7.713149706490648E-2
 6.457096818250000E9    -5.690711937064014E-1   -1.625846298140794E-1   -8.886529038332560E-3    3.505577492031370E-2   -7.052219601555611E-3    3.488959018654053E-2   -5.343980952460631E-1   -7.583659414973595E-2
 6.457108458800000E9    -5.692665908014031E-1   -1.616747662703935E-1   -8.793781162958772E-3    3.517427685359949E-2   -6.976520805930118E-3    3.517302879594628E-2   -5.346106584696110E-1   -7.469222562326581E-2
 6.457120099350000E9    -5.695583489510366E-1   -1.607696260698493E-1   -8.723025780607784E-3    3.543057270273321E-2   -6.792566636596888E-3    3.528541216139058E-2   -5.347775730578463E-1   -7.343692384502050E-2
 6.457131739900000E9    -5.697967097348161E-1   -1.597224707465938E-1   -8.776660939960629E-3    3.562564223367199E-2   -6.795668164064711E-3    3.553501473136410E-2   -5.348838598224097E-1   -7.201993038801094E-2
 6.457143380450000E9    -5.701804632955240E-1   -1.588655972969576E-1   -8.753023396855871E-3    3.595102261012306E-2   -6.675509860158928E-3    3.572853861808133E-2   -5.349552475098820E-1   -7.078035165940691E-2
 6.457155021000000E9    -5.703128799210450E-1   -1.577235538013940E-1   -8.660319041049835E-3    3.607157694551300E-2   -6.777367864509614E-3    3.591347944949522E-2   -5.352075249229625E-1   -6.949478117461880E-2
 6.457166661550000E9    -5.706932976245579E-1   -1.566862554531769E-1   -8.607879166021926E-3    3.629963377976179E-2   -6.704300226724453E-3    3.625138328972117E-2   -5.353386147500211E-1   -6.836068406314889E-2
 6.457178302100000E9    -5.708786847234708E-1   -1.557595386098311E-1   -8.611933869930730E-3    3.647401210069050E-2   -6.657344602011997E-3    3.645887328674417E-2   -5.354599602461250E-1   -6.702784427454520E-2
 6.457189942650000E9    -5.710945994712521E-1   -1.548321703498645E-1   -8.555902655512346E-3    3.675905363787905E-2   -6.605975302216315E-3    3.665649929100141E-2   -5.356120201946868E-1   -6.581549617567202E-2
 6.457201583200000E9    -5.713158108745074E-1   -1.538489685744866E-1   -8.587532197654022E-3    3.703552220601927E-2   -6.576770563181650E-3    3.686217662064201E-2   -5.355787695759053E-1   -6.436522683864571E-2
 6.457213223750000E9    -5.715662255264000E-1   -1.528073992462110E-1   -8.525369206550702E-3    3.716409101407602E-2   -6.544407562494589E-3    3.711078402384461E-2   -5.359059201588521E-1   -6.309117888602923E-2
 6.457224864300000E9    -5.716967367778802E-1   -1.518375130326037E-1   -8.576538599628930E-3    3.746263320153161E-2   -6.546125885627047E-3    3.734760898579327E-2   -5.360210219809093E-1   -6.191224628101256E-2
 6.457236504850000E9    -5.720845484869543E-1   -1.507647825712978E-1   -8.558548023920741E-3    3.772335287118517E-2   -6.438733821828236E-3    3.753530351788727E-2   -5.360943866774069E-1   -6.060895209778946E-2
 6.457248145400000E9    -5.722344291830161E-1   -1.497709676298033E-1   -8.469919429901013E-3    3.784701518948067E-2   -6.400328935065322E-3    3.769705720951741E-2   -5.362872248885202E-1   -5.925378660116193E-2
 6.457259785950000E9    -5.724602157779508E-1   -1.488921309403628E-1   -8.399177367030377E-3    3.824449159563136E-2   -6.304503716606530E-3    3.792191405103084E-2   -5.364253390425296E-1   -5.785747087716934E-2
 6.457271426500000E9    -5.728256665442796E-1   -1.478600086612822E-1   -8.443110500055204E-3    3.838140210600571E-2   -6.230009335690310E-3    3.820501658578463E-2   -5.365867658481097E-1   -5.663670447579831E-2
 6.457283067050000E9    -5.729091637051063E-1   -1.468826498771581E-1   -8.361305687285936E-3    3.874850574205756E-2   -6.263945926800162E-3    3.842574526931333E-2   -5.367230363844914E-1   -5.517599372345849E-2
 6.457294707600000E9    -5.732056741007507E-1   -1.458309351500620E-1   -8.237854629905636E-3    3.890936381650067E-2   -6.147365530623430E-3    3.858851597947336E-2   -5.366708807724966E-1   -5.400142184481675E-2
 6.457306348150000E9    -5.734111459891964E-1   -1.447941799048698E-1   -8.209536282838346E-3    3.922185267354722E-2   -6.047521726515168E-3    3.900730407448710E-2   -5.368959478272829E-1   -5.267273256726111E-2
 6.457317988700000E9    -5.735931614259021E-1   -1.437696720270562E-1   -8.258206365162351E-3    3.939552235499599E-2   -6.057719371223994E-3    3.921617311307624E-2   -5.368919010836420E-1   -5.124033120197802E-2
 6.457329629250000E9    -5.738745705821496E-1   -1.427519642958310E-1   -8.078561141509998E-3    3.972315539882595E-2   -5.993688783350019E-3    3.942696568711240E-2   -5.369959837273387E-1   -4.987516411530881E-2
 6.457341269800000E9    -5.740754523843018E-1   -1.417369187895344E-1   -8.071626009798360E-3    3.993350504128668E-2   -5.956299529104337E-3    3.973756597546138E-2   -5.371233110729492E-1   -4.853057740149433E-2
 6.457352910350000E9    -5.742607881204308E-1   -1.407245057465670E-1   -7.919022440136520E-3    4.014719291725089E-2   -5.832754741789948E-3    3.995878692011145E-2   -5.373630098597881E-1   -4.715581471148223E-2
 6.457364550900000E9    -5.745486116865332E-1   -1.395879839241777E-1   -7.975083618381808E-3    4.049179539424035E-2   -5.926955868776360E-3    4.024686226413176E-2   -5.373512229110577E-1   -4.587159258027670E-2
 6.457376191450000E9    -5.747409613100855E-1   -1.386597235118181E-1   -7.994417951756023E-3    4.070037862656215E-2   -5.810808643228570E-3    4.042167092042294E-2   -5.374233329419975E-1   -4.461736670686162E-2
 6.457387832000000E9    -5.748659723729493E-1   -1.376745921702335E-1   -7.949310064028417E-3    4.106851988270047E-2   -5.618563829691482E-3    4.073056654882967E-2   -5.374895125943047E-1   -4.296388558416574E-2
 6.457399472550000E9    -5.752103710293528E-1   -1.366502378012915E-1   -7.807263772609655E-3    4.134280584397361E-2   -5.613637313350297E-3    4.100532448996115E-2   -5.377938522014822E-1   -4.170366239051639E-2
 6.457411113100000E9    -5.753308332635129E-1   -1.357441769497000E-1   -7.768354729693921E-3    4.143536139461026E-2   -5.584126473240023E-3    4.125002139358416E-2   -5.378312112597935E-1   -4.043975151697993E-2
 6.457422753650000E9    -5.754831314289328E-1   -1.346717261298264E-1   -7.726135491203912E-3    4.178527390932033E-2   -5.515590651656825E-3    4.160970271258447E-2   -5.378076521375749E-1   -3.910480599682833E-2
 6.457434394200000E9    -5.757638571197671E-1   -1.335222325015329E-1   -7.656558432315128E-3    4.208268048376813E-2   -5.461557142883401E-3    4.184062149033550E-2   -5.379283339620754E-1   -3.755953401128042E-2
 6.457446034750000E9    -5.759691416044616E-1   -1.325590701399094E-1   -7.451551376313183E-3    4.228063297867918E-2   -5.430309977433306E-3    4.216595097788487E-2   -5.378700686418655E-1   -3.626584463036431E-2
 6.457457675300000E9    -5.760928168219325E-1   -1.316318764402256E-1   -7.692398366547575E-3    4.270580622992692E-2   -5.316391310289967E-3    4.244696237674069E-2   -5.381359348252962E-1   -3.481581805228270E-2
 6.457469315850000E9    -5.762679485781412E-1   -1.304081839095652E-1   -7.461820915036162E-3    4.303027144888050E-2   -5.263889764575494E-3    4.270792839773201E-2   -5.381557666837553E-1   -3.337307639935615E-2
 6.457480956400000E9    -5.765509040980373E-1   -1.295128542848242E-1   -7.396062994911507E-3    4.337347915468107E-2   -5.229484789022651E-3    4.301410081238457E-2   -5.381180843523873E-1   -3.185665128230232E-2
 6.457492596950000E9    -5.767209805071718E-1   -1.283374860010280E-1   -7.329986890941817E-3    4.365390884921339E-2   -5.053946640419415E-3    4.332152245450741E-2   -5.382280605003921E-1   -3.054762633695356E-2
 6.457504237500000E9    -5.769085611258906E-1   -1.273760995501525E-1   -7.353159215387629E-3    4.399009786183109E-2   -4.995554589462770E-3    4.361598761295117E-2   -5.382236965540027E-1   -2.911125294635038E-2
 6.457515878050000E9    -5.770338460200738E-1   -1.263026631673547E-1   -7.230231300942345E-3    4.430760215861906E-2   -4.927001585979220E-3    4.391273087984775E-2   -5.383687093427751E-1   -2.763995616663197E-2
 6.457527518600000E9    -5.773536355204461E-1   -1.252431330494914E-1   -6.994704163042910E-3    4.453642192354677E-2   -4.891804692668967E-3    4.425904475851046E-2   -5.383413599731226E-1   -2.615520394569417E-2
 6.457539159150000E9    -5.774926085510880E-1   -1.242213683058697E-1   -7.121078655213667E-3    4.492907840227139E-2   -4.773814075486998E-3    4.447381673434381E-2   -5.384604598027382E-1   -2.476172007988120E-2
 6.457550799700000E9    -5.776710723163048E-1   -1.231734305488872E-1   -6.971208549192183E-3    4.527020237398046E-2   -4.645918342768759E-3    4.488863672414287E-2   -5.383572604572562E-1   -2.326070069424901E-2
 6.457562440250000E9    -5.779350638466159E-1   -1.221556923798715E-1   -6.877756112844938E-3    4.557389838447486E-2   -4.622895607587437E-3    4.514905419973032E-2   -5.384157433717101E-1   -2.181140743219981E-2
 6.457574080800000E9    -5.780121815290360E-1   -1.211020402009510E-1   -6.843500408414158E-3    4.593818900811170E-2   -4.587424769157179E-3    4.541401666656607E-2   -5.385272285387982E-1   -2.022990585278314E-2
 6.457585721350000E9    -5.782482023623957E-1   -1.199817961593091E-1   -6.775096524409282E-3    4.616591996602091E-2   -4.535219870722165E-3    4.580010754233427E-2   -5.383711077029173E-1   -1.878106794518395E-2
 6.457597361900000E9    -5.784230895822199E-1   -1.189051044361507E-1   -6.712631535661985E-3    4.656340421264724E-2   -4.428468956725925E-3    4.611972941900221E-2   -5.383246914804486E-1   -1.718390067369347E-2
 6.457609002450000E9    -5.786176566259286E-1   -1.178757493479759E-1   -6.748805067793217E-3    4.684266990116329E-2   -4.272753473513411E-3    4.650339727506865E-2   -5.385086958127385E-1   -1.578673880186692E-2
 6.457620643000000E9    -5.787454005881938E-1   -1.168485505211984E-1   -6.710129939791856E-3    4.743463540806027E-2   -4.227259532924511E-3    4.684964518759860E-2   -5.385151721822220E-1   -1.445977963198502E-2
 6.457632283550000E9    -5.789198253396713E-1   -1.156098909486513E-1   -6.495400246872274E-3    4.764281839263803E-2   -4.147137112769358E-3    4.716062228676591E-2   -5.385600016775147E-1   -1.276902336279219E-2
 6.457643924100000E9    -5.791060548023217E-1   -1.147381358967122E-1   -6.431160619540769E-3    4.801921178634635E-2   -3.942051619077494E-3    4.750862948518705E-2   -5.384484194008295E-1   -1.116486513221471E-2
 6.457655564650000E9    -5.791977465468754E-1   -1.136597811054696E-1   -6.307346650460057E-3    4.828729459824916E-2   -3.788778262932191E-3    4.788459354892845E-2   -5.383351431699916E-1   -9.727895920539449E-3
 6.457667205200000E9    -5.794262055302112E-1   -1.124574136109233E-1   -6.346571670582625E-3    4.872659216311263E-2   -3.853978061245758E-3    4.817102342529220E-2   -5.384259607628920E-1   -8.083876562645646E-3
 6.457678845750000E9    -5.794885139940160E-1   -1.113595686922622E-1   -6.246536834106232E-3    4.917239540853136E-2   -3.769774554293153E-3    4.853338307422331E-2   -5.384508312289961E-1   -6.522031274261505E-3
 6.457690486300000E9    -5.796086538396237E-1   -1.104325469872209E-1   -6.205244978605364E-3    4.949891849619814E-2   -3.537769805841725E-3    4.898472809411367E-2   -5.383274758499196E-1   -4.856086124746900E-3
 6.457702126850000E9    -5.798238292715929E-1   -1.091918410113182E-1   -5.919037640587306E-3    4.988558657253971E-2   -3.520537784576910E-3    4.935881383633153E-2   -5.384110562421665E-1   -3.287811233820318E-3
 6.457713767400000E9    -5.799159332265931E-1   -1.082207266768935E-1   -5.996126540068739E-3    5.028895172486299E-2   -3.426581884798528E-3    4.965838690871743E-2   -5.383134583097711E-1   -1.630163946028584E-3
 6.457725407950000E9    -5.801378422096621E-1   -1.070264382915081E-1   -5.774908024867043E-3    5.058716359680832E-2   -3.366938976070499E-3    5.006197881460935E-2   -5.382086197155082E-1   -7.329467270974616E-5
 6.457737048500000E9    -5.803104819039323E-1   -1.060448121139241E-1   -5.843588352322577E-3    5.111674560930494E-2   -3.273931212398026E-3    5.054900749807825E-2   -5.381524308324989E-1    1.447511620687315E-3
 6.457748689050000E9    -5.804040827745098E-1   -1.048013064217989E-1   -5.656749960465661E-3    5.146697118611652E-2   -3.052928594577571E-3    5.094698267670768E-2   -5.382377590978698E-1    2.971193649978811E-3
 6.457760329600000E9    -5.805764985829339E-1   -1.037317638141413E-1   -5.559295712142948E-3    5.188289696344472E-2   -3.012023964165917E-3    5.130155227201446E-2   -5.380318460584727E-1    4.695208017947846E-3
 6.457771970150000E9    -5.806568094968655E-1   -1.026676399194572E-1   -5.429631126559920E-3    5.215120303161629E-2   -2.831006673780834E-3    5.177425977629679E-2   -5.380550057834380E-1    6.292337717627540E-3
 6.457783610700000E9    -5.807684211198392E-1   -1.015947804754391E-1   -5.400040577776632E-3    5.278778747124910E-2   -2.739213587966949E-3    5.215651225720595E-2   -5.379218280498562E-1    7.981566043818198E-3
 6.457795251250000E9    -5.809229090953982E-1   -1.003996670894141E-1   -5.249014596947912E-3    5.320393304982059E-2   -2.555263921072315E-3    5.251198741086543E-2   -5.378524219632925E-1    9.564680447443635E-3
 6.457806891800000E9    -5.810915591274464E-1   -9.929075185112800E-2   -5.086336149619163E-3    5.359921860293845E-2   -2.475022925820620E-3    5.298269308855076E-2   -5.377933402933301E-1    1.140432351336675E-2
 6.457818532350000E9    -5.812079156578436E-1   -9.814942723923628E-2   -5.091398446736706E-3    5.414226750875330E-2   -2.249982096811192E-3    5.350846518341112E-2   -5.375615762079492E-1    1.310824938812305E-2
 6.457830172900000E9    -5.813481710109392E-1   -9.704491445792150E-2   -4.900284694761223E-3    5.449813479100007E-2   -2.102636482753481E-3    5.384219386264054E-2   -5.375272985094700E-1    1.469272373888702E-2
 6.457841813450000E9    -5.814123227388349E-1   -9.599174979836531E-2   -4.674074735620548E-3    5.496610224111256E-2   -1.927482434361672E-3    5.431324295394142E-2   -5.373766533340174E-1    1.650597072677479E-2
 6.457853454000000E9    -5.815778297845270E-1   -9.482728747748320E-2   -4.525250175754360E-3    5.532090816296287E-2   -1.856734137412832E-3    5.479395126581151E-2   -5.372069454424307E-1    1.830732022742976E-2
 6.457865094550000E9    -5.816139301579271E-1   -9.363026088921933E-2   -4.485058399233099E-3    5.592374891821926E-2   -1.677285427688997E-3    5.520200111910661E-2   -5.370199117446031E-1    2.005009996997230E-2
 6.457876735100000E9    -5.817476384149657E-1   -9.262541753299357E-2   -4.259176004696823E-3    5.634815589000865E-2   -1.586295166092384E-3    5.567671707378519E-2   -5.369890676124650E-1    2.167379391890159E-2
 6.457888375650000E9    -5.818433362896245E-1   -9.146664196788967E-2   -4.298907957994355E-3    5.703202484412624E-2   -1.463189753085182E-3    5.611136279131592E-2   -5.369068297234774E-1    2.344488943494722E-2
 6.457900016200000E9    -5.820144103029653E-1   -9.025955479153035E-2   -4.078797317151620E-3    5.742539603430623E-2   -1.311657748711197E-3    5.654917096295845E-2   -5.366154409787040E-1    2.520145186489644E-2
 6.457911656750000E9    -5.819715649443519E-1   -8.915173092728319E-2   -3.866505914394602E-3    5.798551908802167E-2   -1.155323124563032E-3    5.709421572313243E-2   -5.364588974567405E-1    2.703606407046123E-2
 6.457923297300000E9    -5.821880807231021E-1   -8.797801740821422E-2   -3.892623156739010E-3    5.833697298993043E-2   -9.740853791778729E-4    5.759946188539497E-2   -5.363474252447611E-1    2.890940512306703E-2
 6.457934937850000E9    -5.822999039511246E-1   -8.683972388642663E-2   -3.619400959160263E-3    5.897854563213688E-2   -7.268379029866436E-4    5.808041751833951E-2   -5.361595669775109E-1    3.090690759654879E-2
 6.457946578400000E9    -5.823148711487548E-1   -8.565437782608512E-2   -3.389961540505528E-3    5.957456128059840E-2   -5.449821236753913E-4    5.853088526444133E-2   -5.358851135348586E-1    3.252135710288873E-2
 6.457958218950000E9    -5.823989878162045E-1   -8.455941313188031E-2   -3.378981638966269E-3    5.990360095864897E-2   -4.211340369936004E-4    5.906757789067808E-2   -5.357819687646028E-1    3.442867982994345E-2
 6.457969859500000E9    -5.824977744146969E-1   -8.330490384382698E-2   -3.060818584347010E-3    6.045722895661316E-2   -2.147296873279780E-4    5.962152914053061E-2   -5.354323118757348E-1    3.620976522502533E-2
