#  HZ   S   RI   R     50.00 
! Rohde & Schwarz Vector Network Analyzer 
! Rohde-Schwarz,ZNB20-2Port,1311601062101988,3.16
! Created: UTC 3/20/2024, 11:04:01 PM
! freq[Hz]                re:S11                  im:S11                  re:S21                  im:S21                  re:S12                  im:S12                  re:S22                  im:S22
 6.456922893000000E9    -5.651503259054885E-1   -1.771116111817831E-1   -9.173314678478300E-3    3.211984883816499E-2   -7.450206044650625E-3    3.210388732716777E-2   -5.315730474119293E-1   -9.421014043047662E-2
 6.456934523825000E9    -5.653983286993222E-1   -1.760090836462104E-1   -9.172811893314146E-3    3.228738388552005E-2   -7.449597735558446E-3    3.230473203731268E-2   -5.317644619489809E-1   -9.300868669366649E-2
 6.456946154650000E9    -5.656603400442137E-1   -1.751986931871337E-1   -9.031335282436440E-3    3.240277891251907E-2   -7.373534025731834E-3    3.244178699894288E-2   -5.318552024845177E-1   -9.168970609445488E-2
 6.456957785475000E9    -5.658905156605760E-1   -1.742264709209954E-1   -9.229682642445511E-3    3.273625916734381E-2   -7.378577007119799E-3    3.260768608625780E-2   -5.320122528170944E-1   -9.057527639734499E-2
 6.456969416300000E9    -5.662244655263267E-1   -1.732336921609983E-1   -9.026264339601355E-3    3.279422133182766E-2   -7.400522188611360E-3    3.283614176981625E-2   -5.323266582506381E-1   -8.951140328508658E-2
 6.456981047125000E9    -5.664512395983434E-1   -1.721996544988732E-1   -9.043297359183177E-3    3.291893747423429E-2   -7.339855291921460E-3    3.291359882361167E-2   -5.324160033782305E-1   -8.829953179611461E-2
 6.456992677950000E9    -5.667742395391953E-1   -1.712740698942312E-1   -9.035957750673739E-3    3.332105034220745E-2   -7.279305852345334E-3    3.317169460604436E-2   -5.327456770194720E-1   -8.706315133113994E-2
 6.457004308775000E9    -5.670899593890242E-1   -1.703110314573462E-1   -9.043583606602011E-3    3.334908789918511E-2   -7.215207269552880E-3    3.327459233087363E-2   -5.329347287033559E-1   -8.581169942597043E-2
 6.457015939600000E9    -5.672294547535441E-1   -1.694530143916061E-1   -8.988663296732083E-3    3.360628583545599E-2   -7.276828529532625E-3    3.354815411851838E-2   -5.329335471833287E-1   -8.461122885391617E-2
 6.457027570425000E9    -5.675652595573712E-1   -1.684060919594348E-1   -8.908208605781504E-3    3.381731381839927E-2   -7.232616412748339E-3    3.376997750148895E-2   -5.333299952273018E-1   -8.349372906863138E-2
 6.457039201250000E9    -5.678606088185689E-1   -1.674993126918403E-1   -8.934285968017638E-3    3.408149486628782E-2   -7.173315199047989E-3    3.385867704624019E-2   -5.333893407547170E-1   -8.216072039001496E-2
 6.457050832075000E9    -5.681261481534839E-1   -1.663883106736353E-1   -8.952988297823990E-3    3.428956389730640E-2   -7.034980172975375E-3    3.418349795153820E-2   -5.335254237406670E-1   -8.090269397543995E-2
 6.457062462900000E9    -5.683783145593623E-1   -1.654372364826947E-1   -8.952848168388811E-3    3.447856366740919E-2   -7.055491564373493E-3    3.434689404257548E-2   -5.339055054840446E-1   -7.965413287834539E-2
 6.457074093725000E9    -5.685271175284548E-1   -1.644547203925829E-1   -8.927614159653218E-3    3.453396380656315E-2   -7.016311786302668E-3    3.455000452289297E-2   -5.338419969536760E-1   -7.847137293976858E-2
 6.457085724550000E9    -5.688268388646099E-1   -1.634993827634625E-1   -8.788609276804648E-3    3.480264424428656E-2   -7.003897266540124E-3    3.487186810316414E-2   -5.342131215668631E-1   -7.710747957650912E-2
 6.457097355375000E9    -5.690564820330000E-1   -1.626245495439103E-1   -8.883637414134206E-3    3.495605377588743E-2   -6.987012918164345E-3    3.498221126229833E-2   -5.341844322063452E-1   -7.591083367653359E-2
 6.457108986200000E9    -5.693588457942117E-1   -1.616395129753668E-1   -8.819817896953311E-3    3.524009354488358E-2   -6.901453249719493E-3    3.514291128823099E-2   -5.344216007103935E-1   -7.471860596363313E-2
 6.457120617025000E9    -5.696218264658599E-1   -1.606678509546808E-1   -8.704639804890541E-3    3.537651828368857E-2   -6.852616498380553E-3    3.544342726975030E-2   -5.346771654566386E-1   -7.334536756473770E-2
 6.457132247850000E9    -5.699158296873243E-1   -1.595568055266617E-1   -8.710777573097881E-3    3.568709130896585E-2   -6.873455226537748E-3    3.560633297305757E-2   -5.348572977612486E-1   -7.221394019505650E-2
 6.457143878675000E9    -5.701911171430514E-1   -1.586734715497431E-1   -8.636109225414241E-3    3.583931999263414E-2   -6.830934605332579E-3    3.579872729204773E-2   -5.349396844410874E-1   -7.099502307860463E-2
 6.457155509500000E9    -5.702770602685877E-1   -1.576064393014173E-1   -8.769563544066633E-3    3.614885940824111E-2   -6.749225586854824E-3    3.597987830924128E-2   -5.350143443499437E-1   -6.975063545809985E-2
 6.457167140325000E9    -5.706399869324045E-1   -1.566085417339947E-1   -8.725767829818553E-3    3.634600775567686E-2   -6.739412468918581E-3    3.615406616978835E-2   -5.353448444205687E-1   -6.833086610027851E-2
 6.457178771150000E9    -5.708345155412632E-1   -1.556590444537511E-1   -8.620798678363125E-3    3.653608930897963E-2   -6.639340156625661E-3    3.640397692470229E-2   -5.353469508314492E-1   -6.714396201601017E-2
 6.457190401975000E9    -5.711505414532694E-1   -1.547204681248404E-1   -8.512378127386660E-3    3.689148557724625E-2   -6.610171036168649E-3    3.662208315177320E-2   -5.354089920839937E-1   -6.580033767490828E-2
 6.457202032800000E9    -5.713622552776552E-1   -1.536867449591414E-1   -8.504410280276950E-3    3.690642578701148E-2   -6.597598033112702E-3    3.694875786470536E-2   -5.356665612779825E-1   -6.455417840570984E-2
 6.457213663625000E9    -5.716679049573450E-1   -1.526664449055570E-1   -8.554937246024080E-3    3.729127928307997E-2   -6.509648614767653E-3    3.720059145361448E-2   -5.358670613406447E-1   -6.332765134826028E-2
 6.457225294450000E9    -5.717749396172191E-1   -1.516805907935154E-1   -8.325243727595669E-3    3.746509143288642E-2   -6.445442465459841E-3    3.730095522426380E-2   -5.359465986676490E-1   -6.206573096559122E-2
 6.457236925275000E9    -5.720547027828671E-1   -1.507869103990669E-1   -8.413204085958033E-3    3.771013398181852E-2   -6.393450873498461E-3    3.759337174827131E-2   -5.361022401276271E-1   -6.059885504874119E-2
 6.457248556100000E9    -5.722677835419099E-1   -1.496947120057130E-1   -8.303841063702935E-3    3.786598302034038E-2   -6.393236878671353E-3    3.786997870562218E-2   -5.361838550006532E-1   -5.936241702876491E-2
 6.457260186925000E9    -5.725795055572653E-1   -1.487458149755240E-1   -8.188271997927172E-3    3.832874084786559E-2   -6.389824984664329E-3    3.806239758887307E-2   -5.363339548392443E-1   -5.804036128401935E-2
 6.457271817750000E9    -5.726162455571202E-1   -1.476935871824849E-1   -8.359158653547388E-3    3.843611156188682E-2   -6.253870399560078E-3    3.821451490432503E-2   -5.365205831223092E-1   -5.671670507344934E-2
 6.457283448575000E9    -5.729274174810540E-1   -1.467101159367802E-1   -8.244148369531282E-3    3.884399776879296E-2   -6.183004879383499E-3    3.856155792184827E-2   -5.365343806819804E-1   -5.546190996554119E-2
 6.457295079400000E9    -5.731847502665643E-1   -1.456963285793024E-1   -8.317278136184233E-3    3.898027360808619E-2   -6.196728154073189E-3    3.884988537963005E-2   -5.366422352650678E-1   -5.419237020984758E-2
 6.457306710225000E9    -5.733967184577266E-1   -1.447098859746157E-1   -8.186671813134976E-3    3.917573755896976E-2   -5.990517899633080E-3    3.899074833167240E-2   -5.368520929627728E-1   -5.279384964910189E-2
 6.457318341050000E9    -5.736376677622362E-1   -1.436111495748981E-1   -8.101647144521282E-3    3.951338819029625E-2   -6.096657392795009E-3    3.925900574016791E-2   -5.368007681363609E-1   -5.134625063200227E-2
 6.457329971875000E9    -5.738933067922627E-1   -1.428028690644851E-1   -8.147528449529529E-3    3.977457229531575E-2   -6.083015276761249E-3    3.949136015007652E-2   -5.370790038771011E-1   -5.012719189950118E-2
 6.457341602700000E9    -5.740850333248440E-1   -1.415776034449631E-1   -8.123161075575239E-3    3.987845151698698E-2   -5.890894677318880E-3    3.970891003677994E-2   -5.371103211201530E-1   -4.868206650671064E-2
 6.457353233525000E9    -5.743383383263065E-1   -1.405836634814042E-1   -7.895935271408016E-3    4.023873163310960E-2   -5.919651193134449E-3    3.991626630753207E-2   -5.371792246968080E-1   -4.734466501316206E-2
 6.457364864350000E9    -5.745080301638323E-1   -1.396541721254100E-1   -7.920894639196827E-3    4.054898647600921E-2   -5.824833537187555E-3    4.033701959211351E-2   -5.373013056212514E-1   -4.616370958309525E-2
 6.457376495175000E9    -5.747263657992947E-1   -1.386546301660554E-1   -7.808580755920468E-3    4.078369241267018E-2   -5.845840984272255E-3    4.051871586537701E-2   -5.374152512286809E-1   -4.482487267956673E-2
 6.457388126000000E9    -5.748046654138268E-1   -1.375858362788982E-1   -7.919833575868252E-3    4.103865694500058E-2   -5.746794193212519E-3    4.081561439967195E-2   -5.373505997373449E-1   -4.325547504028390E-2
 6.457399756825000E9    -5.750620758779075E-1   -1.365758777217004E-1   -7.872084690939279E-3    4.134486419896104E-2   -5.683317696241249E-3    4.106496805414347E-2   -5.376733235960964E-1   -4.196989075915845E-2
 6.457411387650000E9    -5.753562648000966E-1   -1.356221844000398E-1   -7.941878784528855E-3    4.162791164979494E-2   -5.560833532144077E-3    4.138486537088188E-2   -5.377790917071992E-1   -4.047601820082356E-2
 6.457423018475000E9    -5.755704121775759E-1   -1.345344840551306E-1   -7.759686193887716E-3    4.169280746328451E-2   -5.526366652985028E-3    4.165157457492338E-2   -5.377911198582781E-1   -3.922074199217601E-2
 6.457434649300000E9    -5.758142434434539E-1   -1.335076866977532E-1   -7.649540240289692E-3    4.220758909992303E-2   -5.534066711752485E-3    4.192502201294929E-2   -5.377232807848914E-1   -3.773146849903637E-2
 6.457446280125000E9    -5.758944155662750E-1   -1.325209465082846E-1   -7.611858468720517E-3    4.250620816641965E-2   -5.410893293042241E-3    4.222874764537875E-2   -5.379922176999298E-1   -3.618423436487705E-2
 6.457457910950000E9    -5.762040350593092E-1   -1.314278280493139E-1   -7.513858980020723E-3    4.280946343218541E-2   -5.301992295008426E-3    4.240994524135469E-2   -5.379590404874468E-1   -3.483871214300625E-2
 6.457469541775000E9    -5.764921102032140E-1   -1.303595360245946E-1   -7.576125884859175E-3    4.315890622580473E-2   -5.257159248575041E-3    4.274856579822505E-2   -5.381291765998285E-1   -3.349403977459871E-2
 6.457481172600000E9    -5.765725780010195E-1   -1.293327703313252E-1   -7.489891965849574E-3    4.341730041314164E-2   -5.147723550535127E-3    4.311472398368486E-2   -5.381633432067910E-1   -3.207526904716691E-2
 6.457492803425000E9    -5.767857637734424E-1   -1.283238895184515E-1   -7.431737173222295E-3    4.373434580641369E-2   -5.128002271580706E-3    4.337509231631384E-2   -5.380731480418300E-1   -3.063151566703597E-2
 6.457504434250000E9    -5.770061151399135E-1   -1.272479137758811E-1   -7.332594696077967E-3    4.398997637178598E-2   -5.048201207034915E-3    4.374823661286720E-2   -5.382267077965038E-1   -2.910930982226913E-2
 6.457516065075000E9    -5.771376340821175E-1   -1.262587811771519E-1   -7.289871847919918E-3    4.432662331827001E-2   -5.045464872228856E-3    4.402662494622273E-2   -5.381356927887893E-1   -2.770860583147100E-2
 6.457527695900000E9    -5.772307667061236E-1   -1.252279213900013E-1   -7.260730030781738E-3    4.458566104107662E-2   -4.817604970425425E-3    4.431113567049340E-2   -5.381221820965580E-1   -2.626263691953298E-2
 6.457539326725000E9    -5.775587498835592E-1   -1.241354179903936E-1   -7.227584899786006E-3    4.499927962837841E-2   -4.859715506394355E-3    4.454301796569862E-2   -5.382740242292945E-1   -2.468340172828497E-2
 6.457550957550000E9    -5.776987800988883E-1   -1.230715518621915E-1   -7.167105065424469E-3    4.532651730114912E-2   -4.809744333471955E-3    4.488334198607873E-2   -5.383708309328329E-1   -2.332357066387632E-2
 6.457562588375000E9    -5.778296264855778E-1   -1.221978970075071E-1   -6.997664100887387E-3    4.562227313497584E-2   -4.665951640198178E-3    4.528465432994773E-2   -5.383393984995340E-1   -2.180544548723969E-2
 6.457574219200000E9    -5.780295746933147E-1   -1.209903577502114E-1   -6.847336169141308E-3    4.589749968097577E-2   -4.598080357493473E-3    4.549548341529217E-2   -5.383794066692020E-1   -2.031446378009806E-2
 6.457585850025000E9    -5.783536691284875E-1   -1.199211169404051E-1   -6.878897569213649E-3    4.630590775657607E-2   -4.501121688165834E-3    4.574925702381693E-2   -5.383941391664296E-1   -1.882269937493505E-2
 6.457597480850000E9    -5.783851672777041E-1   -1.189141903579780E-1   -6.836095867105958E-3    4.667225405122163E-2   -4.404801954634515E-3    4.618340527174062E-2   -5.384120819643746E-1   -1.735853614836475E-2
 6.457609111675000E9    -5.785254896032518E-1   -1.177626066335935E-1   -6.702095375516227E-3    4.700330310102367E-2   -4.322067514811665E-3    4.655894563478540E-2   -5.384221568889943E-1   -1.594632571695728E-2
 6.457620742500000E9    -5.787834007533049E-1   -1.167677160519978E-1   -6.566956996148414E-3    4.732568232661558E-2   -4.197676949476864E-3    4.680913010626442E-2   -5.384848824108058E-1   -1.432985165693764E-2
 6.457632373325000E9    -5.788849352057601E-1   -1.156103777256208E-1   -6.556123586923789E-3    4.764588852180847E-2   -4.086596627356841E-3    4.725287387515507E-2   -5.384842353350073E-1   -1.284720226148713E-2
 6.457644004150000E9    -5.791073751716944E-1   -1.146482932977387E-1   -6.397257660293043E-3    4.805135235783355E-2   -4.043973129381728E-3    4.753015817498675E-2   -5.385041589320138E-1   -1.132044481476531E-2
 6.457655634975000E9    -5.792811495269544E-1   -1.135498183898833E-1   -6.444489965877872E-3    4.851157443355930E-2   -3.968180260864313E-3    4.791556825222044E-2   -5.384921177029718E-1   -9.709737316171616E-3
 6.457667265800000E9    -5.794023642766563E-1   -1.124995450859318E-1   -6.370015294792721E-3    4.876481857863895E-2   -3.857096317099510E-3    4.833767586768544E-2   -5.383561641858662E-1   -8.091135641895134E-3
 6.457678896625000E9    -5.795879087125352E-1   -1.113706845390570E-1   -6.274407180282384E-3    4.932720998072522E-2   -3.661508473639543E-3    4.864247170285077E-2   -5.382599001567208E-1   -6.520691605958384E-3
 6.457690527450000E9    -5.797122708420361E-1   -1.102360318834633E-1   -6.177614936961289E-3    4.956259866547708E-2   -3.551045878718182E-3    4.904305034154929E-2   -5.383364813154018E-1   -5.020504076715781E-3
 6.457702158275000E9    -5.797514476323692E-1   -1.091486915049887E-1   -6.014642891638511E-3    4.996791338030682E-2   -3.543576388652092E-3    4.942627635691853E-2   -5.381371964254801E-1   -3.458554099755553E-3
 6.457713789100000E9    -5.799153605234918E-1   -1.081559316872982E-1   -5.928741695373774E-3    5.035195107942689E-2   -3.411656463347959E-3    4.980736268560691E-2   -5.382816281438341E-1   -1.986994192070776E-3
 6.457725419925000E9    -5.800992847103095E-1   -1.070016590767802E-1   -5.887432128805352E-3    5.073825093000174E-2   -3.268516946692153E-3    5.019360881252045E-2   -5.381957868560528E-1   -3.177948936374715E-4
 6.457737050750000E9    -5.802640919034748E-1   -1.059889952055525E-1   -5.722905659386889E-3    5.113289041997726E-2   -3.204074779879825E-3    5.056369729542635E-2   -5.381678905562406E-1    1.245234488177604E-3
 6.457748681575000E9    -5.804679113447193E-1   -1.048262310097226E-1   -5.702786194527373E-3    5.157322316344581E-2   -3.090349753676272E-3    5.096336044820164E-2   -5.381566582985233E-1    3.080493772841617E-3
 6.457760312400000E9    -5.805073580070481E-1   -1.037012390323361E-1   -5.612682991584805E-3    5.191031974058813E-2   -2.891739677193228E-3    5.129306441732630E-2   -5.379784436872734E-1    4.511540437073423E-3
 6.457771943225000E9    -5.805718789670536E-1   -1.027465008171145E-1   -5.478621869504481E-3    5.241184336579666E-2   -2.772630668664866E-3    5.175213500273302E-2   -5.380109898000285E-1    6.309445333722808E-3
 6.457783574050000E9    -5.808373014062096E-1   -1.015324249263071E-1   -5.307584921665909E-3    5.263428777159326E-2   -2.712966238024659E-3    5.211832662098265E-2   -5.378723132372923E-1    7.800399847234211E-3
 6.457795204875000E9    -5.809629046276833E-1   -1.003548301962556E-1   -5.289133719927602E-3    5.323059845766018E-2   -2.623691201197760E-3    5.262606392420617E-2   -5.378098568599640E-1    9.603760543006157E-3
 6.457806835700000E9    -5.810486734066029E-1   -9.921370569460963E-2   -5.082503954551785E-3    5.370722659548601E-2   -2.447816934472701E-3    5.305755794191562E-2   -5.376033363522392E-1    1.125151129895972E-2
 6.457818466525000E9    -5.811956021827333E-1   -9.814890755095565E-2   -5.027552676654956E-3    5.415750333212142E-2   -2.193873746194628E-3    5.347559829083145E-2   -5.375536587767018E-1    1.292456372601122E-2
 6.457830097350000E9    -5.812943995991958E-1   -9.711971416180869E-2   -4.884517283811713E-3    5.445996191754253E-2   -2.113229504178839E-3    5.391068305435338E-2   -5.375404809921763E-1    1.463840098740641E-2
 6.457841728175000E9    -5.814698144418161E-1   -9.592775902295105E-2   -4.706825220787333E-3    5.505157121563201E-2   -2.115209960959731E-3    5.434792782152953E-2   -5.374442142447637E-1    1.641492538370941E-2
 6.457853359000000E9    -5.815476110057602E-1   -9.475217202885669E-2   -4.617480200216490E-3    5.557399825812791E-2   -1.810445593583000E-3    5.476429201002100E-2   -5.372762960800890E-1    1.809725433578967E-2
 6.457864989825000E9    -5.816896789526617E-1   -9.362494553055010E-2   -4.419841189754015E-3    5.600819589254692E-2   -1.792536046203953E-3    5.534253099613785E-2   -5.370204284873905E-1    1.984713675123380E-2
 6.457876620650000E9    -5.818790635531494E-1   -9.249511988628868E-2   -4.365970856596449E-3    5.646672377550558E-2   -1.585677539203838E-3    5.561910888058125E-2   -5.369471271035021E-1    2.154378703615322E-2
 6.457888251475000E9    -5.818554577351399E-1   -9.150506074226750E-2   -4.249009618454837E-3    5.690490328646251E-2   -1.477048911914285E-3    5.612939814859500E-2   -5.367806251970253E-1    2.341490732022280E-2
 6.457899882300000E9    -5.818867021395558E-1   -9.019661089883747E-2   -4.050294367197944E-3    5.738802701320418E-2   -1.294972489478426E-3    5.665138251164833E-2   -5.366000672906118E-1    2.525339370873295E-2
 6.457911513125000E9    -5.821030433055518E-1   -8.911275793650289E-2   -3.975402959682552E-3    5.793340404095020E-2   -1.062955774619256E-3    5.715212139179509E-2   -5.363475780285323E-1    2.702136169802263E-2
 6.457923143950000E9    -5.822079593846216E-1   -8.792139852704586E-2   -3.830001237882388E-3    5.850595916587396E-2   -8.030453233615484E-4    5.763578176171685E-2   -5.362278886168836E-1    2.873635592105067E-2
 6.457934774775000E9    -5.822289231551152E-1   -8.684965865430584E-2   -3.675409207222096E-3    5.891472550065037E-2   -8.029799040204968E-4    5.805359732570859E-2   -5.360959030861983E-1    3.056435926074461E-2
 6.457946405600000E9    -5.823347182529656E-1   -8.559027290536299E-2   -3.536002561579520E-3    5.946758868141739E-2   -6.128386590743202E-4    5.856395626753474E-2   -5.359235382549034E-1    3.238432769590847E-2
 6.457958036425000E9    -5.823716778815855E-1   -8.447842850235895E-2   -3.358586028835660E-3    6.000038481459671E-2   -3.555678885915800E-4    5.916232416060836E-2   -5.356056915580238E-1    3.436504968907689E-2
 6.457969667250000E9    -5.825642623709257E-1   -8.329342303134341E-2   -3.161530031502682E-3    6.057687773131222E-2   -1.995761234279246E-4    5.964220089326116E-2   -5.354877445096190E-1    3.616167854435343E-2
