#  HZ   S   RI   R     50.00 
! Rohde & Schwarz Vector Network Analyzer 
! Rohde-Schwarz,ZNB20-2Port,1311601062101988,3.16
! Created: UTC 3/20/2024, 10:53:11 PM
! freq[Hz]                re:S11                  im:S11                  re:S21                  im:S21                  re:S12                  im:S12                  re:S22                  im:S22
 6.457063874000000E9    -5.678625419728538E-1   -1.670589333495228E-1   -8.715356964750376E-3    3.305289952834835E-2   -6.881949342022953E-3    3.293390762753769E-2   -5.346099449382588E-1   -7.669023560253085E-2
 6.457075213850000E9    -5.680335364788885E-1   -1.660508266946577E-1   -8.636542918508322E-3    3.320624627784578E-2   -6.814761373214958E-3    3.309976480346317E-2   -5.346792439436668E-1   -7.530090344896480E-2
 6.457086553700000E9    -5.684184303545312E-1   -1.651924582365346E-1   -8.561660045886528E-3    3.340589903379340E-2   -6.874230810335998E-3    3.333461983821133E-2   -5.349008883094628E-1   -7.422033594395283E-2
 6.457097893550000E9    -5.685953666850548E-1   -1.643403795438474E-1   -8.452737508033150E-3    3.349565415855695E-2   -6.763668733682223E-3    3.347564395818008E-2   -5.350354907381811E-1   -7.297234012784547E-2
 6.457109233400000E9    -5.687724796537039E-1   -1.632869565990483E-1   -8.573829087788545E-3    3.384670700390859E-2   -6.704191831525373E-3    3.371832906957485E-2   -5.351706306258472E-1   -7.180217300888715E-2
 6.457120573250000E9    -5.690271887009875E-1   -1.622469333638860E-1   -8.562286671291563E-3    3.389709363998387E-2   -6.735633388150369E-3    3.391145978556548E-2   -5.354361139231337E-1   -7.071756802539991E-2
 6.457131913100000E9    -5.693460559267133E-1   -1.614046297669678E-1   -8.446223196054639E-3    3.413602953965659E-2   -6.684912760026743E-3    3.405803502387195E-2   -5.355152809868468E-1   -6.950108375248849E-2
 6.457143252950000E9    -5.696781550072871E-1   -1.603816066605759E-1   -8.452032726251335E-3    3.422730508442504E-2   -6.644161507575265E-3    3.426739575152957E-2   -5.356164277147347E-1   -6.831418513081683E-2
 6.457154592800000E9    -5.698730929848189E-1   -1.595339645087443E-1   -8.358363080236918E-3    3.444284816684272E-2   -6.701421599983218E-3    3.442418240063699E-2   -5.357497988160532E-1   -6.693198147888051E-2
 6.457165932650000E9    -5.699912349428775E-1   -1.584191326646574E-1   -8.400341142156972E-3    3.473377944334963E-2   -6.580169492664277E-3    3.463287976158498E-2   -5.359266025180036E-1   -6.588459564766522E-2
 6.457177272500000E9    -5.702113909852545E-1   -1.575385030909123E-1   -8.506826740587349E-3    3.496510351439780E-2   -6.556228727759668E-3    3.482825315684133E-2   -5.361057275426142E-1   -6.476061975060074E-2
 6.457188612350000E9    -5.705683692973282E-1   -1.565217876162466E-1   -8.415069845297220E-3    3.515568505870553E-2   -6.391792858559815E-3    3.498040214535753E-2   -5.362665421095196E-1   -6.362079895470799E-2
 6.457199952200000E9    -5.709161054778296E-1   -1.556814108723144E-1   -8.477860191083245E-3    3.532980741829710E-2   -6.548980255987046E-3    3.509278274545990E-2   -5.363520862919382E-1   -6.217703068997687E-2
 6.457211292050000E9    -5.710324727847583E-1   -1.546310766322977E-1   -8.177488026231859E-3    3.551704749123760E-2   -6.427184940794704E-3    3.541269507132255E-2   -5.364240187785928E-1   -6.099453583445241E-2
 6.457222631900000E9    -5.712188661322957E-1   -1.537214978006569E-1   -8.328111416424550E-3    3.574393393839809E-2   -6.342456051049548E-3    3.558919335644631E-2   -5.366838153576411E-1   -5.975031034904714E-2
 6.457233971750000E9    -5.714695854912886E-1   -1.527141306656148E-1   -8.318488144414925E-3    3.596887441173202E-2   -6.295020569573451E-3    3.589427571710514E-2   -5.367514661920346E-1   -5.862327772825528E-2
 6.457245311600000E9    -5.717642971989144E-1   -1.518792908713563E-1   -8.294973311482150E-3    3.621215608621395E-2   -6.259080599154200E-3    3.604027598985823E-2   -5.369604424902497E-1   -5.726015259730156E-2
 6.457256651450000E9    -5.719102428017420E-1   -1.507609604753884E-1   -8.210018652698306E-3    3.652770040533544E-2   -6.190892310397021E-3    3.633338389742079E-2   -5.370248597786821E-1   -5.608370573176098E-2
 6.457267991300000E9    -5.721542612438802E-1   -1.498138799886374E-1   -8.151441689721055E-3    3.667055529868916E-2   -6.161168636648990E-3    3.651677538912573E-2   -5.372334893619686E-1   -5.480427160860347E-2
 6.457279331150000E9    -5.724220546306743E-1   -1.488267286336455E-1   -8.050498821598386E-3    3.684391291852192E-2   -6.175643674591292E-3    3.664616927210346E-2   -5.372813834113720E-1   -5.356348890364530E-2
 6.457290671000000E9    -5.725906649590271E-1   -1.479532229522675E-1   -8.022503707844098E-3    3.712714462153979E-2   -6.103044666130531E-3    3.691984122249093E-2   -5.373922231837038E-1   -5.236473793018139E-2
 6.457302010850000E9    -5.728939141400041E-1   -1.470037546057315E-1   -7.969814439243409E-3    3.724179244215085E-2   -6.127408564431294E-3    3.711538591072906E-2   -5.375420317888777E-1   -5.106642732661743E-2
 6.457313350700000E9    -5.730589089185785E-1   -1.459241374776000E-1   -8.056633890980236E-3    3.776081910502397E-2   -5.972581139728016E-3    3.728985181560656E-2   -5.376340245128631E-1   -4.971382518297449E-2
 6.457324690550000E9    -5.732292313580540E-1   -1.450339931336086E-1   -7.877397695936367E-3    3.771594481782883E-2   -5.896845380464779E-3    3.766900363247880E-2   -5.376501344676022E-1   -4.859297531370703E-2
 6.457336030400000E9    -5.734642917559590E-1   -1.440803748607883E-1   -7.956327302570607E-3    3.794604732959354E-2   -5.874412909527135E-3    3.777702465006340E-2   -5.379368417262276E-1   -4.719842015753824E-2
 6.457347370250000E9    -5.738296668491877E-1   -1.430495427505692E-1   -7.847526564886322E-3    3.826649709898228E-2   -5.795917048303679E-3    3.803700639377846E-2   -5.377698863939619E-1   -4.604788996272711E-2
 6.457358710100000E9    -5.738508646396230E-1   -1.420994897319883E-1   -7.821571216618362E-3    3.828799055181034E-2   -5.767509871974955E-3    3.828913204442118E-2   -5.379935239676178E-1   -4.476822551748482E-2
 6.457370049950000E9    -5.741876218043100E-1   -1.411522752473309E-1   -7.913266358694170E-3    3.880089053814011E-2   -5.787340704540354E-3    3.833723592584980E-2   -5.379736553390327E-1   -4.332800324891552E-2
 6.457381389800000E9    -5.743545680190464E-1   -1.401735147655715E-1   -7.790470281458950E-3    3.892228791898603E-2   -5.750894370600749E-3    3.876266303800130E-2   -5.381690005196402E-1   -4.198645737622005E-2
 6.457392729650000E9    -5.744947287078325E-1   -1.392667522265794E-1   -7.562688204542816E-3    3.921946442775168E-2   -5.671512920036058E-3    3.899200493166929E-2   -5.382241719984562E-1   -4.074074298320574E-2
 6.457404069500000E9    -5.747525214545489E-1   -1.381509387326081E-1   -7.626535206277533E-3    3.943726851494070E-2   -5.593985312416779E-3    3.917709212069242E-2   -5.382936992939621E-1   -3.946413594252627E-2
 6.457415409350000E9    -5.750093746826237E-1   -1.371770191483417E-1   -7.640550323693491E-3    3.967994105222537E-2   -5.490096119768114E-3    3.943712554538320E-2   -5.384957420996342E-1   -3.829221793840439E-2
 6.457426749200000E9    -5.752143652656908E-1   -1.361546313247107E-1   -7.566392345659652E-3    4.001511839450593E-2   -5.447231070901200E-3    3.968654429752234E-2   -5.384217469394047E-1   -3.689723600488150E-2
 6.457438089050000E9    -5.755301120702572E-1   -1.351939038565383E-1   -7.536154256083149E-3    4.026752869266724E-2   -5.445904142337966E-3    4.004116510957453E-2   -5.386085498645665E-1   -3.560102730554086E-2
 6.457449428900000E9    -5.756077695681667E-1   -1.341901675357266E-1   -7.498680474234441E-3    4.043678980685782E-2   -5.495374279836109E-3    4.018341903632377E-2   -5.386414175192857E-1   -3.415645653825887E-2
 6.457460768750000E9    -5.758510233736925E-1   -1.332266355766219E-1   -7.374583886249114E-3    4.084482069393381E-2   -5.303293717865543E-3    4.052337202254688E-2   -5.387145580625986E-1   -3.292376299481959E-2
 6.457472108600000E9    -5.760196277103317E-1   -1.322657310219947E-1   -7.268087266563243E-3    4.109541447601323E-2   -5.187797329506729E-3    4.067765751612001E-2   -5.387292888083729E-1   -3.170824802360093E-2
 6.457483448450000E9    -5.761785561206637E-1   -1.311644716127003E-1   -7.391876005455267E-3    4.122214649898136E-2   -5.165669712925671E-3    4.098232874537172E-2   -5.387887866259372E-1   -3.023368218480326E-2
 6.457494788300000E9    -5.763299972894478E-1   -1.301884696010827E-1   -7.323859384396526E-3    4.154971012416698E-2   -5.081597410954045E-3    4.128777376955600E-2   -5.388145373978884E-1   -2.902452099663574E-2
 6.457506128150000E9    -5.766339313989410E-1   -1.292616209397482E-1   -7.256891178750291E-3    4.177936602940744E-2   -5.036735930596280E-3    4.151372396547345E-2   -5.388607186085173E-1   -2.760442615578798E-2
 6.457517468000000E9    -5.768065037936563E-1   -1.281942975901611E-1   -7.057015708890916E-3    4.203179302404938E-2   -5.075768565429811E-3    4.177359788824758E-2   -5.390102283856146E-1   -2.605315807108022E-2
 6.457528807850000E9    -5.769785231127152E-1   -1.272604226521365E-1   -7.094236797686858E-3    4.235438994631562E-2   -4.918095375331766E-3    4.203294516974872E-2   -5.390323089215771E-1   -2.483083792230154E-2
 6.457540147700000E9    -5.770672526202010E-1   -1.262080325866257E-1   -7.062119583264733E-3    4.266831425977891E-2   -4.761370723428457E-3    4.227139835424274E-2   -5.391343501194236E-1   -2.340453140299688E-2
 6.457551487550000E9    -5.772094839391851E-1   -1.252420381268498E-1   -6.985335568281746E-3    4.302198749340874E-2   -4.826473268818987E-3    4.262691939979354E-2   -5.389398742456513E-1   -2.212827350767625E-2
 6.457562827400000E9    -5.775489205188135E-1   -1.242030847242206E-1   -6.934556941970787E-3    4.330994840646987E-2   -4.739913445437106E-3    4.283983826646561E-2   -5.391063639920644E-1   -2.069909040780457E-2
 6.457574167250000E9    -5.777927015196307E-1   -1.230887852259187E-1   -6.881028322916238E-3    4.352465601578468E-2   -4.579236594669706E-3    4.313680051907683E-2   -5.392157274448125E-1   -1.922374401408324E-2
 6.457585507100000E9    -5.778190258743987E-1   -1.220541535173208E-1   -6.805304167513566E-3    4.390398259905389E-2   -4.592412895534683E-3    4.349994917810233E-2   -5.390822946737764E-1   -1.790539286413122E-2
 6.457596846950000E9    -5.780898256865501E-1   -1.212119063182718E-1   -6.724618001863889E-3    4.420630338193000E-2   -4.539169620014652E-3    4.384413654056371E-2   -5.392391718617514E-1   -1.658178898128605E-2
 6.457608186800000E9    -5.782264138305182E-1   -1.200945721183930E-1   -6.687511042133652E-3    4.444519450715584E-2   -4.469262110594973E-3    4.410273546538918E-2   -5.392616950773561E-1   -1.504157070559541E-2
 6.457619526650000E9    -5.784230351997462E-1   -1.191593124898428E-1   -6.467721012673761E-3    4.492064731491997E-2   -4.359705410347489E-3    4.434853477272368E-2   -5.391095938825381E-1   -1.368941024342947E-2
 6.457630866500000E9    -5.785929596434419E-1   -1.180205343937568E-1   -6.633696519134352E-3    4.508133735835446E-2   -4.262112274623781E-3    4.471804426713102E-2   -5.393398282124822E-1   -1.237252748591475E-2
 6.457642206350000E9    -5.787587895332629E-1   -1.170829894184750E-1   -6.411889318955659E-3    4.541433353023147E-2   -4.146773018046516E-3    4.497109425953330E-2   -5.392953697293507E-1   -1.080936777917479E-2
 6.457653546200000E9    -5.789346171785095E-1   -1.160162671044684E-1   -6.438202065597403E-3    4.568639950533881E-2   -4.077575554790707E-3    4.523653630421894E-2   -5.392593259653861E-1   -9.360964086524216E-3
 6.457664886050000E9    -5.791371447577407E-1   -1.149617072130291E-1   -6.321491612860627E-3    4.610980410921324E-2   -3.997960073769070E-3    4.557574728750618E-2   -5.392371781830654E-1   -7.895488448636858E-3
 6.457676225900000E9    -5.792448027710370E-1   -1.139246351951797E-1   -6.333429616161939E-3    4.633657236791873E-2   -3.859383764250945E-3    4.595826769148971E-2   -5.393500135729445E-1   -6.359703254649247E-3
 6.457687565750000E9    -5.794196369788347E-1   -1.129267509131851E-1   -6.212705214960159E-3    4.681096244239176E-2   -3.825001963213902E-3    4.615948180788651E-2   -5.391370107950734E-1   -5.064927500135657E-3
 6.457698905600000E9    -5.796060669323441E-1   -1.119409945820139E-1   -6.135487459947660E-3    4.716579782838712E-2   -3.777814453936559E-3    4.656200804308284E-2   -5.391952956467586E-1   -3.618612342201721E-3
 6.457710245450000E9    -5.797530387071351E-1   -1.107490402778273E-1   -6.058260428159500E-3    4.741221376398767E-2   -3.642100482361429E-3    4.693814822396908E-2   -5.393197888269012E-1   -2.019533326411572E-3
 6.457721585300000E9    -5.797937606692952E-1   -1.096373648965228E-1   -5.913633078512634E-3    4.782916638906781E-2   -3.545870153873587E-3    4.723492924654914E-2   -5.390360410927122E-1   -6.122165208622372E-4
 6.457732925150000E9    -5.799447834758032E-1   -1.087836737446495E-1   -5.892503691430694E-3    4.819200772764979E-2   -3.527192007261250E-3    4.758235302445473E-2   -5.390882320196041E-1    9.179533972610120E-4
 6.457744265000000E9    -5.800804424969962E-1   -1.076840434348536E-1   -5.883774347478983E-3    4.844663501542945E-2   -3.309435351744307E-3    4.789598433679916E-2   -5.389690289339326E-1    2.509966442264748E-3
 6.457755604850000E9    -5.804279328268622E-1   -1.065678608215829E-1   -5.741396173270017E-3    4.886491295110026E-2   -3.246472118315420E-3    4.826577530714549E-2   -5.389692566730279E-1    4.010820493002436E-3
 6.457766944700000E9    -5.805134578927531E-1   -1.056524443017481E-1   -5.753443278451115E-3    4.930350016889575E-2   -3.133326153839350E-3    4.865675050562005E-2   -5.390731084577470E-1    5.480902502664128E-3
 6.457778284550000E9    -5.806043673404023E-1   -1.045322556492930E-1   -5.522022352270925E-3    4.955232184776501E-2   -3.108925194962817E-3    4.903149249562652E-2   -5.388632146520075E-1    7.062684377200919E-3
 6.457789624400000E9    -5.808504658198033E-1   -1.035816145877996E-1   -5.348539233489727E-3    4.987846531091944E-2   -2.934361561113287E-3    4.939954051252199E-2   -5.388982406820002E-1    8.641207184150594E-3
 6.457800964250000E9    -5.807865351382958E-1   -1.024126963569870E-1   -5.442615377275912E-3    5.034055382959211E-2   -2.865766747721350E-3    4.975402858682892E-2   -5.388742316228862E-1    1.009028929274466E-2
 6.457812304100000E9    -5.809711963860442E-1   -1.013017438709871E-1   -5.232704760089918E-3    5.072833466072262E-2   -2.795678877185910E-3    5.013973575058201E-2   -5.385977996296042E-1    1.174053595251582E-2
 6.457823643950000E9    -5.810994134916851E-1   -1.002769360630507E-1   -5.111082492411776E-3    5.107150098518307E-2   -2.504644492591418E-3    5.047794665238665E-2   -5.386782258228469E-1    1.324902174944008E-2
 6.457834983800000E9    -5.811861531652441E-1   -9.915327539509300E-2   -5.029577382395223E-3    5.155661321702736E-2   -2.457016065227475E-3    5.081625984224857E-2   -5.385347872987193E-1    1.473959210397448E-2
 6.457846323650000E9    -5.813340610445508E-1   -9.808796776386816E-2   -4.996530563335945E-3    5.191018990311107E-2   -2.390746324289593E-3    5.132478186537653E-2   -5.384862640869772E-1    1.637990700874625E-2
 6.457857663500000E9    -5.813777700328546E-1   -9.699681897292046E-2   -4.880426828954424E-3    5.240926786513392E-2   -2.292673900841345E-3    5.164528616996040E-2   -5.384135217449122E-1    1.791684616264446E-2
 6.457869003350000E9    -5.815095107090731E-1   -9.592332366772743E-2   -4.681891793048185E-3    5.277734999057146E-2   -2.168625313058787E-3    5.207373287163609E-2   -5.382458865688040E-1    1.960681506620085E-2
 6.457880343200000E9    -5.817902498604570E-1   -9.485319210465906E-2   -4.724805421654987E-3    5.310262040928796E-2   -2.054020961817434E-3    5.245641772957494E-2   -5.381140487452871E-1    2.128986204359751E-2
 6.457891683050000E9    -5.817796598554646E-1   -9.380304195429640E-2   -4.412820093496530E-3    5.364108909680565E-2   -1.889829123206730E-3    5.292896561367505E-2   -5.379433181225197E-1    2.288220758744137E-2
 6.457903022900000E9    -5.818727337777599E-1   -9.266378914980047E-2   -4.406491852460879E-3    5.396696103100362E-2   -1.842444638529051E-3    5.332905393568499E-2   -5.380108243634301E-1    2.441488060876953E-2
 6.457914362750000E9    -5.819721540812619E-1   -9.152807154753478E-2   -4.149429751700270E-3    5.449300511894514E-2   -1.665443230953833E-3    5.369348260360453E-2   -5.377142629392412E-1    2.608778156035330E-2
 6.457925702600000E9    -5.820638171964544E-1   -9.047552842097387E-2   -4.103203194010784E-3    5.492548014335626E-2   -1.555495937585010E-3    5.416558647804820E-2   -5.375695215932326E-1    2.769554416502602E-2
 6.457937042450000E9    -5.821744022691079E-1   -8.940349820637886E-2   -4.003360028846211E-3    5.557543630139319E-2   -1.322219576942224E-3    5.462630640987609E-2   -5.373441794813061E-1    2.953256571748979E-2
 6.457948382300000E9    -5.824043902192809E-1   -8.823125542950382E-2   -3.970647168096494E-3    5.584506354242549E-2   -1.160481565517182E-3    5.506092040130067E-2   -5.371442898658102E-1    3.113070277186311E-2
 6.457959722150000E9    -5.825166644312912E-1   -8.714283315411055E-2   -3.766770250440915E-3    5.632371448758915E-2   -1.090223857516846E-3    5.552880607052481E-2   -5.371680194930856E-1    3.290414232866534E-2
 6.457971062000000E9    -5.826321332312240E-1   -8.608615856346541E-2   -3.636040051072061E-3    5.678739212882620E-2   -8.778099021787619E-4    5.589163608792900E-2   -5.370511213579477E-1    3.460140023244683E-2
 6.457982401850000E9    -5.826829600360198E-1   -8.481485369860736E-2   -3.431065070450802E-3    5.733717865599618E-2   -6.622326314731314E-4    5.637462488873734E-2   -5.367912488961736E-1    3.630101444293359E-2
 6.457993741700000E9    -5.827024604624678E-1   -8.385219286916192E-2   -3.333439714674186E-3    5.788659956606577E-2   -5.399013408048796E-4    5.685144419564504E-2   -5.365231469061568E-1    3.814952621939922E-2
 6.458005081550000E9    -5.828534636115732E-1   -8.262202868178713E-2   -3.231127563439233E-3    5.821248374903851E-2   -4.013522343691366E-4    5.737732403824666E-2   -5.364006255626249E-1    3.985839111403598E-2
 6.458016421400000E9    -5.828442610517823E-1   -8.146681901264791E-2   -2.971586749644568E-3    5.890988538904237E-2   -2.102010071972430E-4    5.775344877818946E-2   -5.361200385894042E-1    4.161601693712617E-2
 6.458027761250000E9    -5.828805829897695E-1   -8.052991027181103E-2   -2.898818969493849E-3    5.937520083860330E-2    3.962176432014048E-5    5.827890788682205E-2   -5.358769056921404E-1    4.328785537192445E-2
 6.458039101100000E9    -5.830391722398554E-1   -7.925855025105133E-2   -2.733194559071372E-3    5.973667040853155E-2    1.950878151022095E-4    5.875065658354407E-2   -5.356573791757390E-1    4.523882400408291E-2
 6.458050440950000E9    -5.831207350650094E-1   -7.819128229209245E-2   -2.532992331269679E-3    6.027923839840792E-2    3.598288397754283E-4    5.930355468228193E-2   -5.354572744140361E-1    4.703817374680726E-2
 6.458061780800000E9    -5.831901337251251E-1   -7.696127808771087E-2   -2.409493902151011E-3    6.079367787787687E-2    5.063752746138887E-4    5.982445032037349E-2   -5.352122857200573E-1    4.885292918033923E-2
 6.458073120650000E9    -5.832427971071092E-1   -7.579557279482466E-2   -2.258253317046906E-3    6.138926849945418E-2    6.084249638504940E-4    6.034758494333263E-2   -5.349419511197365E-1    5.061478007991538E-2
 6.458084460500000E9    -5.833380712001218E-1   -7.461582194222753E-2   -2.119596879938478E-3    6.194122749347108E-2    8.341675709840100E-4    6.092609028384988E-2   -5.347711040435300E-1    5.258825875890845E-2
