#  HZ   S   RI   R     50.00 
! Rohde & Schwarz Vector Network Analyzer 
! Rohde-Schwarz,ZNB20-2Port,1311601062101988,3.16
! Created: UTC 3/20/2024, 11:04:25 PM
! freq[Hz]                re:S11                  im:S11                  re:S21                  im:S21                  re:S12                  im:S12                  re:S22                  im:S22
 6.456917391000000E9    -5.649565072469931E-1   -1.773699821395602E-1   -9.150564690319845E-3    3.207176442332611E-2   -7.389529464366465E-3    3.200747730891504E-2   -5.307488774471388E-1   -9.426016528353777E-2
 6.456929038950000E9    -5.652487020253414E-1   -1.763762486793475E-1   -9.281854772235499E-3    3.212207659913737E-2   -7.359778790078781E-3    3.211137371015903E-2   -5.309379283630424E-1   -9.292607535687297E-2
 6.456940686900000E9    -5.655342696091956E-1   -1.754630715500514E-1   -9.268227399136431E-3    3.223983012069400E-2   -7.422825781547563E-3    3.226831130642439E-2   -5.313079189540135E-1   -9.188592481469104E-2
 6.456952334850000E9    -5.658195791017202E-1   -1.745891553326544E-1   -9.078276988169737E-3    3.262926541435052E-2   -7.388392939617237E-3    3.254166319741567E-2   -5.313947742753506E-1   -9.074052392482071E-2
 6.456963982800000E9    -5.660594599010832E-1   -1.735241002299447E-1   -9.091397386916058E-3    3.278787973168460E-2   -7.326648846889963E-3    3.270009294542033E-2   -5.316453932531046E-1   -8.940894137547199E-2
 6.456975630750000E9    -5.663512908498183E-1   -1.726175287254463E-1   -9.128102620197715E-3    3.298333664532804E-2   -7.353547858798519E-3    3.290690630350975E-2   -5.318755076446577E-1   -8.826236708203068E-2
 6.456987278700000E9    -5.666284715245021E-1   -1.716393817752677E-1   -9.040133417438544E-3    3.320983836371763E-2   -7.304165932329100E-3    3.308655837652120E-2   -5.319524918362090E-1   -8.699096292050770E-2
 6.456998926650000E9    -5.668749723505156E-1   -1.707304505783387E-1   -9.124006078925988E-3    3.337452086704855E-2   -7.234218716268810E-3    3.326634922192075E-2   -5.321439671002448E-1   -8.593245109500509E-2
 6.457010574600000E9    -5.672058220855394E-1   -1.696957745809194E-1   -8.996931406906163E-3    3.344668658502660E-2   -7.199590759391543E-3    3.348610378784312E-2   -5.324367648764369E-1   -8.466901484329238E-2
 6.457022222550000E9    -5.674367495197463E-1   -1.686763982244319E-1   -8.959921577584956E-3    3.355600585118374E-2   -7.192375038651742E-3    3.364407775945689E-2   -5.326172536886616E-1   -8.341457978003199E-2
 6.457033870500000E9    -5.677764545138553E-1   -1.677089382284540E-1   -9.026561116270508E-3    3.389006805464980E-2   -7.162260241386516E-3    3.380087226029858E-2   -5.327051058666477E-1   -8.221503225381296E-2
 6.457045518450000E9    -5.679305459385013E-1   -1.667303321251286E-1   -8.945215479129614E-3    3.411333592379601E-2   -7.204950117331861E-3    3.407047991235772E-2   -5.329215982040799E-1   -8.092294589312655E-2
 6.457057166400000E9    -5.682738754157299E-1   -1.657484554863135E-1   -8.927960667255578E-3    3.442632432014636E-2   -7.014642297159529E-3    3.422413975635288E-2   -5.330713272207064E-1   -7.980629530645889E-2
 6.457068814350000E9    -5.684742555326745E-1   -1.648599622117204E-1   -8.953338846928217E-3    3.447566838975964E-2   -7.081265435101778E-3    3.445770174145272E-2   -5.332568319609295E-1   -7.857857683679227E-2
 6.457080462300000E9    -5.689038601475729E-1   -1.639428912803028E-1   -8.911049301549658E-3    3.460195524024186E-2   -7.013107669473091E-3    3.474691903295124E-2   -5.334711869554152E-1   -7.716994358696799E-2
 6.457092110250000E9    -5.690643999769628E-1   -1.628543744180906E-1   -8.764134828541683E-3    3.489432045353833E-2   -6.984767081772913E-3    3.484882575362173E-2   -5.334635961626173E-1   -7.618787550721318E-2
 6.457103758200000E9    -5.692786242875596E-1   -1.619049032093670E-1   -8.810212145223902E-3    3.510900051139900E-2   -6.912337774610231E-3    3.513431877790018E-2   -5.338535396119198E-1   -7.470258865571641E-2
 6.457115406150000E9    -5.695364781730585E-1   -1.609488565797892E-1   -8.766962123649653E-3    3.539810621798808E-2   -6.857619656360951E-3    3.530367577285961E-2   -5.339058171694662E-1   -7.345626254511887E-2
 6.457127054100000E9    -5.698056035627681E-1   -1.599680514280097E-1   -8.764659829032136E-3    3.569130340763928E-2   -6.832869715580811E-3    3.540335773334584E-2   -5.341030255530098E-1   -7.219843086394122E-2
 6.457138702050000E9    -5.699224148303429E-1   -1.590087039593545E-1   -8.686390823444553E-3    3.573062448311574E-2   -6.838581669124961E-3    3.563634239514327E-2   -5.343069580799413E-1   -7.089034419587652E-2
 6.457150350000000E9    -5.702681115466429E-1   -1.579310821354215E-1   -8.758239946589357E-3    3.599476413336530E-2   -6.784621295280537E-3    3.582090546694255E-2   -5.343234208216531E-1   -6.972081505359509E-2
 6.457161997950000E9    -5.706231888352298E-1   -1.569735505909307E-1   -8.663066152475231E-3    3.624843113402524E-2   -6.729246633871421E-3    3.617537202801321E-2   -5.344929869709194E-1   -6.841086314575037E-2
 6.457173645900000E9    -5.707442686582105E-1   -1.559971409857127E-1   -8.562342331504685E-3    3.647175355851416E-2   -6.659215046734590E-3    3.634116094892490E-2   -5.347117950193316E-1   -6.715788510438635E-2
 6.457185293850000E9    -5.710258217816636E-1   -1.549593855306245E-1   -8.655375466866708E-3    3.658644970532710E-2   -6.683828683813062E-3    3.661291331391059E-2   -5.347693274815243E-1   -6.586473146664013E-2
 6.457196941800000E9    -5.712113863298313E-1   -1.540430486109122E-1   -8.553780289112415E-3    3.693907124931722E-2   -6.628071853458718E-3    3.680165393650891E-2   -5.349358838438747E-1   -6.468428953159296E-2
 6.457208589750000E9    -5.715764545863384E-1   -1.530845929256857E-1   -8.586068705609386E-3    3.717298079354984E-2   -6.633513286234450E-3    3.694813499556113E-2   -5.351344039983166E-1   -6.327191754708912E-2
 6.457220237700000E9    -5.718437359471581E-1   -1.520484803177047E-1   -8.638960153201118E-3    3.730420399613666E-2   -6.553983169127617E-3    3.723577502211454E-2   -5.352606500460725E-1   -6.201086119563483E-2
 6.457231885650000E9    -5.718648141702776E-1   -1.510252851165005E-1   -8.487387731207418E-3    3.755307998273489E-2   -6.473218389905412E-3    3.750222763528894E-2   -5.353385691481599E-1   -6.069893470087131E-2
 6.457243533600000E9    -5.721608340057448E-1   -1.501124357190978E-1   -8.443828376235080E-3    3.775738096607740E-2   -6.374180420468097E-3    3.769314079911416E-2   -5.354902700445716E-1   -5.943047329862106E-2
 6.457255181550000E9    -5.723938919759896E-1   -1.490074049818069E-1   -8.211314423423089E-3    3.811082838118959E-2   -6.432164414457772E-3    3.801815282893568E-2   -5.355455168639917E-1   -5.811297135389935E-2
 6.457266829500000E9    -5.725945178931831E-1   -1.480863275577406E-1   -8.204401820503313E-3    3.842268342657669E-2   -6.233828786353222E-3    3.823637903335161E-2   -5.358403231575571E-1   -5.679069082724894E-2
 6.457278477450000E9    -5.729553426902730E-1   -1.469995198028643E-1   -8.280783892523166E-3    3.862109185338781E-2   -6.169366668715947E-3    3.843715311506634E-2   -5.359366745092063E-1   -5.543889676610329E-2
 6.457290125400000E9    -5.731027906427574E-1   -1.459615896719302E-1   -8.220174203819415E-3    3.885277322739230E-2   -6.158616893644555E-3    3.860899160766400E-2   -5.359497383499005E-1   -5.395373521519382E-2
 6.457301773350000E9    -5.733277950091938E-1   -1.450175721391147E-1   -8.117958641550826E-3    3.911216720036877E-2   -6.265015627820255E-3    3.902747738679534E-2   -5.361342589618546E-1   -5.283841628436850E-2
 6.457313421300000E9    -5.735447367178048E-1   -1.439867048709896E-1   -8.170643543793887E-3    3.942467610548164E-2   -6.081461188678414E-3    3.914022051185349E-2   -5.363413422724158E-1   -5.152988954149975E-2
 6.457325069250000E9    -5.737707881781238E-1   -1.430165302427707E-1   -8.132538975872461E-3    3.966304852059460E-2   -6.069855399700984E-3    3.940717661746990E-2   -5.363295498994931E-1   -5.005186971341057E-2
 6.457336717200000E9    -5.739241093875040E-1   -1.420274418199257E-1   -8.155745755183937E-3    3.996048271823121E-2   -5.954570512450108E-3    3.967760708990158E-2   -5.364036109561116E-1   -4.882259058382010E-2
 6.457348365150000E9    -5.741608753289520E-1   -1.410176795516431E-1   -8.055799060979262E-3    4.017328695540016E-2   -5.870112384718055E-3    3.993064253836300E-2   -5.364466355188517E-1   -4.749732127113818E-2
 6.457360013100000E9    -5.744372833193895E-1   -1.399068711814964E-1   -8.046445929992437E-3    4.049141054793293E-2   -5.847497758775621E-3    4.022252251745276E-2   -5.365583685751963E-1   -4.617205678735418E-2
 6.457371661050000E9    -5.746450633813132E-1   -1.389600864092007E-1   -7.980852313103366E-3    4.082306501742768E-2   -5.785032335133244E-3    4.041844113521380E-2   -5.366387134898573E-1   -4.474906019435344E-2
 6.457383309000000E9    -5.747996450657186E-1   -1.378438564624466E-1   -7.859267182268021E-3    4.098155548364586E-2   -5.736635276653778E-3    4.068437918175709E-2   -5.367374664060409E-1   -4.342661351781946E-2
 6.457394956950000E9    -5.751349596247921E-1   -1.368419245929899E-1   -7.911283475113351E-3    4.137714363730122E-2   -5.711247627573136E-3    4.093850009594328E-2   -5.368963943235684E-1   -4.188269182351213E-2
 6.457406604900000E9    -5.752744916642403E-1   -1.358741802337150E-1   -7.878311318103940E-3    4.142804043625124E-2   -5.679519236517047E-3    4.125368400382701E-2   -5.371135463666986E-1   -4.064429776454835E-2
 6.457418252850000E9    -5.754087550865032E-1   -1.348007128860239E-1   -7.718702924057155E-3    4.167905767378759E-2   -5.599860099762829E-3    4.161049125292590E-2   -5.371685765420238E-1   -3.913756587956762E-2
 6.457429900800000E9    -5.756833844620117E-1   -1.338516684352404E-1   -7.689637048546254E-3    4.210509039301372E-2   -5.478480116326435E-3    4.183385573624940E-2   -5.371137706285127E-1   -3.775094484109313E-2
 6.457441548750000E9    -5.758998444786375E-1   -1.327422066049680E-1   -7.582507077664504E-3    4.240568057090435E-2   -5.429751957268280E-3    4.217571101357746E-2   -5.371753959888483E-1   -3.629262348440720E-2
 6.457453196700000E9    -5.760799172190895E-1   -1.317406963078701E-1   -7.553467022136589E-3    4.259403738063154E-2   -5.340782526650582E-3    4.244290518647344E-2   -5.371935443063941E-1   -3.493674769482367E-2
 6.457464844650000E9    -5.762774982214458E-1   -1.307620852580273E-1   -7.556437306673781E-3    4.304255359141177E-2   -5.262687701656900E-3    4.265834067735971E-2   -5.372904416637506E-1   -3.356457933867656E-2
 6.457476492600000E9    -5.764189988889548E-1   -1.296915884932996E-1   -7.359039972921155E-3    4.331134212776983E-2   -5.086365046947929E-3    4.297917944026126E-2   -5.374232844932482E-1   -3.206039143222813E-2
 6.457488140550000E9    -5.767264696901337E-1   -1.285698593624026E-1   -7.439857315662222E-3    4.346174349126178E-2   -5.213939820876725E-3    4.326751093473571E-2   -5.374613015398584E-1   -3.077017619839166E-2
 6.457499788500000E9    -5.769043013124006E-1   -1.276356737977364E-1   -7.324528839535442E-3    4.395523278212400E-2   -5.043005743929111E-3    4.356954807201660E-2   -5.375927641978004E-1   -2.922248919329286E-2
 6.457511436450000E9    -5.771546041700855E-1   -1.265720872173787E-1   -7.305142583229068E-3    4.413192497288421E-2   -4.984445026406720E-3    4.380163570676816E-2   -5.375737304831214E-1   -2.774449848869497E-2
 6.457523084400000E9    -5.773267419756131E-1   -1.254837398158904E-1   -7.180481477114965E-3    4.451683148090899E-2   -4.926619453425199E-3    4.421232339609311E-2   -5.376404706714184E-1   -2.646056718286919E-2
 6.457534732350000E9    -5.774264529164753E-1   -1.244273653320343E-1   -7.129228214047487E-3    4.485066407552574E-2   -4.841839029086848E-3    4.441299225045062E-2   -5.376815283863092E-1   -2.479466568238252E-2
 6.457546380300000E9    -5.775724330932679E-1   -1.234028434472748E-1   -6.992995557267469E-3    4.508857517555863E-2   -4.775305515119529E-3    4.476492316459330E-2   -5.376119863648958E-1   -2.342409528099201E-2
 6.457558028250000E9    -5.778480621497945E-1   -1.223411345038183E-1   -6.992572048523890E-3    4.551147058894768E-2   -4.799807729020467E-3    4.510513369276563E-2   -5.376455691145856E-1   -2.191206767107092E-2
 6.457569676200000E9    -5.780983351044041E-1   -1.211956437161540E-1   -6.939414067995766E-3    4.580598042163294E-2   -4.593583992244106E-3    4.538683002493220E-2   -5.378497916698983E-1   -2.040884271281330E-2
 6.457581324150000E9    -5.781363989895214E-1   -1.202075214861460E-1   -6.893198579869783E-3    4.623158487535697E-2   -4.538094567133361E-3    4.571154316152637E-2   -5.377277341139963E-1   -1.895960585803111E-2
 6.457592972100000E9    -5.782883590714881E-1   -1.192475218235819E-1   -6.728327883620441E-3    4.634454325677676E-2   -4.423242844692338E-3    4.606730301185435E-2   -5.378815741943729E-1   -1.761385489885256E-2
 6.457604620050000E9    -5.785729561163264E-1   -1.180661681148053E-1   -6.802997266416992E-3    4.697040136898862E-2   -4.404355359559652E-3    4.639480352516426E-2   -5.377952694063025E-1   -1.597658546413441E-2
 6.457616268000000E9    -5.785348325684612E-1   -1.170673772720586E-1   -6.673752764028877E-3    4.727986166425093E-2   -4.231009670837772E-3    4.668523614357613E-2   -5.376767617166187E-1   -1.436641546320348E-2
 6.457627915950000E9    -5.788761484689832E-1   -1.160112947507053E-1   -6.672486695486337E-3    4.741350409437946E-2   -4.131756473140394E-3    4.706080435322088E-2   -5.377724548904798E-1   -1.297616935953623E-2
 6.457639563900000E9    -5.790279826706121E-1   -1.149312667971445E-1   -6.541258235040931E-3    4.794422891407023E-2   -4.030097274785618E-3    4.753948315986814E-2   -5.376888033195601E-1   -1.138688219894479E-2
 6.457651211850000E9    -5.792033804635173E-1   -1.138636522906843E-1   -6.458074411382025E-3    4.830719642538601E-2   -3.895313549804734E-3    4.781727795419378E-2   -5.378458592066390E-1   -9.941157066209818E-3
 6.457662859800000E9    -5.793681171532619E-1   -1.126440161657418E-1   -6.466940110015681E-3    4.862682470074994E-2   -3.815681807518920E-3    4.813507267507312E-2   -5.377672061211765E-1   -8.196729209053391E-3
 6.457674507750000E9    -5.794434632860556E-1   -1.117490647755082E-1   -6.292200419051127E-3    4.899175861077933E-2   -3.761136483870132E-3    4.855808861630707E-2   -5.376269698910916E-1   -6.665192464908239E-3
 6.457686155700000E9    -5.797291982260624E-1   -1.104748195176811E-1   -6.031574552971019E-3    4.950650896790637E-2   -3.638815719369947E-3    4.892090286576127E-2   -5.377050032815458E-1   -5.186177832767629E-3
 6.457697803650000E9    -5.798287561804453E-1   -1.095274250557677E-1   -6.109025235198430E-3    4.975295946091682E-2   -3.512050011702518E-3    4.926441358011084E-2   -5.376785645269780E-1   -3.531001829540909E-3
 6.457709451600000E9    -5.799864011047389E-1   -1.083801241976271E-1   -6.064729052485050E-3    5.021338505218358E-2   -3.429337004285561E-3    4.966222799801468E-2   -5.376676792121882E-1   -2.042105079485453E-3
 6.457721099550000E9    -5.801072051324651E-1   -1.072957365254780E-1   -5.889420755600275E-3    5.052987770067606E-2   -3.359494248508236E-3    5.002011713911807E-2   -5.375130636648802E-1   -4.759882502123798E-4
 6.457732747500000E9    -5.802425098359578E-1   -1.061008060231831E-1   -5.813914543733254E-3    5.110084778969707E-2   -3.259463296291701E-3    5.038582684078963E-2   -5.374551301804056E-1    1.314855023898162E-3
 6.457744395450000E9    -5.803223122208299E-1   -1.051071618509415E-1   -5.620269869153312E-3    5.145274822196375E-2   -3.151556430233543E-3    5.082480767046348E-2   -5.374067478357873E-1    2.842809413971710E-3
 6.457756043400000E9    -5.805683251338484E-1   -1.039233549718837E-1   -5.660734074076059E-3    5.179175670937323E-2   -3.037556538414614E-3    5.122887902393707E-2   -5.374471288050553E-1    4.537889788304252E-3
 6.457767691350000E9    -5.806459031332443E-1   -1.028839239769511E-1   -5.492533485923008E-3    5.226934594566257E-2   -2.880990140604605E-3    5.169588673964171E-2   -5.373431193504506E-1    6.096904055014712E-3
 6.457779339300000E9    -5.807862543213553E-1   -1.018215891973033E-1   -5.459502244455288E-3    5.267551677726725E-2   -2.731393703699568E-3    5.194368432771584E-2   -5.372572574991571E-1    7.737545251603710E-3
 6.457790987250000E9    -5.808207831399103E-1   -1.007039034938305E-1   -5.330767551093154E-3    5.316326614202890E-2   -2.548619242651203E-3    5.242886546436995E-2   -5.371106355110742E-1    9.349830995786103E-3
 6.457802635200000E9    -5.810442132089317E-1   -9.955168329566867E-2   -5.087523563836588E-3    5.352681838899118E-2   -2.420239671867984E-3    5.281808010101119E-2   -5.370926083209200E-1    1.115806962178435E-2
 6.457814283150000E9    -5.811755705191949E-1   -9.853352592502193E-2   -4.985571807551122E-3    5.411658141603758E-2   -2.368228121651992E-3    5.329964184199139E-2   -5.370043137603443E-1    1.277156946260294E-2
 6.457825931100000E9    -5.812751264758087E-1   -9.732087218357173E-2   -4.875230974422198E-3    5.442644365679435E-2   -2.225455356152681E-3    5.378283269608390E-2   -5.368152804010933E-1    1.458655597613981E-2
 6.457837579050000E9    -5.813955284622421E-1   -9.614199760679591E-2   -4.848829346078096E-3    5.487824535003257E-2   -2.096857957029423E-3    5.413846231351434E-2   -5.366992031697211E-1    1.633964183193255E-2
 6.457849227000000E9    -5.814868523964799E-1   -9.509300912837511E-2   -4.679384202707053E-3    5.533053022702688E-2   -1.929409253596688E-3    5.470250934518374E-2   -5.366207682695671E-1    1.800648573423322E-2
 6.457860874950000E9    -5.815870299060096E-1   -9.396689187458380E-2   -4.593752827217840E-3    5.587505385206305E-2   -1.741650611282639E-3    5.508299227226925E-2   -5.364534868883525E-1    1.973852924316050E-2
 6.457872522900000E9    -5.816980974156311E-1   -9.280195771465036E-2   -4.327137593164497E-3    5.632925735077542E-2   -1.593736249258056E-3    5.562266611613803E-2   -5.362874798425956E-1    2.157942828023503E-2
 6.457884170850000E9    -5.818713124361269E-1   -9.155872563277347E-2   -4.323070673944482E-3    5.692390502873317E-2   -1.454180672941653E-3    5.598911930002011E-2   -5.361751054047563E-1    2.322858807601084E-2
 6.457895818800000E9    -5.820025819421776E-1   -9.058507148382410E-2   -4.021395086728264E-3    5.735906372814485E-2   -1.371889029823444E-3    5.644336540045214E-2   -5.359405202730334E-1    2.501733175760680E-2
 6.457907466750000E9    -5.821373606398539E-1   -8.936086555342913E-2   -3.926250269693250E-3    5.786047454618039E-2   -1.119472427852258E-3    5.703718757518510E-2   -5.358321966592323E-1    2.686670000616900E-2
 6.457919114700000E9    -5.821541175748302E-1   -8.815436395847029E-2   -3.791386905901256E-3    5.830411344988577E-2   -1.023628736644043E-3    5.749496716405166E-2   -5.356526160539161E-1    2.861268244007066E-2
 6.457930762650000E9    -5.822936974627645E-1   -8.696446002237967E-2   -3.683340051521076E-3    5.890592832799525E-2   -9.106226773704630E-4    5.799632030302296E-2   -5.353935234353560E-1    3.044278620045094E-2
 6.457942410600000E9    -5.824344080677417E-1   -8.589020400166746E-2   -3.484230564303917E-3    5.937969362279152E-2   -5.728614442374063E-4    5.850691174196804E-2   -5.353018877021731E-1    3.227116224722660E-2
 6.457954058550000E9    -5.823684230911723E-1   -8.473230395485955E-2   -3.397467945804310E-3    5.992351117173225E-2   -4.685478136413820E-4    5.902176810344394E-2   -5.350357098770919E-1    3.416459525124453E-2
 6.457965706500000E9    -5.823815380086693E-1   -8.350001996082763E-2   -3.223878300086833E-3    6.049714352525530E-2   -3.067447152238123E-4    5.954334103449634E-2   -5.347647810518550E-1    3.594685746391036E-2
