#  HZ   S   RI   R     50.00 
! Rohde & Schwarz Vector Network Analyzer 
! Rohde-Schwarz,ZNB20-2Port,1311601062101988,3.16
! Created: UTC 3/20/2024, 11:04:46 PM
! freq[Hz]                re:S11                  im:S11                  re:S21                  im:S21                  re:S12                  im:S12                  re:S22                  im:S22
 6.456913670000000E9    -5.648779478795394E-1   -1.775568025189471E-1   -9.271565009070178E-3    3.174281658440051E-2   -7.662299885475796E-3    3.181214851295645E-2   -5.252046677964118E-1   -9.215368405042422E-2
 6.456925324200000E9    -5.651652958567288E-1   -1.766811981051994E-1   -9.251153798142250E-3    3.198123368668380E-2   -7.565604717095207E-3    3.197538063129676E-2   -5.253666209354858E-1   -9.106438057616022E-2
 6.456936978400000E9    -5.653846912733782E-1   -1.756338242543312E-1   -9.128167050946080E-3    3.216374827767817E-2   -7.560110914333816E-3    3.221695303394836E-2   -5.256320229866475E-1   -8.990800290435107E-2
 6.456948632600000E9    -5.657922147513742E-1   -1.747594531342858E-1   -9.312254390030953E-3    3.235637202891580E-2   -7.536250227879977E-3    3.234692945369689E-2   -5.258562061001154E-1   -8.875015563981785E-2
 6.456960286800000E9    -5.660087350825804E-1   -1.738087419209825E-1   -9.248815409618518E-3    3.248839632236598E-2   -7.483935522230038E-3    3.249813766212811E-2   -5.260343696383818E-1   -8.755436670484198E-2
 6.456971941000000E9    -5.663852558007132E-1   -1.727303713826236E-1   -9.137107697830521E-3    3.260413253124211E-2   -7.390178534457785E-3    3.269913807341510E-2   -5.262160383024166E-1   -8.618795156870271E-2
 6.456983595200000E9    -5.665238492806618E-1   -1.717709765277565E-1   -9.208227005498174E-3    3.280840291991038E-2   -7.389555910469270E-3    3.292639198868558E-2   -5.265344943603982E-1   -8.516161132200953E-2
 6.456995249400000E9    -5.669320713723404E-1   -1.707923966699189E-1   -9.191653550214176E-3    3.307786252530259E-2   -7.456946222876219E-3    3.301982413652027E-2   -5.266416280049984E-1   -8.383124937690313E-2
 6.457006903600000E9    -5.671318194478765E-1   -1.698893943143732E-1   -9.016364881054138E-3    3.326778993063232E-2   -7.311580856324666E-3    3.316289393198512E-2   -5.269172048854582E-1   -8.279007396613837E-2
 6.457018557800000E9    -5.674294526766795E-1   -1.689183908573580E-1   -9.042934535549330E-3    3.335998880039630E-2   -7.424150555605237E-3    3.338150516521348E-2   -5.270696556651853E-1   -8.138774234981516E-2
 6.457030212000000E9    -5.676175967302796E-1   -1.679783885951935E-1   -9.065795396064355E-3    3.360757210915311E-2   -7.365388675456002E-3    3.363867914708681E-2   -5.271274157620593E-1   -8.032087838853194E-2
 6.457041866200000E9    -5.678917234575863E-1   -1.669125355049419E-1   -9.085479220619920E-3    3.388746462232961E-2   -7.287178872258110E-3    3.378938780067664E-2   -5.274118226139448E-1   -7.898687256320605E-2
 6.457053520400000E9    -5.683109323663952E-1   -1.660442880785435E-1   -8.946186117067382E-3    3.416206606970162E-2   -7.304434844578197E-3    3.393492210541289E-2   -5.276059066864017E-1   -7.783716306809245E-2
 6.457065174600000E9    -5.684691026354367E-1   -1.649793027590956E-1   -8.977634978321301E-3    3.429832233536059E-2   -7.171026400322565E-3    3.424423548066696E-2   -5.278126646687611E-1   -7.655815891081727E-2
 6.457076828800000E9    -5.687134383242842E-1   -1.640479101684013E-1   -8.953964696303994E-3    3.447716172073363E-2   -7.068233017835615E-3    3.437713303270244E-2   -5.279659414521025E-1   -7.540416234746014E-2
 6.457088483000000E9    -5.688982499898705E-1   -1.631179344027089E-1   -8.901695406192525E-3    3.463874690785583E-2   -7.135636909111382E-3    3.461014519137172E-2   -5.281639799199124E-1   -7.423298951179817E-2
 6.457100137200000E9    -5.691574494345433E-1   -1.620125895544570E-1   -9.027567672603917E-3    3.493867633196091E-2   -7.138139799918407E-3    3.484994530891846E-2   -5.283195877671557E-1   -7.297791732017242E-2
 6.457111791400000E9    -5.694856609407467E-1   -1.610505998640434E-1   -8.970018705886540E-3    3.496521117365897E-2   -7.090398975388441E-3    3.502805870205544E-2   -5.283973892970718E-1   -7.161913266511474E-2
 6.457123445600000E9    -5.698230156749842E-1   -1.601333666230074E-1   -8.745997662161133E-3    3.525658400717249E-2   -6.989731205958594E-3    3.521497627168910E-2   -5.286575523300796E-1   -7.045883525845195E-2
 6.457135099800000E9    -5.699948994367702E-1   -1.592436387924445E-1   -8.900817877918490E-3    3.551737785296716E-2   -7.003575801761214E-3    3.547609309564278E-2   -5.288403885540006E-1   -6.922181034151460E-2
 6.457146754000000E9    -5.701965475613450E-1   -1.580969534712497E-1   -8.756454480404149E-3    3.576772339006454E-2   -6.883248926187406E-3    3.572623762009512E-2   -5.288541598290278E-1   -6.801766762760239E-2
 6.457158408200000E9    -5.704728076797194E-1   -1.571885917021773E-1   -8.728588630730668E-3    3.588965503307494E-2   -6.855876713024519E-3    3.595952767242924E-2   -5.291375139257919E-1   -6.670056188818403E-2
 6.457170062400000E9    -5.706602694515314E-1   -1.561594490132256E-1   -8.759218325208757E-3    3.623726114806360E-2   -6.734217630387455E-3    3.612560769767421E-2   -5.293023453924810E-1   -6.547730171895022E-2
 6.457181716600000E9    -5.709677413614550E-1   -1.553283798700248E-1   -8.778520100989309E-3    3.638100433508246E-2   -6.843213164664745E-3    3.631355673469287E-2   -5.294319971380305E-1   -6.415311660823200E-2
 6.457193370800000E9    -5.712502960402834E-1   -1.542387528896249E-1   -8.503047713592697E-3    3.661212407775115E-2   -6.747004294520875E-3    3.651660183861401E-2   -5.296466481458592E-1   -6.285423059318145E-2
 6.457205025000000E9    -5.713663822665125E-1   -1.532134872315996E-1   -8.621604521618509E-3    3.688252899759347E-2   -6.702654619637293E-3    3.669087465086798E-2   -5.298123259953533E-1   -6.175572722214610E-2
 6.457216679200000E9    -5.716338853564616E-1   -1.522252328754006E-1   -8.558981101554199E-3    3.709404759800910E-2   -6.733482877704642E-3    3.701511857518659E-2   -5.297785542475602E-1   -6.023719902892415E-2
 6.457228333400000E9    -5.719471057324318E-1   -1.511789767103104E-1   -8.685281888361670E-3    3.733848480894070E-2   -6.549333452357788E-3    3.723196779816381E-2   -5.300434617174047E-1   -5.909879144776785E-2
 6.457239987600000E9    -5.721454079395768E-1   -1.501510959642073E-1   -8.489114384787626E-3    3.754091052932049E-2   -6.522779167725912E-3    3.742813772308679E-2   -5.301543619093368E-1   -5.780916968291412E-2
 6.457251641800000E9    -5.723642856187308E-1   -1.491443408944650E-1   -8.511970005875228E-3    3.781935276995663E-2   -6.542172009809996E-3    3.765488265620751E-2   -5.303336172573199E-1   -5.642738966253646E-2
 6.457263296000000E9    -5.726237890243444E-1   -1.481634099387800E-1   -8.437654240408030E-3    3.809531011269019E-2   -6.561845982284929E-3    3.793514573188240E-2   -5.303744864541552E-1   -5.511400916602981E-2
 6.457274950200000E9    -5.726894979888315E-1   -1.472756553356424E-1   -8.440512753805121E-3    3.836475930035015E-2   -6.424792179030729E-3    3.812989649165641E-2   -5.306154246465685E-1   -5.385101915769690E-2
 6.457286604400000E9    -5.730434759171159E-1   -1.462131912640444E-1   -8.409066011589241E-3    3.854027007878651E-2   -6.301967303079393E-3    3.846989549487587E-2   -5.306517107516249E-1   -5.255449087396131E-2
 6.457298258600000E9    -5.731972302883551E-1   -1.451607013128563E-1   -8.386895875000607E-3    3.890231162551099E-2   -6.336403566619725E-3    3.854596681123368E-2   -5.308320919048116E-1   -5.131500394019664E-2
 6.457309912800000E9    -5.734380609163742E-1   -1.441984074811855E-1   -8.219745318972451E-3    3.916994071256209E-2   -6.314770147391762E-3    3.896686147151095E-2   -5.310602179534768E-1   -4.995929823205085E-2
 6.457321567000000E9    -5.737624589090325E-1   -1.431914116775758E-1   -8.336771950643754E-3    3.927624596209214E-2   -6.298713984402135E-3    3.913703523436511E-2   -5.309755001747358E-1   -4.851861461324371E-2
 6.457333221200000E9    -5.738801420156139E-1   -1.421502918010591E-1   -8.177194747959981E-3    3.949082567910086E-2   -6.122119638881431E-3    3.943839434110699E-2   -5.312032125615511E-1   -4.727534715454509E-2
 6.457344875400000E9    -5.741385725503424E-1   -1.412558156798528E-1   -8.195092549505033E-3    3.996696047312186E-2   -6.161474658940726E-3    3.973285513088658E-2   -5.311407873972112E-1   -4.599658550566513E-2
 6.457356529600000E9    -5.743670012179745E-1   -1.401796592921083E-1   -8.145174281089282E-3    4.016210853244682E-2   -5.979805936488678E-3    3.992105159138845E-2   -5.313189021465785E-1   -4.466993766070703E-2
 6.457368183800000E9    -5.747095752246563E-1   -1.390535089554071E-1   -8.181199119765663E-3    4.045630050498383E-2   -5.965953452579508E-3    4.017265183207155E-2   -5.314006848988071E-1   -4.312542386950612E-2
 6.457379838000000E9    -5.747888639163210E-1   -1.380838572221528E-1   -8.094029251132543E-3    4.066372884898033E-2   -5.938230833567422E-3    4.046111196713624E-2   -5.314837302685650E-1   -4.182913154636660E-2
 6.457391492200000E9    -5.749607861896380E-1   -1.370351912556886E-1   -7.994020736996874E-3    4.108285048120079E-2   -5.898940719867566E-3    4.063137832199430E-2   -5.316342672583600E-1   -4.055920008382503E-2
 6.457403146400000E9    -5.752554600468542E-1   -1.360934953303279E-1   -7.954745824419801E-3    4.115894870522060E-2   -5.766234638267843E-3    4.102152021305214E-2   -5.316780414005770E-1   -3.917593955098859E-2
 6.457414800600000E9    -5.755393806375056E-1   -1.349484077411660E-1   -7.957592178877104E-3    4.158600712116332E-2   -5.800496417550991E-3    4.127918506289047E-2   -5.318125674318797E-1   -3.769819387821672E-2
 6.457426454800000E9    -5.756368971581821E-1   -1.339359501284791E-1   -7.844065802311255E-3    4.191661909015645E-2   -5.699777454346498E-3    4.156641264365827E-2   -5.317500141477400E-1   -3.643493717925368E-2
 6.457438109000000E9    -5.758636704596523E-1   -1.329955741847923E-1   -7.840922042242789E-3    4.213910019274726E-2   -5.643539423727049E-3    4.180253308521779E-2   -5.318892591103676E-1   -3.494676182202924E-2
 6.457449763200000E9    -5.760194861231847E-1   -1.319636258154384E-1   -7.701183546068867E-3    4.241366826897848E-2   -5.512653933507807E-3    4.208216149899471E-2   -5.320772977091884E-1   -3.357008889242935E-2
 6.457461417400000E9    -5.762328280939980E-1   -1.309156981356796E-1   -7.707684096265079E-3    4.279729026524199E-2   -5.518335764540989E-3    4.247852483645050E-2   -5.320637353158110E-1   -3.212332771147837E-2
 6.457473071600000E9    -5.765230989884319E-1   -1.298967550378030E-1   -7.495714161039270E-3    4.299575020088695E-2   -5.359997476037285E-3    4.264670738301127E-2   -5.321270773218096E-1   -3.078683559021149E-2
 6.457484725800000E9    -5.765145487492953E-1   -1.287948501505773E-1   -7.594686339650904E-3    4.328949474414767E-2   -5.297626105924985E-3    4.303840858779134E-2   -5.321441120224291E-1   -2.929932173743909E-2
 6.457496380000000E9    -5.767257655163719E-1   -1.277767747180572E-1   -7.517333775753603E-3    4.370923196716728E-2   -5.241823673765124E-3    4.328658482358048E-2   -5.322634030519602E-1   -2.788919572645298E-2
 6.457508034200000E9    -5.770212943980172E-1   -1.267618894018983E-1   -7.442592993349190E-3    4.401659276426175E-2   -5.191231885004036E-3    4.363703628516893E-2   -5.322279646012309E-1   -2.651975025991704E-2
 6.457519688400000E9    -5.772334357154373E-1   -1.256306968093822E-1   -7.387873986157643E-3    4.431151950306372E-2   -5.135192503585714E-3    4.385988509845992E-2   -5.324618199344889E-1   -2.498348465151711E-2
 6.457531342600000E9    -5.773385498905625E-1   -1.245524286363276E-1   -7.296780012357545E-3    4.444948221821574E-2   -5.093738027273616E-3    4.427208466527749E-2   -5.323635258148125E-1   -2.365084322819112E-2
 6.457542996800000E9    -5.776531559618923E-1   -1.236022582552630E-1   -7.155268783310162E-3    4.488836904711492E-2   -5.003238897787607E-3    4.447407834901657E-2   -5.323436722853585E-1   -2.217454172304006E-2
 6.457554651000000E9    -5.778362713496217E-1   -1.224318889716511E-1   -7.289997625488906E-3    4.519021179825048E-2   -4.854033155376062E-3    4.480155513061083E-2   -5.325737073368654E-1   -2.069632501664480E-2
 6.457566305200000E9    -5.779799713105661E-1   -1.214843588352187E-1   -7.142878519182065E-3    4.544394525613808E-2   -4.872240068649033E-3    4.523009559271111E-2   -5.325452657020152E-1   -1.927213853608478E-2
 6.457577959400000E9    -5.780709686858815E-1   -1.204351573479095E-1   -7.112746137555128E-3    4.578672606289277E-2   -4.762159595227355E-3    4.551442510653608E-2   -5.324713804619038E-1   -1.784411206371043E-2
 6.457589613600000E9    -5.783035306439348E-1   -1.193145007474621E-1   -7.087157290967732E-3    4.633081604226433E-2   -4.669106861685642E-3    4.579788810756216E-2   -5.326268275579074E-1   -1.619346504348603E-2
 6.457601267800000E9    -5.784381443034476E-1   -1.182313188933768E-1   -6.866429926128870E-3    4.665555642625775E-2   -4.563799060540806E-3    4.611701936004151E-2   -5.325693203644715E-1   -1.465168475081134E-2
 6.457612922000000E9    -5.786247364684857E-1   -1.172714178056168E-1   -6.885218531116260E-3    4.694268966428046E-2   -4.516256255880547E-3    4.642825845760286E-2   -5.326848984079973E-1   -1.327494145022591E-2
 6.457624576200000E9    -5.787301514817450E-1   -1.160854749007198E-1   -6.768421458025769E-3    4.725213054849500E-2   -4.391868317158222E-3    4.680729254306511E-2   -5.326157381740085E-1   -1.165454377009402E-2
 6.457636230400000E9    -5.788297319433927E-1   -1.150510445460893E-1   -6.709283708945493E-3    4.770215132755177E-2   -4.301100899378698E-3    4.720323818489140E-2   -5.325966800327537E-1   -1.020672863760901E-2
 6.457647884600000E9    -5.792147320982479E-1   -1.138549034424974E-1   -6.624352285888766E-3    4.803650565373804E-2   -4.196284573593388E-3    4.745353908141706E-2   -5.326357244928441E-1   -8.539514945619898E-3
 6.457659538800000E9    -5.793672334962965E-1   -1.129443854005396E-1   -6.663267715138712E-3    4.829786411514328E-2   -4.110621729852738E-3    4.785753521473912E-2   -5.325497180851404E-1   -7.096419708868405E-3
 6.457671193000000E9    -5.793416141098710E-1   -1.118377709875073E-1   -6.357960583289099E-3    4.875452533754008E-2   -3.965133380504938E-3    4.822990878700849E-2   -5.327159673834581E-1   -5.550596999511882E-3
 6.457682847200000E9    -5.795830987331435E-1   -1.108310617589093E-1   -6.394958624652750E-3    4.925096550800986E-2   -3.875016408104580E-3    4.871918196754763E-2   -5.326130822228918E-1   -4.003601298046480E-3
 6.457694501400000E9    -5.797836614355033E-1   -1.097136886571499E-1   -6.163915998344916E-3    4.946640496905133E-2   -3.797357964101453E-3    4.907511738585493E-2   -5.326335905719409E-1   -2.499654806815113E-3
 6.457706155600000E9    -5.798198552874886E-1   -1.085900894179429E-1   -6.192307503965875E-3    4.990063555901134E-2   -3.703502095192432E-3    4.933392198014112E-2   -5.326313580067725E-1   -7.348230538896661E-4
 6.457717809800000E9    -5.800665854759627E-1   -1.074576746107110E-1   -6.044338904233726E-3    5.023752826836148E-2   -3.602010020572146E-3    4.981652651001826E-2   -5.325009859209771E-1    6.998978400885932E-4
 6.457729464000000E9    -5.801741273271724E-1   -1.063890509281398E-1   -6.039346958216448E-3    5.074705555975696E-2   -3.488003238076039E-3    5.021733789886967E-2   -5.325535023280313E-1    2.225074971744544E-3
 6.457741118200000E9    -5.804129365352992E-1   -1.053245114239754E-1   -5.945909085331536E-3    5.102768042985813E-2   -3.323011705797313E-3    5.048020490200134E-2   -5.325175147804238E-1    3.856402709676573E-3
 6.457752772400000E9    -5.804319659695885E-1   -1.041753632610163E-1   -5.764413189378112E-3    5.155871873026353E-2   -3.158128751545676E-3    5.087078396819621E-2   -5.322908633851017E-1    5.550157815229749E-3
 6.457764426600000E9    -5.805770057605862E-1   -1.029270302216789E-1   -5.606502331619554E-3    5.192503468883743E-2   -3.146793337295542E-3    5.134033786043639E-2   -5.321859655558511E-1    7.111795446642472E-3
 6.457776080800000E9    -5.807387708533356E-1   -1.019509821216748E-1   -5.625218562030375E-3    5.234509503027446E-2   -3.071599283701338E-3    5.172943160229959E-2   -5.320882695270515E-1    8.732322941483101E-3
 6.457787735000000E9    -5.808127463729035E-1   -1.009439646653363E-1   -5.639634239719612E-3    5.286301129030106E-2   -2.823307200684088E-3    5.213676723402563E-2   -5.321470808431013E-1    1.036242817333282E-2
 6.457799389200000E9    -5.809653784983820E-1   -9.974449519406195E-2   -5.482031557432470E-3    5.323883417377149E-2   -2.738141498096154E-3    5.257440358575261E-2   -5.320185919814471E-1    1.209837623338401E-2
 6.457811043400000E9    -5.811495631088885E-1   -9.866395962190042E-2   -5.061293457662749E-3    5.368990930997437E-2   -2.632472932523510E-3    5.292002471309890E-2   -5.319948327451042E-1    1.376494758636749E-2
 6.457822697600000E9    -5.811455031224436E-1   -9.743491205863487E-2   -5.067577224719158E-3    5.421958294240313E-2   -2.493060007262377E-3    5.333183750842920E-2   -5.318842162397952E-1    1.543186800105277E-2
 6.457834351800000E9    -5.813763329324759E-1   -9.632976524855559E-2   -5.058877124776268E-3    5.448556405385735E-2   -2.319290535801027E-3    5.391106968388359E-2   -5.318018679703989E-1    1.717158201032263E-2
 6.457846006000000E9    -5.814793166455980E-1   -9.517014906742730E-2   -4.831108456866193E-3    5.506155753974364E-2   -2.199210186183252E-3    5.434899729695605E-2   -5.316704800633764E-1    1.869701966368712E-2
 6.457857660200000E9    -5.815006831658527E-1   -9.406093710515465E-2   -4.673492142927714E-3    5.554893226826657E-2   -2.030308360860053E-3    5.464453968300698E-2   -5.316087224261631E-1    2.048572337997241E-2
 6.457869314400000E9    -5.817107261008665E-1   -9.290066348618500E-2   -4.751853298798376E-3    5.610453947950760E-2   -1.939423016020572E-3    5.529531110282315E-2   -5.313187729545856E-1    2.229779224294585E-2
 6.457880968600000E9    -5.817363351041239E-1   -9.177618572990921E-2   -4.563172135097211E-3    5.647188446344484E-2   -1.851116000514096E-3    5.575214329007364E-2   -5.312627854685409E-1    2.400150239182383E-2
 6.457892622800000E9    -5.819099164499416E-1   -9.058614605733342E-2   -4.395047034066317E-3    5.689054728762635E-2   -1.580536756316962E-3    5.614756448945196E-2   -5.311244436454375E-1    2.588593013237514E-2
 6.457904277000000E9    -5.819208387702840E-1   -8.947511987812783E-2   -4.194324982285726E-3    5.750089330672489E-2   -1.418483724090734E-3    5.665066653316646E-2   -5.308223150975512E-1    2.770155519928540E-2
 6.457915931200000E9    -5.821576724825287E-1   -8.832671611537897E-2   -4.088954180971939E-3    5.796322644438249E-2   -1.268358955766036E-3    5.715451336741444E-2   -5.307230644346259E-1    2.932640999527008E-2
 6.457927585400000E9    -5.821180395855955E-1   -8.716187923128745E-2   -3.983607529254486E-3    5.854682535974392E-2   -1.078296594320049E-3    5.770577928752836E-2   -5.305769637357277E-1    3.116221069851837E-2
 6.457939239600000E9    -5.822698909426774E-1   -8.600632872689251E-2   -3.819945671909686E-3    5.897573876134427E-2   -9.050974356271694E-4    5.815013958210093E-2   -5.303964752430237E-1    3.312774588504885E-2
 6.457950893800000E9    -5.824208828044937E-1   -8.488681490044976E-2   -3.741183776118503E-3    5.960224938113102E-2   -7.757838078948308E-4    5.863397580369320E-2   -5.302649419325620E-1    3.493490396436471E-2
 6.457962548000000E9    -5.824651408482682E-1   -8.379317043370656E-2   -3.486676877505110E-3    6.011102087496983E-2   -5.820060357751099E-4    5.919169420393443E-2   -5.299325902777463E-1    3.666405041607305E-2
