#  HZ   S   RI   R     50.00 
! Rohde & Schwarz Vector Network Analyzer 
! Rohde-Schwarz,ZNB20-2Port,1311601062101988,3.16
! Created: UTC 3/20/2024, 11:04:58 PM
! freq[Hz]                re:S11                  im:S11                  re:S21                  im:S21                  re:S12                  im:S12                  re:S22                  im:S22
 6.456911988000000E9    -5.648701077618722E-1   -1.776222213674796E-1   -9.259391841440274E-3    3.172548728317234E-2   -7.485635723894176E-3    3.181351207199192E-2   -5.269655275758316E-1   -9.161857327313860E-2
 6.456923645100000E9    -5.652446756531025E-1   -1.767424931341340E-1   -9.148815783722964E-3    3.196860155954535E-2   -7.614127067247465E-3    3.192255662067883E-2   -5.272654761594747E-1   -9.049352812399604E-2
 6.456935302200000E9    -5.654761016209308E-1   -1.758009778122850E-1   -9.143431417526342E-3    3.220416950498391E-2   -7.440791465069029E-3    3.214479901881660E-2   -5.274075111594105E-1   -8.928680512959039E-2
 6.456946959300000E9    -5.656827369463561E-1   -1.749222156214558E-1   -9.125537307937730E-3    3.235974379806963E-2   -7.417696217559223E-3    3.228354972339145E-2   -5.276369779421111E-1   -8.788489464260839E-2
 6.456958616400000E9    -5.660037901954325E-1   -1.738150125178708E-1   -9.191309302514205E-3    3.247498799950392E-2   -7.350597759310381E-3    3.255835703797617E-2   -5.278752787818851E-1   -8.689174164715173E-2
 6.456970273500000E9    -5.663023095443285E-1   -1.728952225082010E-1   -9.152692303413810E-3    3.271055725208848E-2   -7.269324854330912E-3    3.260910021415778E-2   -5.279823736930055E-1   -8.578522866641279E-2
 6.456981930600000E9    -5.665005987670713E-1   -1.719180614583844E-1   -9.137124716849847E-3    3.282473287735671E-2   -7.352428427078859E-3    3.287577016981503E-2   -5.282534438669682E-1   -8.442803056875077E-2
 6.456993587700000E9    -5.668423478360360E-1   -1.710195139681824E-1   -9.040006413006875E-3    3.294543098935832E-2   -7.330634802329998E-3    3.304890540654142E-2   -5.284192247679209E-1   -8.317383090321565E-2
 6.457005244800000E9    -5.672098467163902E-1   -1.700431464779298E-1   -9.065465527231087E-3    3.338832133793376E-2   -7.283694256431226E-3    3.316528883325679E-2   -5.287122702843221E-1   -8.199050854880058E-2
 6.457016901900000E9    -5.673417827724564E-1   -1.690324332301423E-1   -9.112142420782721E-3    3.348726282113673E-2   -7.281857451499485E-3    3.348982691474803E-2   -5.287693200071619E-1   -8.097915394899943E-2
 6.457028559000000E9    -5.675923333647331E-1   -1.681052787782388E-1   -9.037645911315428E-3    3.364406810147012E-2   -7.247773776616497E-3    3.363639283439943E-2   -5.288828252718972E-1   -7.964856360462830E-2
 6.457040216100000E9    -5.679366690146391E-1   -1.671594241708178E-1   -8.952407373989793E-3    3.384785318458906E-2   -7.158635507254987E-3    3.389014067118703E-2   -5.291989808518464E-1   -7.845756967029828E-2
 6.457051873200000E9    -5.681828133750567E-1   -1.660545950408732E-1   -9.035754743262084E-3    3.408418737240836E-2   -7.090663986942035E-3    3.408764198893004E-2   -5.293803320750904E-1   -7.720985576833816E-2
 6.457063530300000E9    -5.684654420577685E-1   -1.651417526049416E-1   -8.976864153402169E-3    3.427139964348498E-2   -7.106341069366253E-3    3.424292891658962E-2   -5.295137621475919E-1   -7.604411376664809E-2
 6.457075187400000E9    -5.687036270795742E-1   -1.641993600285512E-1   -8.865954503815445E-3    3.444143060781703E-2   -7.095981940194257E-3    3.439788420598396E-2   -5.296728674440577E-1   -7.468659111898684E-2
 6.457086844500000E9    -5.689533648141183E-1   -1.632084882583517E-1   -8.879047880148244E-3    3.466574163094775E-2   -7.022324732775383E-3    3.461417696639191E-2   -5.299244910585580E-1   -7.359760662768240E-2
 6.457098501600000E9    -5.691341289301953E-1   -1.622615786997021E-1   -8.790478083681306E-3    3.485476279446898E-2   -7.003832105701109E-3    3.484273487211113E-2   -5.299673836194545E-1   -7.230919515144946E-2
 6.457110158700000E9    -5.694496973824680E-1   -1.611822422642546E-1   -8.777515994740135E-3    3.513540684749897E-2   -6.905607918606949E-3    3.498552317861903E-2   -5.301774430442183E-1   -7.097340193273606E-2
 6.457121815800000E9    -5.696267213472164E-1   -1.601500364940241E-1   -8.733009182907252E-3    3.535606174718642E-2   -7.005768271606437E-3    3.529396287597873E-2   -5.302973534999548E-1   -6.995172241378865E-2
 6.457133472900000E9    -5.700048083225122E-1   -1.592712003201802E-1   -8.668219662800590E-3    3.558961076992984E-2   -6.809389974269122E-3    3.543767755576963E-2   -5.305266346065771E-1   -6.860402071690749E-2
 6.457145130000000E9    -5.701907636612776E-1   -1.583064593341207E-1   -8.743023270364516E-3    3.571688533104115E-2   -6.885517054375520E-3    3.562694827657104E-2   -5.306533503828433E-1   -6.730806111025567E-2
 6.457156787100000E9    -5.703863793673465E-1   -1.572485642552506E-1   -8.732822830467075E-3    3.595424214020058E-2   -6.850027308141537E-3    3.592788437076034E-2   -5.308488309849644E-1   -6.624417087856664E-2
 6.457168444200000E9    -5.707539578504799E-1   -1.562801661654755E-1   -8.770830682984839E-3    3.612058125728397E-2   -6.785588297920878E-3    3.610312734577914E-2   -5.309765915046780E-1   -6.479415096698313E-2
 6.457180101300000E9    -5.707750877660294E-1   -1.552433318048932E-1   -8.566294703059883E-3    3.650185207365416E-2   -6.742705967456995E-3    3.636651668477236E-2   -5.311325937273705E-1   -6.347386602265596E-2
 6.457191758400000E9    -5.711267839104549E-1   -1.543307476631307E-1   -8.570851831252935E-3    3.668656260635003E-2   -6.604266117614064E-3    3.656446819554645E-2   -5.314115531158543E-1   -6.228081467656232E-2
 6.457203415500000E9    -5.715440994730103E-1   -1.532783869801418E-1   -8.554500122960062E-3    3.701246885617214E-2   -6.601666396096018E-3    3.676542063234605E-2   -5.314121388830959E-1   -6.102729575197522E-2
 6.457215072600000E9    -5.716305251890701E-1   -1.523557799082675E-1   -8.624366777087489E-3    3.711138533367889E-2   -6.603461403743478E-3    3.702684601098182E-2   -5.314725220691988E-1   -5.973240962595085E-2
 6.457226729700000E9    -5.718228899449039E-1   -1.513485799120317E-1   -8.430101096859009E-3    3.745577840151795E-2   -6.566735237400303E-3    3.731608175044123E-2   -5.316554282692920E-1   -5.841370540151272E-2
 6.457238386800000E9    -5.721155604025718E-1   -1.502559749469769E-1   -8.464576683754069E-3    3.752039377099546E-2   -6.464339013629709E-3    3.745373310075902E-2   -5.317900270136147E-1   -5.702809532582748E-2
 6.457250043900000E9    -5.723191538963739E-1   -1.493227361447271E-1   -8.353675090328706E-3    3.775615222517128E-2   -6.362588529839570E-3    3.769107488093685E-2   -5.318940035157624E-1   -5.585443276528169E-2
 6.457261701000000E9    -5.725339060121225E-1   -1.481998455035406E-1   -8.494447038874196E-3    3.805107622790679E-2   -6.364764326925112E-3    3.797409443126921E-2   -5.320170056050326E-1   -5.451163015949921E-2
 6.457273358100000E9    -5.727824172798627E-1   -1.473644715575264E-1   -8.319643886457149E-3    3.824878308780373E-2   -6.395778521459199E-3    3.815752748308306E-2   -5.321627896420359E-1   -5.309333162903848E-2
 6.457285015200000E9    -5.730238213982379E-1   -1.463517855802992E-1   -8.162495169993135E-3    3.850049227049060E-2   -6.405708924972243E-3    3.839867639809998E-2   -5.323818540343894E-1   -5.189957562992076E-2
 6.457296672300000E9    -5.733070015523808E-1   -1.453516626044854E-1   -8.264487580861521E-3    3.882097151668756E-2   -6.240121287525430E-3    3.863295319897542E-2   -5.324100515352486E-1   -5.066821829891493E-2
 6.457308329400000E9    -5.735221169348479E-1   -1.442587043738251E-1   -8.269910213750033E-3    3.914313084251470E-2   -6.210555175611664E-3    3.889328634614474E-2   -5.326804735847724E-1   -4.922728822136620E-2
 6.457319986500000E9    -5.737324834467313E-1   -1.433230340790196E-1   -8.145396780642574E-3    3.935322128548243E-2   -6.142257982058278E-3    3.915414637056160E-2   -5.327619917936957E-1   -4.793204957380454E-2
 6.457331643600000E9    -5.739357350821512E-1   -1.421720703312907E-1   -8.247238997777377E-3    3.958948899682381E-2   -6.066533005585878E-3    3.940823009381197E-2   -5.326062022218832E-1   -4.650016718047387E-2
 6.457343300700000E9    -5.742729274322367E-1   -1.412421630980381E-1   -8.058265853165811E-3    3.986405981900517E-2   -6.112737504769383E-3    3.968752976446617E-2   -5.328179561223835E-1   -4.537363502030066E-2
 6.457354957800000E9    -5.743508459106990E-1   -1.403345641499345E-1   -7.923678703091293E-3    4.023201627143159E-2   -5.950779041442289E-3    4.003398825274227E-2   -5.330002583135447E-1   -4.376215235029823E-2
 6.457366614900000E9    -5.746207592928758E-1   -1.391597459287719E-1   -8.074629694114066E-3    4.054312876805057E-2   -5.931969446761756E-3    4.015617734672079E-2   -5.329940489447738E-1   -4.248690000785280E-2
 6.457378272000000E9    -5.748033942652127E-1   -1.382567274550192E-1   -7.929184900453818E-3    4.076875364468169E-2   -5.876075644006539E-3    4.046377206805600E-2   -5.330831925582422E-1   -4.117979017670476E-2
 6.457389929100000E9    -5.750543577333891E-1   -1.371998321311992E-1   -7.902273156892793E-3    4.093181770628168E-2   -5.765479900714351E-3    4.068708451836123E-2   -5.332237948349405E-1   -3.986373558705448E-2
 6.457401586200000E9    -5.752338311209686E-1   -1.361487747753295E-1   -7.863870273448759E-3    4.125648374969992E-2   -5.740660508718341E-3    4.097804478935175E-2   -5.332713672951783E-1   -3.857406321864526E-2
 6.457413243300000E9    -5.754305827076518E-1   -1.351166414901953E-1   -7.854539943513046E-3    4.152643316549980E-2   -5.558888082959988E-3    4.124158075900744E-2   -5.333367184799543E-1   -3.700210391017503E-2
 6.457424900400000E9    -5.756781408450624E-1   -1.340724683346664E-1   -7.772072447681568E-3    4.175957357811987E-2   -5.594325034909396E-3    4.150552950705232E-2   -5.335538074646623E-1   -3.572693693057327E-2
 6.457436557500000E9    -5.759734241003295E-1   -1.329633130464438E-1   -7.745948883931147E-3    4.210504703672537E-2   -5.607520268474782E-3    4.176401096820887E-2   -5.335723913979192E-1   -3.432789355573437E-2
 6.457448214600000E9    -5.760660395976032E-1   -1.320659528603386E-1   -7.685295687229237E-3    4.242683141220698E-2   -5.454618563838804E-3    4.208154107158127E-2   -5.336255548128366E-1   -3.289034078860825E-2
 6.457459871700000E9    -5.761646780353317E-1   -1.309815836569161E-1   -7.689393115025959E-3    4.253115862332517E-2   -5.410067453391875E-3    4.241855489869163E-2   -5.336411965017770E-1   -3.146133987976470E-2
 6.457471528800000E9    -5.765004449289943E-1   -1.299189878583492E-1   -7.543380867801651E-3    4.296570832263314E-2   -5.311762314797443E-3    4.263872515855244E-2   -5.337619530306835E-1   -3.007460822859383E-2
 6.457483185900000E9    -5.766730998008358E-1   -1.289190463495147E-1   -7.587443358569242E-3    4.335094624794214E-2   -5.266089964826913E-3    4.294215456191829E-2   -5.338797389572315E-1   -2.863379812688673E-2
 6.457494843000000E9    -5.768507948069378E-1   -1.278620668813211E-1   -7.554377549609894E-3    4.354511923920988E-2   -5.188060740549947E-3    4.324632048104141E-2   -5.339574984562284E-1   -2.719517138442923E-2
 6.457506500100000E9    -5.769734790080142E-1   -1.267428114268210E-1   -7.167814304558713E-3    4.395029516204048E-2   -5.086040360509122E-3    4.350606501568650E-2   -5.338336318442359E-1   -2.576502660290564E-2
 6.457518157200000E9    -5.771923594952530E-1   -1.256270699584934E-1   -7.240497351889247E-3    4.422364196992287E-2   -4.953657784237344E-3    4.388546029976795E-2   -5.339142719678990E-1   -2.434540914644310E-2
 6.457529814300000E9    -5.774883314032599E-1   -1.247152708159853E-1   -7.223089208664068E-3    4.466044917980248E-2   -4.989258338775901E-3    4.417869871751368E-2   -5.339500536220716E-1   -2.291783617578345E-2
 6.457541471400000E9    -5.775565879598776E-1   -1.236495228298819E-1   -7.195508216795573E-3    4.488603832202230E-2   -4.944823128602918E-3    4.441013074466778E-2   -5.339193632136383E-1   -2.151033543017372E-2
 6.457553128500000E9    -5.776991051408337E-1   -1.225433930379203E-1   -7.231232038864308E-3    4.525009441372332E-2   -4.741307197099853E-3    4.475977400573375E-2   -5.340413292871738E-1   -1.997062375076752E-2
 6.457564785600000E9    -5.779679098514312E-1   -1.215200972342231E-1   -7.048388318687900E-3    4.538623671479468E-2   -4.746421694168507E-3    4.516332674775892E-2   -5.342126155021124E-1   -1.843927126104151E-2
 6.457576442700000E9    -5.781187241033491E-1   -1.204372894009801E-1   -6.914613579420179E-3    4.585815300038581E-2   -4.542524212611172E-3    4.551511419002958E-2   -5.341635680453403E-1   -1.700969108548299E-2
 6.457588099800000E9    -5.781931533279476E-1   -1.194310614503136E-1   -6.912356272753237E-3    4.636593470808525E-2   -4.545806154702461E-3    4.585227856969374E-2   -5.341612106000755E-1   -1.554300864489181E-2
 6.457599756900000E9    -5.784344971217175E-1   -1.184173779281040E-1   -6.927828545451192E-3    4.652705346268408E-2   -4.543818526938764E-3    4.608016775067111E-2   -5.341401526190513E-1   -1.415952671473140E-2
 6.457611414000000E9    -5.786442839303031E-1   -1.172413688578776E-1   -6.707071483563525E-3    4.690889303855424E-2   -4.294471660164123E-3    4.647491244949303E-2   -5.341894137666090E-1   -1.254685158635951E-2
 6.457623071100000E9    -5.788274064606485E-1   -1.162093855143679E-1   -6.645178693327946E-3    4.727156265710359E-2   -4.241359508609930E-3    4.690241421860641E-2   -5.342135894358749E-1   -1.106733510588924E-2
 6.457634728200000E9    -5.789089560321198E-1   -1.152135399942048E-1   -6.591817766977540E-3    4.762354334521467E-2   -4.199429595151169E-3    4.713964012519434E-2   -5.341935193452801E-1   -9.436770959703201E-3
 6.457646385300000E9    -5.791433464003818E-1   -1.140304183412892E-1   -6.602472717499591E-3    4.790706572351588E-2   -4.166373399618858E-3    4.752688134930388E-2   -5.340532367271865E-1   -8.047564627707317E-3
 6.457658042400000E9    -5.793372418838969E-1   -1.130138212243813E-1   -6.395258352534427E-3    4.842782918657683E-2   -4.027288942980919E-3    4.793446371430265E-2   -5.340885082873891E-1   -6.436291844239121E-3
 6.457669699500000E9    -5.794401910596571E-1   -1.118858172162928E-1   -6.352806166851331E-3    4.880001278760011E-2   -3.914168954060292E-3    4.825271341358097E-2   -5.342777721650853E-1   -4.887422278027577E-3
 6.457681356600000E9    -5.794803672902552E-1   -1.107618350032360E-1   -6.164203117330708E-3    4.912352939247631E-2   -3.755568598341448E-3    4.861230283193083E-2   -5.340702666287366E-1   -3.373458938316706E-3
 6.457693013700000E9    -5.797587050073549E-1   -1.097374237171294E-1   -6.118926816194806E-3    4.951209529842500E-2   -3.650418783647891E-3    4.901129067637663E-2   -5.341499112075481E-1   -1.716358196815443E-3
 6.457704670800000E9    -5.799447981407897E-1   -1.086862797926488E-1   -6.117067443315497E-3    4.986812306113397E-2   -3.614615864092468E-3    4.939961030754487E-2   -5.339819923727893E-1   -3.373263269260534E-4
 6.457716327900000E9    -5.799119762028052E-1   -1.075726265365173E-1   -6.069003166327455E-3    5.036375378281925E-2   -3.445802445857181E-3    4.973244592051927E-2   -5.338675200034484E-1    1.379175793281624E-3
 6.457727985000000E9    -5.801337437235443E-1   -1.064625017015862E-1   -5.743387010694040E-3    5.070312944658412E-2   -3.296078247200101E-3    5.007891259687820E-2   -5.339662847602946E-1    3.015961616569206E-3
 6.457739642100000E9    -5.803157115340328E-1   -1.054438186196900E-1   -5.758531540794391E-3    5.112330483006821E-2   -3.222055226336431E-3    5.047851871493522E-2   -5.340601770743557E-1    4.638811708274205E-3
 6.457751299200000E9    -5.805479189094167E-1   -1.042202023863947E-1   -5.771363706315041E-3    5.141399780364987E-2   -3.114003950777215E-3    5.088594099440430E-2   -5.338365658495594E-1    6.225553618537024E-3
 6.457762956300000E9    -5.807040524407716E-1   -1.032595696951416E-1   -5.631877855291503E-3    5.195709698299214E-2   -2.998751356836201E-3    5.139953169364577E-2   -5.338680456026558E-1    7.822212046152060E-3
 6.457774613400000E9    -5.807409627646671E-1   -1.020808180032046E-1   -5.516095237885709E-3    5.243430325418427E-2   -2.944511509695632E-3    5.174686939881697E-2   -5.338272290342204E-1    9.482715915188934E-3
 6.457786270500000E9    -5.808612005434426E-1   -1.008967897748353E-1   -5.349306102516543E-3    5.284059991074269E-2   -2.700381402831696E-3    5.212050659472008E-2   -5.336656606803196E-1    1.127191016384302E-2
 6.457797927600000E9    -5.810067249794071E-1   -9.985825021362575E-2   -5.354877490412571E-3    5.320672768261634E-2   -2.589505786227166E-3    5.255469504026643E-2   -5.335787625170780E-1    1.285051507492728E-2
 6.457809584700000E9    -5.811482018616571E-1   -9.868371612153476E-2   -5.173383798886571E-3    5.367948923590783E-2   -2.549196887597641E-3    5.293076994070167E-2   -5.333352488015077E-1    1.449266021512599E-2
 6.457821241800000E9    -5.812979720731323E-1   -9.762048223568946E-2   -5.012175243750611E-3    5.411096797473794E-2   -2.362871816355205E-3    5.341741789536672E-2   -5.333403168208791E-1    1.618424763581372E-2
 6.457832898900000E9    -5.813449754219437E-1   -9.645850429008848E-2   -4.999317690111992E-3    5.448087824800486E-2   -2.242422130777219E-3    5.378491226759838E-2   -5.332445694636921E-1    1.787881654753001E-2
 6.457844556000000E9    -5.814647593003889E-1   -9.540378594937489E-2   -4.737081127533666E-3    5.489818868157240E-2   -2.224512933849660E-3    5.428717957990930E-2   -5.330442999035589E-1    1.956569196774638E-2
 6.457856213100000E9    -5.815765371305598E-1   -9.417348010937676E-2   -4.606821282593362E-3    5.542717076396107E-2   -1.985477979782314E-3    5.484002536811478E-2   -5.329726044241067E-1    2.126548988245950E-2
 6.457867870200000E9    -5.816684769735344E-1   -9.295827564705506E-2   -4.636282707997739E-3    5.601688364535475E-2   -1.779125890556514E-3    5.527393358095847E-2   -5.328215107514459E-1    2.301834415653068E-2
 6.457879527300000E9    -5.816508660691734E-1   -9.181086066032097E-2   -4.484144964653008E-3    5.648475508156857E-2   -1.682309512532551E-3    5.565116781421108E-2   -5.327250523946296E-1    2.475785611876312E-2
 6.457891184400000E9    -5.818119235104369E-1   -9.067360093979367E-2   -4.341437675478546E-3    5.697368839631664E-2   -1.493881943732118E-3    5.619396628419854E-2   -5.326067858905148E-1    2.662232996540314E-2
 6.457902841500000E9    -5.820145188314499E-1   -8.959465329998301E-2   -4.133177212189240E-3    5.754672420545789E-2   -1.342397150242556E-3    5.674159077002245E-2   -5.322616565776968E-1    2.831241539883454E-2
 6.457914498600000E9    -5.820525727478612E-1   -8.842897439809330E-2   -4.122646581367954E-3    5.795571890872289E-2   -1.150295952487688E-3    5.721101143143942E-2   -5.322195437159002E-1    3.005875383531136E-2
 6.457926155700000E9    -5.821643589516546E-1   -8.722036419468784E-2   -3.957582889094982E-3    5.853603365512742E-2   -1.055660419924717E-3    5.759293430833422E-2   -5.319891244990065E-1    3.198637167932099E-2
 6.457937812800000E9    -5.823388557933022E-1   -8.616162246777335E-2   -3.667111467219720E-3    5.908871644756871E-2   -7.539588207344869E-4    5.815793758691191E-2   -5.317794243682655E-1    3.390471871393287E-2
 6.457949469900000E9    -5.823649126716754E-1   -8.495390085811391E-2   -3.462644057891321E-3    5.967278229999911E-2   -6.002484960401241E-4    5.873131397309084E-2   -5.317093924629508E-1    3.562231485197549E-2
 6.457961127000000E9    -5.823946504515667E-1   -8.377072175556192E-2   -3.423920484266270E-3    6.007750332106517E-2   -3.933963707310143E-4    5.919318504499865E-2   -5.314768413100941E-1    3.748513446970656E-2
