#  HZ   S   RI   R     50.00 
! Rohde & Schwarz Vector Network Analyzer 
! Rohde-Schwarz,ZNB20-2Port,1311601062101988,3.16
! Created: UTC 3/20/2024, 11:05:53 PM
! freq[Hz]                re:S11                  im:S11                  re:S21                  im:S21                  re:S12                  im:S12                  re:S22                  im:S22
 6.456914477000000E9    -5.651219327298201E-1   -1.773225796191156E-1   -9.035542911061973E-3    3.194609625110626E-2   -7.402881614201337E-3    3.195069168630175E-2   -5.314867301035346E-1   -8.902508578119524E-2
 6.456926102725000E9    -5.652285176875305E-1   -1.762156065203599E-1   -8.986049791956526E-3    3.203691989820432E-2   -7.303017708073218E-3    3.205650079276407E-2   -5.317112750445228E-1   -8.787593651806813E-2
 6.456937728450000E9    -5.656464480048702E-1   -1.753371326021109E-1   -8.971386155706309E-3    3.243461015111536E-2   -7.171749928501641E-3    3.246676011273338E-2   -5.318016419950229E-1   -8.670710989259957E-2
 6.456949354175000E9    -5.658289029807974E-1   -1.742671068946373E-1   -9.072042213873525E-3    3.247227342281137E-2   -7.176019499538449E-3    3.244644937926380E-2   -5.320837442808357E-1   -8.553634323618797E-2
 6.456960979900000E9    -5.660851351537861E-1   -1.733769309053013E-1   -8.999263513762647E-3    3.265560860679204E-2   -7.218015247274725E-3    3.258147572556386E-2   -5.322571499203356E-1   -8.420875245058655E-2
 6.456972605625000E9    -5.664203589840879E-1   -1.724504039741854E-1   -8.914012617268895E-3    3.280206750266085E-2   -7.203538714137046E-3    3.284330182847212E-2   -5.323496969474542E-1   -8.296589881984230E-2
 6.456984231350000E9    -5.667477321149601E-1   -1.714335385837356E-1   -8.810399788311654E-3    3.302729217008146E-2   -7.192486624343992E-3    3.299555217946529E-2   -5.326226412957809E-1   -8.182752609606869E-2
 6.456995857075000E9    -5.669639947790103E-1   -1.705704510387412E-1   -8.713997099242038E-3    3.325594076208008E-2   -7.151354416316123E-3    3.329994467162905E-2   -5.327375804735998E-1   -8.058604640411997E-2
 6.457007482800000E9    -5.671990562326612E-1   -1.695087938100129E-1   -8.926528170732350E-3    3.341377964442973E-2   -7.081559559759934E-3    3.339864764803579E-2   -5.330380291578237E-1   -7.935144208860356E-2
 6.457019108525000E9    -5.674764774238886E-1   -1.686106595654571E-1   -8.982673551405506E-3    3.341831049708224E-2   -7.045000556126533E-3    3.345177195583900E-2   -5.331543376500503E-1   -7.823658191464658E-2
 6.457030734250000E9    -5.677026106568147E-1   -1.675351521482239E-1   -8.717875801006908E-3    3.384323290350180E-2   -6.957966336221418E-3    3.371414597052039E-2   -5.334297734165998E-1   -7.697837042900690E-2
 6.457042359975000E9    -5.679698371331531E-1   -1.666685888525667E-1   -8.837447132433514E-3    3.390413304424272E-2   -6.975054140645061E-3    3.398975259858906E-2   -5.335610837132844E-1   -7.577360373542959E-2
 6.457053985700000E9    -5.682691435439367E-1   -1.656069618622086E-1   -8.824849500255508E-3    3.444940711006751E-2   -6.877103253995404E-3    3.418375218925206E-2   -5.336739589913763E-1   -7.450640683215144E-2
 6.457065611425000E9    -5.684729139458617E-1   -1.645970719835578E-1   -8.661890019972467E-3    3.454560624442084E-2   -7.027686768154953E-3    3.431526725346179E-2   -5.339086712973523E-1   -7.327473652166033E-2
 6.457077237150000E9    -5.688207514967466E-1   -1.636617838478073E-1   -8.695686369530461E-3    3.460153191505788E-2   -6.882820940990938E-3    3.455260526796541E-2   -5.341154144293067E-1   -7.212772778784522E-2
 6.457088862875000E9    -5.691062556733673E-1   -1.627564231640764E-1   -8.680232488907196E-3    3.470743087168417E-2   -6.752007658804948E-3    3.473262544364884E-2   -5.340958882281676E-1   -7.081904555142454E-2
 6.457100488600000E9    -5.692554523119525E-1   -1.616406167172841E-1   -8.646484952379442E-3    3.495563785161033E-2   -6.752933932867536E-3    3.499317633536035E-2   -5.343068788241173E-1   -6.959347951122014E-2
 6.457112114325000E9    -5.695534039015727E-1   -1.607421881492848E-1   -8.661335066804140E-3    3.516262201373244E-2   -6.642347995757116E-3    3.517011961926175E-2   -5.343885851862060E-1   -6.820620663068110E-2
 6.457123740050000E9    -5.698637173948751E-1   -1.598016330188603E-1   -8.653900925927792E-3    3.544512685029826E-2   -6.764557863073755E-3    3.539254685221355E-2   -5.346169160747263E-1   -6.712159469843813E-2
 6.457135365775000E9    -5.701327439635163E-1   -1.588029604911957E-1   -8.499806127805020E-3    3.564492892389057E-2   -6.689786874648780E-3    3.556411608779252E-2   -5.347489197560661E-1   -6.583457444469422E-2
 6.457146991500000E9    -5.702738208343525E-1   -1.579242244062689E-1   -8.477173066652483E-3    3.593595965588212E-2   -6.607343782172283E-3    3.569452689135649E-2   -5.348588879759200E-1   -6.457044344441625E-2
 6.457158617225000E9    -5.705088894160545E-1   -1.568420676646598E-1   -8.531299129200431E-3    3.621998792746897E-2   -6.609828366898924E-3    3.610039809885696E-2   -5.350212592679117E-1   -6.326880125021962E-2
 6.457170242950000E9    -5.708017001470691E-1   -1.558766016350643E-1   -8.402119524548862E-3    3.645278530351156E-2   -6.564020635274333E-3    3.623812890387338E-2   -5.351391390550639E-1   -6.219069309527542E-2
 6.457181868675000E9    -5.710513162352453E-1   -1.549371238108726E-1   -8.469360080217979E-3    3.650997210509243E-2   -6.479798071498310E-3    3.649671406122864E-2   -5.352616857925657E-1   -6.071185426187811E-2
 6.457193494400000E9    -5.712910598618214E-1   -1.538253342093129E-1   -8.342509292187073E-3    3.681389931960005E-2   -6.489152904225740E-3    3.677160398920547E-2   -5.354600797850800E-1   -5.951199929691993E-2
 6.457205120125000E9    -5.714959528838627E-1   -1.529135437419588E-1   -8.309582377810383E-3    3.698524482789879E-2   -6.316684089276305E-3    3.691082627439849E-2   -5.354761423218083E-1   -5.831841449762060E-2
 6.457216745850000E9    -5.717620405260047E-1   -1.518365983357042E-1   -8.306728655255438E-3    3.732825441880776E-2   -6.449653231547097E-3    3.724544950745374E-2   -5.356267334197280E-1   -5.688440031650578E-2
 6.457228371575000E9    -5.719720595286020E-1   -1.509215433818359E-1   -8.246469301256325E-3    3.753227117911900E-2   -6.322379079889436E-3    3.731398928006911E-2   -5.358285463947511E-1   -5.562977387039906E-2
 6.457239997300000E9    -5.722729480346220E-1   -1.497907736773161E-1   -8.192151348597628E-3    3.780797234701213E-2   -6.233659763304633E-3    3.757763681369478E-2   -5.359599845669353E-1   -5.447254372014108E-2
 6.457251623025000E9    -5.724249283449913E-1   -1.489175442147599E-1   -8.302925934331948E-3    3.811079518367200E-2   -6.214207994720232E-3    3.781259130669078E-2   -5.359884941495306E-1   -5.308445049201298E-2
 6.457263248750000E9    -5.727278773278702E-1   -1.478629049594766E-1   -8.294704947289532E-3    3.820268415129432E-2   -6.189168387337267E-3    3.812828566378035E-2   -5.360914882959943E-1   -5.169265622408165E-2
 6.457274874475000E9    -5.729683061976945E-1   -1.468907597645494E-1   -8.138193369408088E-3    3.834659913893027E-2   -6.121880271627573E-3    3.832431161671097E-2   -5.361915788658426E-1   -5.035886952009123E-2
 6.457286500200000E9    -5.731355268866504E-1   -1.458153075866209E-1   -8.078271547664315E-3    3.885344756943813E-2   -6.051189002989656E-3    3.859802745773212E-2   -5.362307586045214E-1   -4.913158379372194E-2
 6.457298125925000E9    -5.732787809609505E-1   -1.449885137743217E-1   -8.062608294643855E-3    3.905337620551333E-2   -6.028724269635966E-3    3.881924873291652E-2   -5.364902205460942E-1   -4.779447507502207E-2
 6.457309751650000E9    -5.736439731816566E-1   -1.439177992263355E-1   -7.940798027950424E-3    3.933323922533601E-2   -5.931204682112392E-3    3.901166132116407E-2   -5.365126095381656E-1   -4.643530619373005E-2
 6.457321377375000E9    -5.738430316559953E-1   -1.429470923776654E-1   -7.929104239872378E-3    3.948013453926891E-2   -5.834199102370938E-3    3.932375320686139E-2   -5.367776733957412E-1   -4.519359415261086E-2
 6.457333003100000E9    -5.741057871817867E-1   -1.418824797054024E-1   -7.926054413325435E-3    3.963115697135541E-2   -5.884459235892966E-3    3.946097217957981E-2   -5.368149767447282E-1   -4.386061441020929E-2
 6.457344628825000E9    -5.742672808265186E-1   -1.407546953448239E-1   -7.853610838672727E-3    4.003769181039056E-2   -5.700573879894558E-3    3.976261958851345E-2   -5.369039842855386E-1   -4.244404750469725E-2
 6.457356254550000E9    -5.745516684750944E-1   -1.398776381221279E-1   -7.741123458443317E-3    4.042461690820022E-2   -5.681670063753290E-3    4.006296689662774E-2   -5.369765631828930E-1   -4.103254671817177E-2
 6.457367880275000E9    -5.747226869677692E-1   -1.388176437486281E-1   -7.765165100026200E-3    4.062545939920903E-2   -5.614219738662807E-3    4.029107768050792E-2   -5.370677743557110E-1   -3.961553080611819E-2
 6.457379506000000E9    -5.749249021555899E-1   -1.377232429274698E-1   -7.812232549405784E-3    4.076368711138441E-2   -5.633261183729325E-3    4.063847773911518E-2   -5.371240612643469E-1   -3.839727863856143E-2
 6.457391131725000E9    -5.751677936555953E-1   -1.367529167488005E-1   -7.715631070995103E-3    4.105689840033159E-2   -5.490828122225637E-3    4.086824531306255E-2   -5.372588006763870E-1   -3.704042837978885E-2
 6.457402757450000E9    -5.752086574800317E-1   -1.357616147025950E-1   -7.568726991538984E-3    4.143885841216375E-2   -5.462467744957379E-3    4.118900192648793E-2   -5.372825169849406E-1   -3.564156884228371E-2
 6.457414383175000E9    -5.754807553460498E-1   -1.346497969054414E-1   -7.633293072598969E-3    4.171064310062828E-2   -5.400405883339804E-3    4.142553508122539E-2   -5.372214906469438E-1   -3.435508022610627E-2
 6.457426008900000E9    -5.757470297317476E-1   -1.337218656345480E-1   -7.550698904520873E-3    4.201797281072740E-2   -5.375927554363056E-3    4.162003372477489E-2   -5.373387169852328E-1   -3.274297981702497E-2
 6.457437634625000E9    -5.759054693083064E-1   -1.325405354732190E-1   -7.555866836867283E-3    4.231454133462306E-2   -5.287762962163509E-3    4.186348298958999E-2   -5.374985918001536E-1   -3.137314654201342E-2
 6.457449260350000E9    -5.761681060579389E-1   -1.316493104313311E-1   -7.391574191677354E-3    4.246428807731128E-2   -5.220850871764904E-3    4.226310696240734E-2   -5.376379571120704E-1   -2.998903931323242E-2
 6.457460886075000E9    -5.762875760008508E-1   -1.305690662225290E-1   -7.399094002785055E-3    4.285560846711127E-2   -5.147797084474603E-3    4.255392715702595E-2   -5.375083321372512E-1   -2.875508575558677E-2
 6.457472511800000E9    -5.765473739705397E-1   -1.295419763271833E-1   -7.323687426011308E-3    4.300932463006964E-2   -5.116613382131555E-3    4.280164610666461E-2   -5.374861143750718E-1   -2.728671207600772E-2
 6.457484137525000E9    -5.767172397039264E-1   -1.284177019388189E-1   -7.127409322980780E-3    4.350129232075159E-2   -4.976237585701726E-3    4.305342440021202E-2   -5.377349742542995E-1   -2.576315043856392E-2
 6.457495763250000E9    -5.768394612835173E-1   -1.274749796072173E-1   -7.212865330782851E-3    4.364151846390715E-2   -4.915249698954001E-3    4.333076988586525E-2   -5.377787851895587E-1   -2.439212728592057E-2
 6.457507388975000E9    -5.770751423180862E-1   -1.264474662209571E-1   -7.200727320514748E-3    4.399277004654793E-2   -4.862880848253892E-3    4.380916152751610E-2   -5.377592948931906E-1   -2.289938405896821E-2
 6.457519014700000E9    -5.772906869146677E-1   -1.254704590445690E-1   -7.044847019765951E-3    4.443886111096013E-2   -4.774472653139795E-3    4.402531908623068E-2   -5.377214491072608E-1   -2.156532631270935E-2
 6.457530640425000E9    -5.775095675097146E-1   -1.243290594090063E-1   -7.023537856738931E-3    4.490268511194280E-2   -4.710308653370884E-3    4.439290624747388E-2   -5.378697448051207E-1   -2.011208692564945E-2
 6.457542266150000E9    -5.775738137364911E-1   -1.233501167510305E-1   -6.911597610076510E-3    4.507200982226402E-2   -4.607686047671505E-3    4.467817114011530E-2   -5.377845814127740E-1   -1.877478689652340E-2
 6.457553891875000E9    -5.778475518335858E-1   -1.222162690063427E-1   -6.773702707477176E-3    4.534607946047237E-2   -4.593280706081120E-3    4.501798500192900E-2   -5.378197220372721E-1   -1.711422734391603E-2
 6.457565517600000E9    -5.780363964793980E-1   -1.211958177996363E-1   -6.832159026113914E-3    4.563931927831655E-2   -4.394355636492141E-3    4.524230020816451E-2   -5.378289186014330E-1   -1.564557209005346E-2
 6.457577143325000E9    -5.780904355638474E-1   -1.202322451800601E-1   -6.650027651506649E-3    4.603290103202477E-2   -4.281072181580504E-3    4.566019836052385E-2   -5.377573162900755E-1   -1.415935420745992E-2
 6.457588769050000E9    -5.783241173832416E-1   -1.190713443811844E-1   -6.629840727866178E-3    4.635346695304977E-2   -4.239220809824816E-3    4.592279010387144E-2   -5.378715129589350E-1   -1.271292036901118E-2
 6.457600394775000E9    -5.785789864926852E-1   -1.180046500753430E-1   -6.584506935176793E-3    4.677082974598035E-2   -4.214266525315774E-3    4.641592294205089E-2   -5.378067425853079E-1   -1.130984038327609E-2
 6.457612020500000E9    -5.787399508701676E-1   -1.168657635382802E-1   -6.526234560798740E-3    4.705016154653967E-2   -4.046098772592517E-3    4.664242159237279E-2   -5.377666702959146E-1   -9.696601807836495E-3
 6.457623646225000E9    -5.787046908868877E-1   -1.158565320638959E-1   -6.453584590645329E-3    4.746387847145983E-2   -3.964255670007818E-3    4.693971356920341E-2   -5.378927498754374E-1   -8.292023372991883E-3
 6.457635271950000E9    -5.790149310724148E-1   -1.148810990188436E-1   -6.366854898362668E-3    4.794643896899515E-2   -3.889452987042978E-3    4.739822016475738E-2   -5.377313623401864E-1   -6.739730493138441E-3
 6.457646897675000E9    -5.792318161392580E-1   -1.137550490323890E-1   -6.322082433572601E-3    4.824722740747148E-2   -3.789403413696338E-3    4.761562634406127E-2   -5.378894864298284E-1   -5.027503270635796E-3
 6.457658523400000E9    -5.793346518212402E-1   -1.126573153067752E-1   -6.146095080766942E-3    4.849920990233975E-2   -3.665379599593549E-3    4.800966381724267E-2   -5.378734775181709E-1   -3.518903038885405E-3
 6.457670149125000E9    -5.794354157521774E-1   -1.116217781601791E-1   -6.119929485984592E-3    4.878287699663546E-2   -3.560038930978497E-3    4.837145806951348E-2   -5.377586150272359E-1   -2.041268506490490E-3
 6.457681774850000E9    -5.796749513635813E-1   -1.104398144083805E-1   -5.905259285663675E-3    4.933879363550394E-2   -3.426139078129031E-3    4.878148198201346E-2   -5.375633202421434E-1   -5.771960196255090E-4
 6.457693400575000E9    -5.797573202883722E-1   -1.094155207693895E-1   -5.889248399755495E-3    4.971490367692184E-2   -3.347176566813234E-3    4.908614687715506E-2   -5.376701692796022E-1    1.065153204854632E-3
 6.457705026300000E9    -5.800039749484001E-1   -1.083893198225792E-1   -5.914303685981600E-3    5.017916586730171E-2   -3.296714801463680E-3    4.956566803247162E-2   -5.374717260867712E-1    2.702873908696975E-3
 6.457716652025000E9    -5.800748893577742E-1   -1.072813462469804E-1   -5.699558627829249E-3    5.046013652906040E-2   -3.136310196360096E-3    4.992960783459248E-2   -5.375758868480334E-1    4.341391699112653E-3
 6.457728277750000E9    -5.802102687408442E-1   -1.061012159663120E-1   -5.649874941353065E-3    5.075174921288411E-2   -2.999571287829120E-3    5.033777324660946E-2   -5.375808715327003E-1    5.799207060946279E-3
 6.457739903475000E9    -5.803416266556812E-1   -1.049984404994937E-1   -5.419646294523133E-3    5.129599479561433E-2   -2.966359162908546E-3    5.059587392282137E-2   -5.373771917571358E-1    7.492854565380194E-3
 6.457751529200000E9    -5.806131666276199E-1   -1.039197636180886E-1   -5.269213191800846E-3    5.179858467565341E-2   -2.795101090580843E-3    5.105477539890330E-2   -5.374392593332296E-1    9.129503789564095E-3
 6.457763154925000E9    -5.806758023252856E-1   -1.028335904222397E-1   -5.270569804954965E-3    5.220619795227121E-2   -2.640110134262514E-3    5.148383646273622E-2   -5.372890278907931E-1    1.067717549516843E-2
 6.457774780650000E9    -5.808473496332290E-1   -1.017596744002557E-1   -5.156685844640370E-3    5.243659194884718E-2   -2.514365254783451E-3    5.188030206455434E-2   -5.372164873681925E-1    1.233225816197178E-2
 6.457786406375000E9    -5.808055433723115E-1   -1.005752052287350E-1   -5.168629190351890E-3    5.296931654865320E-2   -2.416007116864198E-3    5.224048187548493E-2   -5.370530157292251E-1    1.414643458973999E-2
 6.457798032100000E9    -5.810349941813940E-1   -9.945248809708494E-2   -5.018851183756600E-3    5.343416389776089E-2   -2.150926679051315E-3    5.263402596116473E-2   -5.368720896888675E-1    1.558754394676451E-2
 6.457809657825000E9    -5.811327780525626E-1   -9.828475448870894E-2   -4.760875088705866E-3    5.371837286986952E-2   -2.039895286835320E-3    5.312317614746510E-2   -5.368600657604076E-1    1.739372578428531E-2
 6.457821283550000E9    -5.813174685396100E-1   -9.725041338956590E-2   -4.721573807190834E-3    5.440613432408950E-2   -2.034659368390221E-3    5.354899049232842E-2   -5.367381048407757E-1    1.899089525384162E-2
 6.457832909275000E9    -5.813775767478058E-1   -9.610317531365359E-2   -4.659399807875081E-3    5.492780380807590E-2   -1.869119989011678E-3    5.400127199772058E-2   -5.366144828593501E-1    2.080629844011814E-2
 6.457844535000000E9    -5.815550037747550E-1   -9.501946719698859E-2   -4.518295095474274E-3    5.508137048376235E-2   -1.703675125344790E-3    5.445723618134921E-2   -5.363757932645001E-1    2.239809921987467E-2
 6.457856160725000E9    -5.815824884009008E-1   -9.381740787559899E-2   -4.436142084747514E-3    5.563481513046654E-2   -1.609089070681644E-3    5.489699017546974E-2   -5.362925264503032E-1    2.425487078600543E-2
 6.457867786450000E9    -5.818058592956932E-1   -9.283594752341538E-2   -4.258781312874319E-3    5.631639173066563E-2   -1.433540182920247E-3    5.534218290717724E-2   -5.361545104976759E-1    2.605902181929441E-2
 6.457879412175000E9    -5.819002555060733E-1   -9.162525911962346E-2   -4.159518971017470E-3    5.674806526188482E-2   -1.268465317470587E-3    5.587890867409285E-2   -5.360760019550577E-1    2.776379089282293E-2
 6.457891037900000E9    -5.818753141398623E-1   -9.047019129691646E-2   -3.967509621359595E-3    5.711125417506172E-2   -1.114099463525832E-3    5.633200129821072E-2   -5.358142549251771E-1    2.942650047223470E-2
 6.457902663625000E9    -5.819763922257470E-1   -8.923608763282342E-2   -3.810127039952092E-3    5.762984830699049E-2   -9.059207620351399E-4    5.681230329661587E-2   -5.356862679513780E-1    3.121631046995951E-2
 6.457914289350000E9    -5.820704056777358E-1   -8.810132601090573E-2   -3.718562573400706E-3    5.825254074118807E-2   -8.165607511109514E-4    5.729271791628322E-2   -5.353575952553271E-1    3.297157582972224E-2
 6.457925915075000E9    -5.821742768668707E-1   -8.702616258769412E-2   -3.365371050014348E-3    5.871119338092524E-2   -5.119630654067085E-4    5.775162436277158E-2   -5.353295761509518E-1    3.484328987462152E-2
 6.457937540800000E9    -5.823613280879739E-1   -8.578091815192029E-2   -3.255523333355249E-3    5.915688914095591E-2   -4.504255750553995E-4    5.823444314846508E-2   -5.349566944482523E-1    3.662565656453009E-2
 6.457949166525000E9    -5.823704479804823E-1   -8.467887741387217E-2   -3.203492537780651E-3    5.971896602642273E-2   -2.525168004485526E-4    5.879567703834652E-2   -5.347204912666677E-1    3.851380156724318E-2
 6.457960792250000E9    -5.823946344299450E-1   -8.343629675481343E-2   -3.063267126747962E-3    6.017444414001166E-2   -1.329286213964248E-4    5.940590666914716E-2   -5.345174420645539E-1    4.038586430925559E-2
