#  HZ   S   RI   R     50.00 
! Rohde & Schwarz Vector Network Analyzer 
! Rohde-Schwarz,ZNB20-2Port,1311601062101988,3.16
! Created: UTC 3/20/2024, 11:06:07 PM
! freq[Hz]                re:S11                  im:S11                  re:S21                  im:S21                  re:S12                  im:S12                  re:S22                  im:S22
 6.456908795000000E9    -5.648106362610201E-1   -1.776123781934169E-1   -9.122358961811043E-3    3.187165252290819E-2   -7.391019678133608E-3    3.192786043866062E-2   -5.311737748572583E-1   -8.967520764448748E-2
 6.456920442000000E9    -5.652004200694728E-1   -1.766640812581562E-1   -9.008354862123447E-3    3.203505706955164E-2   -7.284206814143125E-3    3.201324952537336E-2   -5.310817044521364E-1   -8.833780890205641E-2
 6.456932089000000E9    -5.654580728012101E-1   -1.756390451133605E-1   -9.038576356496467E-3    3.218060726204670E-2   -7.347943519199054E-3    3.217853849461393E-2   -5.313415814863703E-1   -8.719835653956554E-2
 6.456943736000000E9    -5.658244125019927E-1   -1.747674652305418E-1   -9.026297033990879E-3    3.236771771829509E-2   -7.334032743215813E-3    3.239186232919165E-2   -5.314706848548145E-1   -8.604345901799515E-2
 6.456955383000000E9    -5.660769301395659E-1   -1.736752380836311E-1   -8.925584999295728E-3    3.264551315927647E-2   -7.195225138641506E-3    3.252361343118781E-2   -5.317364188892038E-1   -8.496852106775858E-2
 6.456967030000000E9    -5.663611576272782E-1   -1.728023360826348E-1   -8.907085615375846E-3    3.273944240109308E-2   -7.174514310414576E-3    3.273894383805993E-2   -5.317439746372646E-1   -8.357158205929560E-2
 6.456978677000000E9    -5.664991214905717E-1   -1.718764328446072E-1   -8.930421378629124E-3    3.295530185646636E-2   -7.277697820689833E-3    3.290400438713965E-2   -5.321269452561959E-1   -8.245592377121541E-2
 6.456990324000000E9    -5.668443174649137E-1   -1.707970088850709E-1   -8.937402382093364E-3    3.312025245985922E-2   -7.234332084082628E-3    3.316352079725623E-2   -5.323264651540609E-1   -8.134148490336884E-2
 6.457001971000000E9    -5.671165092321364E-1   -1.698233438473408E-1   -8.869792645526477E-3    3.339145235080396E-2   -7.096204323803077E-3    3.328139408016354E-2   -5.324735911777573E-1   -8.021144129729164E-2
 6.457013618000000E9    -5.673106835124195E-1   -1.688413684534146E-1   -8.737350176143559E-3    3.353380259583145E-2   -7.130939144140651E-3    3.349213352852020E-2   -5.326806980119294E-1   -7.892473423686325E-2
 6.457025265000000E9    -5.676683718400547E-1   -1.679004808296499E-1   -8.880196565882487E-3    3.371409828977766E-2   -7.095040966860392E-3    3.368555059359978E-2   -5.327692284068204E-1   -7.771529455504252E-2
 6.457036912000000E9    -5.679390724365878E-1   -1.669861911123180E-1   -8.739145169665339E-3    3.400207027426083E-2   -6.983803701424612E-3    3.387579171132714E-2   -5.329532126675296E-1   -7.633365660854208E-2
 6.457048559000000E9    -5.681934841578908E-1   -1.660557164767695E-1   -8.825900255927862E-3    3.412986380239447E-2   -6.913727059370886E-3    3.408052282741635E-2   -5.331565922247843E-1   -7.524198646237008E-2
 6.457060206000000E9    -5.684611603025873E-1   -1.651660470055273E-1   -8.847536787385986E-3    3.438722932360849E-2   -6.908740627720122E-3    3.424882773150888E-2   -5.334022520277039E-1   -7.404743016288848E-2
 6.457071853000000E9    -5.687682293432305E-1   -1.640927328804360E-1   -8.688261013166675E-3    3.462889073018786E-2   -6.868985841956604E-3    3.449246594675301E-2   -5.334000332104130E-1   -7.283664732822499E-2
 6.457083500000000E9    -5.689856162221810E-1   -1.630124070420077E-1   -8.666972948909751E-3    3.490300067997131E-2   -6.864942356218092E-3    3.466451349417713E-2   -5.335369269730298E-1   -7.153108022078189E-2
 6.457095147000000E9    -5.692613270171059E-1   -1.621578707999025E-1   -8.769549298400093E-3    3.489164214986833E-2   -6.917223417618698E-3    3.488368033957869E-2   -5.337989310671962E-1   -7.031283531870471E-2
 6.457106794000000E9    -5.694763957195720E-1   -1.610519164018080E-1   -8.663434055650090E-3    3.522164784763471E-2   -6.798021754568632E-3    3.507758444612140E-2   -5.340345367818659E-1   -6.910915654407558E-2
 6.457118441000000E9    -5.697041445487200E-1   -1.601750516688086E-1   -8.574199274168637E-3    3.549646082961280E-2   -6.783585175405464E-3    3.532137369945396E-2   -5.340652011752651E-1   -6.783108507692451E-2
 6.457130088000000E9    -5.700091770506026E-1   -1.591720681131977E-1   -8.683361403598671E-3    3.564522626993701E-2   -6.697627004206648E-3    3.552481607825786E-2   -5.341264441282865E-1   -6.657394724680882E-2
 6.457141735000000E9    -5.702380487254880E-1   -1.581863245945629E-1   -8.617291821238387E-3    3.579814844880437E-2   -6.660747282103377E-3    3.574064894678661E-2   -5.344099512563892E-1   -6.535141205242560E-2
 6.457153382000000E9    -5.704919306927474E-1   -1.572508588361046E-1   -8.611835156014767E-3    3.589415816713155E-2   -6.652394210874462E-3    3.599875454281122E-2   -5.345071270269209E-1   -6.403172659598828E-2
 6.457165029000000E9    -5.707026664323355E-1   -1.562975021153963E-1   -8.460206207033532E-3    3.628808472825645E-2   -6.645546267122051E-3    3.612107898378539E-2   -5.346080170216285E-1   -6.278263620672636E-2
 6.457176676000000E9    -5.709456044523592E-1   -1.552920019987513E-1   -8.433590014004504E-3    3.651521896454101E-2   -6.474051493442420E-3    3.628788556656250E-2   -5.347830615901366E-1   -6.150312696029911E-2
 6.457188323000000E9    -5.711860409164389E-1   -1.543109993969457E-1   -8.407043274020838E-3    3.653021623142470E-2   -6.499614384554682E-3    3.656201016766656E-2   -5.348828020582036E-1   -6.024658685421051E-2
 6.457199970000000E9    -5.714254200565300E-1   -1.532111247043137E-1   -8.556022680712476E-3    3.690452756293106E-2   -6.378492433200940E-3    3.688653173464745E-2   -5.349623456345990E-1   -5.888019764130605E-2
 6.457211617000000E9    -5.716719349744964E-1   -1.522998274227733E-1   -8.358809438869906E-3    3.718031250848147E-2   -6.434015386681119E-3    3.705936010631575E-2   -5.352322376072789E-1   -5.769419334547351E-2
 6.457223264000000E9    -5.719182133852443E-1   -1.512948644783357E-1   -8.337133888635086E-3    3.742463064370233E-2   -6.350794610635388E-3    3.717920056470649E-2   -5.352785515480815E-1   -5.625536737103178E-2
 6.457234911000000E9    -5.721663038802043E-1   -1.502631176785417E-1   -8.180529575059934E-3    3.759622149076589E-2   -6.255496208944685E-3    3.752329392676862E-2   -5.354910644150287E-1   -5.496829139567821E-2
 6.457246558000000E9    -5.723762813993043E-1   -1.491936596512760E-1   -8.155280380779596E-3    3.794187836089545E-2   -6.297245548864190E-3    3.779224350156988E-2   -5.355584553229646E-1   -5.371155956908640E-2
 6.457258205000000E9    -5.725711256948940E-1   -1.482511095709125E-1   -8.132426011235571E-3    3.814375091565921E-2   -6.128769663665795E-3    3.806418444208670E-2   -5.356543081749811E-1   -5.244994748375185E-2
 6.457269852000000E9    -5.728072699690950E-1   -1.472058898331771E-1   -8.117479771013262E-3    3.856343331457186E-2   -6.099306331875821E-3    3.821993994656440E-2   -5.356844331477492E-1   -5.117973730086282E-2
 6.457281499000000E9    -5.730443826985148E-1   -1.462704166175952E-1   -8.201197458838934E-3    3.862706523982473E-2   -6.105368983670869E-3    3.848928118534957E-2   -5.358757420468970E-1   -4.984671855694352E-2
 6.457293146000000E9    -5.732169001272492E-1   -1.452014055805163E-1   -8.022921806759287E-3    3.896225891150128E-2   -6.074848868108262E-3    3.869079870162266E-2   -5.359809037496478E-1   -4.865719630565200E-2
 6.457304793000000E9    -5.734407620461421E-1   -1.441233055883547E-1   -7.977364388660613E-3    3.910368643542823E-2   -5.987448644520952E-3    3.898050589220282E-2   -5.361884660389312E-1   -4.715304456055044E-2
 6.457316440000000E9    -5.737139594932060E-1   -1.431953198515062E-1   -8.089622203510378E-3    3.947665598024060E-2   -5.870395139687372E-3    3.914794229237183E-2   -5.361776758880547E-1   -4.585058861207869E-2
 6.457328087000000E9    -5.739234207422962E-1   -1.422430670351389E-1   -7.992221245357442E-3    3.959234756609130E-2   -5.969447771198760E-3    3.942572881514859E-2   -5.363831996469884E-1   -4.468788065975282E-2
 6.457339734000000E9    -5.741802486448329E-1   -1.411689010114906E-1   -7.910023495870038E-3    3.997556286280737E-2   -5.819234198252841E-3    3.965209513084854E-2   -5.364647590644502E-1   -4.307679349250062E-2
 6.457351381000000E9    -5.744248771784449E-1   -1.401246959919747E-1   -7.874316188378715E-3    4.023802691470995E-2   -5.641367459144411E-3    3.998127823359880E-2   -5.364269876914622E-1   -4.179161354235633E-2
 6.457363028000000E9    -5.746608066915604E-1   -1.391520198867983E-1   -7.803937905610999E-3    4.038032002905829E-2   -5.764148162775254E-3    4.019685787829471E-2   -5.365267530798532E-1   -4.045403334321533E-2
 6.457374675000000E9    -5.747935245662861E-1   -1.380737601290009E-1   -7.656470592849755E-3    4.079927871617583E-2   -5.663612009651744E-3    4.057653573586341E-2   -5.366393309930266E-1   -3.910137720031879E-2
 6.457386322000000E9    -5.749908031479473E-1   -1.370580198506009E-1   -7.725784766802990E-3    4.115594088792621E-2   -5.544627148793857E-3    4.084536304436275E-2   -5.368094391270752E-1   -3.773844885890448E-2
 6.457397969000000E9    -5.751938953514512E-1   -1.360544716286224E-1   -7.670051885983368E-3    4.139022727902973E-2   -5.521884803249195E-3    4.102838519735833E-2   -5.366600147104443E-1   -3.630866940173234E-2
 6.457409616000000E9    -5.753938729482944E-1   -1.350632840864872E-1   -7.659857228364431E-3    4.159899630596995E-2   -5.435733404175806E-3    4.134988265830723E-2   -5.369554019263315E-1   -3.488667486278144E-2
 6.457421263000000E9    -5.756054099543571E-1   -1.339846889106310E-1   -7.551840090420448E-3    4.185227826194694E-2   -5.436771647616931E-3    4.168073779618691E-2   -5.369370936577698E-1   -3.359424673126873E-2
 6.457432910000000E9    -5.758368173276899E-1   -1.329472926155955E-1   -7.556680763302731E-3    4.220161515983886E-2   -5.255567219345557E-3    4.181047727348746E-2   -5.369457807579260E-1   -3.214329452105846E-2
 6.457444557000000E9    -5.760494842824720E-1   -1.319287931786176E-1   -7.394384162981112E-3    4.250350319229203E-2   -5.253872850154638E-3    4.209849008100609E-2   -5.369663610425415E-1   -3.077508617949495E-2
 6.457456204000000E9    -5.761819138089463E-1   -1.309700365869252E-1   -7.410094566919896E-3    4.282506347710840E-2   -5.191951027703344E-3    4.244671471345434E-2   -5.370786490090601E-1   -2.931227464170996E-2
 6.457467851000000E9    -5.763833314500764E-1   -1.298686972700597E-1   -7.292556052219279E-3    4.319357450159336E-2   -5.101356432095810E-3    4.278699415853369E-2   -5.370862932101058E-1   -2.788965069624853E-2
 6.457479498000000E9    -5.766439723617538E-1   -1.288113011310492E-1   -7.177490964346537E-3    4.340326602913182E-2   -5.036594767035606E-3    4.302789981852589E-2   -5.371344921257897E-1   -2.635734342500283E-2
 6.457491145000000E9    -5.768083701303139E-1   -1.278047210149091E-1   -7.213391184409468E-3    4.376183425701668E-2   -4.918892695339839E-3    4.335338717990139E-2   -5.372278970326390E-1   -2.501372669956737E-2
 6.457502792000000E9    -5.770324077289778E-1   -1.266898346154061E-1   -7.091735832358172E-3    4.407609489460101E-2   -4.886960363834856E-3    4.367136830169559E-2   -5.373925959874288E-1   -2.366158087375454E-2
 6.457514439000000E9    -5.772480845924411E-1   -1.257329622735592E-1   -7.074354103003475E-3    4.428806869031029E-2   -4.745079114402259E-3    4.391336567885232E-2   -5.372756027953157E-1   -2.223382732801754E-2
 6.457526086000000E9    -5.773379199745571E-1   -1.246292235479551E-1   -7.021402824613861E-3    4.474861845858003E-2   -4.693382538996645E-3    4.420898030983596E-2   -5.374586743753899E-1   -2.076953388927328E-2
 6.457537733000000E9    -5.774500926210105E-1   -1.236241101672775E-1   -6.997222086155031E-3    4.493688880858339E-2   -4.636648124309173E-3    4.455010194525633E-2   -5.373960484362158E-1   -1.928430043706648E-2
 6.457549380000000E9    -5.778042495937065E-1   -1.225386500047651E-1   -6.877296181687229E-3    4.521773708706443E-2   -4.563946317809088E-3    4.483231192398556E-2   -5.372935241003298E-1   -1.787192504033884E-2
 6.457561027000000E9    -5.779319847685391E-1   -1.214445923339020E-1   -6.884326296750036E-3    4.563388592464580E-2   -4.481394618948124E-3    4.524514054803867E-2   -5.374824589506028E-1   -1.650428013799796E-2
 6.457572674000000E9    -5.781593640764234E-1   -1.204655650255868E-1   -6.632103932668029E-3    4.596220546258354E-2   -4.512277217019908E-3    4.560032010094976E-2   -5.373696874420171E-1   -1.489043112901643E-2
 6.457584321000000E9    -5.782807061663721E-1   -1.193476152364075E-1   -6.697281416178390E-3    4.630933452644573E-2   -4.316958642753164E-3    4.585013219532912E-2   -5.374533891529174E-1   -1.336126419457476E-2
 6.457595968000000E9    -5.785665891724658E-1   -1.182656379398011E-1   -6.542819690146120E-3    4.671144766727671E-2   -4.257780910130446E-3    4.617394240342482E-2   -5.373555721171558E-1   -1.193658750016697E-2
 6.457607615000000E9    -5.786501873044277E-1   -1.172514458443511E-1   -6.505527256360205E-3    4.694551188935545E-2   -4.070575629456417E-3    4.651552516184219E-2   -5.374657835338200E-1   -1.052699162364129E-2
 6.457619262000000E9    -5.787750448417381E-1   -1.161973636724156E-1   -6.331737148675529E-3    4.742859951878322E-2   -4.006953258735645E-3    4.687944400531631E-2   -5.374713898305311E-1   -8.893365306530994E-3
 6.457630909000000E9    -5.789066507354449E-1   -1.150777021724270E-1   -6.338109875155180E-3    4.770207509880844E-2   -3.930337607241034E-3    4.721380139143073E-2   -5.374368025880831E-1   -7.255910904184816E-3
 6.457642556000000E9    -5.790790147832420E-1   -1.140322807523408E-1   -6.270725909846167E-3    4.818241773847767E-2   -3.918881850113692E-3    4.756046187466686E-2   -5.374515423468628E-1   -5.858372437889499E-3
 6.457654203000000E9    -5.793699296032634E-1   -1.130049606788904E-1   -6.112198321355592E-3    4.842908861590213E-2   -3.658890361298420E-3    4.788212126996134E-2   -5.373604537319769E-1   -4.357069795549087E-3
 6.457665850000000E9    -5.794140696940121E-1   -1.118521675882089E-1   -6.078042669193902E-3    4.882417709524835E-2   -3.643057528687123E-3    4.829564114528313E-2   -5.374047695032106E-1   -2.791295612122307E-3
 6.457677497000000E9    -5.795567859987206E-1   -1.109561715985408E-1   -5.975573909957494E-3    4.922861625479611E-2   -3.418981603696545E-3    4.872341342471333E-2   -5.373027344904987E-1   -1.347286119264580E-3
 6.457689144000000E9    -5.797148468502454E-1   -1.096605844154079E-1   -5.942722933857521E-3    4.941694874529074E-2   -3.404340364527998E-3    4.902766480838365E-2   -5.370991014015154E-1    4.416168508592096E-4
 6.457700791000000E9    -5.798692716727897E-1   -1.086801811125899E-1   -5.887842196534526E-3    5.011745097418335E-2   -3.381350904341524E-3    4.939091590673651E-2   -5.372764216646710E-1    2.010223696415263E-3
 6.457712438000000E9    -5.800673067798962E-1   -1.075456702631065E-1   -5.811676845395158E-3    5.039209434770917E-2   -3.222221692699579E-3    4.969199752745856E-2   -5.372188348089313E-1    3.532429010178059E-3
 6.457724085000000E9    -5.800985127366037E-1   -1.063603056655931E-1   -5.686539984637941E-3    5.068719454808939E-2   -3.152794799547693E-3    5.019063029279852E-2   -5.369330352818144E-1    5.128574149474443E-3
 6.457735732000000E9    -5.803097345372755E-1   -1.053100307958988E-1   -5.552632812376310E-3    5.109566125429935E-2   -2.937655960493479E-3    5.056460602841282E-2   -5.370897128234227E-1    6.758400942829115E-3
 6.457747379000000E9    -5.803891716445788E-1   -1.042397121409121E-1   -5.474755792543194E-3    5.151825164836864E-2   -2.855029961212000E-3    5.095591935319811E-2   -5.369474075268510E-1    8.372030477796435E-3
 6.457759026000000E9    -5.806394145827012E-1   -1.031218972026021E-1   -5.282335273791970E-3    5.200985216598059E-2   -2.778715167615052E-3    5.139983379486807E-2   -5.368583566935793E-1    9.893987615910141E-3
 6.457770673000000E9    -5.806740389157530E-1   -1.019588043433943E-1   -5.285224366616516E-3    5.251417345572713E-2   -2.677547058806320E-3    5.173023914428636E-2   -5.367225785441302E-1    1.167293089695997E-2
 6.457782320000000E9    -5.808502138263310E-1   -1.009595404604082E-1   -5.098029024448935E-3    5.298657972701127E-2   -2.549322335372736E-3    5.209797290614700E-2   -5.368045790086670E-1    1.332634884505308E-2
 6.457793967000000E9    -5.810032487750647E-1   -9.977548295188479E-2   -5.140287364155486E-3    5.335555139291909E-2   -2.436946248257991E-3    5.258175872017931E-2   -5.365821597678534E-1    1.495922024492372E-2
 6.457805614000000E9    -5.810868376438515E-1   -9.860637809253345E-2   -4.869091113071686E-3    5.380883055999174E-2   -2.190667481438720E-3    5.299205470890659E-2   -5.363604620585437E-1    1.676830225109536E-2
 6.457817261000000E9    -5.812144269637609E-1   -9.752069698150782E-2   -4.865533451412404E-3    5.410695904373786E-2   -2.073559251776833E-3    5.334661374185853E-2   -5.364846885279907E-1    1.835754802994974E-2
 6.457828908000000E9    -5.813482614824211E-1   -9.638120586172670E-2   -4.640770830276969E-3    5.461059057455590E-2   -1.975683045984143E-3    5.390723467671372E-2   -5.361693383386062E-1    2.003843466847425E-2
 6.457840555000000E9    -5.814961017947960E-1   -9.524691289425849E-2   -4.476860108900678E-3    5.512283296173306E-2   -1.766552017651088E-3    5.424703509022887E-2   -5.361697924955796E-1    2.174048350446991E-2
 6.457852202000000E9    -5.815831398356343E-1   -9.409950959198221E-2   -4.357102506566136E-3    5.554882750990583E-2   -1.662623583022866E-3    5.479365311938959E-2   -5.359509632255619E-1    2.344581733908834E-2
 6.457863849000000E9    -5.817503473581510E-1   -9.298422127738677E-2   -4.179885563453812E-3    5.611559068482131E-2   -1.482141211915235E-3    5.532025978299134E-2   -5.358260442591397E-1    2.515477452630625E-2
 6.457875496000000E9    -5.817512893050216E-1   -9.195015977555075E-2   -4.125284682297979E-3    5.650218460692453E-2   -1.303239620627559E-3    5.576033272795234E-2   -5.356124328439753E-1    2.713138286762640E-2
 6.457887143000000E9    -5.818892476523221E-1   -9.072015536133106E-2   -4.066352904000680E-3    5.702973554798164E-2   -1.273354321228052E-3    5.626835801748267E-2   -5.354124904647048E-1    2.878794261869975E-2
 6.457898790000000E9    -5.818771784836558E-1   -8.961861133317427E-2   -3.903927515970333E-3    5.751444426570856E-2   -9.816738661590995E-4    5.663944124339921E-2   -5.353014917682125E-1    3.054735792330406E-2
 6.457910437000000E9    -5.821410901354175E-1   -8.843901174848642E-2   -3.692839747652611E-3    5.815949546243003E-2   -8.776176854482927E-4    5.718378999991736E-2   -5.351905891095664E-1    3.232260036740670E-2
 6.457922084000000E9    -5.822626246080530E-1   -8.726544610117046E-2   -3.583210727029212E-3    5.854291749332578E-2   -7.536667719252206E-4    5.770741297081339E-2   -5.349204584100570E-1    3.422998476565243E-2
 6.457933731000000E9    -5.822496286170351E-1   -8.605837751955411E-2   -3.363673656150674E-3    5.908282772832901E-2   -5.894602835158383E-4    5.820932860473980E-2   -5.345897950181128E-1    3.611175363013771E-2
 6.457945378000000E9    -5.823986552710794E-1   -8.493428213315950E-2   -3.361423647038824E-3    5.963064010911467E-2   -3.465631937005748E-4    5.872605970995252E-2   -5.344664129943351E-1    3.785825860658673E-2
 6.457957025000000E9    -5.824254206511947E-1   -8.370769696527011E-2   -3.006998361275420E-3    6.008705317892082E-2   -1.763200010527598E-4    5.920955286239084E-2   -5.341539944263318E-1    3.961040194338977E-2
