#  HZ   S   RI   R     50.00 
! Rohde & Schwarz Vector Network Analyzer 
! Rohde-Schwarz,ZNB20-2Port,1311601062101988,3.16
! Created: UTC 3/20/2024, 11:06:10 PM
! freq[Hz]                re:S11                  im:S11                  re:S21                  im:S21                  re:S12                  im:S12                  re:S22                  im:S22
 6.456906971000000E9    -5.648345505502339E-1   -1.777544307500740E-1   -8.953277874520538E-3    3.177764694756420E-2   -7.329216918186535E-3    3.184591314745362E-2   -5.308509441392579E-1   -8.996427023378914E-2
 6.456918627450000E9    -5.650679004282959E-1   -1.767712371694565E-1   -9.152992654997008E-3    3.200692625383026E-2   -7.361251294424988E-3    3.200361377461654E-2   -5.310595809308490E-1   -8.869252928556162E-2
 6.456930283900000E9    -5.653865146558101E-1   -1.757840000353315E-1   -8.915422185049754E-3    3.214510637088977E-2   -7.258736586964116E-3    3.218675094797549E-2   -5.313418189139251E-1   -8.760578664212007E-2
 6.456941940350000E9    -5.657722664484612E-1   -1.748497089320826E-1   -9.058960725529624E-3    3.234014254908826E-2   -7.357005721285436E-3    3.236813923414392E-2   -5.315106324676626E-1   -8.647649189616430E-2
 6.456953596800000E9    -5.659230020185231E-1   -1.738485208574758E-1   -9.053882160519479E-3    3.257434871937859E-2   -7.226785671975705E-3    3.256411562514772E-2   -5.316328317806690E-1   -8.518323206696535E-2
 6.456965253250000E9    -5.662727024335433E-1   -1.728665046687769E-1   -9.036940236728521E-3    3.268445679491517E-2   -7.265810620068740E-3    3.269972304964275E-2   -5.318562901671438E-1   -8.402064510502645E-2
 6.456976909700000E9    -5.665530341647251E-1   -1.720028375891395E-1   -8.956133885981921E-3    3.288724687173010E-2   -7.251711751407101E-3    3.283031252123021E-2   -5.319869331419483E-1   -8.275128756494085E-2
 6.456988566150000E9    -5.668445309262605E-1   -1.709757711550631E-1   -8.870920004731830E-3    3.325802318219510E-2   -7.139942713812392E-3    3.315685790708203E-2   -5.322326520106536E-1   -8.154384351198458E-2
 6.457000222600000E9    -5.670685577461393E-1   -1.700584503678605E-1   -8.910139466380061E-3    3.339276768900007E-2   -7.207950460638531E-3    3.322415598630964E-2   -5.324296012033480E-1   -8.027414430370883E-2
 6.457011879050000E9    -5.673070695233512E-1   -1.691044561187933E-1   -9.012207990018100E-3    3.338839999834670E-2   -7.005561957893611E-3    3.359727424801519E-2   -5.325693229460818E-1   -7.914350135648325E-2
 6.457023535500000E9    -5.676227433797618E-1   -1.680904033819605E-1   -8.911296425463257E-3    3.377080104943515E-2   -7.109970190152413E-3    3.363232095535989E-2   -5.327561999258796E-1   -7.796308461301392E-2
 6.457035191950000E9    -5.678319110919990E-1   -1.670952717243932E-1   -8.883253599785713E-3    3.387999704817445E-2   -6.971878095443588E-3    3.388733021004728E-2   -5.329172007991925E-1   -7.687262763838523E-2
 6.457046848400000E9    -5.681364909950087E-1   -1.661283568717874E-1   -8.740852721838204E-3    3.405629560837042E-2   -6.914750047803405E-3    3.405894141831826E-2   -5.332324917077361E-1   -7.535195108099151E-2
 6.457058504850000E9    -5.683461775070312E-1   -1.652541331436387E-1   -8.868910728349208E-3    3.429248336191775E-2   -6.949491423737142E-3    3.429898105076269E-2   -5.333147030370573E-1   -7.419034941993402E-2
 6.457070161300000E9    -5.686464930800902E-1   -1.642406324020984E-1   -8.691426825739498E-3    3.441632024112031E-2   -6.919733265665755E-3    3.450194899702967E-2   -5.334359914016638E-1   -7.298047926843718E-2
 6.457081817750000E9    -5.688906005571807E-1   -1.632645506048154E-1   -8.702803443036670E-3    3.484749156805864E-2   -6.770859067712563E-3    3.472824092129951E-2   -5.335926059379309E-1   -7.176966225708656E-2
 6.457093474200000E9    -5.691664170864894E-1   -1.622318544453415E-1   -8.608237588941867E-3    3.503622765563756E-2   -6.836547560931079E-3    3.485210546988723E-2   -5.337364731050639E-1   -7.060143411618514E-2
 6.457105130650000E9    -5.694645443383197E-1   -1.612620972541097E-1   -8.775398484536776E-3    3.522136662838254E-2   -6.776298370380590E-3    3.503816044624344E-2   -5.339881692327406E-1   -6.931903887903672E-2
 6.457116787100000E9    -5.695304750614911E-1   -1.603067364761488E-1   -8.718651253566030E-3    3.534742336651861E-2   -6.720288793522544E-3    3.526943076361076E-2   -5.340109288151516E-1   -6.816505767192109E-2
 6.457128443550000E9    -5.698285564820558E-1   -1.591641328108576E-1   -8.513650383885232E-3    3.553753763564168E-2   -6.709766601393390E-3    3.553947323112500E-2   -5.342333480572610E-1   -6.678797869839936E-2
 6.457140100000000E9    -5.701875328321762E-1   -1.583307599095156E-1   -8.593041414125206E-3    3.592049880703942E-2   -6.648678910334897E-3    3.572434660624842E-2   -5.344217712634808E-1   -6.556886979105207E-2
 6.457151756450000E9    -5.704047038397922E-1   -1.572763149977409E-1   -8.466523803645669E-3    3.602502444956937E-2   -6.630210983313296E-3    3.592141477976332E-2   -5.345978885184836E-1   -6.428459034276894E-2
 6.457163412900000E9    -5.706611246612264E-1   -1.563856509008774E-1   -8.552029276795011E-3    3.628155783124892E-2   -6.577024371567731E-3    3.619574727087818E-2   -5.345353685503560E-1   -6.300654991615839E-2
 6.457175069350000E9    -5.709890206456487E-1   -1.553456934892728E-1   -8.472795762971752E-3    3.654875729138114E-2   -6.488893266168532E-3    3.646134562921555E-2   -5.348124339679013E-1   -6.177151261620516E-2
 6.457186725800000E9    -5.711790016102618E-1   -1.543271354444198E-1   -8.257433886698499E-3    3.662874835513341E-2   -6.405815158825964E-3    3.653138252989827E-2   -5.349443089260751E-1   -6.048627228875977E-2
 6.457198382250000E9    -5.714494885536465E-1   -1.533767909724745E-1   -8.485744173112042E-3    3.695551400455220E-2   -6.401617675958273E-3    3.679299583543813E-2   -5.351206434075338E-1   -5.916077809831004E-2
 6.457210038700000E9    -5.715959814837761E-1   -1.524004909024763E-1   -8.407153538266803E-3    3.709603196315798E-2   -6.322640117017556E-3    3.696846320282260E-2   -5.351221832707798E-1   -5.787263000941353E-2
 6.457221695150000E9    -5.717992155975261E-1   -1.513641861288598E-1   -8.315675460253587E-3    3.727239899816428E-2   -6.336837625937335E-3    3.724090039774464E-2   -5.353372085780650E-1   -5.660448381479537E-2
 6.457233351600000E9    -5.720857432939780E-1   -1.503790448923053E-1   -8.237567708141611E-3    3.761065537818205E-2   -6.396000462583036E-3    3.745956430855462E-2   -5.354636963310678E-1   -5.534521347323615E-2
 6.457245008050000E9    -5.723776929132542E-1   -1.493537681331177E-1   -8.343070623717122E-3    3.784395151496030E-2   -6.283485482803474E-3    3.774643569132152E-2   -5.354914644617601E-1   -5.400990914081170E-2
 6.457256664500000E9    -5.725945481901469E-1   -1.482781463080171E-1   -8.274534176745578E-3    3.810180076970762E-2   -6.210071078821531E-3    3.800524617706696E-2   -5.356698720684047E-1   -5.258496251237715E-2
 6.457268320950000E9    -5.727021292969428E-1   -1.473998607411068E-1   -8.103929686372035E-3    3.840555761891638E-2   -6.171160706011325E-3    3.820329426307340E-2   -5.357380468884809E-1   -5.139741494535129E-2
 6.457279977400000E9    -5.730879140991465E-1   -1.464676687729369E-1   -8.122110293906139E-3    3.863739963671441E-2   -6.086022839074349E-3    3.845628305775370E-2   -5.359058763688868E-1   -5.013747726119711E-2
 6.457291633850000E9    -5.733048608918745E-1   -1.453562628196402E-1   -8.160764557130140E-3    3.876534909341990E-2   -6.001611935567611E-3    3.871530188339415E-2   -5.359797414331365E-1   -4.873389826682886E-2
 6.457303290300000E9    -5.735027060424771E-1   -1.443435239698560E-1   -8.072912258325543E-3    3.910754747954672E-2   -5.967682565276090E-3    3.890144464131034E-2   -5.360856778432815E-1   -4.736570943617941E-2
 6.457314946750000E9    -5.737424370776477E-1   -1.433191439757798E-1   -7.943408991751673E-3    3.943295523118011E-2   -5.942400753977759E-3    3.919077924609830E-2   -5.362998260282066E-1   -4.603069118971001E-2
 6.457326603200000E9    -5.738414408021579E-1   -1.423796720891090E-1   -7.888970292711664E-3    3.967021660630775E-2   -5.944898741879390E-3    3.941851506939118E-2   -5.363974710458784E-1   -4.460071026669681E-2
 6.457338259650000E9    -5.742107185651452E-1   -1.413083933959311E-1   -7.935080329595268E-3    4.000090973737496E-2   -5.798548675839019E-3    3.973630525428370E-2   -5.363880731391811E-1   -4.350621865188625E-2
 6.457349916100000E9    -5.744628400334454E-1   -1.403203193232002E-1   -7.830919507759984E-3    4.023399893067636E-2   -5.766495785896695E-3    3.998586888879090E-2   -5.364981945842440E-1   -4.200856111301689E-2
 6.457361572550000E9    -5.746649475696146E-1   -1.393913163951531E-1   -7.809675389025393E-3    4.051003135372658E-2   -5.700873078357140E-3    4.024563720827844E-2   -5.366430919440696E-1   -4.060713929366164E-2
 6.457373229000000E9    -5.747897978535078E-1   -1.381838197263502E-1   -7.699613669696726E-3    4.074547921941888E-2   -5.656781347271934E-3    4.051090450131560E-2   -5.367562442356670E-1   -3.926977570075420E-2
 6.457384885450000E9    -5.751164431572592E-1   -1.372905231621535E-1   -7.684368083072901E-3    4.095628666142970E-2   -5.597651474791722E-3    4.073440800200386E-2   -5.367420701609446E-1   -3.790415041401132E-2
 6.457396541900000E9    -5.751602789705235E-1   -1.362935186057301E-1   -7.675221818114877E-3    4.128242645394332E-2   -5.446663807592931E-3    4.105212930626962E-2   -5.367661651962026E-1   -3.664034178685573E-2
 6.457408198350000E9    -5.754057677415482E-1   -1.351162634631776E-1   -7.610049176732804E-3    4.163692334016241E-2   -5.428530930903815E-3    4.136592035584276E-2   -5.368567120869073E-1   -3.516216138437327E-2
 6.457419854800000E9    -5.756153707928244E-1   -1.341571213708096E-1   -7.511438393915226E-3    4.180533963296675E-2   -5.406373912895690E-3    4.159140264553684E-2   -5.369556623195807E-1   -3.374462478461311E-2
 6.457431511250000E9    -5.758856542491025E-1   -1.330956570379384E-1   -7.701364409871488E-3    4.213049709427191E-2   -5.386092328920463E-3    4.190970018325762E-2   -5.370254197613353E-1   -3.241809746765105E-2
 6.457443167700000E9    -5.760712634893506E-1   -1.320389476151036E-1   -7.428105001692745E-3    4.248999040740771E-2   -5.196134550325803E-3    4.214758018115795E-2   -5.370782400009988E-1   -3.088802891172941E-2
 6.457454824150000E9    -5.761950968075562E-1   -1.310483460286372E-1   -7.405276891934449E-3    4.263718724762391E-2   -5.213552346963839E-3    4.242519782548369E-2   -5.371528054953698E-1   -2.960195762916810E-2
 6.457466480600000E9    -5.764247342065287E-1   -1.300054720480725E-1   -7.242614905766577E-3    4.299086428361835E-2   -5.106652096657116E-3    4.278602800464182E-2   -5.371168530656201E-1   -2.822618782408112E-2
 6.457478137050000E9    -5.766876819516911E-1   -1.290406307304900E-1   -7.335887309423994E-3    4.334029159738478E-2   -5.071791937465452E-3    4.303179322737066E-2   -5.372335732662887E-1   -2.686117268647806E-2
 6.457489793500000E9    -5.768467711611258E-1   -1.279757843776845E-1   -7.249563589053619E-3    4.366707061298864E-2   -5.001979611313883E-3    4.327637694637217E-2   -5.372318591651372E-1   -2.533407982242077E-2
 6.457501449950000E9    -5.769833201654649E-1   -1.269041100400523E-1   -7.185838693229259E-3    4.393441162898677E-2   -4.890156695694629E-3    4.364154400368842E-2   -5.372308046732855E-1   -2.393446351229864E-2
 6.457513106400000E9    -5.772573098605409E-1   -1.257024827445097E-1   -7.131947817470977E-3    4.420234910830716E-2   -4.793521340265816E-3    4.385929731472377E-2   -5.373220507592084E-1   -2.248354760579877E-2
 6.457524762850000E9    -5.774515835993259E-1   -1.246918637018540E-1   -6.942450529063228E-3    4.462488043057992E-2   -4.773526524955227E-3    4.426537481031156E-2   -5.373961190962032E-1   -2.107680020466675E-2
 6.457536419300000E9    -5.775644321226281E-1   -1.237691286777530E-1   -6.931655477252351E-3    4.492042207816951E-2   -4.774624930680091E-3    4.452473081925844E-2   -5.373792793293939E-1   -1.955510813648733E-2
 6.457548075750000E9    -5.777842659258199E-1   -1.226516446665299E-1   -6.975171090132154E-3    4.527016567660955E-2   -4.600210685290613E-3    4.488123700907911E-2   -5.375296196980216E-1   -1.810704930974644E-2
 6.457559732200000E9    -5.779258196763710E-1   -1.216001897231776E-1   -6.822317973454489E-3    4.553895669430866E-2   -4.385267515665194E-3    4.520586413914492E-2   -5.375585964315656E-1   -1.671599516047969E-2
 6.457571388650000E9    -5.780446025758487E-1   -1.205553629681804E-1   -6.744256062078281E-3    4.600723711531555E-2   -4.392055350015213E-3    4.556194386841424E-2   -5.373685350923337E-1   -1.509612223008527E-2
 6.457583045100000E9    -5.782967907540820E-1   -1.194696638316347E-1   -6.610372356079350E-3    4.623641719472208E-2   -4.252314473405869E-3    4.578989695839020E-2   -5.373280386463775E-1   -1.369542108019438E-2
 6.457594701550000E9    -5.784217253621576E-1   -1.185175587492716E-1   -6.602148598924328E-3    4.663775659170685E-2   -4.181916736550256E-3    4.619920826308967E-2   -5.375238104735548E-1   -1.227128138008383E-2
 6.457606358000000E9    -5.786043451992591E-1   -1.172546840312185E-1   -6.549748263080904E-3    4.699643010407454E-2   -4.202760210822099E-3    4.659669138804674E-2   -5.375415482158781E-1   -1.052210451267248E-2
 6.457618014450000E9    -5.787388888182541E-1   -1.162748290265227E-1   -6.423729252377460E-3    4.737285865973740E-2   -4.041626146884847E-3    4.689680686895459E-2   -5.374933329291236E-1   -9.130002127012694E-3
 6.457629670900000E9    -5.789503581928052E-1   -1.151931870824479E-1   -6.392490698162139E-3    4.760601150726395E-2   -4.001000883860797E-3    4.716129131204616E-2   -5.374174614489405E-1   -7.614906189520963E-3
 6.457641327350000E9    -5.791090363551303E-1   -1.141755810152066E-1   -6.254469841701559E-3    4.804514658498198E-2   -3.880843696865178E-3    4.752058882660174E-2   -5.373807768078859E-1   -6.186460663683759E-3
 6.457652983800000E9    -5.792712510715666E-1   -1.129724542809338E-1   -6.153484603425971E-3    4.847655184374880E-2   -3.752432831247976E-3    4.791471563357830E-2   -5.373688825361763E-1   -4.446948375583519E-3
 6.457664640250000E9    -5.794662378624801E-1   -1.120772113978099E-1   -6.193191740278590E-3    4.886341090545054E-2   -3.678312765497371E-3    4.828539813224959E-2   -5.373219474942923E-1   -3.010381186124806E-3
 6.457676296700000E9    -5.796372987781302E-1   -1.109174227265211E-1   -6.017828971577805E-3    4.919270365409671E-2   -3.510025705499709E-3    4.857239008145491E-2   -5.372586836263242E-1   -1.501359510325786E-3
 6.457687953150000E9    -5.798136439014964E-1   -1.097703589376810E-1   -5.911234793466492E-3    4.948721382456029E-2   -3.430301375738511E-3    4.901099809940997E-2   -5.372971916078393E-1    2.849223801795803E-4
 6.457699609600000E9    -5.798418943003522E-1   -1.086355290417872E-1   -5.808992001149478E-3    4.988456091262965E-2   -3.376754221543775E-3    4.935423413238772E-2   -5.372032596689121E-1    1.687118608109117E-3
 6.457711266050000E9    -5.800450812245471E-1   -1.074995246533905E-1   -5.699269063844386E-3    5.024158495519839E-2   -3.222101105200499E-3    4.979762515481812E-2   -5.372170283078667E-1    3.319468290621094E-3
 6.457722922500000E9    -5.801851586857004E-1   -1.065215218187405E-1   -5.773009809443126E-3    5.078071970248278E-2   -3.083222220170726E-3    5.013915542873000E-2   -5.371293066152771E-1    5.055098256388165E-3
 6.457734578950000E9    -5.803401980010228E-1   -1.054109734394922E-1   -5.594657400053459E-3    5.105875408237462E-2   -2.988928720793644E-3    5.060386653219179E-2   -5.368440931271254E-1    6.506979909142811E-3
 6.457746235400000E9    -5.804836445209650E-1   -1.043639790438489E-1   -5.542415013713085E-3    5.147878360051057E-2   -2.978342606827645E-3    5.097491087522177E-2   -5.369277167558775E-1    8.142826572377646E-3
 6.457757891850000E9    -5.806149423272500E-1   -1.032314856842484E-1   -5.339300858557165E-3    5.184888519877027E-2   -2.728591694541328E-3    5.124192521202805E-2   -5.369523419258727E-1    9.893190879660991E-3
 6.457769548300000E9    -5.806912591138258E-1   -1.021249953206637E-1   -5.174450855593358E-3    5.240945325704777E-2   -2.582522465287811E-3    5.169594391378497E-2   -5.368255888042041E-1    1.145506795302435E-2
 6.457781204750000E9    -5.808278940383999E-1   -1.009796269923992E-1   -5.196474291565235E-3    5.283561629805562E-2   -2.565479468189868E-3    5.215003480693979E-2   -5.365429338589619E-1    1.311279219210794E-2
 6.457792861200000E9    -5.809685678524559E-1   -9.995816021520214E-2   -5.086721081577936E-3    5.333829927295803E-2   -2.295169773001439E-3    5.257939806505840E-2   -5.366239751734960E-1    1.470265414495197E-2
 6.457804517650000E9    -5.811533324346962E-1   -9.875289371605254E-2   -4.762603555465098E-3    5.365024744503255E-2   -2.250557919071352E-3    5.307071842943008E-2   -5.365791034821460E-1    1.632764531072886E-2
 6.457816174100000E9    -5.811811427060325E-1   -9.764876664312334E-2   -4.733151970613980E-3    5.410228249074130E-2   -2.059645142032153E-3    5.351274244509949E-2   -5.363440302483792E-1    1.798105996483598E-2
 6.457827830550000E9    -5.813716517586760E-1   -9.650638605936680E-2   -4.691715376401289E-3    5.455491970836245E-2   -1.902117701096822E-3    5.391750036873157E-2   -5.363437661585048E-1    1.975117839376022E-2
 6.457839487000000E9    -5.814332729968746E-1   -9.538992466474674E-2   -4.568060822886867E-3    5.514052709221073E-2   -1.759876598564224E-3    5.425174444154397E-2   -5.360254614013583E-1    2.153550375921989E-2
 6.457851143450000E9    -5.815195965213946E-1   -9.426062500575541E-2   -4.437983842793877E-3    5.551425059163664E-2   -1.683965238731904E-3    5.472653082130974E-2   -5.357957498361936E-1    2.322846322676192E-2
 6.457862799900000E9    -5.818081312608779E-1   -9.307351577927724E-2   -4.238982633697827E-3    5.603605398209194E-2   -1.541609833532362E-3    5.525297322990844E-2   -5.358546593155872E-1    2.492445812605546E-2
 6.457874456350000E9    -5.816911003137571E-1   -9.200297520049361E-2   -4.240801479253932E-3    5.653533785514494E-2   -1.318696541758664E-3    5.571787122683410E-2   -5.357087528405650E-1    2.672356041238474E-2
 6.457886112800000E9    -5.819252564090099E-1   -9.082830403924369E-2   -3.984426464998554E-3    5.701006483970181E-2   -1.124443021664129E-3    5.620805973971473E-2   -5.354521705746590E-1    2.852681162609686E-2
 6.457897769250000E9    -5.819756670244502E-1   -8.973941120338476E-2   -3.904447349952705E-3    5.750886692346983E-2   -1.117498805373086E-3    5.666392181879062E-2   -5.353757616843977E-1    3.044319775275546E-2
 6.457909425700000E9    -5.820562155196880E-1   -8.850837008161699E-2   -3.723604306123980E-3    5.805389890467216E-2   -8.798952565459162E-4    5.715844465112874E-2   -5.351827212781241E-1    3.225473897920880E-2
 6.457921082150000E9    -5.822138939541803E-1   -8.732965936545777E-2   -3.554708977459194E-3    5.862232697520903E-2   -6.315462084000031E-4    5.764576049566323E-2   -5.349020895917828E-1    3.401311332656344E-2
 6.457932738600000E9    -5.822476231853437E-1   -8.610541356015426E-2   -3.412688164882184E-3    5.900909515082365E-2   -5.783157555869586E-4    5.823324133140870E-2   -5.346459443793862E-1    3.572899010377199E-2
 6.457944395050000E9    -5.823799709404599E-1   -8.507369238428296E-2   -3.344990680610673E-3    5.956992435303381E-2   -3.512496038766238E-4    5.866098576471019E-2   -5.344792224296927E-1    3.756871758111624E-2
 6.457956051500000E9    -5.824927228077363E-1   -8.377819619055646E-2   -3.138765092760825E-3    6.017657919028627E-2   -2.175027944046689E-4    5.920395773478459E-2   -5.342967033935119E-1    3.934347038694661E-2
