#  HZ   S   RI   R     50.00 
! Rohde & Schwarz Vector Network Analyzer 
! Rohde-Schwarz,ZNB20-2Port,1311601062101988,3.16
! Created: UTC 3/20/2024, 11:06:42 PM
! freq[Hz]                re:S11                  im:S11                  re:S21                  im:S21                  re:S12                  im:S12                  re:S22                  im:S22
 6.456902060000000E9    -5.649133212755866E-1   -1.781524582242795E-1   -9.092047983218117E-3    3.169474670046326E-2   -7.335249876286227E-3    3.174079273710572E-2   -5.301174678279058E-1   -9.019923116725460E-2
 6.456913728450000E9    -5.650902918885384E-1   -1.771051827471954E-1   -9.118455779934420E-3    3.198861528044532E-2   -7.395850185099197E-3    3.197031023450108E-2   -5.304865416176958E-1   -8.925995554271114E-2
 6.456925396900000E9    -5.652785649373260E-1   -1.760457777644988E-1   -9.185631917148331E-3    3.215885503129908E-2   -7.365119743367478E-3    3.211669411377074E-2   -5.305943633056265E-1   -8.790906982732752E-2
 6.456937065350000E9    -5.656289869239954E-1   -1.751292736565546E-1   -9.072492360729663E-3    3.231379150273381E-2   -7.296555995452857E-3    3.233116062137442E-2   -5.307148461651222E-1   -8.672099204634670E-2
 6.456948733800000E9    -5.659161892276225E-1   -1.741891444273111E-1   -9.125694057943222E-3    3.257495878928373E-2   -7.226113942142902E-3    3.252474925884785E-2   -5.308807264594957E-1   -8.553846266002535E-2
 6.456960402250000E9    -5.661518119910092E-1   -1.732902634421931E-1   -8.974415749684699E-3    3.264471826307887E-2   -7.203653129530085E-3    3.269627600646020E-2   -5.312447342475339E-1   -8.435537742510359E-2
 6.456972070700000E9    -5.664538319938036E-1   -1.722466628430194E-1   -8.980911505262036E-3    3.285177313468848E-2   -7.246544418573715E-3    3.280553227013410E-2   -5.314601661343304E-1   -8.320825723574767E-2
 6.456983739150000E9    -5.666799220002418E-1   -1.713334811941771E-1   -9.076875980382631E-3    3.306513693031311E-2   -7.212129111179280E-3    3.298452522121489E-2   -5.314769341554072E-1   -8.196676401950360E-2
 6.456995407600000E9    -5.669319590059354E-1   -1.703001090137808E-1   -8.967284437795488E-3    3.331682573416208E-2   -7.144668579052193E-3    3.320955974268820E-2   -5.318421455019298E-1   -8.070215912312106E-2
 6.457007076050000E9    -5.673719628938649E-1   -1.693906792931341E-1   -8.931280188232598E-3    3.347801237129840E-2   -7.182625297669643E-3    3.346705085094115E-2   -5.318347712331536E-1   -7.955267918440383E-2
 6.457018744500000E9    -5.675741556836086E-1   -1.682981405485426E-1   -8.846313944615719E-3    3.374239222855024E-2   -7.108499283928450E-3    3.360535543044553E-2   -5.320177270943487E-1   -7.842335941242495E-2
 6.457030412950000E9    -5.677487012684573E-1   -1.674545683724755E-1   -8.785175635972855E-3    3.385547333978371E-2   -7.070502160211935E-3    3.390460186251076E-2   -5.321451065063598E-1   -7.702941640314495E-2
 6.457042081400000E9    -5.680463190856236E-1   -1.662595593299613E-1   -8.834988558311833E-3    3.402964212311257E-2   -7.031618024109055E-3    3.402079086912418E-2   -5.324133669908424E-1   -7.580178458281142E-2
 6.457053749850000E9    -5.683769441971066E-1   -1.653902175230618E-1   -8.726775729384524E-3    3.428478143234052E-2   -6.914904731796207E-3    3.423026151684389E-2   -5.325858217743055E-1   -7.465877041569376E-2
 6.457065418300000E9    -5.685712149889847E-1   -1.644394561890628E-1   -8.749981157224501E-3    3.445884472337862E-2   -6.938970089610931E-3    3.445546881203131E-2   -5.327771110311563E-1   -7.344683888139251E-2
 6.457077086750000E9    -5.687601494018036E-1   -1.634621587354862E-1   -8.743945645214865E-3    3.467239079790466E-2   -6.955195037897912E-3    3.464029105300016E-2   -5.329453651486868E-1   -7.219258005058170E-2
 6.457088755200000E9    -5.691275789782956E-1   -1.625778905028931E-1   -8.717274965567548E-3    3.492946684926693E-2   -6.918458006874641E-3    3.485009801373425E-2   -5.329609605097265E-1   -7.087782438396954E-2
 6.457100423650000E9    -5.692978682513088E-1   -1.614843414366489E-1   -8.611581764636181E-3    3.512307691829356E-2   -6.927536199210203E-3    3.507757174332168E-2   -5.331596293098267E-1   -6.977282570792208E-2
 6.457112092100000E9    -5.695882171679463E-1   -1.605409162378076E-1   -8.607730517829188E-3    3.544500234956833E-2   -6.855666027258234E-3    3.521243704085172E-2   -5.334160864091146E-1   -6.838797624331466E-2
 6.457123760550000E9    -5.699657011192595E-1   -1.594797046971360E-1   -8.647606189419050E-3    3.551455737596927E-2   -6.760149269316674E-3    3.557331172048880E-2   -5.335978918692091E-1   -6.722547898454093E-2
 6.457135429000000E9    -5.701204943710099E-1   -1.586050267820923E-1   -8.528306140518457E-3    3.583416203548246E-2   -6.674920859222627E-3    3.563435403593340E-2   -5.335634349067184E-1   -6.597601399271878E-2
 6.457147097450000E9    -5.703846528433938E-1   -1.576676277196804E-1   -8.600868113648394E-3    3.600689944414965E-2   -6.712384659118098E-3    3.588120602066781E-2   -5.339667788181944E-1   -6.468953018349753E-2
 6.457158765900000E9    -5.705417671474109E-1   -1.565949791642405E-1   -8.656605338028570E-3    3.620350591305527E-2   -6.622948776071369E-3    3.609140147376145E-2   -5.338299690339786E-1   -6.349719479589436E-2
 6.457170434350000E9    -5.708216562915193E-1   -1.555870996485723E-1   -8.630771299194267E-3    3.642442866154723E-2   -6.488126320544724E-3    3.639530491849614E-2   -5.339440981829890E-1   -6.209551553242095E-2
 6.457182102800000E9    -5.711224189287095E-1   -1.544261089663773E-1   -8.443836399365150E-3    3.682220220718763E-2   -6.516428677474967E-3    3.652524610003621E-2   -5.343348692023716E-1   -6.083301129977323E-2
 6.457193771250000E9    -5.713442563291707E-1   -1.536853723213037E-1   -8.425980340770850E-3    3.691549036621287E-2   -6.515881513194442E-3    3.678159981112833E-2   -5.342599931319344E-1   -5.951236034885651E-2
 6.457205439700000E9    -5.714943290110641E-1   -1.526667655364172E-1   -8.351233775459037E-3    3.714732176271491E-2   -6.378232893135369E-3    3.689332347427751E-2   -5.343479037964406E-1   -5.829383437320639E-2
 6.457217108150000E9    -5.718876354120483E-1   -1.516478659123894E-1   -8.458783683242994E-3    3.733656842160701E-2   -6.429559631491030E-3    3.718474198941855E-2   -5.345939560944694E-1   -5.700968844533166E-2
 6.457228776600000E9    -5.719843320230356E-1   -1.507018854340619E-1   -8.291385659486311E-3    3.752313565028362E-2   -6.312309450059804E-3    3.739668691311326E-2   -5.347294630046110E-1   -5.572552163761109E-2
 6.457240445050000E9    -5.723044418389577E-1   -1.496846888314140E-1   -8.271103181867575E-3    3.787103269096248E-2   -6.329605844800365E-3    3.771460654283811E-2   -5.347070339571012E-1   -5.425758914130395E-2
 6.457252113500000E9    -5.725146798413167E-1   -1.485790972586656E-1   -8.279047024118117E-3    3.806011929993412E-2   -6.224723358355526E-3    3.795550762097864E-2   -5.350398263610292E-1   -5.313971249719548E-2
 6.457263781950000E9    -5.727657160494363E-1   -1.476062470745123E-1   -8.257477192160018E-3    3.830715055376446E-2   -6.200456515081813E-3    3.818938185161114E-2   -5.351367038711631E-1   -5.174746658744699E-2
 6.457275450400000E9    -5.729620666839254E-1   -1.466355854564686E-1   -8.093713790744543E-3    3.868217878799133E-2   -6.147841955980659E-3    3.835694635433366E-2   -5.352498196653749E-1   -5.055765323637086E-2
 6.457287118850000E9    -5.731735227063047E-1   -1.456379341067124E-1   -8.088868006694819E-3    3.885114785002040E-2   -6.022504271242557E-3    3.869556324543274E-2   -5.353446832396574E-1   -4.907165576410519E-2
 6.457298787300000E9    -5.733917127011392E-1   -1.446012199483108E-1   -8.101795635882592E-3    3.896114404281154E-2   -6.051112422923741E-3    3.887883580548763E-2   -5.354211926328211E-1   -4.789786969088938E-2
 6.457310455750000E9    -5.736143866839895E-1   -1.435568997706521E-1   -8.007894996086739E-3    3.934943647517983E-2   -5.944317215750688E-3    3.901484758341289E-2   -5.356873756311582E-1   -4.651159791180231E-2
 6.457322124200000E9    -5.738988223405634E-1   -1.425772087095642E-1   -7.980778375570168E-3    3.961638997046250E-2   -5.838172975706607E-3    3.939791422514114E-2   -5.356409027747665E-1   -4.517290744868419E-2
 6.457333792650000E9    -5.742092320320956E-1   -1.415413053947835E-1   -8.053695241038434E-3    3.988221393228328E-2   -5.865961795157756E-3    3.962414371307001E-2   -5.357193302415998E-1   -4.389848735585908E-2
 6.457345461100000E9    -5.743389553528598E-1   -1.405886718576416E-1   -7.813475096779425E-3    4.015305920323818E-2   -5.783391685114216E-3    3.987630064908555E-2   -5.357181585860792E-1   -4.239303786518660E-2
 6.457357129550000E9    -5.745421934402709E-1   -1.396280103415063E-1   -7.909634774343267E-3    4.030335854287897E-2   -5.717859438956035E-3    4.019463572252332E-2   -5.358700162135812E-1   -4.115393430403499E-2
 6.457368798000000E9    -5.748075093020137E-1   -1.384468866707037E-1   -7.809393971847888E-3    4.076227882593846E-2   -5.655013345274258E-3    4.039705284325367E-2   -5.359300982796316E-1   -3.970191423389399E-2
 6.457380466450000E9    -5.749262648519858E-1   -1.375319762904259E-1   -7.708217017075789E-3    4.102482478683217E-2   -5.710525828212994E-3    4.063690218616686E-2   -5.359740331523416E-1   -3.823142376356368E-2
 6.457392134900000E9    -5.751074972834646E-1   -1.363655198919831E-1   -7.540889211736060E-3    4.119757232800700E-2   -5.573107398552343E-3    4.088534206067629E-2   -5.361438274850515E-1   -3.689686679570485E-2
 6.457403803350000E9    -5.752391540041895E-1   -1.353793952165560E-1   -7.623024431045819E-3    4.149436323219868E-2   -5.407607846062032E-3    4.129525865245842E-2   -5.361853791718630E-1   -3.540442951523354E-2
 6.457415471800000E9    -5.756265874052322E-1   -1.344156082729895E-1   -7.599052081387658E-3    4.189467564062212E-2   -5.387583580243203E-3    4.162101031711140E-2   -5.363456010671893E-1   -3.428178609169885E-2
 6.457427140250000E9    -5.757703136326345E-1   -1.333129615377276E-1   -7.473193043496168E-3    4.203505245232036E-2   -5.407497828269125E-3    4.181224646919717E-2   -5.363421338241399E-1   -3.282937571076659E-2
 6.457438808700000E9    -5.760342511954324E-1   -1.322963889411017E-1   -7.598657623496977E-3    4.246934856365093E-2   -5.308811301717901E-3    4.210585411851590E-2   -5.362163659164427E-1   -3.149777441277476E-2
 6.457450477150000E9    -5.761512643248199E-1   -1.312678661265141E-1   -7.308239701501018E-3    4.269491819919386E-2   -5.180485436698097E-3    4.240517226623659E-2   -5.365621814159295E-1   -3.005699368214737E-2
 6.457462145600000E9    -5.763134173925364E-1   -1.302231836838522E-1   -7.300164825481273E-3    4.291300829550821E-2   -5.062194842865116E-3    4.258533340711387E-2   -5.365349134777039E-1   -2.863332345117795E-2
 6.457473814050000E9    -5.766128313348778E-1   -1.291024864135993E-1   -7.418010290198391E-3    4.331173272870246E-2   -5.018780193155642E-3    4.291263023902621E-2   -5.365437702358710E-1   -2.705167232745539E-2
 6.457485482500000E9    -5.767693082764541E-1   -1.281627755252829E-1   -7.288057055728198E-3    4.361522109803329E-2   -5.096930452141166E-3    4.319565512804692E-2   -5.365428004705719E-1   -2.568898091108453E-2
 6.457497150950000E9    -5.770124414359897E-1   -1.271399584295240E-1   -7.144629931531843E-3    4.398542553742853E-2   -4.958327480454734E-3    4.362103498340247E-2   -5.367176179042401E-1   -2.445800067904631E-2
 6.457508819400000E9    -5.771363859301388E-1   -1.260180650977499E-1   -7.159410444234918E-3    4.427098318278795E-2   -4.881580274963139E-3    4.388816832562280E-2   -5.367320573446095E-1   -2.287161073535175E-2
 6.457520487850000E9    -5.773905288957806E-1   -1.249409236321694E-1   -7.091799025037752E-3    4.459853197017162E-2   -4.790249653317114E-3    4.408892276752956E-2   -5.367504894117157E-1   -2.133466373985663E-2
 6.457532156300000E9    -5.774929524430537E-1   -1.240388750574627E-1   -7.162131655970919E-3    4.476089714039290E-2   -4.690509507966237E-3    4.452843385773850E-2   -5.367423956615845E-1   -1.987805916879885E-2
 6.457543824750000E9    -5.776227416746568E-1   -1.228108993929352E-1   -6.955210858518161E-3    4.518661984243767E-2   -4.601908372000000E-3    4.484599358064661E-2   -5.369068714795225E-1   -1.848634686619467E-2
 6.457555493200000E9    -5.779012164658925E-1   -1.218770860556902E-1   -6.714406219355026E-3    4.541203200117646E-2   -4.521255712813128E-3    4.508414994875763E-2   -5.368432230238303E-1   -1.713421323814541E-2
 6.457567161650000E9    -5.780253518518571E-1   -1.207437088826336E-1   -6.862584008357817E-3    4.583375954993240E-2   -4.439989193648187E-3    4.546154668202206E-2   -5.368672634234022E-1   -1.547732715967697E-2
 6.457578830100000E9    -5.782253379628842E-1   -1.197801287647857E-1   -6.722119328132175E-3    4.615419917831323E-2   -4.365674939961032E-3    4.581765195899726E-2   -5.366725180461888E-1   -1.418255262461660E-2
 6.457590498550000E9    -5.784009349868227E-1   -1.186123134653112E-1   -6.624199107832662E-3    4.648658641702597E-2   -4.266763492924295E-3    4.609420810104209E-2   -5.367486451884436E-1   -1.256173725623821E-2
 6.457602167000000E9    -5.786273443758789E-1   -1.175637281838631E-1   -6.589633475274061E-3    4.696650794831473E-2   -4.142143351720522E-3    4.650191236218287E-2   -5.366987529573668E-1   -1.118513120027480E-2
 6.457613835450000E9    -5.787723799134749E-1   -1.165359539589041E-1   -6.427445632566636E-3    4.716064500374513E-2   -4.078520114904153E-3    4.675329343037597E-2   -5.368496600399034E-1   -9.608137992790386E-3
 6.457625503900000E9    -5.789026549571762E-1   -1.154685347715986E-1   -6.431239103113422E-3    4.768950735083799E-2   -4.049314119610777E-3    4.716517768811277E-2   -5.369065678999807E-1   -7.991456903728216E-3
 6.457637172350000E9    -5.790833058185803E-1   -1.143751713940678E-1   -6.358943220276559E-3    4.795466285126654E-2   -3.960156981880649E-3    4.748885618878741E-2   -5.369206284901241E-1   -6.399032596833156E-3
 6.457648840800000E9    -5.792586774656623E-1   -1.133614830864611E-1   -6.261506608105937E-3    4.831957106269393E-2   -3.845764651027002E-3    4.782435777145433E-2   -5.367615579142111E-1   -5.038764029310298E-3
 6.457660509250000E9    -5.793415532902039E-1   -1.121338486821531E-1   -6.131339820546762E-3    4.884175119707354E-2   -3.718683462579700E-3    4.821330385736278E-2   -5.366756117749778E-1   -3.438707986679626E-3
 6.457672177700000E9    -5.795379653641373E-1   -1.110341841533826E-1   -5.925600189832543E-3    4.906783228487507E-2   -3.609567108982159E-3    4.861620203083325E-2   -5.367748159828416E-1   -1.798439897207602E-3
 6.457683846150000E9    -5.796562291270179E-1   -1.100696209617297E-1   -5.954358476912450E-3    4.961953966216067E-2   -3.510758763514297E-3    4.887876300487195E-2   -5.366728621393113E-1   -3.130654876879920E-4
 6.457695514600000E9    -5.799242810218904E-1   -1.089347723595317E-1   -5.982915193596850E-3    4.990856209729690E-2   -3.343070837166426E-3    4.936333692178586E-2   -5.365391908059811E-1    1.386242963579612E-3
 6.457707183050000E9    -5.799521706399581E-1   -1.079171239540076E-1   -5.873115679672926E-3    5.024100413566186E-2   -3.254879868301563E-3    4.966413392971485E-2   -5.365747227773546E-1    2.848529624263496E-3
 6.457718851500000E9    -5.800767712963284E-1   -1.066660702377159E-1   -5.856930589137684E-3    5.061966067144492E-2   -3.106642972345273E-3    5.009384518760592E-2   -5.365030979565277E-1    4.430084183871219E-3
 6.457730519950000E9    -5.802227518714993E-1   -1.056964850167611E-1   -5.679110106504874E-3    5.111930086426707E-2   -3.067743908776674E-3    5.048115101677099E-2   -5.365014285978444E-1    5.982678108501332E-3
 6.457742188400000E9    -5.804363808567345E-1   -1.045280291479096E-1   -5.453601179686688E-3    5.139879448473893E-2   -2.982385301074448E-3    5.081966836753504E-2   -5.363796264965403E-1    7.815522849072247E-3
 6.457753856850000E9    -5.806058344574481E-1   -1.034302031333246E-1   -5.415940628980804E-3    5.192290326708771E-2   -2.795275338248780E-3    5.130111866128956E-2   -5.362421244342059E-1    9.297101749017034E-3
 6.457765525300000E9    -5.806450122015111E-1   -1.022435643377549E-1   -5.386448133103557E-3    5.231346626485788E-2   -2.686921068853267E-3    5.170999883069815E-2   -5.362077046522049E-1    1.097905801927329E-2
 6.457777193750000E9    -5.808830280697792E-1   -1.011631487403726E-1   -5.146190903314795E-3    5.277891264415832E-2   -2.560997109970163E-3    5.206796636693869E-2   -5.360945925946913E-1    1.273816241610559E-2
 6.457788862200000E9    -5.809528906839280E-1   -1.000801459218538E-1   -5.022003652112791E-3    5.319367690248700E-2   -2.463436602958186E-3    5.248643552351559E-2   -5.359574751496577E-1    1.435732605659048E-2
 6.457800530650000E9    -5.810632041347866E-1   -9.894042730606294E-2   -4.848100617804566E-3    5.365845539782486E-2   -2.321546753317038E-3    5.303365289024232E-2   -5.358214998681423E-1    1.593851450346548E-2
 6.457812199100000E9    -5.811876767611546E-1   -9.782814622151993E-2   -4.839695306030050E-3    5.411076920633721E-2   -2.186361067060819E-3    5.338756613277968E-2   -5.358028095077251E-1    1.767951624767718E-2
 6.457823867550000E9    -5.812917778275239E-1   -9.668555247267806E-2   -4.627562249305307E-3    5.462783067906695E-2   -2.060569363918903E-3    5.380350839389304E-2   -5.356836227180223E-1    1.945729931692128E-2
 6.457835536000000E9    -5.814906704187965E-1   -9.565751930133606E-2   -4.707084212682027E-3    5.504379127483486E-2   -1.794390612889002E-3    5.426698321074254E-2   -5.356225216096347E-1    2.109952701812641E-2
 6.457847204450000E9    -5.816656408131540E-1   -9.446975960896822E-2   -4.400640464402149E-3    5.549295916499811E-2   -1.746816446808120E-3    5.469188344584588E-2   -5.352653952590405E-1    2.291597268849038E-2
 6.457858872900000E9    -5.816853133098387E-1   -9.329117704909069E-2   -4.386182356359709E-3    5.602335962602463E-2   -1.584311196598680E-3    5.510883961976425E-2   -5.352948135860698E-1    2.451961100055787E-2
 6.457870541350000E9    -5.817075727335447E-1   -9.215730619419144E-2   -4.147768061261158E-3    5.652314474657905E-2   -1.336173870180608E-3    5.564322147450595E-2   -5.352338099509721E-1    2.628084065799076E-2
 6.457882209800000E9    -5.818747351135242E-1   -9.095457447330621E-2   -4.069630653217183E-3    5.698620904548852E-2   -1.225226506544439E-3    5.605971967808016E-2   -5.348826954672848E-1    2.809772254104276E-2
 6.457893878250000E9    -5.819489227355549E-1   -8.980871409290843E-2   -3.935545937614718E-3    5.751166110470064E-2   -1.051837925305577E-3    5.648554067316359E-2   -5.348690582399500E-1    2.982972200217993E-2
 6.457905546700000E9    -5.820977364457427E-1   -8.862385188890846E-2   -3.839764564063698E-3    5.780633955378350E-2   -9.235526230313870E-4    5.693028161263764E-2   -5.344615176868878E-1    3.151894281823450E-2
 6.457917215150000E9    -5.820306595893250E-1   -8.749002789042484E-2   -3.624520846539664E-3    5.844851488188058E-2   -7.579706390195899E-4    5.750296218316530E-2   -5.344024208562325E-1    3.342750596907920E-2
 6.457928883600000E9    -5.822668262508012E-1   -8.639774885501243E-2   -3.448054626775713E-3    5.898748637027911E-2   -5.728062796123700E-4    5.806754870673637E-2   -5.341059507323144E-1    3.532964044713336E-2
 6.457940552050000E9    -5.822870080311305E-1   -8.510079852418294E-2   -3.281910164564132E-3    5.947643010345119E-2   -4.086823814446967E-4    5.868033506662993E-2   -5.338948582355905E-1    3.715745705401201E-2
 6.457952220500000E9    -5.823250657681549E-1   -8.414691398372573E-2   -3.160561049494501E-3    6.015715191901130E-2   -1.777606637136672E-4    5.913881861087845E-2   -5.339084457840929E-1    3.886517515335976E-2
