#  HZ   S   RI   R     50.00 
! Rohde & Schwarz Vector Network Analyzer 
! Rohde-Schwarz,ZNB20-2Port,1311601062101988,3.16
! Created: UTC 3/20/2024, 11:06:45 PM
! freq[Hz]                re:S11                  im:S11                  re:S21                  im:S21                  re:S12                  im:S12                  re:S22                  im:S22
 6.456903082000000E9    -5.647839973336789E-1   -1.779135940110027E-1   -9.171709956585184E-3    3.178530181684805E-2   -7.395462396234830E-3    3.180592819204049E-2   -5.301890746801631E-1   -9.016566767937328E-2
 6.456914744025000E9    -5.651786105120040E-1   -1.770409991182896E-1   -9.075648077052996E-3    3.194337474709839E-2   -7.388930683871306E-3    3.202098999231362E-2   -5.305990253350470E-1   -8.904978855303801E-2
 6.456926406050000E9    -5.653271824602528E-1   -1.759492659043187E-1   -8.927696793516246E-3    3.210446318733524E-2   -7.286576739803171E-3    3.221182740560061E-2   -5.306588964384970E-1   -8.779710837768963E-2
 6.456938068075000E9    -5.655920585152108E-1   -1.749699170745670E-1   -8.905737218378514E-3    3.223419988756307E-2   -7.204456196655072E-3    3.228259770571433E-2   -5.308158150449034E-1   -8.662444278464927E-2
 6.456949730100000E9    -5.660445426409598E-1   -1.740641448073950E-1   -8.955753936569236E-3    3.247613031502377E-2   -7.251030493962710E-3    3.254450120723847E-2   -5.310920086994705E-1   -8.556526778825156E-2
 6.456961392125000E9    -5.661549405321830E-1   -1.730281702521117E-1   -9.007263854603927E-3    3.274375870684696E-2   -7.327184737644253E-3    3.266224020390569E-2   -5.311996300939926E-1   -8.433824636749243E-2
 6.456973054150000E9    -5.665279815654436E-1   -1.721182764921869E-1   -9.095821474333445E-3    3.298088452859906E-2   -7.192405912141233E-3    3.288184863301974E-2   -5.314593420074659E-1   -8.306720860283573E-2
 6.456984716175000E9    -5.667853921527554E-1   -1.712273608320990E-1   -8.916328321806168E-3    3.313769019347473E-2   -7.122768551292890E-3    3.309697349155519E-2   -5.316452305547356E-1   -8.187811225724734E-2
 6.456996378200000E9    -5.670215977289373E-1   -1.701414331231707E-1   -9.016645579332393E-3    3.336465551940370E-2   -7.162075112741388E-3    3.324349220376655E-2   -5.318157425965774E-1   -8.063074145243024E-2
 6.457008040225000E9    -5.672503443963832E-1   -1.691946995424972E-1   -8.872975605242467E-3    3.359049310686971E-2   -7.107957012840143E-3    3.344057056909924E-2   -5.319344820165902E-1   -7.937313345528885E-2
 6.457019702250000E9    -5.676183108965310E-1   -1.682417513395468E-1   -8.966850683670959E-3    3.364345097197746E-2   -7.096017265159032E-3    3.372199395645404E-2   -5.322257793835649E-1   -7.838130787643782E-2
 6.457031364275000E9    -5.678786492203953E-1   -1.672391331041539E-1   -8.844379175018308E-3    3.389827204591069E-2   -7.030912149710941E-3    3.385575554443167E-2   -5.323242844228503E-1   -7.699001811407985E-2
 6.457043026300000E9    -5.681014722733350E-1   -1.662152793288843E-1   -8.850918669904046E-3    3.408312801109897E-2   -7.031723175685137E-3    3.401886298867676E-2   -5.325037602837622E-1   -7.576804917312419E-2
 6.457054688325000E9    -5.682604088784733E-1   -1.652860473822051E-1   -8.827771587303607E-3    3.426877302764770E-2   -6.998232816724931E-3    3.424553661250772E-2   -5.327766194823624E-1   -7.461292749293282E-2
 6.457066350350000E9    -5.685481788592349E-1   -1.643785983029347E-1   -8.747524947616308E-3    3.448052140081716E-2   -6.905541960136378E-3    3.443579673912736E-2   -5.328406847376534E-1   -7.337776752213696E-2
 6.457078012375000E9    -5.688825502224056E-1   -1.632899010975234E-1   -8.805688639901081E-3    3.479416038755158E-2   -6.796040007228071E-3    3.471032929670043E-2   -5.330235025809452E-1   -7.199902804596338E-2
 6.457089674400000E9    -5.691490094772199E-1   -1.624319563358007E-1   -8.701453047663650E-3    3.490684091830153E-2   -6.844264274138537E-3    3.487933415526008E-2   -5.331178660529767E-1   -7.097167915987390E-2
 6.457101336425000E9    -5.692603977032823E-1   -1.614565135532287E-1   -8.581500215687654E-3    3.518962835610326E-2   -6.819162185281257E-3    3.495127464782990E-2   -5.333129789106398E-1   -6.965865725620315E-2
 6.457112998450000E9    -5.696886150232529E-1   -1.605147395208507E-1   -8.608074273808563E-3    3.530368503752816E-2   -6.788040039438709E-3    3.519764819770878E-2   -5.334491335607946E-1   -6.830173008643523E-2
 6.457124660475000E9    -5.698460158161200E-1   -1.593922742776022E-1   -8.703163479128232E-3    3.555415990865879E-2   -6.669023474864417E-3    3.548841600438454E-2   -5.336438835682363E-1   -6.712582936602515E-2
 6.457136322500000E9    -5.700885153367500E-1   -1.584833381783071E-1   -8.640109203817253E-3    3.582628150688235E-2   -6.643572908193484E-3    3.572785365116377E-2   -5.336735297978573E-1   -6.579386251633978E-2
 6.457147984525000E9    -5.704920398788937E-1   -1.574328692609059E-1   -8.702167065710536E-3    3.608539888988837E-2   -6.714099257714561E-3    3.585320112183527E-2   -5.339443899735387E-1   -6.455831109032065E-2
 6.457159646550000E9    -5.706590351710863E-1   -1.564574559364715E-1   -8.594435638702332E-3    3.621217394379407E-2   -6.570372718456090E-3    3.610751591005762E-2   -5.340355694115971E-1   -6.335302055634970E-2
 6.457171308575000E9    -5.708032139466508E-1   -1.555490773583595E-1   -8.522976441315968E-3    3.647738372997613E-2   -6.485518405593123E-3    3.637544745304676E-2   -5.340882399301183E-1   -6.197480022358107E-2
 6.457182970600000E9    -5.710091578324702E-1   -1.544901417426232E-1   -8.551540832729774E-3    3.661468280737541E-2   -6.526194010922263E-3    3.648332238112098E-2   -5.342145029306135E-1   -6.065342458922770E-2
 6.457194632625000E9    -5.713459089623762E-1   -1.534860833170456E-1   -8.465956520087187E-3    3.701819463723057E-2   -6.430466060491064E-3    3.680622631882294E-2   -5.343567870352511E-1   -5.949734392172100E-2
 6.457206294650000E9    -5.715333071566847E-1   -1.525485042611475E-1   -8.439441703497351E-3    3.713349667641835E-2   -6.416293160735705E-3    3.702600400352324E-2   -5.345055657172171E-1   -5.813899203625286E-2
 6.457217956675000E9    -5.717705794893717E-1   -1.514456354814505E-1   -8.371107017643582E-3    3.733570760813110E-2   -6.314245933462131E-3    3.729337015915403E-2   -5.348262041602745E-1   -5.698086484043950E-2
 6.457229618700000E9    -5.720672307571431E-1   -1.505096437536546E-1   -8.364890813928067E-3    3.761280759819756E-2   -6.322038040848695E-3    3.744711250615156E-2   -5.348088083485923E-1   -5.556973728740079E-2
 6.457241280725000E9    -5.722825391131342E-1   -1.494955388261409E-1   -8.204909671581074E-3    3.783040106933001E-2   -6.256628396772652E-3    3.767577669300083E-2   -5.349768162661309E-1   -5.438831832701964E-2
 6.457252942750000E9    -5.724940814843749E-1   -1.484347539351102E-1   -8.270429141667380E-3    3.810905499758175E-2   -6.172487702517528E-3    3.792984444233415E-2   -5.351255473593006E-1   -5.296143670701073E-2
 6.457264604775000E9    -5.727295730017725E-1   -1.474758953519223E-1   -8.243693392860475E-3    3.833723668006328E-2   -6.049856757103067E-3    3.818670843227816E-2   -5.353922903294218E-1   -5.178479893410757E-2
 6.457276266800000E9    -5.730915594445373E-1   -1.464353798299736E-1   -8.150739930384258E-3    3.860582279720857E-2   -6.137504379228760E-3    3.841464157459997E-2   -5.353008228334150E-1   -5.043962668865217E-2
 6.457287928825000E9    -5.732335605844791E-1   -1.454421238332835E-1   -8.085175275754785E-3    3.887231181257401E-2   -6.057459867386158E-3    3.871383060685984E-2   -5.353730772319457E-1   -4.907062007776394E-2
 6.457299590850000E9    -5.734411711243487E-1   -1.444289541725362E-1   -8.044399810302335E-3    3.914800383544401E-2   -6.033256690421062E-3    3.893387501203690E-2   -5.354862511939799E-1   -4.776874473940074E-2
 6.457311252875000E9    -5.737318730537915E-1   -1.434022937897157E-1   -8.105917575780915E-3    3.924855994675511E-2   -5.986037607968554E-3    3.917750221020693E-2   -5.356270613305666E-1   -4.653170807427733E-2
 6.457322914900000E9    -5.739090766788340E-1   -1.424147588125212E-1   -8.056682967393794E-3    3.972074677967680E-2   -5.911987502634119E-3    3.938679882398766E-2   -5.357129381808985E-1   -4.500262045047965E-2
 6.457334576925000E9    -5.741063161603754E-1   -1.414517091817636E-1   -7.817937178639938E-3    4.000741044705948E-2   -5.825724055249246E-3    3.966473273846572E-2   -5.358122537567717E-1   -4.386944940971609E-2
 6.457346238950000E9    -5.743690904369553E-1   -1.404085254997476E-1   -7.842643766434952E-3    4.030330776790608E-2   -5.794227569538053E-3    3.988622129952546E-2   -5.358655698657633E-1   -4.240092975938689E-2
 6.457357900975000E9    -5.745871655615220E-1   -1.393585440645948E-1   -7.886048427810873E-3    4.056977981506728E-2   -5.700507831674811E-3    4.028178277020015E-2   -5.360035926927587E-1   -4.108467380632092E-2
 6.457369563000000E9    -5.747979325594154E-1   -1.384542666434240E-1   -7.875568669024533E-3    4.065627176195616E-2   -5.590903601385241E-3    4.047431482455621E-2   -5.359052032611894E-1   -3.969264279149284E-2
 6.457381225025000E9    -5.749269393196802E-1   -1.373077622145361E-1   -7.758057965678732E-3    4.107181763241934E-2   -5.669144057111555E-3    4.072997626355879E-2   -5.361902526897276E-1   -3.831972379482604E-2
 6.457392887050000E9    -5.750819566440234E-1   -1.363280989054380E-1   -7.760639036511185E-3    4.119622860974121E-2   -5.603384392851918E-3    4.103204691387124E-2   -5.362957882861267E-1   -3.704106320338211E-2
 6.457404549075000E9    -5.753148821024517E-1   -1.352584235559157E-1   -7.648831713471777E-3    4.141276972962842E-2   -5.530983057217205E-3    4.124867020588938E-2   -5.362335581111504E-1   -3.554889508915937E-2
 6.457416211100000E9    -5.755723075477610E-1   -1.342006915035202E-1   -7.686006937303560E-3    4.186024450657311E-2   -5.412242180632454E-3    4.147904977429064E-2   -5.364196004051980E-1   -3.416573899512952E-2
 6.457427873125000E9    -5.757678436513624E-1   -1.331712072835289E-1   -7.502015877927361E-3    4.206391795676964E-2   -5.313933468381922E-3    4.183518583538865E-2   -5.364893996551187E-1   -3.270677699699177E-2
 6.457439535150000E9    -5.759304892927067E-1   -1.322074357590727E-1   -7.568148646728183E-3    4.238940207222263E-2   -5.257687642461490E-3    4.203666581054767E-2   -5.364701054368699E-1   -3.123514059666280E-2
 6.457451197175000E9    -5.762283925825429E-1   -1.311438716974221E-1   -7.491749597179433E-3    4.266355697189506E-2   -5.160550441849832E-3    4.239087184066959E-2   -5.366040620834264E-1   -2.999172740274970E-2
 6.457462859200000E9    -5.763839816710171E-1   -1.302200537645144E-1   -7.384494815009175E-3    4.303982320755332E-2   -5.181470725546838E-3    4.268098367146845E-2   -5.366217197807477E-1   -2.856241133460316E-2
 6.457474521225000E9    -5.766423469409715E-1   -1.291227440661109E-1   -7.391877262917951E-3    4.330686814771093E-2   -5.079918625344852E-3    4.293549323616673E-2   -5.367311078328063E-1   -2.718742678831102E-2
 6.457486183250000E9    -5.767483886297544E-1   -1.280596616523896E-1   -7.320500564723767E-3    4.349876023526567E-2   -5.003325489517789E-3    4.330236083160147E-2   -5.366714600618084E-1   -2.570994232697116E-2
 6.457497845275000E9    -5.768532037624466E-1   -1.270578083335460E-1   -7.148589321964036E-3    4.390228003670401E-2   -4.834939184766794E-3    4.360068595592344E-2   -5.367982959678815E-1   -2.426573603914887E-2
 6.457509507300000E9    -5.771473032795514E-1   -1.258966611090886E-1   -6.984768932696123E-3    4.410306437918451E-2   -4.779535338875858E-3    4.392388943526563E-2   -5.367866212561113E-1   -2.275973766067211E-2
 6.457521169325000E9    -5.772867558315561E-1   -1.249176304084143E-1   -7.072119492928922E-3    4.458170162134669E-2   -4.773021466669508E-3    4.415329351467077E-2   -5.368418783054315E-1   -2.140563833158929E-2
 6.457532831350000E9    -5.774680442071827E-1   -1.238769829229232E-1   -6.985788437447790E-3    4.474441371611119E-2   -4.640518882478327E-3    4.442337731356742E-2   -5.367686586327947E-1   -1.989726977805585E-2
 6.457544493375000E9    -5.776926449269082E-1   -1.227793630800684E-1   -6.916152546811599E-3    4.526179125552671E-2   -4.625674083180782E-3    4.481805282517338E-2   -5.368167537490252E-1   -1.848624663850826E-2
 6.457556155400000E9    -5.778940956802648E-1   -1.218585941020020E-1   -6.912592590986178E-3    4.547714799096200E-2   -4.481013481350792E-3    4.519177808183012E-2   -5.367895590277667E-1   -1.687448134360248E-2
 6.457567817425000E9    -5.781493622363041E-1   -1.207656486691678E-1   -6.716132305564680E-3    4.588640385786202E-2   -4.534787337530315E-3    4.548604951207822E-2   -5.368157692103230E-1   -1.548779164572070E-2
 6.457579479450000E9    -5.782561204902222E-1   -1.196580149269813E-1   -6.674377763426640E-3    4.622559321412742E-2   -4.315786729181227E-3    4.573505904404032E-2   -5.368822478076352E-1   -1.398678350059150E-2
 6.457591141475000E9    -5.784095047346869E-1   -1.185626044891364E-1   -6.793497402429469E-3    4.656648473359868E-2   -4.296003318873531E-3    4.615614484304478E-2   -5.367744499355148E-1   -1.248891795480865E-2
 6.457602803500000E9    -5.786163316928369E-1   -1.174982211703701E-1   -6.464594714278076E-3    4.684461483118773E-2   -4.232748479407033E-3    4.645564544721828E-2   -5.369650073390412E-1   -1.101828061838473E-2
 6.457614465525000E9    -5.787485607718698E-1   -1.163268710015597E-1   -6.550222466786530E-3    4.733867157215359E-2   -4.039933984483389E-3    4.681073452228753E-2   -5.369384811248459E-1   -9.522466114891749E-3
 6.457626127550000E9    -5.789745445974013E-1   -1.154090092470884E-1   -6.397112685741469E-3    4.760543110636256E-2   -4.039554563071726E-3    4.718359226880117E-2   -5.368716265430720E-1   -8.045197816147660E-3
 6.457637789575000E9    -5.790074543115254E-1   -1.141676867538013E-1   -6.291508171633566E-3    4.788012347682977E-2   -3.951701060504289E-3    4.756976859059382E-2   -5.368392116604217E-1   -6.472625592914398E-3
 6.457649451600000E9    -5.792614968487998E-1   -1.131710309364542E-1   -6.295390371334528E-3    4.836311048055762E-2   -3.768661189202532E-3    4.795820190060799E-2   -5.368328816437975E-1   -4.902156202388306E-3
 6.457661113625000E9    -5.793728619609810E-1   -1.121770433365285E-1   -6.251071271179582E-3    4.868295279808126E-2   -3.678170100826230E-3    4.819586423386694E-2   -5.368208323119166E-1   -3.255857289020504E-3
 6.457672775650000E9    -5.795291407235590E-1   -1.110758612097665E-1   -6.066992279236316E-3    4.908236779993339E-2   -3.637274797670468E-3    4.863363734456515E-2   -5.369047412471689E-1   -1.784942719613386E-3
 6.457684437675000E9    -5.797127938267970E-1   -1.098668138331866E-1   -5.879999103122984E-3    4.949017091001362E-2   -3.517889625214983E-3    4.890702309403557E-2   -5.367424578288276E-1   -1.870310222986503E-4
 6.457696099700000E9    -5.799558133061319E-1   -1.088036455179349E-1   -5.982695092711074E-3    4.985519321756119E-2   -3.402788892209261E-3    4.929605409922606E-2   -5.367060958894236E-1    1.321152624776447E-3
 6.457707761725000E9    -5.798758870283534E-1   -1.077649870423854E-1   -5.844986478319358E-3    5.024696684367222E-2   -3.208803261072560E-3    4.962473122755776E-2   -5.366067995764101E-1    2.924260602123785E-3
 6.457719423750000E9    -5.802301997004046E-1   -1.066556159674656E-1   -5.706301642866995E-3    5.066116096201988E-2   -3.265368798595271E-3    5.006720324370975E-2   -5.365720642105006E-1    4.474352320130060E-3
 6.457731085775000E9    -5.803204618121408E-1   -1.055964899539388E-1   -5.614644452691376E-3    5.104453654264283E-2   -3.036747151282359E-3    5.058183772665163E-2   -5.366504991234714E-1    6.193126794201354E-3
 6.457742747800000E9    -5.803776856134781E-1   -1.044288537395846E-1   -5.532960202307724E-3    5.145522977492185E-2   -2.891407609598604E-3    5.092517761125941E-2   -5.363831370970724E-1    7.813324210218428E-3
 6.457754409825000E9    -5.804678168082655E-1   -1.033810728619827E-1   -5.380287773078440E-3    5.197684300948710E-2   -2.694401281273534E-3    5.134144433855588E-2   -5.363167574384786E-1    9.402815837289490E-3
 6.457766071850000E9    -5.806210647465545E-1   -1.021967524869269E-1   -5.307299488486438E-3    5.244081549118618E-2   -2.721226702797466E-3    5.174689572719633E-2   -5.362050709609698E-1    1.101930667620567E-2
 6.457777733875000E9    -5.807837932179810E-1   -1.011330001062202E-1   -5.252103028469372E-3    5.277318530574054E-2   -2.518398257004827E-3    5.210591126036398E-2   -5.361478578349909E-1    1.272614058653498E-2
 6.457789395900000E9    -5.808390287186457E-1   -9.991789762568802E-2   -5.078677239874411E-3    5.302001503309216E-2   -2.430376079167863E-3    5.255533480766978E-2   -5.359671341206540E-1    1.440002426459833E-2
 6.457801057925000E9    -5.810467344806329E-1   -9.896969253544156E-2   -4.918460183690695E-3    5.373650606067039E-2   -2.268714331181620E-3    5.305716486133515E-2   -5.360108963277194E-1    1.597855177821798E-2
 6.457812719950000E9    -5.812669226271618E-1   -9.780445933152837E-2   -4.928641497764129E-3    5.406472378209887E-2   -2.098211133543651E-3    5.335010240140616E-2   -5.359088137692362E-1    1.768107926749719E-2
 6.457824381975000E9    -5.812002776458157E-1   -9.675859534163367E-2   -4.780361078881186E-3    5.453024842468433E-2   -1.994950489834421E-3    5.374725778033696E-2   -5.357384507073355E-1    1.941470260348429E-2
 6.457836044000000E9    -5.814573197062177E-1   -9.551535225690611E-2   -4.544474896475243E-3    5.513465215441730E-2   -1.889119053241399E-3    5.439404050134901E-2   -5.356951558926691E-1    2.119536475836420E-2
 6.457847706025000E9    -5.815413788330278E-1   -9.442021651574951E-2   -4.448223274651976E-3    5.536268662497080E-2   -1.732991831253382E-3    5.466155101851820E-2   -5.353297710465071E-1    2.292573495715246E-2
 6.457859368050000E9    -5.817350314659183E-1   -9.319307075832772E-2   -4.252944747318302E-3    5.604186159620907E-2   -1.512023594050236E-3    5.520956771421903E-2   -5.352719412367317E-1    2.456355382235430E-2
 6.457871030075000E9    -5.817994251350913E-1   -9.217317389507225E-2   -4.160409110465479E-3    5.643790532661467E-2   -1.431695884611365E-3    5.569365136557249E-2   -5.351737135908345E-1    2.641698520353710E-2
 6.457882692100000E9    -5.818040108268678E-1   -9.099559352036551E-2   -4.082995152162944E-3    5.705907732527469E-2   -1.201450334233124E-3    5.622081507769110E-2   -5.350250029936459E-1    2.815836161563241E-2
 6.457894354125000E9    -5.820373703051384E-1   -8.984605861054941E-2   -3.888119597427770E-3    5.746546300477159E-2   -1.056848289015555E-3    5.664687018795349E-2   -5.347067249893472E-1    2.984086414938671E-2
 6.457906016150000E9    -5.820602983025862E-1   -8.857159088326966E-2   -3.831436460680307E-3    5.793698667085544E-2   -8.338033172846930E-4    5.714381504303805E-2   -5.346211379919297E-1    3.169656970671319E-2
 6.457917678175000E9    -5.821265886421194E-1   -8.751228871275696E-2   -3.573235816034360E-3    5.856038531936163E-2   -7.914684382341616E-4    5.762410519718706E-2   -5.345488182988807E-1    3.357126369217997E-2
 6.457929340200000E9    -5.821998545808059E-1   -8.639627074870658E-2   -3.486747823712974E-3    5.910560504065604E-2   -5.360705476012939E-4    5.814266717220915E-2   -5.343807619714095E-1    3.550284620796923E-2
 6.457941002225000E9    -5.822715015852257E-1   -8.519233719953639E-2   -3.252258991799161E-3    5.957069952104982E-2   -4.992564953249907E-4    5.868844569322280E-2   -5.341125533673764E-1    3.729667075394450E-2
 6.457952664250000E9    -5.823950211841790E-1   -8.395823378222540E-2   -3.238043383263978E-3    6.005383803877695E-2   -2.390075514362086E-4    5.914798039180857E-2   -5.337100837086214E-1    3.910590662221967E-2
