#  HZ   S   RI   R     50.00 
! Rohde & Schwarz Vector Network Analyzer 
! Rohde-Schwarz,ZNB20-2Port,1311601062101988,3.16
! Created: UTC 3/20/2024, 11:06:50 PM
! freq[Hz]                re:S11                  im:S11                  re:S21                  im:S21                  re:S12                  im:S12                  re:S22                  im:S22
 6.456902903000000E9    -5.648098741910267E-1   -1.778494831992127E-1   -9.189724017034872E-3    3.183603348778085E-2   -7.333398435114926E-3    3.180734584297047E-2   -5.301294285531023E-1   -9.039308291711654E-2
 6.456914564325000E9    -5.650992618193624E-1   -1.769158849460901E-1   -9.078282272806446E-3    3.195006970827569E-2   -7.308673600902488E-3    3.200682065693690E-2   -5.302465435410078E-1   -8.919165444694535E-2
 6.456926225650000E9    -5.653032637427708E-1   -1.759830133479988E-1   -9.061362137254643E-3    3.223010038224188E-2   -7.401018483472948E-3    3.214201057753021E-2   -5.305113028530477E-1   -8.808241977975696E-2
 6.456937886975000E9    -5.656240410617933E-1   -1.749770820664039E-1   -9.089329649475494E-3    3.226522968354687E-2   -7.406108523607546E-3    3.241031357755336E-2   -5.306712378453656E-1   -8.682972568178186E-2
 6.456949548300000E9    -5.659019982551394E-1   -1.739801014108171E-1   -9.090651920721735E-3    3.245452375795357E-2   -7.245740830770470E-3    3.249311280985452E-2   -5.309801407040425E-1   -8.570114695080673E-2
 6.456961209625000E9    -5.661780960767457E-1   -1.730320664506871E-1   -9.076821488710292E-3    3.273695528450495E-2   -7.204845057833490E-3    3.268831899908081E-2   -5.309250257056508E-1   -8.441839632332664E-2
 6.456972870950000E9    -5.663947371109535E-1   -1.721797827060071E-1   -9.017589985699331E-3    3.288117066966050E-2   -7.224166571306110E-3    3.289116592334222E-2   -5.313026657881417E-1   -8.330464271085357E-2
 6.456984532275000E9    -5.667569343386462E-1   -1.711009747934950E-1   -8.920045971853014E-3    3.309675594440856E-2   -7.184806831855251E-3    3.311240461371363E-2   -5.313353187801794E-1   -8.205903325170387E-2
 6.456996193600000E9    -5.670477649591128E-1   -1.701520659103893E-1   -8.888036076260382E-3    3.324991569025666E-2   -7.210823908642527E-3    3.331235101878370E-2   -5.314298715951075E-1   -8.090624353288013E-2
 6.457007854925000E9    -5.672886792125581E-1   -1.692088751960649E-1   -8.856524160699510E-3    3.343042469478415E-2   -7.150248789690191E-3    3.343975198866044E-2   -5.317630354609424E-1   -7.953652973909042E-2
 6.457019516250000E9    -5.675960596217590E-1   -1.681614624342134E-1   -9.110141778107709E-3    3.366835522599870E-2   -7.025441823389174E-3    3.365364569031225E-2   -5.319069034541538E-1   -7.829941506316047E-2
 6.457031177575000E9    -5.678063854911444E-1   -1.672754615989480E-1   -8.905277477928677E-3    3.387784632598696E-2   -7.075101010140836E-3    3.384320227325956E-2   -5.320962984265691E-1   -7.712716125192677E-2
 6.457042838900000E9    -5.680596016239253E-1   -1.663406145544905E-1   -8.768158812794547E-3    3.407152430486125E-2   -7.020297070171046E-3    3.401304878598404E-2   -5.323224030773226E-1   -7.588124421899400E-2
 6.457054500225000E9    -5.684147330244405E-1   -1.652610911804391E-1   -8.833724695979281E-3    3.423009202527592E-2   -7.036617771319114E-3    3.423694969211245E-2   -5.324140743467063E-1   -7.472196613777142E-2
 6.457066161550000E9    -5.686078268013860E-1   -1.643448684730698E-1   -8.864099691770521E-3    3.455129800627444E-2   -6.888608486317677E-3    3.443289538980591E-2   -5.326445276003833E-1   -7.346762979794197E-2
 6.457077822875000E9    -5.688993209187155E-1   -1.633694936081760E-1   -8.839256248665456E-3    3.467491232964488E-2   -6.882934766354394E-3    3.463801893511380E-2   -5.328123263734804E-1   -7.216845516611357E-2
 6.457089484200000E9    -5.691475515889448E-1   -1.623556130622888E-1   -8.796323731791266E-3    3.484278159168438E-2   -6.885312750427915E-3    3.485872993904390E-2   -5.330181514144741E-1   -7.094919485306636E-2
 6.457101145525000E9    -5.692958086718208E-1   -1.613704595099731E-1   -8.686558521009188E-3    3.511127977227973E-2   -6.933293144964170E-3    3.510701419026308E-2   -5.331123988158482E-1   -6.979677750504913E-2
 6.457112806850000E9    -5.695995846009994E-1   -1.604070107763845E-1   -8.681553848306317E-3    3.533359025598819E-2   -6.769909932944592E-3    3.523587612454059E-2   -5.333569607060116E-1   -6.856207758836998E-2
 6.457124468175000E9    -5.698220953932438E-1   -1.594594803366274E-1   -8.517995853676970E-3    3.552997406154304E-2   -6.795360718027907E-3    3.542744718580595E-2   -5.333570378969440E-1   -6.730044338425725E-2
 6.457136129500000E9    -5.701061506770723E-1   -1.584355811296062E-1   -8.496877031200946E-3    3.584031164707088E-2   -6.742433374040299E-3    3.568314960992025E-2   -5.334600341227486E-1   -6.596209930771231E-2
 6.457147790825000E9    -5.703577513769706E-1   -1.574372801895692E-1   -8.595749713594005E-3    3.600161776143557E-2   -6.695962960412963E-3    3.592058103125428E-2   -5.336405469673313E-1   -6.471578926374080E-2
 6.457159452150000E9    -5.706287462298339E-1   -1.564476050083667E-1   -8.487906099588520E-3    3.617551668457369E-2   -6.634666655474984E-3    3.613295946512137E-2   -5.339352697562332E-1   -6.346581561919794E-2
 6.457171113475000E9    -5.709444483751395E-1   -1.554897879509033E-1   -8.552034827647012E-3    3.647535791240251E-2   -6.589659549120631E-3    3.634120893409826E-2   -5.339255841655708E-1   -6.224481802942097E-2
 6.457182774800000E9    -5.710862848869755E-1   -1.544732636455051E-1   -8.464474068442036E-3    3.673564877847826E-2   -6.524563020584792E-3    3.654213448017603E-2   -5.340521324716364E-1   -6.101678996332095E-2
 6.457194436125000E9    -5.713374453725952E-1   -1.535724878874172E-1   -8.530938110068791E-3    3.689750818392035E-2   -6.493177310359644E-3    3.683151034902472E-2   -5.343424032557337E-1   -5.963705805571107E-2
 6.457206097450000E9    -5.716529554502031E-1   -1.524492683947115E-1   -8.397300762814055E-3    3.712961897358838E-2   -6.467603635873168E-3    3.706107196468753E-2   -5.343683343784807E-1   -5.833970694208528E-2
 6.457217758775000E9    -5.717355442237338E-1   -1.515384211316761E-1   -8.261553857626364E-3    3.739511488636944E-2   -6.392085430436096E-3    3.721605025388739E-2   -5.344911096433965E-1   -5.711361215232545E-2
 6.457229420100000E9    -5.721016611719595E-1   -1.503829967255933E-1   -8.297317700292678E-3    3.765945869554985E-2   -6.324524437710219E-3    3.748637229431154E-2   -5.346100283468239E-1   -5.569071896985460E-2
 6.457241081425000E9    -5.723079139169376E-1   -1.494889891508044E-1   -8.313349317155490E-3    3.778056666412290E-2   -6.315409243179265E-3    3.771154390478140E-2   -5.347207821852208E-1   -5.436821180451568E-2
 6.457252742750000E9    -5.724529502441060E-1   -1.484844424158413E-1   -8.205584930641177E-3    3.796886464903643E-2   -6.254079056490909E-3    3.797271548222187E-2   -5.348542466791656E-1   -5.297497495372706E-2
 6.457264404075000E9    -5.728532204417295E-1   -1.474664755346867E-1   -8.200107289646008E-3    3.832627283056529E-2   -6.145345871164598E-3    3.825694546215221E-2   -5.349115081496112E-1   -5.179930206815361E-2
 6.457276065400000E9    -5.730463457637095E-1   -1.465082333846372E-1   -8.207327769589752E-3    3.870438362602451E-2   -6.120832306867989E-3    3.845372306301381E-2   -5.350796011569867E-1   -5.053649846241517E-2
 6.457287726725000E9    -5.732812374192009E-1   -1.454753659641383E-1   -8.106614852913375E-3    3.885611472016798E-2   -6.082737664898886E-3    3.871593192531881E-2   -5.353057402864065E-1   -4.928518555938262E-2
 6.457299388050000E9    -5.734351793393233E-1   -1.444242930323266E-1   -8.101177012635881E-3    3.905314618553754E-2   -6.042292064238534E-3    3.891039216896115E-2   -5.354120276261854E-1   -4.789787032721358E-2
 6.457311049375000E9    -5.737128924357487E-1   -1.435214187457197E-1   -8.025588669332576E-3    3.922814875524168E-2   -5.925326326485602E-3    3.917532902778084E-2   -5.354769524243795E-1   -4.659491546485017E-2
 6.457322710700000E9    -5.737736597646077E-1   -1.423968922528654E-1   -7.974008986285816E-3    3.963875673131564E-2   -5.923291708588823E-3    3.942868179400150E-2   -5.354779277130919E-1   -4.500204458803615E-2
 6.457334372025000E9    -5.740748991011942E-1   -1.414800923910289E-1   -7.896246913924390E-3    3.990845288695484E-2   -5.901257254582921E-3    3.969153399506919E-2   -5.356813428849906E-1   -4.390712929156820E-2
 6.457346033350000E9    -5.743590023693808E-1   -1.403534468498646E-1   -7.974024322908450E-3    4.010220808646853E-2   -5.877630244602508E-3    3.999001150948337E-2   -5.356078735181253E-1   -4.249078430000504E-2
 6.457357694675000E9    -5.745060361839249E-1   -1.393569492225125E-1   -7.801121262380907E-3    4.046659424144992E-2   -5.733423343880674E-3    4.031002113057241E-2   -5.359211163893980E-1   -4.128538554675684E-2
 6.457369356000000E9    -5.746931577398999E-1   -1.383467042887801E-1   -7.760716084937779E-3    4.076029259064142E-2   -5.856370402729686E-3    4.044270610086232E-2   -5.358179972851156E-1   -3.973268169451140E-2
 6.457381017325000E9    -5.750172226787126E-1   -1.373438801778915E-1   -7.671961181128251E-3    4.100630714788405E-2   -5.667729970535569E-3    4.080104692263734E-2   -5.359039951721476E-1   -3.842870302360565E-2
 6.457392678650000E9    -5.751784974502648E-1   -1.362343371816942E-1   -7.744603243309090E-3    4.128822429517308E-2   -5.524598800845049E-3    4.099355000749508E-2   -5.358924759659975E-1   -3.692422108868562E-2
 6.457404339975000E9    -5.752773859320167E-1   -1.352994781219599E-1   -7.659613373080185E-3    4.152441665271164E-2   -5.543681751607226E-3    4.133417300896368E-2   -5.361337864427588E-1   -3.554597240835666E-2
 6.457416001300000E9    -5.755443347063592E-1   -1.342513540636320E-1   -7.695303257842521E-3    4.188195560890458E-2   -5.441698853442387E-3    4.149553617851603E-2   -5.361735656332529E-1   -3.420398497990931E-2
 6.457427662625000E9    -5.758543185148457E-1   -1.333456405481561E-1   -7.391564623939084E-3    4.209078153289897E-2   -5.258456864480027E-3    4.185609290578319E-2   -5.363517010987078E-1   -3.291615075163835E-2
 6.457439323950000E9    -5.759416032696277E-1   -1.321931331438483E-1   -7.345070451832883E-3    4.247252347078117E-2   -5.313050870915877E-3    4.214898514072580E-2   -5.362740613551643E-1   -3.151752335754126E-2
 6.457450985275000E9    -5.761390803448052E-1   -1.311877874941820E-1   -7.376731576640027E-3    4.247421336331139E-2   -5.258229595200679E-3    4.242858780616683E-2   -5.363852083025001E-1   -3.004165630027261E-2
 6.457462646600000E9    -5.764181574934848E-1   -1.301777539963534E-1   -7.403793222306912E-3    4.308885634871270E-2   -5.076812884686023E-3    4.273538882367795E-2   -5.363215714039460E-1   -2.868474546729723E-2
 6.457474307925000E9    -5.766856439732094E-1   -1.291120214681091E-1   -7.346047974409657E-3    4.330527271248383E-2   -5.148486171650962E-3    4.305081072532428E-2   -5.364961219421541E-1   -2.710097414087688E-2
 6.457485969250000E9    -5.767923098608847E-1   -1.279074433016515E-1   -7.205345352679582E-3    4.362182364126146E-2   -5.079252039912351E-3    4.329201112607622E-2   -5.365185506942554E-1   -2.572840685213112E-2
 6.457497630575000E9    -5.769613912092614E-1   -1.270308196508426E-1   -7.200852798225995E-3    4.390782585192427E-2   -4.968695165998033E-3    4.357815283419884E-2   -5.364618925751558E-1   -2.439564690229177E-2
 6.457509291900000E9    -5.771078873910455E-1   -1.259134861721342E-1   -7.145216677883222E-3    4.433199787792515E-2   -4.789313149538516E-3    4.381206045530200E-2   -5.366637308245935E-1   -2.298093451619725E-2
 6.457520953225000E9    -5.773289649697424E-1   -1.248270236533648E-1   -7.050802441792282E-3    4.445178193316092E-2   -4.788566327303174E-3    4.420441407283537E-2   -5.365500309873016E-1   -2.156573737919047E-2
 6.457532614550000E9    -5.774628801530185E-1   -1.237931602459439E-1   -7.052486903777714E-3    4.485558887675491E-2   -4.750398143307971E-3    4.461461724381564E-2   -5.366200818614092E-1   -1.998105876815749E-2
 6.457544275875000E9    -5.776419877033570E-1   -1.227402166274187E-1   -6.874875325753084E-3    4.514142626294297E-2   -4.670760468179817E-3    4.486184988751830E-2   -5.365630828490621E-1   -1.869655611282010E-2
 6.457555937200000E9    -5.779044441619521E-1   -1.217942380102150E-1   -6.918511848363274E-3    4.559215410246047E-2   -4.542376519118432E-3    4.513072724718652E-2   -5.367104844809333E-1   -1.716915156730758E-2
 6.457567598525000E9    -5.780709072709310E-1   -1.206155346589150E-1   -6.814488971165067E-3    4.594493326342022E-2   -4.452779405572157E-3    4.548517819483480E-2   -5.367462397386260E-1   -1.554036675516337E-2
 6.457579259850000E9    -5.781847418555297E-1   -1.195729173472015E-1   -6.741503001570720E-3    4.618357817329746E-2   -4.402910737607688E-3    4.583655780166334E-2   -5.368278239197026E-1   -1.406995436366001E-2
 6.457590921175000E9    -5.783730437723587E-1   -1.184734508655825E-1   -6.703670918419234E-3    4.662359634195954E-2   -4.285187691662687E-3    4.610026069773855E-2   -5.366800144976289E-1   -1.256929144647966E-2
 6.457602582500000E9    -5.785659415649790E-1   -1.174891459619714E-1   -6.552016540240174E-3    4.685465124570544E-2   -4.199611093300346E-3    4.651369970621123E-2   -5.366150253433961E-1   -1.113800700881767E-2
 6.457614243825000E9    -5.787338384699230E-1   -1.164278317961879E-1   -6.484994399154175E-3    4.730076489888940E-2   -4.040173803124206E-3    4.689693122771887E-2   -5.366945776777801E-1   -9.571590816036217E-3
 6.457625905150000E9    -5.788892365054017E-1   -1.154093636752227E-1   -6.374739096975142E-3    4.764792391472119E-2   -3.971777460195126E-3    4.716031244402559E-2   -5.365956824810141E-1   -8.212565538404049E-3
 6.457637566475000E9    -5.790976871253872E-1   -1.142789343327071E-1   -6.308368371593844E-3    4.788156362176575E-2   -3.981467871045407E-3    4.748219115092642E-2   -5.366422586062113E-1   -6.556060939622807E-3
 6.457649227800000E9    -5.791554843604553E-1   -1.132081914685281E-1   -6.190592711725145E-3    4.828101964283237E-2   -3.762353102848198E-3    4.789059052271073E-2   -5.366458129825661E-1   -5.023365552945810E-3
 6.457660889125000E9    -5.793374410389904E-1   -1.120966708380481E-1   -6.161502312933216E-3    4.870816879042227E-2   -3.730205162701898E-3    4.830036680925910E-2   -5.366509981030737E-1   -3.459347436106432E-3
 6.457672550450000E9    -5.795479468295799E-1   -1.111067949947455E-1   -5.901634553779198E-3    4.912052385831849E-2   -3.670051300325343E-3    4.850494463725266E-2   -5.365645200379261E-1   -1.922448466224551E-3
 6.457684211775000E9    -5.796975021811044E-1   -1.098723921725618E-1   -6.087817255142329E-3    4.943343556278527E-2   -3.460380456727574E-3    4.897341915830298E-2   -5.365861538535250E-1   -4.032016024378788E-4
 6.457695873100000E9    -5.799030022407703E-1   -1.089014635917693E-1   -5.951363942290449E-3    4.994866235538124E-2   -3.456129534256410E-3    4.933099694899628E-2   -5.365256037585054E-1    1.171325203636054E-3
 6.457707534425000E9    -5.800117273856096E-1   -1.077651199204570E-1   -5.753660683450811E-3    5.025298036866983E-2   -3.432824982236089E-3    4.968758737893286E-2   -5.363314391387118E-1    2.879163038021313E-3
 6.457719195750000E9    -5.801245111300307E-1   -1.067601622828089E-1   -5.748448136559337E-3    5.078678886621842E-2   -3.161941883978964E-3    5.013386307926376E-2   -5.363870821657666E-1    4.311511889979757E-3
 6.457730857075000E9    -5.801905123651204E-1   -1.055830861431776E-1   -5.633437651382678E-3    5.109662023688416E-2   -2.974760045636566E-3    5.049093800722206E-2   -5.362898124114007E-1    6.157540314487286E-3
 6.457742518400000E9    -5.803879072089063E-1   -1.045313615769035E-1   -5.440662387725871E-3    5.150585347435991E-2   -2.948508749987180E-3    5.083488118623813E-2   -5.362161337774144E-1    7.680916405830782E-3
 6.457754179725000E9    -5.804721810036390E-1   -1.033502421360404E-1   -5.505876658499569E-3    5.199694956123940E-2   -2.825828334762385E-3    5.131235597372385E-2   -5.359814030759100E-1    9.254680227426008E-3
 6.457765841050000E9    -5.807117305188229E-1   -1.022560849443487E-1   -5.067794704501766E-3    5.238112334451210E-2   -2.676382082358500E-3    5.170440208530373E-2   -5.361116225361316E-1    1.103184083430057E-2
 6.457777502375000E9    -5.807146119157026E-1   -1.010871324681712E-1   -5.186191433743050E-3    5.276599161094088E-2   -2.585657239658969E-3    5.214333750406109E-2   -5.360747524146758E-1    1.266926032533402E-2
 6.457789163700000E9    -5.809178055748315E-1   -9.998824923307195E-2   -4.998573497691388E-3    5.325798729827434E-2   -2.428644203062659E-3    5.252022460471602E-2   -5.359194763137434E-1    1.437949874506526E-2
 6.457800825025000E9    -5.810466047028136E-1   -9.885338102113458E-2   -4.946886814252037E-3    5.375216890643394E-2   -2.189950365647968E-3    5.308158560612340E-2   -5.358596492157724E-1    1.590608427366342E-2
 6.457812486350000E9    -5.812008276420167E-1   -9.771284110476278E-2   -4.770772960451765E-3    5.416242069769091E-2   -2.167112097246912E-3    5.342617324842883E-2   -5.357392444299888E-1    1.756804407154880E-2
 6.457824147675000E9    -5.813089649114359E-1   -9.659936222578103E-2   -4.602507333874773E-3    5.455546447048555E-2   -2.027839684275867E-3    5.380051126172835E-2   -5.354599778685459E-1    1.924643098679205E-2
 6.457835809000000E9    -5.814782489482937E-1   -9.549490773979603E-2   -4.533406540036386E-3    5.506348520768858E-2   -1.935391789378855E-3    5.428823905418940E-2   -5.354148876659296E-1    2.093095735294005E-2
 6.457847470325000E9    -5.815261518227851E-1   -9.438365479356978E-2   -4.393297513891150E-3    5.554762800200107E-2   -1.742502840414390E-3    5.475364548313184E-2   -5.353436360133955E-1    2.284693262572015E-2
 6.457859131650000E9    -5.816920424155619E-1   -9.317921501033494E-2   -4.363464672993696E-3    5.594685545113229E-2   -1.560875634152705E-3    5.524743559620916E-2   -5.351045960989140E-1    2.454113844211362E-2
 6.457870792975000E9    -5.817083639914176E-1   -9.209127477353705E-2   -4.361266539080966E-3    5.642674016770394E-2   -1.474583143332751E-3    5.568292019715172E-2   -5.350761495436567E-1    2.618957431152612E-2
 6.457882454300000E9    -5.817561683167844E-1   -9.091334755475210E-2   -4.004848597415974E-3    5.697918622829527E-2   -1.227746381643940E-3    5.620206822267715E-2   -5.347470545399423E-1    2.796639962122078E-2
 6.457894115625000E9    -5.819180729581706E-1   -8.977007266541120E-2   -3.934291689698174E-3    5.738116507024346E-2   -1.144883368634394E-3    5.670335426469197E-2   -5.346686210997759E-1    2.979181276944390E-2
 6.457905776950000E9    -5.819805318494058E-1   -8.863660028411463E-2   -3.873450963617111E-3    5.791879758493287E-2   -9.481227445328466E-4    5.708740549518851E-2   -5.344692797718245E-1    3.163594613804554E-2
 6.457917438275000E9    -5.821071419725680E-1   -8.741462638915257E-2   -3.737154508011582E-3    5.850767841516134E-2   -8.791290622749495E-4    5.764305436722331E-2   -5.342925005437674E-1    3.335781251018372E-2
 6.457929099600000E9    -5.821482212990469E-1   -8.628298933243821E-2   -3.528133467586661E-3    5.900062321782084E-2   -6.109796033510948E-4    5.809642349027218E-2   -5.341568952527499E-1    3.524964286039617E-2
 6.457940760925000E9    -5.822907245529146E-1   -8.513950438946151E-2   -3.204154687870826E-3    5.954715766211887E-2   -4.055441850721488E-4    5.866674060343778E-2   -5.337851719822888E-1    3.708101169197857E-2
 6.457952422250000E9    -5.823358266471982E-1   -8.397289860857832E-2   -3.173964055194129E-3    6.014822620473111E-2   -1.021008812343015E-4    5.907610348871820E-2   -5.335746256917606E-1    3.895154121522737E-2
