#  HZ   S   RI   R     50.00 
! Rohde & Schwarz Vector Network Analyzer 
! Rohde-Schwarz,ZNB20-2Port,1311601062101988,3.16
! Created: UTC 3/20/2024, 11:06:54 PM
! freq[Hz]                re:S11                  im:S11                  re:S21                  im:S21                  re:S12                  im:S12                  re:S22                  im:S22
 6.456898789000000E9    -5.647254225618806E-1   -1.781839837540274E-1   -9.199514219229168E-3    3.171592110421285E-2   -7.468080560239477E-3    3.170276120307192E-2   -5.297460270319568E-1   -9.093385500363643E-2
 6.456910467175000E9    -5.650124515911644E-1   -1.772707483697018E-1   -9.110356667135583E-3    3.188424657680602E-2   -7.439281967851088E-3    3.195343883245287E-2   -5.299102203475441E-1   -8.968881720086687E-2
 6.456922145350000E9    -5.652997369804930E-1   -1.763612938115469E-1   -9.105986643985332E-3    3.197717330887414E-2   -7.348221256462052E-3    3.207996120613702E-2   -5.300617991292202E-1   -8.852676842976374E-2
 6.456933823525000E9    -5.655799893177461E-1   -1.753415691948289E-1   -9.006602635481508E-3    3.228576864361094E-2   -7.398778678336893E-3    3.224958058429690E-2   -5.301989690790294E-1   -8.739682527841922E-2
 6.456945501700000E9    -5.658591031752606E-1   -1.744641447540289E-1   -9.061038068467309E-3    3.243930958515175E-2   -7.300406642272078E-3    3.233552500110522E-2   -5.304260756955866E-1   -8.617881310501475E-2
 6.456957179875000E9    -5.660592422181749E-1   -1.734108897497103E-1   -8.962122807937109E-3    3.265216081792231E-2   -7.294792180091780E-3    3.263438898100865E-2   -5.306864932797688E-1   -8.490065609540116E-2
 6.456968858050000E9    -5.663379616488308E-1   -1.724288281206945E-1   -9.049372607654014E-3    3.289012213400193E-2   -7.308424400897035E-3    3.279342263953479E-2   -5.309505384115336E-1   -8.367436672090132E-2
 6.456980536225000E9    -5.666777347266987E-1   -1.713974878556841E-1   -9.047020610184899E-3    3.305792730348563E-2   -7.226145530025057E-3    3.301106823811004E-2   -5.310836976493944E-1   -8.243042797395209E-2
 6.456992214400000E9    -5.669073590284173E-1   -1.705840214607281E-1   -8.989768138197568E-3    3.327989928196524E-2   -7.164189011131507E-3    3.319208474321608E-2   -5.311534417363087E-1   -8.126418814232643E-2
 6.457003892575000E9    -5.671964813855971E-1   -1.695633502040430E-1   -9.020616673898115E-3    3.331833425363903E-2   -7.102620426109282E-3    3.339747533578535E-2   -5.314363002459392E-1   -8.006508704139421E-2
 6.457015570750000E9    -5.674864342129471E-1   -1.685687569796236E-1   -8.906453458003649E-3    3.346534689541419E-2   -7.135856308563817E-3    3.362279111431472E-2   -5.316111270835915E-1   -7.886496236333129E-2
 6.457027248925000E9    -5.677453920237254E-1   -1.676811748502470E-1   -8.781161036069228E-3    3.384286499315142E-2   -7.080764833568095E-3    3.375013272145794E-2   -5.316337681756527E-1   -7.766540522974516E-2
 6.457038927100000E9    -5.680144573629148E-1   -1.665559407929510E-1   -8.749512911417550E-3    3.396904135300188E-2   -7.017513545653468E-3    3.403005343906615E-2   -5.318801136450569E-1   -7.645150628261489E-2
 6.457050605275000E9    -5.683496781826793E-1   -1.656436492571542E-1   -8.734228000461584E-3    3.420320615236221E-2   -7.097938110714461E-3    3.427506804032826E-2   -5.320619762802161E-1   -7.518582481108134E-2
 6.457062283450000E9    -5.685074183162246E-1   -1.647139669871178E-1   -8.787478362628805E-3    3.438794678427158E-2   -6.985174616964540E-3    3.435223663462011E-2   -5.322769545594181E-1   -7.402721797736282E-2
 6.457073961625000E9    -5.688036106058160E-1   -1.637418841982559E-1   -8.808506510275101E-3    3.458417379208445E-2   -6.913401623630043E-3    3.458340573326904E-2   -5.325279077632896E-1   -7.272914718061692E-2
 6.457085639800000E9    -5.690879653906149E-1   -1.627120758364655E-1   -8.681791949501503E-3    3.487620849701270E-2   -6.897874457798702E-3    3.472913038853775E-2   -5.325119751048574E-1   -7.142104240051581E-2
 6.457097317975000E9    -5.692195926706846E-1   -1.617233219660336E-1   -8.718962709596240E-3    3.511377255355842E-2   -6.847063916935978E-3    3.502261413216893E-2   -5.326148402047660E-1   -7.027993205815150E-2
 6.457108996150000E9    -5.696419212980794E-1   -1.607860678253234E-1   -8.714756688478670E-3    3.526353562114137E-2   -6.787357336430794E-3    3.516693963139871E-2   -5.329157727063640E-1   -6.899892310607021E-2
 6.457120674325000E9    -5.698124496034894E-1   -1.598172839540873E-1   -8.655213415738862E-3    3.547772261483478E-2   -6.750843460220984E-3    3.538441948706378E-2   -5.330299615838302E-1   -6.777367032853103E-2
 6.457132352500000E9    -5.700492521313317E-1   -1.586949584735804E-1   -8.653390904972001E-3    3.570543086262529E-2   -6.690157066646225E-3    3.556634534083666E-2   -5.331924988517486E-1   -6.660204288966597E-2
 6.457144030675000E9    -5.703203567081212E-1   -1.576923318186656E-1   -8.544602630980050E-3    3.588332328494367E-2   -6.754767412103153E-3    3.577759017167176E-2   -5.334354536097027E-1   -6.524697246646934E-2
 6.457155708850000E9    -5.705228628467521E-1   -1.566568997989870E-1   -8.497599293734660E-3    3.604359533701185E-2   -6.652531850225451E-3    3.607254275335958E-2   -5.335034410777694E-1   -6.388962291328705E-2
 6.457167387025000E9    -5.708419251144328E-1   -1.558385639952788E-1   -8.438511536105869E-3    3.641024271944714E-2   -6.623527761154627E-3    3.633455421627669E-2   -5.336472369364436E-1   -6.285401573808619E-2
 6.457179065200000E9    -5.710951222927243E-1   -1.547940938285005E-1   -8.430289887579543E-3    3.661577253276691E-2   -6.536090570587877E-3    3.655027679083202E-2   -5.337154528374313E-1   -6.146835001468300E-2
 6.457190743375000E9    -5.713131017048481E-1   -1.538031629058813E-1   -8.527346494235831E-3    3.690282553977567E-2   -6.444761305985511E-3    3.670505830210974E-2   -5.338504925177657E-1   -6.004985658988411E-2
 6.457202421550000E9    -5.714887347472597E-1   -1.529193807394771E-1   -8.546630500078091E-3    3.695889105349181E-2   -6.417147181190796E-3    3.698447639359181E-2   -5.341382490648329E-1   -5.875074455038280E-2
 6.457214099725000E9    -5.717364492702842E-1   -1.519016046062096E-1   -8.395486705537726E-3    3.733592471035128E-2   -6.479688318029185E-3    3.713011803747698E-2   -5.341571553126556E-1   -5.749257037811308E-2
 6.457225777900000E9    -5.720269075306288E-1   -1.507761037884280E-1   -8.243516553369842E-3    3.755730595210667E-2   -6.409173911853878E-3    3.737851785735135E-2   -5.342553848665065E-1   -5.626360035971158E-2
 6.457237456075000E9    -5.721852091432580E-1   -1.498083261668997E-1   -8.312949486706417E-3    3.770025256237671E-2   -6.354477072989634E-3    3.774632451130645E-2   -5.344745863092560E-1   -5.502364729135611E-2
 6.457249134250000E9    -5.724957029862919E-1   -1.487010847787049E-1   -8.298523818683267E-3    3.802480091832310E-2   -6.171531715788063E-3    3.789263532212820E-2   -5.345770662831003E-1   -5.360318629709576E-2
 6.457260812425000E9    -5.727440081864736E-1   -1.478325620149690E-1   -8.331185062823911E-3    3.827395113853374E-2   -6.219983649673370E-3    3.821640248499186E-2   -5.346974217772630E-1   -5.228666995208906E-2
 6.457272490600000E9    -5.729163417776415E-1   -1.467777354218964E-1   -8.197890815123499E-3    3.846842151301405E-2   -6.174460687466493E-3    3.833372460746047E-2   -5.347083499811689E-1   -5.107779661410713E-2
 6.457284168775000E9    -5.731638548366323E-1   -1.457659674614365E-1   -8.140780636457786E-3    3.870081879268068E-2   -6.083002665273930E-3    3.864031125971447E-2   -5.348680566448213E-1   -4.971900161218399E-2
 6.457295846950000E9    -5.734142658911794E-1   -1.446773237014662E-1   -8.064841237985168E-3    3.897202088662311E-2   -5.989255568184588E-3    3.880411565445961E-2   -5.350852322873105E-1   -4.836714018876900E-2
 6.457307525125000E9    -5.735519906757428E-1   -1.436807535969261E-1   -8.147575444511163E-3    3.930562067647312E-2   -5.927173917434953E-3    3.918831331095930E-2   -5.350187266153409E-1   -4.689036978963892E-2
 6.457319203300000E9    -5.737263263218042E-1   -1.426722002118000E-1   -8.191492235331027E-3    3.969466903610922E-2   -5.971508472241719E-3    3.943564422202515E-2   -5.351391166669850E-1   -4.566594216079304E-2
 6.457330881475000E9    -5.740451180514677E-1   -1.418070509440225E-1   -7.958218204988128E-3    3.986620550150428E-2   -5.928070023654751E-3    3.958877749259510E-2   -5.352329513335464E-1   -4.440755019022951E-2
 6.457342559650000E9    -5.741621865959169E-1   -1.406232303718602E-1   -7.967319322099186E-3    4.011073248101583E-2   -5.796933876542214E-3    3.986601057325236E-2   -5.353919409395691E-1   -4.294158482951185E-2
 6.457354237825000E9    -5.744789450635109E-1   -1.396066511284771E-1   -7.970800990676135E-3    4.035862032744214E-2   -5.836217145605122E-3    4.015233106792575E-2   -5.355772752473583E-1   -4.166251802619890E-2
 6.457365916000000E9    -5.746916783679038E-1   -1.386545170624919E-1   -7.783765953586993E-3    4.079987169038899E-2   -5.690646180251235E-3    4.039887616120998E-2   -5.354607715806018E-1   -4.027208768206237E-2
 6.457377594175000E9    -5.748613591195174E-1   -1.376717669605976E-1   -7.885646990675956E-3    4.088505272496862E-2   -5.711951031664941E-3    4.071997562251209E-2   -5.357060624435360E-1   -3.899515680344127E-2
 6.457389272350000E9    -5.751068990471261E-1   -1.366484963369627E-1   -7.791334440004685E-3    4.108795867479377E-2   -5.730821240958673E-3    4.087013914142635E-2   -5.357157717314351E-1   -3.752740551415350E-2
 6.457400950525000E9    -5.752614678973264E-1   -1.356296274794790E-1   -7.616677138720709E-3    4.130762074722297E-2   -5.512825556100658E-3    4.118822086555574E-2   -5.357930055909645E-1   -3.622647061514180E-2
 6.457412628700000E9    -5.755015311923947E-1   -1.345731611019111E-1   -7.662953948865673E-3    4.172623655938278E-2   -5.443763069741615E-3    4.145524372058013E-2   -5.360719307538840E-1   -3.477216570839830E-2
 6.457424306875000E9    -5.757095915864929E-1   -1.334611137101162E-1   -7.616548830527051E-3    4.201997886830611E-2   -5.369120945323163E-3    4.171061654531558E-2   -5.359166370166034E-1   -3.328511501355446E-2
 6.457435985050000E9    -5.760255187861353E-1   -1.323801426525127E-1   -7.540470102462446E-3    4.232320916939206E-2   -5.385262971178451E-3    4.202525340990486E-2   -5.360519062899403E-1   -3.205785524548557E-2
 6.457447663225000E9    -5.761505318335617E-1   -1.315164416157410E-1   -7.391419742324700E-3    4.266888324979797E-2   -5.233819461224343E-3    4.239824299901516E-2   -5.359952923159991E-1   -3.062246706059638E-2
 6.457459341400000E9    -5.763544249329207E-1   -1.305054271238133E-1   -7.313771727141310E-3    4.292626767163059E-2   -5.108832863921219E-3    4.265312464259233E-2   -5.360049059850975E-1   -2.909649827613460E-2
 6.457471019575000E9    -5.764613138464950E-1   -1.294128367456133E-1   -7.471184854267152E-3    4.327317483494186E-2   -5.041311281864259E-3    4.287430111285011E-2   -5.361200479342350E-1   -2.777056168659009E-2
 6.457482697750000E9    -5.767174521788734E-1   -1.283356064729188E-1   -7.198560931750740E-3    4.353936376661941E-2   -5.057088067115664E-3    4.327634545231730E-2   -5.363443530653369E-1   -2.631515681070615E-2
 6.457494375925000E9    -5.768372885555959E-1   -1.272864123043600E-1   -7.317314911567886E-3    4.390444521463371E-2   -5.056323425894160E-3    4.355185112306789E-2   -5.362293447021853E-1   -2.490015369587658E-2
 6.457506054100000E9    -5.771324595419979E-1   -1.262170092609706E-1   -7.141121355196491E-3    4.403467861291627E-2   -4.909863596723779E-3    4.378495603153470E-2   -5.362592309539254E-1   -2.344525603629182E-2
 6.457517732275000E9    -5.773603099924081E-1   -1.251781105585511E-1   -7.123709246277835E-3    4.444012574093209E-2   -4.714534512099625E-3    4.406322424039657E-2   -5.363365037333847E-1   -2.201538101895752E-2
 6.457529410450000E9    -5.776165757583284E-1   -1.241434792225038E-1   -7.031356120828901E-3    4.479936424202567E-2   -4.701078727362911E-3    4.444572981056906E-2   -5.363057518359998E-1   -2.064524965222198E-2
 6.457541088625000E9    -5.776246445544891E-1   -1.231327941844884E-1   -6.904067671854132E-3    4.502158317181280E-2   -4.619405340129885E-3    4.467313124047041E-2   -5.364735253231514E-1   -1.903935589659242E-2
 6.457552766800000E9    -5.778688043730478E-1   -1.219826760547501E-1   -6.893010240790936E-3    4.539137109298468E-2   -4.609727101700077E-3    4.511978790325832E-2   -5.364150587728613E-1   -1.762206769578766E-2
 6.457564444975000E9    -5.780836672244390E-1   -1.209118509333515E-1   -6.811726732187360E-3    4.579528249569968E-2   -4.550320079112200E-3    4.534636443116742E-2   -5.365927242317957E-1   -1.621104670150389E-2
 6.457576123150000E9    -5.781779033853899E-1   -1.198741433703719E-1   -6.778259320330843E-3    4.607862529283089E-2   -4.343277180384344E-3    4.580316840464415E-2   -5.364842455139825E-1   -1.464022815836817E-2
 6.457587801325000E9    -5.783323506453706E-1   -1.187465628582025E-1   -6.728302531595639E-3    4.657249768456995E-2   -4.308533234833280E-3    4.607607028967604E-2   -5.364453798532102E-1   -1.315559636538796E-2
 6.457599479500000E9    -5.786080694881307E-1   -1.178147628674405E-1   -6.669707139935790E-3    4.690695921128669E-2   -4.134540763410028E-3    4.637423394780640E-2   -5.363275813994675E-1   -1.161325829109485E-2
 6.457611157675000E9    -5.786791358372753E-1   -1.166571043926392E-1   -6.508137968497738E-3    4.718682758355491E-2   -4.116112957146337E-3    4.668019035798013E-2   -5.365780308122057E-1   -9.982327886728084E-3
 6.457622835850000E9    -5.788200050665926E-1   -1.156261831763725E-1   -6.533919675988211E-3    4.761987494193809E-2   -4.051965096912209E-3    4.713636855904055E-2   -5.364018114067379E-1   -8.597243448065105E-3
 6.457634514025000E9    -5.790678109010297E-1   -1.145004455645045E-1   -6.465995029817404E-3    4.790451231729101E-2   -3.894484627493561E-3    4.747464765212579E-2   -5.364662984888731E-1   -7.146185609432744E-3
 6.457646192200000E9    -5.791971146945653E-1   -1.133678058484265E-1   -6.293551182252531E-3    4.826143809911407E-2   -3.871399935340053E-3    4.776789051664292E-2   -5.364211012511626E-1   -5.535185400720822E-3
 6.457657870375000E9    -5.793217243020896E-1   -1.124447588497577E-1   -6.266222620080598E-3    4.855978675021991E-2   -3.765434744921125E-3    4.814641634569571E-2   -5.364194706112156E-1   -3.918093072549704E-3
 6.457669548550000E9    -5.796135979187560E-1   -1.112861436086556E-1   -5.968829130370046E-3    4.902001437108103E-2   -3.645113134691967E-3    4.846070323325154E-2   -5.364173164830103E-1   -2.406982268569870E-3
 6.457681226725000E9    -5.796868242902373E-1   -1.102848742196281E-1   -5.899064770867581E-3    4.955062759188790E-2   -3.554050232755960E-3    4.890724294226267E-2   -5.363218031744479E-1   -8.244788554051770E-4
 6.457692904900000E9    -5.798398585552311E-1   -1.091888617801281E-1   -5.878948342144142E-3    4.981702110149063E-2   -3.492256078594736E-3    4.927654043876060E-2   -5.362536184541991E-1    7.742680984519590E-4
 6.457704583075000E9    -5.799586695032640E-1   -1.080381288059096E-1   -5.807727375908241E-3    5.018712956600919E-2   -3.330238613920580E-3    4.966929918036436E-2   -5.362988857781835E-1    2.391255807179274E-3
 6.457716261250000E9    -5.802105803720747E-1   -1.069559494633760E-1   -5.716980332428873E-3    5.066385145868232E-2   -3.219946361263618E-3    4.998827727108167E-2   -5.361442506816948E-1    4.046036863912502E-3
 6.457727939425000E9    -5.801766904805039E-1   -1.057571105441236E-1   -5.617874965891338E-3    5.091096697734481E-2   -3.102747835154772E-3    5.051645053884907E-2   -5.360405026987523E-1    5.587667461945523E-3
 6.457739617600000E9    -5.803420005896794E-1   -1.045457568905710E-1   -5.543040552250114E-3    5.153402601997691E-2   -2.973237529318313E-3    5.083573865398600E-2   -5.360005550437361E-1    7.143281474060839E-3
 6.457751295775000E9    -5.805458213977501E-1   -1.035045809124997E-1   -5.328266330555412E-3    5.187317718599044E-2   -2.885256354501703E-3    5.124696520129181E-2   -5.359577405425219E-1    8.824758591032716E-3
 6.457762973950000E9    -5.805977191185160E-1   -1.025044998308437E-1   -5.330195705725910E-3    5.225981577385219E-2   -2.702068504800857E-3    5.155195108270284E-2   -5.358885174961475E-1    1.049286203487517E-2
 6.457774652125000E9    -5.808404962865014E-1   -1.012476598471621E-1   -5.170911932621292E-3    5.275878304420535E-2   -2.620895175098261E-3    5.209221027141361E-2   -5.357868868296526E-1    1.203232473779517E-2
 6.457786330300000E9    -5.809033433515873E-1   -1.002293137983566E-1   -5.194489309410903E-3    5.308219591313104E-2   -2.343683454253553E-3    5.243007615976995E-2   -5.356225354639386E-1    1.374340227619847E-2
 6.457798008475000E9    -5.811513056064695E-1   -9.907344650048293E-2   -4.910200499816382E-3    5.356313917680707E-2   -2.346959232248632E-3    5.300111400521495E-2   -5.356570559579692E-1    1.534630562005937E-2
 6.457809686650000E9    -5.811704283397083E-1   -9.803175812518143E-2   -4.850913311694117E-3    5.403362123553545E-2   -2.168064236420398E-3    5.333943475702344E-2   -5.356045495400662E-1    1.723263447807446E-2
 6.457821364825000E9    -5.811808266513540E-1   -9.680643792655871E-2   -4.823841620643069E-3    5.442723590701628E-2   -2.050740652303514E-3    5.368881174976277E-2   -5.354054478018089E-1    1.886937036246348E-2
 6.457833043000000E9    -5.814465356996814E-1   -9.572067183169300E-2   -4.572179583657679E-3    5.489574603099130E-2   -1.893439701680819E-3    5.419305097907268E-2   -5.352644317629601E-1    2.036677131976910E-2
 6.457844721175000E9    -5.814452250768829E-1   -9.456199291879808E-2   -4.533072725859637E-3    5.534092754440013E-2   -1.756335262764900E-3    5.462225283283668E-2   -5.350965007556360E-1    2.221455841821228E-2
 6.457856399350000E9    -5.815593380452747E-1   -9.346813244374599E-2   -4.444144048469835E-3    5.591937064957162E-2   -1.627794931702061E-3    5.508992541078513E-2   -5.349236507223012E-1    2.407934794680755E-2
 6.457868077525000E9    -5.816993663440240E-1   -9.232395947407286E-2   -4.260804755333648E-3    5.630076715714527E-2   -1.398877530224944E-3    5.565473592223893E-2   -5.348421874618142E-1    2.570195008096554E-2
 6.457879755700000E9    -5.818970171483941E-1   -9.125267327504022E-2   -4.125962654725966E-3    5.693420930550271E-2   -1.365819630150983E-3    5.611566651221502E-2   -5.347527928348942E-1    2.752003323240391E-2
 6.457891433875000E9    -5.819610361019437E-1   -8.997535678683846E-2   -4.026623498845102E-3    5.737327371498507E-2   -1.087011205067153E-3    5.658862734780428E-2   -5.344676740512015E-1    2.922139813816086E-2
 6.457903112050000E9    -5.820548607375481E-1   -8.894274650948207E-2   -3.893990423660532E-3    5.779611526329135E-2   -1.050629962453854E-3    5.706687876405637E-2   -5.344294846721446E-1    3.109514361666613E-2
 6.457914790225000E9    -5.821165779882113E-1   -8.761220182398798E-2   -3.795768475841327E-3    5.831778476344560E-2   -8.298637521419229E-4    5.750056352269422E-2   -5.340059367737242E-1    3.292098351261561E-2
 6.457926468400000E9    -5.822383965993843E-1   -8.655412413921369E-2   -3.517821689106229E-3    5.895765111731075E-2   -6.335561370261831E-4    5.808701694968481E-2   -5.339141971493703E-1    3.470176243682194E-2
 6.457938146575000E9    -5.823522047268885E-1   -8.535332494229800E-2   -3.446457579569774E-3    5.940626785545054E-2   -4.876869665284556E-4    5.854299701485260E-2   -5.337063670189389E-1    3.652086021047322E-2
 6.457949824750000E9    -5.823528560217904E-1   -8.417935932206738E-2   -3.177119840849368E-3    6.006984231232618E-2   -2.233433452153176E-4    5.900609392774177E-2   -5.335080521772328E-1    3.841194502796420E-2
