#  HZ   S   RI   R     50.00 
! Rohde & Schwarz Vector Network Analyzer 
! Rohde-Schwarz,ZNB20-2Port,1311601062101988,3.16
! Created: UTC 3/20/2024, 11:07:11 PM
! freq[Hz]                re:S11                  im:S11                  re:S21                  im:S21                  re:S12                  im:S12                  re:S22                  im:S22
 6.456898347000000E9    -5.646371103386826E-1   -1.781403673054308E-1   -9.083998715047803E-3    3.181541660199436E-2   -7.502907373083546E-3    3.175956756743102E-2   -5.301013103237410E-1   -9.069598858041529E-2
 6.456910022650000E9    -5.650363115112877E-1   -1.772621162050295E-1   -8.998562577163933E-3    3.201723435411654E-2   -7.431020700408912E-3    3.196526662284106E-2   -5.302622896372141E-1   -8.974766041793006E-2
 6.456921698300000E9    -5.653322489076422E-1   -1.762856762778488E-1   -9.086537334146922E-3    3.224378794237223E-2   -7.429462440806839E-3    3.214273533269287E-2   -5.304501543433908E-1   -8.837011448394406E-2
 6.456933373950000E9    -5.655007159910594E-1   -1.752998783409040E-1   -8.995705746178816E-3    3.236631910527379E-2   -7.320341610529446E-3    3.232496950659235E-2   -5.306527939927744E-1   -8.714952042832790E-2
 6.456945049600000E9    -5.658097145650635E-1   -1.743388824160488E-1   -8.964504011949669E-3    3.252081264520808E-2   -7.327847366540964E-3    3.246279515754195E-2   -5.308907947201680E-1   -8.599103159313129E-2
 6.456956725250000E9    -5.661677346879634E-1   -1.733969875448494E-1   -8.980140434847907E-3    3.253367396954850E-2   -7.258315110850440E-3    3.267149693690925E-2   -5.311103967932994E-1   -8.486986846977279E-2
 6.456968400900000E9    -5.663601071135412E-1   -1.724402078856093E-1   -9.050984567637185E-3    3.291642573757726E-2   -7.188685152324252E-3    3.288956869717066E-2   -5.313443803495357E-1   -8.372587826892022E-2
 6.456980076550000E9    -5.666836402671683E-1   -1.714629591211078E-1   -8.925763013763728E-3    3.305346287853128E-2   -7.163664800474374E-3    3.301695087562768E-2   -5.314978846487073E-1   -8.249218583028989E-2
 6.456991752200000E9    -5.668908418036034E-1   -1.705199569574317E-1   -8.959167474734554E-3    3.327906734727631E-2   -7.104355509535236E-3    3.328804176732569E-2   -5.317197669626612E-1   -8.119923606146494E-2
 6.457003427850000E9    -5.671947268240037E-1   -1.695648371215412E-1   -8.995231646271128E-3    3.335127606139585E-2   -7.128422878814703E-3    3.344713993808356E-2   -5.317271043826203E-1   -8.002213969394034E-2
 6.457015103500000E9    -5.673975907329851E-1   -1.684727846475188E-1   -8.861052145598214E-3    3.363566405450012E-2   -7.073949465783665E-3    3.355756956869985E-2   -5.319093385655163E-1   -7.886012027954625E-2
 6.457026779150000E9    -5.677016571945501E-1   -1.675285633109346E-1   -8.982614107163556E-3    3.379343108091801E-2   -6.974274210823430E-3    3.387571819391524E-2   -5.321513078113563E-1   -7.765775486568799E-2
 6.457038454800000E9    -5.679187449992678E-1   -1.666267349914891E-1   -8.813213413500387E-3    3.408113784477576E-2   -7.034104117961973E-3    3.404639627570053E-2   -5.323162359666693E-1   -7.639793637985767E-2
 6.457050130450000E9    -5.683308262447334E-1   -1.656039134802981E-1   -8.709453821073633E-3    3.434479614901963E-2   -7.020654688625392E-3    3.418107655242903E-2   -5.324122855851222E-1   -7.511460396262383E-2
 6.457061806100000E9    -5.685531869117748E-1   -1.647448584933666E-1   -8.671410748725185E-3    3.459939203130065E-2   -6.944250553983795E-3    3.447838855554038E-2   -5.327240756348348E-1   -7.384301919439129E-2
 6.457073481750000E9    -5.688429537511946E-1   -1.637374541543687E-1   -8.739499267923907E-3    3.466431613637191E-2   -6.919352321603004E-3    3.457278264696707E-2   -5.329523595142726E-1   -7.262296139238632E-2
 6.457085157400000E9    -5.689880041360935E-1   -1.626428260626199E-1   -8.693165260781165E-3    3.496500014205214E-2   -6.933733909848075E-3    3.472592655623096E-2   -5.329986777481519E-1   -7.142047077631229E-2
 6.457096833050000E9    -5.692236913580778E-1   -1.616801510944124E-1   -8.711521958395155E-3    3.519926886197529E-2   -6.924825581255007E-3    3.500570067441838E-2   -5.331372421092663E-1   -7.015532472750491E-2
 6.457108508700000E9    -5.695111731177410E-1   -1.606823320825882E-1   -8.583839801513957E-3    3.529153309998643E-2   -6.800951484453882E-3    3.515628417598406E-2   -5.333374118479718E-1   -6.888382400947801E-2
 6.457120184350000E9    -5.698217555965415E-1   -1.596833104303365E-1   -8.617792481603713E-3    3.545455649939095E-2   -6.714820529323657E-3    3.545371149386599E-2   -5.334335206978167E-1   -6.758561258563120E-2
 6.457131860000000E9    -5.700937877154039E-1   -1.587987347431272E-1   -8.556221336829269E-3    3.567783144098752E-2   -6.720912160219895E-3    3.563641318968826E-2   -5.335969317936833E-1   -6.641073587003790E-2
 6.457143535650000E9    -5.703147295944420E-1   -1.577283386368185E-1   -8.614806930301496E-3    3.592775978432217E-2   -6.644209567662237E-3    3.578450332740983E-2   -5.336719005980963E-1   -6.513537608547455E-2
 6.457155211300000E9    -5.704858822963418E-1   -1.567395637642893E-1   -8.423696846007793E-3    3.628058367490703E-2   -6.588093355167326E-3    3.610875028486776E-2   -5.338553919042043E-1   -6.386736277644481E-2
 6.457166886950000E9    -5.707341762892491E-1   -1.558075075447132E-1   -8.451697979279369E-3    3.646845964485278E-2   -6.650214982911953E-3    3.618855840437851E-2   -5.340349319273867E-1   -6.264981366886854E-2
 6.457178562600000E9    -5.709895587230341E-1   -1.546845434659445E-1   -8.510918118970194E-3    3.666432566209740E-2   -6.499854711772176E-3    3.647893733935948E-2   -5.341180047074325E-1   -6.122922857038238E-2
 6.457190238250000E9    -5.712713668914560E-1   -1.536988076693197E-1   -8.407898334774375E-3    3.697483532942217E-2   -6.494850948230068E-3    3.670568239748817E-2   -5.342467167653182E-1   -6.016700495531589E-2
 6.457201913900000E9    -5.715573431350865E-1   -1.527743965845020E-1   -8.394431803729860E-3    3.719389353791294E-2   -6.405636964887798E-3    3.689413491233002E-2   -5.345040329409937E-1   -5.871978969037197E-2
 6.457213589550000E9    -5.716422323095338E-1   -1.517556463799478E-1   -8.487689670320705E-3    3.733545565855570E-2   -6.393925549547699E-3    3.725252124712709E-2   -5.345577919618075E-1   -5.759294129144166E-2
 6.457225265200000E9    -5.718948832454024E-1   -1.508525374600828E-1   -8.285208404009547E-3    3.753802629074444E-2   -6.353243866997511E-3    3.738486281160761E-2   -5.346565233859373E-1   -5.624633234339450E-2
 6.457236940850000E9    -5.721448205423217E-1   -1.498027126598837E-1   -8.316696405347612E-3    3.774245525642619E-2   -6.324211777301500E-3    3.769731364145822E-2   -5.348486333176343E-1   -5.493800463349389E-2
 6.457248616500000E9    -5.725290903509365E-1   -1.487748155061311E-1   -8.319184258351682E-3    3.801130869231020E-2   -6.229953043508730E-3    3.786098350472344E-2   -5.348672104684566E-1   -5.361600504578072E-2
 6.457260292150000E9    -5.726388196970911E-1   -1.477437811646300E-1   -8.198426878066651E-3    3.835119393245557E-2   -6.154330709911821E-3    3.813960354164732E-2   -5.351611833208008E-1   -5.226184874703866E-2
 6.457271967800000E9    -5.728870723704386E-1   -1.467034962718417E-1   -8.166642434169150E-3    3.858372904816919E-2   -6.116260884896739E-3    3.839437477477533E-2   -5.351902530214673E-1   -5.101073403814048E-2
 6.457283643450000E9    -5.732254097520153E-1   -1.456832662570026E-1   -8.061792471195067E-3    3.882172886802086E-2   -6.010933035998769E-3    3.865037827399909E-2   -5.353335385289243E-1   -4.959900469564957E-2
 6.457295319100000E9    -5.733826247695174E-1   -1.447930260814598E-1   -8.015040966693443E-3    3.887435436701758E-2   -6.045890835662629E-3    3.874560962036271E-2   -5.353272743184969E-1   -4.835793352340234E-2
 6.457306994750000E9    -5.735940477403185E-1   -1.438153697572102E-1   -8.052176720366781E-3    3.925716801754428E-2   -5.969918040047853E-3    3.911052534798360E-2   -5.354824943354453E-1   -4.692310520201008E-2
 6.457318670400000E9    -5.738745270088412E-1   -1.427132068213336E-1   -7.996875321431261E-3    3.956268165983760E-2   -6.007045376984944E-3    3.938664495651735E-2   -5.355293633707575E-1   -4.578998327476328E-2
 6.457330346050000E9    -5.740230964122101E-1   -1.417618896982521E-1   -7.978184088508623E-3    3.986154836110577E-2   -5.814763617420960E-3    3.959218466207141E-2   -5.355764729203369E-1   -4.427097186564403E-2
 6.457342021700000E9    -5.742708596874438E-1   -1.406567125860473E-1   -7.935532172507082E-3    4.024588232025317E-2   -5.736954535494886E-3    3.992464171698072E-2   -5.358010973940310E-1   -4.297154978522281E-2
 6.457353697350000E9    -5.744939025145858E-1   -1.396757755819652E-1   -7.787443651205574E-3    4.053313587065273E-2   -5.750335774015508E-3    4.016477579048709E-2   -5.359504866707548E-1   -4.158317650802087E-2
 6.457365373000000E9    -5.746614612304886E-1   -1.386254505419384E-1   -7.918817825931092E-3    4.056601452569862E-2   -5.702126694267074E-3    4.033343048178300E-2   -5.360110703977357E-1   -4.030928214584012E-2
 6.457377048650000E9    -5.749320772447150E-1   -1.375806902346408E-1   -7.778899339972029E-3    4.093528627652891E-2   -5.651114317999579E-3    4.067997952195516E-2   -5.359034653831538E-1   -3.890760466908006E-2
 6.457388724300000E9    -5.750890822640538E-1   -1.367125749721984E-1   -7.740958395864863E-3    4.111862909045678E-2   -5.622030957708477E-3    4.093209538780038E-2   -5.361676340813286E-1   -3.740597983003169E-2
 6.457400399950000E9    -5.753232878198232E-1   -1.355641558800086E-1   -7.662903810911396E-3    4.146642548959611E-2   -5.567677892110352E-3    4.121416585298441E-2   -5.361960595604717E-1   -3.606420377011271E-2
 6.457412075600000E9    -5.755410284856934E-1   -1.346386002283694E-1   -7.687354450786618E-3    4.170691155099505E-2   -5.454016367641135E-3    4.150088014256879E-2   -5.362638379931993E-1   -3.471282171910500E-2
 6.457423751250000E9    -5.757045704131548E-1   -1.334821230026029E-1   -7.559210655807165E-3    4.211519524528599E-2   -5.410533241626775E-3    4.174464048076878E-2   -5.363574706174130E-1   -3.330941913389386E-2
 6.457435426900000E9    -5.760421572293859E-1   -1.324413407008703E-1   -7.504877603438881E-3    4.231253101575651E-2   -5.290843268880666E-3    4.206092724936126E-2   -5.363416905878163E-1   -3.180489680984419E-2
 6.457447102550000E9    -5.761726182997660E-1   -1.312941598226857E-1   -7.475961466267919E-3    4.253744403151109E-2   -5.104478730025846E-3    4.232246411748225E-2   -5.363804897701296E-1   -3.040461045923154E-2
 6.457458778200000E9    -5.763924955731158E-1   -1.303471800531551E-1   -7.254974210547212E-3    4.298110863501488E-2   -5.189483143518380E-3    4.267777376344845E-2   -5.364194088728697E-1   -2.912914964780518E-2
 6.457470453850000E9    -5.764779411982328E-1   -1.293005625193543E-1   -7.383776894913846E-3    4.333827970618813E-2   -5.115036101263605E-3    4.293977249950198E-2   -5.365086083681572E-1   -2.761785026098972E-2
 6.457482129500000E9    -5.766894512256538E-1   -1.283464409627418E-1   -7.288071708691881E-3    4.352083188994656E-2   -5.036588320991126E-3    4.318127541477310E-2   -5.364640569730443E-1   -2.630435379020762E-2
 6.457493805150000E9    -5.768880470021294E-1   -1.272703404925301E-1   -7.325562728773130E-3    4.382981689080582E-2   -4.996211511301779E-3    4.343458870721696E-2   -5.365522732350376E-1   -2.476950268339327E-2
 6.457505480800000E9    -5.770438306996090E-1   -1.263043575550912E-1   -7.176638407537836E-3    4.425927995783474E-2   -4.793384059905112E-3    4.386842003329525E-2   -5.365748870896887E-1   -2.335878309594099E-2
 6.457517156450000E9    -5.773502406167905E-1   -1.251667654256446E-1   -7.075438157486146E-3    4.455986516614986E-2   -4.787055368627036E-3    4.417219350422364E-2   -5.366529092983868E-1   -2.200546542488269E-2
 6.457528832100000E9    -5.775513928888050E-1   -1.240787233732330E-1   -6.963385990456469E-3    4.487783592174120E-2   -4.748185795274682E-3    4.445032458190626E-2   -5.367470863739920E-1   -2.050726625186312E-2
 6.457540507750000E9    -5.776292020836835E-1   -1.230144336735796E-1   -6.881856199866289E-3    4.521030569228481E-2   -4.584016691869890E-3    4.466463158636402E-2   -5.366229441916918E-1   -1.896122740609770E-2
 6.457552183400000E9    -5.779139572292228E-1   -1.220856479413193E-1   -6.716176920368014E-3    4.543693554225819E-2   -4.486450945220692E-3    4.515652295333059E-2   -5.366772028603816E-1   -1.753071589282139E-2
 6.457563859050000E9    -5.780269277066562E-1   -1.208996532719717E-1   -6.820940384918293E-3    4.587906244997569E-2   -4.435359927508238E-3    4.543046402621860E-2   -5.369472065446480E-1   -1.610221881940769E-2
 6.457575534700000E9    -5.781190194471112E-1   -1.198206100805156E-1   -6.813522402161560E-3    4.629550232889315E-2   -4.398892533461287E-3    4.570240226265142E-2   -5.368402109963779E-1   -1.441635724895906E-2
 6.457587210350000E9    -5.783364365886084E-1   -1.188881285161197E-1   -6.516101351229269E-3    4.647514675652005E-2   -4.318853286290491E-3    4.605805236128575E-2   -5.369360751057345E-1   -1.309051291573215E-2
 6.457598886000000E9    -5.785818510359598E-1   -1.177870681016453E-1   -6.570156111835644E-3    4.685071495862345E-2   -4.157939143590474E-3    4.636905760893532E-2   -5.369475096913561E-1   -1.162019524539428E-2
 6.457610561650000E9    -5.787466306518899E-1   -1.167034635535894E-1   -6.436178663490518E-3    4.719380640369179E-2   -4.192267664056516E-3    4.675512803303258E-2   -5.367622774221370E-1   -9.845122558349467E-3
 6.457622237300000E9    -5.788924936705957E-1   -1.155957719246445E-1   -6.497694328149096E-3    4.758040070560048E-2   -4.005890602533381E-3    4.713535206184837E-2   -5.367940324468885E-1   -8.484758937243278E-3
 6.457633912950000E9    -5.789686229694494E-1   -1.145458638570025E-1   -6.318640606055947E-3    4.799496089872432E-2   -3.915912828678821E-3    4.748159847538432E-2   -5.368220108661964E-1   -7.077947116086288E-3
 6.457645588600000E9    -5.793043285689692E-1   -1.133980297034768E-1   -6.345078482117479E-3    4.825637556486486E-2   -3.838768856747381E-3    4.780090672134993E-2   -5.366507680549210E-1   -5.536013733504993E-3
 6.457657264250000E9    -5.792985062000844E-1   -1.123807374786897E-1   -6.179920945729819E-3    4.860856490144045E-2   -3.688775490345849E-3    4.816552003543242E-2   -5.366454872628763E-1   -4.048961726545100E-3
 6.457668939900000E9    -5.795014379749054E-1   -1.112829435760146E-1   -5.975173156163402E-3    4.899862871801258E-2   -3.545156769287283E-3    4.865381940373387E-2   -5.366026185929754E-1   -2.495462267185910E-3
 6.457680615550000E9    -5.796020135133240E-1   -1.102272340926398E-1   -6.061368880066422E-3    4.938802674916919E-2   -3.574419651022009E-3    4.890499069107464E-2   -5.365952019563320E-1   -7.447247084222681E-4
 6.457692291200000E9    -5.798138924402444E-1   -1.090837920437606E-1   -5.909444415217331E-3    4.989599948461819E-2   -3.402089709336416E-3    4.921200295594889E-2   -5.365013522028008E-1    8.965510704162210E-4
 6.457703966850000E9    -5.799556211686695E-1   -1.080791364133412E-1   -5.811696443074651E-3    5.027811700960163E-2   -3.248203403538145E-3    4.963105879253923E-2   -5.365225512536592E-1    2.547450741850598E-3
 6.457715642500000E9    -5.800499955934854E-1   -1.068567083123410E-1   -5.852992016299803E-3    5.059269952589126E-2   -3.151994833659597E-3    4.995862217515104E-2   -5.365108805426679E-1    3.938523728439394E-3
 6.457727318150000E9    -5.802027503813403E-1   -1.057842128973540E-1   -5.534500338592371E-3    5.104077597080311E-2   -3.157181151249745E-3    5.041624298670887E-2   -5.363765394256700E-1    5.747489396053775E-3
 6.457738993800000E9    -5.804416428636768E-1   -1.046909401233812E-1   -5.370589987016412E-3    5.143971626295425E-2   -2.906223228215576E-3    5.088808182176663E-2   -5.364457446199348E-1    7.242068649242085E-3
 6.457750669450000E9    -5.805424712384188E-1   -1.036436162699782E-1   -5.408468022975389E-3    5.174842855040422E-2   -2.877129023201136E-3    5.119715691243767E-2   -5.363223915821280E-1    9.021432788625433E-3
 6.457762345100000E9    -5.806397414731792E-1   -1.024549146005335E-1   -5.361543778408699E-3    5.226444714120197E-2   -2.777895641647170E-3    5.159606805655845E-2   -5.361402737698464E-1    1.050790580284785E-2
 6.457774020750000E9    -5.808214547121030E-1   -1.014587746131434E-1   -5.250899714863790E-3    5.254849493088071E-2   -2.613254543611874E-3    5.205840256811794E-2   -5.361648347907757E-1    1.208968996086369E-2
 6.457785696400000E9    -5.810058709483470E-1   -1.002074775511089E-1   -5.270851159887789E-3    5.316492932179959E-2   -2.408801883903686E-3    5.244487589177899E-2   -5.359703166583234E-1    1.385922699039285E-2
 6.457797372050000E9    -5.809979609731648E-1   -9.916046175060253E-2   -5.030056479219181E-3    5.370592244271594E-2   -2.368479727192082E-3    5.286911448655021E-2   -5.359041738862771E-1    1.548532567447266E-2
 6.457809047700000E9    -5.811301210671007E-1   -9.810535735035819E-2   -4.862473226421781E-3    5.401834315149281E-2   -2.174342198859272E-3    5.336057616589571E-2   -5.357799982476203E-1    1.723269482934188E-2
 6.457820723350000E9    -5.812176995823271E-1   -9.685506483336853E-2   -4.632261924783102E-3    5.450295148310977E-2   -2.093723541559845E-3    5.375559560772768E-2   -5.357644791478827E-1    1.883012053207015E-2
 6.457832399000000E9    -5.814594083518374E-1   -9.577302690642515E-2   -4.621514669601152E-3    5.487807118844419E-2   -1.916019005176014E-3    5.425487467943459E-2   -5.354929905120975E-1    2.078401587893053E-2
 6.457844074650000E9    -5.815983259087437E-1   -9.466280975513404E-2   -4.488210872697746E-3    5.549566055829917E-2   -1.684319162979462E-3    5.465933640185731E-2   -5.353667099114466E-1    2.243973343810531E-2
 6.457855750300000E9    -5.816253038555066E-1   -9.340920951805261E-2   -4.375648797410187E-3    5.598554190007231E-2   -1.537744334347913E-3    5.518964497634783E-2   -5.352717387671454E-1    2.426680238674672E-2
 6.457867425950000E9    -5.817389111663419E-1   -9.233893764572526E-2   -4.185689104955941E-3    5.639471057641841E-2   -1.443243512191100E-3    5.558902768828575E-2   -5.351541347992814E-1    2.585796257111595E-2
 6.457879101600000E9    -5.818344538588333E-1   -9.112981202109685E-2   -4.015777679658065E-3    5.697367026506136E-2   -1.223679278335344E-3    5.605435987801283E-2   -5.349410754605539E-1    2.766222131768169E-2
 6.457890777250000E9    -5.818604617722810E-1   -8.998784915395021E-2   -3.784793663118582E-3    5.752172610385153E-2   -1.207418210417772E-3    5.656192867114129E-2   -5.347245074678875E-1    2.928704676151925E-2
 6.457902452900000E9    -5.819362359886623E-1   -8.889487221982428E-2   -3.675955193882693E-3    5.786872580131041E-2   -9.941425317817696E-4    5.691416063067036E-2   -5.344019863412431E-1    3.120929277992094E-2
 6.457914128550000E9    -5.820445398694478E-1   -8.767158735777322E-2   -3.596862587254647E-3    5.834770072042171E-2   -7.764355152288476E-4    5.742118370479523E-2   -5.344520439366500E-1    3.294729619890922E-2
 6.457925804200000E9    -5.822135933688671E-1   -8.651471844862220E-2   -3.510316296718687E-3    5.883867287599981E-2   -5.882977628405300E-4    5.800891221447585E-2   -5.341550894162841E-1    3.480296852722657E-2
 6.457937479850000E9    -5.821518185491553E-1   -8.536074993152364E-2   -3.235957930052282E-3    5.939581043701236E-2   -5.547464761007738E-4    5.862662626639641E-2   -5.339300664168056E-1    3.659455617763283E-2
 6.457949155500000E9    -5.824459476278296E-1   -8.418513137537166E-2   -3.059330115071208E-3    5.997027284790862E-2   -2.803002881460231E-4    5.910057822514642E-2   -5.337066527754575E-1    3.859861180818166E-2
