#  HZ   S   RI   R     50.00 
! Rohde & Schwarz Vector Network Analyzer 
! Rohde-Schwarz,ZNB20-2Port,1311601062101988,3.16
! Created: UTC 3/20/2024, 11:07:21 PM
! freq[Hz]                re:S11                  im:S11                  re:S21                  im:S21                  re:S12                  im:S12                  re:S22                  im:S22
 6.456902109000000E9    -5.648871208594053E-1   -1.779988712510384E-1   -8.998537695299067E-3    3.180109672340437E-2   -7.431811322287049E-3    3.178740239535605E-2   -5.298972666075559E-1   -9.074696268585471E-2
 6.456913788725000E9    -5.651411836065612E-1   -1.769298972692717E-1   -9.184870333632886E-3    3.194899406906617E-2   -7.284786165474011E-3    3.187448016482469E-2   -5.300653263800096E-1   -8.950521244778999E-2
 6.456925468450000E9    -5.653249597581088E-1   -1.760634999502468E-1   -9.199578280144031E-3    3.208822231872073E-2   -7.333814493355979E-3    3.203506273411869E-2   -5.302270610950350E-1   -8.833743675986201E-2
 6.456937148175000E9    -5.656067429627496E-1   -1.751157289898728E-1   -9.024363043476993E-3    3.238300418764211E-2   -7.230496236211491E-3    3.219095399483727E-2   -5.305039996218862E-1   -8.713620358086042E-2
 6.456948827900000E9    -5.659532262892814E-1   -1.741173525802652E-1   -8.961341334863723E-3    3.245973789737099E-2   -7.369808538154720E-3    3.239937468354443E-2   -5.306964723044785E-1   -8.594270334605753E-2
 6.456960507625000E9    -5.662564787680975E-1   -1.731272235041814E-1   -8.891881455365808E-3    3.261675776698869E-2   -7.320373941089428E-3    3.267509272960104E-2   -5.308896027945549E-1   -8.473187705893552E-2
 6.456972187350000E9    -5.665095578887014E-1   -1.720463928798185E-1   -9.005584270270373E-3    3.276953583971726E-2   -7.122422809466862E-3    3.279793416867125E-2   -5.310197052030868E-1   -8.354658736885125E-2
 6.456983867075000E9    -5.667453426423097E-1   -1.712241218881475E-1   -8.879840002792419E-3    3.288569463817570E-2   -7.256750541383113E-3    3.293325868776276E-2   -5.311245132860349E-1   -8.228087497720277E-2
 6.456995546800000E9    -5.669794695557882E-1   -1.702453096938826E-1   -8.878060826378093E-3    3.325060809107561E-2   -7.141127128375441E-3    3.314599868219729E-2   -5.315291830604280E-1   -8.108299344818300E-2
 6.457007226525000E9    -5.673557733195213E-1   -1.693360793770529E-1   -8.911052522900484E-3    3.344257476820475E-2   -7.138792786801767E-3    3.336048075293848E-2   -5.316593458035609E-1   -7.995843234711023E-2
 6.457018906250000E9    -5.675772119741097E-1   -1.682502705871155E-1   -8.834744854080321E-3    3.355420593347910E-2   -7.056853377216137E-3    3.354596636650509E-2   -5.318183461131862E-1   -7.865424429290685E-2
 6.457030585975000E9    -5.677909329280240E-1   -1.674141000266222E-1   -8.743088814583336E-3    3.387970067178524E-2   -7.029268473689392E-3    3.384890588723175E-2   -5.320118103792119E-1   -7.761374907999120E-2
 6.457042265700000E9    -5.680979775093714E-1   -1.662884325180076E-1   -8.870876983829778E-3    3.389249583239309E-2   -7.057198039826116E-3    3.393521983250888E-2   -5.321397761281371E-1   -7.630102587462624E-2
 6.457053945425000E9    -5.683851100337756E-1   -1.654139324131233E-1   -8.841257604448635E-3    3.422301246611297E-2   -6.980614813204947E-3    3.413715855268974E-2   -5.322661083081131E-1   -7.495731508481991E-2
 6.457065625150000E9    -5.686492125278163E-1   -1.644031992642308E-1   -8.686579181468073E-3    3.437313409389356E-2   -6.970926668506907E-3    3.443587705090485E-2   -5.323784682803132E-1   -7.388721547442531E-2
 6.457077304875000E9    -5.688626007891181E-1   -1.634251852787768E-1   -8.649108344121168E-3    3.458473864870433E-2   -6.904267392764711E-3    3.464448176282744E-2   -5.326291735601292E-1   -7.262329486388698E-2
 6.457088984600000E9    -5.690621687720443E-1   -1.625144061899214E-1   -8.730841391613611E-3    3.489436919746438E-2   -6.800019706254941E-3    3.475780561772623E-2   -5.327908924102466E-1   -7.133048477966167E-2
 6.457100664325000E9    -5.693167837325216E-1   -1.615120636099547E-1   -8.650324154697180E-3    3.505097079447025E-2   -6.980744830849379E-3    3.493623560547489E-2   -5.330371618161828E-1   -7.010398356912953E-2
 6.457112344050000E9    -5.695298427719355E-1   -1.604426828969818E-1   -8.702224901929305E-3    3.518257903624996E-2   -6.774754277347320E-3    3.518638195117513E-2   -5.330229842777833E-1   -6.889254016857968E-2
 6.457124023775000E9    -5.699332831329257E-1   -1.595896554840596E-1   -8.654195121429857E-3    3.544767773597580E-2   -6.820394559989399E-3    3.540793128806133E-2   -5.332704313403527E-1   -6.749401053393639E-2
 6.457135703500000E9    -5.701275853888811E-1   -1.584667084641848E-1   -8.650583541245947E-3    3.566906693194673E-2   -6.684849505434135E-3    3.556891202234797E-2   -5.333284746665211E-1   -6.635438677103322E-2
 6.457147383225000E9    -5.704264258379942E-1   -1.575214002166714E-1   -8.705806320634606E-3    3.595403956573438E-2   -6.615171957097427E-3    3.580780630862929E-2   -5.336113374383696E-1   -6.503642147374354E-2
 6.457159062950000E9    -5.706660787904329E-1   -1.565910012274361E-1   -8.519542911370226E-3    3.607767512169605E-2   -6.494805020154575E-3    3.599552242041928E-2   -5.336755706202130E-1   -6.389200940353301E-2
 6.457170742675000E9    -5.708759182792547E-1   -1.554564216639704E-1   -8.552524939346700E-3    3.634858499092698E-2   -6.620249620008178E-3    3.620890519815284E-2   -5.337361368155890E-1   -6.250155161275736E-2
 6.457182422400000E9    -5.710580420716522E-1   -1.545484036277824E-1   -8.398935562410838E-3    3.666329251309622E-2   -6.597990671186979E-3    3.651327140719196E-2   -5.338305086192782E-1   -6.126773752546353E-2
 6.457194102125000E9    -5.713491690750254E-1   -1.535082963355715E-1   -8.427148404135269E-3    3.666371960747050E-2   -6.447302452459438E-3    3.670607849916670E-2   -5.340104953862670E-1   -5.995108373856760E-2
 6.457205781850000E9    -5.716266699419944E-1   -1.525349570762421E-1   -8.366420700094567E-3    3.693716105482497E-2   -6.423434226121838E-3    3.687549271824784E-2   -5.343546393145767E-1   -5.861079382200697E-2
 6.457217461575000E9    -5.718740115229451E-1   -1.515630134027006E-1   -8.313238058877506E-3    3.733080435232654E-2   -6.384419276111050E-3    3.717062271662244E-2   -5.343916914945923E-1   -5.742456007813668E-2
 6.457229141300000E9    -5.721615981661315E-1   -1.505894942093391E-1   -8.221660082221431E-3    3.750544111771606E-2   -6.331995874756550E-3    3.741639100479863E-2   -5.345452467387655E-1   -5.614221056761486E-2
 6.457240821025000E9    -5.723637542710640E-1   -1.496404706369515E-1   -8.280367390529477E-3    3.782950118194354E-2   -6.276212932133513E-3    3.762179581554848E-2   -5.346494189746100E-1   -5.479892555012286E-2
 6.457252500750000E9    -5.726008483998302E-1   -1.485044186970548E-1   -8.274985985565010E-3    3.789878086732226E-2   -6.261110982841306E-3    3.784989453804762E-2   -5.347313848869711E-1   -5.357416337994765E-2
 6.457264180475000E9    -5.727513994678806E-1   -1.475601885924546E-1   -8.268852445610543E-3    3.842171819679161E-2   -6.232404489748599E-3    3.800369106907935E-2   -5.349334961594018E-1   -5.212106962114055E-2
 6.457275860200000E9    -5.730878132234706E-1   -1.465700289761098E-1   -8.053237353123010E-3    3.843279406822166E-2   -6.088105855468423E-3    3.828758636119085E-2   -5.350242653360877E-1   -5.092249890417065E-2
 6.457287539925000E9    -5.732615332875880E-1   -1.454682870937259E-1   -8.098883585876135E-3    3.870855687435228E-2   -6.109530671707749E-3    3.851748044725618E-2   -5.350366447719820E-1   -4.956704889601500E-2
 6.457299219650000E9    -5.733992500283037E-1   -1.444448762692851E-1   -8.122650248423964E-3    3.912066383807673E-2   -6.144862845755670E-3    3.871967180138761E-2   -5.351132197322287E-1   -4.810219635505064E-2
 6.457310899375000E9    -5.737291964586896E-1   -1.434697778382389E-1   -8.037925325966868E-3    3.912781923018495E-2   -5.879013443778519E-3    3.906960081075489E-2   -5.352544562044779E-1   -4.693731314986756E-2
 6.457322579100000E9    -5.738690370029801E-1   -1.425339732274222E-1   -8.039106086297274E-3    3.952713893445729E-2   -5.977730215451484E-3    3.930342770741646E-2   -5.353955463663144E-1   -4.561066981180627E-2
 6.457334258825000E9    -5.741639267033952E-1   -1.414662674291827E-1   -7.989669068783390E-3    3.980572691099622E-2   -5.886736229381123E-3    3.952379977652163E-2   -5.356056527142824E-1   -4.421618041257937E-2
 6.457345938550000E9    -5.743690625764634E-1   -1.403742636099022E-1   -7.931480208679200E-3    3.999050237092301E-2   -5.814289668509416E-3    3.972844598565388E-2   -5.355110760959177E-1   -4.276908900956044E-2
 6.457357618275000E9    -5.745683503056828E-1   -1.393654881051249E-1   -7.983303483358264E-3    4.024386446830133E-2   -5.802086062616898E-3    4.007627049175057E-2   -5.356754694183239E-1   -4.151483075079229E-2
 6.457369298000000E9    -5.747569033698799E-1   -1.383537645853584E-1   -7.715917555633877E-3    4.053113811726525E-2   -5.709213022866869E-3    4.030203546167244E-2   -5.356573480277641E-1   -4.025049867598616E-2
 6.457380977725000E9    -5.749668041303171E-1   -1.373717561294978E-1   -7.738966894259491E-3    4.081645111370960E-2   -5.651413837743486E-3    4.064003317759120E-2   -5.356551339697710E-1   -3.870735504110268E-2
 6.457392657450000E9    -5.750732715667541E-1   -1.364233012691012E-1   -7.759256017300267E-3    4.100111361859984E-2   -5.537282054532570E-3    4.090229832976511E-2   -5.359507741636131E-1   -3.749656366951572E-2
 6.457404337175000E9    -5.753424432186179E-1   -1.352929031073793E-1   -7.808872272984171E-3    4.141038925826657E-2   -5.451481997527365E-3    4.117309953919564E-2   -5.359864564406375E-1   -3.601797119658631E-2
 6.457416016900000E9    -5.755579335108404E-1   -1.342458763681266E-1   -7.670595835815753E-3    4.166719818038035E-2   -5.404260110664777E-3    4.130584342714599E-2   -5.360614311885189E-1   -3.461338970422650E-2
 6.457427696625000E9    -5.757797688708421E-1   -1.333220801592217E-1   -7.500029642018772E-3    4.196589970673997E-2   -5.366779051254058E-3    4.160470550959045E-2   -5.361048562942845E-1   -3.323944169705145E-2
 6.457439376350000E9    -5.760477335536338E-1   -1.322323238976892E-1   -7.490139206803515E-3    4.221777498123800E-2   -5.254026315937982E-3    4.202523976654259E-2   -5.363106288526017E-1   -3.189727609652176E-2
 6.457451056075000E9    -5.762473787498155E-1   -1.312660597823324E-1   -7.585622514045190E-3    4.261179905253729E-2   -5.222522371935619E-3    4.229235161029148E-2   -5.362746243153208E-1   -3.053736325667489E-2
 6.457462735800000E9    -5.764578468802961E-1   -1.301696174047776E-1   -7.385454477145196E-3    4.294182918614316E-2   -5.112363219162345E-3    4.259503351905918E-2   -5.361949011213448E-1   -2.898195770053182E-2
 6.457474415525000E9    -5.766164414405338E-1   -1.291914621335552E-1   -7.199086905372977E-3    4.307690740745232E-2   -5.129478223077690E-3    4.278712431521330E-2   -5.362997451620031E-1   -2.755246538772332E-2
 6.457486095250000E9    -5.767752584885130E-1   -1.280474007695662E-1   -7.268216122203634E-3    4.341431730877287E-2   -5.055337093102305E-3    4.309839135175514E-2   -5.363810622266375E-1   -2.614460609339645E-2
 6.457497774975000E9    -5.770033506095074E-1   -1.270768265324421E-1   -7.197013561021667E-3    4.360542937174967E-2   -4.971608589030217E-3    4.345252107565069E-2   -5.365629211331057E-1   -2.468263937165843E-2
 6.457509454700000E9    -5.771853472504639E-1   -1.260549213702800E-1   -7.157427514749905E-3    4.404914993587003E-2   -4.889162983213619E-3    4.368898680045089E-2   -5.364461646516387E-1   -2.327782721570982E-2
 6.457521134425000E9    -5.773400419997662E-1   -1.248763596620875E-1   -6.910966927212801E-3    4.442500019969457E-2   -4.841652251939596E-3    4.400694362021964E-2   -5.365975558003422E-1   -2.180434674200358E-2
 6.457532814150000E9    -5.775724879203924E-1   -1.238974818669348E-1   -7.022117275102584E-3    4.468789557090960E-2   -4.783386129042757E-3    4.428933402169993E-2   -5.365939643044458E-1   -2.043289032518478E-2
 6.457544493875000E9    -5.776820473351769E-1   -1.227735207696581E-1   -6.826662312052738E-3    4.502361172367567E-2   -4.623981442480100E-3    4.465332960409901E-2   -5.366205748148078E-1   -1.898580444473866E-2
 6.457556173600000E9    -5.779116588237520E-1   -1.217152186270923E-1   -6.919065613659992E-3    4.538249577804401E-2   -4.503392434636037E-3    4.502167479354857E-2   -5.366787942165108E-1   -1.748270220867112E-2
 6.457567853325000E9    -5.781248829803116E-1   -1.207427089108027E-1   -6.774737256340157E-3    4.566222410905153E-2   -4.493433202305278E-3    4.533363889985361E-2   -5.367078232708702E-1   -1.605494813150759E-2
 6.457579533050000E9    -5.782085027886470E-1   -1.196744210687794E-1   -6.790485975165166E-3    4.611367709177936E-2   -4.399346308184419E-3    4.560988937965914E-2   -5.366747523656794E-1   -1.465803307820579E-2
 6.457591212775000E9    -5.782936282553011E-1   -1.186161440158945E-1   -6.588777952745684E-3    4.641811305853286E-2   -4.350480630327077E-3    4.605389599905811E-2   -5.365499152185847E-1   -1.303177624963793E-2
 6.457602892500000E9    -5.786631787421436E-1   -1.175695814543340E-1   -6.520874525133748E-3    4.684073199635452E-2   -4.210277311694032E-3    4.632087544240051E-2   -5.365280028539688E-1   -1.146540069198097E-2
 6.457614572225000E9    -5.787707522649912E-1   -1.163936078529077E-1   -6.481900505833425E-3    4.707752632111837E-2   -4.068091687579007E-3    4.658004844875974E-2   -5.365470397136850E-1   -1.011056586479006E-2
 6.457626251950000E9    -5.789519946463885E-1   -1.153757525762016E-1   -6.404825824112090E-3    4.755698571222113E-2   -4.036168203807604E-3    4.695542065369990E-2   -5.365634358505341E-1   -8.570847779887224E-3
 6.457637931675000E9    -5.789946991242974E-1   -1.141671025003189E-1   -6.372009862907613E-3    4.785029330521926E-2   -3.883186866742605E-3    4.732870108703296E-2   -5.365918226071960E-1   -6.957230351521636E-3
 6.457649611400000E9    -5.793825719718422E-1   -1.131821887846933E-1   -6.416988189065242E-3    4.828835911825700E-2   -3.848815167677743E-3    4.773154916237570E-2   -5.364867490032986E-1   -5.463800036531621E-3
 6.457661291125000E9    -5.794518983573115E-1   -1.121169200956838E-1   -6.091129368446504E-3    4.862822199343492E-2   -3.710378403874211E-3    4.806459617474730E-2   -5.365886749058348E-1   -3.764117245748231E-3
 6.457672970850000E9    -5.796228762289960E-1   -1.110549977560117E-1   -6.003146433164437E-3    4.905467821920650E-2   -3.646208762423765E-3    4.840960764520674E-2   -5.365544478463272E-1   -2.285018382115324E-3
 6.457684650575000E9    -5.797484716458881E-1   -1.099565180976678E-1   -6.066434797844712E-3    4.940370119335172E-2   -3.510629633019740E-3    4.882569688597210E-2   -5.364681381160679E-1   -6.642160895387174E-4
 6.457696330300000E9    -5.799299053031591E-1   -1.088007277698748E-1   -5.986732260586497E-3    4.976594610953097E-2   -3.437917599217257E-3    4.916412810471452E-2   -5.365702705117563E-1    8.200993269928936E-4
 6.457708010025000E9    -5.800613662226611E-1   -1.077764053705863E-1   -5.890551746898792E-3    5.008648927711612E-2   -3.287181141463245E-3    4.957600725586788E-2   -5.363443746586094E-1    2.518718126865820E-3
 6.457719689750000E9    -5.801515654524861E-1   -1.066712905821475E-1   -5.707572247670617E-3    5.058616764031834E-2   -3.137732443982698E-3    4.991691981462634E-2   -5.362771136226963E-1    3.928492099222317E-3
 6.457731369475000E9    -5.802846524009402E-1   -1.056103207691406E-1   -5.635096455862112E-3    5.086686782209450E-2   -3.029267327741870E-3    5.022239734058121E-2   -5.363194312189361E-1    5.515572974214525E-3
 6.457743049200000E9    -5.805140204273119E-1   -1.044778480160929E-1   -5.483563941615487E-3    5.138973546350037E-2   -2.965087155241406E-3    5.069892516219773E-2   -5.361119484621133E-1    7.133254414747288E-3
 6.457754728925000E9    -5.805393638662287E-1   -1.033525931880657E-1   -5.194425173528198E-3    5.168203370808434E-2   -2.768629617836189E-3    5.109338779744462E-2   -5.361820924482598E-1    8.953802630644804E-3
 6.457766408650000E9    -5.807069143962387E-1   -1.021999021795469E-1   -5.398958216274593E-3    5.212486138703528E-2   -2.699681273863778E-3    5.154876823622780E-2   -5.361282060994499E-1    1.048493148984882E-2
 6.457778088375000E9    -5.808238756224670E-1   -1.010513040701533E-1   -5.110989149526063E-3    5.260359769173441E-2   -2.639715716358140E-3    5.202573089982827E-2   -5.360365718806832E-1    1.218137106489198E-2
 6.457789768100000E9    -5.809964310680357E-1   -9.993701911520272E-2   -5.114297325748560E-3    5.302638230376207E-2   -2.539123193103475E-3    5.231220337159578E-2   -5.359276708329925E-1    1.377985490616692E-2
 6.457801447825000E9    -5.811281952005519E-1   -9.889355826456148E-2   -4.936344158593274E-3    5.362026660504122E-2   -2.319440792683626E-3    5.273149365718113E-2   -5.357264175803776E-1    1.545954023362001E-2
 6.457813127550000E9    -5.812188948765689E-1   -9.775170917577403E-2   -4.817399641424796E-3    5.391906492208381E-2   -2.235816145266390E-3    5.313656461222993E-2   -5.355952628938051E-1    1.722592282195425E-2
 6.457824807275000E9    -5.813948287628891E-1   -9.666918076874503E-2   -4.760849859059520E-3    5.452939159684041E-2   -2.019352616868716E-3    5.358079032247150E-2   -5.355109918879943E-1    1.885751240777803E-2
 6.457836487000000E9    -5.814285013029373E-1   -9.559795708649289E-2   -4.734606903019830E-3    5.485650983736367E-2   -1.990209422422773E-3    5.409457116314895E-2   -5.354117880525299E-1    2.064041631208713E-2
 6.457848166725000E9    -5.815583528480739E-1   -9.427088144286828E-2   -4.312467901891529E-3    5.531191234481013E-2   -1.726751398995343E-3    5.451658199193967E-2   -5.352346390288505E-1    2.231289751732243E-2
 6.457859846450000E9    -5.817523296938286E-1   -9.319635159436397E-2   -4.408656568110920E-3    5.585793396013812E-2   -1.607832938687731E-3    5.507126736231377E-2   -5.350528860655257E-1    2.393977611780666E-2
 6.457871526175000E9    -5.818500677838955E-1   -9.206205964387108E-2   -4.184936667985082E-3    5.623189620440166E-2   -1.476706823701317E-3    5.555544196563595E-2   -5.349926763663051E-1    2.584250725050754E-2
 6.457883205900000E9    -5.819269143025353E-1   -9.096676458283631E-2   -4.119026646056847E-3    5.676935634980367E-2   -1.370451473243467E-3    5.587110372306761E-2   -5.348654986050352E-1    2.759358828444416E-2
 6.457894885625000E9    -5.820732658999755E-1   -8.987624754025925E-2   -3.978540417113962E-3    5.711723646367284E-2   -1.165973482641645E-3    5.644819573139952E-2   -5.346389375693232E-1    2.938929425468666E-2
 6.457906565350000E9    -5.820870614559690E-1   -8.862811127029453E-2   -3.836487998783071E-3    5.774025315469730E-2   -9.947376183425220E-4    5.689198230992112E-2   -5.345030764571115E-1    3.116273018708290E-2
 6.457918245075000E9    -5.821746416772680E-1   -8.747835370052476E-2   -3.708950515871390E-3    5.825775768466004E-2   -8.650804910032248E-4    5.741470557623275E-2   -5.343136011871924E-1    3.293235669472409E-2
 6.457929924800000E9    -5.822035040168148E-1   -8.628661636108242E-2   -3.484139864435731E-3    5.884583421536463E-2   -5.744837953606787E-4    5.791751733336248E-2   -5.341666822142332E-1    3.481899637348315E-2
 6.457941604525000E9    -5.823480755732986E-1   -8.515165042396799E-2   -3.359314156934705E-3    5.930621612399092E-2   -4.333571201434321E-4    5.846437506071506E-2   -5.339031535833133E-1    3.651434411394636E-2
 6.457953284250000E9    -5.824603030842173E-1   -8.403034395708425E-2   -3.048255974812464E-3    5.986292785886348E-2   -2.451882717917463E-4    5.895029609688596E-2   -5.335420827758247E-1    3.843416112821946E-2
