#  HZ   S   RI   R     50.00 
! Rohde & Schwarz Vector Network Analyzer 
! Rohde-Schwarz,ZNB20-2Port,1311601062101988,3.16
! Created: UTC 3/20/2024, 11:07:35 PM
! freq[Hz]                re:S11                  im:S11                  re:S21                  im:S21                  re:S12                  im:S12                  re:S22                  im:S22
 6.456911957000000E9    -5.650800611196786E-1   -1.770518149068537E-1   -8.944903535808136E-3    3.173284299083110E-2   -7.372260943308869E-3    3.172825122242912E-2   -5.296445351853843E-1   -8.992549993491675E-2
 6.456923650875000E9    -5.653152999693976E-1   -1.760949776271834E-1   -8.963447164332105E-3    3.196631075059630E-2   -7.395372868105137E-3    3.186637549631218E-2   -5.299600856656737E-1   -8.855711622075710E-2
 6.456935344750000E9    -5.654818174710488E-1   -1.750686736786099E-1   -8.991561904850303E-3    3.213825277050767E-2   -7.313957925155737E-3    3.201180224067536E-2   -5.301878571844549E-1   -8.751177786438154E-2
 6.456947038625000E9    -5.657609381456359E-1   -1.742150809695259E-1   -9.026926601447211E-3    3.231325463460842E-2   -7.308576370812253E-3    3.231288110520954E-2   -5.302764315045030E-1   -8.606134218398727E-2
 6.456958732500000E9    -5.661616128000529E-1   -1.731446363529014E-1   -8.970849404697797E-3    3.248171006805248E-2   -7.121606024199152E-3    3.242015710359923E-2   -5.304191888336698E-1   -8.485462097606265E-2
 6.456970426375000E9    -5.663790744048592E-1   -1.721746160431908E-1   -9.075294074820321E-3    3.267962324058225E-2   -7.229845849332365E-3    3.265061970252666E-2   -5.305933578980975E-1   -8.374635354293156E-2
 6.456982120250000E9    -5.665906488435778E-1   -1.713272790935604E-1   -8.905059688337186E-3    3.274841313522434E-2   -7.245117516323651E-3    3.280432454410252E-2   -5.308226428947497E-1   -8.257566946569374E-2
 6.456993814125000E9    -5.669553305261182E-1   -1.702894726100045E-1   -8.952181847370273E-3    3.298349888877997E-2   -7.198352542032210E-3    3.307789233266598E-2   -5.310044280678783E-1   -8.142100747160469E-2
 6.457005508000000E9    -5.672672335350322E-1   -1.692833220049778E-1   -8.820199492307846E-3    3.317610701166306E-2   -7.172168226399229E-3    3.317754280962571E-2   -5.311433346951050E-1   -8.019995731927927E-2
 6.457017201875000E9    -5.674094996196887E-1   -1.684256447844063E-1   -8.847183628986876E-3    3.341468508433246E-2   -6.983164232567297E-3    3.343978624430077E-2   -5.313484063899921E-1   -7.905630956749811E-2
 6.457028895750000E9    -5.677312018201476E-1   -1.674608998763036E-1   -8.861104339935470E-3    3.367409940311836E-2   -7.010385385005014E-3    3.354727336963271E-2   -5.315434589041590E-1   -7.773327164200314E-2
 6.457040589625000E9    -5.679710045395123E-1   -1.664138492039237E-1   -8.851558667455585E-3    3.379757374047823E-2   -6.971315174723836E-3    3.372346576233672E-2   -5.318137042442997E-1   -7.651257647903034E-2
 6.457052283500000E9    -5.682749541987149E-1   -1.654528092678977E-1   -8.774219459424566E-3    3.406592484436569E-2   -7.016442608425497E-3    3.398470396474085E-2   -5.319199543119725E-1   -7.537460634350628E-2
 6.457063977375000E9    -5.685402862687435E-1   -1.645156921218224E-1   -8.742756828763697E-3    3.417094445621841E-2   -6.946152721243676E-3    3.422056379887573E-2   -5.320648956719718E-1   -7.404730368116716E-2
 6.457075671250000E9    -5.687881225777259E-1   -1.635461635800626E-1   -8.658136532913807E-3    3.438106358208506E-2   -6.907550087578289E-3    3.445588866829466E-2   -5.322152800922479E-1   -7.290362969535626E-2
 6.457087365125000E9    -5.690622280922547E-1   -1.626301468488413E-1   -8.716301108809041E-3    3.468602645369146E-2   -6.808985029356175E-3    3.449917567878315E-2   -5.324547748344814E-1   -7.161321498816528E-2
 6.457099059000000E9    -5.693192921728467E-1   -1.616330523767758E-1   -8.684540343053581E-3    3.478804897262909E-2   -6.831240779453920E-3    3.475902521293799E-2   -5.324144111802764E-1   -7.041808336416819E-2
 6.457110752875000E9    -5.695154083002704E-1   -1.606153996516348E-1   -8.622942468325489E-3    3.502504806163394E-2   -6.824665609930256E-3    3.500096618352677E-2   -5.326417970992728E-1   -6.907792472951033E-2
 6.457122446750000E9    -5.697409599485643E-1   -1.596088279869133E-1   -8.563214011953658E-3    3.537909604470755E-2   -6.782207551920686E-3    3.513124678977284E-2   -5.329592072048147E-1   -6.781991360945946E-2
 6.457134140625000E9    -5.700498531797704E-1   -1.585823286186142E-1   -8.617121576630745E-3    3.539134041599822E-2   -6.739150130745758E-3    3.543638213639027E-2   -5.329464927346084E-1   -6.667379309628832E-2
 6.457145834500000E9    -5.702899163517267E-1   -1.577034489445040E-1   -8.661579540246121E-3    3.560859491292739E-2   -6.669069715785972E-3    3.567530115014820E-2   -5.330601623398762E-1   -6.530495681600897E-2
 6.457157528375000E9    -5.705858664118272E-1   -1.565782457536022E-1   -8.520330282991952E-3    3.592339288470754E-2   -6.602756922659146E-3    3.583639223572828E-2   -5.331930646429150E-1   -6.404712538416162E-2
 6.457169222250000E9    -5.708484296682582E-1   -1.556408187564999E-1   -8.502963131367119E-3    3.619975999913601E-2   -6.628977235102694E-3    3.611180754742342E-2   -5.333936880382475E-1   -6.278641204434504E-2
 6.457180916125000E9    -5.710019200979030E-1   -1.545743712792764E-1   -8.476096670401509E-3    3.641440399554761E-2   -6.494342217653162E-3    3.626787228336489E-2   -5.334755715121898E-1   -6.155677082450596E-2
 6.457192610000000E9    -5.712660035247001E-1   -1.536803217630597E-1   -8.411239040622598E-3    3.665411554186888E-2   -6.450970980891005E-3    3.655571599660089E-2   -5.336657721570290E-1   -6.034841487191646E-2
 6.457204303875000E9    -5.716132641084559E-1   -1.526267930236923E-1   -8.331331272300057E-3    3.682397388473339E-2   -6.483671996561998E-3    3.661816063933019E-2   -5.339883128420091E-1   -5.905680558195377E-2
 6.457215997750000E9    -5.717608927968284E-1   -1.516640152944895E-1   -8.311643565872044E-3    3.707893072999574E-2   -6.425603969488135E-3    3.697326866955954E-2   -5.340233314332937E-1   -5.772098252072284E-2
 6.457227691625000E9    -5.720887923197706E-1   -1.506230953932616E-1   -8.209027851882433E-3    3.730865536370439E-2   -6.280819582728167E-3    3.708327026627260E-2   -5.341070455888123E-1   -5.632019245713470E-2
 6.457239385500000E9    -5.722528945307004E-1   -1.496970085432525E-1   -8.249162933134959E-3    3.755412465764902E-2   -6.277996434649056E-3    3.734694837931760E-2   -5.342494180892973E-1   -5.510371360116138E-2
 6.457251079375000E9    -5.725491207796569E-1   -1.486778740554294E-1   -8.151696429931597E-3    3.779710653185373E-2   -6.251357070590294E-3    3.757842338969491E-2   -5.343733960051983E-1   -5.380408611328068E-2
 6.457262773250000E9    -5.726805895172000E-1   -1.476975625684890E-1   -8.211553992906262E-3    3.813744350771373E-2   -6.210080065434996E-3    3.788015143339613E-2   -5.345149412914533E-1   -5.249796073988263E-2
 6.457274467125000E9    -5.729626087873175E-1   -1.466212050031622E-1   -8.192814594022657E-3    3.824721113350371E-2   -6.209228905828952E-3    3.803772583335501E-2   -5.346489670674316E-1   -5.126819101132658E-2
 6.457286161000000E9    -5.731893742743888E-1   -1.455679784515069E-1   -8.047019272993264E-3    3.846202908795235E-2   -6.146589624723742E-3    3.836975077697939E-2   -5.345492185464742E-1   -4.987575429707731E-2
 6.457297854875000E9    -5.733964129258655E-1   -1.446228974551333E-1   -7.952142224313109E-3    3.877774434831624E-2   -6.140721450388329E-3    3.856398343941878E-2   -5.347337464948140E-1   -4.853617517148619E-2
 6.457309548750000E9    -5.736541323931554E-1   -1.436605877153469E-1   -8.118786350260632E-3    3.902624602761515E-2   -5.975810083188882E-3    3.878299567846449E-2   -5.348500473722053E-1   -4.718076538330590E-2
 6.457321242625000E9    -5.737709480260443E-1   -1.425476322100743E-1   -7.998372102028686E-3    3.932824291346548E-2   -5.949913015584486E-3    3.903167691954085E-2   -5.348266493537008E-1   -4.595431448490225E-2
 6.457332936500000E9    -5.741970095493795E-1   -1.416378429041907E-1   -7.952726317365212E-3    3.945148393069020E-2   -5.902792205302939E-3    3.923949665920017E-2   -5.351161168211988E-1   -4.451683712796652E-2
 6.457344630375000E9    -5.742654500820703E-1   -1.406229050656642E-1   -7.845339638969460E-3    3.978007779473697E-2   -5.778451376052411E-3    3.955383309552379E-2   -5.351780091115984E-1   -4.311211251894776E-2
 6.457356324250000E9    -5.744889515934593E-1   -1.396862815052124E-1   -7.756998210994927E-3    4.006110636101090E-2   -5.720015345057040E-3    3.984800778640234E-2   -5.353367512346923E-1   -4.194323917158990E-2
 6.457368018125000E9    -5.746201645034710E-1   -1.385062168440516E-1   -7.791198662704627E-3    4.044810862151594E-2   -5.699713250000174E-3    4.009260864182516E-2   -5.352467034807413E-1   -4.037232737382448E-2
 6.457379712000000E9    -5.749351188174074E-1   -1.375142963423205E-1   -7.727077573724686E-3    4.070418490301636E-2   -5.649449277302715E-3    4.033475175957675E-2   -5.354833655469861E-1   -3.921061392656219E-2
 6.457391405875000E9    -5.751193755519247E-1   -1.365090742635434E-1   -7.721191422814129E-3    4.081139591729588E-2   -5.502393824175580E-3    4.050597516351073E-2   -5.356099427664732E-1   -3.773925303751278E-2
 6.457403099750000E9    -5.754242441847228E-1   -1.354863337631415E-1   -7.623182041917668E-3    4.121153346998017E-2   -5.578372181151563E-3    4.087952906951004E-2   -5.356865848606386E-1   -3.637126879518950E-2
 6.457414793625000E9    -5.754863459867107E-1   -1.344591026081331E-1   -7.564034733095671E-3    4.153864236480981E-2   -5.502304759275057E-3    4.113125725540971E-2   -5.356818127970330E-1   -3.495645105586143E-2
 6.457426487500000E9    -5.757670071323838E-1   -1.333853640083695E-1   -7.650444245105157E-3    4.170575687856066E-2   -5.316450336538600E-3    4.142916522851147E-2   -5.357667598882676E-1   -3.352206117609764E-2
 6.457438181375000E9    -5.758751965818647E-1   -1.324050372035778E-1   -7.525294010218751E-3    4.204745518386900E-2   -5.375660288193113E-3    4.182113764920065E-2   -5.358963119811094E-1   -3.217693746572015E-2
 6.457449875250000E9    -5.762215198091802E-1   -1.313854072241717E-1   -7.451116822423825E-3    4.224619890898174E-2   -5.205674144792698E-3    4.198213316183896E-2   -5.358588703284876E-1   -3.078976875354382E-2
 6.457461569125000E9    -5.763995253915082E-1   -1.302962047055814E-1   -7.336701661617756E-3    4.273267103142580E-2   -5.236915985374593E-3    4.228963390989025E-2   -5.360259699159093E-1   -2.941133178462104E-2
 6.457473263000000E9    -5.764695644274633E-1   -1.293456943546614E-1   -7.407511433581301E-3    4.280046794254373E-2   -5.126767955471106E-3    4.255340747146265E-2   -5.360366749219638E-1   -2.789552978780572E-2
 6.457484956875000E9    -5.766707526984092E-1   -1.282184529234853E-1   -7.233548820705663E-3    4.317041691674194E-2   -5.071952329737800E-3    4.285857910191701E-2   -5.360542551914502E-1   -2.655322318345306E-2
 6.457496650750000E9    -5.767870772278317E-1   -1.271915729293088E-1   -7.215418987297465E-3    4.346346245754353E-2   -4.949116260202483E-3    4.314454781729193E-2   -5.360179992971945E-1   -2.512806586663831E-2
 6.457508344625000E9    -5.770588102875376E-1   -1.260985853988716E-1   -7.101156367103433E-3    4.370826114092407E-2   -4.885414300935273E-3    4.346341854725999E-2   -5.360228240154626E-1   -2.364048683619823E-2
 6.457520038500000E9    -5.772803312630522E-1   -1.251151764984282E-1   -7.035495719629386E-3    4.428267399011038E-2   -4.792912996053477E-3    4.377354180953110E-2   -5.360742797843925E-1   -2.225146379128894E-2
 6.457531732375000E9    -5.775139944820051E-1   -1.239931577530110E-1   -6.909474577618627E-3    4.449845657459801E-2   -4.657631467209307E-3    4.418475395356158E-2   -5.362326976432772E-1   -2.084160394552238E-2
 6.457543426250000E9    -5.776403860441550E-1   -1.229610782507403E-1   -7.030603575337967E-3    4.468629164369706E-2   -4.683079546644302E-3    4.430719401346105E-2   -5.362147464512240E-1   -1.927282380182144E-2
 6.457555120125000E9    -5.778104028397297E-1   -1.218978412630236E-1   -6.855364972764731E-3    4.510668652929233E-2   -4.584500792244198E-3    4.474045370499430E-2   -5.362753059207279E-1   -1.773698534831901E-2
 6.457566814000000E9    -5.781009985149165E-1   -1.207880593469589E-1   -6.769115744707604E-3    4.544431320852287E-2   -4.535945251595180E-3    4.504181688985131E-2   -5.363714570100636E-1   -1.642106613209099E-2
 6.457578507875000E9    -5.781415362499253E-1   -1.198447412667034E-1   -6.795921628049243E-3    4.591968909914231E-2   -4.389539143017992E-3    4.539585708142653E-2   -5.364157879037345E-1   -1.473440379145763E-2
 6.457590201750000E9    -5.784186448898689E-1   -1.187704904045455E-1   -6.640008909269022E-3    4.615868926537257E-2   -4.261936508774115E-3    4.564037349667148E-2   -5.363704550067010E-1   -1.345964381012064E-2
 6.457601895625000E9    -5.784998307606896E-1   -1.177160264403912E-1   -6.572538433624103E-3    4.655866148706699E-2   -4.246718753223125E-3    4.595509105174768E-2   -5.364430730905537E-1   -1.200581651120076E-2
 6.457613589500000E9    -5.787432908859911E-1   -1.165893199170846E-1   -6.515587338436524E-3    4.677088067069266E-2   -4.156455417380928E-3    4.640570027036030E-2   -5.362920901150868E-1   -1.060845375435009E-2
 6.457625283375000E9    -5.789585953566688E-1   -1.155464687173233E-1   -6.517075761663284E-3    4.718171715704479E-2   -4.026712188164195E-3    4.677865926633011E-2   -5.362071949621393E-1   -8.924030498043614E-3
 6.457636977250000E9    -5.790711291167890E-1   -1.144014324475674E-1   -6.277146206396048E-3    4.750374099958247E-2   -4.010470787661659E-3    4.705256154725174E-2   -5.361863079331317E-1   -7.347698868660630E-3
 6.457648671125000E9    -5.792924350054365E-1   -1.134108286375140E-1   -6.222237479753982E-3    4.797079210420144E-2   -3.911331699521666E-3    4.739462241615817E-2   -5.362430912535920E-1   -5.798115862825771E-3
 6.457660365000000E9    -5.793377779917208E-1   -1.123652931560169E-1   -6.285595131576588E-3    4.825263907487922E-2   -3.810581589678175E-3    4.776503027447586E-2   -5.361545833262227E-1   -4.255373930079834E-3
 6.457672058875000E9    -5.795649965174844E-1   -1.112410977907444E-1   -6.155749384977025E-3    4.871921915244758E-2   -3.698970142187241E-3    4.808035733738624E-2   -5.362467838877991E-1   -2.656783462372143E-3
 6.457683752750000E9    -5.798185783078419E-1   -1.101805020588530E-1   -5.963626127424087E-3    4.905676680293612E-2   -3.569914711883456E-3    4.846464537591681E-2   -5.361183037580570E-1   -1.009088955607421E-3
 6.457695446625000E9    -5.798894596937569E-1   -1.090385899249125E-1   -5.997358055167357E-3    4.939926896088178E-2   -3.411075229171387E-3    4.878533926518082E-2   -5.361967386205523E-1    4.997535398008987E-4
 6.457707140500000E9    -5.799909983408005E-1   -1.079970557792286E-1   -5.758605232548691E-3    4.973624347738727E-2   -3.343569143523445E-3    4.921598888259474E-2   -5.361298939809903E-1    2.003985318871674E-3
 6.457718834375000E9    -5.801597805034907E-1   -1.068580592649181E-1   -5.703334891644380E-3    5.023287324186617E-2   -3.197676416748085E-3    4.957225579474703E-2   -5.360763347160770E-1    3.696654615156170E-3
 6.457730528250000E9    -5.803539996407179E-1   -1.057846185235318E-1   -5.669954993745225E-3    5.067953155214849E-2   -3.131873072776759E-3    5.008229444904919E-2   -5.361011506877961E-1    5.244361862922262E-3
 6.457742222125000E9    -5.803455231713127E-1   -1.046436067924214E-1   -5.498527254434001E-3    5.096090904875223E-2   -2.993521003682018E-3    5.037591994732959E-2   -5.358694321284230E-1    6.943795890981961E-3
 6.457753916000000E9    -5.805885898963338E-1   -1.034614339758682E-1   -5.440019675702738E-3    5.142533401987709E-2   -2.954278387198627E-3    5.088619793867590E-2   -5.358173978554827E-1    8.527937882431072E-3
 6.457765609875000E9    -5.807351795034098E-1   -1.024604328720417E-1   -5.327365726492971E-3    5.190451067168948E-2   -2.793878227756573E-3    5.121192336066885E-2   -5.357695580769914E-1    1.014294136216516E-2
 6.457777303750000E9    -5.808891352120084E-1   -1.013263156122490E-1   -5.221673681934002E-3    5.231385979954465E-2   -2.653298590680554E-3    5.154106400575584E-2   -5.356201236213630E-1    1.173099319560149E-2
 6.457788997625000E9    -5.809953929263243E-1   -1.001998595312551E-1   -4.940054310619352E-3    5.254825326235472E-2   -2.481771612582910E-3    5.208404243672442E-2   -5.355318956216182E-1    1.343816804050248E-2
 6.457800691500000E9    -5.811425556175270E-1   -9.918647875751258E-2   -4.949703358840172E-3    5.306424802425797E-2   -2.316025943540817E-3    5.256693641465274E-2   -5.354118742757639E-1    1.515937963669380E-2
 6.457812385375000E9    -5.811346581805474E-1   -9.793374568860676E-2   -4.967012219989656E-3    5.364527253543857E-2   -2.219158855234051E-3    5.288364934115699E-2   -5.354229285383559E-1    1.679641238654643E-2
 6.457824079250000E9    -5.813143489380513E-1   -9.682241038285454E-2   -4.836157519879630E-3    5.400766488820950E-2   -2.027229287374143E-3    5.322865984886975E-2   -5.352387602778260E-1    1.858028555540525E-2
 6.457835773125000E9    -5.814658239337407E-1   -9.574613634589274E-2   -4.578800502614245E-3    5.437487939808152E-2   -1.898833908264966E-3    5.366562131241781E-2   -5.350777176395100E-1    2.013997104455355E-2
 6.457847467000000E9    -5.815088396861550E-1   -9.463364040618968E-2   -4.487772149989129E-3    5.503580806337045E-2   -1.823959310084470E-3    5.411857569525696E-2   -5.349320361063429E-1    2.188406546032901E-2
 6.457859160875000E9    -5.816151116050730E-1   -9.345808387578382E-2   -4.369649130192902E-3    5.537856036535627E-2   -1.648423739243693E-3    5.459893337701244E-2   -5.348406602804022E-1    2.355197206804407E-2
 6.457870854750000E9    -5.817907500697774E-1   -9.229257373184968E-2   -4.214661957342126E-3    5.584561332648130E-2   -1.524431274971756E-3    5.506872763356697E-2   -5.346906752568341E-1    2.548390539553206E-2
 6.457882548625000E9    -5.818369522807755E-1   -9.117803144697617E-2   -4.122619643336167E-3    5.640339693827898E-2   -1.372625940695191E-3    5.563503309769324E-2   -5.346693000565398E-1    2.718018816261364E-2
 6.457894242500000E9    -5.820234433514848E-1   -9.010465870274952E-2   -4.158278081779270E-3    5.689872780276845E-2   -1.260423605685689E-3    5.605928840371455E-2   -5.344084285105705E-1    2.885377425884647E-2
 6.457905936375000E9    -5.821459083888518E-1   -8.898337905331066E-2   -3.957904076640293E-3    5.745627288721627E-2   -1.105215723108738E-3    5.654463871620362E-2   -5.342708596966164E-1    3.067184848449647E-2
 6.457917630250000E9    -5.821548083377643E-1   -8.773206638971164E-2   -3.700563154051572E-3    5.791764992095360E-2   -8.040511542346488E-4    5.706681654702080E-2   -5.341028415088593E-1    3.248949924465362E-2
 6.457929324125000E9    -5.823980983169839E-1   -8.658265792825885E-2   -3.666774865301987E-3    5.831547381784264E-2   -7.511379936015278E-4    5.751540990958803E-2   -5.338159607551191E-1    3.437719271958416E-2
 6.457941018000000E9    -5.822943530703725E-1   -8.543589682192823E-2   -3.321249819520039E-3    5.878554600019849E-2   -4.684749676936877E-4    5.799241420355089E-2   -5.336959132497473E-1    3.618687579541113E-2
 6.457952711875000E9    -5.824050751214235E-1   -8.424449434981367E-2   -3.189199325859821E-3    5.936065893442124E-2   -3.727486883928676E-4    5.845575597509017E-2   -5.335613735632089E-1    3.807208640464409E-2
 6.457964405750000E9    -5.824872814661778E-1   -8.315607164947030E-2   -3.096931087372043E-3    5.997699305877982E-2   -1.340207221404748E-4    5.908930115289136E-2   -5.331367458866947E-1    3.978335576256738E-2
