#  HZ   S   RI   R     50.00 
! Rohde & Schwarz Vector Network Analyzer 
! Rohde-Schwarz,ZNB20-2Port,1311601062101988,3.16
! Created: UTC 3/20/2024, 11:07:57 PM
! freq[Hz]                re:S11                  im:S11                  re:S21                  im:S21                  re:S12                  im:S12                  re:S22                  im:S22
 6.456911611000000E9    -5.651544944639380E-1   -1.772752312193569E-1   -9.050968640285860E-3    3.167160098212151E-2   -7.390941957215519E-3    3.157997852682982E-2   -5.292460551723607E-1   -8.988115794357812E-2
 6.456923300125000E9    -5.653378743006297E-1   -1.763459830178349E-1   -9.102857238909029E-3    3.199614301579658E-2   -7.244810579775091E-3    3.183538664653351E-2   -5.294626117034269E-1   -8.881493012430731E-2
 6.456934989250000E9    -5.656380345865315E-1   -1.754433290209794E-1   -8.999853537704963E-3    3.196084336993828E-2   -7.193715141287253E-3    3.207402988588698E-2   -5.297504489301742E-1   -8.759608244959710E-2
 6.456946678375000E9    -5.658735284552163E-1   -1.744277627520765E-1   -9.036569422562561E-3    3.225784101412248E-2   -7.357867251114016E-3    3.217168677333700E-2   -5.298560869492531E-1   -8.642315684598291E-2
 6.456958367500000E9    -5.662090288389406E-1   -1.733348785917078E-1   -9.086217893547261E-3    3.239106291368012E-2   -7.291210842166581E-3    3.242804785699701E-2   -5.301624896861713E-1   -8.515716808038477E-2
 6.456970056625000E9    -5.664580201463532E-1   -1.724380063838196E-1   -9.017120292573596E-3    3.255763060669032E-2   -7.247128354480038E-3    3.259858338828508E-2   -5.302134882695473E-1   -8.390319788639954E-2
 6.456981745750000E9    -5.666912208989183E-1   -1.715272330171617E-1   -8.954138654717949E-3    3.269564898759086E-2   -7.139783685979651E-3    3.272084815360295E-2   -5.305089719905444E-1   -8.284609830366264E-2
 6.456993434875000E9    -5.670366484574014E-1   -1.705424189190823E-1   -8.918807013327305E-3    3.300547974336521E-2   -7.234960646275112E-3    3.294165233204001E-2   -5.306213407060123E-1   -8.148540768505366E-2
 6.457005124000000E9    -5.672473572223085E-1   -1.695737887474829E-1   -8.839767338155700E-3    3.319162233443734E-2   -7.144818060191730E-3    3.317770287404436E-2   -5.309046559866031E-1   -8.038004593955769E-2
 6.457016813125000E9    -5.674881724189142E-1   -1.686181097263915E-1   -8.877082787178371E-3    3.337067205395972E-2   -7.075716234996891E-3    3.331229028706172E-2   -5.308919389324926E-1   -7.917885408318506E-2
 6.457028502250000E9    -5.677620343082953E-1   -1.676176191145179E-1   -8.846798434391515E-3    3.372850105316213E-2   -7.094724178999024E-3    3.345826452199884E-2   -5.311652784771752E-1   -7.793127257813175E-2
 6.457040191375000E9    -5.680623825855813E-1   -1.666018782475635E-1   -8.968631058363876E-3    3.380437099775213E-2   -7.073056773282820E-3    3.379618777469793E-2   -5.313494694186686E-1   -7.677912083289151E-2
 6.457051880500000E9    -5.682817594225313E-1   -1.658375965400901E-1   -8.701646279423641E-3    3.401686729922232E-2   -7.014792847924554E-3    3.396179437149333E-2   -5.314775303208603E-1   -7.539486076561469E-2
 6.457063569625000E9    -5.686280523842638E-1   -1.647634868675623E-1   -8.771814358937403E-3    3.412944598676345E-2   -6.918540800252827E-3    3.403536927138057E-2   -5.316927601763499E-1   -7.421306035382950E-2
 6.457075258750000E9    -5.687136763810947E-1   -1.637017467704203E-1   -8.854271761040347E-3    3.425374566884302E-2   -6.906592207754510E-3    3.421188475619744E-2   -5.319664482146165E-1   -7.307032421407639E-2
 6.457086947875000E9    -5.690896484442233E-1   -1.627377998845996E-1   -8.691684184858264E-3    3.454264304576733E-2   -6.873803674293602E-3    3.448469734294986E-2   -5.319198106359875E-1   -7.181805285183297E-2
 6.457098637000000E9    -5.693612772346724E-1   -1.616636803005497E-1   -8.891980342663417E-3    3.470160189955104E-2   -6.894394109550451E-3    3.477206315522238E-2   -5.320714962467427E-1   -7.054104399767670E-2
 6.457110326125000E9    -5.695661460073893E-1   -1.608102105240382E-1   -8.711001575616972E-3    3.503978081063603E-2   -6.841102353914246E-3    3.491646890592945E-2   -5.323202988434262E-1   -6.919945559768463E-2
 6.457122015250000E9    -5.698436356627316E-1   -1.597759881438543E-1   -8.622119289697125E-3    3.525347715106855E-2   -6.791960945699506E-3    3.516670013361799E-2   -5.325016754090394E-1   -6.809438029406907E-2
 6.457133704375000E9    -5.701012342861730E-1   -1.588701266883242E-1   -8.556736498186552E-3    3.541665723718621E-2   -6.779988992551425E-3    3.534093241682262E-2   -5.326313697395288E-1   -6.684698572602174E-2
 6.457145393500000E9    -5.703573167542835E-1   -1.578962020979004E-1   -8.618795303010586E-3    3.563477533147045E-2   -6.647294522430699E-3    3.556321972790406E-2   -5.327831784040539E-1   -6.558557349753998E-2
 6.457157082625000E9    -5.705058758885863E-1   -1.568743060677492E-1   -8.535467976574429E-3    3.587083195627259E-2   -6.579126136714083E-3    3.584289481060861E-2   -5.330023998962996E-1   -6.429367727997271E-2
 6.457168771750000E9    -5.708451882699684E-1   -1.558731847853854E-1   -8.538314455350669E-3    3.611100249640757E-2   -6.589130888734035E-3    3.604362454129696E-2   -5.329952533337373E-1   -6.315747482083804E-2
 6.457180460875000E9    -5.711235548524343E-1   -1.549806003415013E-1   -8.512804595583521E-3    3.634973955349756E-2   -6.589185130328647E-3    3.615268027739544E-2   -5.332689769595046E-1   -6.169679696986110E-2
 6.457192150000000E9    -5.713104267504706E-1   -1.539530680232023E-1   -8.406498779279903E-3    3.647272406893962E-2   -6.542968252353765E-3    3.637864801965392E-2   -5.334757536156427E-1   -6.040604772680420E-2
 6.457203839125000E9    -5.715890523067032E-1   -1.529073254284570E-1   -8.428725512585387E-3    3.674524453388946E-2   -6.477730497773231E-3    3.660466309189270E-2   -5.334720579840475E-1   -5.906343189525006E-2
 6.457215528250000E9    -5.718445727647342E-1   -1.518197021515962E-1   -8.406170747221980E-3    3.705249218500334E-2   -6.378814184563703E-3    3.689529638594120E-2   -5.337052716594078E-1   -5.775508793884941E-2
 6.457227217375000E9    -5.720357702856577E-1   -1.508987404804093E-1   -8.344395971517305E-3    3.726665351831053E-2   -6.321760726717254E-3    3.708491505590392E-2   -5.338113022935779E-1   -5.658707837940554E-2
 6.457238906500000E9    -5.722715744268714E-1   -1.499089396086192E-1   -8.211967613849697E-3    3.747446687683756E-2   -6.287890728465153E-3    3.727299049213111E-2   -5.338851705549171E-1   -5.541883882693419E-2
 6.457250595625000E9    -5.725295942042066E-1   -1.488580011539975E-1   -8.254623601681981E-3    3.767541327384904E-2   -6.295362718422978E-3    3.760860891975260E-2   -5.340296553098005E-1   -5.411493356076049E-2
 6.457262284750000E9    -5.726229263594133E-1   -1.477820371945946E-1   -8.090663055790894E-3    3.806262491220058E-2   -6.208649935497467E-3    3.783984503903738E-2   -5.341370995822268E-1   -5.278696213831655E-2
 6.457273973875000E9    -5.729980114013135E-1   -1.469306838243559E-1   -8.178956105552708E-3    3.822730199853228E-2   -6.206419820623065E-3    3.800950105852448E-2   -5.342196389916691E-1   -5.147258084333965E-2
 6.457285663000000E9    -5.731781070839332E-1   -1.459286451698475E-1   -8.195216325637649E-3    3.851412407556479E-2   -6.052028807027835E-3    3.844103559650855E-2   -5.343043375497185E-1   -5.017113460157137E-2
 6.457297352125000E9    -5.733616057844223E-1   -1.449170724942641E-1   -8.080316412524099E-3    3.882535309808784E-2   -6.050068232362964E-3    3.850879353778652E-2   -5.344966056022069E-1   -4.877177987458940E-2
 6.457309041250000E9    -5.736076893603629E-1   -1.437947778235732E-1   -8.193824180587303E-3    3.898043707634189E-2   -5.905856951431889E-3    3.877709493610953E-2   -5.345247535330265E-1   -4.737195990568404E-2
 6.457320730375000E9    -5.738205096609065E-1   -1.428315454246822E-1   -7.976571194491047E-3    3.917120734708260E-2   -5.921251742346455E-3    3.895814010524622E-2   -5.346947729457115E-1   -4.609438766782999E-2
 6.457332419500000E9    -5.740544642320533E-1   -1.418729447190911E-1   -7.909758293712640E-3    3.955025150571199E-2   -5.878058100491171E-3    3.927860669570162E-2   -5.347058483885657E-1   -4.477229550639393E-2
 6.457344108625000E9    -5.742934169745579E-1   -1.407382338473134E-1   -7.977251915853099E-3    3.975034702044521E-2   -5.826896015747544E-3    3.961428546933524E-2   -5.347493947945728E-1   -4.335122779125574E-2
 6.457355797750000E9    -5.745379208418253E-1   -1.399089764007532E-1   -7.866162075612117E-3    4.005983762460977E-2   -5.777482118335585E-3    3.977909702540501E-2   -5.350570430509076E-1   -4.217560368317581E-2
 6.457367486875000E9    -5.747900006293197E-1   -1.387048356959929E-1   -7.824084421761452E-3    4.033893108838153E-2   -5.682875179671327E-3    4.007072078451917E-2   -5.351838488914696E-1   -4.078983663378864E-2
 6.457379176000000E9    -5.750457530901033E-1   -1.376210222865248E-1   -7.802180631834014E-3    4.052290536570284E-2   -5.689514380763545E-3    4.040528608064155E-2   -5.351784236447291E-1   -3.936151065351851E-2
 6.457390865125000E9    -5.751197467818757E-1   -1.366683606326453E-1   -7.755804381047781E-3    4.089314412572880E-2   -5.573830730983936E-3    4.065885922674440E-2   -5.352472813671312E-1   -3.801623436122422E-2
 6.457402554250000E9    -5.753289539958116E-1   -1.357144435925591E-1   -7.697623385298051E-3    4.101669771269106E-2   -5.532946850400908E-3    4.080086155324494E-2   -5.352983773865669E-1   -3.665314458527247E-2
 6.457414243375000E9    -5.755291925303255E-1   -1.346640350142979E-1   -7.575919918987734E-3    4.132641212777680E-2   -5.539272933471882E-3    4.113042102066788E-2   -5.353625725042862E-1   -3.535616496574576E-2
 6.457425932500000E9    -5.757161850763852E-1   -1.337092996332422E-1   -7.584457116387215E-3    4.172981935479916E-2   -5.427631757773989E-3    4.133601418746777E-2   -5.355387793577250E-1   -3.385132505004623E-2
 6.457437621625000E9    -5.759240281287350E-1   -1.325716248651237E-1   -7.418384031775155E-3    4.203957095690414E-2   -5.288751634312654E-3    4.165651244344536E-2   -5.354645013897413E-1   -3.230522403203272E-2
 6.457449310750000E9    -5.762310137873530E-1   -1.315026908947543E-1   -7.430845306478197E-3    4.224858446918032E-2   -5.284067768424466E-3    4.202497651064361E-2   -5.356242934507331E-1   -3.097581973944721E-2
 6.457460999875000E9    -5.763670744057602E-1   -1.304551019428451E-1   -7.401974179501389E-3    4.251881852425185E-2   -5.255817005268429E-3    4.230600221730592E-2   -5.355718721063137E-1   -2.963839836203805E-2
 6.457472689000000E9    -5.765097297361852E-1   -1.293752748566950E-1   -7.359059929649639E-3    4.273608390598933E-2   -5.079017144737813E-3    4.252684692822008E-2   -5.356671058382591E-1   -2.818445785610450E-2
 6.457484378125000E9    -5.766724961168703E-1   -1.284088844460946E-1   -7.270857988869909E-3    4.313391158294509E-2   -4.968560712962454E-3    4.289209709679660E-2   -5.357961478083578E-1   -2.679120316296043E-2
 6.457496067250000E9    -5.768747625450888E-1   -1.274886022637120E-1   -7.266688405155653E-3    4.338533204257280E-2   -4.992043829632456E-3    4.314228028160153E-2   -5.356810820231989E-1   -2.536044685238285E-2
 6.457507756375000E9    -5.771379959759211E-1   -1.262104497954550E-1   -7.086548118618559E-3    4.386851491138407E-2   -4.966002879700481E-3    4.342877074410995E-2   -5.358374575052633E-1   -2.386183022766065E-2
 6.457519445500000E9    -5.772965610724753E-1   -1.252231956382313E-1   -7.145022930197335E-3    4.431703132374640E-2   -4.762941284911187E-3    4.374223229627467E-2   -5.359330139637845E-1   -2.258095105786801E-2
 6.457531134625000E9    -5.774428186170050E-1   -1.242590883448095E-1   -6.991280925168509E-3    4.437000150223675E-2   -4.747214984695662E-3    4.396840037146471E-2   -5.359311592797383E-1   -2.089177818284527E-2
 6.457542823750000E9    -5.777740590958697E-1   -1.232396482905832E-1   -6.928304292958271E-3    4.473653875730382E-2   -4.702565735384814E-3    4.440564932879554E-2   -5.359363876511798E-1   -1.957807946314124E-2
 6.457554512875000E9    -5.779114472879116E-1   -1.221223862372620E-1   -6.938641782162937E-3    4.502756285835725E-2   -4.560270489444581E-3    4.466657126909077E-2   -5.359267789927178E-1   -1.802992243424505E-2
 6.457566202000000E9    -5.779769641380323E-1   -1.210010079849262E-1   -6.758554841116873E-3    4.537577402320758E-2   -4.540878021461222E-3    4.502218247525604E-2   -5.360545037964293E-1   -1.662060692848711E-2
 6.457577891125000E9    -5.781509667609461E-1   -1.200077576276708E-1   -6.826221968147268E-3    4.580098559450149E-2   -4.437019290662575E-3    4.531314008227978E-2   -5.359979487837130E-1   -1.517908113644776E-2
 6.457589580250000E9    -5.784881577451779E-1   -1.189915847069312E-1   -6.698476324446372E-3    4.594459482498806E-2   -4.362910392278494E-3    4.567386354984241E-2   -5.360573796127350E-1   -1.367226481800474E-2
 6.457601269375000E9    -5.786098293967360E-1   -1.179237245132046E-1   -6.766636252908928E-3    4.652704376718286E-2   -4.233500115466537E-3    4.604091319123230E-2   -5.361271250883042E-1   -1.211522355869188E-2
 6.457612958500000E9    -5.787216215954548E-1   -1.168300303947905E-1   -6.619606214903449E-3    4.673645677636955E-2   -4.220840651165659E-3    4.633967352143135E-2   -5.359694470968506E-1   -1.060708417835207E-2
 6.457624647625000E9    -5.788222964545666E-1   -1.157550604574208E-1   -6.413765228486774E-3    4.713499115663651E-2   -4.083922007779960E-3    4.664333914367778E-2   -5.359416601660385E-1   -9.211229060957629E-3
 6.457636336750000E9    -5.790349299949802E-1   -1.146723962523881E-1   -6.296701118888348E-3    4.747919768029717E-2   -3.905154622458402E-3    4.701696119467211E-2   -5.359988379462646E-1   -7.530218218950184E-3
 6.457648025875000E9    -5.792434105163845E-1   -1.138192260470029E-1   -6.390930567670256E-3    4.784422356373277E-2   -3.927420482523568E-3    4.732852064730146E-2   -5.360161288766325E-1   -6.050592809875752E-3
 6.457659715000000E9    -5.794129065843058E-1   -1.125197386391405E-1   -6.191914659784747E-3    4.826085260132533E-2   -3.733186726875313E-3    4.774473115147860E-2   -5.358443184095200E-1   -4.564851139296049E-3
 6.457671404125000E9    -5.795406405193203E-1   -1.113517525272032E-1   -6.065394687778870E-3    4.856346118541242E-2   -3.706374356361677E-3    4.811746303078172E-2   -5.359516268001209E-1   -2.843314392661034E-3
 6.457683093250000E9    -5.797427773020941E-1   -1.102939855259273E-1   -5.924846926285273E-3    4.902170341409669E-2   -3.545702150051332E-3    4.845874679128578E-2   -5.358797851195609E-1   -1.419444403150962E-3
 6.457694782375000E9    -5.797595819481798E-1   -1.092741514749426E-1   -6.007274801262573E-3    4.929590107013775E-2   -3.503705673886801E-3    4.878904377970203E-2   -5.358759968935082E-1    3.442551135208940E-4
 6.457706471500000E9    -5.799830468105053E-1   -1.080941452214520E-1   -5.879583083836041E-3    4.960273981850635E-2   -3.395233568327945E-3    4.915592444046663E-2   -5.358890361151465E-1    1.647360602443159E-3
 6.457718160625000E9    -5.802244579701507E-1   -1.069669240959218E-1   -5.779144807177171E-3    5.028120963548746E-2   -3.282174797229593E-3    4.953784073373844E-2   -5.358734699301876E-1    3.345828761182807E-3
 6.457729849750000E9    -5.803295417077672E-1   -1.059944309444510E-1   -5.731026219700271E-3    5.055467345477207E-2   -3.194987147333479E-3    4.998578683092961E-2   -5.356491567386688E-1    4.964373206628398E-3
 6.457741538875000E9    -5.804688538698388E-1   -1.047787947912136E-1   -5.710555165956621E-3    5.103703718926205E-2   -3.010855678128227E-3    5.029384018852605E-2   -5.356499134346101E-1    6.592401916710812E-3
 6.457753228000000E9    -5.805265219726998E-1   -1.037453690372662E-1   -5.389476324236102E-3    5.125219533874639E-2   -2.903521848964126E-3    5.071960283479589E-2   -5.354650638569906E-1    8.255674486992465E-3
 6.457764917125000E9    -5.807930201912296E-1   -1.026676065228090E-1   -5.355600367385866E-3    5.182895748758485E-2   -2.779487638606611E-3    5.114070310011629E-2   -5.354047416447852E-1    9.690073323270832E-3
 6.457776606250000E9    -5.807780590159896E-1   -1.015775371058986E-1   -5.231886052685180E-3    5.211481598310594E-2   -2.621678104199576E-3    5.151651609063568E-2   -5.352505663223042E-1    1.140276475917582E-2
 6.457788295375000E9    -5.809474774511899E-1   -1.004388013547138E-1   -5.148343147981010E-3    5.259674407067619E-2   -2.531924276008667E-3    5.191323213040449E-2   -5.353058284993135E-1    1.320204508701917E-2
 6.457799984500000E9    -5.810993125934751E-1   -9.937523287235453E-2   -5.053713120308855E-3    5.299741900265351E-2   -2.429187137715895E-3    5.226155796172589E-2   -5.351694834708633E-1    1.471741434217769E-2
 6.457811673625000E9    -5.812062602004738E-1   -9.825553163497294E-2   -4.968253023078316E-3    5.355311352920238E-2   -2.301487268741735E-3    5.271808136737104E-2   -5.350465310422344E-1    1.642242699532274E-2
 6.457823362750000E9    -5.813205844426029E-1   -9.709229922937467E-2   -4.811936099161395E-3    5.396122338065168E-2   -2.119457821653022E-3    5.326103951878122E-2   -5.348710200709681E-1    1.810835059330404E-2
 6.457835051875000E9    -5.814924543034762E-1   -9.587757361794277E-2   -4.587893441617526E-3    5.440138287278797E-2   -1.999250981057752E-3    5.364853459084063E-2   -5.348628115951368E-1    2.004423970509559E-2
 6.457846741000000E9    -5.815571071500769E-1   -9.477107732234516E-2   -4.659737659906265E-3    5.492640711790500E-2   -1.890516503934784E-3    5.406217864591671E-2   -5.348115101383324E-1    2.162301663024822E-2
 6.457858430125000E9    -5.816340063016643E-1   -9.367161911119902E-2   -4.568575580426617E-3    5.541205482556239E-2   -1.712825092965425E-3    5.455703675928703E-2   -5.346753455197888E-1    2.327616868793963E-2
 6.457870119250000E9    -5.818673709368319E-1   -9.260553031025875E-2   -4.277990532586528E-3    5.571398990635125E-2   -1.558904495283636E-3    5.504628987041755E-2   -5.343584001382009E-1    2.510388561557945E-2
 6.457881808375000E9    -5.819698186515130E-1   -9.133396470285758E-2   -4.227089359877422E-3    5.622207295320859E-2   -1.351763577386268E-3    5.557290187072354E-2   -5.343727973328836E-1    2.696083395231491E-2
 6.457893497500000E9    -5.820786889858859E-1   -9.019738406323075E-2   -4.103887861348784E-3    5.677492428750590E-2   -1.244958883031619E-3    5.596481279835790E-2   -5.341342523997443E-1    2.860814886069424E-2
 6.457905186625000E9    -5.821023145877513E-1   -8.912606663468815E-2   -3.936427564498237E-3    5.730872406314371E-2   -1.095645805969316E-3    5.643588321554824E-2   -5.340372479849583E-1    3.030797290019291E-2
 6.457916875750000E9    -5.822507502032874E-1   -8.788120562834760E-2   -3.821216648605574E-3    5.790822902665706E-2   -9.480724000280413E-4    5.693024903604700E-2   -5.337133137709156E-1    3.211165782797368E-2
 6.457928564875000E9    -5.823976910480149E-1   -8.674830551170050E-2   -3.586518453060783E-3    5.841821963800103E-2   -7.631745916453542E-4    5.743113954253355E-2   -5.335369937815346E-1    3.391793307950387E-2
 6.457940254000000E9    -5.823315878467582E-1   -8.560011058248072E-2   -3.372273837102457E-3    5.890141268306096E-2   -6.331160591454450E-4    5.796982546450730E-2   -5.334141979674878E-1    3.566001297936901E-2
 6.457951943125000E9    -5.823101686313428E-1   -8.441047876773376E-2   -3.290349719807872E-3    5.935637673318002E-2   -4.514623429904786E-4    5.856704258765543E-2   -5.332319354382667E-1    3.774947983254812E-2
 6.457963632250000E9    -5.824963732454529E-1   -8.325308308170060E-2   -3.091762976638572E-3    5.988652181747288E-2   -2.265985812818666E-4    5.897494510078349E-2   -5.328215164440236E-1    3.945642065529310E-2
