#  HZ   S   RI   R     50.00 
! Rohde & Schwarz Vector Network Analyzer 
! Rohde-Schwarz,ZNB20-2Port,1311601062101988,3.16
! Created: UTC 3/20/2024, 11:08:06 PM
! freq[Hz]                re:S11                  im:S11                  re:S21                  im:S21                  re:S12                  im:S12                  re:S22                  im:S22
 6.456913719000000E9    -5.651690378998173E-1   -1.771964933179639E-1   -9.037728497297549E-3    3.175811774175198E-2   -7.396489794095140E-3    3.169305486444707E-2   -5.292618222405406E-1   -8.971378624782254E-2
 6.456925401025000E9    -5.654033850299055E-1   -1.762867756427233E-1   -9.103063002780352E-3    3.193208361178800E-2   -7.436350903619758E-3    3.192470361502561E-2   -5.294521756337159E-1   -8.863128068211500E-2
 6.456937083050000E9    -5.657060351406068E-1   -1.751482277226715E-1   -8.971602041622886E-3    3.223101813347798E-2   -7.342322949615487E-3    3.206435292361468E-2   -5.296180606041434E-1   -8.750799724751895E-2
 6.456948765075000E9    -5.659369619090925E-1   -1.741917031338670E-1   -9.024418564483855E-3    3.233771613434314E-2   -7.391333449813077E-3    3.229206765059125E-2   -5.297185865947720E-1   -8.622203145647429E-2
 6.456960447100000E9    -5.661697798755264E-1   -1.733150260876713E-1   -8.947702012221285E-3    3.253744010458036E-2   -7.383009148535681E-3    3.247621847216158E-2   -5.299453474995097E-1   -8.513809738100560E-2
 6.456972129125000E9    -5.664631148093270E-1   -1.723089004830212E-1   -9.035438131950572E-3    3.260126278657641E-2   -7.283576216134307E-3    3.262958171664398E-2   -5.301674800454734E-1   -8.396419681498569E-2
 6.456983811150000E9    -5.667606583924295E-1   -1.714609087751384E-1   -8.848545055134407E-3    3.285412143520895E-2   -7.154141894073682E-3    3.281062456707311E-2   -5.303057503887614E-1   -8.265576662704385E-2
 6.456995493175000E9    -5.670099703700437E-1   -1.703894667147186E-1   -8.867838150954840E-3    3.311126150795803E-2   -7.149824218595917E-3    3.302136229169407E-2   -5.306162114099847E-1   -8.139102191116536E-2
 6.457007175200000E9    -5.672383523822492E-1   -1.694879213869638E-1   -8.979542123892783E-3    3.315000327342634E-2   -7.105837039321099E-3    3.311640703197731E-2   -5.306423683343398E-1   -8.037008441246339E-2
 6.457018857225000E9    -5.676280870575894E-1   -1.685435522302685E-1   -8.786402595720279E-3    3.330559819470821E-2   -7.179142841803517E-3    3.334091405374687E-2   -5.309024379375624E-1   -7.903515168310704E-2
 6.457030539250000E9    -5.677929795479092E-1   -1.673938486334342E-1   -8.916012546713601E-3    3.370753554165137E-2   -7.083451338255232E-3    3.347000386085590E-2   -5.311071495205153E-1   -7.784222921557533E-2
 6.457042221275000E9    -5.680955244713489E-1   -1.664879752702430E-1   -8.732948488627814E-3    3.376500585887105E-2   -7.036279602772852E-3    3.375900427170513E-2   -5.312213957665518E-1   -7.666650493560165E-2
 6.457053903300000E9    -5.684787821492377E-1   -1.655703752802005E-1   -8.865989447223168E-3    3.405036188122056E-2   -7.023674369591983E-3    3.390650089067953E-2   -5.312999703219363E-1   -7.536566222135622E-2
 6.457065585325000E9    -5.685894304818433E-1   -1.646059861596252E-1   -8.707777094184512E-3    3.415424955051113E-2   -6.899096913830592E-3    3.415526569059264E-2   -5.316665870064882E-1   -7.423518236042195E-2
 6.457077267350000E9    -5.688348978001333E-1   -1.635493699462094E-1   -8.801943395781392E-3    3.445507099670522E-2   -6.946662875439921E-3    3.430617484773059E-2   -5.317119611203691E-1   -7.278842679181834E-2
 6.457088949375000E9    -5.691152366457339E-1   -1.625619255075178E-1   -8.757426732805999E-3    3.471576147416345E-2   -6.902681656647936E-3    3.459827215922442E-2   -5.319820634569725E-1   -7.171716567565417E-2
 6.457100631400000E9    -5.694466957926946E-1   -1.616726775114003E-1   -8.656859307095137E-3    3.481554370219421E-2   -6.816836341712964E-3    3.463871806689071E-2   -5.320161593906644E-1   -7.044874168716363E-2
 6.457112313425000E9    -5.696790597106470E-1   -1.605927407287725E-1   -8.674154293304670E-3    3.509279640715332E-2   -6.766356803709125E-3    3.499221350720542E-2   -5.322139878012605E-1   -6.919181373225977E-2
 6.457123995450000E9    -5.698736432384168E-1   -1.595811591278297E-1   -8.714351174133180E-3    3.511922700267173E-2   -6.740150904641678E-3    3.517579829612438E-2   -5.324240516713972E-1   -6.800569319932005E-2
 6.457135677475000E9    -5.701744523655556E-1   -1.586825055962052E-1   -8.587061112336473E-3    3.557186810601539E-2   -6.669380547355432E-3    3.533201860126115E-2   -5.324429166944271E-1   -6.669202761368397E-2
 6.457147359500000E9    -5.703752582849807E-1   -1.577288016276386E-1   -8.586488550461124E-3    3.569564000693425E-2   -6.686084444149470E-3    3.557161994340501E-2   -5.326114962422533E-1   -6.530315665357600E-2
 6.457159041525000E9    -5.705938440568753E-1   -1.567518437576446E-1   -8.419317175698266E-3    3.599643653953261E-2   -6.683152357722075E-3    3.581422274553773E-2   -5.329193429648041E-1   -6.418661734647549E-2
 6.457170723550000E9    -5.708853582159278E-1   -1.557441280033162E-1   -8.498912429688175E-3    3.610765575982633E-2   -6.604167034363625E-3    3.603625416955812E-2   -5.329667889267330E-1   -6.281521070953566E-2
 6.457182405575000E9    -5.710474213224973E-1   -1.546882803939511E-1   -8.497353278339382E-3    3.627125847466931E-2   -6.491464577771103E-3    3.625439211060314E-2   -5.332222513135499E-1   -6.166985031622992E-2
 6.457194087600000E9    -5.713212069322825E-1   -1.538150738094406E-1   -8.567273930058268E-3    3.670195238696940E-2   -6.495661289865259E-3    3.645536465676158E-2   -5.332703684321756E-1   -6.031833831458571E-2
 6.457205769625000E9    -5.715746825846395E-1   -1.526835514421522E-1   -8.339000077063093E-3    3.669204084159434E-2   -6.452438506712842E-3    3.677282904070753E-2   -5.333568242687723E-1   -5.909149093911972E-2
 6.457217451650000E9    -5.717723009098623E-1   -1.517179601021419E-1   -8.315218586532634E-3    3.687249748404865E-2   -6.427950424071667E-3    3.691755328656807E-2   -5.335467419909116E-1   -5.768002682133368E-2
 6.457229133675000E9    -5.720918902449680E-1   -1.507795604036836E-1   -8.359585730130226E-3    3.724687204196937E-2   -6.393565291817254E-3    3.715123548796240E-2   -5.336234482975536E-1   -5.656177611869178E-2
 6.457240815700000E9    -5.722849727964083E-1   -1.497690561056071E-1   -8.312901999748212E-3    3.754302718720744E-2   -6.253588039337793E-3    3.730420462885674E-2   -5.337546044616504E-1   -5.529967367404780E-2
 6.457252497725000E9    -5.724122840710699E-1   -1.486992650087031E-1   -8.282971119029191E-3    3.785921198909262E-2   -6.263048148951999E-3    3.757712838514000E-2   -5.338534302035471E-1   -5.392659581723006E-2
 6.457264179750000E9    -5.727259424024290E-1   -1.477878185142596E-1   -8.318891314785517E-3    3.813404944234152E-2   -6.202672106214457E-3    3.786873386321810E-2   -5.339665309347473E-1   -5.267175075861789E-2
 6.457275861775000E9    -5.730189985450023E-1   -1.467060589161899E-1   -8.237686689033956E-3    3.838370128955736E-2   -6.147167388157297E-3    3.801977090892875E-2   -5.341240223082757E-1   -5.136321960099902E-2
 6.457287543800000E9    -5.733263317343493E-1   -1.457228374040057E-1   -8.115117113807649E-3    3.860237877720307E-2   -6.066084976374554E-3    3.834314079724380E-2   -5.341965492620728E-1   -5.006749025288677E-2
 6.457299225825000E9    -5.734433921136519E-1   -1.447534827600057E-1   -8.129692710655639E-3    3.875922321371162E-2   -5.991040655133002E-3    3.847383891760225E-2   -5.345198319192001E-1   -4.869407426832878E-2
 6.457310907850000E9    -5.737242329100525E-1   -1.436413552059425E-1   -7.992630693768089E-3    3.896617919466917E-2   -5.957531447379599E-3    3.883796435119995E-2   -5.345687731101403E-1   -4.735028723250586E-2
 6.457322589875000E9    -5.738906921331470E-1   -1.426872826570925E-1   -7.992747527828414E-3    3.914946552130952E-2   -6.068748807992567E-3    3.908643009962288E-2   -5.345256328308942E-1   -4.604117490002597E-2
 6.457334271900000E9    -5.740839592768028E-1   -1.416803631131746E-1   -7.905196932228015E-3    3.954881387022741E-2   -5.887204111373920E-3    3.921373814304783E-2   -5.346520578584080E-1   -4.464279750688779E-2
 6.457345953925000E9    -5.743869890119815E-1   -1.407021862291928E-1   -7.946971604197410E-3    3.976391110573482E-2   -5.841487912973437E-3    3.959813659872019E-2   -5.348445571477631E-1   -4.332533127573462E-2
 6.457357635950000E9    -5.745370581757236E-1   -1.395725088151299E-1   -7.825590756655183E-3    4.007530455778904E-2   -5.796334803188748E-3    3.980808402709717E-2   -5.348855084155529E-1   -4.196656960351592E-2
 6.457369317975000E9    -5.747878313269492E-1   -1.386297061438518E-1   -7.792807979320726E-3    4.036941228513780E-2   -5.804021933229439E-3    4.005025377362972E-2   -5.350287933685126E-1   -4.057221930717370E-2
 6.457381000000000E9    -5.749280575752350E-1   -1.375487617659895E-1   -7.754690590074477E-3    4.063829865897360E-2   -5.640609759744120E-3    4.034354991940226E-2   -5.350655937145135E-1   -3.928506220800002E-2
 6.457392682025000E9    -5.752489962292229E-1   -1.366011146559405E-1   -7.869954727627720E-3    4.094816468437633E-2   -5.538859495594993E-3    4.055773175815139E-2   -5.351622799621647E-1   -3.782125556565834E-2
 6.457404364050000E9    -5.752987098842368E-1   -1.354498264279654E-1   -7.726679078216652E-3    4.117750979070057E-2   -5.498305978910986E-3    4.090474193828550E-2   -5.352173018932689E-1   -3.652216993148175E-2
 6.457416046075000E9    -5.755409774474466E-1   -1.344686101488617E-1   -7.641783431136508E-3    4.144470628493912E-2   -5.573610536657478E-3    4.118327106709067E-2   -5.352798113069157E-1   -3.508055043362732E-2
 6.457427728100000E9    -5.758312492653127E-1   -1.334527928396352E-1   -7.628993777265925E-3    4.172912041250001E-2   -5.416418244726852E-3    4.149674769561137E-2   -5.352777459126909E-1   -3.371858030483472E-2
 6.457439410125000E9    -5.759625177396518E-1   -1.324385853140417E-1   -7.478865148941062E-3    4.197029392384635E-2   -5.385366671267938E-3    4.166423752922468E-2   -5.354307668177886E-1   -3.236721039080758E-2
 6.457451092150000E9    -5.763013017819762E-1   -1.315219242195980E-1   -7.495690395728271E-3    4.230538282809728E-2   -5.294958884387205E-3    4.204836059312303E-2   -5.353683784018433E-1   -3.093082215733504E-2
 6.457462774175000E9    -5.763408356461759E-1   -1.303026228308008E-1   -7.393550884479211E-3    4.263955516048382E-2   -5.167307548483573E-3    4.222973976141182E-2   -5.356402662660664E-1   -2.955496032063628E-2
 6.457474456200000E9    -5.766526828166333E-1   -1.292932525486405E-1   -7.366455315672174E-3    4.289093575729528E-2   -5.126645438487763E-3    4.258944392056510E-2   -5.355989308319080E-1   -2.811246824910517E-2
 6.457486138225000E9    -5.767928710036797E-1   -1.282909740029090E-1   -7.363998021387480E-3    4.328834908889818E-2   -5.088667878160005E-3    4.289762317039041E-2   -5.355889252831518E-1   -2.680779661554059E-2
 6.457497820250000E9    -5.769866971442710E-1   -1.272259901731463E-1   -7.208281652281464E-3    4.357445629768940E-2   -5.016754511380109E-3    4.319401885197079E-2   -5.357523104974168E-1   -2.528821873375723E-2
 6.457509502275000E9    -5.772426463383338E-1   -1.262254192865953E-1   -7.125917293800523E-3    4.374822648781578E-2   -4.917433919639328E-3    4.342243887490341E-2   -5.356230077348028E-1   -2.387239094757435E-2
 6.457521184300000E9    -5.773985820476292E-1   -1.252007069823344E-1   -7.187797451250070E-3    4.406044864448452E-2   -4.806418699802229E-3    4.375394803126595E-2   -5.358076986840541E-1   -2.243902544831056E-2
 6.457532866325000E9    -5.775917249964382E-1   -1.241929473052398E-1   -7.036133447948677E-3    4.459760257756076E-2   -4.723991676514490E-3    4.411453354184313E-2   -5.357697191756456E-1   -2.084191449467357E-2
 6.457544548350000E9    -5.776709703421287E-1   -1.230189227389115E-1   -6.912826822377426E-3    4.474266425197249E-2   -4.696731962896832E-3    4.436474882856178E-2   -5.357652554236872E-1   -1.951722420650114E-2
 6.457556230375000E9    -5.779225108191822E-1   -1.219739609964608E-1   -6.806795773982839E-3    4.513287690901616E-2   -4.676508694065380E-3    4.463707395595448E-2   -5.358900082969580E-1   -1.793801078943311E-2
 6.457567912400000E9    -5.780919647241556E-1   -1.209882123964034E-1   -6.977737784436102E-3    4.547228097947575E-2   -4.571681189030882E-3    4.504351619858819E-2   -5.359074399782583E-1   -1.640757023735617E-2
 6.457579594425000E9    -5.783171133848216E-1   -1.199300901515574E-1   -6.585266662205456E-3    4.574128988337477E-2   -4.396307487788599E-3    4.529628195094905E-2   -5.357819834035528E-1   -1.504116763776539E-2
 6.457591276450000E9    -5.784447787848040E-1   -1.187895619864520E-1   -6.728095712859858E-3    4.608638686049515E-2   -4.263118586926991E-3    4.561527709507127E-2   -5.359629802755582E-1   -1.357446804611260E-2
 6.457602958475000E9    -5.786089836859090E-1   -1.176926122862539E-1   -6.581617745660585E-3    4.637232543022454E-2   -4.277376933695347E-3    4.607570910997352E-2   -5.358264200190178E-1   -1.210243353938060E-2
 6.457614640500000E9    -5.787500646266174E-1   -1.166884219109531E-1   -6.606383090963918E-3    4.694508412116203E-2   -4.143202625708594E-3    4.635763762982742E-2   -5.359596987574642E-1   -1.041632491512859E-2
 6.457626322525000E9    -5.790488499742258E-1   -1.156378062019949E-1   -6.635600659925136E-3    4.726865027229179E-2   -4.008835983054100E-3    4.667694711056068E-2   -5.359537507072591E-1   -8.999870949810430E-3
 6.457638004550000E9    -5.790980848970683E-1   -1.145152817277307E-1   -6.360619012626618E-3    4.762006732233973E-2   -3.858077532118013E-3    4.708862617834347E-2   -5.358701551054784E-1   -7.394664829482051E-3
 6.457649686575000E9    -5.792370423212552E-1   -1.133821329590710E-1   -6.303721922669829E-3    4.780698780053619E-2   -3.858310203981594E-3    4.735914004614222E-2   -5.358025512249605E-1   -5.992912915903328E-3
 6.457661368600000E9    -5.793852197080960E-1   -1.123509857551771E-1   -6.121007950762789E-3    4.827421487108329E-2   -3.822100697195209E-3    4.762054807754199E-2   -5.358776358070003E-1   -4.347420696790127E-3
 6.457673050625000E9    -5.796340124982288E-1   -1.112035640727904E-1   -6.154615377563775E-3    4.870997215658823E-2   -3.724500919693093E-3    4.806216073569562E-2   -5.357599279234110E-1   -2.780460138511073E-3
 6.457684732650000E9    -5.798409197428774E-1   -1.101632435425433E-1   -6.207436184773747E-3    4.893419379576967E-2   -3.582216742472338E-3    4.848081025029607E-2   -5.359465413753393E-1   -1.299654904783592E-3
 6.457696414675000E9    -5.799037251151326E-1   -1.090826674062233E-1   -5.950573703115198E-3    4.939939833313833E-2   -3.522201214083997E-3    4.888764482010625E-2   -5.358285679984902E-1    2.546520899638288E-4
 6.457708096700000E9    -5.800358860671390E-1   -1.080514292225572E-1   -5.882603470121333E-3    4.977733058077823E-2   -3.409225891320254E-3    4.929174505345629E-2   -5.356118947599097E-1    1.781269000895660E-3
 6.457719778725000E9    -5.802503417409700E-1   -1.069625056094933E-1   -5.834272466823714E-3    5.013979511922814E-2   -3.234837694029491E-3    4.956575630144085E-2   -5.356286113004283E-1    3.517879405833714E-3
 6.457731460750000E9    -5.804266173002472E-1   -1.058361552113643E-1   -5.696702450018210E-3    5.054086409425882E-2   -3.129936660816129E-3    4.991835972296994E-2   -5.355570865476583E-1    4.980827568846814E-3
 6.457743142775000E9    -5.804548984100807E-1   -1.046460381173238E-1   -5.451040660500239E-3    5.098459918371302E-2   -3.037382605928650E-3    5.039571590938297E-2   -5.355569334742214E-1    6.678825136990603E-3
 6.457754824800000E9    -5.805496213198952E-1   -1.036502769356679E-1   -5.490625068669046E-3    5.134319577445014E-2   -2.910379780875127E-3    5.071554759491449E-2   -5.353649297346144E-1    8.187682297633895E-3
 6.457766506825000E9    -5.807964368416679E-1   -1.025221985398175E-1   -5.314910270630591E-3    5.183672748607411E-2   -2.763573914594396E-3    5.112561478892523E-2   -5.354474347009914E-1    9.782385385877234E-3
 6.457778188850000E9    -5.808631181527170E-1   -1.014440277619744E-1   -5.237549115053558E-3    5.220007517026217E-2   -2.664555569981856E-3    5.160230939467332E-2   -5.354009630922595E-1    1.148718553178069E-2
 6.457789870875000E9    -5.810934080780271E-1   -1.003568737916447E-1   -5.129688211205149E-3    5.268775012974892E-2   -2.537598770110613E-3    5.201225917929147E-2   -5.351429311703789E-1    1.325169565530658E-2
 6.457801552900000E9    -5.811811333893475E-1   -9.911348068018462E-2   -4.989343990849127E-3    5.302294109699889E-2   -2.435966721381572E-3    5.245864168396201E-2   -5.350867410575952E-1    1.484138960975630E-2
 6.457813234925000E9    -5.811783232176539E-1   -9.799941586130065E-2   -5.003168164310025E-3    5.347806892873255E-2   -2.293785839854412E-3    5.287572101832726E-2   -5.349861756329620E-1    1.652985989169174E-2
 6.457824916950000E9    -5.813973683540430E-1   -9.691002542817845E-2   -4.832895570107592E-3    5.393838002768587E-2   -2.153892987687689E-3    5.325638499475418E-2   -5.348401843514493E-1    1.819864351226355E-2
 6.457836598975000E9    -5.814979092487270E-1   -9.574596797151801E-2   -4.767533970463471E-3    5.454444048940157E-2   -2.052935248799166E-3    5.366373570565935E-2   -5.347404180514209E-1    2.002278033757649E-2
 6.457848281000000E9    -5.816390461932411E-1   -9.464888076687721E-2   -4.469507164213999E-3    5.490289806642956E-2   -1.859619125500975E-3    5.418565528169033E-2   -5.348018636150907E-1    2.165376163368134E-2
 6.457859963025000E9    -5.818157559053855E-1   -9.353228506442311E-2   -4.372531055231809E-3    5.536569890197473E-2   -1.767757029993171E-3    5.459034795743779E-2   -5.343897228445977E-1    2.341535274708668E-2
 6.457871645050000E9    -5.818221461544766E-1   -9.239614912328162E-2   -4.484725528702626E-3    5.586544409078581E-2   -1.557997898541705E-3    5.500827631515312E-2   -5.343171624946766E-1    2.501751031382666E-2
 6.457883327075000E9    -5.820079718746866E-1   -9.132041933942696E-2   -4.112582835785115E-3    5.635579467336719E-2   -1.432968074664845E-3    5.547961538118340E-2   -5.343072819928282E-1    2.688676029498868E-2
 6.457895009100000E9    -5.821281238115052E-1   -9.017122421676864E-2   -3.978137398292737E-3    5.686069002712375E-2   -1.264185762018099E-3    5.592731582167168E-2   -5.340594347155581E-1    2.866287226985946E-2
 6.457906691125000E9    -5.821043184529676E-1   -8.891991243237034E-2   -3.900647470049193E-3    5.728122103370953E-2   -9.758179637491201E-4    5.649130085819619E-2   -5.338552957217209E-1    3.046380551219201E-2
 6.457918373150000E9    -5.822205419461121E-1   -8.777753514192689E-2   -3.757731368692857E-3    5.772251634721522E-2   -8.759250704712581E-4    5.697471027576483E-2   -5.336413082942630E-1    3.228577755137702E-2
 6.457930055175000E9    -5.822994675537341E-1   -8.668583510647473E-2   -3.542868747919562E-3    5.832774850009057E-2   -7.508102263879817E-4    5.741519056954397E-2   -5.334835202313879E-1    3.400864528936845E-2
 6.457941737200000E9    -5.823164576251870E-1   -8.548900953241662E-2   -3.454145986390157E-3    5.887567362450062E-2   -5.118693962769346E-4    5.796197266218960E-2   -5.333529226931681E-1    3.591445025672670E-2
 6.457953419225000E9    -5.823928076126644E-1   -8.429897890609148E-2   -3.323810132532541E-3    5.935161657553358E-2   -3.241078827175074E-4    5.851906322974860E-2   -5.329540914547568E-1    3.774441962785836E-2
 6.457965101250000E9    -5.825634519083926E-1   -8.310169228811218E-2   -3.106851950360289E-3    5.985975527526395E-2   -1.227360800405719E-4    5.895902293612508E-2   -5.328707720381747E-1    3.944306797943304E-2
