#  HZ   S   RI   R     50.00 
! Rohde & Schwarz Vector Network Analyzer 
! Rohde-Schwarz,ZNB20-2Port,1311601062101988,3.16
! Created: UTC 3/20/2024, 11:08:14 PM
! freq[Hz]                re:S11                  im:S11                  re:S21                  im:S21                  re:S12                  im:S12                  re:S22                  im:S22
 6.456913354000000E9    -5.651513997184173E-1   -1.772003377039305E-1   -9.085644083867302E-3    3.168566991487773E-2   -7.408456442026870E-3    3.172388009503477E-2   -5.291645509744652E-1   -8.988850135867345E-2
 6.456925039575000E9    -5.653023482497833E-1   -1.762314210137551E-1   -9.111564195006215E-3    3.192865110513124E-2   -7.379433648645337E-3    3.187300067365331E-2   -5.292934605111411E-1   -8.875327275744177E-2
 6.456936725150000E9    -5.656263764416932E-1   -1.751851228193908E-1   -9.037297709076251E-3    3.205541945434745E-2   -7.364787347732798E-3    3.212430961460323E-2   -5.295108140190090E-1   -8.746864699278069E-2
 6.456948410725000E9    -5.658103229610364E-1   -1.743812995008106E-1   -8.959926324893615E-3    3.230282102987958E-2   -7.376281099234436E-3    3.224308423607321E-2   -5.297111803492852E-1   -8.633187295356771E-2
 6.456960096300000E9    -5.662952184352478E-1   -1.733225478700842E-1   -8.995341369791380E-3    3.235211543545057E-2   -7.347420130364414E-3    3.237075125717537E-2   -5.299628595875128E-1   -8.512703110241585E-2
 6.456971781875000E9    -5.664873058472955E-1   -1.723474458899601E-1   -9.025407866443971E-3    3.267963440586275E-2   -7.236964217461879E-3    3.266104125502127E-2   -5.302204589452550E-1   -8.400476325889700E-2
 6.456983467450000E9    -5.667097795021241E-1   -1.714719196275069E-1   -8.929573015262026E-3    3.286754398960844E-2   -7.219080888478436E-3    3.287988282509787E-2   -5.302268714149865E-1   -8.291837688113053E-2
 6.456995153025000E9    -5.670553017876819E-1   -1.703615179042290E-1   -8.911547646497113E-3    3.291444248531186E-2   -7.249998848824581E-3    3.297182375626350E-2   -5.304577917985781E-1   -8.164392945167204E-2
 6.457006838600000E9    -5.672290425696639E-1   -1.693826856717839E-1   -8.972713120445709E-3    3.318491832539534E-2   -7.208503165202004E-3    3.317868049765875E-2   -5.307944990057296E-1   -8.028134108532797E-2
 6.457018524175000E9    -5.675859552820466E-1   -1.684117377852816E-1   -8.905835527400117E-3    3.328584091058331E-2   -7.161446293857687E-3    3.331316054109227E-2   -5.308973229137799E-1   -7.919227804163848E-2
 6.457030209750000E9    -5.678235282705405E-1   -1.675062703830848E-1   -8.785520302957711E-3    3.355113635137054E-2   -7.087765647213966E-3    3.359292475042439E-2   -5.310702137247392E-1   -7.782885095425791E-2
 6.457041895325000E9    -5.681643895611139E-1   -1.665721618924856E-1   -8.772783595526270E-3    3.379728637542654E-2   -7.060714712929130E-3    3.368911220937646E-2   -5.311998088054911E-1   -7.669621467653027E-2
 6.457053580900000E9    -5.682998721055600E-1   -1.655952332135181E-1   -8.850576593646315E-3    3.401400467792356E-2   -6.970409830304932E-3    3.385467278655729E-2   -5.314271789628287E-1   -7.562692879072858E-2
 6.457065266475000E9    -5.686383825349769E-1   -1.646294985729486E-1   -8.734665799580460E-3    3.431259846526435E-2   -7.028866687493734E-3    3.419873962976801E-2   -5.316637637415002E-1   -7.417720949075227E-2
 6.457076952050000E9    -5.688442812112359E-1   -1.635381948079912E-1   -8.678117930281479E-3    3.443327000752452E-2   -6.952715513310172E-3    3.436064939270170E-2   -5.316860405935289E-1   -7.303752375181975E-2
 6.457088637625000E9    -5.691282807573157E-1   -1.626010547252980E-1   -8.818842036372508E-3    3.461137031027119E-2   -6.831834868798684E-3    3.462411486886578E-2   -5.317799649674768E-1   -7.183039368807330E-2
 6.457100323200000E9    -5.694146722951965E-1   -1.616214033283201E-1   -8.852439590800374E-3    3.489273197965347E-2   -6.867906072151072E-3    3.473745089698505E-2   -5.319846202163350E-1   -7.052078389357760E-2
 6.457112008775000E9    -5.696107230091133E-1   -1.606130455214182E-1   -8.692917876188512E-3    3.497439203739587E-2   -6.794900129678021E-3    3.495737753868718E-2   -5.321512857093890E-1   -6.926978222202722E-2
 6.457123694350000E9    -5.698647512890510E-1   -1.596418741778789E-1   -8.656851776049511E-3    3.523690743631876E-2   -6.734466037011677E-3    3.511907097705004E-2   -5.323274675643979E-1   -6.808445470228677E-2
 6.457135379925000E9    -5.700730029784444E-1   -1.587620038902406E-1   -8.601182189082400E-3    3.537838879514196E-2   -6.693260424742706E-3    3.528102532094812E-2   -5.324566257350698E-1   -6.683969095103559E-2
 6.457147065500000E9    -5.704248949596367E-1   -1.577242032788393E-1   -8.696784138566328E-3    3.565205359818813E-2   -6.711490931969677E-3    3.555723054811891E-2   -5.325634356960838E-1   -6.569242407832361E-2
 6.457158751075000E9    -5.705376968159288E-1   -1.567311552472134E-1   -8.484278507600286E-3    3.594619035024116E-2   -6.685541774510982E-3    3.583433721945974E-2   -5.328298590434171E-1   -6.419578640370698E-2
 6.457170436650000E9    -5.709702542807277E-1   -1.557151218382250E-1   -8.433082031800834E-3    3.611563794747934E-2   -6.556359452950104E-3    3.608456724713643E-2   -5.329307626075618E-1   -6.303681597013233E-2
 6.457182122225000E9    -5.711593807395914E-1   -1.547253387096580E-1   -8.531044568356195E-3    3.632741520408541E-2   -6.526390326823213E-3    3.615568099736882E-2   -5.329861594245960E-1   -6.191918487844621E-2
 6.457193807800000E9    -5.714179125437748E-1   -1.538617456085564E-1   -8.456941383479534E-3    3.663732491779337E-2   -6.555785855949669E-3    3.645501316652079E-2   -5.331822617612636E-1   -6.040716860709115E-2
 6.457205493375000E9    -5.715749472190587E-1   -1.527294061277969E-1   -8.333455137020794E-3    3.687302077193449E-2   -6.553513865257625E-3    3.665931117072635E-2   -5.333778846067927E-1   -5.901552446966329E-2
 6.457217178950000E9    -5.718414059750770E-1   -1.518353114588256E-1   -8.380590807535037E-3    3.704292454189215E-2   -6.476053136591024E-3    3.693224173267387E-2   -5.334624058731567E-1   -5.787027941662971E-2
 6.457228864525000E9    -5.721296516865647E-1   -1.507755836251317E-1   -8.294708215062323E-3    3.730548875452088E-2   -6.420958283414641E-3    3.716064059999051E-2   -5.337560850096409E-1   -5.656837055053700E-2
 6.457240550100000E9    -5.722690727953733E-1   -1.497459507229104E-1   -8.262296787535209E-3    3.743334989902502E-2   -6.337973137497116E-3    3.737340411458891E-2   -5.337151108467983E-1   -5.515430548682430E-2
 6.457252235675000E9    -5.725248301372290E-1   -1.487535235971733E-1   -8.211747447684785E-3    3.781627719212216E-2   -6.285618690099428E-3    3.764037908441295E-2   -5.338575340941896E-1   -5.405888464123850E-2
 6.457263921250000E9    -5.726875601602217E-1   -1.477835616423983E-1   -8.214773685321034E-3    3.798233208105193E-2   -6.240691535360455E-3    3.785101886958860E-2   -5.340512037216364E-1   -5.277527503768140E-2
 6.457275606825000E9    -5.729449113229050E-1   -1.466894638850818E-1   -8.089156336425693E-3    3.840371840950298E-2   -6.207940782878439E-3    3.804646257259018E-2   -5.340558802568729E-1   -5.129675724499453E-2
 6.457287292400000E9    -5.732423342501932E-1   -1.458080524457832E-1   -8.110808484339004E-3    3.837602815203665E-2   -6.113731017148195E-3    3.830198219746155E-2   -5.341807005312875E-1   -4.991013914932002E-2
 6.457298977975000E9    -5.734132782834797E-1   -1.447793162975731E-1   -8.188139027643751E-3    3.879003080588531E-2   -6.117759070447593E-3    3.846631070669001E-2   -5.343363951911501E-1   -4.866851468392240E-2
 6.457310663550000E9    -5.736425191492159E-1   -1.436978061111878E-1   -8.168343546266534E-3    3.901412470140894E-2   -5.986870389731822E-3    3.879411576273517E-2   -5.344104470357188E-1   -4.740442332441941E-2
 6.457322349125000E9    -5.739766677493665E-1   -1.427988173105350E-1   -8.006821501493656E-3    3.939862592809203E-2   -6.074433896752030E-3    3.900915514792676E-2   -5.345757390946216E-1   -4.610719003930840E-2
 6.457334034700000E9    -5.740799894636658E-1   -1.417309940399251E-1   -8.025634285889809E-3    3.947120552546919E-2   -5.891787759014832E-3    3.935470470213279E-2   -5.345392688172116E-1   -4.482090339070429E-2
 6.457345720275000E9    -5.743672733003338E-1   -1.406378196992857E-1   -7.872126374980894E-3    3.978864642739637E-2   -5.765127931109938E-3    3.962938420093802E-2   -5.346347894314893E-1   -4.331753758218988E-2
 6.457357405850000E9    -5.745569008583378E-1   -1.396932307003627E-1   -7.887478908587377E-3    4.004262915509526E-2   -5.905358216151260E-3    3.971199477569608E-2   -5.348262134882189E-1   -4.211466528270248E-2
 6.457369091425000E9    -5.748017223843424E-1   -1.386699888179598E-1   -8.039437706911802E-3    4.034993384021842E-2   -5.660802561248003E-3    4.007867553078999E-2   -5.348418651908748E-1   -4.069446980305961E-2
 6.457380777000000E9    -5.750337666188985E-1   -1.375981360310643E-1   -7.734139490628571E-3    4.058439332356619E-2   -5.638060020546691E-3    4.036061577933134E-2   -5.348831116917443E-1   -3.925574091640336E-2
 6.457392462575000E9    -5.751762378736223E-1   -1.366590996904002E-1   -7.703957276803878E-3    4.092936658166365E-2   -5.660151539389641E-3    4.044364657370524E-2   -5.349796071304762E-1   -3.791541200055932E-2
 6.457404148150000E9    -5.754496554731157E-1   -1.355486773421488E-1   -7.621794692779960E-3    4.120457374160397E-2   -5.435200561407460E-3    4.086712329036331E-2   -5.349947233419080E-1   -3.651932650276151E-2
 6.457415833725000E9    -5.756019018507015E-1   -1.345839345995663E-1   -7.633251861273333E-3    4.149075312308940E-2   -5.454610710282463E-3    4.113338977596760E-2   -5.352823595677366E-1   -3.515096354232340E-2
 6.457427519300000E9    -5.757973677744335E-1   -1.335499987942126E-1   -7.666153799229366E-3    4.163438255965505E-2   -5.362712617597140E-3    4.139184726870537E-2   -5.351552174387727E-1   -3.366833800284621E-2
 6.457439204875000E9    -5.760341349642802E-1   -1.324762171087827E-1   -7.572778415722610E-3    4.195953911868058E-2   -5.274847305587312E-3    4.169209492232672E-2   -5.353553355574595E-1   -3.242301203264238E-2
 6.457450890450000E9    -5.761897775899086E-1   -1.315637910334546E-1   -7.521151646904528E-3    4.234688013289653E-2   -5.239464838044242E-3    4.193504827241843E-2   -5.354852775318736E-1   -3.097862206694210E-2
 6.457462576025000E9    -5.764110958926216E-1   -1.303203639027172E-1   -7.400616550344370E-3    4.266431073021915E-2   -5.325027316661362E-3    4.218772665022748E-2   -5.354413437932231E-1   -2.950812432719254E-2
 6.457474261600000E9    -5.766718034078533E-1   -1.293525868987268E-1   -7.269906097825926E-3    4.290336750297574E-2   -5.118773960351377E-3    4.258008279226409E-2   -5.355730047066660E-1   -2.809368247816382E-2
 6.457485947175000E9    -5.767990389595059E-1   -1.283811549170968E-1   -7.217555410453648E-3    4.318224282677113E-2   -5.083347086241421E-3    4.284489484935284E-2   -5.356030365071064E-1   -2.679824213860883E-2
 6.457497632750000E9    -5.769742416692361E-1   -1.272885276339362E-1   -7.210893535039760E-3    4.356030387613533E-2   -4.983134641960511E-3    4.314656370693383E-2   -5.356603122254229E-1   -2.521884434503058E-2
 6.457509318325000E9    -5.772340592938038E-1   -1.261172392749096E-1   -7.129489796181132E-3    4.371779180293049E-2   -4.946392126238730E-3    4.338286255072500E-2   -5.355487571234016E-1   -2.388800594979025E-2
 6.457521003900000E9    -5.774038387907218E-1   -1.251501999635648E-1   -7.039439334315474E-3    4.415365613676310E-2   -4.769095240695411E-3    4.376528891480880E-2   -5.357013368535666E-1   -2.242410678290573E-2
 6.457532689475000E9    -5.775141057540543E-1   -1.239792275701539E-1   -7.103250758844683E-3    4.448997623853453E-2   -4.806513499828555E-3    4.399850849666661E-2   -5.356986306517102E-1   -2.097963560620369E-2
 6.457544375050000E9    -5.779054316874737E-1   -1.231518526315362E-1   -6.941221670087033E-3    4.474402117386320E-2   -4.659779770293430E-3    4.429669878202459E-2   -5.357737418244423E-1   -1.960255844155952E-2
 6.457556060625000E9    -5.779382542836697E-1   -1.219314972555180E-1   -6.899846625680598E-3    4.496635546009727E-2   -4.527948729790504E-3    4.458392081714767E-2   -5.358265416818935E-1   -1.813876906590978E-2
 6.457567746200000E9    -5.780315915692988E-1   -1.209262951009694E-1   -6.810934119890387E-3    4.545517499224212E-2   -4.573850998203048E-3    4.499304706097344E-2   -5.358439944810197E-1   -1.651951969138138E-2
 6.457579431775000E9    -5.782271983411849E-1   -1.198587993317900E-1   -6.836361545920930E-3    4.577422489031316E-2   -4.339618331861465E-3    4.532131971058398E-2   -5.357853972295288E-1   -1.518057577986941E-2
 6.457591117350000E9    -5.784512279300432E-1   -1.188083023331718E-1   -6.722335678117845E-3    4.612105462752189E-2   -4.335492199716374E-3    4.568479683245000E-2   -5.358797562852101E-1   -1.365098110222335E-2
 6.457602802925000E9    -5.786331246616133E-1   -1.177815888912747E-1   -6.700896809644921E-3    4.637853316322302E-2   -4.255205296644530E-3    4.597409819099351E-2   -5.358332616821393E-1   -1.213822886838334E-2
 6.457614488500000E9    -5.787643452758613E-1   -1.167114314863376E-1   -6.576861671702760E-3    4.676557294856909E-2   -4.223044571796742E-3    4.633380532505002E-2   -5.359501322607372E-1   -1.059886797284538E-2
 6.457626174075000E9    -5.790549919707886E-1   -1.155964361602532E-1   -6.547791454126642E-3    4.719166539379597E-2   -4.027787603194502E-3    4.664119422075919E-2   -5.359201514889786E-1   -9.126568678720116E-3
 6.457637859650000E9    -5.792000304290946E-1   -1.145719668876063E-1   -6.331021019123839E-3    4.741388499715952E-2   -3.952181695077362E-3    4.710946265618735E-2   -5.357160031852696E-1   -7.558720087669607E-3
 6.457649545225000E9    -5.792890131755225E-1   -1.135154426988743E-1   -6.312920454140471E-3    4.785338770070705E-2   -3.935103930752732E-3    4.739886783671055E-2   -5.357949053918541E-1   -5.914930962055809E-3
 6.457661230800000E9    -5.793942882234415E-1   -1.123881937781395E-1   -6.186545695913191E-3    4.821187907342542E-2   -3.763202266906828E-3    4.770060023160502E-2   -5.357752855307369E-1   -4.559351943698123E-3
 6.457672916375000E9    -5.796563621471840E-1   -1.112681824661324E-1   -6.233158373209971E-3    4.848016561763015E-2   -3.669866923511661E-3    4.808398195394058E-2   -5.357960216177408E-1   -2.941036480493030E-3
 6.457684601950000E9    -5.796780268715851E-1   -1.102378073998663E-1   -6.134635160497609E-3    4.895529502819437E-2   -3.592263316026920E-3    4.842842093921078E-2   -5.357025895308306E-1   -1.248099667958018E-3
 6.457696287525000E9    -5.799778305230486E-1   -1.091309584463412E-1   -5.921938770143137E-3    4.935109124644789E-2   -3.482357955623399E-3    4.883651091149078E-2   -5.357643977506988E-1    1.294495384562456E-4
 6.457707973100000E9    -5.800958876845087E-1   -1.080553115344143E-1   -5.804991513034380E-3    4.973204398470046E-2   -3.401231763622000E-3    4.911709916017197E-2   -5.356568418228788E-1    1.771987426811866E-3
 6.457719658675000E9    -5.801998387861205E-1   -1.068963784500803E-1   -5.915718223261767E-3    5.013392661453101E-2   -3.179670986304823E-3    4.962546215307356E-2   -5.356226333272548E-1    3.354323287065144E-3
 6.457731344250000E9    -5.802954830273627E-1   -1.058307845616329E-1   -5.527764505868042E-3    5.046638236803459E-2   -3.161950118579980E-3    4.993635824739064E-2   -5.355997785480988E-1    4.977415648562805E-3
 6.457743029825000E9    -5.804663671477474E-1   -1.047635708445601E-1   -5.588029326919851E-3    5.097855596034327E-2   -2.930286447290480E-3    5.038557311941792E-2   -5.356593971383424E-1    6.497493889615972E-3
 6.457754715400000E9    -5.807293537292799E-1   -1.036008286073987E-1   -5.571537998505345E-3    5.138494327430599E-2   -2.931814137764098E-3    5.068834755754376E-2   -5.354363943417302E-1    8.229686709310749E-3
 6.457766400975000E9    -5.807655913472682E-1   -1.025400212900265E-1   -5.375464530957789E-3    5.179284982818051E-2   -2.754628552322820E-3    5.111813322226817E-2   -5.353137937260239E-1    9.764187991358964E-3
 6.457778086550000E9    -5.809209521351097E-1   -1.014698974052149E-1   -5.220943412493628E-3    5.218618580251565E-2   -2.631183142606746E-3    5.153418724101903E-2   -5.352848660128763E-1    1.151788745131668E-2
 6.457789772125000E9    -5.810314358054978E-1   -1.003568669638506E-1   -5.252825309422622E-3    5.265667076137728E-2   -2.569141150445437E-3    5.196574998440432E-2   -5.352577658171732E-1    1.311785091983880E-2
 6.457801457700000E9    -5.811942682276854E-1   -9.910747589112134E-2   -4.996573881624162E-3    5.304362340588886E-2   -2.489423136192897E-3    5.244368168445711E-2   -5.351435696099455E-1    1.464437974037605E-2
 6.457813143275000E9    -5.812924544401704E-1   -9.799847578893295E-2   -5.083456715485514E-3    5.352087923399977E-2   -2.307103377283536E-3    5.279572143614741E-2   -5.349962920982306E-1    1.647358272331008E-2
 6.457824828850000E9    -5.814398455384051E-1   -9.693790954958365E-2   -4.691467372539079E-3    5.402130965767076E-2   -2.206105766496191E-3    5.335094985914562E-2   -5.348914679141238E-1    1.806409247246171E-2
 6.457836514425000E9    -5.815275687226255E-1   -9.580865500069996E-2   -4.793681390305777E-3    5.439151959029185E-2   -1.955108918086495E-3    5.366968970937191E-2   -5.347129612541316E-1    1.986136637351346E-2
 6.457848200000000E9    -5.816160189820438E-1   -9.473255981440601E-2   -4.606142428208054E-3    5.480378941894731E-2   -1.887199255453367E-3    5.408736536906114E-2   -5.345348850342789E-1    2.159556290731472E-2
 6.457859885575000E9    -5.816254995769355E-1   -9.359544799118651E-2   -4.524114778718498E-3    5.535876636459425E-2   -1.689870417817546E-3    5.451443829505604E-2   -5.345398173138507E-1    2.330744521033692E-2
 6.457871571150000E9    -5.818347939102537E-1   -9.232496567992431E-2   -4.311060807025075E-3    5.599681175256212E-2   -1.550121836467600E-3    5.501400072404154E-2   -5.342674353688237E-1    2.504422678936653E-2
 6.457883256725000E9    -5.819166596293079E-1   -9.123487346039189E-2   -4.180773116089080E-3    5.635666414765592E-2   -1.485904066064401E-3    5.540667091017428E-2   -5.341003549469262E-1    2.672211877847317E-2
 6.457894942300000E9    -5.820768220451111E-1   -9.018070929746412E-2   -3.978264138240010E-3    5.676272790640089E-2   -1.276264800252321E-3    5.597603594601513E-2   -5.340038375152427E-1    2.860371782486793E-2
 6.457906627875000E9    -5.820428939343010E-1   -8.902903902222085E-2   -3.900264666122576E-3    5.727723474577290E-2   -1.088393038045326E-3    5.642455083979367E-2   -5.338028190514793E-1    3.039703392483154E-2
 6.457918313450000E9    -5.822129363583020E-1   -8.775386906672369E-2   -3.762306749870656E-3    5.789418976685290E-2   -9.095670701000845E-4    5.700164538030403E-2   -5.335237523762935E-1    3.219690964896706E-2
 6.457929999025000E9    -5.822678421460002E-1   -8.661577710724824E-2   -3.553069338498859E-3    5.816665899478075E-2   -8.120985697136039E-4    5.742892257881028E-2   -5.334563319531735E-1    3.408735809161236E-2
 6.457941684600000E9    -5.823833839978682E-1   -8.555933983404479E-2   -3.378016936879521E-3    5.886170769964254E-2   -5.979964093323854E-4    5.796976743503551E-2   -5.333053490148194E-1    3.573703010791086E-2
 6.457953370175000E9    -5.824587605900424E-1   -8.444589805148847E-2   -3.285459306484982E-3    5.933540136651015E-2   -3.228082195945066E-4    5.852666526460836E-2   -5.331383023947461E-1    3.761234848025440E-2
 6.457965055750000E9    -5.825490917509042E-1   -8.318561513885674E-2   -3.078720168160783E-3    5.990389352096958E-2   -2.030090374469535E-4    5.894260612390841E-2   -5.328732478530349E-1    3.945006927576674E-2
