#  HZ   S   RI   R     50.00 
! Rohde & Schwarz Vector Network Analyzer 
! Rohde-Schwarz,ZNB20-2Port,1311601062101988,3.16
! Created: UTC 3/20/2024, 10:53:41 PM
! freq[Hz]                re:S11                  im:S11                  re:S21                  im:S21                  re:S12                  im:S12                  re:S22                  im:S22
 6.457073555000000E9    -5.682107063107297E-1   -1.661262690061353E-1   -8.659848889657894E-3    3.310828361537429E-2   -6.894528278742241E-3    3.315116216993880E-2   -5.350857518757635E-1   -7.530993982560019E-2
 6.457084818975000E9    -5.683269263134384E-1   -1.651632538237060E-1   -8.681730579263535E-3    3.342104698431699E-2   -6.805059718799879E-3    3.337784612058500E-2   -5.352763904927599E-1   -7.410780336057059E-2
 6.457096082950000E9    -5.685544720500434E-1   -1.642362740134492E-1   -8.620678790955055E-3    3.357336492721003E-2   -6.786525018822168E-3    3.350413581460106E-2   -5.352696535048100E-1   -7.298602417961632E-2
 6.457107346925000E9    -5.688510355066391E-1   -1.634345990114393E-1   -8.618469541829708E-3    3.373502442717713E-2   -6.736570085295695E-3    3.369776099920156E-2   -5.355137856725009E-1   -7.188595754424881E-2
 6.457118610900000E9    -5.691202131187864E-1   -1.623174021015235E-1   -8.454569574983726E-3    3.404052769560054E-2   -6.757665959096070E-3    3.383644628849387E-2   -5.356519078112131E-1   -7.052630198912527E-2
 6.457129874875000E9    -5.693571984798480E-1   -1.614309656777748E-1   -8.588522959072619E-3    3.409842936165464E-2   -6.673122183682165E-3    3.417625253412989E-2   -5.358014941858849E-1   -6.944512210112044E-2
 6.457141138850000E9    -5.695495487661077E-1   -1.605268141809072E-1   -8.411004135127119E-3    3.429762232869692E-2   -6.709183579850838E-3    3.427288547639655E-2   -5.359304472900459E-1   -6.817234700407210E-2
 6.457152402825000E9    -5.697946583975251E-1   -1.595829269386385E-1   -8.538332142217102E-3    3.449556272014637E-2   -6.616128226754276E-3    3.442599707279004E-2   -5.361830628516795E-1   -6.695909651454479E-2
 6.457163666800000E9    -5.700110337489667E-1   -1.585516525667488E-1   -8.367438384539407E-3    3.483961534309280E-2   -6.471458268691067E-3    3.465492103119655E-2   -5.362074153717354E-1   -6.575236305603661E-2
 6.457174930775000E9    -5.703746444472918E-1   -1.575960081038983E-1   -8.368617855115980E-3    3.494669265438434E-2   -6.568446054051626E-3    3.493673589132518E-2   -5.364871483987266E-1   -6.447546875917085E-2
 6.457186194750000E9    -5.705203029573852E-1   -1.568033789546573E-1   -8.330117827218020E-3    3.523745649513948E-2   -6.504847705779503E-3    3.506839801376306E-2   -5.366155593417041E-1   -6.339565033023775E-2
 6.457197458725000E9    -5.707181080928485E-1   -1.557789291039172E-1   -8.240630571464550E-3    3.551685798842870E-2   -6.500343456190471E-3    3.524136026257265E-2   -5.366064933909606E-1   -6.221404935401432E-2
 6.457208722700000E9    -5.709265024336458E-1   -1.547490103080121E-1   -8.204684053305570E-3    3.559963490606451E-2   -6.492049195925754E-3    3.554477769795553E-2   -5.368692706275066E-1   -6.108239626101225E-2
 6.457219986675000E9    -5.713108841835326E-1   -1.538058361212889E-1   -8.279679779153159E-3    3.579122291616985E-2   -6.340896935662122E-3    3.557240096837199E-2   -5.368581454452834E-1   -5.979108369083164E-2
 6.457231250650000E9    -5.715675812561922E-1   -1.528334809171621E-1   -8.195687714762012E-3    3.596012339098111E-2   -6.363997750048764E-3    3.599313897624454E-2   -5.371686516517037E-1   -5.855000514709595E-2
 6.457242514625000E9    -5.716644960437208E-1   -1.519152370873821E-1   -8.305510021679202E-3    3.618470183085946E-2   -6.258809901196055E-3    3.608935935425928E-2   -5.371161583695411E-1   -5.725944671983243E-2
 6.457253778600000E9    -5.719852010306719E-1   -1.509792752414481E-1   -8.254116984828955E-3    3.625966254295474E-2   -6.325729705642678E-3    3.633430775230095E-2   -5.373424113139430E-1   -5.609501606846505E-2
 6.457265042575000E9    -5.720348589423555E-1   -1.500398376036177E-1   -8.145125788717794E-3    3.668788001304493E-2   -6.205573974344996E-3    3.651511941373595E-2   -5.375064038524422E-1   -5.479963919817443E-2
 6.457276306550000E9    -5.724281480107161E-1   -1.490313843724085E-1   -8.192806536373430E-3    3.682802287365421E-2   -6.118369580309993E-3    3.681452803270397E-2   -5.374868676930351E-1   -5.349126655653576E-2
 6.457287570525000E9    -5.726392490678415E-1   -1.480564427013016E-1   -7.980135292149047E-3    3.717879637002901E-2   -6.156244229274982E-3    3.692214395930739E-2   -5.377087213366402E-1   -5.238099461178652E-2
 6.457298834500000E9    -5.728365682988229E-1   -1.470757811515887E-1   -8.084074786608927E-3    3.740376475077336E-2   -6.008743675787367E-3    3.719852029104961E-2   -5.377751996319697E-1   -5.102362100597525E-2
 6.457310098475000E9    -5.730545114758655E-1   -1.461402800736232E-1   -8.035811434336161E-3    3.750511435242515E-2   -6.025303784443897E-3    3.740553147013297E-2   -5.378808670935459E-1   -4.991914070395371E-2
 6.457321362450000E9    -5.733644812422249E-1   -1.451642664938372E-1   -7.960948616374178E-3    3.789770158436183E-2   -5.922854401769392E-3    3.763446777538302E-2   -5.379963614179868E-1   -4.863960322018666E-2
 6.457332626425000E9    -5.735794611101607E-1   -1.441171902561509E-1   -7.962280723690122E-3    3.798532205499182E-2   -6.034425369047895E-3    3.775730488769215E-2   -5.380254514666070E-1   -4.737231962763862E-2
 6.457343890400000E9    -5.737681630492326E-1   -1.432664622247637E-1   -7.840210517171247E-3    3.823779786954620E-2   -5.859855974183568E-3    3.805956779952319E-2   -5.382344287068750E-1   -4.595995934471585E-2
 6.457355154375000E9    -5.738468348438277E-1   -1.422056162325430E-1   -7.828232732167716E-3    3.855788433616417E-2   -5.766167878965164E-3    3.829438921324885E-2   -5.382829586464335E-1   -4.478807319353062E-2
 6.457366418350000E9    -5.740994844122412E-1   -1.413074857773124E-1   -7.898787740503743E-3    3.885546975344548E-2   -5.763795223504639E-3    3.852896331748293E-2   -5.383582674981885E-1   -4.345402708473690E-2
 6.457377682325000E9    -5.743292120444400E-1   -1.403212669003295E-1   -7.824786999919113E-3    3.910013489284570E-2   -5.843249037639618E-3    3.873953769846694E-2   -5.383739465464676E-1   -4.214005809147575E-2
 6.457388946300000E9    -5.745710362442888E-1   -1.393499625632166E-1   -7.794215712571105E-3    3.921968734537570E-2   -5.657550728922924E-3    3.890843898308107E-2   -5.386417984690691E-1   -4.098340106442749E-2
 6.457400210275000E9    -5.747273146640245E-1   -1.383137228890388E-1   -7.689120610326922E-3    3.954769978317443E-2   -5.590726606836282E-3    3.915390724577247E-2   -5.386928990569928E-1   -3.960633568778512E-2
 6.457411474250000E9    -5.749344407095259E-1   -1.373804455653115E-1   -7.533024107468012E-3    3.981063022120849E-2   -5.623482146852427E-3    3.956186812831757E-2   -5.387730773723060E-1   -3.825518398675376E-2
 6.457422738225000E9    -5.752204359313555E-1   -1.364338294170544E-1   -7.548624701992265E-3    4.001336040969804E-2   -5.447777359044661E-3    3.969544495100920E-2   -5.387594957607744E-1   -3.693761237564967E-2
 6.457434002200000E9    -5.754555304054705E-1   -1.354760111135105E-1   -7.543990995709978E-3    4.021429582692602E-2   -5.507853489855729E-3    3.990635390838578E-2   -5.387976899331391E-1   -3.576057006377893E-2
 6.457445266175000E9    -5.756253467866091E-1   -1.345437318822988E-1   -7.519644151648625E-3    4.054086170583741E-2   -5.351960213174628E-3    4.023970440254605E-2   -5.389468002804453E-1   -3.444340679137418E-2
 6.457456530150000E9    -5.757850779777455E-1   -1.334878321567273E-1   -7.528073744361491E-3    4.074990921694978E-2   -5.313623209638745E-3    4.048376791610742E-2   -5.389119016376197E-1   -3.299524920589941E-2
 6.457467794125000E9    -5.760198118878339E-1   -1.324422362895780E-1   -7.317732313550016E-3    4.109972448319126E-2   -5.215843518611805E-3    4.080872804371024E-2   -5.391017107790256E-1   -3.175866075904517E-2
 6.457479058100000E9    -5.762171572803777E-1   -1.315101312378496E-1   -7.424274553531658E-3    4.128002894705422E-2   -5.190071007462945E-3    4.100303104100063E-2   -5.392049796542383E-1   -3.048193467653795E-2
 6.457490322075000E9    -5.764062312426900E-1   -1.303883530433350E-1   -7.300727703921032E-3    4.161433019549172E-2   -5.135900476228112E-3    4.119854092563148E-2   -5.391437138343094E-1   -2.892732902291485E-2
 6.457501586050000E9    -5.764642290196154E-1   -1.294660560585441E-1   -7.280055011099203E-3    4.189691759771390E-2   -5.022416832508672E-3    4.153451688799238E-2   -5.392068666515097E-1   -2.768710919751565E-2
 6.457512850025000E9    -5.768191438578932E-1   -1.283830896460587E-1   -7.128302181827836E-3    4.197111678543704E-2   -5.068618278232250E-3    4.180070386278721E-2   -5.392906764916370E-1   -2.626547288447519E-2
 6.457524114000000E9    -5.769346811011706E-1   -1.274740730364639E-1   -7.081991100769117E-3    4.249004583503883E-2   -5.037905192776890E-3    4.206218107625433E-2   -5.392677972727613E-1   -2.500799434912841E-2
 6.457535377975000E9    -5.771177956625207E-1   -1.265104777661086E-1   -7.116375368760410E-3    4.259998017586812E-2   -4.859982943312212E-3    4.243261334808698E-2   -5.391714977550359E-1   -2.367573986767363E-2
 6.457546641950000E9    -5.773597238765060E-1   -1.255149302294799E-1   -7.087619440323922E-3    4.293883477955328E-2   -4.773576537735661E-3    4.272855074237118E-2   -5.391795557014133E-1   -2.225838548575217E-2
 6.457557905925000E9    -5.774716003448497E-1   -1.244322211351167E-1   -6.914927286457175E-3    4.326401484474059E-2   -4.682670286116596E-3    4.289832026526788E-2   -5.393673699614275E-1   -2.080165125031999E-2
 6.457569169900000E9    -5.776627041177647E-1   -1.234819896398257E-1   -6.904904422009247E-3    4.378129792600072E-2   -4.596019371126073E-3    4.322548990977184E-2   -5.395522760405034E-1   -1.957813906882495E-2
 6.457580433875000E9    -5.778364594216749E-1   -1.225489525277828E-1   -6.795694537525714E-3    4.395999439447344E-2   -4.556752536243373E-3    4.345519493137449E-2   -5.394686246070842E-1   -1.803057149333270E-2
 6.457591697850000E9    -5.780348862381764E-1   -1.215043381839129E-1   -6.733368223332969E-3    4.411770186389024E-2   -4.500676211132719E-3    4.384799312089342E-2   -5.394695349689055E-1   -1.654301357093821E-2
 6.457602961825000E9    -5.782940117571506E-1   -1.204659441409438E-1   -6.684038370048473E-3    4.458267926013787E-2   -4.510440742779311E-3    4.404724173257411E-2   -5.395218575679800E-1   -1.535475693023122E-2
 6.457614225800000E9    -5.783818903691010E-1   -1.193740906109312E-1   -6.614564109014865E-3    4.475301784696679E-2   -4.387184956287170E-3    4.442038924870403E-2   -5.395877064664455E-1   -1.405525191137869E-2
 6.457625489775000E9    -5.786327881111072E-1   -1.183871729290932E-1   -6.564632881652132E-3    4.512159842748950E-2   -4.296113880583685E-3    4.462055891428140E-2   -5.394295360198927E-1   -1.267927743621030E-2
 6.457636753750000E9    -5.786570756124049E-1   -1.173948305893968E-1   -6.494044201138430E-3    4.540380357917376E-2   -4.181926207668515E-3    4.492186542335384E-2   -5.396079752146464E-1   -1.108265051768668E-2
 6.457648017725000E9    -5.789213429974520E-1   -1.164046277433763E-1   -6.482315772662460E-3    4.567049986577013E-2   -4.151876826224383E-3    4.526649311615983E-2   -5.396275921661967E-1   -9.636814767900797E-3
 6.457659281700000E9    -5.790090088572678E-1   -1.153465985387757E-1   -6.381977567033291E-3    4.616430644133791E-2   -4.030177038269972E-3    4.570006420970309E-2   -5.396543348201391E-1   -8.250802675794243E-3
 6.457670545675000E9    -5.792625855720985E-1   -1.142158491052902E-1   -6.505481519281244E-3    4.633365532994717E-2   -4.012902787693871E-3    4.591682286555469E-2   -5.395240117771680E-1   -6.767206264748709E-3
 6.457681809650000E9    -5.793907471900210E-1   -1.132546962917545E-1   -6.247269527439454E-3    4.681480422183895E-2   -3.936543411246974E-3    4.620142302239802E-2   -5.395430550433604E-1   -5.335280455823838E-3
 6.457693073625000E9    -5.794834572449794E-1   -1.122442867928213E-1   -6.092591614488626E-3    4.712283577210116E-2   -3.857348381193874E-3    4.656844088817743E-2   -5.394367225397205E-1   -3.900170492130057E-3
 6.457704337600000E9    -5.796498138477897E-1   -1.112093629943402E-1   -6.074818395177145E-3    4.743335579743563E-2   -3.740016996007814E-3    4.695050005711944E-2   -5.393488054269394E-1   -2.462859657746260E-3
 6.457715601575000E9    -5.797375559415298E-1   -1.101239611012133E-1   -6.147581195982813E-3    4.779183191424032E-2   -3.574732200445772E-3    4.727478878604358E-2   -5.394906351506294E-1   -9.187760623927498E-4
 6.457726865550000E9    -5.799224963078828E-1   -1.090409034734185E-1   -5.929512895655153E-3    4.810677746834590E-2   -3.539180415566815E-3    4.760939367417193E-2   -5.393991768843892E-1    5.080292414564778E-4
 6.457738129525000E9    -5.800632957552881E-1   -1.081413546302514E-1   -5.842120186519640E-3    4.837531934425426E-2   -3.468469333949771E-3    4.789259600783052E-2   -5.393909886949240E-1    2.149684725264271E-3
 6.457749393500000E9    -5.802563933166728E-1   -1.069920469969628E-1   -5.780334570728914E-3    4.878793574750155E-2   -3.334123787006875E-3    4.820807716081705E-2   -5.392181381001516E-1    3.596229635356940E-3
 6.457760657475000E9    -5.804707891614389E-1   -1.059677999872495E-1   -5.637076775413828E-3    4.915014037155169E-2   -3.230153341614071E-3    4.868851610537799E-2   -5.392985400662867E-1    5.240070274375047E-3
 6.457771921450000E9    -5.805539425801347E-1   -1.049703547169458E-1   -5.497771753149622E-3    4.961394169667244E-2   -3.051208785780333E-3    4.907632425869630E-2   -5.391690949876622E-1    6.665971858502608E-3
 6.457783185425000E9    -5.806283965649348E-1   -1.039147457266923E-1   -5.641866749612790E-3    5.001599452179759E-2   -3.019277414546827E-3    4.928278669879287E-2   -5.392603370463261E-1    8.180192682428420E-3
 6.457794449400000E9    -5.807402950830626E-1   -1.027913651524203E-1   -5.525584430936880E-3    5.032470061142425E-2   -2.933824529592237E-3    4.966682265557705E-2   -5.392263322653501E-1    9.810593617331994E-3
 6.457805713375000E9    -5.809401080778068E-1   -1.018007024341404E-1   -5.266462252896861E-3    5.072684178886629E-2   -2.708586512639010E-3    5.005159088135230E-2   -5.390555243201912E-1    1.137919297804335E-2
 6.457816977350000E9    -5.811032560283382E-1   -1.006372944714616E-1   -5.222636663438055E-3    5.113955392229381E-2   -2.585603509381063E-3    5.043618596376689E-2   -5.389357329311238E-1    1.286499058566010E-2
 6.457828241325000E9    -5.811533256957842E-1   -9.954721472922827E-2   -5.090797715899664E-3    5.151391798140699E-2   -2.565875580789661E-3    5.090687614417452E-2   -5.388853194828556E-1    1.432637384653785E-2
 6.457839505300000E9    -5.812912763932120E-1   -9.860979189849839E-2   -4.933376715780431E-3    5.191706798616189E-2   -2.478181002536372E-3    5.116548182722702E-2   -5.386504427386891E-1    1.585287355648212E-2
 6.457850769275000E9    -5.813613652867075E-1   -9.745468020047687E-2   -4.883989785781760E-3    5.237900367090163E-2   -2.328697560222213E-3    5.163878483388228E-2   -5.386444410765268E-1    1.759785909021636E-2
 6.457862033250000E9    -5.816388264417292E-1   -9.651941412735254E-2   -4.721912532796455E-3    5.271450166223717E-2   -2.213187567800389E-3    5.193884669593663E-2   -5.384621103697191E-1    1.910801125529877E-2
 6.457873297225000E9    -5.816946008390450E-1   -9.540995412133989E-2   -4.620057040833310E-3    5.303877232301610E-2   -2.077280633661411E-3    5.246890030288473E-2   -5.383954293647851E-1    2.074236624351891E-2
 6.457884561200000E9    -5.817101973463327E-1   -9.418519915260942E-2   -4.516553762111523E-3    5.359294794613914E-2   -2.003585666570762E-3    5.288398677776865E-2   -5.383333921170393E-1    2.235138540785902E-2
 6.457895825175000E9    -5.818598729695814E-1   -9.328623110070669E-2   -4.543362606996031E-3    5.402641175714048E-2   -1.701110541760998E-3    5.315615779205035E-2   -5.381738952105634E-1    2.394424108489592E-2
 6.457907089150000E9    -5.820619829566218E-1   -9.207773319218017E-2   -4.294739113756690E-3    5.433318232223381E-2   -1.712671555281826E-3    5.370948224027319E-2   -5.380211502383571E-1    2.564802708298300E-2
 6.457918353125000E9    -5.821225114628701E-1   -9.100304328782792E-2   -4.231692789051442E-3    5.494042353509366E-2   -1.570191926749088E-3    5.407743614137142E-2   -5.379632401160640E-1    2.732346870148137E-2
 6.457929617100000E9    -5.821490112266806E-1   -8.992752291974347E-2   -4.156713475264108E-3    5.534740560369623E-2   -1.403780132061926E-3    5.442770514504610E-2   -5.377877246135769E-1    2.910167198282667E-2
 6.457940881075000E9    -5.822577805491246E-1   -8.883113285837956E-2   -3.986930790365785E-3    5.587921622144095E-2   -1.248924466114831E-3    5.493779561414608E-2   -5.377147665632229E-1    3.065015390568894E-2
 6.457952145050000E9    -5.824362960752225E-1   -8.773686978088698E-2   -3.955061083558998E-3    5.625881227615161E-2   -1.116372957851177E-3    5.551945777018103E-2   -5.376080322510912E-1    3.222840738232260E-2
 6.457963409025000E9    -5.825759139121496E-1   -8.665793230294644E-2   -3.710067320000203E-3    5.672166245202957E-2   -1.033979564005085E-3    5.588989905289508E-2   -5.372235736178854E-1    3.407923501136108E-2
 6.457974673000000E9    -5.826450358196175E-1   -8.546675862768820E-2   -3.564835198848186E-3    5.720898584264132E-2   -7.407757570674014E-4    5.636256329674897E-2   -5.371399579417960E-1    3.580116813476272E-2
 6.457985936975000E9    -5.826775241160050E-1   -8.434772325713913E-2   -3.479223319100275E-3    5.769447590693355E-2   -6.603599247311936E-4    5.683965500900310E-2   -5.369969454604163E-1    3.743240203295266E-2
 6.457997200950000E9    -5.827351296783533E-1   -8.338251975881208E-2   -3.295407475676002E-3    5.817370661878743E-2   -4.766550387491412E-4    5.729563628398902E-2   -5.366564303735625E-1    3.922640647766704E-2
 6.458008464925000E9    -5.829189756035235E-1   -8.214338591739548E-2   -3.264120025625856E-3    5.863038656810383E-2   -3.371598433178440E-4    5.773719641675115E-2   -5.364434941194198E-1    4.097466320188645E-2
 6.458019728900000E9    -5.829646728869161E-1   -8.102261127064071E-2   -3.023400696726115E-3    5.911385385895557E-2   -1.438926527409678E-4    5.831115111328569E-2   -5.363908510961298E-1    4.280148544273692E-2
 6.458030992875000E9    -5.829450515431412E-1   -7.988379384605067E-2   -2.767239170127355E-3    5.968272829714030E-2    2.512343980669677E-5    5.879161588277829E-2   -5.360667214545217E-1    4.463655941126200E-2
 6.458042256850000E9    -5.829681895674824E-1   -7.880724540398952E-2   -2.635015603765884E-3    6.025668991412318E-2    1.468803385547293E-4    5.923761511292382E-2   -5.358121683288589E-1    4.636751013807901E-2
 6.458053520825000E9    -5.831688819767195E-1   -7.772058372733265E-2   -2.486533873549004E-3    6.076593748650043E-2    3.406798466928226E-4    5.975775436488075E-2   -5.355375941286674E-1    4.810904258499257E-2
 6.458064784800000E9    -5.831565364148913E-1   -7.649117783260242E-2   -2.340513799546909E-3    6.130602889285830E-2    6.007256291028166E-4    6.023584572958352E-2   -5.353209329783547E-1    4.992232041537766E-2
 6.458076048775000E9    -5.833032944184163E-1   -7.530024259632366E-2   -2.104955249151605E-3    6.189794921006943E-2    7.699310433399395E-4    6.083376167665037E-2   -5.350874370110326E-1    5.184885282003188E-2
 6.458087312750000E9    -5.832569615942138E-1   -7.423628441646096E-2   -2.051310291450902E-3    6.235053135049075E-2    1.010204745543364E-3    6.137267684389798E-2   -5.347230732755778E-1    5.373008691454216E-2
