#  HZ   S   RI   R     50.00 
! Rohde & Schwarz Vector Network Analyzer 
! Rohde-Schwarz,ZNB20-2Port,1311601062101988,3.16
! Created: UTC 3/20/2024, 11:10:10 PM
! freq[Hz]                re:S11                  im:S11                  re:S21                  im:S21                  re:S12                  im:S12                  re:S22                  im:S22
 6.456929468000000E9    -5.654647567963187E-1   -1.758805568015278E-1   -8.932684018200427E-3    3.180759973771805E-2   -7.337074760525575E-3    3.183717338386580E-2   -5.295652242806637E-1   -8.878921215938695E-2
 6.456941118550000E9    -5.659050252488830E-1   -1.748750452643570E-1   -9.101552696483897E-3    3.201140537534231E-2   -7.322484265090377E-3    3.206813475779222E-2   -5.298633498381226E-1   -8.771609240394695E-2
 6.456952769100000E9    -5.660109346304171E-1   -1.738952823000237E-1   -9.024691768575529E-3    3.227820354206970E-2   -7.303079710860757E-3    3.214131753255393E-2   -5.300057723883116E-1   -8.645548369620090E-2
 6.456964419650000E9    -5.663039373815949E-1   -1.729984459225344E-1   -8.901758768049535E-3    3.238738402282008E-2   -7.260518932247869E-3    3.240636469503371E-2   -5.300884742833295E-1   -8.535937587039313E-2
 6.456976070200000E9    -5.666058644569344E-1   -1.720465083808269E-1   -8.934068543117053E-3    3.260630742295371E-2   -7.147258137969808E-3    3.254176149355043E-2   -5.302768552884849E-1   -8.411324389541486E-2
 6.456987720750000E9    -5.669565932798827E-1   -1.710216413756882E-1   -9.045160007148690E-3    3.257564841782960E-2   -7.245473065882777E-3    3.271238514341936E-2   -5.305320765101519E-1   -8.289160005473457E-2
 6.456999371300000E9    -5.671768171234330E-1   -1.701095674899047E-1   -9.065613807779942E-3    3.281183447031190E-2   -7.143453683083173E-3    3.290996864935559E-2   -5.306683290154613E-1   -8.180652736350549E-2
 6.457011021850000E9    -5.675774930179235E-1   -1.691308201782494E-1   -9.006401521517427E-3    3.318063916488791E-2   -7.179366086151683E-3    3.313179089105959E-2   -5.310034325522501E-1   -8.055730264111768E-2
 6.457022672400000E9    -5.677157937042449E-1   -1.681296514625782E-1   -8.862627913232030E-3    3.327844402189539E-2   -7.130880854354271E-3    3.335865492049166E-2   -5.310707296275350E-1   -7.930148520326115E-2
 6.457034322950000E9    -5.680168614368520E-1   -1.672506743573507E-1   -8.722065379067646E-3    3.358831717157620E-2   -7.101869762904019E-3    3.344128835018875E-2   -5.312836798449420E-1   -7.806259921611738E-2
 6.457045973500000E9    -5.683146776619892E-1   -1.662424499794258E-1   -8.860784604000929E-3    3.383042444528836E-2   -6.983724268640831E-3    3.366969488559807E-2   -5.314427435146963E-1   -7.690873153667084E-2
 6.457057624050000E9    -5.685226418529027E-1   -1.652741519474188E-1   -8.715176644763728E-3    3.408261299547284E-2   -6.920257311265930E-3    3.394738246634140E-2   -5.316669906573224E-1   -7.565744972571405E-2
 6.457069274600000E9    -5.687311032483644E-1   -1.643894224387115E-1   -8.822929063518184E-3    3.420107353358403E-2   -6.973131708203885E-3    3.411220065053751E-2   -5.318805715201668E-1   -7.429459935000178E-2
 6.457080925150000E9    -5.690511801820251E-1   -1.634241587272957E-1   -8.796178078919414E-3    3.440840978581303E-2   -6.886121830389205E-3    3.420954086693834E-2   -5.320193459726763E-1   -7.309262690104029E-2
 6.457092575700000E9    -5.692625907430262E-1   -1.623176559356659E-1   -8.635229627482656E-3    3.454357418661731E-2   -6.901905183389127E-3    3.452029284852649E-2   -5.321130734223242E-1   -7.196302190168967E-2
 6.457104226250000E9    -5.695124902916108E-1   -1.614190341404863E-1   -8.816324795633454E-3    3.479661312781401E-2   -6.905668884094950E-3    3.471145826817798E-2   -5.322094502525434E-1   -7.075571087670048E-2
 6.457115876800000E9    -5.697784832888236E-1   -1.603108120055809E-1   -8.706902333300015E-3    3.494008416235082E-2   -6.869701912972559E-3    3.489101025285054E-2   -5.324270213541538E-1   -6.938051952762914E-2
 6.457127527350000E9    -5.701482544375049E-1   -1.594073486877281E-1   -8.515412562388252E-3    3.524601277285794E-2   -6.805622355049568E-3    3.506456924098037E-2   -5.326906125427814E-1   -6.819726855100186E-2
 6.457139177900000E9    -5.702471687306238E-1   -1.584872848095971E-1   -8.556914567360406E-3    3.539705310621361E-2   -6.768376706606663E-3    3.526572246088787E-2   -5.327927662860640E-1   -6.696934521135109E-2
 6.457150828450000E9    -5.705335167875782E-1   -1.574154512386243E-1   -8.345944262118305E-3    3.557618637103683E-2   -6.700714168516752E-3    3.547805103167365E-2   -5.327821794816912E-1   -6.566197022442308E-2
 6.457162479000000E9    -5.707893615577373E-1   -1.564972888814884E-1   -8.536777518466184E-3    3.573502576159295E-2   -6.717665261629969E-3    3.578121808065198E-2   -5.330565226050775E-1   -6.440008246938593E-2
 6.457174129550000E9    -5.709924694074847E-1   -1.555457512857057E-1   -8.462572297151002E-3    3.609928354717237E-2   -6.675530900355531E-3    3.583480075478192E-2   -5.332078130433535E-1   -6.325371930689205E-2
 6.457185780100000E9    -5.712585714263347E-1   -1.544628445630812E-1   -8.474957128379684E-3    3.630767797523515E-2   -6.467563095098760E-3    3.611975238143748E-2   -5.334121493561882E-1   -6.195930612391304E-2
 6.457197430650000E9    -5.715086703646706E-1   -1.534521584599882E-1   -8.563250045094430E-3    3.660982163178196E-2   -6.659987856358272E-3    3.633887697794159E-2   -5.335619947015945E-1   -6.061007684989587E-2
 6.457209081200000E9    -5.717042508098608E-1   -1.525405779358366E-1   -8.336453848801910E-3    3.672752585388866E-2   -6.431153753763919E-3    3.660266481351278E-2   -5.335580838928211E-1   -5.929011637259438E-2
 6.457220731750000E9    -5.720495405583461E-1   -1.515424773084726E-1   -8.311831768939581E-3    3.698946746911767E-2   -6.473963680804655E-3    3.690715446998637E-2   -5.337686688198544E-1   -5.818374763688289E-2
 6.457232382300000E9    -5.720829535429368E-1   -1.505407484929273E-1   -8.260955021425594E-3    3.713568814433731E-2   -6.358313895955814E-3    3.711638582937195E-2   -5.337757114388758E-1   -5.674578972384721E-2
 6.457244032850000E9    -5.724500178514710E-1   -1.495753694592326E-1   -8.262189267757552E-3    3.738923387208436E-2   -6.262349488916034E-3    3.731980099705869E-2   -5.339861081020126E-1   -5.556121864142431E-2
 6.457255683400000E9    -5.726018392515750E-1   -1.485405370900707E-1   -8.212488480950466E-3    3.770045203367431E-2   -6.261486201303794E-3    3.756267656095198E-2   -5.341791319805520E-1   -5.421356708814123E-2
 6.457267333950000E9    -5.729528617273687E-1   -1.475880130758314E-1   -8.240474916905900E-3    3.794557018069139E-2   -6.129496651641148E-3    3.777168945018655E-2   -5.343672036125194E-1   -5.300708211172760E-2
 6.457278984500000E9    -5.731750603740162E-1   -1.465554505493269E-1   -8.076419075317873E-3    3.826095487051979E-2   -6.186665212213850E-3    3.804240094801649E-2   -5.343270076985986E-1   -5.164217162960572E-2
 6.457290635050000E9    -5.733599076737055E-1   -1.454878942541793E-1   -8.066583749894237E-3    3.844400656989887E-2   -6.057073220949540E-3    3.817190071661887E-2   -5.346061630497767E-1   -5.028034597878468E-2
 6.457302285600000E9    -5.735970229720077E-1   -1.445362072006803E-1   -8.057509153902935E-3    3.857285070396537E-2   -6.074080198347901E-3    3.852791567450350E-2   -5.345794202834173E-1   -4.896127030869353E-2
 6.457313936150000E9    -5.738175573641829E-1   -1.434306324667670E-1   -8.095354263014434E-3    3.889609154531502E-2   -5.940449047870659E-3    3.875630718948442E-2   -5.347692258222159E-1   -4.757653950367443E-2
 6.457325586700000E9    -5.740674655502694E-1   -1.424800438205769E-1   -7.937754785387821E-3    3.908597831342362E-2   -5.961842304962333E-3    3.900669509033660E-2   -5.348208992818982E-1   -4.633358162069467E-2
 6.457337237250000E9    -5.742116723878153E-1   -1.414268773520528E-1   -7.895419195412310E-3    3.949829959201864E-2   -5.835098062423332E-3    3.918473732388410E-2   -5.349444595302141E-1   -4.511328466634591E-2
 6.457348887800000E9    -5.745412357954339E-1   -1.404683627908863E-1   -7.841356356960531E-3    3.967100190890982E-2   -5.831767550565122E-3    3.952830089257497E-2   -5.349921236102058E-1   -4.359282822844659E-2
 6.457360538350000E9    -5.747470936282704E-1   -1.395196312644205E-1   -7.842288514736858E-3    3.986967974780690E-2   -5.812515552659700E-3    3.969877879196331E-2   -5.351071211339945E-1   -4.237453123433890E-2
 6.457372188900000E9    -5.749413679499347E-1   -1.384689782940470E-1   -7.883359043041617E-3    4.013800488380929E-2   -5.764504066271062E-3    3.997121323938967E-2   -5.351684771414226E-1   -4.092247713031600E-2
 6.457383839450000E9    -5.750529513996349E-1   -1.373829722601556E-1   -7.801521117778576E-3    4.046199805156672E-2   -5.731546596224516E-3    4.029364239972996E-2   -5.352008488723855E-1   -3.956351915117273E-2
 6.457395490000000E9    -5.752945140210540E-1   -1.363817377507714E-1   -7.716281879725931E-3    4.075393756630610E-2   -5.632737624884428E-3    4.045265981944386E-2   -5.352647319909588E-1   -3.809925642025597E-2
 6.457407140550000E9    -5.755997773012520E-1   -1.354249634819704E-1   -7.616575960418787E-3    4.120189333238582E-2   -5.561931814032575E-3    4.089097415891566E-2   -5.353786561040170E-1   -3.684545595670232E-2
 6.457418791100000E9    -5.756942529133163E-1   -1.343435304764821E-1   -7.538263926739549E-3    4.140228876379013E-2   -5.457999979672596E-3    4.105069015575179E-2   -5.353895169545445E-1   -3.551453768733399E-2
 6.457430441650000E9    -5.759732409553210E-1   -1.333226833832641E-1   -7.655180748239473E-3    4.151247555011559E-2   -5.374405948762821E-3    4.134064630653320E-2   -5.356055393156375E-1   -3.417353567793147E-2
 6.457442092200000E9    -5.761214066960793E-1   -1.323286082602800E-1   -7.596129973027688E-3    4.192608557482589E-2   -5.386892213364689E-3    4.155805010793393E-2   -5.356206724978765E-1   -3.287695370711323E-2
 6.457453742750000E9    -5.763005975785408E-1   -1.313243326210432E-1   -7.511948130465373E-3    4.216029774288290E-2   -5.241556670927041E-3    4.191031905960180E-2   -5.356418061328205E-1   -3.140635286990673E-2
 6.457465393300000E9    -5.766086629122276E-1   -1.302061308636015E-1   -7.333011931833991E-3    4.234641420958758E-2   -5.203227586257813E-3    4.215238378342071E-2   -5.357534475497145E-1   -2.980421561664664E-2
 6.457477043850000E9    -5.767293679840461E-1   -1.291437744361606E-1   -7.430570560415112E-3    4.295210471905003E-2   -5.161051566353099E-3    4.242911317464011E-2   -5.357567751919011E-1   -2.858895505865521E-2
 6.457488694400000E9    -5.769956641184183E-1   -1.281472776800372E-1   -7.282024356544919E-3    4.308483431156047E-2   -5.085562815387067E-3    4.270117762621185E-2   -5.358167685763344E-1   -2.713229761876522E-2
 6.457500344950000E9    -5.771760212254698E-1   -1.270869480712052E-1   -7.161201660432378E-3    4.338963296844407E-2   -5.012087334072844E-3    4.301965339953662E-2   -5.358788352641128E-1   -2.573884956994725E-2
 6.457511995500000E9    -5.773287879191900E-1   -1.260368524913792E-1   -7.205869434408843E-3    4.368724853991376E-2   -5.003622633919506E-3    4.330427774056480E-2   -5.358928107885794E-1   -2.425137855116352E-2
 6.457523646050000E9    -5.775268258532620E-1   -1.250076306707028E-1   -7.002588280668542E-3    4.410408276679866E-2   -4.821299289961803E-3    4.365042939547182E-2   -5.361670425874041E-1   -2.292920396109895E-2
 6.457535296600000E9    -5.775984302464715E-1   -1.239943451295930E-1   -6.977232762533327E-3    4.426676922504567E-2   -4.752492119594483E-3    4.391619111806327E-2   -5.360883939936775E-1   -2.138306071301697E-2
 6.457546947150000E9    -5.778735580231966E-1   -1.229722646181166E-1   -7.060697918304054E-3    4.465477625845016E-2   -4.686335750070636E-3    4.432687994517277E-2   -5.361672869493748E-1   -1.993796632523490E-2
 6.457558597700000E9    -5.779562600970453E-1   -1.218434797645154E-1   -6.902520159119543E-3    4.506267265055087E-2   -4.637923161145347E-3    4.455052241872441E-2   -5.360180294502750E-1   -1.844150832824854E-2
 6.457570248250000E9    -5.782525846761448E-1   -1.208028796006385E-1   -6.871164503413733E-3    4.527789608076661E-2   -4.525435658142771E-3    4.493246974567131E-2   -5.361872652998780E-1   -1.697149108229137E-2
 6.457581898800000E9    -5.783691892337890E-1   -1.198581368090779E-1   -6.866199754658102E-3    4.556287749263326E-2   -4.361715305717890E-3    4.519780652607690E-2   -5.360856127409857E-1   -1.544898140234376E-2
 6.457593549350000E9    -5.786047587829942E-1   -1.186165775856496E-1   -6.741878029808203E-3    4.599327445972175E-2   -4.301133331191913E-3    4.559143034775637E-2   -5.360650077846810E-1   -1.408198436739873E-2
 6.457605199900000E9    -5.787477262968417E-1   -1.175734732980668E-1   -6.678251656344638E-3    4.626803818901533E-2   -4.241695226392336E-3    4.593614282652223E-2   -5.360870877112517E-1   -1.261627464377312E-2
 6.457616850450000E9    -5.789362301728729E-1   -1.166040812515309E-1   -6.536706650244522E-3    4.653420437663726E-2   -4.171815365382127E-3    4.623130634141727E-2   -5.362015144069676E-1   -1.117719772512515E-2
 6.457628501000000E9    -5.790402473276423E-1   -1.153497684614043E-1   -6.524832136878282E-3    4.695773233247115E-2   -4.136083553766051E-3    4.655121069018038E-2   -5.361559023148295E-1   -9.651441172148501E-3
 6.457640151550000E9    -5.792265332747663E-1   -1.144930052201715E-1   -6.370409629925898E-3    4.727131856266600E-2   -4.132141660160181E-3    4.681972155945448E-2   -5.362995053492964E-1   -8.070285238182370E-3
 6.457651802100000E9    -5.793807195480603E-1   -1.132819284528461E-1   -6.170188392648621E-3    4.767105614148286E-2   -3.991246892094701E-3    4.723809681681002E-2   -5.361948511727389E-1   -6.582482524336043E-3
 6.457663452650000E9    -5.796965769027519E-1   -1.122700538966359E-1   -6.235052077031180E-3    4.803871727497350E-2   -3.868765518668289E-3    4.759531227646843E-2   -5.359885173750880E-1   -4.945380745742187E-3
 6.457675103200000E9    -5.797089247190792E-1   -1.112167682321551E-1   -6.061249565144675E-3    4.848150662120972E-2   -3.780075544161321E-3    4.797862465411415E-2   -5.360582360950731E-1   -3.468076989474631E-3
 6.457686753750000E9    -5.798434886798562E-1   -1.102049138130066E-1   -6.203126213773474E-3    4.869837926054593E-2   -3.499091001010907E-3    4.831074359812487E-2   -5.360646318698161E-1   -1.952457360894376E-3
 6.457698404300000E9    -5.800416179091517E-1   -1.091184535315595E-1   -6.022092255209294E-3    4.916042327193789E-2   -3.428075047069647E-3    4.867091672999069E-2   -5.359841279794181E-1   -2.540500125345603E-4
 6.457710054850000E9    -5.802490298125015E-1   -1.079736015129939E-1   -5.983433923980879E-3    4.949295198614156E-2   -3.561901071477818E-3    4.896653394204895E-2   -5.359742981999671E-1    1.170249036850312E-3
 6.457721705400000E9    -5.802371837639061E-1   -1.069020265616821E-1   -5.829812705301455E-3    5.011249402709077E-2   -3.331250405714531E-3    4.934694859131114E-2   -5.359068668438213E-1    2.889360483934991E-3
 6.457733355950000E9    -5.804458966835571E-1   -1.058088510516353E-1   -5.726366807290680E-3    5.032588995318956E-2   -3.173359931957424E-3    4.979817323697665E-2   -5.357844587503853E-1    4.336582020293018E-3
 6.457745006500000E9    -5.806460893048367E-1   -1.045924948005306E-1   -5.624246380905560E-3    5.075282027977315E-2   -3.013671943972639E-3    5.016033066020386E-2   -5.358427546083522E-1    5.975891049745516E-3
 6.457756657050000E9    -5.807287204391206E-1   -1.035515834938044E-1   -5.535510117164469E-3    5.111212388701374E-2   -2.871473752226444E-3    5.058368684425742E-2   -5.358536109643922E-1    7.671265716279326E-3
 6.457768307600000E9    -5.808604929644064E-1   -1.025286297918688E-1   -5.391271108305031E-3    5.152075708529371E-2   -2.809457274301271E-3    5.084138950614379E-2   -5.356643296690344E-1    9.318555605601634E-3
 6.457779958150000E9    -5.810274900639372E-1   -1.013724253906975E-1   -5.382558744163893E-3    5.202122457806149E-2   -2.718197269992975E-3    5.134883392717638E-2   -5.356762159215751E-1    1.095497705780693E-2
 6.457791608700000E9    -5.811234036660982E-1   -1.002184114573175E-1   -5.114963943543650E-3    5.230313650350869E-2   -2.542042803074797E-3    5.177133704870649E-2   -5.354735175037357E-1    1.245747234025334E-2
 6.457803259250000E9    -5.811274782201518E-1   -9.915061802641974E-2   -4.980617005121427E-3    5.292213904241221E-2   -2.456140144286101E-3    5.222988312437200E-2   -5.353628668673633E-1    1.428505397293610E-2
 6.457814909800000E9    -5.814182969340689E-1   -9.808284629799688E-2   -5.049431102102965E-3    5.346064736430813E-2   -2.297833671617213E-3    5.255102844016648E-2   -5.352818490616600E-1    1.580760578665683E-2
 6.457826560350000E9    -5.815374782772192E-1   -9.705930760645649E-2   -4.843539475093079E-3    5.374743352966792E-2   -2.139327230772836E-3    5.297448621519357E-2   -5.351864092196117E-1    1.760303888051585E-2
 6.457838210900000E9    -5.816964817963616E-1   -9.569497826834146E-2   -4.700969522740087E-3    5.414175276014700E-2   -2.065530664205530E-3    5.344746192047775E-2   -5.351939733521304E-1    1.916975938258154E-2
 6.457849861450000E9    -5.816785308419646E-1   -9.463951511166617E-2   -4.616174850548105E-3    5.471328124654696E-2   -1.880613236455808E-3    5.393380472032328E-2   -5.350045038249073E-1    2.096301764549666E-2
 6.457861512000000E9    -5.817965113610037E-1   -9.355040946657762E-2   -4.521855138699279E-3    5.512880990578374E-2   -1.807080243126005E-3    5.424612893179358E-2   -5.347803276494446E-1    2.260054165799609E-2
 6.457873162550000E9    -5.820352396662606E-1   -9.240370959682651E-2   -4.390099369677157E-3    5.544615404035914E-2   -1.596743718428370E-3    5.478225739972548E-2   -5.346356481165615E-1    2.445156271803945E-2
 6.457884813100000E9    -5.820596027580072E-1   -9.131751150692539E-2   -4.268107061273084E-3    5.596234225507257E-2   -1.485477245088899E-3    5.532044342126041E-2   -5.345990144088453E-1    2.609294820502029E-2
 6.457896463650000E9    -5.821653262537593E-1   -9.014454806109726E-2   -4.091596448083491E-3    5.653773535734736E-2   -1.278787416578273E-3    5.577966118832064E-2   -5.343766932758989E-1    2.788264901131163E-2
 6.457908114200000E9    -5.823050365407201E-1   -8.894869285121951E-2   -3.953582868874339E-3    5.699436995264959E-2   -1.171717975834511E-3    5.624553911685514E-2   -5.342705011337424E-1    2.968835673538327E-2
 6.457919764750000E9    -5.822452723553375E-1   -8.790986198521715E-2   -3.851453715947569E-3    5.762164309960387E-2   -9.772516323640300E-4    5.664413898449518E-2   -5.340638754375452E-1    3.144694526573639E-2
 6.457931415300000E9    -5.823931258071718E-1   -8.671038480166307E-2   -3.731370446122602E-3    5.811514004403449E-2   -7.901656711729714E-4    5.718543976333954E-2   -5.337917181880659E-1    3.332936929436454E-2
 6.457943065850000E9    -5.825331770023712E-1   -8.550685405283419E-2   -3.541562468601244E-3    5.854592224410592E-2   -5.477646470137639E-4    5.772655741751490E-2   -5.335766184338602E-1    3.514987996670577E-2
 6.457954716400000E9    -5.825852475638619E-1   -8.423780977976199E-2   -3.415075866176365E-3    5.916060847239301E-2   -4.976758071144238E-4    5.819884698067549E-2   -5.333758486424137E-1    3.689748737776792E-2
 6.457966366950000E9    -5.827817920862426E-1   -8.317080269810698E-2   -3.162662420517002E-3    5.962014385991775E-2   -2.584435817623619E-4    5.870089684841098E-2   -5.332030874360963E-1    3.873580440855780E-2
 6.457978017500000E9    -5.827182716163134E-1   -8.200807603148334E-2   -2.965294565786665E-3    6.005433890916697E-2   -2.823464564531498E-5    5.921732983025938E-2   -5.330115153677274E-1    4.056795408633161E-2
