#  HZ   S   RI   R     50.00 
! Rohde & Schwarz Vector Network Analyzer 
! Rohde-Schwarz,ZNB20-2Port,1311601062101988,3.16
! Created: UTC 3/20/2024, 11:10:12 PM
! freq[Hz]                re:S11                  im:S11                  re:S21                  im:S21                  re:S12                  im:S12                  re:S22                  im:S22
 6.456929463000000E9    -5.655050462070459E-1   -1.758284380204123E-1   -9.155013986061411E-3    3.183990208540909E-2   -7.321951100175770E-3    3.188586083368887E-2   -5.296084694377147E-1   -8.879281615291429E-2
 6.456941114225000E9    -5.658062783565425E-1   -1.749736014593486E-1   -8.966909414980703E-3    3.205959696852445E-2   -7.403671202147660E-3    3.207211463499585E-2   -5.297371309175526E-1   -8.778717210154327E-2
 6.456952765450000E9    -5.660535931077357E-1   -1.739533699851964E-1   -8.888631327223465E-3    3.216425782920973E-2   -7.312055792053313E-3    3.220189626866278E-2   -5.300027910008900E-1   -8.645127714522423E-2
 6.456964416675000E9    -5.663994960030592E-1   -1.729662230211918E-1   -9.041814995579371E-3    3.241983456290055E-2   -7.210985612547514E-3    3.235158486562228E-2   -5.302742012316035E-1   -8.541235589747703E-2
 6.456976067900000E9    -5.666294580313646E-1   -1.720859259489771E-1   -8.919766308938528E-3    3.248721577720672E-2   -7.257133191377605E-3    3.260343414675825E-2   -5.303952633506401E-1   -8.417757122338768E-2
 6.456987719125000E9    -5.668733446001273E-1   -1.710127387239680E-1   -9.037045500797180E-3    3.283879423742001E-2   -7.218398258217731E-3    3.274101767366228E-2   -5.306466859558658E-1   -8.299185355622606E-2
 6.456999370350000E9    -5.672380160102569E-1   -1.701192556906845E-1   -8.908604207398845E-3    3.304319739379549E-2   -7.192331529823985E-3    3.293982833947608E-2   -5.309006742492195E-1   -8.175802560811953E-2
 6.457011021575000E9    -5.675143317378797E-1   -1.691543977004560E-1   -8.875963648252348E-3    3.309773265096676E-2   -7.082070759612507E-3    3.314138021537567E-2   -5.309612396642370E-1   -8.068995713559295E-2
 6.457022672800000E9    -5.676867785677709E-1   -1.681459602942462E-1   -8.876249195748927E-3    3.338721453034808E-2   -7.079384565690539E-3    3.338386636595348E-2   -5.310326961054879E-1   -7.937297692487719E-2
 6.457034324025000E9    -5.679511272730035E-1   -1.672088061256061E-1   -8.837359079856879E-3    3.348219428612453E-2   -7.072514102440234E-3    3.344475856624828E-2   -5.312074247135898E-1   -7.809992825432212E-2
 6.457045975250000E9    -5.681766740512250E-1   -1.662691034196949E-1   -8.717904199296751E-3    3.369769296974284E-2   -7.103343778999204E-3    3.366165181876079E-2   -5.314944949271586E-1   -7.680447713473816E-2
 6.457057626475000E9    -5.685491727270077E-1   -1.652965814198885E-1   -8.714667219658804E-3    3.370033168931627E-2   -6.989003195413629E-3    3.390662193930719E-2   -5.316864785886632E-1   -7.573964302379504E-2
 6.457069277700000E9    -5.687690100611743E-1   -1.642156131861649E-1   -8.923099824749819E-3    3.413737153038369E-2   -6.925740469673237E-3    3.406370123670684E-2   -5.317768787874290E-1   -7.448882822943648E-2
 6.457080928925000E9    -5.689479581400065E-1   -1.632709047998757E-1   -8.846358337688032E-3    3.440713822143731E-2   -6.840678266416263E-3    3.431541012110002E-2   -5.320407590922579E-1   -7.311223823761180E-2
 6.457092580150000E9    -5.692567431798293E-1   -1.623084636758082E-1   -8.695527654278020E-3    3.460934541915599E-2   -6.862284198680474E-3    3.446975445803431E-2   -5.323577180460385E-1   -7.197956084231204E-2
 6.457104231375000E9    -5.695722893126113E-1   -1.613268149972368E-1   -8.784221896718087E-3    3.474901281129213E-2   -6.786591848313261E-3    3.468674637059786E-2   -5.323355641869292E-1   -7.078043281068959E-2
 6.457115882600000E9    -5.698342794849097E-1   -1.603799510509827E-1   -8.767776640425419E-3    3.488835416908486E-2   -6.725833407054039E-3    3.487708626718593E-2   -5.324066592961324E-1   -6.951404697011924E-2
 6.457127533825000E9    -5.700794854266386E-1   -1.593207759066506E-1   -8.586703116874837E-3    3.517815754118860E-2   -6.777115434965762E-3    3.513120269930259E-2   -5.326261963613150E-1   -6.808252962245014E-2
 6.457139185050000E9    -5.702552999387546E-1   -1.584473352003767E-1   -8.596161896265298E-3    3.549671960330336E-2   -6.747412303821268E-3    3.529448100096538E-2   -5.327405243024792E-1   -6.689756720451387E-2
 6.457150836275000E9    -5.706074109144664E-1   -1.573970643173700E-1   -8.647393491461179E-3    3.557294756638544E-2   -6.681209736506205E-3    3.554211700086087E-2   -5.329645653903280E-1   -6.582765566265843E-2
 6.457162487500000E9    -5.708212399513340E-1   -1.563747546875161E-1   -8.619890794239866E-3    3.580805445541720E-2   -6.539898563308664E-3    3.572771482202428E-2   -5.330429734515386E-1   -6.445997769133738E-2
 6.457174138725000E9    -5.709779906051259E-1   -1.554682578099199E-1   -8.480149438026583E-3    3.611431386318240E-2   -6.639173889456895E-3    3.588279252043228E-2   -5.330618922590113E-1   -6.311296353471524E-2
 6.457185789950000E9    -5.712576707692650E-1   -1.545147784568972E-1   -8.391666557742278E-3    3.623459428972697E-2   -6.549906238184916E-3    3.612762295878742E-2   -5.334475732999927E-1   -6.192896018804055E-2
 6.457197441175000E9    -5.714104222541074E-1   -1.534203716177230E-1   -8.474660006920067E-3    3.655190650234116E-2   -6.525244293507494E-3    3.638582581816066E-2   -5.334828013953612E-1   -6.076463499526279E-2
 6.457209092400000E9    -5.717891660931183E-1   -1.524233541348100E-1   -8.479534239888583E-3    3.664041017648079E-2   -6.457071860240861E-3    3.667968364274357E-2   -5.336705282187632E-1   -5.943112907714027E-2
 6.457220743625000E9    -5.719053591383823E-1   -1.515168411880431E-1   -8.391959175874472E-3    3.700353759308755E-2   -6.313277929879157E-3    3.672594294776283E-2   -5.337048602883534E-1   -5.816278306121607E-2
 6.457232394850000E9    -5.721886115782334E-1   -1.504878437431303E-1   -8.376579228342817E-3    3.713967400816104E-2   -6.381100575371398E-3    3.702539145242204E-2   -5.339151397393455E-1   -5.697592355898861E-2
 6.457244046075000E9    -5.724794338006660E-1   -1.495109246460435E-1   -8.418732352598773E-3    3.755484145139975E-2   -6.243214372389938E-3    3.734840458815760E-2   -5.340223908172859E-1   -5.554371964665649E-2
 6.457255697300000E9    -5.726621593969032E-1   -1.484895457100218E-1   -8.310420952090435E-3    3.765893290843657E-2   -6.292589989920569E-3    3.753505782466326E-2   -5.341437196878159E-1   -5.431210714147566E-2
 6.457267348525000E9    -5.729031529527771E-1   -1.474819610870119E-1   -8.243631281859792E-3    3.801278055572687E-2   -6.249327205269709E-3    3.768481342936689E-2   -5.341760391051199E-1   -5.297823105381478E-2
 6.457278999750000E9    -5.730868987992056E-1   -1.464565181170702E-1   -8.096710542222486E-3    3.819333676086824E-2   -6.176362344245598E-3    3.793771187999553E-2   -5.343602060153964E-1   -5.164357132653921E-2
 6.457290650975000E9    -5.733554735416586E-1   -1.455753900968627E-1   -8.114118501239132E-3    3.849716606520664E-2   -6.124407982810443E-3    3.819903465021329E-2   -5.345773848312744E-1   -5.033045159624643E-2
 6.457302302200000E9    -5.736129689987366E-1   -1.444775143391996E-1   -8.094153008583392E-3    3.868831464871981E-2   -5.996013715459925E-3    3.853299574878931E-2   -5.345737811461374E-1   -4.904916555564782E-2
 6.457313953425000E9    -5.737803244140748E-1   -1.434164606435218E-1   -8.048652758277489E-3    3.878410843704434E-2   -6.056641894904496E-3    3.874983424348399E-2   -5.347342013556613E-1   -4.769596884259189E-2
 6.457325604650000E9    -5.740955688398295E-1   -1.425183043521961E-1   -7.933434814586068E-3    3.913317113346343E-2   -5.928570061395817E-3    3.900446889076985E-2   -5.348335399299509E-1   -4.642642306373130E-2
 6.457337255875000E9    -5.742057848442563E-1   -1.414074710606951E-1   -7.902402150309629E-3    3.950765932261475E-2   -5.916925502952671E-3    3.928463942441986E-2   -5.349546662034712E-1   -4.490656098640601E-2
 6.457348907100000E9    -5.744001643062635E-1   -1.404374258218958E-1   -7.874459552087924E-3    3.976458047123095E-2   -5.813645757723297E-3    3.948023741693044E-2   -5.350307765806812E-1   -4.367409835923480E-2
 6.457360558325000E9    -5.745934907423109E-1   -1.394159911020154E-1   -7.863208963496997E-3    4.004795566709843E-2   -5.742368006024602E-3    3.974866934608616E-2   -5.350714323952921E-1   -4.233321837804603E-2
 6.457372209550000E9    -5.748482209707317E-1   -1.384813110805915E-1   -7.799887080595674E-3    4.024364192258511E-2   -5.789139610469740E-3    4.001634166559098E-2   -5.350635615514313E-1   -4.101881214420644E-2
 6.457383860775000E9    -5.751168868679376E-1   -1.373925630492789E-1   -7.727783622630533E-3    4.053858230834276E-2   -5.654092076615296E-3    4.030285488864307E-2   -5.351947121973055E-1   -3.955663045597829E-2
 6.457395512000000E9    -5.752902962903250E-1   -1.363916727394874E-1   -7.704009754342712E-3    4.069136181541928E-2   -5.703067550234841E-3    4.056495654016329E-2   -5.352963840119344E-1   -3.834277473774311E-2
 6.457407163225000E9    -5.755073125142578E-1   -1.352991034381862E-1   -7.756402335398153E-3    4.107112915921295E-2   -5.613958220717235E-3    4.080988827185147E-2   -5.353874154241991E-1   -3.685168864284658E-2
 6.457418814450000E9    -5.758343469016961E-1   -1.342891622695870E-1   -7.740045338473617E-3    4.134871892475320E-2   -5.517017771949303E-3    4.105909676486376E-2   -5.355521151026537E-1   -3.545019673233811E-2
 6.457430465675000E9    -5.759381180616260E-1   -1.333252058191000E-1   -7.526305441498085E-3    4.162368164577035E-2   -5.284978196951194E-3    4.125806301903684E-2   -5.354590769213565E-1   -3.411352684774736E-2
 6.457442116900000E9    -5.761324689715028E-1   -1.322368251892599E-1   -7.597197375458909E-3    4.191021555715903E-2   -5.294306526987071E-3    4.161245741156452E-2   -5.356321270928827E-1   -3.273759482418347E-2
 6.457453768125000E9    -5.763919381527154E-1   -1.312526706269973E-1   -7.500306754260799E-3    4.219770825065196E-2   -5.227728509083496E-3    4.179726979875084E-2   -5.357677833044959E-1   -3.124270088622680E-2
 6.457465419350000E9    -5.765644624551062E-1   -1.301657065004277E-1   -7.336669953302549E-3    4.250658693843678E-2   -5.279101583007558E-3    4.209062417063059E-2   -5.357905115513661E-1   -2.993977775367705E-2
 6.457477070575000E9    -5.768508657490273E-1   -1.291992075627771E-1   -7.467051761128803E-3    4.278467136280582E-2   -5.123595745380591E-3    4.247316352787787E-2   -5.357897603618216E-1   -2.859882219103647E-2
 6.457488721800000E9    -5.769277492950567E-1   -1.281410681921157E-1   -7.206351987910702E-3    4.313390988474521E-2   -5.177077530229503E-3    4.270573641412143E-2   -5.358329868001336E-1   -2.710072125666794E-2
 6.457500373025000E9    -5.771183603323239E-1   -1.271302756972884E-1   -7.262174730705801E-3    4.342654628227424E-2   -5.036672710331718E-3    4.304344839287554E-2   -5.358044704574104E-1   -2.569347046793367E-2
 6.457512024250000E9    -5.772383439118796E-1   -1.261292245183132E-1   -7.197718432867121E-3    4.350119217186234E-2   -4.939510829621360E-3    4.331972635569465E-2   -5.359106486748276E-1   -2.420789697051226E-2
 6.457523675475000E9    -5.774697742667524E-1   -1.250199506861385E-1   -7.082341445593987E-3    4.405781752131772E-2   -4.786871750861273E-3    4.362906443389164E-2   -5.359663082205885E-1   -2.284107011901836E-2
 6.457535326700000E9    -5.777474678997170E-1   -1.239290251092869E-1   -7.093645199491731E-3    4.429584723273728E-2   -4.783685702097766E-3    4.401858684352311E-2   -5.359651683711302E-1   -2.149650699755389E-2
 6.457546977925000E9    -5.778291666508645E-1   -1.228854001289824E-1   -6.960608437450737E-3    4.473270827746797E-2   -4.823246194083336E-3    4.422556324813201E-2   -5.360352649176050E-1   -1.984860008195658E-2
 6.457558629150000E9    -5.780744102553718E-1   -1.219118133109992E-1   -6.868605849310173E-3    4.492594975062991E-2   -4.597778742140649E-3    4.460265860625558E-2   -5.360988366202881E-1   -1.865350456399398E-2
 6.457570280375000E9    -5.782740018106036E-1   -1.209057753052176E-1   -6.933524520335240E-3    4.536094904494170E-2   -4.560229709118816E-3    4.495157384295363E-2   -5.360878862459489E-1   -1.702303052263656E-2
 6.457581931600000E9    -5.783685323951547E-1   -1.197788209631639E-1   -6.847688119981332E-3    4.564636831554036E-2   -4.479119166068937E-3    4.523051382165040E-2   -5.361378578691129E-1   -1.548203242083803E-2
 6.457593582825000E9    -5.786471002412373E-1   -1.186470542833436E-1   -6.810857628503115E-3    4.585728262333905E-2   -4.388144504553611E-3    4.552070838728353E-2   -5.361874236420771E-1   -1.402858382402814E-2
 6.457605234050000E9    -5.786848035463114E-1   -1.175788018330484E-1   -6.799033221553115E-3    4.626167589295905E-2   -4.340187922051281E-3    4.584324092957187E-2   -5.361809158012910E-1   -1.249313148461423E-2
 6.457616885275000E9    -5.789599651676927E-1   -1.166512952089334E-1   -6.427795377164305E-3    4.661250162793405E-2   -4.183931709501657E-3    4.612407767044126E-2   -5.361316399743699E-1   -1.108568190557528E-2
 6.457628536500000E9    -5.789894222600176E-1   -1.155541440147234E-1   -6.490309931170834E-3    4.699895631720202E-2   -4.100378607231103E-3    4.647071361485795E-2   -5.361135982612489E-1   -9.516271523110997E-3
 6.457640187725000E9    -5.792419869802610E-1   -1.144052966949141E-1   -6.514014146805982E-3    4.736350443234114E-2   -4.071432230306483E-3    4.688551797519028E-2   -5.362131034293114E-1   -7.883052629131516E-3
 6.457651838950000E9    -5.793709218189729E-1   -1.132938940989665E-1   -6.401818038757743E-3    4.776553508782804E-2   -3.861498614478336E-3    4.714696830604418E-2   -5.361778376234098E-1   -6.521970671477267E-3
 6.457663490175000E9    -5.796030852172381E-1   -1.123061568349710E-1   -6.201305853113610E-3    4.813022858501666E-2   -3.820725697315788E-3    4.753762889354948E-2   -5.361859503108961E-1   -4.964968151804918E-3
 6.457675141400000E9    -5.796993922876621E-1   -1.111187207037080E-1   -6.119808083070692E-3    4.842537547155783E-2   -3.737043782825443E-3    4.791744551550250E-2   -5.361392545368047E-1   -3.478780284723204E-3
 6.457686792625000E9    -5.798803311964182E-1   -1.101137878262952E-1   -6.112275500721985E-3    4.879994617076086E-2   -3.591172986168132E-3    4.831899657017341E-2   -5.359595787571343E-1   -1.798622684793168E-3
 6.457698443850000E9    -5.800072845499787E-1   -1.090807755684692E-1   -5.963237716857303E-3    4.909549554399471E-2   -3.450237154763377E-3    4.875929396240440E-2   -5.360123217391084E-1   -2.100280728296720E-4
 6.457710095075000E9    -5.801821471060614E-1   -1.079308082951188E-1   -5.862898442236007E-3    4.947351201833022E-2   -3.342214124931010E-3    4.899477574699210E-2   -5.360236085037485E-1    1.344248899092229E-3
 6.457721746300000E9    -5.802464977291388E-1   -1.069352327284057E-1   -5.902563237410281E-3    4.995670921917973E-2   -3.284735607293830E-3    4.946716246357492E-2   -5.359014742644905E-1    2.818484882949665E-3
 6.457733397525000E9    -5.805011637368449E-1   -1.057922902709852E-1   -5.775843906996913E-3    5.039887569355222E-2   -3.147342615508597E-3    4.972577930572770E-2   -5.358985172535773E-1    4.389287276145835E-3
 6.457745048750000E9    -5.805094196115993E-1   -1.046050394831539E-1   -5.571810121703036E-3    5.092942553070366E-2   -3.101297558207276E-3    5.016689328794795E-2   -5.358371305113623E-1    6.089948060802871E-3
 6.457756699975000E9    -5.807725955335141E-1   -1.034618141510392E-1   -5.581746638142036E-3    5.124375651432185E-2   -2.989935291245554E-3    5.049729338052930E-2   -5.357473513386815E-1    7.767560245779113E-3
 6.457768351200000E9    -5.809789445366963E-1   -1.024134165721730E-1   -5.289775027888560E-3    5.161954309928837E-2   -2.793144881195110E-3    5.091255164693789E-2   -5.356789436538101E-1    9.234217113584828E-3
 6.457780002425000E9    -5.810169971706973E-1   -1.013412916184634E-1   -5.358883432299400E-3    5.204928039471805E-2   -2.684021016877819E-3    5.141133004009162E-2   -5.357251676150437E-1    1.093682591690312E-2
 6.457791653650000E9    -5.811208610914576E-1   -1.002673896284807E-1   -5.152322636461452E-3    5.243469345682830E-2   -2.619688696713415E-3    5.177828645562912E-2   -5.354861948644906E-1    1.256109506996289E-2
 6.457803304875000E9    -5.812528334003809E-1   -9.921517787255231E-2   -5.096614217005860E-3    5.282218611390750E-2   -2.400122817421845E-3    5.220527758277747E-2   -5.355256137932144E-1    1.424785708298552E-2
 6.457814956100000E9    -5.814198545249215E-1   -9.802693696032763E-2   -5.074739564072118E-3    5.316898091773924E-2   -2.270657833343862E-3    5.258070204173979E-2   -5.353722504030543E-1    1.594591119992183E-2
 6.457826607325000E9    -5.815477447459860E-1   -9.684224373928155E-2   -4.841496932089244E-3    5.366980836186393E-2   -2.188375662693033E-3    5.306789189517370E-2   -5.352022310961915E-1    1.745985541315498E-2
 6.457838258550000E9    -5.816399193244064E-1   -9.576781686943686E-2   -4.714773076567989E-3    5.410999841911655E-2   -2.059775972454997E-3    5.343983377562525E-2   -5.351322353872915E-1    1.928278167786293E-2
 6.457849909775000E9    -5.817717133329763E-1   -9.461571346879719E-2   -4.602490200353675E-3    5.451838814310952E-2   -1.996025612911840E-3    5.388002651824442E-2   -5.350638593037923E-1    2.088796398895921E-2
 6.457861561000000E9    -5.818705963552764E-1   -9.347938351137930E-2   -4.403303493995279E-3    5.515521984154763E-2   -1.738920781921188E-3    5.436766334802885E-2   -5.349706639028080E-1    2.267353552846021E-2
 6.457873212225000E9    -5.819726420541479E-1   -9.244426685441628E-2   -4.224652322812296E-3    5.545823512272201E-2   -1.636483129182139E-3    5.479062567065486E-2   -5.347578151756153E-1    2.449710310592512E-2
 6.457884863450000E9    -5.821000521639603E-1   -9.122640728642482E-2   -4.235976725743338E-3    5.605939171334352E-2   -1.459488441798718E-3    5.524016606806596E-2   -5.343621880330325E-1    2.618719065719436E-2
 6.457896514675000E9    -5.822228241971228E-1   -9.019204357894202E-2   -4.012290985592551E-3    5.656455308543016E-2   -1.302632405461730E-3    5.576124600814239E-2   -5.344818925716990E-1    2.782041222636934E-2
 6.457908165900000E9    -5.823648494125142E-1   -8.899763186986384E-2   -3.927215083306472E-3    5.702822337823095E-2   -1.261223355534406E-3    5.614759638898768E-2   -5.342001335685517E-1    2.967264174892634E-2
 6.457919817125000E9    -5.824463798094077E-1   -8.771856788549627E-2   -3.830212248039037E-3    5.751288464516873E-2   -1.019099433555899E-3    5.670292348845461E-2   -5.339790502566446E-1    3.157175044176044E-2
 6.457931468350000E9    -5.824339818801462E-1   -8.663887154222223E-2   -3.692256806187456E-3    5.803545021770422E-2   -7.310575450076852E-4    5.720512228594293E-2   -5.339652991008643E-1    3.317901923405053E-2
 6.457943119575000E9    -5.825872860716952E-1   -8.540599161360257E-2   -3.443475543514569E-3    5.857552836299511E-2   -6.605653430050967E-4    5.768174840979113E-2   -5.336924464738529E-1    3.513301504793107E-2
 6.457954770800000E9    -5.826329490749094E-1   -8.437089385799525E-2   -3.330069477560685E-3    5.911652107913250E-2   -5.448512669074957E-4    5.811899050165636E-2   -5.334770526070040E-1    3.685046776121950E-2
 6.457966422025000E9    -5.827500532932708E-1   -8.316276059575192E-2   -3.224640801218655E-3    5.961935990465550E-2   -3.732230167121238E-4    5.873638205810566E-2   -5.332171292594635E-1    3.871868446288089E-2
 6.457978073250000E9    -5.827802884858183E-1   -8.193430673355076E-2   -3.044416430857087E-3    6.019839956730304E-2   -4.968124126329790E-6    5.920956363034732E-2   -5.331282434631708E-1    4.074527767189676E-2
