#  HZ   S   RI   R     50.00 
! Rohde & Schwarz Vector Network Analyzer 
! Rohde-Schwarz,ZNB20-2Port,1311601062101988,3.16
! Created: UTC 3/20/2024, 11:10:57 PM
! freq[Hz]                re:S11                  im:S11                  re:S21                  im:S21                  re:S12                  im:S12                  re:S22                  im:S22
 6.456939187000000E9    -5.657725214386115E-1   -1.750142050408072E-1   -9.130168727889042E-3    3.197744846849363E-2   -7.361702241892400E-3    3.198389772614885E-2   -5.297954775439102E-1   -8.808217920965597E-2
 6.456950808800000E9    -5.659930233199819E-1   -1.741765207985709E-1   -8.960906505629985E-3    3.212554227101889E-2   -7.237601190192033E-3    3.218122455688641E-2   -5.299792561040417E-1   -8.685747653244351E-2
 6.456962430600000E9    -5.662419507398861E-1   -1.731915879471923E-1   -8.922470866852732E-3    3.234781032122745E-2   -7.365892816573593E-3    3.225169969744116E-2   -5.300804122674450E-1   -8.576935570553217E-2
 6.456974052400000E9    -5.665268515848769E-1   -1.721946269599100E-1   -8.915449050404865E-3    3.249361105919241E-2   -7.309182850796976E-3    3.245451548675584E-2   -5.302625882379383E-1   -8.437250013143355E-2
 6.456985674200000E9    -5.668274857651826E-1   -1.712361855795679E-1   -9.009955334414127E-3    3.275955589976087E-2   -7.193439121594680E-3    3.262917019550005E-2   -5.306767569185241E-1   -8.338847901930839E-2
 6.456997296000000E9    -5.672026465768617E-1   -1.703008365469942E-1   -8.932866839581314E-3    3.276840707729542E-2   -7.170224418438171E-3    3.287507843794545E-2   -5.308372218138625E-1   -8.200815922455378E-2
 6.457008917800000E9    -5.674200743926945E-1   -1.693295895943870E-1   -8.865249511347210E-3    3.304321617173413E-2   -7.094795044660089E-3    3.306744337256470E-2   -5.309926777969952E-1   -8.098135535196385E-2
 6.457020539600000E9    -5.677095457726712E-1   -1.683658138972076E-1   -8.724170623067847E-3    3.328142230514717E-2   -7.128335210588785E-3    3.318650974311897E-2   -5.311077417336851E-1   -7.974099763239570E-2
 6.457032161400000E9    -5.679098860161022E-1   -1.674514109223633E-1   -8.980010001939480E-3    3.356204206592190E-2   -7.092044636829180E-3    3.340470246361438E-2   -5.312683908509988E-1   -7.857842323057067E-2
 6.457043783200000E9    -5.681733338336593E-1   -1.664938555741588E-1   -8.882793112970119E-3    3.360370905720508E-2   -7.101137534526833E-3    3.355851079941274E-2   -5.314440552069434E-1   -7.727688824969700E-2
 6.457055405000000E9    -5.685280387082478E-1   -1.654369565631378E-1   -8.759534362052877E-3    3.393289231586467E-2   -6.944247827261522E-3    3.372034188600372E-2   -5.315832363302830E-1   -7.615784329520560E-2
 6.457067026800000E9    -5.687546571753471E-1   -1.644701142726362E-1   -8.728494099158310E-3    3.398772178318236E-2   -6.913172582169425E-3    3.404676259243602E-2   -5.317801221556345E-1   -7.489864337600967E-2
 6.457078648600000E9    -5.688809139057796E-1   -1.634801421983319E-1   -8.717716090723823E-3    3.431882840855612E-2   -6.822971375922947E-3    3.423982103756511E-2   -5.319511309302092E-1   -7.364220969217924E-2
 6.457090270400000E9    -5.691252150676668E-1   -1.625978974790558E-1   -8.724231793753347E-3    3.448127962762203E-2   -6.853008608046708E-3    3.447548342143768E-2   -5.321551678185260E-1   -7.229719259948934E-2
 6.457101892200000E9    -5.694555866966934E-1   -1.615192082196593E-1   -8.715360106207853E-3    3.471592158741246E-2   -6.889675743994408E-3    3.462613665839576E-2   -5.321553335722710E-1   -7.119146221518602E-2
 6.457113514000000E9    -5.696908596173530E-1   -1.605211332661674E-1   -8.798416346771301E-3    3.479886813386067E-2   -6.800149887593088E-3    3.472034230428762E-2   -5.323705054650452E-1   -6.994125129865027E-2
 6.457125135800000E9    -5.699829137739316E-1   -1.595452987444466E-1   -8.615674721412213E-3    3.518168172208062E-2   -6.748396446993738E-3    3.504688382025721E-2   -5.326303483611476E-1   -6.877824622553375E-2
 6.457136757600000E9    -5.701744826330544E-1   -1.586296503706950E-1   -8.625445212873747E-3    3.523427585605308E-2   -6.712408145608932E-3    3.530586303154402E-2   -5.326836225686269E-1   -6.751736955605427E-2
 6.457148379400000E9    -5.704153684471892E-1   -1.577048994395844E-1   -8.573608321704739E-3    3.561686231541614E-2   -6.666885904205517E-3    3.546881479104186E-2   -5.328314122155434E-1   -6.610512909797503E-2
 6.457160001200000E9    -5.707581457197618E-1   -1.567367892131813E-1   -8.477627367890584E-3    3.565799350614513E-2   -6.622119978147220E-3    3.556658100069791E-2   -5.330953390616249E-1   -6.484145125714467E-2
 6.457171623000000E9    -5.709445044670753E-1   -1.557259268659534E-1   -8.591560584695724E-3    3.592563745834760E-2   -6.632444388372927E-3    3.591397914873490E-2   -5.332381540684528E-1   -6.365587259799325E-2
 6.457183244800000E9    -5.712240828644689E-1   -1.546572744750352E-1   -8.390405215930836E-3    3.629416737783078E-2   -6.643012128805197E-3    3.607852386588829E-2   -5.332833338153373E-1   -6.239576645723098E-2
 6.457194866600000E9    -5.714522778536533E-1   -1.537902870012280E-1   -8.509372949577381E-3    3.637400906087268E-2   -6.523160811999791E-3    3.628655578618847E-2   -5.333305699893048E-1   -6.126786261586351E-2
 6.457206488400000E9    -5.716914760714128E-1   -1.528043552988025E-1   -8.442716103258576E-3    3.669492525180869E-2   -6.412328588666216E-3    3.651729453806282E-2   -5.335332645101948E-1   -5.988519677701962E-2
 6.457218110200000E9    -5.719356968200855E-1   -1.518039134804862E-1   -8.308789325961493E-3    3.676416463844506E-2   -6.465280801332195E-3    3.667786002057072E-2   -5.336506679702128E-1   -5.876255026172736E-2
 6.457229732000000E9    -5.722557769251492E-1   -1.507393869786033E-1   -8.399561658698491E-3    3.711349354121549E-2   -6.341246400685608E-3    3.690934025022663E-2   -5.338265016432099E-1   -5.713469494287596E-2
 6.457241353800000E9    -5.724408528811830E-1   -1.497357371487107E-1   -8.533061272522950E-3    3.728660080077770E-2   -6.338945658334186E-3    3.718174960460743E-2   -5.340407314445228E-1   -5.604703181955959E-2
 6.457252975600000E9    -5.726802618078084E-1   -1.487685072353608E-1   -8.329020020643379E-3    3.756238619165755E-2   -6.320860252170938E-3    3.736603041276232E-2   -5.339741362683573E-1   -5.479801014435019E-2
 6.457264597400000E9    -5.728436844961754E-1   -1.477751993018120E-1   -8.192454743864010E-3    3.776135525827769E-2   -6.258797813573838E-3    3.759949329026514E-2   -5.342458423400742E-1   -5.344841127902164E-2
 6.457276219200000E9    -5.730841713357524E-1   -1.467583550283826E-1   -8.098915358953972E-3    3.807236662165706E-2   -6.141540029837645E-3    3.793261415203834E-2   -5.343679477646330E-1   -5.206152759493658E-2
 6.457287841000000E9    -5.733261245315948E-1   -1.458061772558062E-1   -8.113677987888255E-3    3.832258088415005E-2   -6.119140185433021E-3    3.807803983416089E-2   -5.344918024080468E-1   -5.071087516180765E-2
 6.457299462800000E9    -5.734904291216794E-1   -1.447053799168416E-1   -8.259070472906407E-3    3.846553052874905E-2   -6.075561304474127E-3    3.829515537221895E-2   -5.345785027680797E-1   -4.947747384010948E-2
 6.457311084600000E9    -5.737165394265528E-1   -1.436526327422771E-1   -8.104350285157561E-3    3.888189899341382E-2   -6.036480184746239E-3    3.852185813350443E-2   -5.346332039274214E-1   -4.822332112710560E-2
 6.457322706400000E9    -5.740062640483117E-1   -1.427463267449874E-1   -8.049840243991423E-3    3.901365804360332E-2   -5.972218307480715E-3    3.883032010621019E-2   -5.348161613347558E-1   -4.694951039407191E-2
 6.457334328200000E9    -5.741888412158979E-1   -1.416694724798038E-1   -8.095483035681099E-3    3.937776795926001E-2   -5.897403552008161E-3    3.906645936083896E-2   -5.349189896883705E-1   -4.553115269731774E-2
 6.457345950000000E9    -5.744665771503040E-1   -1.407465041195262E-1   -7.843685531532564E-3    3.945564621117668E-2   -5.873881888073688E-3    3.928423717786719E-2   -5.350550295373068E-1   -4.413663987597704E-2
 6.457357571800000E9    -5.746485312903967E-1   -1.396409604044173E-1   -7.942695258337077E-3    3.968383902477939E-2   -5.824150036271443E-3    3.954679459821180E-2   -5.350190046104355E-1   -4.282690108527620E-2
 6.457369193600000E9    -5.748717880416816E-1   -1.387693453459113E-1   -7.879101057947650E-3    3.994649780290904E-2   -5.773230670196652E-3    3.979610664248434E-2   -5.352036360788215E-1   -4.148154648982703E-2
 6.457380815400000E9    -5.750353495270806E-1   -1.376468305263679E-1   -7.765957435662794E-3    4.039274975400786E-2   -5.776109786789494E-3    4.020912735641666E-2   -5.353454429679398E-1   -4.014525580770249E-2
 6.457392437200000E9    -5.753093350267585E-1   -1.366720497961300E-1   -7.661542894032014E-3    4.065471564704731E-2   -5.651737460601975E-3    4.046058879767510E-2   -5.354163309300651E-1   -3.876155766204636E-2
 6.457404059000000E9    -5.755671272488202E-1   -1.356848102275073E-1   -7.704507707512295E-3    4.087913957203293E-2   -5.585133673681166E-3    4.055766251680127E-2   -5.353712900630304E-1   -3.733881374143409E-2
 6.457415680800000E9    -5.756266306535701E-1   -1.347209637008344E-1   -7.596130155713711E-3    4.120665498855142E-2   -5.530273095223660E-3    4.096072827197828E-2   -5.356338034101895E-1   -3.617992231916466E-2
 6.457427302600000E9    -5.758653695582812E-1   -1.336400606055176E-1   -7.520765429957361E-3    4.155082732718821E-2   -5.473443934778441E-3    4.124240406428795E-2   -5.354936554304430E-1   -3.461363338686824E-2
 6.457438924400000E9    -5.761209116596765E-1   -1.325157026034119E-1   -7.578575576134805E-3    4.169547312060633E-2   -5.384289913072015E-3    4.138824500016607E-2   -5.355476534779070E-1   -3.331173368913017E-2
 6.457450546200000E9    -5.762844040255640E-1   -1.316003171315527E-1   -7.503284566713397E-3    4.198665086335922E-2   -5.348350979933717E-3    4.168492496679827E-2   -5.356257415824892E-1   -3.184185915208202E-2
 6.457462168000000E9    -5.765602414112050E-1   -1.306178030181035E-1   -7.552724533745471E-3    4.228563883559273E-2   -5.283546452987723E-3    4.198091700288521E-2   -5.358197655136779E-1   -3.057709723831423E-2
 6.457473789800000E9    -5.767021848679673E-1   -1.295504804833748E-1   -7.370321847522322E-3    4.263146428191445E-2   -5.198592231153439E-3    4.231636346969361E-2   -5.357266233489406E-1   -2.913570110698779E-2
 6.457485411600000E9    -5.769387473659853E-1   -1.284325845304050E-1   -7.376958082569412E-3    4.285604822978121E-2   -5.165991852567982E-3    4.263881172492365E-2   -5.359007869780035E-1   -2.765203144546401E-2
 6.457497033400000E9    -5.770767265133370E-1   -1.272931670963125E-1   -7.259523605546800E-3    4.325199146044785E-2   -5.032896073830537E-3    4.287133833020334E-2   -5.359716001147833E-1   -2.632453008894653E-2
 6.457508655200000E9    -5.773176371271354E-1   -1.263564437733747E-1   -7.166924352538326E-3    4.345992473731523E-2   -5.013479889406994E-3    4.318036804644872E-2   -5.360085319765329E-1   -2.484614667582516E-2
 6.457520277000000E9    -5.774678555159859E-1   -1.252215848690454E-1   -7.117814104090067E-3    4.372028872349299E-2   -4.901024593736304E-3    4.340166674101734E-2   -5.360394106024811E-1   -2.343791859646465E-2
 6.457531898800000E9    -5.776715739364077E-1   -1.242921191980073E-1   -7.087613609501028E-3    4.420191698559330E-2   -4.897255041556303E-3    4.371980517264330E-2   -5.360905604367822E-1   -2.208652987902555E-2
 6.457543520600000E9    -5.777602949085036E-1   -1.232986154672708E-1   -7.192294298706181E-3    4.427602121113038E-2   -4.648465074843319E-3    4.402902771176422E-2   -5.360427207252878E-1   -2.055514975665679E-2
 6.457555142400000E9    -5.779481420226524E-1   -1.221566933349634E-1   -6.856624455058690E-3    4.475201941367075E-2   -4.684461104953520E-3    4.441087526307220E-2   -5.362266537258507E-1   -1.900987428300564E-2
 6.457566764200000E9    -5.782704273506662E-1   -1.211896714559351E-1   -6.809663261495775E-3    4.509704275305237E-2   -4.521217177693308E-3    4.470479162144619E-2   -5.361658993747994E-1   -1.774604373303210E-2
 6.457578386000000E9    -5.783321004652100E-1   -1.200349458623756E-1   -6.751366840262692E-3    4.537162178148211E-2   -4.448308139539286E-3    4.497212475609642E-2   -5.361616651002021E-1   -1.628941860385266E-2
 6.457590007800000E9    -5.784871646880596E-1   -1.190554001188354E-1   -6.656127459691865E-3    4.579525457936118E-2   -4.408949039734161E-3    4.527978427851122E-2   -5.360666582043323E-1   -1.467340612444751E-2
 6.457601629600000E9    -5.787585496845399E-1   -1.179819203801925E-1   -6.790121077651063E-3    4.608971478054023E-2   -4.326712355736417E-3    4.568740501613606E-2   -5.362201380704141E-1   -1.333320219599217E-2
 6.457613251400000E9    -5.788408224676461E-1   -1.169951356244989E-1   -6.559818099754209E-3    4.640377737685609E-2   -4.296238780297047E-3    4.598056040021235E-2   -5.360761370675950E-1   -1.180175086736918E-2
 6.457624873200000E9    -5.790641883296889E-1   -1.158970510318092E-1   -6.498078005175603E-3    4.682457793978956E-2   -4.166592203283801E-3    4.627530255586249E-2   -5.363174573349373E-1   -1.033784066101633E-2
 6.457636495000000E9    -5.791928176658039E-1   -1.147388365528286E-1   -6.393195746544161E-3    4.712376989939566E-2   -4.041716387047619E-3    4.668850280886005E-2   -5.362067917060432E-1   -8.774248478096254E-3
 6.457648116800000E9    -5.793692042681731E-1   -1.137395494688917E-1   -6.470091973882799E-3    4.746018282994742E-2   -4.023700280413526E-3    4.695129230500618E-2   -5.361731231642133E-1   -7.193012529569874E-3
 6.457659738600000E9    -5.794275708680324E-1   -1.125950081156111E-1   -6.297698049133720E-3    4.787482039441873E-2   -3.963754926399108E-3    4.731973158313894E-2   -5.359941117077279E-1   -5.584193830842981E-3
 6.457671360400000E9    -5.796916519277678E-1   -1.116249135023777E-1   -6.144764816120651E-3    4.822537822619002E-2   -3.809997363920549E-3    4.777964938383859E-2   -5.361634170921320E-1   -4.213373454480559E-3
 6.457682982200000E9    -5.798549542403865E-1   -1.105585360515922E-1   -6.118980862664966E-3    4.843797098853444E-2   -3.638958356308139E-3    4.807392096307585E-2   -5.361240429656252E-1   -2.748936725052511E-3
 6.457694604000000E9    -5.799143936525167E-1   -1.094099035876759E-1   -6.082097547809868E-3    4.890854321444029E-2   -3.581779579718362E-3    4.847018101038015E-2   -5.360282044933570E-1   -1.092980610971741E-3
 6.457706225800000E9    -5.800943754460540E-1   -1.084225754176846E-1   -6.061053364099672E-3    4.932916651440222E-2   -3.446363204582745E-3    4.864122529259215E-2   -5.360250784842466E-1    4.814601109238807E-4
 6.457717847600000E9    -5.803147721974765E-1   -1.072574082553676E-1   -5.864617371583364E-3    4.982257060366807E-2   -3.278238854642018E-3    4.906372459962092E-2   -5.360056302932387E-1    2.057362211260560E-3
 6.457729469400000E9    -5.805066292002773E-1   -1.061459051374281E-1   -5.771735804991746E-3    5.021386637558568E-2   -3.235267420233717E-3    4.955005599245509E-2   -5.359516381284902E-1    3.582464053446459E-3
 6.457741091200000E9    -5.805151332486279E-1   -1.051150697999326E-1   -5.683682829147651E-3    5.045814514345503E-2   -3.188337332339455E-3    4.996875395134930E-2   -5.357817341598557E-1    5.254334693387458E-3
 6.457752713000000E9    -5.806910066483006E-1   -1.039421373251560E-1   -5.537918414862797E-3    5.095754217482615E-2   -2.904052763631708E-3    5.034944767783516E-2   -5.357994961528906E-1    6.815235507320506E-3
 6.457764334800000E9    -5.808011132456278E-1   -1.029519084513770E-1   -5.441143580808393E-3    5.126453352173969E-2   -2.950560648490329E-3    5.059744555858012E-2   -5.357688094829620E-1    8.380558818336426E-3
 6.457775956600000E9    -5.809690339713617E-1   -1.018440937158589E-1   -5.370133655490520E-3    5.171248708542120E-2   -2.826994997558546E-3    5.104030969119529E-2   -5.357589703932626E-1    9.902654884163585E-3
 6.457787578400000E9    -5.810651379371670E-1   -1.006784265416783E-1   -5.305057158785481E-3    5.205881425667219E-2   -2.548480898338596E-3    5.153232685132631E-2   -5.355993272237463E-1    1.176566920583467E-2
 6.457799200200000E9    -5.812811877995291E-1   -9.953562309884678E-2   -5.239243542520878E-3    5.252806740853796E-2   -2.630143091036884E-3    5.185461067835940E-2   -5.354026392426942E-1    1.331529083978362E-2
 6.457810822000000E9    -5.813626170899182E-1   -9.842463271920095E-2   -5.123004535073140E-3    5.293093697279769E-2   -2.513522616699714E-3    5.235123287791137E-2   -5.353811413574175E-1    1.491668105168499E-2
 6.457822443800000E9    -5.815436938037374E-1   -9.737290601447318E-2   -4.928555137333944E-3    5.345118807393654E-2   -2.236262183892117E-3    5.277184239185873E-2   -5.353770970547890E-1    1.677002802366256E-2
 6.457834065600000E9    -5.816427650900725E-1   -9.624543507788523E-2   -4.803378553078062E-3    5.393663532631924E-2   -2.135576070153980E-3    5.311937181931144E-2   -5.351768685552132E-1    1.836522592986116E-2
 6.457845687400000E9    -5.816966856983790E-1   -9.512040960638057E-2   -4.764264209522666E-3    5.430071277634547E-2   -1.936001700270187E-3    5.360897121411941E-2   -5.350021476997906E-1    2.001805332239930E-2
 6.457857309200000E9    -5.818345858658496E-1   -9.400209701963290E-2   -4.509452349190674E-3    5.492249473934255E-2   -1.836953975683691E-3    5.407293001593520E-2   -5.350095379794820E-1    2.173449233412506E-2
 6.457868931000000E9    -5.818765542676814E-1   -9.291691234484310E-2   -4.561772964432989E-3    5.525009292006796E-2   -1.730539419376731E-3    5.454218056803967E-2   -5.347784928357456E-1    2.352082669001533E-2
 6.457880552800000E9    -5.820798767481389E-1   -9.170284710393196E-2   -4.421617226413282E-3    5.571618978293455E-2   -1.574658934112587E-3    5.502927498054019E-2   -5.346615252905482E-1    2.530163493012684E-2
 6.457892174600000E9    -5.821365742909052E-1   -9.060858185102826E-2   -4.190148768803361E-3    5.622292142432569E-2   -1.416820008888274E-3    5.539954544387440E-2   -5.344980774305247E-1    2.690308458907836E-2
 6.457903796400000E9    -5.822305362755129E-1   -8.953654712952082E-2   -3.909546567319910E-3    5.672343704686094E-2   -1.248685822385572E-3    5.592615535689408E-2   -5.343367431982163E-1    2.871428166516731E-2
 6.457915418200000E9    -5.824446119052658E-1   -8.828264503501453E-2   -3.888734826071021E-3    5.711711598126835E-2   -1.104321450580547E-3    5.644243516016668E-2   -5.341650833821266E-1    3.051908888510943E-2
 6.457927040000000E9    -5.824924303869449E-1   -8.720028789108343E-2   -3.651453711518416E-3    5.755283745914832E-2   -9.197100802868065E-4    5.690089702440885E-2   -5.338664899653581E-1    3.209076144360478E-2
 6.457938661800000E9    -5.826158139594529E-1   -8.601777591582080E-2   -3.501366081120302E-3    5.826629142399340E-2   -8.390537537013658E-4    5.726533872727425E-2   -5.338033057026843E-1    3.396084519650266E-2
 6.457950283600000E9    -5.827586258782597E-1   -8.497203293983416E-2   -3.424845495614600E-3    5.868428709723915E-2   -6.058444776280924E-4    5.781158164505205E-2   -5.336466833549757E-1    3.589912924662698E-2
 6.457961905400000E9    -5.826736849616931E-1   -8.364461814663679E-2   -3.202227354221997E-3    5.926044359732788E-2   -4.138167202057707E-4    5.833379476136475E-2   -5.332473852506442E-1    3.766377251997820E-2
 6.457973527200000E9    -5.827182290536412E-1   -8.254538857522310E-2   -3.008879328488710E-3    5.979958339648635E-2   -2.238167629569927E-4    5.891009215314710E-2   -5.332461189840941E-1    3.946582790032519E-2
 6.457985149000000E9    -5.827748174464970E-1   -8.137150103398702E-2   -2.820775404825960E-3    6.033659724398372E-2   -9.133555568728258E-5    5.936851912005743E-2   -5.328693738944361E-1    4.155445122218244E-2
