#  HZ   S   RI   R     50.00 
! Rohde & Schwarz Vector Network Analyzer 
! Rohde-Schwarz,ZNB20-2Port,1311601062101988,3.16
! Created: UTC 3/20/2024, 11:11:06 PM
! freq[Hz]                re:S11                  im:S11                  re:S21                  im:S21                  re:S12                  im:S12                  re:S22                  im:S22
 6.456939354000000E9    -5.657710021937071E-1   -1.751552312241559E-1   -9.135288062174809E-3    3.189298555009208E-2   -7.253532651580152E-3    3.193809530979389E-2   -5.297893557188860E-1   -8.814906656820512E-2
 6.456950979825000E9    -5.659951705609068E-1   -1.742141070801959E-1   -9.043199860838798E-3    3.210108259951865E-2   -7.326991146197919E-3    3.212989491112392E-2   -5.299514474002828E-1   -8.685264404368197E-2
 6.456962605650000E9    -5.664268588814539E-1   -1.731297455531186E-1   -9.063676585225966E-3    3.221988601460273E-2   -7.340279276419968E-3    3.240842889684031E-2   -5.299979459474562E-1   -8.574126765628734E-2
 6.456974231475000E9    -5.665681319577207E-1   -1.721271115723946E-1   -9.042100170000259E-3    3.249783756656451E-2   -7.174105645569290E-3    3.244568150155933E-2   -5.302338246494136E-1   -8.455326955799539E-2
 6.456985857300000E9    -5.669248887324785E-1   -1.712594953777979E-1   -8.955690806481498E-3    3.274033336919288E-2   -7.213196488513307E-3    3.271020839595869E-2   -5.305570883096289E-1   -8.332144527071177E-2
 6.456997483125000E9    -5.671480118162988E-1   -1.702246787412004E-1   -8.889949167647399E-3    3.295433852937519E-2   -7.135085236408246E-3    3.279895262399857E-2   -5.306262077602335E-1   -8.226615092669427E-2
 6.457009108950000E9    -5.673528942624959E-1   -1.693493317570988E-1   -8.939992157055428E-3    3.308045030649232E-2   -7.085430251341077E-3    3.291526525600542E-2   -5.309049808185989E-1   -8.098273418436901E-2
 6.457020734775000E9    -5.677373672407078E-1   -1.683451203138355E-1   -8.826856497430431E-3    3.325150824234229E-2   -7.152853640097590E-3    3.326802803599103E-2   -5.311284643095286E-1   -7.985130431771344E-2
 6.457032360600000E9    -5.677929279598545E-1   -1.673894763873141E-1   -8.886633311272407E-3    3.342267431145935E-2   -7.050193121992781E-3    3.346133983317714E-2   -5.311774917481176E-1   -7.851766881379277E-2
 6.457043986425000E9    -5.682400917396768E-1   -1.664355643430108E-1   -8.880792229935760E-3    3.357585348927111E-2   -7.031643278918085E-3    3.360673922578163E-2   -5.314389193007459E-1   -7.719884144896676E-2
 6.457055612250000E9    -5.684759790200261E-1   -1.653926584690880E-1   -8.897370265929244E-3    3.368881662662424E-2   -7.057178706241245E-3    3.377324171113421E-2   -5.316182823273108E-1   -7.592272590332080E-2
 6.457067238075000E9    -5.687756314731481E-1   -1.645581859249465E-1   -8.754438213191849E-3    3.409392671990335E-2   -7.027875364446597E-3    3.402418768297007E-2   -5.316540325532186E-1   -7.488777757561359E-2
 6.457078863900000E9    -5.690707777029463E-1   -1.635184063380261E-1   -8.706256272215994E-3    3.418012393111235E-2   -6.898833886067319E-3    3.415661762178552E-2   -5.318872349829572E-1   -7.369231954214690E-2
 6.457090489725000E9    -5.692150774767363E-1   -1.625569547634193E-1   -8.621427591778742E-3    3.444401362821547E-2   -6.982071033791055E-3    3.434621906196583E-2   -5.320571389668979E-1   -7.228137084924167E-2
 6.457102115550000E9    -5.695055219154685E-1   -1.615130081262752E-1   -8.571603214203218E-3    3.465244995740229E-2   -6.798208559119357E-3    3.465102502582867E-2   -5.323241604803348E-1   -7.101842865944169E-2
 6.457113741375000E9    -5.697926509310615E-1   -1.605961792722719E-1   -8.628605401383655E-3    3.483496368886625E-2   -6.825917996876631E-3    3.486992428652359E-2   -5.323587804879543E-1   -6.987936981063925E-2
 6.457125367200000E9    -5.699953796451389E-1   -1.596204369114280E-1   -8.664444854153240E-3    3.503862000691880E-2   -6.759240398243278E-3    3.494470582058580E-2   -5.325372297912617E-1   -6.863714499363141E-2
 6.457136993025000E9    -5.702491198318400E-1   -1.585807491643191E-1   -8.691122315992728E-3    3.530441128390258E-2   -6.789076488028255E-3    3.522939995729078E-2   -5.326407665480962E-1   -6.742093605816789E-2
 6.457148618850000E9    -5.705624304856346E-1   -1.576804444014053E-1   -8.492488057682870E-3    3.552053655694968E-2   -6.634845303944659E-3    3.535458694239221E-2   -5.328827006494998E-1   -6.617670257395360E-2
 6.457160244675000E9    -5.707370558493801E-1   -1.565552875678918E-1   -8.640664444937123E-3    3.568350765374993E-2   -6.675417430217430E-3    3.565534310591026E-2   -5.331328489236224E-1   -6.491385207864228E-2
 6.457171870500000E9    -5.710050612101774E-1   -1.556667061201705E-1   -8.454563238943499E-3    3.611385674089294E-2   -6.567026071613925E-3    3.578281418345237E-2   -5.332621302705213E-1   -6.364862554269590E-2
 6.457183496325000E9    -5.713193375087606E-1   -1.546020404401467E-1   -8.519363991232350E-3    3.625765187953631E-2   -6.566752780298469E-3    3.604500378603185E-2   -5.331770685484152E-1   -6.232414553840063E-2
 6.457195122150000E9    -5.714733257465936E-1   -1.537365339407019E-1   -8.515963230257625E-3    3.632381455214057E-2   -6.497939020381115E-3    3.627503948804868E-2   -5.335636199447140E-1   -6.107114257078328E-2
 6.457206747975000E9    -5.716809970489928E-1   -1.527669052471785E-1   -8.407732410232545E-3    3.659833610481566E-2   -6.450419444252441E-3    3.651134835588544E-2   -5.335889788216482E-1   -5.999692763412272E-2
 6.457218373800000E9    -5.719307973631075E-1   -1.517170882534126E-1   -8.437359079971545E-3    3.680782717093040E-2   -6.429122841541856E-3    3.668929778983467E-2   -5.336933992664581E-1   -5.863395258826841E-2
 6.457229999625000E9    -5.721891279394662E-1   -1.507160593418662E-1   -8.335798927938065E-3    3.697503582821458E-2   -6.321305584601583E-3    3.686374630604403E-2   -5.337129920126197E-1   -5.740638495994085E-2
 6.457241625450000E9    -5.723751647206804E-1   -1.497580872731396E-1   -8.334663227880987E-3    3.736760555892361E-2   -6.415844534628121E-3    3.712438949777124E-2   -5.340896877726310E-1   -5.600534088777362E-2
 6.457253251275000E9    -5.726313641456051E-1   -1.488000898290469E-1   -8.310941737175977E-3    3.751822283028923E-2   -6.301282547632502E-3    3.739245067283611E-2   -5.340702972736853E-1   -5.466158181347178E-2
 6.457264877100000E9    -5.728591061576985E-1   -1.476977261454966E-1   -8.249903934822844E-3    3.772602183611835E-2   -6.188376017241217E-3    3.771050320011377E-2   -5.341389440968434E-1   -5.338725484479243E-2
 6.457276502925000E9    -5.731591207551607E-1   -1.467026965078095E-1   -8.172345783594092E-3    3.803747590074186E-2   -6.172363478732937E-3    3.794511730849317E-2   -5.343248632372566E-1   -5.204826712580034E-2
 6.457288128750000E9    -5.733161350436049E-1   -1.457265887521854E-1   -8.173632380352808E-3    3.827942529996697E-2   -6.169328092410028E-3    3.805014347527693E-2   -5.344829513139420E-1   -5.081891863087980E-2
 6.457299754575000E9    -5.735830054248715E-1   -1.447698615384052E-1   -7.976114873013907E-3    3.852261205690666E-2   -6.109767077611444E-3    3.831883176528886E-2   -5.344926550154462E-1   -4.938249835016410E-2
 6.457311380400000E9    -5.737323414158548E-1   -1.437244577483043E-1   -8.138300640267160E-3    3.872442477400662E-2   -6.030278814387938E-3    3.857389810558071E-2   -5.347596546731794E-1   -4.820180263792836E-2
 6.457323006225000E9    -5.740974427741010E-1   -1.426968907362975E-1   -8.090442128716754E-3    3.899656370135805E-2   -6.006721048242543E-3    3.883712727688553E-2   -5.347606989762265E-1   -4.682404958484089E-2
 6.457334632050000E9    -5.741197021694466E-1   -1.416512213926792E-1   -7.975883522430586E-3    3.926480839638732E-2   -5.953352380366326E-3    3.907740871209853E-2   -5.347503241243378E-1   -4.550330112479760E-2
 6.457346257875000E9    -5.744165716692560E-1   -1.406516191528457E-1   -7.950269044088406E-3    3.949508191375297E-2   -5.734322183193607E-3    3.931866362566769E-2   -5.349825997806986E-1   -4.417577452170464E-2
 6.457357883700000E9    -5.745812572047223E-1   -1.397161332234444E-1   -8.057249269948153E-3    3.979842064299207E-2   -5.838814155101658E-3    3.959784307931181E-2   -5.350414848487872E-1   -4.290290403589085E-2
 6.457369509525000E9    -5.747678434576160E-1   -1.386579072254826E-1   -7.929525239124827E-3    4.011931116319136E-2   -5.766231873718131E-3    3.985979291628328E-2   -5.351289539631263E-1   -4.145379345528193E-2
 6.457381135350000E9    -5.751795707229388E-1   -1.376868855007512E-1   -7.808604829797604E-3    4.012496674711930E-2   -5.704513813699453E-3    4.009973278195813E-2   -5.352190613937504E-1   -4.011254374423257E-2
 6.457392761175000E9    -5.752474620378312E-1   -1.365409700254524E-1   -7.947773775100964E-3    4.074322747177421E-2   -5.616921666495761E-3    4.033437480476936E-2   -5.354110843437839E-1   -3.884621620368538E-2
 6.457404387000000E9    -5.754973747807002E-1   -1.355852508312096E-1   -7.661333294167587E-3    4.085121645211009E-2   -5.639270392751338E-3    4.070262943370104E-2   -5.352649339397025E-1   -3.741953929697978E-2
 6.457416012825000E9    -5.756648571428444E-1   -1.346018371133186E-1   -7.601847229621478E-3    4.119602045695142E-2   -5.559892074799782E-3    4.094217923195324E-2   -5.354674841475812E-1   -3.606051571378788E-2
 6.457427638650000E9    -5.757401276031449E-1   -1.335663416380863E-1   -7.539400303455086E-3    4.147029274138211E-2   -5.414230337318268E-3    4.110334199710079E-2   -5.356064202099436E-1   -3.471896016579085E-2
 6.457439264475000E9    -5.760240799637705E-1   -1.325557490618973E-1   -7.486957265558114E-3    4.173412769801159E-2   -5.339598449855057E-3    4.137448180740348E-2   -5.356506907675398E-1   -3.331810915534242E-2
 6.457450890300000E9    -5.762814503303085E-1   -1.315375786337168E-1   -7.360514525494264E-3    4.199432098155981E-2   -5.270292731257178E-3    4.163226448886204E-2   -5.356647130872662E-1   -3.203898369923674E-2
 6.457462516125000E9    -5.765642933064056E-1   -1.304515084902000E-1   -7.525748822464382E-3    4.226040032497354E-2   -5.278623582963397E-3    4.190465360032285E-2   -5.358620591077259E-1   -3.058388379847313E-2
 6.457474141950000E9    -5.766040401555144E-1   -1.294574640641557E-1   -7.309056889561215E-3    4.260735878466544E-2   -5.180503823528829E-3    4.235189344356088E-2   -5.358367071967015E-1   -2.919666523817733E-2
 6.457485767775000E9    -5.768916831353228E-1   -1.284329435506511E-1   -7.403638758440953E-3    4.295384183534846E-2   -5.161131867556486E-3    4.255720158852069E-2   -5.359289188596378E-1   -2.779306001580116E-2
 6.457497393600000E9    -5.770562969043094E-1   -1.273683957672347E-1   -7.235053106537256E-3    4.328792496294215E-2   -5.001785756779655E-3    4.281003641942276E-2   -5.359915931615560E-1   -2.626078643789056E-2
 6.457509019425000E9    -5.773713823526163E-1   -1.263841150995424E-1   -7.314299768950604E-3    4.340721950414888E-2   -5.014156112715449E-3    4.315202170689601E-2   -5.359921792538865E-1   -2.494194724664166E-2
 6.457520645250000E9    -5.774709846003568E-1   -1.253080447818007E-1   -7.210868979063739E-3    4.392053862132015E-2   -4.827558980999918E-3    4.349273434103993E-2   -5.360857579683040E-1   -2.345738444610218E-2
 6.457532271075000E9    -5.775803454377200E-1   -1.242629587914771E-1   -7.083317422780800E-3    4.411995049580082E-2   -4.788768359751020E-3    4.373814910017122E-2   -5.360282456811579E-1   -2.206829650742136E-2
 6.457543896900000E9    -5.778348776727774E-1   -1.232505983671853E-1   -7.046883067372892E-3    4.458381313995324E-2   -4.716668641879000E-3    4.409799591636388E-2   -5.361197349809053E-1   -2.052774313070871E-2
 6.457555522725000E9    -5.779818626369989E-1   -1.221026729693767E-1   -6.933999588544350E-3    4.466310646644443E-2   -4.669127713243851E-3    4.443715389151320E-2   -5.361254144926064E-1   -1.899827743523342E-2
 6.457567148550000E9    -5.782789456604520E-1   -1.211891419156816E-1   -6.848010799393258E-3    4.505759384986702E-2   -4.537798164872446E-3    4.466957133721059E-2   -5.361242295780974E-1   -1.766431281059815E-2
 6.457578774375000E9    -5.783287922712633E-1   -1.200894677161662E-1   -6.826922425154910E-3    4.542788864027427E-2   -4.491086121970220E-3    4.491985847138007E-2   -5.361881338981147E-1   -1.620576817214708E-2
 6.457590400200000E9    -5.785412271659067E-1   -1.190148630875128E-1   -6.654400574746901E-3    4.574555493608293E-2   -4.348387666706275E-3    4.527964598174086E-2   -5.362211989026511E-1   -1.467270097095143E-2
 6.457602026025000E9    -5.787842013924382E-1   -1.179234316441298E-1   -6.622630632826757E-3    4.604543261809672E-2   -4.308160212070163E-3    4.565136142649052E-2   -5.361674910021348E-1   -1.319829182144003E-2
 6.457613651850000E9    -5.790054286389522E-1   -1.168263963625989E-1   -6.753077581508422E-3    4.649565242113132E-2   -4.287273937146546E-3    4.600163147859251E-2   -5.361362317377396E-1   -1.172052236885005E-2
 6.457625277675000E9    -5.790422616116878E-1   -1.158289418625036E-1   -6.465422676829920E-3    4.663993955692660E-2   -4.169791390800734E-3    4.625973977613921E-2   -5.361414222650923E-1   -1.021558891775705E-2
 6.457636903500000E9    -5.792170855569050E-1   -1.146971342154768E-1   -6.417800501226465E-3    4.710965040315437E-2   -4.092620074635146E-3    4.661232462875314E-2   -5.361971758840908E-1   -8.793707833441997E-3
 6.457648529325000E9    -5.792575988551011E-1   -1.137633677761828E-1   -6.456201958470790E-3    4.753705070191336E-2   -3.978876938177963E-3    4.706672774618158E-2   -5.360998430946717E-1   -7.208805169074782E-3
 6.457660155150000E9    -5.796142767752279E-1   -1.125864482414206E-1   -6.239790353332387E-3    4.771642845553605E-2   -3.822329095952912E-3    4.730377379122250E-2   -5.362188554334981E-1   -5.713461892862597E-3
 6.457671780975000E9    -5.796916280463142E-1   -1.116052245249221E-1   -6.256272048417233E-3    4.824106936637180E-2   -3.706648735972280E-3    4.774943461523776E-2   -5.360130572767309E-1   -4.106173319862248E-3
 6.457683406800000E9    -5.798719959191861E-1   -1.103883089829544E-1   -6.156161365144210E-3    4.859594769827039E-2   -3.698936321891695E-3    4.805834836448807E-2   -5.361927413450887E-1   -2.539822874208357E-3
 6.457695032625000E9    -5.801054268198977E-1   -1.093216527245883E-1   -6.030101357404224E-3    4.899558268832738E-2   -3.669148745472413E-3    4.840305972877686E-2   -5.361008826034818E-1   -9.549656702079464E-4
 6.457706658450000E9    -5.801858350932212E-1   -1.082933907729219E-1   -5.912414368827195E-3    4.927848304251417E-2   -3.464909395093121E-3    4.881252500596862E-2   -5.360489490460464E-1    5.414570738791792E-4
 6.457718284275000E9    -5.803472884855105E-1   -1.072133355419762E-1   -5.838356130555930E-3    4.966431968546139E-2   -3.374547368439260E-3    4.916213854063284E-2   -5.360145866502254E-1    2.087210867276099E-3
 6.457729910100000E9    -5.804987104492864E-1   -1.061592621014364E-1   -5.899392254463997E-3    5.014937137427121E-2   -3.265544563609650E-3    4.945697433306438E-2   -5.360373953532949E-1    3.586540200860195E-3
 6.457741535925000E9    -5.805600402253646E-1   -1.051902664223502E-1   -5.630437396200494E-3    5.060375206929334E-2   -3.093120284205098E-3    4.994959954727540E-2   -5.358981241618180E-1    5.128937449294529E-3
 6.457753161750000E9    -5.807008278594677E-1   -1.040127000566924E-1   -5.590627457003534E-3    5.095193983782238E-2   -2.901175255173668E-3    5.034703500199652E-2   -5.357848957561554E-1    6.879470787166738E-3
 6.457764787575000E9    -5.808074852518849E-1   -1.028146106808200E-1   -5.447696501550296E-3    5.131725577485889E-2   -2.825110855188165E-3    5.060530912579764E-2   -5.357275842605689E-1    8.430030937144659E-3
 6.457776413400000E9    -5.810323724941425E-1   -1.016612152434693E-1   -5.348726080227069E-3    5.169904233751051E-2   -2.800697869288234E-3    5.107217288310904E-2   -5.356385237976814E-1    1.003993872835557E-2
 6.457788039225000E9    -5.812265803452992E-1   -1.006514389420755E-1   -5.315801608065239E-3    5.215720837120506E-2   -2.686363740714603E-3    5.157685104885009E-2   -5.355312947544658E-1    1.175851873607092E-2
 6.457799665050000E9    -5.813355914190872E-1   -9.958170501645330E-2   -5.096652489437063E-3    5.245480961780753E-2   -2.503157866240280E-3    5.193068373227623E-2   -5.354346833019609E-1    1.331744275033106E-2
 6.457811290875000E9    -5.813599891962659E-1   -9.841804428884661E-2   -5.002771877131228E-3    5.298432358680296E-2   -2.350828826869588E-3    5.240814755164769E-2   -5.355147294348975E-1    1.503946476981395E-2
 6.457822916700000E9    -5.814368548629291E-1   -9.736321545453014E-2   -4.896587338927084E-3    5.347326718363036E-2   -2.283990425137451E-3    5.273766958836421E-2   -5.353475318411891E-1    1.661188987056062E-2
 6.457834542525000E9    -5.815511542125609E-1   -9.618777829017812E-2   -4.759987661099221E-3    5.392856936123473E-2   -2.152913324155334E-3    5.310856427829311E-2   -5.351074620458923E-1    1.846596376849106E-2
 6.457846168350000E9    -5.817414209331988E-1   -9.505361535466739E-2   -4.577647501274145E-3    5.436188303653778E-2   -1.957518411411091E-3    5.367231125730366E-2   -5.350414986458208E-1    2.007320827699746E-2
 6.457857794175000E9    -5.818466932896330E-1   -9.392516910824696E-2   -4.524243732820650E-3    5.474474657053371E-2   -1.755313213487786E-3    5.399320578347686E-2   -5.350379504740158E-1    2.179211362931436E-2
 6.457869420000000E9    -5.819195092949154E-1   -9.276586302879837E-2   -4.625477303955392E-3    5.518297503648684E-2   -1.711380271987733E-3    5.450979351311199E-2   -5.348770637623128E-1    2.358646754843274E-2
 6.457881045825000E9    -5.819609945439722E-1   -9.174157796351805E-2   -4.313265203908533E-3    5.562009157387281E-2   -1.500154706983189E-3    5.490540712015881E-2   -5.347265867024676E-1    2.520917608940370E-2
 6.457892671650000E9    -5.821944044840911E-1   -9.055652358351049E-2   -4.134741429571868E-3    5.625383458852727E-2   -1.364894961080323E-3    5.545620117413776E-2   -5.343887533702871E-1    2.703699679159742E-2
 6.457904297475000E9    -5.822013601567883E-1   -8.951600761435499E-2   -4.013138306800769E-3    5.670749913947237E-2   -1.317343513949529E-3    5.583521099604105E-2   -5.343918528868684E-1    2.862953488394757E-2
 6.457915923300000E9    -5.823626965290718E-1   -8.829802695446823E-2   -3.864379058015747E-3    5.723229159330854E-2   -1.056956478217734E-3    5.633566433252719E-2   -5.341983710578613E-1    3.045420860971342E-2
 6.457927549125000E9    -5.824194493724576E-1   -8.713981783804052E-2   -3.758899882949681E-3    5.765970585240694E-2   -9.244581837125438E-4    5.680617125101988E-2   -5.340760415905754E-1    3.214257789668046E-2
 6.457939174950000E9    -5.825067052203338E-1   -8.602191047972005E-2   -3.566114606564402E-3    5.820729705700895E-2   -7.579119370649277E-4    5.734307815190023E-2   -5.338333593244559E-1    3.408136617660137E-2
 6.457950800775000E9    -5.826934525187992E-1   -8.481390178927053E-2   -3.547453420615185E-3    5.884121274500007E-2   -6.341020768236396E-4    5.778359583034222E-2   -5.337242648761291E-1    3.582012590262118E-2
 6.457962426600000E9    -5.827421202697899E-1   -8.366795773842306E-2   -3.335494170573862E-3    5.933404577210719E-2   -4.104519985809342E-4    5.829247540583810E-2   -5.333137576089358E-1    3.768829203839785E-2
 6.457974052425000E9    -5.826741866566510E-1   -8.257445998540142E-2   -3.173894094673127E-3    5.972846978567776E-2   -2.460454414712989E-4    5.880496373560293E-2   -5.332223139854213E-1    3.956500018043933E-2
 6.457985678250000E9    -5.828370136958470E-1   -8.133119913985547E-2   -3.023746563894444E-3    6.035604783485760E-2   -4.086260652895354E-5    5.943304706155991E-2   -5.328584473117824E-1    4.132673711593488E-2
