#  HZ   S   RI   R     50.00 
! Rohde & Schwarz Vector Network Analyzer 
! Rohde-Schwarz,ZNB20-2Port,1311601062101988,3.16
! Created: UTC 3/20/2024, 10:53:56 PM
! freq[Hz]                re:S11                  im:S11                  re:S21                  im:S21                  re:S12                  im:S12                  re:S22                  im:S22
 6.457070173000000E9    -5.679835009215656E-1   -1.663520321530688E-1   -8.573401822702378E-3    3.322154049695335E-2   -6.883303413507446E-3    3.312405882797301E-2   -5.349596148386188E-1   -7.556292182286367E-2
 6.457081433050000E9    -5.682597854501155E-1   -1.654253801248401E-1   -8.687660473495503E-3    3.359911520534112E-2   -6.773277564652607E-3    3.345249266368894E-2   -5.352728609160216E-1   -7.444060482534269E-2
 6.457092693100000E9    -5.685039900516865E-1   -1.645600863213448E-1   -8.548223596566996E-3    3.360914459684898E-2   -6.875834748765766E-3    3.354427280912332E-2   -5.353480435449264E-1   -7.319214580700627E-2
 6.457103953150000E9    -5.688261465696715E-1   -1.635666779516449E-1   -8.526845994500301E-3    3.377719635216991E-2   -6.807479904233643E-3    3.372353688133053E-2   -5.355564033654591E-1   -7.186683601830443E-2
 6.457115213200000E9    -5.690141735505894E-1   -1.626452875632809E-1   -8.480083493023602E-3    3.391098820011185E-2   -6.716269757913464E-3    3.396544083522633E-2   -5.357155304703105E-1   -7.084586805685683E-2
 6.457126473250000E9    -5.692492751338145E-1   -1.617584592662289E-1   -8.579570489201138E-3    3.422948702727281E-2   -6.687767321748465E-3    3.412444211904545E-2   -5.357451535235542E-1   -6.974108392598555E-2
 6.457137733300000E9    -5.694175658549755E-1   -1.607084344530351E-1   -8.521651780056644E-3    3.440334499191720E-2   -6.564999024303344E-3    3.427508812122688E-2   -5.359229762481322E-1   -6.855448515444543E-2
 6.457148993350000E9    -5.698597047095270E-1   -1.597729808153091E-1   -8.420784176647794E-3    3.463686437103860E-2   -6.700343178812471E-3    3.446511182252950E-2   -5.360197107266654E-1   -6.733342717203510E-2
 6.457160253400000E9    -5.698984809678197E-1   -1.588236669033832E-1   -8.428366287018031E-3    3.477916708440902E-2   -6.603517962781707E-3    3.469647884509319E-2   -5.361761052341134E-1   -6.611245707359563E-2
 6.457171513450000E9    -5.701973450709783E-1   -1.579095063408262E-1   -8.401457012661130E-3    3.503165362596075E-2   -6.505130572813450E-3    3.486817965924982E-2   -5.363412032839507E-1   -6.482976772756587E-2
 6.457182773500000E9    -5.705613780406376E-1   -1.568998090229302E-1   -8.391805703923082E-3    3.519750452365755E-2   -6.550869729882959E-3    3.505476742177841E-2   -5.364050929317155E-1   -6.365500300120046E-2
 6.457194033550000E9    -5.707708193368349E-1   -1.558721686028143E-1   -8.266060398151261E-3    3.547718751205302E-2   -6.540565317818153E-3    3.526249195644898E-2   -5.365712264703926E-1   -6.240503353305191E-2
 6.457205293600000E9    -5.709325003563235E-1   -1.551442265711651E-1   -8.411868549970024E-3    3.548012993209316E-2   -6.448521076966864E-3    3.543005481799733E-2   -5.368866427918962E-1   -6.133145758639454E-2
 6.457216553650000E9    -5.712148268424957E-1   -1.540704937735941E-1   -8.376837015312989E-3    3.580367599134521E-2   -6.357548723309731E-3    3.572461621814122E-2   -5.369800225680056E-1   -6.004006187516646E-2
 6.457227813700000E9    -5.714737549829769E-1   -1.532132617579937E-1   -8.202478290455464E-3    3.603246064269428E-2   -6.369221587304519E-3    3.590711458224990E-2   -5.371056337315474E-1   -5.873372528725137E-2
 6.457239073750000E9    -5.716636160277486E-1   -1.521861875154233E-1   -8.310334380345450E-3    3.626587023315010E-2   -6.338313404042385E-3    3.598862402307450E-2   -5.370855946571426E-1   -5.762803299284906E-2
 6.457250333800000E9    -5.719511933983904E-1   -1.513285059321539E-1   -8.110753500131788E-3    3.645821995638508E-2   -6.323048743559130E-3    3.633408713571207E-2   -5.372223253462393E-1   -5.630080888677671E-2
 6.457261593850000E9    -5.720766970993318E-1   -1.502880916879896E-1   -8.130557731901309E-3    3.668518601269441E-2   -6.282947011567332E-3    3.645925182095329E-2   -5.372564991738977E-1   -5.511782123914671E-2
 6.457272853900000E9    -5.724439681424074E-1   -1.493655439624882E-1   -8.021780503795780E-3    3.702806477341675E-2   -6.151609086067614E-3    3.673762723216886E-2   -5.375034995343160E-1   -5.388601226612046E-2
 6.457284113950000E9    -5.725667684032237E-1   -1.483558999799127E-1   -8.227453034419933E-3    3.701664504421411E-2   -6.127472776408012E-3    3.688310634931186E-2   -5.377682880499788E-1   -5.262641575366948E-2
 6.457295374000000E9    -5.728676185666208E-1   -1.473730933466484E-1   -8.242914399895225E-3    3.737247562990641E-2   -6.146879471190720E-3    3.715775260145322E-2   -5.377506142051084E-1   -5.146910730288865E-2
 6.457306634050000E9    -5.730348945241112E-1   -1.464427455751279E-1   -8.013610276392769E-3    3.762847651439701E-2   -6.154450604813505E-3    3.732855295114049E-2   -5.377787440143886E-1   -5.005309603245380E-2
 6.457317894100000E9    -5.730987573315388E-1   -1.454677497155021E-1   -7.793298042128083E-3    3.777426393901572E-2   -6.078517872313116E-3    3.761127785492240E-2   -5.380363882734679E-1   -4.892744234696272E-2
 6.457329154150000E9    -5.734417108146753E-1   -1.444595221625908E-1   -7.932855104502054E-3    3.799499475357344E-2   -5.900293996637700E-3    3.784422784530243E-2   -5.381347424781470E-1   -4.747659189870903E-2
 6.457340414200000E9    -5.736066713779308E-1   -1.435482963949229E-1   -7.979552313421193E-3    3.841133228991411E-2   -5.896295002950423E-3    3.805868693023580E-2   -5.381672950621799E-1   -4.632425286034863E-2
 6.457351674250000E9    -5.738957752589170E-1   -1.425571459552234E-1   -7.868819959596424E-3    3.848104693585182E-2   -5.845367516209173E-3    3.824221488963370E-2   -5.382692233228327E-1   -4.497038309324300E-2
 6.457362934300000E9    -5.741262520336569E-1   -1.415838280310636E-1   -7.850629314704077E-3    3.876279012815869E-2   -5.789327238428555E-3    3.850255105827735E-2   -5.382391014529692E-1   -4.385062587923649E-2
 6.457374194350000E9    -5.742754883507393E-1   -1.405679432394926E-1   -7.782217616413289E-3    3.894669723145040E-2   -5.754578017819003E-3    3.886559457738837E-2   -5.384414056029303E-1   -4.248648632347989E-2
 6.457385454400000E9    -5.745127527301623E-1   -1.396825439346565E-1   -7.583630748620175E-3    3.918535701323348E-2   -5.701317533491977E-3    3.908193449275326E-2   -5.384509267317462E-1   -4.115558828685235E-2
 6.457396714450000E9    -5.747214095524715E-1   -1.386146610224615E-1   -7.691163880273483E-3    3.945354977969041E-2   -5.667566984191094E-3    3.924195126347386E-2   -5.386955731721309E-1   -3.975779435549327E-2
 6.457407974500000E9    -5.750094905084941E-1   -1.376391778453663E-1   -7.636042083648534E-3    3.986346053931232E-2   -5.564098966346694E-3    3.955547192559776E-2   -5.386417649420302E-1   -3.873397805532729E-2
 6.457419234550000E9    -5.751325738029800E-1   -1.366178884064552E-1   -7.669565764669994E-3    4.001402135438651E-2   -5.486373497635083E-3    3.979896343622571E-2   -5.387986055077386E-1   -3.737026591653149E-2
 6.457430494600000E9    -5.753600423478871E-1   -1.356754558105312E-1   -7.573255853282903E-3    4.025719055300552E-2   -5.543581968002085E-3    3.999986731735043E-2   -5.387734102319763E-1   -3.594405132792940E-2
 6.457441754650000E9    -5.755168076265248E-1   -1.347590798541545E-1   -7.544009644627011E-3    4.052323939466764E-2   -5.341680244988076E-3    4.033585185442710E-2   -5.389321678963948E-1   -3.467356395018427E-2
 6.457453014700000E9    -5.757892449253822E-1   -1.337481259099903E-1   -7.365191241738739E-3    4.072329159405278E-2   -5.391591956610660E-3    4.044747104484784E-2   -5.388190533906554E-1   -3.339923963906234E-2
 6.457464274750000E9    -5.759056897920563E-1   -1.326399586163414E-1   -7.492053063299104E-3    4.105400409649011E-2   -5.207971579015840E-3    4.083796407938386E-2   -5.390108056787212E-1   -3.200902658792259E-2
 6.457475534800000E9    -5.761307872685636E-1   -1.318221728130499E-1   -7.407107240702905E-3    4.131232316133739E-2   -5.163368773024772E-3    4.102883453887806E-2   -5.390342718084271E-1   -3.067073529492186E-2
 6.457486794850000E9    -5.762981608700415E-1   -1.306824300108842E-1   -7.244552349923933E-3    4.160299717796921E-2   -5.217559778472782E-3    4.125975065691088E-2   -5.390944274779377E-1   -2.925632238705436E-2
 6.457498054900000E9    -5.764976878939950E-1   -1.297589271651687E-1   -7.241213932931183E-3    4.190209854482760E-2   -5.048406746431033E-3    4.163075020375706E-2   -5.391696388865229E-1   -2.800411491367373E-2
 6.457509314950000E9    -5.766745752274014E-1   -1.287128233965202E-1   -7.206419255084261E-3    4.210144543890357E-2   -5.078869550994998E-3    4.178995028406488E-2   -5.391574581828726E-1   -2.666501617288151E-2
 6.457520575000000E9    -5.768563452580157E-1   -1.276995909380035E-1   -7.244658080357209E-3    4.246329906285746E-2   -5.047516461441476E-3    4.207632569442624E-2   -5.393384670856299E-1   -2.527051220668341E-2
 6.457531835050000E9    -5.771197888451799E-1   -1.267660227256344E-1   -7.181205840053881E-3    4.265951344251422E-2   -4.878097637241166E-3    4.243241690119281E-2   -5.393338948394905E-1   -2.395620362010273E-2
 6.457543095100000E9    -5.771821048132810E-1   -1.258491433517319E-1   -6.994334222163169E-3    4.307145571740757E-2   -4.781374388296204E-3    4.269501521255425E-2   -5.393878012120829E-1   -2.248339887530862E-2
 6.457554355150000E9    -5.773929190464212E-1   -1.247091215795569E-1   -7.033452009006998E-3    4.320092590161911E-2   -4.766019520166850E-3    4.297813761047835E-2   -5.394208083817669E-1   -2.120916610248329E-2
 6.457565615200000E9    -5.776797003226599E-1   -1.237519993307163E-1   -7.067812495160374E-3    4.352634304390566E-2   -4.684856893825743E-3    4.324320128008501E-2   -5.393926177746966E-1   -1.984863972275305E-2
 6.457576875250000E9    -5.779009924712772E-1   -1.228174804677449E-1   -6.858043622356031E-3    4.386006384523903E-2   -4.681667024697566E-3    4.346462441083104E-2   -5.393982784071105E-1   -1.840778562409824E-2
 6.457588135300000E9    -5.779692801950898E-1   -1.216778934133506E-1   -6.807924836031687E-3    4.415648716631795E-2   -4.631661342647350E-3    4.384134774695096E-2   -5.394791407556462E-1   -1.714309936343131E-2
 6.457599395350000E9    -5.781465949971436E-1   -1.206469820042569E-1   -6.797657164215159E-3    4.453769916696824E-2   -4.506240795632988E-3    4.412665758204012E-2   -5.394525466809706E-1   -1.558606826745346E-2
 6.457610655400000E9    -5.783757081679305E-1   -1.196372660697123E-1   -6.670420598530291E-3    4.481892908890049E-2   -4.327014828351330E-3    4.431739914723984E-2   -5.395925087726694E-1   -1.410452133757573E-2
 6.457621915450000E9    -5.785113589907711E-1   -1.186423024774038E-1   -6.614748186203413E-3    4.509350994066978E-2   -4.353527004000912E-3    4.467835517318924E-2   -5.396008118161919E-1   -1.281259850574301E-2
 6.457633175500000E9    -5.786998717805849E-1   -1.176634583169095E-1   -6.622354825243701E-3    4.558712352361220E-2   -4.213707879328823E-3    4.501674156882284E-2   -5.393527006755806E-1   -1.143029726783769E-2
 6.457644435550000E9    -5.788108784912688E-1   -1.166466381721916E-1   -6.526159524845020E-3    4.571615392159659E-2   -4.118713970473076E-3    4.528752685012122E-2   -5.394389441699161E-1   -9.900890444412506E-3
 6.457655695600000E9    -5.790325067296820E-1   -1.156980771011542E-1   -6.515248638876179E-3    4.612872440935180E-2   -4.035445750817906E-3    4.562918002800102E-2   -5.395391091098595E-1   -8.530716468362841E-3
 6.457666955650000E9    -5.791774671177468E-1   -1.146617172088511E-1   -6.372591348608052E-3    4.627428634753850E-2   -4.012991469899784E-3    4.595000511044212E-2   -5.395886340085244E-1   -7.122276751255967E-3
 6.457678215700000E9    -5.793216212298152E-1   -1.136198832918746E-1   -6.177734185920688E-3    4.678736825542047E-2   -3.885723268518531E-3    4.624986610988945E-2   -5.394614548404217E-1   -5.566301813774504E-3
 6.457689475750000E9    -5.794240549046568E-1   -1.125421265605603E-1   -6.190978407778189E-3    4.703692885498825E-2   -3.768435910475480E-3    4.663099096203108E-2   -5.395357864759881E-1   -4.123182342612558E-3
 6.457700735800000E9    -5.795935722420444E-1   -1.114761990322695E-1   -6.054601809673249E-3    4.744384494886170E-2   -3.654198420288917E-3    4.692194052075465E-2   -5.394263474899623E-1   -2.767772317331548E-3
 6.457711995850000E9    -5.797270814678082E-1   -1.104592362422071E-1   -5.972600989709131E-3    4.775800820745061E-2   -3.586579999749821E-3    4.724447030067726E-2   -5.394228857781881E-1   -1.220564631391126E-3
 6.457723255900000E9    -5.799658521245614E-1   -1.094829867220823E-1   -6.081365268146833E-3    4.810395777462743E-2   -3.534982907321027E-3    4.756612750150526E-2   -5.393715681701818E-1    2.343209751108496E-4
 6.457734515950000E9    -5.801208884321564E-1   -1.083303256777657E-1   -5.948978252618476E-3    4.859509968691891E-2   -3.446159743347121E-3    4.792103269049383E-2   -5.394587349080786E-1    1.780646060037930E-3
 6.457745776000000E9    -5.802466221302192E-1   -1.073407604849475E-1   -5.778462786082808E-3    4.888093058124692E-2   -3.267816769240228E-3    4.829871441200528E-2   -5.392826861797173E-1    3.381092451909036E-3
 6.457757036050000E9    -5.804245941531400E-1   -1.063177251429209E-1   -5.751511449871143E-3    4.917416244694614E-2   -3.270862444207546E-3    4.863508060186440E-2   -5.391532809370683E-1    4.896025699382821E-3
 6.457768296100000E9    -5.805035788094191E-1   -1.051822331438430E-1   -5.715432443964523E-3    4.958283683252122E-2   -3.107156842485685E-3    4.906843730305259E-2   -5.391497547151316E-1    6.339138373251121E-3
 6.457779556150000E9    -5.806393668374318E-1   -1.040999362360001E-1   -5.558178810764762E-3    5.005433252236142E-2   -2.978993632507112E-3    4.928225154608794E-2   -5.390984189833834E-1    7.897570110081176E-3
 6.457790816200000E9    -5.808251830398407E-1   -1.030378892978788E-1   -5.424802896509567E-3    5.024384582870046E-2   -2.914583598900861E-3    4.969774747170091E-2   -5.390895991683380E-1    9.360668573065977E-3
 6.457802076250000E9    -5.808714311698019E-1   -1.019492166486723E-1   -5.381864038742832E-3    5.072366372121796E-2   -2.748852495064869E-3    5.020026835705603E-2   -5.390218122417462E-1    1.116719692360810E-2
 6.457813336300000E9    -5.809883556402436E-1   -1.009294082411645E-1   -5.407693483292321E-3    5.121292465785231E-2   -2.706348955251898E-3    5.048004932296465E-2   -5.389340725834166E-1    1.251753222593959E-2
 6.457824596350000E9    -5.811032317114825E-1   -9.993025075969350E-2   -5.146767229680138E-3    5.147418846167973E-2   -2.643008876010545E-3    5.096954101919970E-2   -5.387353492667983E-1    1.402185752990317E-2
 6.457835856400000E9    -5.812980109093445E-1   -9.886122275681336E-2   -5.083701447192238E-3    5.188932866737845E-2   -2.468430855069791E-3    5.124126427525438E-2   -5.388276562627200E-1    1.572347205338998E-2
 6.457847116450000E9    -5.814332287039035E-1   -9.777673833985180E-2   -4.937368809529747E-3    5.228682184648732E-2   -2.363373853654831E-3    5.170455437212759E-2   -5.385498927243975E-1    1.735099511581478E-2
 6.457858376500000E9    -5.815230432433880E-1   -9.672469985536419E-2   -4.888627275105189E-3    5.264468391738965E-2   -2.184792139262474E-3    5.198969128205164E-2   -5.385467012750602E-1    1.895695871981520E-2
 6.457869636550000E9    -5.816357761999432E-1   -9.562070670625229E-2   -4.818243695685264E-3    5.310858496127641E-2   -2.137693477927091E-3    5.235497740103826E-2   -5.384282991042547E-1    2.044635696945810E-2
 6.457880896600000E9    -5.818395453078476E-1   -9.457187885737624E-2   -4.592816320473201E-3    5.358335144186944E-2   -1.959903645828473E-3    5.290450401753122E-2   -5.382658802050061E-1    2.196166865042933E-2
 6.457892156650000E9    -5.818776012687324E-1   -9.353863683768106E-2   -4.551558525989016E-3    5.403043562597739E-2   -1.844272665200718E-3    5.321789877084188E-2   -5.381589499676819E-1    2.370586650903609E-2
 6.457903416700000E9    -5.820000637366011E-1   -9.233384711318691E-2   -4.376434295823356E-3    5.442349719062374E-2   -1.803303098384458E-3    5.362158243745797E-2   -5.380773858454816E-1    2.530405962484497E-2
 6.457914676750000E9    -5.821149210863451E-1   -9.137913463550854E-2   -4.305029608615297E-3    5.479334121458352E-2   -1.509580218926733E-3    5.410953882134535E-2   -5.379937851580375E-1    2.697908435825669E-2
 6.457925936800000E9    -5.822374982181399E-1   -9.020966841636800E-2   -4.162684652963019E-3    5.537591125565874E-2   -1.462428009777764E-3    5.447803917313868E-2   -5.376683146111284E-1    2.856893877441620E-2
 6.457937196850000E9    -5.823817115893374E-1   -8.917056966861939E-2   -4.068667641835266E-3    5.577755157370396E-2   -1.222336932649284E-3    5.493434532683508E-2   -5.376325856730053E-1    3.036297420306968E-2
 6.457948456900000E9    -5.824540453006566E-1   -8.806876255363578E-2   -3.929798513176600E-3    5.621622143414263E-2   -1.095166183896293E-3    5.537762107544622E-2   -5.374788712318902E-1    3.207099160377445E-2
 6.457959716950000E9    -5.825078563319930E-1   -8.685776469438808E-2   -3.793900966471000E-3    5.666077281117385E-2   -1.047572734933252E-3    5.593245160344889E-2   -5.372916003168992E-1    3.368997094034295E-2
 6.457970977000000E9    -5.826578959036506E-1   -8.581184822589957E-2   -3.764433395766469E-3    5.727031952987695E-2   -7.982367741268486E-4    5.628375774832201E-2   -5.371435553219596E-1    3.542856021547318E-2
 6.457982237050000E9    -5.826993802224266E-1   -8.463741429773776E-2   -3.507413734481125E-3    5.769668661317510E-2   -7.301013061211729E-4    5.685572444792009E-2   -5.369348912658951E-1    3.729167507955688E-2
 6.457993497100000E9    -5.828622939014491E-1   -8.355942933266058E-2   -3.395795226021353E-3    5.829207416050199E-2   -4.956733717340807E-4    5.722206305444140E-2   -5.367352324598798E-1    3.885754895777524E-2
 6.458004757150000E9    -5.829103616030373E-1   -8.238649445845542E-2   -3.197452845709567E-3    5.867154909432484E-2   -3.019314157359650E-4    5.774273743471130E-2   -5.364661947747322E-1    4.069922497949532E-2
 6.458016017200000E9    -5.828427834747860E-1   -8.136390602677389E-2   -3.109042664548900E-3    5.907950156822470E-2   -2.050310069814105E-4    5.828290872999954E-2   -5.362973111861747E-1    4.241429421964377E-2
 6.458027277250000E9    -5.829598427684436E-1   -8.021138567673732E-2   -2.965758305010588E-3    5.977273461116975E-2   -8.861493138855657E-6    5.874400153012106E-2   -5.360100784748173E-1    4.423280522173618E-2
 6.458038537300000E9    -5.829969332108599E-1   -7.907927534665848E-2   -2.642590190632311E-3    6.020312405852570E-2    1.796570681096365E-4    5.930721990237416E-2   -5.357888334332446E-1    4.618613553743650E-2
 6.458049797350000E9    -5.831248572381861E-1   -7.784769694080357E-2   -2.509000734009324E-3    6.069885635971178E-2    3.704920987581488E-4    5.967093519882473E-2   -5.355113595758728E-1    4.784809954870709E-2
 6.458061057400000E9    -5.832457454040644E-1   -7.673621981705858E-2   -2.306658017721474E-3    6.134951720544324E-2    5.276095676485376E-4    6.023741325478382E-2   -5.352760445739484E-1    4.963684149455430E-2
 6.458072317450000E9    -5.832631432233754E-1   -7.557239810999022E-2   -2.258082127975985E-3    6.195198475628463E-2    6.964195683380840E-4    6.076546743781719E-2   -5.350375807097513E-1    5.157885030977538E-2
 6.458083577500000E9    -5.833102079390462E-1   -7.438800545093688E-2   -2.024222690760373E-3    6.239316037606719E-2    9.141481887356272E-4    6.127910975606877E-2   -5.347805939550354E-1    5.353922468411077E-2
