#  HZ   S   RI   R     50.00 
! Rohde & Schwarz Vector Network Analyzer 
! Rohde-Schwarz,ZNB20-2Port,1311601062101988,3.16
! Created: UTC 3/20/2024, 11:11:21 PM
! freq[Hz]                re:S11                  im:S11                  re:S21                  im:S21                  re:S12                  im:S12                  re:S22                  im:S22
 6.456939957000000E9    -5.658097979469540E-1   -1.750094813102387E-1   -8.998548590604380E-3    3.196335098573505E-2   -7.288824667237835E-3    3.196925470390292E-2   -5.300124184623053E-1   -8.797404341912105E-2
 6.456951585425000E9    -5.660050942721612E-1   -1.741096435848532E-1   -9.001361276176827E-3    3.208284247940995E-2   -7.265354169312596E-3    3.212116397408935E-2   -5.301318694019375E-1   -8.679507617068388E-2
 6.456963213850000E9    -5.664108525549447E-1   -1.730596792243740E-1   -9.057932496811983E-3    3.226584250803381E-2   -7.236533892324067E-3    3.226523455905530E-2   -5.303812423629464E-1   -8.569649924671618E-2
 6.456974842275000E9    -5.666949812453015E-1   -1.721566654629295E-1   -8.905785630165934E-3    3.242096704987570E-2   -7.177506219102094E-3    3.241594122365243E-2   -5.306034251554683E-1   -8.456805805452312E-2
 6.456986470700000E9    -5.669826787541943E-1   -1.711654069956787E-1   -9.104180693627841E-3    3.249029696360565E-2   -7.165443138883331E-3    3.252450683316043E-2   -5.307042966438000E-1   -8.326240293310844E-2
 6.456998099125000E9    -5.672382007220690E-1   -1.703201502501858E-1   -8.859236620619861E-3    3.293270839536849E-2   -7.141672831059846E-3    3.289838667611179E-2   -5.309715535003794E-1   -8.209586531925550E-2
 6.457009727550000E9    -5.674439486282354E-1   -1.691569567338732E-1   -8.733975994697234E-3    3.303329024698153E-2   -7.115829495005382E-3    3.306391569240456E-2   -5.311299474908506E-1   -8.089149645232137E-2
 6.457021355975000E9    -5.678036604551439E-1   -1.683900309465064E-1   -8.929194138343399E-3    3.321398739550756E-2   -7.146318838446560E-3    3.325562221101644E-2   -5.312954168908475E-1   -7.967450770758887E-2
 6.457032984400000E9    -5.680004011854328E-1   -1.674153313239056E-1   -8.848799371157245E-3    3.341808159614250E-2   -7.044969694345522E-3    3.346264634712123E-2   -5.314859103541194E-1   -7.844055219993754E-2
 6.457044612825000E9    -5.682092626570922E-1   -1.663783021874966E-1   -8.707985742346640E-3    3.361761473713689E-2   -7.022702415935773E-3    3.359861703571191E-2   -5.316733888947225E-1   -7.723065365510859E-2
 6.457056241250000E9    -5.684925430774231E-1   -1.653043780265790E-1   -8.808349320070496E-3    3.389051919841684E-2   -7.071010865824020E-3    3.374050390284433E-2   -5.318528668741133E-1   -7.599540809596633E-2
 6.457067869675000E9    -5.688200838219931E-1   -1.644391224955948E-1   -8.841804544003068E-3    3.416988251891064E-2   -6.881595082622446E-3    3.405699011370741E-2   -5.319716698124731E-1   -7.479513990679990E-2
 6.457079498100000E9    -5.690851124973426E-1   -1.634617807405748E-1   -8.644650881506533E-3    3.421389441836165E-2   -6.904399473211214E-3    3.422579336500449E-2   -5.321251857451430E-1   -7.368646161401067E-2
 6.457091126525000E9    -5.691757530598386E-1   -1.625149271039018E-1   -8.682303850033929E-3    3.441492463842900E-2   -6.844270788435688E-3    3.443349422607431E-2   -5.322896717301198E-1   -7.240649838170000E-2
 6.457102754950000E9    -5.695567537696276E-1   -1.615032730696872E-1   -8.544084976834308E-3    3.452171376582567E-2   -6.929930286370719E-3    3.458554811969021E-2   -5.325175999622973E-1   -7.103586518473438E-2
 6.457114383375000E9    -5.698237567108254E-1   -1.605079823149643E-1   -8.592812757041353E-3    3.488688971264326E-2   -6.771018053012449E-3    3.474542782176044E-2   -5.326656202232931E-1   -6.995661059354666E-2
 6.457126011800000E9    -5.700141329165118E-1   -1.595109409526410E-1   -8.707819142073515E-3    3.500414344969179E-2   -6.692714597034262E-3    3.499861522874000E-2   -5.327404146117014E-1   -6.867119138201996E-2
 6.457137640225000E9    -5.703217279551522E-1   -1.585367355870357E-1   -8.609265932696043E-3    3.524002109452590E-2   -6.668015054807221E-3    3.519114791835981E-2   -5.328797940804094E-1   -6.744506413971581E-2
 6.457149268650000E9    -5.704671309507824E-1   -1.575434730700087E-1   -8.436844198280303E-3    3.560361476201870E-2   -6.647293183365237E-3    3.542170226068712E-2   -5.328863863995047E-1   -6.612138492689214E-2
 6.457160897075000E9    -5.707935625857486E-1   -1.565642479164853E-1   -8.583675020096224E-3    3.571655486554731E-2   -6.629342140895312E-3    3.558015126063090E-2   -5.331762766759728E-1   -6.476542345311094E-2
 6.457172525500000E9    -5.710645198266208E-1   -1.555468572085029E-1   -8.547791239023326E-3    3.591718278439354E-2   -6.632622334562703E-3    3.588263708830181E-2   -5.333101104286246E-1   -6.380210405691562E-2
 6.457184153925000E9    -5.711855310083459E-1   -1.546874692497576E-1   -8.421863795784723E-3    3.611567991825566E-2   -6.551416630349648E-3    3.593077541577098E-2   -5.334833817704039E-1   -6.244212998595836E-2
 6.457195782350000E9    -5.714266430286122E-1   -1.535603902093667E-1   -8.342693533722512E-3    3.633098346408475E-2   -6.395249159056943E-3    3.625926797234919E-2   -5.336374418421443E-1   -6.123517389137577E-2
 6.457207410775000E9    -5.716703623209852E-1   -1.527248449756746E-1   -8.316685494324225E-3    3.664875188788660E-2   -6.443666684541346E-3    3.638088925597847E-2   -5.337464524053458E-1   -5.993029574561080E-2
 6.457219039200000E9    -5.719543153208861E-1   -1.517565466837064E-1   -8.443446820957108E-3    3.687514640846200E-2   -6.406999898354230E-3    3.671303783158343E-2   -5.338493497761923E-1   -5.857156902033506E-2
 6.457230667625000E9    -5.722255742179355E-1   -1.506560394277776E-1   -8.362731356767189E-3    3.689028632916225E-2   -6.322028910929040E-3    3.693552101651742E-2   -5.340677305277732E-1   -5.739707413429623E-2
 6.457242296050000E9    -5.724592492549286E-1   -1.496972369263758E-1   -8.269593530492789E-3    3.728916341017810E-2   -6.364027278354069E-3    3.716299581332055E-2   -5.341450280428575E-1   -5.612028849096761E-2
 6.457253924475000E9    -5.727366700108204E-1   -1.486725410846151E-1   -8.253532305902858E-3    3.751364813926496E-2   -6.310846301999481E-3    3.741595665052408E-2   -5.342525358474389E-1   -5.472576110023181E-2
 6.457265552900000E9    -5.729760884309752E-1   -1.476441849232134E-1   -8.201439916042158E-3    3.773207003796643E-2   -6.232755144416354E-3    3.758651758524883E-2   -5.344130370110326E-1   -5.331418904011280E-2
 6.457277181325000E9    -5.731202692951403E-1   -1.466278340675878E-1   -8.085390695001193E-3    3.804781051099764E-2   -6.155501673427630E-3    3.784017166508961E-2   -5.345528608502459E-1   -5.212719642943192E-2
 6.457288809750000E9    -5.733172878815087E-1   -1.456969792697950E-1   -8.173115945401516E-3    3.843899064441064E-2   -6.165608953822047E-3    3.812041178193533E-2   -5.346139259086238E-1   -5.075736301905710E-2
 6.457300438175000E9    -5.736662590653028E-1   -1.446188323028461E-1   -8.000817599909357E-3    3.845127592517714E-2   -6.158405128943525E-3    3.839003413998249E-2   -5.347271521157168E-1   -4.955896836145635E-2
 6.457312066600000E9    -5.738187350934784E-1   -1.436166911812838E-1   -8.096159661436951E-3    3.883638385369732E-2   -5.980449734171891E-3    3.856596092103724E-2   -5.348146322499112E-1   -4.810819277431273E-2
 6.457323695025000E9    -5.740329481833129E-1   -1.426263934758636E-1   -7.944758716850263E-3    3.905400593868594E-2   -5.971821156900908E-3    3.882439017741057E-2   -5.349292031763534E-1   -4.679784176774185E-2
 6.457335323450000E9    -5.742329888232867E-1   -1.417363656378696E-1   -8.040703714967011E-3    3.931826593180027E-2   -5.882051618321222E-3    3.901565553948561E-2   -5.349236924798043E-1   -4.553096925182339E-2
 6.457346951875000E9    -5.743319708349338E-1   -1.406484398073011E-1   -7.943212797424432E-3    3.950315563655717E-2   -5.868831406824284E-3    3.939573463451457E-2   -5.351240684521423E-1   -4.408557883738019E-2
 6.457358580300000E9    -5.746632457771845E-1   -1.396748756735981E-1   -7.933562951736471E-3    3.988625587378214E-2   -5.879154359140120E-3    3.960266319802652E-2   -5.353519097978282E-1   -4.293890305821222E-2
 6.457370208725000E9    -5.749392816285158E-1   -1.385570018412612E-1   -7.779306798190823E-3    4.011169985706305E-2   -5.730547891054942E-3    3.989104516654645E-2   -5.354260639622419E-1   -4.157757844784694E-2
 6.457381837150000E9    -5.751775400118120E-1   -1.375899053369093E-1   -7.808071548709763E-3    4.029223559958958E-2   -5.686466099008257E-3    4.008869557792982E-2   -5.354103778870356E-1   -4.005692298136670E-2
 6.457393465575000E9    -5.752966752856181E-1   -1.366453643386942E-1   -7.635620406625562E-3    4.066534337522796E-2   -5.659253921908369E-3    4.035802460483728E-2   -5.355752192751373E-1   -3.871173740937243E-2
 6.457405094000000E9    -5.754788740446068E-1   -1.355156890599969E-1   -7.853435302048717E-3    4.098815487429652E-2   -5.530917636807215E-3    4.056776533383774E-2   -5.356142674328465E-1   -3.746423116592238E-2
 6.457416722425000E9    -5.757511299982194E-1   -1.344332074507449E-1   -7.698426679331879E-3    4.108433349780781E-2   -5.496867298596538E-3    4.087674904741788E-2   -5.355780976018505E-1   -3.612219138834374E-2
 6.457428350850000E9    -5.759059558504057E-1   -1.335160138219961E-1   -7.587849589037857E-3    4.141186751341373E-2   -5.368354396272106E-3    4.121994998870149E-2   -5.356977788153002E-1   -3.472742705432939E-2
 6.457439979275000E9    -5.762440135851264E-1   -1.325016253551511E-1   -7.630518197811987E-3    4.189218459763371E-2   -5.433086809571231E-3    4.140668208295979E-2   -5.359405101281821E-1   -3.318009012072127E-2
 6.457451607700000E9    -5.762813828383156E-1   -1.314960070067678E-1   -7.552133582824577E-3    4.201818081272568E-2   -5.280197937999376E-3    4.165651422443310E-2   -5.359090428888714E-1   -3.178153772683857E-2
 6.457463236125000E9    -5.765740806391007E-1   -1.304036566595291E-1   -7.419984834441787E-3    4.236297271256902E-2   -5.224165034082202E-3    4.204768648549675E-2   -5.358652674270599E-1   -3.039268782086160E-2
 6.457474864550000E9    -5.767090276829639E-1   -1.294311995530112E-1   -7.273174109900201E-3    4.260346513842709E-2   -5.222626898728654E-3    4.230226437165817E-2   -5.360165394909701E-1   -2.908938015064191E-2
 6.457486492975000E9    -5.769265870890321E-1   -1.283757623472950E-1   -7.395353862426852E-3    4.287998801731545E-2   -5.059460538105236E-3    4.258180586183621E-2   -5.360645333408462E-1   -2.762257681276582E-2
 6.457498121400000E9    -5.771217433924510E-1   -1.272493359878843E-1   -7.246062135965628E-3    4.315125141556701E-2   -5.005172183849931E-3    4.291644720371894E-2   -5.361685037475411E-1   -2.634543819355801E-2
 6.457509749825000E9    -5.772675246631717E-1   -1.263103929333874E-1   -7.153118011857341E-3    4.353947747240679E-2   -4.950416058727299E-3    4.313822059516785E-2   -5.362497859954485E-1   -2.484664453735551E-2
 6.457521378250000E9    -5.775839624678023E-1   -1.252136883465683E-1   -7.074660190941576E-3    4.374398432159512E-2   -4.942576894937876E-3    4.355843154465245E-2   -5.362295265992506E-1   -2.340368816999211E-2
 6.457533006675000E9    -5.776524670111459E-1   -1.241875687787309E-1   -7.002960473385515E-3    4.427735020747277E-2   -4.873002836055033E-3    4.371723920667450E-2   -5.362451780045936E-1   -2.198417990733716E-2
 6.457544635100000E9    -5.778802690338739E-1   -1.231881984723507E-1   -7.146567824483009E-3    4.446446455917889E-2   -4.696060455953455E-3    4.405810800574069E-2   -5.363174502208385E-1   -2.049146060415788E-2
 6.457556263525000E9    -5.780418883156497E-1   -1.220322219971790E-1   -7.040334411756762E-3    4.477312802117798E-2   -4.720280175834244E-3    4.439096647201633E-2   -5.362817667864306E-1   -1.906017176187459E-2
 6.457567891950000E9    -5.782580145219407E-1   -1.210425529348106E-1   -6.797972462139611E-3    4.492350551290548E-2   -4.618682148155635E-3    4.467913247410602E-2   -5.361589178120405E-1   -1.756779795887178E-2
 6.457579520375000E9    -5.785054282302852E-1   -1.200357158971920E-1   -6.757717089857795E-3    4.536231421689691E-2   -4.447842276882491E-3    4.501373435141687E-2   -5.363244798443224E-1   -1.630545422473392E-2
 6.457591148800000E9    -5.785705713302900E-1   -1.189429595099626E-1   -6.745629960925079E-3    4.574069149927713E-2   -4.400120147158942E-3    4.534318172636852E-2   -5.363035726771888E-1   -1.459927322228976E-2
 6.457602777225000E9    -5.787795024605789E-1   -1.178992755332456E-1   -6.582643936313059E-3    4.622505875009228E-2   -4.413415715134613E-3    4.565867744885509E-2   -5.363406436527136E-1   -1.323291493433392E-2
 6.457614405650000E9    -5.788563738707230E-1   -1.169230591640897E-1   -6.562624853060675E-3    4.637540722126775E-2   -4.215911215639432E-3    4.596405137590271E-2   -5.364473817745867E-1   -1.175482533072054E-2
 6.457626034075000E9    -5.790381327017090E-1   -1.157534920088390E-1   -6.408612722794397E-3    4.670431713177565E-2   -4.094581565932509E-3    4.630471611245381E-2   -5.363634578685574E-1   -1.022202196119937E-2
 6.457637662500000E9    -5.792913663006551E-1   -1.146159295002907E-1   -6.529126750498973E-3    4.700368931444004E-2   -4.017007319351191E-3    4.664458232412448E-2   -5.363231294732014E-1   -8.762673559702167E-3
 6.457649290925000E9    -5.794881057291578E-1   -1.135791993285695E-1   -6.425256518751433E-3    4.748350280300547E-2   -3.903736680886448E-3    4.704513939286168E-2   -5.364709524570824E-1   -7.180528339623757E-3
 6.457660919350000E9    -5.796859371145676E-1   -1.126323525033972E-1   -6.293456057465206E-3    4.789393708508387E-2   -3.786702093135726E-3    4.733106391646873E-2   -5.362988085919326E-1   -5.746937744055106E-3
 6.457672547775000E9    -5.798013096490503E-1   -1.114756319659410E-1   -6.289630924432221E-3    4.817641260768016E-2   -3.749122480666256E-3    4.767344201896103E-2   -5.363590095607655E-1   -4.160237593210162E-3
 6.457684176200000E9    -5.798444281061250E-1   -1.104627024979435E-1   -6.121510319840175E-3    4.844641339724726E-2   -3.723642488610305E-3    4.802074123924369E-2   -5.362845387940234E-1   -2.586987889954158E-3
 6.457695804625000E9    -5.800399518958780E-1   -1.092849426790840E-1   -5.978534725280100E-3    4.899476804596534E-2   -3.610696439934335E-3    4.843641832799368E-2   -5.361727380953999E-1   -9.703499860867810E-4
 6.457707433050000E9    -5.802991029391367E-1   -1.081900066448464E-1   -5.972777814582414E-3    4.928238711395937E-2   -3.400467055718015E-3    4.880490384233201E-2   -5.362383507150654E-1    6.090584701531818E-4
 6.457719061475000E9    -5.803382024535438E-1   -1.071640013711019E-1   -5.816355312681747E-3    4.965516210097568E-2   -3.327138763326137E-3    4.908611655795640E-2   -5.360976578034617E-1    2.077945129238750E-3
 6.457730689900000E9    -5.804765710959913E-1   -1.059579868529563E-1   -5.725429315266176E-3    5.021898550066665E-2   -3.131797118846471E-3    4.949226399905229E-2   -5.361517451960764E-1    3.656856220882436E-3
 6.457742318325000E9    -5.805899034283435E-1   -1.048546466989805E-1   -5.635287376478248E-3    5.047434700672480E-2   -3.081376885657470E-3    4.995264821782819E-2   -5.360065329351786E-1    5.121252989023686E-3
 6.457753946750000E9    -5.807489974205264E-1   -1.038470494703897E-1   -5.576947171864339E-3    5.096991972799332E-2   -3.007056906726743E-3    5.024046225567395E-2   -5.358538632612375E-1    6.907693501545474E-3
 6.457765575175000E9    -5.808882450033902E-1   -1.027069798034039E-1   -5.495423659633322E-3    5.125642533213980E-2   -2.951301887613856E-3    5.069370382454867E-2   -5.359333479028047E-1    8.508173975808360E-3
 6.457777203600000E9    -5.810295860349505E-1   -1.016921230422963E-1   -5.471063627026785E-3    5.178694888954618E-2   -2.820183795965681E-3    5.099945048473604E-2   -5.357607755051066E-1    1.012875225186398E-2
 6.457788832025000E9    -5.811841073976777E-1   -1.005780863684462E-1   -5.292515871065011E-3    5.213695507684776E-2   -2.681575915884391E-3    5.146126613154010E-2   -5.356622774944604E-1    1.176065156958033E-2
 6.457800460450000E9    -5.812054502208690E-1   -9.942315145595491E-2   -5.106712178026518E-3    5.266636922601053E-2   -2.505770882582682E-3    5.190526761701102E-2   -5.356397717300453E-1    1.336192568206484E-2
 6.457812088875000E9    -5.814381090050865E-1   -9.830876872756132E-2   -5.031419672714948E-3    5.293860662052743E-2   -2.393063530859649E-3    5.232293057314260E-2   -5.356288992431901E-1    1.498426383928362E-2
 6.457823717300000E9    -5.815159941102623E-1   -9.710369872786873E-2   -4.916313240917206E-3    5.336411027730650E-2   -2.208346367291473E-3    5.275984451292749E-2   -5.354802216339514E-1    1.674128199507743E-2
 6.457835345725000E9    -5.816736246715835E-1   -9.605800664987772E-2   -4.833481166878507E-3    5.375717257180060E-2   -2.174160296025398E-3    5.316289774413660E-2   -5.352586989762561E-1    1.842169526542985E-2
 6.457846974150000E9    -5.817769277205473E-1   -9.493173823021149E-2   -4.629338839122204E-3    5.442119546407266E-2   -1.866141068680953E-3    5.365575795646922E-2   -5.352554761724514E-1    2.014892719651176E-2
 6.457858602575000E9    -5.819174696895140E-1   -9.394285410478108E-2   -4.570077115656688E-3    5.479882073919218E-2   -1.889234491162045E-3    5.404224115399773E-2   -5.351554644828281E-1    2.180918176165858E-2
 6.457870231000000E9    -5.819981890395978E-1   -9.273625163559056E-2   -4.506230326282985E-3    5.534572916755272E-2   -1.635337099359570E-3    5.452676151492284E-2   -5.349500400517994E-1    2.351032597996752E-2
 6.457881859425000E9    -5.820120275617953E-1   -9.172577255858888E-2   -4.305791514409656E-3    5.570228497031485E-2   -1.541237660150888E-3    5.491254607606772E-2   -5.349749625771917E-1    2.516654634375351E-2
 6.457893487850000E9    -5.822583223856674E-1   -9.046751444166039E-2   -4.251487149538869E-3    5.620305659440649E-2   -1.454002653378314E-3    5.547036999526096E-2   -5.347740331173957E-1    2.711543924171402E-2
 6.457905116275000E9    -5.823590352351090E-1   -8.923395216432785E-2   -4.024638232946611E-3    5.677868061042176E-2   -1.248608543634746E-3    5.588202850773945E-2   -5.346340827639264E-1    2.868302431218789E-2
 6.457916744700000E9    -5.824541484720289E-1   -8.802672056683795E-2   -3.813697396232815E-3    5.708180439354434E-2   -1.055504944462210E-3    5.635705083036562E-2   -5.345059668401341E-1    3.044015238586488E-2
 6.457928373125000E9    -5.824729209955647E-1   -8.694619030671161E-2   -3.759309140815471E-3    5.769087541565284E-2   -8.678227909007989E-4    5.688894967434314E-2   -5.341526126685688E-1    3.228536474499540E-2
 6.457940001550000E9    -5.826074490694042E-1   -8.588582156152802E-2   -3.499693603066609E-3    5.809024422161269E-2   -7.198700528296762E-4    5.728089933098129E-2   -5.339434818670421E-1    3.408737046284033E-2
 6.457951629975000E9    -5.826852406975054E-1   -8.481265925555609E-2   -3.384046351635556E-3    5.873216721246382E-2   -6.604020150591952E-4    5.779083898932515E-2   -5.338220991701089E-1    3.601483833866907E-2
 6.457963258400000E9    -5.826925216346627E-1   -8.362856531650771E-2   -3.239318655179341E-3    5.912005002097517E-2   -3.854322075885424E-4    5.838077133823004E-2   -5.335198408257614E-1    3.791021728609515E-2
 6.457974886825000E9    -5.829061922865106E-1   -8.244180086495234E-2   -3.144371620881778E-3    5.974359782058649E-2   -2.332323674739644E-4    5.876593152248347E-2   -5.332907392235494E-1    3.960674599084203E-2
 6.457986515250000E9    -5.828953556082261E-1   -8.121867600480710E-2   -2.938353299484353E-3    6.027997486982797E-2   -1.204874953412725E-4    5.931821272369987E-2   -5.331303868845414E-1    4.149641645767432E-2
