#  HZ   S   RI   R     50.00 
! Rohde & Schwarz Vector Network Analyzer 
! Rohde-Schwarz,ZNB20-2Port,1311601062101988,3.16
! Created: UTC 3/20/2024, 10:53:58 PM
! freq[Hz]                re:S11                  im:S11                  re:S21                  im:S21                  re:S12                  im:S12                  re:S22                  im:S22
 6.457069027000000E9    -5.680189162048397E-1   -1.665426876780656E-1   -8.670743574791211E-3    3.319512571414681E-2   -6.952598767226897E-3    3.317486821065679E-2   -5.349559836065987E-1   -7.573532294418993E-2
 6.457080289675000E9    -5.683055224933324E-1   -1.654454276311225E-1   -8.673862666118302E-3    3.327056354190110E-2   -6.815525960577174E-3    3.325387989157239E-2   -5.350910840172206E-1   -7.452528316171703E-2
 6.457091552350000E9    -5.685568505176385E-1   -1.646499979019398E-1   -8.627979400278398E-3    3.353953964506217E-2   -6.785276543615356E-3    3.355885382171305E-2   -5.353171072264841E-1   -7.344487294342880E-2
 6.457102815025000E9    -5.687852561005063E-1   -1.636795795179297E-1   -8.645618023705764E-3    3.385272706473835E-2   -6.792151373677112E-3    3.377023627231576E-2   -5.356212822786305E-1   -7.215507265522028E-2
 6.457114077700000E9    -5.690093701334125E-1   -1.627011888272399E-1   -8.646896067698934E-3    3.400038493312157E-2   -6.744220699202821E-3    3.398983255451711E-2   -5.355834325146556E-1   -7.097393424506226E-2
 6.457125340375000E9    -5.692489211689928E-1   -1.618246918731864E-1   -8.588379186391926E-3    3.417928906395401E-2   -6.719237186727225E-3    3.412259195505385E-2   -5.357641129927552E-1   -6.984751657525874E-2
 6.457136603050000E9    -5.695524628864991E-1   -1.608664401123144E-1   -8.529751882624984E-3    3.435114540144846E-2   -6.682737769291548E-3    3.427816070946452E-2   -5.360061637747506E-1   -6.863624956861647E-2
 6.457147865725000E9    -5.697792498859819E-1   -1.598660518896027E-1   -8.540756909875772E-3    3.457818634424214E-2   -6.642436597958968E-3    3.443751396423473E-2   -5.361343485468874E-1   -6.748894738793819E-2
 6.457159128400000E9    -5.701176451348483E-1   -1.590149190029126E-1   -8.451075322245205E-3    3.473174567540929E-2   -6.659259178672871E-3    3.460304027268117E-2   -5.362964541531624E-1   -6.627537480581969E-2
 6.457170391075000E9    -5.702533833169550E-1   -1.581213693220113E-1   -8.551692704660345E-3    3.498926097587986E-2   -6.597836418114369E-3    3.482924528027451E-2   -5.363249522830223E-1   -6.494571433069754E-2
 6.457181653750000E9    -5.704860419544260E-1   -1.570741675912745E-1   -8.487005871861276E-3    3.520842730657416E-2   -6.607202786060569E-3    3.506472546049912E-2   -5.364673564498643E-1   -6.382359834316392E-2
 6.457192916425000E9    -5.707718315410704E-1   -1.561115763418293E-1   -8.450717662924033E-3    3.524088469313594E-2   -6.484737392477585E-3    3.526957870722895E-2   -5.366424037115606E-1   -6.256477434883578E-2
 6.457204179100000E9    -5.708998010411204E-1   -1.551298071119679E-1   -8.344760576099607E-3    3.560382910003384E-2   -6.409171085510658E-3    3.557302106082041E-2   -5.367148550758766E-1   -6.128748473881450E-2
 6.457215441775000E9    -5.712384663517895E-1   -1.542222068575734E-1   -8.281208919466867E-3    3.581840533569893E-2   -6.427278393485878E-3    3.567905094217182E-2   -5.369763223186655E-1   -6.004552168223581E-2
 6.457226704450000E9    -5.713966831392944E-1   -1.532145013599124E-1   -8.174328637562693E-3    3.604167372610278E-2   -6.372553207465464E-3    3.596438722278238E-2   -5.370359948258145E-1   -5.890652864317329E-2
 6.457237967125000E9    -5.716962198041643E-1   -1.523679855858944E-1   -8.315625699042322E-3    3.622044143002404E-2   -6.342620235138938E-3    3.605055751036251E-2   -5.370626623373114E-1   -5.765426066869792E-2
 6.457249229800000E9    -5.717440930663743E-1   -1.513030304811412E-1   -8.226953410264444E-3    3.647431340138516E-2   -6.244485008660900E-3    3.617049747741231E-2   -5.373110634378904E-1   -5.638766926686960E-2
 6.457260492475000E9    -5.719995420253674E-1   -1.504605147152549E-1   -8.285741320347623E-3    3.664833447267184E-2   -6.260574079509206E-3    3.658221708198375E-2   -5.373958235979135E-1   -5.528718569804547E-2
 6.457271755150000E9    -5.723542246258098E-1   -1.493195360428518E-1   -8.110226992210458E-3    3.693016421256868E-2   -6.197406586619209E-3    3.679806136200385E-2   -5.374948164890729E-1   -5.388242371048958E-2
 6.457283017825000E9    -5.723636570666606E-1   -1.483707197020613E-1   -8.102712219293843E-3    3.709246330672902E-2   -6.191249851282963E-3    3.701663106511986E-2   -5.375710026621169E-1   -5.262702610101674E-2
 6.457294280500000E9    -5.727300376482091E-1   -1.475642829201542E-1   -8.062096448977620E-3    3.733588124674285E-2   -6.095709104658870E-3    3.708781645521851E-2   -5.376227588395445E-1   -5.132886747611237E-2
 6.457305543175000E9    -5.729578424667581E-1   -1.464858073196197E-1   -8.091447985422483E-3    3.748519346888925E-2   -6.003878401225841E-3    3.740529431051966E-2   -5.376915366355121E-1   -5.018903185484598E-2
 6.457316805850000E9    -5.732359492608360E-1   -1.455301908989138E-1   -8.067859009281503E-3    3.779392829153438E-2   -6.027651287753142E-3    3.755751320308641E-2   -5.380385417578288E-1   -4.899812161445311E-2
 6.457328068525000E9    -5.733934456099988E-1   -1.445101416870739E-1   -7.996024882155485E-3    3.801243762286421E-2   -5.952531278860904E-3    3.777119539175821E-2   -5.380370773342131E-1   -4.779758452455011E-2
 6.457339331200000E9    -5.735755668921003E-1   -1.436522564999980E-1   -7.812087257766681E-3    3.829786895632533E-2   -5.917434711002846E-3    3.816204698563126E-2   -5.380730385098693E-1   -4.640485593001502E-2
 6.457350593875000E9    -5.739463641857555E-1   -1.426125784272070E-1   -7.800775430913636E-3    3.855608508303463E-2   -5.867537509196512E-3    3.819979210620193E-2   -5.380968694455139E-1   -4.521482240616330E-2
 6.457361856550000E9    -5.741678320180538E-1   -1.417030049534133E-1   -7.920005481744720E-3    3.879938860173207E-2   -5.796962317295241E-3    3.855217042955497E-2   -5.382746611044513E-1   -4.384446102211881E-2
 6.457373119225000E9    -5.742539308369566E-1   -1.406803451922595E-1   -7.825390470410276E-3    3.895818216559659E-2   -5.767528798796141E-3    3.870450591537329E-2   -5.384410414226765E-1   -4.271624112160360E-2
 6.457384381900000E9    -5.745331217916634E-1   -1.397355979532898E-1   -7.696826329066522E-3    3.919184639851209E-2   -5.661901546904226E-3    3.902732373401595E-2   -5.385305466893219E-1   -4.131395292155004E-2
 6.457395644575000E9    -5.746536256701213E-1   -1.387432423225662E-1   -7.646429337774047E-3    3.937339699208726E-2   -5.591849861075810E-3    3.934446441771727E-2   -5.386005618111142E-1   -4.009407057280701E-2
 6.457406907250000E9    -5.747921900730401E-1   -1.378316448922688E-1   -7.695554160956156E-3    3.977576443572662E-2   -5.504924661090959E-3    3.948730228234703E-2   -5.386496313794535E-1   -3.863440089058237E-2
 6.457418169925000E9    -5.750924096933016E-1   -1.367639478074309E-1   -7.576086860583082E-3    4.004048403896286E-2   -5.542688699893259E-3    3.978662764629695E-2   -5.387297073892016E-1   -3.744818799751286E-2
 6.457429432600000E9    -5.753396109301884E-1   -1.358030666392808E-1   -7.539459675315659E-3    4.029696156540082E-2   -5.488334732801332E-3    3.999009891311539E-2   -5.388179871586972E-1   -3.605994294381004E-2
 6.457440695275000E9    -5.755609150888357E-1   -1.347926328368652E-1   -7.621146537839880E-3    4.053023878350567E-2   -5.492324149686175E-3    4.017539813900534E-2   -5.389536931543852E-1   -3.483136795352453E-2
 6.457451957950000E9    -5.756690159755953E-1   -1.338617352299121E-1   -7.461525467169145E-3    4.069776015944374E-2   -5.386218632332776E-3    4.054883136460520E-2   -5.389217560323319E-1   -3.348508211214653E-2
 6.457463220625000E9    -5.759056916576535E-1   -1.328096793862587E-1   -7.515918750395202E-3    4.098079397690714E-2   -5.261630179290830E-3    4.065694584291041E-2   -5.389810315795887E-1   -3.209600079315510E-2
 6.457474483300000E9    -5.761232846012979E-1   -1.319072691788879E-1   -7.326008815107524E-3    4.133229583055837E-2   -5.213367170464846E-3    4.096641174684576E-2   -5.390994301441014E-1   -3.074530971743166E-2
 6.457485745975000E9    -5.762811636059421E-1   -1.308311911843250E-1   -7.227174291855025E-3    4.158137553659521E-2   -5.163904135978142E-3    4.135019791142478E-2   -5.390922936246950E-1   -2.941878048606589E-2
 6.457497008650000E9    -5.764263595685934E-1   -1.298762905207206E-1   -7.226221465076539E-3    4.177816732919253E-2   -5.148373081418461E-3    4.152601313532593E-2   -5.392415247838231E-1   -2.809349572388557E-2
 6.457508271325000E9    -5.767859552596112E-1   -1.287741609037555E-1   -7.163089594042071E-3    4.221260174255319E-2   -4.972508020143717E-3    4.176319700081468E-2   -5.393131108513407E-1   -2.680875233921120E-2
 6.457519534000000E9    -5.768714932532593E-1   -1.279143449780082E-1   -7.258275167750378E-3    4.243254235186520E-2   -4.946635397558975E-3    4.207569923320265E-2   -5.391880638646432E-1   -2.526962019117765E-2
 6.457530796675000E9    -5.769530129103224E-1   -1.268829154591850E-1   -7.034154724542419E-3    4.267582236724570E-2   -4.796305673716097E-3    4.228949265141603E-2   -5.393928176637678E-1   -2.404024384024778E-2
 6.457542059350000E9    -5.772982769979592E-1   -1.259112240069555E-1   -7.139544728656733E-3    4.292415706877154E-2   -4.824707393464110E-3    4.272252424144440E-2   -5.393539903934668E-1   -2.262979659574668E-2
 6.457553322025000E9    -5.774141789671030E-1   -1.249532983165358E-1   -7.013030137812958E-3    4.329461067118324E-2   -4.717364717760498E-3    4.300729541134631E-2   -5.394460227622292E-1   -2.131435972169228E-2
 6.457564584700000E9    -5.775808369716062E-1   -1.238488892558846E-1   -6.897576024889791E-3    4.355125486872353E-2   -4.786815087433661E-3    4.321867342263037E-2   -5.394208665057973E-1   -1.988490236725082E-2
 6.457575847375000E9    -5.777586786060139E-1   -1.228484126455350E-1   -6.934356738115060E-3    4.386536038227024E-2   -4.558943968027218E-3    4.343888729683153E-2   -5.393780236295865E-1   -1.848070346023217E-2
 6.457587110050000E9    -5.780338712122515E-1   -1.217447846732452E-1   -6.919588381052387E-3    4.421114633824299E-2   -4.504808641424191E-3    4.374391164802204E-2   -5.395095485880572E-1   -1.715148201062788E-2
 6.457598372725000E9    -5.781215353613484E-1   -1.207025639574482E-1   -6.847310943505458E-3    4.453683329358232E-2   -4.441003777532287E-3    4.415579371890688E-2   -5.394308723847006E-1   -1.578409745969163E-2
 6.457609635400000E9    -5.782815698978083E-1   -1.197288291763009E-1   -6.813587617858727E-3    4.483007316585386E-2   -4.411279775618320E-3    4.432959267568415E-2   -5.396038866726027E-1   -1.427614494607454E-2
 6.457620898075000E9    -5.784478292450027E-1   -1.188162250702017E-1   -6.668126524608356E-3    4.506284176946063E-2   -4.225893260710678E-3    4.459331871560236E-2   -5.395286316667716E-1   -1.284764813176259E-2
 6.457632160750000E9    -5.786275185610128E-1   -1.176871926766241E-1   -6.639239408468297E-3    4.557747071712403E-2   -4.181761620930580E-3    4.493915465960346E-2   -5.395497096408349E-1   -1.151714210151400E-2
 6.457643423425000E9    -5.788290607634067E-1   -1.167789870815378E-1   -6.638744481679322E-3    4.560710314078730E-2   -4.165756278040948E-3    4.525567280487348E-2   -5.395137363485888E-1   -1.001774289509996E-2
 6.457654686100000E9    -5.790318592124064E-1   -1.157068113884076E-1   -6.417348940534550E-3    4.599896012364026E-2   -4.088200156511542E-3    4.557661703159856E-2   -5.395178526298262E-1   -8.569395216047666E-3
 6.457665948775000E9    -5.790526752850089E-1   -1.146517593569209E-1   -6.320705611983455E-3    4.642563962452248E-2   -3.968771200448606E-3    4.596696748602191E-2   -5.394970869923259E-1   -7.193018215556031E-3
 6.457677211450000E9    -5.793748331726842E-1   -1.136588272130995E-1   -6.303215578278643E-3    4.673613213822719E-2   -3.921701795332355E-3    4.620133841938806E-2   -5.394278254747558E-1   -5.650183411507378E-3
 6.457688474125000E9    -5.794671072418046E-1   -1.126084678270128E-1   -6.191292802486996E-3    4.725930665162392E-2   -3.896092388300284E-3    4.660224131216944E-2   -5.393368538159176E-1   -4.312432652394566E-3
 6.457699736800000E9    -5.795908824838715E-1   -1.114837192571299E-1   -6.223953684312051E-3    4.728069866043379E-2   -3.661102864517436E-3    4.686913150316412E-2   -5.393780351592811E-1   -2.850960266671033E-3
 6.457710999475000E9    -5.797223774047986E-1   -1.105134522690071E-1   -6.011180086210962E-3    4.778988079288311E-2   -3.597969616110737E-3    4.724162770000510E-2   -5.394318313949602E-1   -1.274608069816371E-3
 6.457722262150000E9    -5.799369132743427E-1   -1.094484204198487E-1   -5.989889126276158E-3    4.812810179508287E-2   -3.551642240113492E-3    4.747905458753742E-2   -5.394371522891616E-1    2.222896714517793E-4
 6.457733524825000E9    -5.799750068063654E-1   -1.083894363521039E-1   -5.984622769819960E-3    4.859256062738814E-2   -3.463405763603181E-3    4.797402739643351E-2   -5.393042496703440E-1    1.635675784291638E-3
 6.457744787500000E9    -5.801378661372788E-1   -1.074121374781738E-1   -5.685443666704549E-3    4.888192105922209E-2   -3.445369908388137E-3    4.824612855792879E-2   -5.392591148710989E-1    3.176215320473498E-3
 6.457756050175000E9    -5.803181340779746E-1   -1.063446656864518E-1   -5.787018059234067E-3    4.918967151358564E-2   -3.293504671997844E-3    4.860804353195585E-2   -5.391637893665348E-1    4.726128486844849E-3
 6.457767312850000E9    -5.804288347108224E-1   -1.053899323558917E-1   -5.645039963856075E-3    4.958296477768374E-2   -3.077581170265855E-3    4.896604842245355E-2   -5.391874773783782E-1    6.214018903361577E-3
 6.457778575525000E9    -5.805930706077810E-1   -1.043144118541058E-1   -5.511961554107629E-3    5.003974000705075E-2   -3.013882968105118E-3    4.936805938062758E-2   -5.391186901113164E-1    7.782555309956781E-3
 6.457789838200000E9    -5.808173932539896E-1   -1.032320924030268E-1   -5.420349558196599E-3    5.042648849728490E-2   -2.927748045758613E-3    4.973724635656519E-2   -5.390046629568647E-1    9.323708537516455E-3
 6.457801100875000E9    -5.808943334083655E-1   -1.021884836474168E-1   -5.350714504234987E-3    5.077600047826956E-2   -2.891929162636514E-3    5.009940424546928E-2   -5.389141318776233E-1    1.084101325080351E-2
 6.457812363550000E9    -5.809974034488217E-1   -1.010286064735147E-1   -5.303053604796147E-3    5.107106114823372E-2   -2.753036924509692E-3    5.050934945329563E-2   -5.389536242838213E-1    1.241686112375998E-2
 6.457823626225000E9    -5.812025381262315E-1   -1.000485431061018E-1   -5.219812039231173E-3    5.153055572535632E-2   -2.661817197894478E-3    5.084467406277251E-2   -5.387727864761553E-1    1.403082280315070E-2
 6.457834888900000E9    -5.813311330646795E-1   -9.895154949242765E-2   -5.137046919401602E-3    5.193524580296055E-2   -2.507975040201722E-3    5.118633943490985E-2   -5.387249555705065E-1    1.551515381438776E-2
 6.457846151575000E9    -5.813911353021152E-1   -9.788578619053034E-2   -4.965458432860650E-3    5.231935950536552E-2   -2.348297392236575E-3    5.162739328857651E-2   -5.387733467443419E-1    1.711159866906801E-2
 6.457857414250000E9    -5.815354480925965E-1   -9.671762232000385E-2   -4.850953293382624E-3    5.272125552977102E-2   -2.275474564481664E-3    5.197683605940265E-2   -5.385321562731025E-1    1.873676869931249E-2
 6.457868676925000E9    -5.816151369665579E-1   -9.569038979118770E-2   -4.725438083898266E-3    5.319298507288758E-2   -2.025545174172254E-3    5.241601650789612E-2   -5.385192126922302E-1    2.036768630200458E-2
 6.457879939600000E9    -5.816759257036075E-1   -9.468592444214495E-2   -4.641268961750759E-3    5.362413050410823E-2   -1.925135881662764E-3    5.279895855501193E-2   -5.382409144987942E-1    2.200588429809782E-2
 6.457891202275000E9    -5.819049347867284E-1   -9.348847694141135E-2   -4.628391833630831E-3    5.395762850155127E-2   -1.817579447007855E-3    5.330198482840051E-2   -5.381659763625242E-1    2.367586543092100E-2
 6.457902464950000E9    -5.820185975587656E-1   -9.244288362337044E-2   -4.423205079381028E-3    5.450225494344201E-2   -1.658252555918027E-3    5.366952879982511E-2   -5.380379638541170E-1    2.504451350101163E-2
 6.457913727625000E9    -5.820696540169583E-1   -9.130211368599550E-2   -4.165743133746391E-3    5.498718875350253E-2   -1.604438723776681E-3    5.412005623063189E-2   -5.379172670006019E-1    2.689648619636652E-2
 6.457924990300000E9    -5.822172803774761E-1   -9.034377750822062E-2   -4.062225446247326E-3    5.534602349738765E-2   -1.438823806357825E-3    5.458314940493741E-2   -5.377331645720506E-1    2.855439475183600E-2
 6.457936252975000E9    -5.822489272793401E-1   -8.910133542603466E-2   -4.027414678024168E-3    5.585164362968626E-2   -1.319471432218972E-3    5.495408910841839E-2   -5.375954408316741E-1    3.031622626059016E-2
 6.457947515650000E9    -5.823616500361352E-1   -8.802402454645099E-2   -3.907501829482027E-3    5.625590922861876E-2   -1.163889985462437E-3    5.540725173687325E-2   -5.375763025787322E-1    3.196592499144712E-2
 6.457958778325000E9    -5.824264229954045E-1   -8.700779417159279E-2   -3.717769103575875E-3    5.671302127376204E-2   -9.866292040345763E-4    5.585082137739093E-2   -5.372311610135353E-1    3.364503053158793E-2
 6.457970041000000E9    -5.824880467081869E-1   -8.590145354010598E-2   -3.739359251809037E-3    5.726684300114015E-2   -8.638950913724008E-4    5.630993688044847E-2   -5.372082474157635E-1    3.545880831552779E-2
 6.457981303675000E9    -5.826629676087572E-1   -8.471102696017135E-2   -3.483695209709674E-3    5.760063145102053E-2   -6.813616535092272E-4    5.687173115914473E-2   -5.369549196444390E-1    3.712053408065831E-2
 6.457992566350000E9    -5.827349693875606E-1   -8.355419973540244E-2   -3.256572342398231E-3    5.824735112771176E-2   -5.379989686679824E-4    5.723395545376692E-2   -5.368311800234186E-1    3.893492387177044E-2
 6.458003829025000E9    -5.828791541269760E-1   -8.251556359228379E-2   -3.196748689896290E-3    5.868405663734310E-2   -3.723619428630525E-4    5.775466100764832E-2   -5.365383387194804E-1    4.070104171086433E-2
 6.458015091700000E9    -5.828863234570031E-1   -8.129967155678651E-2   -3.049932055668778E-3    5.922505179506855E-2   -2.625421678653368E-4    5.822851385647924E-2   -5.362057294021232E-1    4.243556141167346E-2
 6.458026354375000E9    -5.830066216374740E-1   -8.030076379954107E-2   -2.896871215420847E-3    5.976934456861820E-2   -4.050937785713533E-5    5.877043837485901E-2   -5.361156809473787E-1    4.422625783407970E-2
 6.458037617050000E9    -5.830255581941147E-1   -7.902192137720150E-2   -2.854312336829798E-3    6.014626236637902E-2    1.800631085305572E-4    5.935439171104961E-2   -5.359052574942221E-1    4.603504610760729E-2
 6.458048879725000E9    -5.830813025082804E-1   -7.803248342246337E-2   -2.634939769803348E-3    6.070285566845709E-2    3.275881817430107E-4    5.973334966839319E-2   -5.356098136664463E-1    4.772186011953250E-2
 6.458060142400000E9    -5.831686532535556E-1   -7.680799224590580E-2   -2.575165657388127E-3    6.131108019459190E-2    5.758886941781257E-4    6.017254363042036E-2   -5.353836833880521E-1    4.961893350559572E-2
 6.458071405075000E9    -5.831830092203992E-1   -7.566182203855702E-2   -2.206795468836615E-3    6.185319670703406E-2    6.859770793684964E-4    6.078877356112666E-2   -5.351384462890936E-1    5.145253561427861E-2
 6.458082667750000E9    -5.832642458289782E-1   -7.458976789755990E-2   -2.013556059133887E-3    6.240225284201082E-2    9.115845267824873E-4    6.133390901919161E-2   -5.348311777343441E-1    5.334583549888174E-2
