#  HZ   S   RI   R     50.00 
! Rohde & Schwarz Vector Network Analyzer 
! Rohde-Schwarz,ZNB20-2Port,1311601062101988,3.16
! Created: UTC 3/20/2024, 11:11:49 PM
! freq[Hz]                re:S11                  im:S11                  re:S21                  im:S21                  re:S12                  im:S12                  re:S22                  im:S22
 6.456949779000000E9    -5.660009127795447E-1   -1.742490706159756E-1   -8.985290894323294E-3    3.219188593296998E-2   -7.326241062424780E-3    3.209392434880405E-2   -5.311527598011653E-1   -8.712651425262698E-2
 6.456961370550000E9    -5.662628415179413E-1   -1.733027982720476E-1   -8.977856808744187E-3    3.224513411687186E-2   -7.190461212781679E-3    3.233025577520234E-2   -5.312688262770301E-1   -8.586614323442260E-2
 6.456972962100000E9    -5.665527626988995E-1   -1.722732462726834E-1   -8.993551493089514E-3    3.240970169176938E-2   -7.196299417389416E-3    3.241358932074225E-2   -5.314412616424997E-1   -8.489683391726589E-2
 6.456984553650000E9    -5.668665238212305E-1   -1.713474734602941E-1   -8.877004736162160E-3    3.261238629869269E-2   -7.083914649398460E-3    3.267019698444453E-2   -5.316679281995014E-1   -8.351333569574237E-2
 6.456996145200000E9    -5.671590592384886E-1   -1.703831622306711E-1   -8.879404578399277E-3    3.282969741216248E-2   -7.119736311883913E-3    3.286174307426910E-2   -5.318699004046342E-1   -8.223913913700649E-2
 6.457007736750000E9    -5.673626842977696E-1   -1.694927246235699E-1   -8.788932869224310E-3    3.309800599394673E-2   -7.120305850406994E-3    3.300882426439854E-2   -5.320209282334466E-1   -8.120997628121837E-2
 6.457019328300000E9    -5.676295853579961E-1   -1.684205577358676E-1   -8.903791680841036E-3    3.308049769303961E-2   -7.070981629012760E-3    3.316406256757169E-2   -5.320715587800326E-1   -7.993961811765170E-2
 6.457030919850000E9    -5.677757293443437E-1   -1.674852745004138E-1   -8.965604264257264E-3    3.327405737238102E-2   -7.039671834703703E-3    3.328255776800226E-2   -5.323663356647866E-1   -7.863537847066265E-2
 6.457042511400000E9    -5.680927723386300E-1   -1.664848177029405E-1   -8.711938114084234E-3    3.368744973618648E-2   -7.050362409998803E-3    3.353372328168207E-2   -5.325157557440610E-1   -7.751868791549499E-2
 6.457054102950000E9    -5.685089839940178E-1   -1.655634540370158E-1   -8.777563813148377E-3    3.381726053267001E-2   -6.935281390274663E-3    3.384273846638521E-2   -5.326248071600650E-1   -7.631468048875160E-2
 6.457065694500000E9    -5.687301852222447E-1   -1.645533270292828E-1   -8.747906263260503E-3    3.403517872013434E-2   -6.946796144321380E-3    3.395223162478959E-2   -5.327648157060765E-1   -7.516181079339414E-2
 6.457077286050000E9    -5.689772557577882E-1   -1.635734594112147E-1   -8.735942254641613E-3    3.406387791792346E-2   -6.875793550174169E-3    3.409471196007523E-2   -5.328755507387747E-1   -7.398995874344412E-2
 6.457088877600000E9    -5.692161271303149E-1   -1.627164704902649E-1   -8.641585415898319E-3    3.428534863670698E-2   -6.895521695184196E-3    3.436413261027579E-2   -5.331209151323065E-1   -7.250108331440165E-2
 6.457100469150000E9    -5.695093274201044E-1   -1.616814209429491E-1   -8.690209241664004E-3    3.469031171379285E-2   -6.873472938992427E-3    3.459395537877170E-2   -5.333105594058708E-1   -7.141161056569778E-2
 6.457112060700000E9    -5.697607864742787E-1   -1.607270658510792E-1   -8.618563137577698E-3    3.482059190752610E-2   -6.866682557505482E-3    3.481036560169728E-2   -5.335896725408361E-1   -7.016666359917234E-2
 6.457123652250000E9    -5.700140892095634E-1   -1.597669051066231E-1   -8.639593713521715E-3    3.510492574003680E-2   -6.776482930482905E-3    3.487288752899520E-2   -5.337077882863642E-1   -6.893594739322273E-2
 6.457135243800000E9    -5.702281705955554E-1   -1.587248540899089E-1   -8.501634344603623E-3    3.517833529043777E-2   -6.633328978675704E-3    3.510986781190260E-2   -5.337840866084496E-1   -6.772813887153618E-2
 6.457146835350000E9    -5.704009234788844E-1   -1.576676129678967E-1   -8.569450330808210E-3    3.550903640925342E-2   -6.634659251087438E-3    3.532238113969925E-2   -5.339799564341083E-1   -6.650472021416573E-2
 6.457158426900000E9    -5.707619087214821E-1   -1.568104117117682E-1   -8.489469636027126E-3    3.555495691014687E-2   -6.538268541529003E-3    3.554850072204811E-2   -5.341418647732984E-1   -6.522900639940202E-2
 6.457170018450000E9    -5.710460259503075E-1   -1.558079995839740E-1   -8.434351444627303E-3    3.589692833077545E-2   -6.502303886957157E-3    3.575493260975299E-2   -5.341964421105287E-1   -6.391912962308424E-2
 6.457181610000000E9    -5.712291600595902E-1   -1.548331731821988E-1   -8.466259622455013E-3    3.604885326426317E-2   -6.599740278609112E-3    3.606483432950746E-2   -5.343296500356985E-1   -6.270799828178872E-2
 6.457193201550000E9    -5.714695428327804E-1   -1.538516499997790E-1   -8.389018079325759E-3    3.637613113930979E-2   -6.530041876203513E-3    3.615565266542107E-2   -5.345001971954756E-1   -6.148936907120650E-2
 6.457204793100000E9    -5.717268568416204E-1   -1.528846971060328E-1   -8.383858681995213E-3    3.655431128638991E-2   -6.483300582114599E-3    3.639816701319452E-2   -5.347691118338552E-1   -6.016368447410492E-2
 6.457216384650000E9    -5.719679039258162E-1   -1.518435598449572E-1   -8.390539238628260E-3    3.676425323447769E-2   -6.372318785974417E-3    3.659304676878579E-2   -5.347625449768832E-1   -5.889422764492639E-2
 6.457227976200000E9    -5.721604861191941E-1   -1.509018904688145E-1   -8.355589445489031E-3    3.704095230609229E-2   -6.441245707401154E-3    3.673446420159052E-2   -5.348453847487391E-1   -5.755818073949719E-2
 6.457239567750000E9    -5.724544495509434E-1   -1.499380610509978E-1   -8.344854988685533E-3    3.727200942548336E-2   -6.310922577378670E-3    3.707762182341030E-2   -5.349403765756110E-1   -5.634181377324415E-2
 6.457251159300000E9    -5.726243161870466E-1   -1.489526609168193E-1   -8.268380317958721E-3    3.740787497565630E-2   -6.268765409915176E-3    3.728042844576586E-2   -5.350301267563161E-1   -5.514189895419969E-2
 6.457262750850000E9    -5.728998629362421E-1   -1.479417761105021E-1   -8.245344537871289E-3    3.774847332087046E-2   -6.211130376288419E-3    3.759874211249847E-2   -5.352807759822055E-1   -5.373816719315402E-2
 6.457274342400000E9    -5.731543145843391E-1   -1.469672737168825E-1   -8.112695605443076E-3    3.802035772135676E-2   -6.246001072480444E-3    3.777320063931843E-2   -5.353502724449014E-1   -5.235856850618927E-2
 6.457285933950000E9    -5.732372320973020E-1   -1.459579903770090E-1   -8.172003469048393E-3    3.819274343005554E-2   -6.131288499265457E-3    3.793370259216119E-2   -5.354426158126457E-1   -5.118545762384264E-2
 6.457297525500000E9    -5.735401444921043E-1   -1.449439809532301E-1   -8.130229665940665E-3    3.860999052387270E-2   -6.122202165958773E-3    3.824204083793425E-2   -5.355790342042895E-1   -4.994341227984189E-2
 6.457309117050000E9    -5.738323251986447E-1   -1.440399051535486E-1   -8.102142875616827E-3    3.884558947021419E-2   -6.059972883160574E-3    3.849701963325351E-2   -5.357498851522509E-1   -4.851499524712209E-2
 6.457320708600000E9    -5.739710359643224E-1   -1.430206213457266E-1   -7.917076002021966E-3    3.896550784232544E-2   -5.837804127526388E-3    3.875348281174171E-2   -5.357303238437169E-1   -4.715790885100070E-2
 6.457332300150000E9    -5.742732025640161E-1   -1.419309249490171E-1   -7.802138316721815E-3    3.921375296626022E-2   -5.879474924079568E-3    3.891094833301029E-2   -5.358641569187681E-1   -4.590571016724716E-2
 6.457343891700000E9    -5.745164932994360E-1   -1.409304582557166E-1   -7.935861130565410E-3    3.937343883054940E-2   -5.769512446361365E-3    3.921947234834659E-2   -5.360472125426998E-1   -4.446326697407037E-2
 6.457355483250000E9    -5.746810591960104E-1   -1.398621282828173E-1   -7.873260322324209E-3    3.975821598509586E-2   -5.717391562223755E-3    3.953901065790898E-2   -5.360547054594264E-1   -4.324821119449788E-2
 6.457367074800000E9    -5.748886790137584E-1   -1.388729953249370E-1   -7.800750519911632E-3    3.995316481639632E-2   -5.809183337851455E-3    3.965740428098021E-2   -5.362971789599400E-1   -4.199227142538667E-2
 6.457378666350000E9    -5.750101886852070E-1   -1.377855346869974E-1   -7.766837205899532E-3    4.034101990512504E-2   -5.658851200662861E-3    3.992831021724635E-2   -5.363758813169084E-1   -4.059497563463386E-2
 6.457390257900000E9    -5.753856970383354E-1   -1.368333747870770E-1   -7.895949049512985E-3    4.046363465717286E-2   -5.584480258274834E-3    4.012017829495438E-2   -5.364549019359136E-1   -3.922903426570133E-2
 6.457401849450000E9    -5.754658406193559E-1   -1.358321637876434E-1   -7.677097719808170E-3    4.087334475816857E-2   -5.645006096245560E-3    4.051911587709127E-2   -5.365004640347487E-1   -3.780585817216173E-2
 6.457413441000000E9    -5.756874605279829E-1   -1.347976326816205E-1   -7.695909248611936E-3    4.102642435878393E-2   -5.464326117996412E-3    4.073973677163174E-2   -5.365621997389802E-1   -3.650083077322463E-2
 6.457425032550000E9    -5.759153567257829E-1   -1.337896493183922E-1   -7.536005809586893E-3    4.125443639776162E-2   -5.431232537350610E-3    4.098742462777456E-2   -5.365401699904919E-1   -3.513433965164554E-2
 6.457436624100000E9    -5.760611286307806E-1   -1.329090109239913E-1   -7.551475597546446E-3    4.151996411041776E-2   -5.459018456289399E-3    4.128743560284186E-2   -5.367349664312975E-1   -3.377908936977399E-2
 6.457448215650000E9    -5.762620104344569E-1   -1.317732582890162E-1   -7.499699507125306E-3    4.202539790099977E-2   -5.248102830541198E-3    4.162551296817610E-2   -5.367892786156078E-1   -3.230275230125738E-2
 6.457459807200000E9    -5.764490573084571E-1   -1.306774036009899E-1   -7.458764121785613E-3    4.218580311753731E-2   -5.144409806285950E-3    4.192096791663644E-2   -5.367452012203644E-1   -3.101952160085586E-2
 6.457471398750000E9    -5.767493875756646E-1   -1.297001335020595E-1   -7.376211899722316E-3    4.239515450851675E-2   -5.137336507487191E-3    4.203580608612675E-2   -5.367652036823126E-1   -2.950147670970506E-2
 6.457482990300000E9    -5.768383805676257E-1   -1.287193197209584E-1   -7.290833515916366E-3    4.276619771839328E-2   -5.097912317436144E-3    4.245141425817957E-2   -5.369492336517103E-1   -2.814074206450541E-2
 6.457494581850000E9    -5.770278180166594E-1   -1.276646371972918E-1   -7.178023813666026E-3    4.300068296246476E-2   -4.952685119147260E-3    4.270804952266755E-2   -5.369415973868797E-1   -2.666428793658985E-2
 6.457506173400000E9    -5.773030631702299E-1   -1.266283691403368E-1   -7.175658043099708E-3    4.342554512068076E-2   -4.920603525877262E-3    4.299888911167932E-2   -5.369030209787004E-1   -2.538716855984941E-2
 6.457517764950000E9    -5.774801663027533E-1   -1.256018029111018E-1   -7.237474140573413E-3    4.369607079253189E-2   -4.890335925278177E-3    4.332974753401555E-2   -5.369743493607400E-1   -2.397112431713554E-2
 6.457529356500000E9    -5.775977692090655E-1   -1.244694915761529E-1   -7.049988469205570E-3    4.391861627013185E-2   -4.774011918641589E-3    4.360064647959771E-2   -5.370827538612171E-1   -2.239540422551101E-2
 6.457540948050000E9    -5.778444360268515E-1   -1.233959127685976E-1   -7.112424082866926E-3    4.437714653173495E-2   -4.713875036894873E-3    4.401823143123246E-2   -5.371424315073693E-1   -2.106715539142827E-2
 6.457552539600000E9    -5.779592953427287E-1   -1.224595283202727E-1   -6.953197529280548E-3    4.470294503916368E-2   -4.561142810257704E-3    4.428819621758233E-2   -5.372391874343131E-1   -1.960124260851967E-2
 6.457564131150000E9    -5.781392627278126E-1   -1.214690443984579E-1   -6.837685160851639E-3    4.496712067419221E-2   -4.669278966204980E-3    4.451938929100095E-2   -5.371145666429756E-1   -1.816843071324211E-2
 6.457575722700000E9    -5.782639207650722E-1   -1.202793529809276E-1   -6.739037578402203E-3    4.531400675641897E-2   -4.527224082959886E-3    4.488481982659400E-2   -5.372541224992627E-1   -1.663226210375203E-2
 6.457587314250000E9    -5.784284239088173E-1   -1.193275203503418E-1   -6.763598648917462E-3    4.558985843706956E-2   -4.376585896568601E-3    4.512987216574193E-2   -5.372089068671173E-1   -1.510042242195941E-2
 6.457598905800000E9    -5.788197499993322E-1   -1.182211402796688E-1   -6.590319878514365E-3    4.604069242245820E-2   -4.318839919668267E-3    4.550268378490903E-2   -5.370338401043794E-1   -1.376006264909709E-2
 6.457610497350000E9    -5.788654406924503E-1   -1.172430968624075E-1   -6.734691982421217E-3    4.628905901273688E-2   -4.251884267117880E-3    4.580138314287891E-2   -5.371923789137146E-1   -1.217627801131341E-2
 6.457622088900000E9    -5.790063893513490E-1   -1.162159035217648E-1   -6.505925624332176E-3    4.652753256875983E-2   -4.133358528493028E-3    4.617705256962817E-2   -5.372346045818184E-1   -1.068667238198855E-2
 6.457633680450000E9    -5.791559928368986E-1   -1.151094809641541E-1   -6.425028323753955E-3    4.689824225318988E-2   -4.094079312902594E-3    4.645902359575593E-2   -5.371275951893435E-1   -9.198292896248884E-3
 6.457645272000000E9    -5.793749446026524E-1   -1.140810258389048E-1   -6.432886480598661E-3    4.738762857907739E-2   -3.957867524664669E-3    4.680145396120797E-2   -5.372148326077585E-1   -7.736739460507391E-3
 6.457656863550000E9    -5.795704245326488E-1   -1.129806279088688E-1   -6.289278376609369E-3    4.760727205265558E-2   -3.822407791887734E-3    4.724842411642236E-2   -5.370087546144724E-1   -6.254916592271295E-3
 6.457668455100000E9    -5.796797733911246E-1   -1.118136064104196E-1   -6.254715377114866E-3    4.794830831481663E-2   -3.784672529837798E-3    4.747689097234142E-2   -5.371090901170384E-1   -4.696132891048615E-3
 6.457680046650000E9    -5.798751676128950E-1   -1.108571817343317E-1   -6.094004114048686E-3    4.840521667729668E-2   -3.572091782981733E-3    4.785404497087969E-2   -5.371138192861341E-1   -3.103299686910003E-3
 6.457691638200000E9    -5.800022405612908E-1   -1.096171945006291E-1   -6.042121858652314E-3    4.893373631240231E-2   -3.509066594697082E-3    4.818100773522965E-2   -5.371580818761965E-1   -1.646132917225205E-3
 6.457703229750000E9    -5.801122185624140E-1   -1.086349981711984E-1   -5.976467563986002E-3    4.918978247477993E-2   -3.579322815949836E-3    4.846132373704686E-2   -5.371939526293795E-1   -4.315127261052537E-5
 6.457714821300000E9    -5.802892862557982E-1   -1.074992146075216E-1   -5.897111906634777E-3    4.966986769109478E-2   -3.390294011361794E-3    4.899856822603006E-2   -5.370394269330654E-1    1.524784284030525E-3
 6.457726412850000E9    -5.803933809894313E-1   -1.064890673865484E-1   -5.784740549432111E-3    4.998974175454567E-2   -3.196180944282749E-3    4.936269064885823E-2   -5.369365544160423E-1    3.074939331319274E-3
 6.457738004400000E9    -5.805062728309179E-1   -1.053995964969627E-1   -5.634592462665875E-3    5.010438734538243E-2   -3.126439808728831E-3    4.969827719432700E-2   -5.369155712409102E-1    4.756201207861202E-3
 6.457749595950000E9    -5.806783621535324E-1   -1.042739447548918E-1   -5.529582842254412E-3    5.067384221093166E-2   -3.013434758707605E-3    5.002345055664833E-2   -5.368058497323637E-1    6.315290632691500E-3
 6.457761187500000E9    -5.808367339081665E-1   -1.032250346002375E-1   -5.546793380774230E-3    5.112737313006233E-2   -2.917891774315295E-3    5.040623859384838E-2   -5.368445670472008E-1    7.961234170833349E-3
 6.457772779050000E9    -5.808887058915164E-1   -1.020772474072939E-1   -5.375265164832223E-3    5.146748785752227E-2   -2.723609590677080E-3    5.078696302600245E-2   -5.366837424958344E-1    9.638005086321264E-3
 6.457784370600000E9    -5.811737478523399E-1   -1.010942839913982E-1   -5.274163281286374E-3    5.198108572722147E-2   -2.621505766487224E-3    5.137244145057231E-2   -5.366570170058315E-1    1.106378648139606E-2
 6.457795962150000E9    -5.812504526140873E-1   -9.992656765597369E-2   -5.056943114266953E-3    5.237110514011764E-2   -2.525376840936078E-3    5.164077704922144E-2   -5.365001413309690E-1    1.280475869827014E-2
 6.457807553700000E9    -5.813214530552232E-1   -9.890059329670250E-2   -5.008415178094749E-3    5.281345674250217E-2   -2.290819451417815E-3    5.218712256145645E-2   -5.364149637351502E-1    1.446307296973918E-2
 6.457819145250000E9    -5.814655825141617E-1   -9.770361710653638E-2   -4.948883464979043E-3    5.321024066708125E-2   -2.336133180641692E-3    5.246426027297463E-2   -5.362683299890757E-1    1.597193719606614E-2
 6.457830736800000E9    -5.816336599726200E-1   -9.667986117211992E-2   -4.885042979049989E-3    5.361956019256851E-2   -2.179791008529362E-3    5.295156393080967E-2   -5.362832404797676E-1    1.779382524580214E-2
 6.457842328350000E9    -5.817605480142374E-1   -9.554831211466107E-2   -4.725390182049833E-3    5.411575767185618E-2   -1.949270026795838E-3    5.339272759413455E-2   -5.360215130951427E-1    1.937923501071818E-2
 6.457853919900000E9    -5.818200596898514E-1   -9.427772216669357E-2   -4.690302860121509E-3    5.448561431290820E-2   -1.883801878179744E-3    5.384749867921262E-2   -5.359938849488504E-1    2.114291745984798E-2
 6.457865511450000E9    -5.819963550416063E-1   -9.316134263595272E-2   -4.453051603564954E-3    5.512764839844738E-2   -1.690724099096665E-3    5.425667399337016E-2   -5.358027021859071E-1    2.266668383218451E-2
 6.457877103000000E9    -5.819235610866814E-1   -9.215808984359418E-2   -4.268908468989373E-3    5.542708683401214E-2   -1.527087393607786E-3    5.467597084335758E-2   -5.356929749597240E-1    2.461253582983984E-2
 6.457888694550000E9    -5.821576916676471E-1   -9.103654875892528E-2   -4.230812863583385E-3    5.601466824302968E-2   -1.379964728499953E-3    5.525414691208218E-2   -5.355939264253319E-1    2.635837845509918E-2
 6.457900286100000E9    -5.823107709996156E-1   -8.984993808525212E-2   -3.994677857645830E-3    5.634147497097931E-2   -1.337452126429953E-3    5.561585080304826E-2   -5.354484985133532E-1    2.801807191787988E-2
 6.457911877650000E9    -5.823889014228127E-1   -8.870310620115036E-2   -4.064067886849268E-3    5.680778413496048E-2   -1.159039216510147E-3    5.603387226423842E-2   -5.351762963797598E-1    2.972033817278633E-2
 6.457923469200000E9    -5.825150075735885E-1   -8.767635849407218E-2   -3.780916921142599E-3    5.733229824168909E-2   -9.842432489960214E-4    5.653716062734106E-2   -5.350424892435697E-1    3.152628141932753E-2
 6.457935060750000E9    -5.825158026913894E-1   -8.643012334009055E-2   -3.631467786140612E-3    5.787754609174616E-2   -8.238691880867829E-4    5.701518834302433E-2   -5.348181982537310E-1    3.330403449586686E-2
 6.457946652300000E9    -5.825599319149450E-1   -8.522675236734879E-2   -3.544137529114711E-3    5.844362523598261E-2   -6.483665964239760E-4    5.766442369020078E-2   -5.348022353692835E-1    3.502612867275316E-2
 6.457958243850000E9    -5.827397085510528E-1   -8.408505602122618E-2   -3.348561852435688E-3    5.897230106870836E-2   -5.408606860041169E-4    5.796327009635781E-2   -5.345492270741139E-1    3.689678542051165E-2
 6.457969835400000E9    -5.827817452534345E-1   -8.288106307627251E-2   -3.214592248519136E-3    5.950098137927999E-2   -2.545912077649122E-4    5.849102988058303E-2   -5.342193297640144E-1    3.861606956803233E-2
 6.457981426950000E9    -5.829168329936447E-1   -8.182578648734931E-2   -2.983330039824484E-3    6.004328301587696E-2   -2.748473381869375E-5    5.901636349956885E-2   -5.339961018580983E-1    4.058433523717746E-2
 6.457993018500000E9    -5.829632467957964E-1   -8.063786543920964E-2   -2.821464894502065E-3    6.052335843054581E-2    1.206299638167062E-4    5.952158870476711E-2   -5.338821231651454E-1    4.256858555852117E-2
