#  HZ   S   RI   R     50.00 
! Rohde & Schwarz Vector Network Analyzer 
! Rohde-Schwarz,ZNB20-2Port,1311601062101988,3.16
! Created: UTC 3/20/2024, 11:11:54 PM
! freq[Hz]                re:S11                  im:S11                  re:S21                  im:S21                  re:S12                  im:S12                  re:S22                  im:S22
 6.456949786000000E9    -5.659986785284901E-1   -1.741901967110022E-1   -8.898688316675913E-3    3.195743238423799E-2   -7.247378843143694E-3    3.202082974210139E-2   -5.311847844127326E-1   -8.703156865253243E-2
 6.456961380825000E9    -5.663606408791180E-1   -1.732464933971326E-1   -8.973460217783757E-3    3.241598475415984E-2   -7.256654334176088E-3    3.219578955031519E-2   -5.312163171010609E-1   -8.589141268767921E-2
 6.456972975650000E9    -5.666754753383321E-1   -1.722311561150635E-1   -8.888702798319966E-3    3.250301392842980E-2   -7.271823708603610E-3    3.244987998560992E-2   -5.315874065601807E-1   -8.477644586329793E-2
 6.456984570475000E9    -5.668735840339029E-1   -1.713469758969831E-1   -8.923955477132997E-3    3.253873885209917E-2   -7.192780265745282E-3    3.263916555599221E-2   -5.317743896668762E-1   -8.354304767964986E-2
 6.456996165300000E9    -5.670726382986258E-1   -1.704105883526327E-1   -9.003452390314031E-3    3.281224612765045E-2   -7.090738166033589E-3    3.275325204681217E-2   -5.318989849032905E-1   -8.237708978869687E-2
 6.457007760125000E9    -5.674488797871395E-1   -1.693172429833243E-1   -8.867432998822981E-3    3.313310522470526E-2   -7.072486691642925E-3    3.294421796994192E-2   -5.321735085532803E-1   -8.102805296005337E-2
 6.457019354950000E9    -5.676886594039947E-1   -1.683171202814325E-1   -8.946217816065053E-3    3.318025528243883E-2   -7.103936804925002E-3    3.309379574989316E-2   -5.322443315677379E-1   -7.997323353983862E-2
 6.457030949775000E9    -5.680728841352068E-1   -1.674975581905959E-1   -8.893266533059748E-3    3.344464990909291E-2   -6.992117274586164E-3    3.334550693515963E-2   -5.325130738663674E-1   -7.882732892438321E-2
 6.457042544600000E9    -5.681632578847351E-1   -1.665106361953326E-1   -8.886037743932575E-3    3.362886309297450E-2   -7.032503918295571E-3    3.353260824457222E-2   -5.325761381248083E-1   -7.746297387625513E-2
 6.457054139425000E9    -5.683822277538908E-1   -1.655954045063825E-1   -8.673783550393074E-3    3.380305538425133E-2   -6.969486981403783E-3    3.374233276031280E-2   -5.328991492513986E-1   -7.626461335481674E-2
 6.457065734250000E9    -5.686418959864484E-1   -1.645259732341705E-1   -8.830645683979232E-3    3.395029790448875E-2   -6.888901211417814E-3    3.388536910105718E-2   -5.328648542618742E-1   -7.511783287416622E-2
 6.457077329075000E9    -5.689825278878837E-1   -1.636703141635225E-1   -8.689290173663594E-3    3.414323345863885E-2   -6.908495707530027E-3    3.415690171162616E-2   -5.331116957302654E-1   -7.391695079965317E-2
 6.457088923900000E9    -5.691895328351101E-1   -1.626416992251115E-1   -8.633495953575505E-3    3.452517987305510E-2   -6.832265967992763E-3    3.421884995999492E-2   -5.332672249693773E-1   -7.258249878848358E-2
 6.457100518725000E9    -5.695328624854130E-1   -1.616408890085136E-1   -8.649085013596510E-3    3.453211438516987E-2   -6.841847958458924E-3    3.444272530386243E-2   -5.334493604159651E-1   -7.141420001277221E-2
 6.457112113550000E9    -5.697324462620826E-1   -1.607412551490763E-1   -8.540121834569373E-3    3.482568790669329E-2   -6.705006576740905E-3    3.467044832614155E-2   -5.336737468656484E-1   -7.025597658742119E-2
 6.457123708375000E9    -5.699721593066104E-1   -1.596790260805008E-1   -8.618491882720016E-3    3.499450919964042E-2   -6.660257748555202E-3    3.490379328313623E-2   -5.337237426563846E-1   -6.898143178509770E-2
 6.457135303200000E9    -5.702349497538024E-1   -1.588584336775316E-1   -8.469899204197908E-3    3.527272923610485E-2   -6.719196040190870E-3    3.519142800414635E-2   -5.339102927076214E-1   -6.768628309836759E-2
 6.457146898025000E9    -5.704332924331512E-1   -1.579117317216317E-1   -8.548220485427091E-3    3.537295651677810E-2   -6.587805484363636E-3    3.533173642450897E-2   -5.339945071312761E-1   -6.643137700522771E-2
 6.457158492850000E9    -5.707341679416794E-1   -1.567628999289669E-1   -8.543208320433445E-3    3.561200561721382E-2   -6.619351862737360E-3    3.565634157520271E-2   -5.342111267092107E-1   -6.531321303971732E-2
 6.457170087675000E9    -5.710476791909228E-1   -1.557897028322320E-1   -8.524071544773323E-3    3.580125408094914E-2   -6.573038471135391E-3    3.583356749092248E-2   -5.343100720215512E-1   -6.384261201218792E-2
 6.457181682500000E9    -5.712564317375473E-1   -1.547596804168816E-1   -8.462502855157605E-3    3.605622336048713E-2   -6.582839796406519E-3    3.598990948941681E-2   -5.344932335860483E-1   -6.259836573591933E-2
 6.457193277325000E9    -5.714519771936846E-1   -1.538093017036046E-1   -8.344666185275554E-3    3.633788076162831E-2   -6.496008742574761E-3    3.624934653278796E-2   -5.347711300287037E-1   -6.140494497649621E-2
 6.457204872150000E9    -5.717796656396825E-1   -1.528956790752404E-1   -8.342715838779217E-3    3.659858374378309E-2   -6.399250336324751E-3    3.642521926025253E-2   -5.348650718737095E-1   -6.007495003875554E-2
 6.457216466975000E9    -5.719127417838361E-1   -1.518658195362508E-1   -8.371719463484360E-3    3.668038859634361E-2   -6.377613255473567E-3    3.669279364364475E-2   -5.348995225026426E-1   -5.889244439421606E-2
 6.457228061800000E9    -5.721714481652160E-1   -1.509351280436471E-1   -8.358406523621935E-3    3.704322938899608E-2   -6.336688769220532E-3    3.690075999652054E-2   -5.350306580144690E-1   -5.760702896013249E-2
 6.457239656625000E9    -5.723854743197957E-1   -1.498033787755328E-1   -8.317383158872985E-3    3.713602348721465E-2   -6.381775719747728E-3    3.714637970371872E-2   -5.352524149321737E-1   -5.647404381393837E-2
 6.457251251450000E9    -5.726814986050097E-1   -1.489411044263736E-1   -8.175729043458818E-3    3.736808350630284E-2   -6.202537118567943E-3    3.730786947960320E-2   -5.353945927929916E-1   -5.508248599500493E-2
 6.457262846275000E9    -5.727629385676629E-1   -1.478869976812003E-1   -8.192855334856650E-3    3.763991995802897E-2   -6.173862346563282E-3    3.755702857078078E-2   -5.354077463401704E-1   -5.363505187262575E-2
 6.457274441100000E9    -5.731284856185107E-1   -1.469080050842020E-1   -8.168894036973023E-3    3.794205929506991E-2   -6.184296755115578E-3    3.776585134952958E-2   -5.356348453462407E-1   -5.246241644802588E-2
 6.457286035925000E9    -5.732440186459181E-1   -1.459613311915055E-1   -8.127675623314970E-3    3.820098330198798E-2   -6.117476670885976E-3    3.797891806135838E-2   -5.355965731202412E-1   -5.113922506348147E-2
 6.457297630750000E9    -5.735189669903492E-1   -1.448016925354235E-1   -8.073114254876867E-3    3.844190223314067E-2   -6.060070950460286E-3    3.828168668367980E-2   -5.357395243513771E-1   -4.984910120408727E-2
 6.457309225575000E9    -5.737127801990600E-1   -1.438634755113380E-1   -8.028741625650745E-3    3.856875711100474E-2   -5.984269633031993E-3    3.849708237979140E-2   -5.357943602492818E-1   -4.849852500855277E-2
 6.457320820400000E9    -5.739285272659567E-1   -1.429132658698097E-1   -8.007601155770388E-3    3.891263875675423E-2   -5.917839510418698E-3    3.871126464862599E-2   -5.359781187212629E-1   -4.724157142649166E-2
 6.457332415225000E9    -5.742164189102199E-1   -1.418901892491298E-1   -7.984265371248992E-3    3.923338963862799E-2   -5.859782823308933E-3    3.888711451412712E-2   -5.361042173951222E-1   -4.576970140831150E-2
 6.457344010050000E9    -5.743896597555204E-1   -1.409131231406732E-1   -7.894489465232798E-3    3.950648599415707E-2   -5.862051318986477E-3    3.914743103774822E-2   -5.361478298803902E-1   -4.445067526457602E-2
 6.457355604875000E9    -5.745686361262583E-1   -1.398674973069867E-1   -7.841381377400501E-3    3.976945906966667E-2   -5.843755012308185E-3    3.949910700586826E-2   -5.362099635322651E-1   -4.321788211191047E-2
 6.457367199700000E9    -5.748269260319488E-1   -1.389036398832071E-1   -7.716655843790586E-3    3.984623243648663E-2   -5.711330305580226E-3    3.967987468027303E-2   -5.363622825475518E-1   -4.176374450672395E-2
 6.457378794525000E9    -5.750664837458878E-1   -1.378451480096312E-1   -7.849599465164867E-3    4.026643046722625E-2   -5.606697416472167E-3    3.994885827162108E-2   -5.365213240701565E-1   -4.059232251410309E-2
 6.457390389350000E9    -5.753210335149873E-1   -1.367711514127576E-1   -7.651758015907922E-3    4.057329544310501E-2   -5.616566450516300E-3    4.023619400781295E-2   -5.365110651011590E-1   -3.914979098861012E-2
 6.457401984175000E9    -5.754504243485911E-1   -1.357692817738961E-1   -7.672989971219575E-3    4.064441490079198E-2   -5.584108324967915E-3    4.050067867841115E-2   -5.365624764475529E-1   -3.787172840257561E-2
 6.457413579000000E9    -5.756277303807967E-1   -1.347975331419498E-1   -7.544552481456416E-3    4.106039556637663E-2   -5.496990022624023E-3    4.079857284544144E-2   -5.367443390541764E-1   -3.638492687196463E-2
 6.457425173825000E9    -5.759908708255108E-1   -1.337670954999748E-1   -7.641991953105733E-3    4.130857269439214E-2   -5.536890609343597E-3    4.099829235299647E-2   -5.366545183966953E-1   -3.505490013384043E-2
 6.457436768650000E9    -5.759906267050227E-1   -1.328265939907613E-1   -7.547793329650520E-3    4.139311349499147E-2   -5.326371500427369E-3    4.128739458968923E-2   -5.367087849508936E-1   -3.371468281612188E-2
 6.457448363475000E9    -5.764255604561100E-1   -1.317659722701615E-1   -7.460729679762369E-3    4.188700814300371E-2   -5.320379098335861E-3    4.157847143625296E-2   -5.368995505512690E-1   -3.240884032446657E-2
 6.457459958300000E9    -5.764849551931506E-1   -1.307750478760956E-1   -7.335591402583750E-3    4.213165698656807E-2   -5.252185508739313E-3    4.184967683865444E-2   -5.368290989688221E-1   -3.094298122194582E-2
 6.457471553125000E9    -5.766570266058638E-1   -1.297128653912448E-1   -7.385140948863282E-3    4.245478971335639E-2   -5.148673188012249E-3    4.217883158175789E-2   -5.369539645589692E-1   -2.960921138068479E-2
 6.457483147950000E9    -5.768780899439919E-1   -1.287037630389299E-1   -7.316822682449913E-3    4.281719018641451E-2   -5.036307172563097E-3    4.242088287584428E-2   -5.369953832998638E-1   -2.812620505681115E-2
 6.457494742775000E9    -5.771853839164393E-1   -1.276329394591994E-1   -7.235939002408400E-3    4.298296554372125E-2   -4.962779083930585E-3    4.268632198113653E-2   -5.369799382481807E-1   -2.676598056239413E-2
 6.457506337600000E9    -5.771473467856395E-1   -1.265173932689647E-1   -7.222073189143151E-3    4.346691588880501E-2   -4.965818169481094E-3    4.300116789002145E-2   -5.371679653818794E-1   -2.533043728763743E-2
 6.457517932425000E9    -5.774739510722204E-1   -1.255899825945162E-1   -7.069527958695906E-3    4.365940955785825E-2   -4.797127527006825E-3    4.331993654534923E-2   -5.371743629538392E-1   -2.386142197315510E-2
 6.457529527250000E9    -5.776100595989061E-1   -1.245586187447553E-1   -7.088376910107010E-3    4.399345965861404E-2   -4.900781075594932E-3    4.363123567984645E-2   -5.372600391297051E-1   -2.247552832635882E-2
 6.457541122075000E9    -5.778123538593576E-1   -1.234380682184336E-1   -6.871720068738718E-3    4.421170150043519E-2   -4.775631528660235E-3    4.385598481892262E-2   -5.371416192974131E-1   -2.084863767925520E-2
 6.457552716900000E9    -5.780458734944022E-1   -1.223793099994683E-1   -6.908826075175985E-3    4.454795608063142E-2   -4.590458553292067E-3    4.421007676924970E-2   -5.371255182320915E-1   -1.947219404236261E-2
 6.457564311725000E9    -5.781467581604005E-1   -1.213957044905430E-1   -6.729828230410384E-3    4.495629872065707E-2   -4.500959831396130E-3    4.451221696730488E-2   -5.374014231974307E-1   -1.804486399182390E-2
 6.457575906550000E9    -5.783367531796690E-1   -1.203562754946116E-1   -6.813882904065261E-3    4.526943636649567E-2   -4.449112103277026E-3    4.481799273551739E-2   -5.373104569874791E-1   -1.670406776152669E-2
 6.457587501375000E9    -5.785879159597400E-1   -1.193312989059857E-1   -6.784330912225512E-3    4.557774799150306E-2   -4.327217002016991E-3    4.515710878606739E-2   -5.373273949683461E-1   -1.507739731755731E-2
 6.457599096200000E9    -5.787411574696589E-1   -1.181047476215574E-1   -6.611532256919215E-3    4.601379816989078E-2   -4.247467285305694E-3    4.552989610125543E-2   -5.373293209505189E-1   -1.367899108174203E-2
 6.457610691025000E9    -5.788972672909694E-1   -1.172175136919816E-1   -6.602989289568707E-3    4.617375586422198E-2   -4.201420041293958E-3    4.580667368680227E-2   -5.373593535151426E-1   -1.243060206766291E-2
 6.457622285850000E9    -5.789825903776098E-1   -1.160750218466921E-1   -6.605088774606453E-3    4.656310204982105E-2   -4.175569585315052E-3    4.617483602368634E-2   -5.374249316630819E-1   -1.069016077683503E-2
 6.457633880675000E9    -5.790890130374853E-1   -1.150405470879323E-1   -6.436615767849019E-3    4.698386152781790E-2   -3.983563565005636E-3    4.649830603677010E-2   -5.373368822225268E-1   -9.172781635434460E-3
 6.457645475500000E9    -5.794211167416304E-1   -1.140029024360307E-1   -6.333376491337599E-3    4.726567011164393E-2   -3.882497103574141E-3    4.681764161331325E-2   -5.373878537481250E-1   -7.653377165161030E-3
 6.457657070325000E9    -5.794639931627894E-1   -1.129903564995259E-1   -6.270165401798759E-3    4.777510328871274E-2   -3.867837984935503E-3    4.716261935757866E-2   -5.373025090579917E-1   -6.118230437076416E-3
 6.457668665150000E9    -5.795893395302594E-1   -1.118687725279659E-1   -6.270558813666637E-3    4.814091316376248E-2   -3.796858753749551E-3    4.754307133070549E-2   -5.372149606606208E-1   -4.603568413564771E-3
 6.457680259975000E9    -5.797663464099680E-1   -1.107589370108680E-1   -6.010729780126928E-3    4.827129531400186E-2   -3.591103602458475E-3    4.792052941546997E-2   -5.372856829933267E-1   -3.029211930989073E-3
 6.457691854800000E9    -5.800087813837261E-1   -1.097466143005806E-1   -5.976129059060083E-3    4.878735004152521E-2   -3.575221239903748E-3    4.824924936578446E-2   -5.373009599317680E-1   -1.560654792369221E-3
 6.457703449625000E9    -5.801295379382345E-1   -1.086478476894621E-1   -5.913666077402104E-3    4.903915367202592E-2   -3.414384619340328E-3    4.863487955200463E-2   -5.371017359801513E-1   -1.394027600034676E-4
 6.457715044450000E9    -5.802947319232606E-1   -1.075120175701094E-1   -5.899405510082125E-3    4.947924334088354E-2   -3.271465150174776E-3    4.892842283093235E-2   -5.371344153653143E-1    1.588161161750401E-3
 6.457726639275000E9    -5.803979499852070E-1   -1.065058316690323E-1   -5.767969894137022E-3    4.992296057711368E-2   -3.264110977449130E-3    4.927151192210603E-2   -5.369928830960429E-1    3.089533555547730E-3
 6.457738234100000E9    -5.804884940287298E-1   -1.054017114990899E-1   -5.771530615383897E-3    5.027836680664001E-2   -3.099448681211647E-3    4.976698701945462E-2   -5.370269465018948E-1    4.597369338922713E-3
 6.457749828925000E9    -5.806897921846479E-1   -1.043002913142518E-1   -5.499603455118186E-3    5.069246967838915E-2   -3.049541181341129E-3    5.000615725474510E-2   -5.370081274977941E-1    6.365981933079095E-3
 6.457761423750000E9    -5.808839254834580E-1   -1.033580327123628E-1   -5.398587982080219E-3    5.106901368960793E-2   -2.902418445488502E-3    5.051580407046737E-2   -5.367781030391475E-1    7.780310065345258E-3
 6.457773018575000E9    -5.809680780344045E-1   -1.020612621703968E-1   -5.418547794650262E-3    5.145329302744810E-2   -2.814325546404664E-3    5.097439756807131E-2   -5.368566061249826E-1    9.549027797472309E-3
 6.457784613400000E9    -5.811560877165131E-1   -1.010089730693474E-1   -5.206950833196201E-3    5.189038248551642E-2   -2.607904751575549E-3    5.130209958029770E-2   -5.367520351033811E-1    1.121783109627825E-2
 6.457796208225000E9    -5.811818925509428E-1   -9.982484422822234E-2   -5.228235934201019E-3    5.237359228743999E-2   -2.559765455847396E-3    5.162746916498947E-2   -5.365375369081008E-1    1.273261156463058E-2
 6.457807803050000E9    -5.813765659984984E-1   -9.883285936480153E-2   -5.107789198179331E-3    5.268849790221249E-2   -2.346526848793249E-3    5.207588945756288E-2   -5.365766601785751E-1    1.439963921735509E-2
 6.457819397875000E9    -5.815331893787899E-1   -9.759634412216094E-2   -4.966928702972266E-3    5.312267513170227E-2   -2.315347611165563E-3    5.247205587532217E-2   -5.363823801530999E-1    1.618574719845115E-2
 6.457830992700000E9    -5.816813453183433E-1   -9.664584839711708E-2   -4.864827452379323E-3    5.371390343017878E-2   -2.143122700594159E-3    5.290695862778549E-2   -5.364574371201910E-1    1.774094498146632E-2
 6.457842587525000E9    -5.817394158324107E-1   -9.545234373171858E-2   -4.617152334490272E-3    5.408943052478831E-2   -2.027696768856722E-3    5.339088591096704E-2   -5.361600146276669E-1    1.949940117549948E-2
 6.457854182350000E9    -5.818572582973689E-1   -9.432975160288876E-2   -4.555532129845951E-3    5.432820122702745E-2   -1.838422946123678E-3    5.383210127149668E-2   -5.361216110893627E-1    2.113365497674826E-2
 6.457865777175000E9    -5.819205626357329E-1   -9.328823534852536E-2   -4.542968364921201E-3    5.502371172647753E-2   -1.767033006835429E-3    5.424956918757692E-2   -5.359544049260733E-1    2.281206384284004E-2
 6.457877372000000E9    -5.819510993497775E-1   -9.206795564629074E-2   -4.405522692137456E-3    5.539241386367996E-2   -1.534474853779255E-3    5.464541615362432E-2   -5.358376560974365E-1    2.448918641328431E-2
 6.457888966825000E9    -5.821201229720548E-1   -9.104776620795042E-2   -4.177344093933963E-3    5.607634961222741E-2   -1.396130364188826E-3    5.516264957954189E-2   -5.356398912384793E-1    2.631729197795861E-2
 6.457900561650000E9    -5.823082801194497E-1   -8.982193353671956E-2   -4.069947736914166E-3    5.641461955814816E-2   -1.239365909231526E-3    5.563980369660294E-2   -5.355220793978892E-1    2.810162531686837E-2
 6.457912156475000E9    -5.822811297977456E-1   -8.870280456546875E-2   -4.077686349473160E-3    5.686377937329552E-2   -1.135846803588088E-3    5.613472776788609E-2   -5.353608690355707E-1    2.980687181047390E-2
 6.457923751300000E9    -5.824360583569431E-1   -8.753139966944963E-2   -3.795124834854784E-3    5.737499340982175E-2   -9.735565788934082E-4    5.655746772630767E-2   -5.352413248530432E-1    3.159759852767198E-2
 6.457935346125000E9    -5.825825674433607E-1   -8.644405726654798E-2   -3.651669319824310E-3    5.783883291549209E-2   -7.615979686181649E-4    5.703084723107705E-2   -5.350190116734190E-1    3.332397477364838E-2
 6.457946940950000E9    -5.826228820533500E-1   -8.522104227064789E-2   -3.543204164802512E-3    5.847723352566886E-2   -4.755709594131675E-4    5.750812572201457E-2   -5.346569670615973E-1    3.509808141608978E-2
 6.457958535775000E9    -5.827226419913106E-1   -8.402129235182931E-2   -3.346624832615571E-3    5.886718603408071E-2   -4.231612535926333E-4    5.802300352147913E-2   -5.345642510057094E-1    3.707152088849684E-2
 6.457970130600000E9    -5.828582627758369E-1   -8.297583400895954E-2   -3.051152678944912E-3    5.947782156861169E-2   -2.770339383273713E-4    5.851454523115678E-2   -5.344810773895945E-1    3.882667248174476E-2
 6.457981725425000E9    -5.829665632811318E-1   -8.176821233172282E-2   -3.002277931982149E-3    5.995558171973878E-2   -1.381955241748641E-4    5.908679057237540E-2   -5.342063948365732E-1    4.072260527984574E-2
 6.457993320250000E9    -5.829368114924796E-1   -8.063145566554747E-2   -2.954526124967621E-3    6.058125781887640E-2    9.363364949740016E-5    5.968392256634739E-2   -5.338208752669225E-1    4.251640086886109E-2
