#  HZ   S   RI   R     50.00 
! Rohde & Schwarz Vector Network Analyzer 
! Rohde-Schwarz,ZNB20-2Port,1311601062101988,3.16
! Created: UTC 3/20/2024, 11:12:01 PM
! freq[Hz]                re:S11                  im:S11                  re:S21                  im:S21                  re:S12                  im:S12                  re:S22                  im:S22
 6.456952191000000E9    -5.661471776009078E-1   -1.739880947732976E-1   -9.125672469490642E-3    3.209995661556474E-2   -7.278380482442653E-3    3.223926152502034E-2   -5.313809618358823E-1   -8.688682249330661E-2
 6.456963777350000E9    -5.663260437747264E-1   -1.730771873088501E-1   -9.058084150340201E-3    3.219634098313176E-2   -7.295414700218441E-3    3.224372686085081E-2   -5.316845070962043E-1   -8.564690258585446E-2
 6.456975363700000E9    -5.665830232753876E-1   -1.720640718986430E-1   -8.899879712753755E-3    3.257686921439720E-2   -7.314896584579073E-3    3.247765626709993E-2   -5.317277689620844E-1   -8.444377791939424E-2
 6.456986950050000E9    -5.668435768085863E-1   -1.711619327563771E-1   -8.872126192329060E-3    3.267629109230150E-2   -7.173375018864362E-3    3.265203896934447E-2   -5.320358085218857E-1   -8.320331923250869E-2
 6.456998536400000E9    -5.672009240911029E-1   -1.702424386297088E-1   -8.731880074547399E-3    3.274526632548545E-2   -7.168122857831911E-3    3.292226435791935E-2   -5.321250687538228E-1   -8.216377917399795E-2
 6.457010122750000E9    -5.675067780106563E-1   -1.692356993882001E-1   -8.913328470737886E-3    3.307515551778606E-2   -7.064200953763482E-3    3.312995522235212E-2   -5.323274582587508E-1   -8.093632009812203E-2
 6.457021709100000E9    -5.677393870083486E-1   -1.682504244673885E-1   -8.831650377950605E-3    3.332835047160927E-2   -7.096022662957126E-3    3.313220916940779E-2   -5.324800918376018E-1   -7.971745730839612E-2
 6.457033295450000E9    -5.679644925791094E-1   -1.673149926311704E-1   -8.791139602213621E-3    3.340219339361673E-2   -7.066103262848319E-3    3.335478181125757E-2   -5.327411965929100E-1   -7.855981375469032E-2
 6.457044881800000E9    -5.682431496584903E-1   -1.662948264304027E-1   -8.939434439085854E-3    3.363538714162490E-2   -6.927693440884464E-3    3.360244083943831E-2   -5.326880261712641E-1   -7.737347877666026E-2
 6.457056468150000E9    -5.685115202767788E-1   -1.654447405508909E-1   -8.619998567467568E-3    3.383495253736902E-2   -6.961887000615995E-3    3.374365549321601E-2   -5.329975138851557E-1   -7.603495361754924E-2
 6.457068054500000E9    -5.686778757291054E-1   -1.643833408730374E-1   -8.754951290679634E-3    3.398692043894331E-2   -6.967791248948936E-3    3.395090485687755E-2   -5.331537701801345E-1   -7.501561374900680E-2
 6.457079640850000E9    -5.690704527897139E-1   -1.634682157993642E-1   -8.593898331796182E-3    3.422076716553531E-2   -6.793782250335690E-3    3.420212146047537E-2   -5.332683417561875E-1   -7.350999444567612E-2
 6.457091227200000E9    -5.692560914466923E-1   -1.624546992658394E-1   -8.693178965391101E-3    3.446983321005771E-2   -6.807932924095857E-3    3.437980838436687E-2   -5.336001151630876E-1   -7.240273669531036E-2
 6.457102813550000E9    -5.695352426412665E-1   -1.615335882544608E-1   -8.571181109195188E-3    3.460883806448766E-2   -6.870898889627566E-3    3.451831116178214E-2   -5.337205705696333E-1   -7.130315609119399E-2
 6.457114399900000E9    -5.697470297844611E-1   -1.604540436077911E-1   -8.678484777635392E-3    3.473910180594975E-2   -6.809916602241725E-3    3.477734852569897E-2   -5.338147647306463E-1   -7.009411559134580E-2
 6.457125986250000E9    -5.700624880197331E-1   -1.595591067346368E-1   -8.667591741008569E-3    3.496346862245062E-2   -6.683997873027587E-3    3.485922032211313E-2   -5.340217731934630E-1   -6.865807229830934E-2
 6.457137572600000E9    -5.702892428533264E-1   -1.586009803613423E-1   -8.576746721625058E-3    3.530934513025091E-2   -6.727868531348336E-3    3.521927943025521E-2   -5.341391478980080E-1   -6.749445157739797E-2
 6.457149158950000E9    -5.705378030413180E-1   -1.575009758894462E-1   -8.521317684745086E-3    3.527677992361573E-2   -6.610653816675015E-3    3.534268920577417E-2   -5.343447938080543E-1   -6.616740980967277E-2
 6.457160745300000E9    -5.707087667340246E-1   -1.566249420558470E-1   -8.442596298987694E-3    3.560555758002641E-2   -6.540378695809227E-3    3.548273162472201E-2   -5.344243330511206E-1   -6.507799040943268E-2
 6.457172331650000E9    -5.711271198920108E-1   -1.556484476709771E-1   -8.523289290411049E-3    3.590120033383221E-2   -6.484999009824744E-3    3.581850630011679E-2   -5.345630381247909E-1   -6.366341985448973E-2
 6.457183918000000E9    -5.711527453911411E-1   -1.546562800156182E-1   -8.499613676830987E-3    3.612220228168910E-2   -6.604134587895634E-3    3.608056748328311E-2   -5.347712420733846E-1   -6.251681408216203E-2
 6.457195504350000E9    -5.715762882046023E-1   -1.538043990914513E-1   -8.388873129014283E-3    3.634134264634421E-2   -6.391272841403855E-3    3.620907142548672E-2   -5.348663532526450E-1   -6.121897262948563E-2
 6.457207090700000E9    -5.717293320089991E-1   -1.527219908224765E-1   -8.409941706599380E-3    3.646043022011500E-2   -6.419067607930694E-3    3.648942059521337E-2   -5.349723563022660E-1   -6.007906609250290E-2
 6.457218677050000E9    -5.719646101729199E-1   -1.516179158705970E-1   -8.434961280085857E-3    3.693592194995506E-2   -6.380050697331229E-3    3.663115407253281E-2   -5.351017379287593E-1   -5.869518859326704E-2
 6.457230263400000E9    -5.720935590981833E-1   -1.506707632868778E-1   -8.273511344859106E-3    3.701472097205262E-2   -6.291089210810050E-3    3.683915486814814E-2   -5.352472992379355E-1   -5.741317686815253E-2
 6.457241849750000E9    -5.723873566653043E-1   -1.498307217374089E-1   -8.317721685195158E-3    3.739386455923904E-2   -6.240080620553253E-3    3.718444632094413E-2   -5.353828403565670E-1   -5.610511319228435E-2
 6.457253436100000E9    -5.726830793939821E-1   -1.487417233453209E-1   -8.272944126696283E-3    3.752845650015648E-2   -6.234974063831814E-3    3.729818958346921E-2   -5.354517608843975E-1   -5.484551193561046E-2
 6.457265022450000E9    -5.728864486602568E-1   -1.477917227858595E-1   -8.083372531547069E-3    3.758589761902371E-2   -6.263936411789470E-3    3.758950864502695E-2   -5.355882417400926E-1   -5.350467399085614E-2
 6.457276608800000E9    -5.730937421787988E-1   -1.468072435292178E-1   -8.152878942100763E-3    3.790962284096806E-2   -6.040946616687742E-3    3.780586047711795E-2   -5.358696153510403E-1   -5.232501124663232E-2
 6.457288195150000E9    -5.734277248977647E-1   -1.457055225434275E-1   -8.031081238437479E-3    3.823712270369194E-2   -6.014291063918060E-3    3.805259381257417E-2   -5.358339256529975E-1   -5.084261499335881E-2
 6.457299781500000E9    -5.736322289261455E-1   -1.447385590133197E-1   -8.020739750713627E-3    3.849660142280535E-2   -5.981080209894695E-3    3.834804038017263E-2   -5.360159174712948E-1   -4.973334358615832E-2
 6.457311367850000E9    -5.737979621495801E-1   -1.437768518456098E-1   -7.984597571589182E-3    3.863808849292752E-2   -5.923991578796634E-3    3.857440456653868E-2   -5.361022296472939E-1   -4.833551957913037E-2
 6.457322954200000E9    -5.740422103053794E-1   -1.428383155658407E-1   -7.955373225712480E-3    3.897154471207705E-2   -5.932608991425617E-3    3.878603698873710E-2   -5.361097460025894E-1   -4.689915697310591E-2
 6.457334540550000E9    -5.743355127365496E-1   -1.417274795637234E-1   -7.890689880617325E-3    3.916353080780987E-2   -5.855863185965067E-3    3.904818270531844E-2   -5.362074569117261E-1   -4.574317626640190E-2
 6.457346126900000E9    -5.745380352529821E-1   -1.408248298350106E-1   -7.841894041400793E-3    3.953034378379665E-2   -5.761480727247301E-3    3.931487924837033E-2   -5.364528991677071E-1   -4.436752375667192E-2
 6.457357713250000E9    -5.746374059543795E-1   -1.396269772643616E-1   -7.887101599560702E-3    3.975182049367542E-2   -5.709785595755794E-3    3.944647319539629E-2   -5.364915007542299E-1   -4.285163246968360E-2
 6.457369299600000E9    -5.749014513558961E-1   -1.387154346664812E-1   -7.764961057435797E-3    4.002582759794249E-2   -5.659761003475904E-3    3.976522357951712E-2   -5.365012843415505E-1   -4.154902209855248E-2
 6.457380885950000E9    -5.750097426933852E-1   -1.376391062449221E-1   -7.838399186919032E-3    4.019236824618166E-2   -5.625176860620330E-3    4.000563093688330E-2   -5.366779338540978E-1   -4.038686535023351E-2
 6.457392472300000E9    -5.753151550993683E-1   -1.367671565292274E-1   -7.783674836853337E-3    4.057572854349958E-2   -5.569002113894555E-3    4.016920836105292E-2   -5.366460105680959E-1   -3.899936436900538E-2
 6.457404058650000E9    -5.756508119131062E-1   -1.356353098089716E-1   -7.602891031761753E-3    4.083063788085318E-2   -5.524591734931006E-3    4.062959229796220E-2   -5.368308719851339E-1   -3.752320713078897E-2
 6.457415645000000E9    -5.757870484468205E-1   -1.345906267216741E-1   -7.501888463850393E-3    4.099238281402073E-2   -5.495391260506905E-3    4.076041160210711E-2   -5.367507831656751E-1   -3.629271395383565E-2
 6.457427231350000E9    -5.760025686852743E-1   -1.336424786397688E-1   -7.600609767046955E-3    4.128873431491924E-2   -5.390612391873024E-3    4.102556730356923E-2   -5.368861408072839E-1   -3.490510129852262E-2
 6.457438817700000E9    -5.761599177166543E-1   -1.325446514650275E-1   -7.437875571213877E-3    4.151374510517063E-2   -5.305096666500263E-3    4.130132263914899E-2   -5.369077659808519E-1   -3.357225569933680E-2
 6.457450404050000E9    -5.762589070751866E-1   -1.315256848664796E-1   -7.451734257275250E-3    4.188529750757407E-2   -5.226351800788428E-3    4.162923135955350E-2   -5.370348274263774E-1   -3.209845296066237E-2
 6.457461990400000E9    -5.764400650494491E-1   -1.305932362371472E-1   -7.384596450662876E-3    4.217057977991692E-2   -5.157522964327288E-3    4.184476749633145E-2   -5.370769414299322E-1   -3.072998575636757E-2
 6.457473576750000E9    -5.766496451759253E-1   -1.296343623006676E-1   -7.450971005435170E-3    4.250660370813249E-2   -5.197532299097610E-3    4.214256242079763E-2   -5.371207640070272E-1   -2.931098166014667E-2
 6.457485163100000E9    -5.769456380387836E-1   -1.284779451825706E-1   -7.362490364828536E-3    4.280813565342605E-2   -5.106986573619137E-3    4.248126954058929E-2   -5.372686027659681E-1   -2.782633945433700E-2
 6.457496749450000E9    -5.769701800551579E-1   -1.274732134629210E-1   -7.241510339550107E-3    4.317036808151589E-2   -5.055793000976989E-3    4.276409756651477E-2   -5.371763115915337E-1   -2.640045492301619E-2
 6.457508335800000E9    -5.773327159647929E-1   -1.264064038673565E-1   -7.089836262866986E-3    4.343712704557422E-2   -4.955310104702034E-3    4.298760474227085E-2   -5.373077194841676E-1   -2.502881901176279E-2
 6.457519922150000E9    -5.774665521596840E-1   -1.254041862436545E-1   -7.206909464456008E-3    4.374277514816285E-2   -4.795452233107966E-3    4.339644289271229E-2   -5.373203265639819E-1   -2.370608028047243E-2
 6.457531508500000E9    -5.777141932825921E-1   -1.244134670008865E-1   -6.944544624167679E-3    4.400131057672890E-2   -4.694829810293395E-3    4.360216477706901E-2   -5.373108760349881E-1   -2.211289359282497E-2
 6.457543094850000E9    -5.779014526228170E-1   -1.233131326239113E-1   -7.018558481281439E-3    4.433254154214408E-2   -4.574635165440761E-3    4.399917881283726E-2   -5.372990534292528E-1   -2.078658639443726E-2
 6.457554681200000E9    -5.779985138651268E-1   -1.222539486369249E-1   -6.815377466319074E-3    4.458696936743533E-2   -4.555693567004381E-3    4.422778820960510E-2   -5.373357117818075E-1   -1.934862575675433E-2
 6.457566267550000E9    -5.780988809809245E-1   -1.212787114095234E-1   -6.773328249069144E-3    4.501241560784818E-2   -4.533479717551234E-3    4.462777064859243E-2   -5.375204427819830E-1   -1.784101959736195E-2
 6.457577853900000E9    -5.783083642095529E-1   -1.202059835752561E-1   -6.692246853706756E-3    4.533845324441105E-2   -4.458183592859373E-3    4.491288686568420E-2   -5.374685627364796E-1   -1.649055740055530E-2
 6.457589440250000E9    -5.785071745658138E-1   -1.191646967415907E-1   -6.700384837255671E-3    4.557625647538897E-2   -4.383185754761271E-3    4.525713798778653E-2   -5.375352475573134E-1   -1.480015158522958E-2
 6.457601026600000E9    -5.787931915037096E-1   -1.181005541465165E-1   -6.646459782068178E-3    4.588474888589198E-2   -4.295416525080052E-3    4.552571107621044E-2   -5.375378710560111E-1   -1.345986252903755E-2
 6.457612612950000E9    -5.788433034011757E-1   -1.170006484977710E-1   -6.652717055378607E-3    4.630905952774017E-2   -4.161670430367235E-3    4.590179384655466E-2   -5.375596198409467E-1   -1.203644545190712E-2
 6.457624199300000E9    -5.790390567601881E-1   -1.158942102194462E-1   -6.653031835652920E-3    4.675934092558680E-2   -4.111966106383505E-3    4.624205694116170E-2   -5.374614356857746E-1   -1.044750460717605E-2
 6.457635785650000E9    -5.792144653735257E-1   -1.148020077498174E-1   -6.349686283422720E-3    4.698794955117135E-2   -4.128889331546808E-3    4.660901448355121E-2   -5.374246700217004E-1   -8.939523864899294E-3
 6.457647372000000E9    -5.793708336584166E-1   -1.137591277878903E-1   -6.332665849096815E-3    4.737365543188204E-2   -3.881029415060894E-3    4.685869312976618E-2   -5.374942237808410E-1   -7.510399767446464E-3
 6.457658958350000E9    -5.796050102205448E-1   -1.127576615155423E-1   -6.236880844624207E-3    4.768168349218219E-2   -3.878812972647432E-3    4.715256032477223E-2   -5.374830465998934E-1   -6.020135013461252E-3
 6.457670544700000E9    -5.797508310865426E-1   -1.117041021083173E-1   -6.140110068195642E-3    4.788981915685225E-2   -3.770098932371082E-3    4.759138245285025E-2   -5.374138222459021E-1   -4.332020157171784E-3
 6.457682131050000E9    -5.798652796171936E-1   -1.106544548803077E-1   -6.185205770977266E-3    4.840771559268490E-2   -3.683880074741976E-3    4.790884762142787E-2   -5.373996711293693E-1   -2.904272196152203E-3
 6.457693717400000E9    -5.799439672525368E-1   -1.095770498856010E-1   -5.996363041539157E-3    4.867579372995087E-2   -3.525354331582681E-3    4.827292249070599E-2   -5.374108403836391E-1   -1.380441244619652E-3
 6.457705303750000E9    -5.801991136024290E-1   -1.084902542634947E-1   -5.921334557827184E-3    4.906545158054654E-2   -3.497103816987179E-3    4.863753083607729E-2   -5.372744750369898E-1    2.046733366918920E-4
 6.457716890100000E9    -5.802741160893167E-1   -1.073802506924941E-1   -5.850094470645724E-3    4.955633227306228E-2   -3.252511950036782E-3    4.900707376094696E-2   -5.372060618097386E-1    1.825438358447072E-3
 6.457728476450000E9    -5.804473600125183E-1   -1.063191861694276E-1   -5.680041845161032E-3    4.995325048062829E-2   -3.266325732639358E-3    4.941411299832877E-2   -5.373010407970763E-1    3.273415857959994E-3
 6.457740062800000E9    -5.804899161002526E-1   -1.052020461360605E-1   -5.610373093684832E-3    5.034681143019588E-2   -3.047704679516283E-3    4.972856881872297E-2   -5.371727503272302E-1    4.967242644749707E-3
 6.457751649150000E9    -5.806808798425936E-1   -1.040902093206730E-1   -5.443541244749555E-3    5.066536035016338E-2   -3.085537906961663E-3    5.008997066019118E-2   -5.370739722075289E-1    6.523377772740485E-3
 6.457763235500000E9    -5.808833199941497E-1   -1.029991901094434E-1   -5.491603637154840E-3    5.116213540459335E-2   -2.836500183694001E-3    5.047308620108666E-2   -5.370813917457744E-1    8.178987225893166E-3
 6.457774821850000E9    -5.809294004483169E-1   -1.020140811634009E-1   -5.259837991510541E-3    5.145401619111773E-2   -2.775561366937646E-3    5.092161338600321E-2   -5.370111223732540E-1    9.661266619565616E-3
 6.457786408200000E9    -5.810761801966901E-1   -1.007885508510036E-1   -5.303506613569165E-3    5.187869870625853E-2   -2.534647068583538E-3    5.125133281023671E-2   -5.369513479987823E-1    1.130438211349947E-2
 6.457797994550000E9    -5.812782813145856E-1   -9.974667074067474E-2   -5.071473229291687E-3    5.244908543694705E-2   -2.414816733016929E-3    5.172768479806883E-2   -5.367817851206049E-1    1.299682269226262E-2
 6.457809580900000E9    -5.813043163036729E-1   -9.870475187183060E-2   -4.986556321033635E-3    5.291791569405886E-2   -2.378933834486875E-3    5.206833836002499E-2   -5.365932222645692E-1    1.465937579116930E-2
 6.457821167250000E9    -5.815108518467148E-1   -9.753299474911209E-2   -4.837717061821780E-3    5.327205330977278E-2   -2.273083014460254E-3    5.256407171786029E-2   -5.367256379533015E-1    1.626097025298119E-2
 6.457832753600000E9    -5.816070758227108E-1   -9.646053302566406E-2   -4.699688058242615E-3    5.375164858809835E-2   -2.067949529509058E-3    5.304457116748786E-2   -5.362619206180851E-1    1.808790090901620E-2
 6.457844339950000E9    -5.817066233476981E-1   -9.537480475628470E-2   -4.655813547338569E-3    5.426060738678222E-2   -2.031559225375967E-3    5.346609405282129E-2   -5.363425629323115E-1    1.977744320183749E-2
 6.457855926300000E9    -5.818971741743327E-1   -9.423237507798664E-2   -4.531977779462769E-3    5.467422186449710E-2   -1.839153060673716E-3    5.385386844179847E-2   -5.362570861418277E-1    2.136545512062931E-2
 6.457867512650000E9    -5.819207708702376E-1   -9.312139007217456E-2   -4.399297688302366E-3    5.507057490761915E-2   -1.783716592397544E-3    5.425860202174933E-2   -5.362035907743984E-1    2.294347486313328E-2
 6.457879099000000E9    -5.820518842524839E-1   -9.190825008919763E-2   -4.129134337446734E-3    5.558569397393374E-2   -1.535369012446588E-3    5.470201276739729E-2   -5.360047033972712E-1    2.465920621377317E-2
 6.457890685350000E9    -5.821500631952298E-1   -9.077691980071859E-2   -4.097447923921402E-3    5.595192698283061E-2   -1.358230144560153E-3    5.512216998152783E-2   -5.357296974303933E-1    2.658834798692249E-2
 6.457902271700000E9    -5.823054455494903E-1   -8.957362854270645E-2   -3.943853562889750E-3    5.647654889016695E-2   -1.146345478583556E-3    5.565163908781034E-2   -5.355749658901674E-1    2.820262824179618E-2
 6.457913858050000E9    -5.823386726359696E-1   -8.857799499824064E-2   -3.931910776258117E-3    5.699438075859921E-2   -1.062241331157347E-3    5.607579867561012E-2   -5.355291889617366E-1    3.000349790046247E-2
 6.457925444400000E9    -5.824025137897345E-1   -8.740546218278433E-2   -3.644719677316159E-3    5.742687061532487E-2   -8.574101943676992E-4    5.658503224580805E-2   -5.353230275780427E-1    3.188843162349880E-2
 6.457937030750000E9    -5.825813508709570E-1   -8.630904591843962E-2   -3.635732259104874E-3    5.793367641532610E-2   -7.455177604706147E-4    5.702041719727509E-2   -5.351916359037054E-1    3.371993854837886E-2
 6.457948617100000E9    -5.826642679310553E-1   -8.501884143153633E-2   -3.418018280342586E-3    5.844638735755049E-2   -5.680330983280852E-4    5.756231176921266E-2   -5.349003476775246E-1    3.536753471119867E-2
 6.457960203450000E9    -5.827870551855541E-1   -8.393937507228610E-2   -3.257976768988268E-3    5.906799990723372E-2   -4.165553412814641E-4    5.811073258204479E-2   -5.347244451627504E-1    3.717026836597828E-2
 6.457971789800000E9    -5.827456830909414E-1   -8.271898574222512E-2   -3.128746229351848E-3    5.959250703928527E-2   -1.258051108742364E-4    5.861384307133406E-2   -5.343904925666757E-1    3.902094823639686E-2
 6.457983376150000E9    -5.828857210153968E-1   -8.159844612324427E-2   -3.010258277530808E-3    6.001259963931443E-2   -1.638543675696990E-4    5.903541243504922E-2   -5.341690885132044E-1    4.090602812579759E-2
 6.457994962500000E9    -5.828590914105093E-1   -8.039691775808100E-2   -2.732551411086638E-3    6.061078141537691E-2    2.310942715410842E-4    5.954325716249436E-2   -5.339430949876085E-1    4.277327865164118E-2
