#  HZ   S   RI   R     50.00 
! Rohde & Schwarz Vector Network Analyzer 
! Rohde-Schwarz,ZNB20-2Port,1311601062101988,3.16
! Created: UTC 3/20/2024, 11:12:23 PM
! freq[Hz]                re:S11                  im:S11                  re:S21                  im:S21                  re:S12                  im:S12                  re:S22                  im:S22
 6.456953205000000E9    -5.661694678339810E-1   -1.739698671348416E-1   -8.933003703744185E-3    3.216961390342683E-2   -7.177110995074251E-3    3.208398357278119E-2   -5.313601774844173E-1   -8.699732754105198E-2
 6.456964795775000E9    -5.663877043180114E-1   -1.730413035882430E-1   -9.103461471226371E-3    3.227139526446077E-2   -7.254759569891633E-3    3.231854134897552E-2   -5.316263535248380E-1   -8.584013903341106E-2
 6.456976386550000E9    -5.667651132862787E-1   -1.722106988474680E-1   -8.886311252003936E-3    3.246551193978441E-2   -7.215844610618765E-3    3.248885944917756E-2   -5.316377871859715E-1   -8.441462014263201E-2
 6.456987977325000E9    -5.669872842108790E-1   -1.711137001231592E-1   -8.864041677843380E-3    3.259025284899943E-2   -7.123274289925941E-3    3.265844243062897E-2   -5.321658721316189E-1   -8.348839164178942E-2
 6.456999568100000E9    -5.672865971236623E-1   -1.702104188571257E-1   -8.873340234976441E-3    3.290319596894378E-2   -7.025372452630602E-3    3.274694627997618E-2   -5.322315543422649E-1   -8.211930460019692E-2
 6.457011158875000E9    -5.674490770857222E-1   -1.692535112237500E-1   -8.938190574801269E-3    3.301860049837788E-2   -7.054125678851456E-3    3.297559985039298E-2   -5.322483381607928E-1   -8.103913483541653E-2
 6.457022749650000E9    -5.677641261460327E-1   -1.682193670545135E-1   -8.878406405731952E-3    3.320476870376576E-2   -7.069575224510765E-3    3.317157564583006E-2   -5.324539200570313E-1   -7.973829040499950E-2
 6.457034340425000E9    -5.680178106093039E-1   -1.673111485031104E-1   -8.879814929419725E-3    3.344367442327546E-2   -6.984406335117695E-3    3.343718718963511E-2   -5.326341953000888E-1   -7.852804225963993E-2
 6.457045931200000E9    -5.682407936659408E-1   -1.663272832552631E-1   -8.685164713876986E-3    3.369679557209011E-2   -6.975575042197467E-3    3.356747724142894E-2   -5.328961496210119E-1   -7.732984727534481E-2
 6.457057521975000E9    -5.685546093101929E-1   -1.653007863857019E-1   -8.698271689425914E-3    3.380774537274641E-2   -6.901418292722920E-3    3.374421306907425E-2   -5.329822674500747E-1   -7.609065703767896E-2
 6.457069112750000E9    -5.687732179248728E-1   -1.643938357770562E-1   -8.691658715966950E-3    3.409835244107636E-2   -6.836752312657918E-3    3.390628937457708E-2   -5.330785285279653E-1   -7.494357896908607E-2
 6.457080703525000E9    -5.690665394753035E-1   -1.634325832072597E-1   -8.750072101089183E-3    3.411378715663287E-2   -6.930235284534799E-3    3.411080222112683E-2   -5.331534366311089E-1   -7.373326204134618E-2
 6.457092294300000E9    -5.694159090135046E-1   -1.624849225330253E-1   -8.714636115782829E-3    3.449505840641599E-2   -6.898684105829700E-3    3.439148930771374E-2   -5.334136086736726E-1   -7.250199025875273E-2
 6.457103885075000E9    -5.695454331127553E-1   -1.614651925898090E-1   -8.612367348606495E-3    3.469183432972690E-2   -6.740083147524650E-3    3.460915263741013E-2   -5.335820637977691E-1   -7.116093004054133E-2
 6.457115475850000E9    -5.697956531596969E-1   -1.605363661668581E-1   -8.723141337464890E-3    3.473579209839497E-2   -6.741770203522017E-3    3.473593999802237E-2   -5.338561754122479E-1   -7.006537462839499E-2
 6.457127066625000E9    -5.700054030835383E-1   -1.595222488350781E-1   -8.523924622915539E-3    3.505814074786891E-2   -6.684263266373584E-3    3.495051513678864E-2   -5.340478869214276E-1   -6.878888086081186E-2
 6.457138657400000E9    -5.703247437304586E-1   -1.585398403749907E-1   -8.625060262259251E-3    3.524875528261363E-2   -6.680092242668410E-3    3.513566317986738E-2   -5.340967087409058E-1   -6.747378114319305E-2
 6.457150248175000E9    -5.705393225107163E-1   -1.575755779378649E-1   -8.548008794945107E-3    3.547947461769251E-2   -6.681053151241708E-3    3.530078221503068E-2   -5.343173677503422E-1   -6.636724372507420E-2
 6.457161838950000E9    -5.707572877207224E-1   -1.566837442744104E-1   -8.546794929573538E-3    3.563309679982325E-2   -6.607638495623447E-3    3.556598348305689E-2   -5.343424514445229E-1   -6.506711722654472E-2
 6.457173429725000E9    -5.709594785924303E-1   -1.556383250756307E-1   -8.539902166636507E-3    3.587037680712266E-2   -6.530374808981928E-3    3.575847163775164E-2   -5.345222657442968E-1   -6.383360904646285E-2
 6.457185020500000E9    -5.712324110642916E-1   -1.546334949634746E-1   -8.454186503505363E-3    3.615544479574992E-2   -6.513472335511661E-3    3.604609335377029E-2   -5.347390644161510E-1   -6.248088606292530E-2
 6.457196611275000E9    -5.714760868238652E-1   -1.535849045718728E-1   -8.420572163788142E-3    3.631198385328696E-2   -6.490423562606822E-3    3.632944919642806E-2   -5.348350373055146E-1   -6.132582243450002E-2
 6.457208202050000E9    -5.717586619940025E-1   -1.526425632116539E-1   -8.260598065650533E-3    3.660990785517386E-2   -6.373859838586084E-3    3.648941423888993E-2   -5.350490246841232E-1   -5.999851107455752E-2
 6.457219792825000E9    -5.719555524474299E-1   -1.517317050811945E-1   -8.491143555969253E-3    3.676489550843630E-2   -6.410429434426709E-3    3.665489541925145E-2   -5.350650514664435E-1   -5.873691545210061E-2
 6.457231383600000E9    -5.722474387307352E-1   -1.506756019173261E-1   -8.280653191946792E-3    3.697491892872458E-2   -6.372807079528340E-3    3.679509063699710E-2   -5.352436681258660E-1   -5.748253157100918E-2
 6.457242974375000E9    -5.724427543021633E-1   -1.496546463892924E-1   -8.290416205140852E-3    3.728274238433926E-2   -6.237918989877471E-3    3.712157489562021E-2   -5.353495657885801E-1   -5.609350867357946E-2
 6.457254565150000E9    -5.727107183754736E-1   -1.486773472084391E-1   -8.225601744550179E-3    3.749546070293711E-2   -6.219585835265034E-3    3.733079988168859E-2   -5.353435721995440E-1   -5.497401202654387E-2
 6.457266155925000E9    -5.729132160468456E-1   -1.477184955236978E-1   -8.246156180043230E-3    3.783027561137162E-2   -6.155021292234252E-3    3.759586855706064E-2   -5.355122110497723E-1   -5.365149363174341E-2
 6.457277746700000E9    -5.731965272138965E-1   -1.466991675622731E-1   -8.164716422707581E-3    3.808132911995138E-2   -6.153683904891608E-3    3.785405773834642E-2   -5.359018949195409E-1   -5.223233231392053E-2
 6.457289337475000E9    -5.733006935058768E-1   -1.457754971922172E-1   -8.067872916162205E-3    3.824011523920818E-2   -6.017399055550424E-3    3.799615053826103E-2   -5.357926379890535E-1   -5.099909477081183E-2
 6.457300928250000E9    -5.735698600598413E-1   -1.448000948804860E-1   -7.986521830788714E-3    3.845743136816969E-2   -6.030857673550005E-3    3.824651666115549E-2   -5.358877682132104E-1   -4.948386758166339E-2
 6.457312519025000E9    -5.738158568498190E-1   -1.437477740308138E-1   -8.130743833349522E-3    3.863863107029717E-2   -6.095637586835872E-3    3.838042336093328E-2   -5.359699254712699E-1   -4.825104636231954E-2
 6.457324109800000E9    -5.739664701411318E-1   -1.427569453661375E-1   -7.974073843946916E-3    3.892116426055877E-2   -5.925201743593303E-3    3.878950004147930E-2   -5.361563114903968E-1   -4.704356195546756E-2
 6.457335700575000E9    -5.742664496764480E-1   -1.417434938713856E-1   -7.804257689391563E-3    3.914952223652184E-2   -5.881045585858942E-3    3.900956393810351E-2   -5.362315544704045E-1   -4.563474798776772E-2
 6.457347291350000E9    -5.744056698524375E-1   -1.407367203873320E-1   -8.007601958171726E-3    3.938839730619380E-2   -5.813391985688026E-3    3.931804881924522E-2   -5.364247852197483E-1   -4.436242819821996E-2
 6.457358882125000E9    -5.745588576848440E-1   -1.397461825646628E-1   -7.819358253235244E-3    3.976299816190921E-2   -5.766767325762438E-3    3.949144611886166E-2   -5.363627772086523E-1   -4.299830339165548E-2
 6.457370472900000E9    -5.749684460230301E-1   -1.386249211994382E-1   -7.729106090736419E-3    4.000471501822185E-2   -5.683469877975449E-3    3.978362376260391E-2   -5.365364091744177E-1   -4.168054394354081E-2
 6.457382063675000E9    -5.750274684409485E-1   -1.376899730155330E-1   -7.911767296358429E-3    4.024534422321083E-2   -5.515393895154979E-3    3.996320290907812E-2   -5.366451127894983E-1   -4.036265018419860E-2
 6.457393654450000E9    -5.753597148720726E-1   -1.366480445939556E-1   -7.646909535154532E-3    4.045088211443696E-2   -5.678984866638496E-3    4.029553439496989E-2   -5.367517469511576E-1   -3.902065845295679E-2
 6.457405245225000E9    -5.755691029834010E-1   -1.356091592097933E-1   -7.681640092052233E-3    4.077974497664880E-2   -5.540341654930065E-3    4.045090646372460E-2   -5.366652609931504E-1   -3.759285633867710E-2
 6.457416836000000E9    -5.756547171716881E-1   -1.346648792884783E-1   -7.592339001374313E-3    4.097620631044072E-2   -5.374150787893645E-3    4.081412591523043E-2   -5.368542950867236E-1   -3.631796116883559E-2
 6.457428426775000E9    -5.758905363023161E-1   -1.336328097584913E-1   -7.635564277203975E-3    4.131392193084030E-2   -5.379026161070305E-3    4.115399496364907E-2   -5.368667439497294E-1   -3.489317331413438E-2
 6.457440017550000E9    -5.761383996743328E-1   -1.326192841933284E-1   -7.398955203605373E-3    4.172487376155792E-2   -5.397219933430864E-3    4.137760309915458E-2   -5.369636999648844E-1   -3.356022165322509E-2
 6.457451608325000E9    -5.763504423161295E-1   -1.316090764093367E-1   -7.560220074226297E-3    4.191974934517874E-2   -5.286096142516138E-3    4.168379313982365E-2   -5.370893614274765E-1   -3.205129602756267E-2
 6.457463199100000E9    -5.764863117488604E-1   -1.304946461559721E-1   -7.342389633188511E-3    4.211427114825494E-2   -5.220034122185186E-3    4.199829430717385E-2   -5.372384733589776E-1   -3.060304289802213E-2
 6.457474789875000E9    -5.767236535343666E-1   -1.294500228287150E-1   -7.340601668998345E-3    4.255851696173137E-2   -5.169750879463048E-3    4.211241103786059E-2   -5.371823726564002E-1   -2.939065389769470E-2
 6.457486380650000E9    -5.768781963242519E-1   -1.284063276917366E-1   -7.291534537409391E-3    4.277244389503158E-2   -5.027596849472932E-3    4.248673315010364E-2   -5.370873030120045E-1   -2.784705472722729E-2
 6.457497971425000E9    -5.770801561084582E-1   -1.273585075894214E-1   -7.236328433039446E-3    4.306543297712651E-2   -4.984074959482046E-3    4.263796072727502E-2   -5.372144344756489E-1   -2.668918930119246E-2
 6.457509562200000E9    -5.773299607980036E-1   -1.264875457724253E-1   -7.194342428011744E-3    4.336078581921331E-2   -4.951027819859529E-3    4.308855562523142E-2   -5.372776869151830E-1   -2.518732989778541E-2
 6.457521152975000E9    -5.775900812915464E-1   -1.253903454145887E-1   -7.084438877656181E-3    4.370805848709437E-2   -4.827473357565204E-3    4.336388613490658E-2   -5.373043545079175E-1   -2.376163338622231E-2
 6.457532743750000E9    -5.775979413641474E-1   -1.242956833962530E-1   -7.046270275182382E-3    4.389215812671335E-2   -4.775901013643846E-3    4.363729319987128E-2   -5.373960884461131E-1   -2.213630988082970E-2
 6.457544334525000E9    -5.778460139608573E-1   -1.233064356899041E-1   -6.971443627364997E-3    4.433736153997197E-2   -4.751689278024098E-3    4.403431915576430E-2   -5.373822409802261E-1   -2.085403494872613E-2
 6.457555925300000E9    -5.780286692312075E-1   -1.222506786743045E-1   -6.951810135255421E-3    4.462636490947432E-2   -4.674314634776475E-3    4.424499677322795E-2   -5.374623775350944E-1   -1.928316646126578E-2
 6.457567516075000E9    -5.781974298436652E-1   -1.212617184416986E-1   -6.901217962771881E-3    4.500261424806269E-2   -4.520491841775053E-3    4.454478117719147E-2   -5.372582948310456E-1   -1.789867956408810E-2
 6.457579106850000E9    -5.783419700598114E-1   -1.200356849971993E-1   -6.757446859126937E-3    4.535219354570978E-2   -4.471471996891412E-3    4.487360925472503E-2   -5.373962684765335E-1   -1.635220721230075E-2
 6.457590697625000E9    -5.785693640028033E-1   -1.191133880284970E-1   -6.813468494389412E-3    4.548620600126801E-2   -4.334771316863967E-3    4.518483041082594E-2   -5.374844993098229E-1   -1.498931835600193E-2
 6.457602288400000E9    -5.786835763968345E-1   -1.179837588763952E-1   -6.713694587953829E-3    4.596427248972441E-2   -4.229836277111887E-3    4.551703136914123E-2   -5.373972432727347E-1   -1.353685346190538E-2
 6.457613879175000E9    -5.789654096148259E-1   -1.170167894968325E-1   -6.685115409102524E-3    4.627359792632971E-2   -4.193774005038263E-3    4.585912413613714E-2   -5.375858919869885E-1   -1.190163025831238E-2
 6.457625469950000E9    -5.789721082334568E-1   -1.159862234255962E-1   -6.516299504123754E-3    4.668450837402362E-2   -4.134030796221865E-3    4.619332617957107E-2   -5.374770933555948E-1   -1.054759742671852E-2
 6.457637060725000E9    -5.791848652157990E-1   -1.149394216752496E-1   -6.434744627934630E-3    4.698204680858686E-2   -4.049896199249989E-3    4.646979653993043E-2   -5.373693154550803E-1   -8.961971418821130E-3
 6.457648651500000E9    -5.794315694735799E-1   -1.137845453659608E-1   -6.344405355836569E-3    4.734761355785922E-2   -3.945330411352037E-3    4.681899373953021E-2   -5.374598479041693E-1   -7.445959944084706E-3
 6.457660242275000E9    -5.796029197211254E-1   -1.127111357985534E-1   -6.142029531612106E-3    4.773695811978738E-2   -3.886807344440479E-3    4.716444747696557E-2   -5.375163381019241E-1   -6.056788032600689E-3
 6.457671833050000E9    -5.797897331515880E-1   -1.117065314039150E-1   -6.168508304109155E-3    4.811350965767264E-2   -3.708867164555718E-3    4.749275637245792E-2   -5.374095888091371E-1   -4.524935398165800E-3
 6.457683423825000E9    -5.798764831481881E-1   -1.106288339367631E-1   -6.119201226593804E-3    4.856686730604542E-2   -3.562127617828621E-3    4.793522224751016E-2   -5.374597421556560E-1   -2.928675807367093E-3
 6.457695014600000E9    -5.800892076102230E-1   -1.096365912116422E-1   -5.966273749562295E-3    4.882575408264389E-2   -3.513183666335099E-3    4.826424462041141E-2   -5.373550126013396E-1   -1.359585764872062E-3
 6.457706605375000E9    -5.802190961406946E-1   -1.084505871048204E-1   -5.928573525767337E-3    4.913749069154848E-2   -3.483120353897160E-3    4.859720007410512E-2   -5.372845554399210E-1    3.023195142246381E-4
 6.457718196150000E9    -5.803519557914192E-1   -1.073619569398302E-1   -5.813988065326323E-3    4.951458910694335E-2   -3.319269523816696E-3    4.906790910556511E-2   -5.372375037629629E-1    1.782646259407893E-3
 6.457729786925000E9    -5.805112635229185E-1   -1.062351738147795E-1   -5.710819966374481E-3    4.995090159337570E-2   -3.229255996384624E-3    4.934403198405165E-2   -5.371505382394427E-1    3.365331515874021E-3
 6.457741377700000E9    -5.805016108318870E-1   -1.051282546859850E-1   -5.784689147665979E-3    5.033451069395712E-2   -3.020171395173060E-3    4.974025449293668E-2   -5.372688267224982E-1    4.817366624711842E-3
 6.457752968475000E9    -5.807162560256065E-1   -1.041483813956966E-1   -5.538940186546081E-3    5.074361791304288E-2   -3.012495472207306E-3    5.012059639403976E-2   -5.372283641800264E-1    6.528785324949795E-3
 6.457764559250000E9    -5.808907748916046E-1   -1.030060885431507E-1   -5.483000721882093E-3    5.123058470268441E-2   -2.916425066508424E-3    5.053263557071366E-2   -5.369312018736871E-1    8.078649602749706E-3
 6.457776150025000E9    -5.809838627152049E-1   -1.019817687979449E-1   -5.352573957599758E-3    5.157552545875054E-2   -2.726221865937094E-3    5.090973269689696E-2   -5.370284739106599E-1    9.809278829818354E-3
 6.457787740800000E9    -5.810887076699235E-1   -1.007278188881990E-1   -5.241425326805412E-3    5.194157025615029E-2   -2.661961731483359E-3    5.128614016521817E-2   -5.368861439653956E-1    1.128274737767236E-2
 6.457799331575000E9    -5.813882549591479E-1   -9.978475787543742E-2   -5.197908743375078E-3    5.233164060927412E-2   -2.485622949857299E-3    5.171999518164949E-2   -5.366664565618789E-1    1.287473965782578E-2
 6.457810922350000E9    -5.814359186847089E-1   -9.863547051715510E-2   -4.962597853532358E-3    5.286366464090160E-2   -2.396198399652550E-3    5.204605321427201E-2   -5.366544702653812E-1    1.464188598077817E-2
 6.457822513125000E9    -5.816214726652930E-1   -9.758991107299518E-2   -4.994012637060834E-3    5.314930199027182E-2   -2.172390433514696E-3    5.256356683696640E-2   -5.365389174650571E-1    1.624287205933153E-2
 6.457834103900000E9    -5.816648001791681E-1   -9.639232642834876E-2   -4.833579006598989E-3    5.363290132779847E-2   -2.132046363774219E-3    5.301424120722766E-2   -5.364264785533145E-1    1.794579668570230E-2
 6.457845694675000E9    -5.818806957725453E-1   -9.517508980968019E-2   -4.712301919174309E-3    5.406221374572401E-2   -1.946994608752931E-3    5.347266780753344E-2   -5.363671473555912E-1    1.971982756565002E-2
 6.457857285450000E9    -5.818015435764872E-1   -9.416314680347436E-2   -4.733534868599855E-3    5.463539818429978E-2   -1.833030434023800E-3    5.380617531965634E-2   -5.362048621913810E-1    2.121171153865647E-2
 6.457868876225000E9    -5.819682522926598E-1   -9.298770958256282E-2   -4.391025308057184E-3    5.496463341958513E-2   -1.637400289984659E-3    5.431742728773565E-2   -5.361215238365974E-1    2.309733565838610E-2
 6.457880467000000E9    -5.821084578510237E-1   -9.184152209555005E-2   -4.248489433920402E-3    5.550975200553947E-2   -1.507199801346063E-3    5.462152630739961E-2   -5.359242341056181E-1    2.472247503790456E-2
 6.457892057775000E9    -5.821300526476553E-1   -9.076563199397461E-2   -4.246327654864299E-3    5.602342155213966E-2   -1.375562983838182E-3    5.516503544274775E-2   -5.357171422978119E-1    2.641190105254761E-2
 6.457903648550000E9    -5.823363786923529E-1   -8.965988199357766E-2   -4.060178481474431E-3    5.645382437099120E-2   -1.283971450046335E-3    5.563301869646817E-2   -5.355172827968191E-1    2.815237466313846E-2
 6.457915239325000E9    -5.825235509305065E-1   -8.850433279632976E-2   -3.869383134125920E-3    5.682155857188016E-2   -1.149546568718431E-3    5.613059222402452E-2   -5.356179988527130E-1    3.015764146734684E-2
 6.457926830100000E9    -5.824673650217133E-1   -8.739003510473138E-2   -3.687685844807832E-3    5.748002230281316E-2   -9.033784269902215E-4    5.650616730655543E-2   -5.352563010730664E-1    3.180727255860950E-2
 6.457938420875000E9    -5.826127552986221E-1   -8.616537119772691E-2   -3.580185182306203E-3    5.797652793094338E-2   -8.051743956447547E-4    5.702233904737203E-2   -5.350885979398152E-1    3.347768627898717E-2
 6.457950011650000E9    -5.825666258656697E-1   -8.496863102994570E-2   -3.401441848751336E-3    5.849313800524163E-2   -6.270924273033861E-4    5.748598290553407E-2   -5.349941927955426E-1    3.535002981055418E-2
 6.457961602425000E9    -5.828529667031587E-1   -8.391690281404968E-2   -3.262222543137313E-3    5.889796349431115E-2   -4.173945083655590E-4    5.805517151617172E-2   -5.347287024793289E-1    3.715814907036470E-2
 6.457973193200000E9    -5.828334346245421E-1   -8.274070329344203E-2   -3.060616610004634E-3    5.952121115694903E-2   -2.234101950952097E-4    5.853689203367559E-2   -5.344958213417795E-1    3.898579671020837E-2
 6.457984783975000E9    -5.829220937695482E-1   -8.159798248891187E-2   -2.844539536941063E-3    6.007590509905781E-2   -8.102795685385132E-5    5.904295291911422E-2   -5.342492116011086E-1    4.085764108292309E-2
 6.457996374750000E9    -5.829810923102683E-1   -8.041820674565146E-2   -2.711445226163203E-3    6.063668276300003E-2    6.241091047162422E-5    5.956901372558968E-2   -5.339940496103561E-1    4.268766823049319E-2
