#  HZ   S   RI   R     50.00 
! Rohde & Schwarz Vector Network Analyzer 
! Rohde-Schwarz,ZNB20-2Port,1311601062101988,3.16
! Created: UTC 3/20/2024, 11:12:36 PM
! freq[Hz]                re:S11                  im:S11                  re:S21                  im:S21                  re:S12                  im:S12                  re:S22                  im:S22
 6.456955986000000E9    -5.662369483751761E-1   -1.735913531858999E-1   -8.787052999360332E-3    3.202478491923041E-2   -7.212533710937016E-3    3.213559408911820E-2   -5.314489386730609E-1   -8.670289578738755E-2
 6.456967568750000E9    -5.664133097160768E-1   -1.726519697340108E-1   -8.934907167121546E-3    3.227902963699009E-2   -7.182570299165881E-3    3.235301305686945E-2   -5.314776627746207E-1   -8.557119365959638E-2
 6.456979151500000E9    -5.665923207800497E-1   -1.715616323254514E-1   -8.979861182123270E-3    3.249286090527336E-2   -7.106748073968520E-3    3.246994614681409E-2   -5.318039613525358E-1   -8.422301134575151E-2
 6.456990734250000E9    -5.669966560329945E-1   -1.707738865529085E-1   -8.983086702047212E-3    3.268254657832402E-2   -7.139189546310498E-3    3.256944157811752E-2   -5.318262941163029E-1   -8.301525626435384E-2
 6.457002317000000E9    -5.672340897913863E-1   -1.697228186782194E-1   -8.918401221326797E-3    3.284805169096559E-2   -7.017804637549651E-3    3.283287750990932E-2   -5.320447541802791E-1   -8.201801602956667E-2
 6.457013899750000E9    -5.675331184964295E-1   -1.688008509436996E-1   -8.760749959364099E-3    3.302427122539841E-2   -7.048700907366789E-3    3.303999238764031E-2   -5.323316376147806E-1   -8.069245743878149E-2
 6.457025482500000E9    -5.677329472986734E-1   -1.678912296951528E-1   -8.775405335195486E-3    3.320675151535710E-2   -7.016430335622307E-3    3.317110090533847E-2   -5.324387615580807E-1   -7.955634788335013E-2
 6.457037065250000E9    -5.680398274705392E-1   -1.669078070212101E-1   -8.767315270256823E-3    3.346541488066218E-2   -6.984696133245804E-3    3.348199532755063E-2   -5.325709749362637E-1   -7.817729780341705E-2
 6.457048648000000E9    -5.684189156851419E-1   -1.659035470509932E-1   -8.798670984599697E-3    3.368052923793299E-2   -7.011626287592226E-3    3.363327652798354E-2   -5.328359007213532E-1   -7.705634280225240E-2
 6.457060230750000E9    -5.684739013932237E-1   -1.648528933075232E-1   -8.709898121522253E-3    3.383043615908324E-2   -7.006496500393356E-3    3.384978335102339E-2   -5.329571310008058E-1   -7.591138444611963E-2
 6.457071813500000E9    -5.688364820874355E-1   -1.640632135426068E-1   -8.747225554803771E-3    3.415916629958214E-2   -6.923633950866603E-3    3.398468306694481E-2   -5.330813632647692E-1   -7.475795076114972E-2
 6.457083396250000E9    -5.689914228059433E-1   -1.628514336746392E-1   -8.637387973652202E-3    3.429719308142401E-2   -6.858321910353345E-3    3.414218877761319E-2   -5.333237409251721E-1   -7.350703943376370E-2
 6.457094979000000E9    -5.692915865155651E-1   -1.620432081109009E-1   -8.546557572393735E-3    3.435110725806086E-2   -6.909821957857603E-3    3.430826352141163E-2   -5.335477778212332E-1   -7.227216643737758E-2
 6.457106561750000E9    -5.696477287080399E-1   -1.610522232425320E-1   -8.549017866591060E-3    3.465235161594368E-2   -6.768047294320467E-3    3.452528820737370E-2   -5.336270789856516E-1   -7.091487458141178E-2
 6.457118144500000E9    -5.698832316585698E-1   -1.601054820208986E-1   -8.624774677314212E-3    3.489126511683272E-2   -6.801197552893505E-3    3.469562167186353E-2   -5.337300887464674E-1   -6.983518533686595E-2
 6.457129727250000E9    -5.700522772730798E-1   -1.591450207803368E-1   -8.755900888275410E-3    3.511602006219490E-2   -6.738483041411367E-3    3.490172834511401E-2   -5.338029053286305E-1   -6.850922001388034E-2
 6.457141310000000E9    -5.703065690755719E-1   -1.582100731010301E-1   -8.564474628820101E-3    3.527519344619147E-2   -6.752451986685744E-3    3.518042080815931E-2   -5.341671345229713E-1   -6.725814084539387E-2
 6.457152892750000E9    -5.706020202780077E-1   -1.571425803758251E-1   -8.566372179762381E-3    3.553849263531218E-2   -6.617268883994361E-3    3.535624729690583E-2   -5.343172561935030E-1   -6.607022853647773E-2
 6.457164475500000E9    -5.708014561277681E-1   -1.561971029423308E-1   -8.495025225960875E-3    3.568597862573805E-2   -6.528626170559249E-3    3.556641482009815E-2   -5.343681155166210E-1   -6.478762800882232E-2
 6.457176058250000E9    -5.710593353092830E-1   -1.551158535837454E-1   -8.524318265993897E-3    3.607196582184963E-2   -6.561419753887480E-3    3.576011068317546E-2   -5.343973820359694E-1   -6.343571270927598E-2
 6.457187641000000E9    -5.712946894706179E-1   -1.543597455091605E-1   -8.420827680475628E-3    3.619941051695666E-2   -6.463768293901028E-3    3.604669055870260E-2   -5.345484246141624E-1   -6.230654804497094E-2
 6.457199223750000E9    -5.715796350167738E-1   -1.532411282985962E-1   -8.405940608090769E-3    3.627469238512075E-2   -6.457377900474189E-3    3.628843665268756E-2   -5.348466024555847E-1   -6.097809612349511E-2
 6.457210806500000E9    -5.717688107099429E-1   -1.523550418600434E-1   -8.365801615877567E-3    3.669720009201079E-2   -6.378625428236654E-3    3.649282149538371E-2   -5.347658556537217E-1   -5.975848292388772E-2
 6.457222389250000E9    -5.720949761916208E-1   -1.512786944768331E-1   -8.238354515800047E-3    3.690431608846895E-2   -6.349083642383481E-3    3.670743074628631E-2   -5.351152689943954E-1   -5.835854157208073E-2
 6.457233972000000E9    -5.722819193758749E-1   -1.502583193332620E-1   -8.257164017412813E-3    3.705060343474906E-2   -6.379444481494525E-3    3.694657753354272E-2   -5.353503783236767E-1   -5.724876153953742E-2
 6.457245554750000E9    -5.724850540222303E-1   -1.494504340209799E-1   -8.350535347091839E-3    3.731185441966754E-2   -6.361199545964648E-3    3.710063733164538E-2   -5.352791026884171E-1   -5.583341120624290E-2
 6.457257137500000E9    -5.727525142105887E-1   -1.483659868124141E-1   -8.237290887424824E-3    3.755514720859283E-2   -6.281673024979160E-3    3.737273387530241E-2   -5.355376373299858E-1   -5.457982326171922E-2
 6.457268720250000E9    -5.729969687514276E-1   -1.473343357794172E-1   -8.251312461558863E-3    3.776750035678757E-2   -6.103498511905237E-3    3.755558841384642E-2   -5.355157921368282E-1   -5.334666247438460E-2
 6.457280303000000E9    -5.731138125125096E-1   -1.462824937110388E-1   -8.187380899094808E-3    3.804513088957331E-2   -6.151436371438815E-3    3.780731291144176E-2   -5.356875704002025E-1   -5.192100767329744E-2
 6.457291885750000E9    -5.733753322559739E-1   -1.452744713686671E-1   -8.099829001170922E-3    3.821314163999055E-2   -5.970023361528619E-3    3.800541634869493E-2   -5.357295677332944E-1   -5.069495430805552E-2
 6.457303468500000E9    -5.736305070623234E-1   -1.442971663895869E-1   -8.033438562503872E-3    3.851243547824804E-2   -6.051833604824692E-3    3.825676071791809E-2   -5.360499447127882E-1   -4.944126277031188E-2
 6.457315051250000E9    -5.738169772827592E-1   -1.432951271438258E-1   -7.995773911615323E-3    3.880807976285570E-2   -6.048817406051204E-3    3.852350091962051E-2   -5.360158117682571E-1   -4.809079357509189E-2
 6.457326634000000E9    -5.740711863598467E-1   -1.422393167845888E-1   -7.853233993458393E-3    3.901462856813811E-2   -5.805022643013546E-3    3.875804215021739E-2   -5.360975053312710E-1   -4.680574761326070E-2
 6.457338216750000E9    -5.743735428341719E-1   -1.413979260992401E-1   -7.786978803537261E-3    3.919102745106470E-2   -5.934883067997364E-3    3.907807174005554E-2   -5.360953747136131E-1   -4.549292646967076E-2
 6.457349799500000E9    -5.745073230334359E-1   -1.402769253340721E-1   -7.837338828350119E-3    3.957791601520927E-2   -5.820424507684913E-3    3.928554900017663E-2   -5.362362766072748E-1   -4.415781017691608E-2
 6.457361382250000E9    -5.747108626268341E-1   -1.392673783792006E-1   -7.872016995094667E-3    3.989136346254757E-2   -5.715142989595284E-3    3.952438652306983E-2   -5.362977955025026E-1   -4.280582827310341E-2
 6.457372965000000E9    -5.749026929607165E-1   -1.382505576817667E-1   -7.678604688621932E-3    4.000148398893336E-2   -5.761617435797372E-3    3.991679659580769E-2   -5.365130461606361E-1   -4.149948977546212E-2
 6.457384547750000E9    -5.751555189694073E-1   -1.373279855475132E-1   -7.660044970800872E-3    4.032540863092015E-2   -5.698395114425816E-3    4.005872909662533E-2   -5.366029727352237E-1   -4.021794250981098E-2
 6.457396130500000E9    -5.753031953178985E-1   -1.362776292858350E-1   -7.613687528885838E-3    4.049125168062689E-2   -5.547612411536578E-3    4.025421681780968E-2   -5.366157484301887E-1   -3.865550528349992E-2
 6.457407713250000E9    -5.755364342529491E-1   -1.352190150559856E-1   -7.576425837847788E-3    4.073224174532906E-2   -5.524870712579227E-3    4.059727882641650E-2   -5.367766422653300E-1   -3.734668403142930E-2
 6.457419296000000E9    -5.757231459900518E-1   -1.343678943109825E-1   -7.517137916355639E-3    4.113008396977357E-2   -5.468396064732464E-3    4.084833866822753E-2   -5.367954204278682E-1   -3.599882534797054E-2
 6.457430878750000E9    -5.759727099923755E-1   -1.332638912987707E-1   -7.568905175835134E-3    4.140844413641749E-2   -5.415417022427197E-3    4.111535186654609E-2   -5.369892728322399E-1   -3.464626190234323E-2
 6.457442461500000E9    -5.761902362790422E-1   -1.321924588974297E-1   -7.425660155904602E-3    4.168099455410353E-2   -5.353954202017125E-3    4.143330184855516E-2   -5.368503052618615E-1   -3.319288209636095E-2
 6.457454044250000E9    -5.763240857939812E-1   -1.312078340571280E-1   -7.491110300894358E-3    4.191716784457473E-2   -5.219648478607451E-3    4.161009531491415E-2   -5.370957548900308E-1   -3.186210880467794E-2
 6.457465627000000E9    -5.765459062374817E-1   -1.301600269111430E-1   -7.304569757074076E-3    4.219642564347880E-2   -5.237645072071390E-3    4.200190268449048E-2   -5.371266691739824E-1   -3.047490318198412E-2
 6.457477209750000E9    -5.767289967116086E-1   -1.291684628179657E-1   -7.398572666543963E-3    4.255229995422086E-2   -5.177154477627031E-3    4.206515250295460E-2   -5.371418591594946E-1   -2.903243809309470E-2
 6.457488792500000E9    -5.769371104751558E-1   -1.280040383399186E-1   -7.359738976449988E-3    4.282946325028995E-2   -5.034964464254883E-3    4.252840184297057E-2   -5.371211851269001E-1   -2.769455178660206E-2
 6.457500375250000E9    -5.772014435143574E-1   -1.269734634521480E-1   -7.160966677360080E-3    4.315294241389447E-2   -5.038058425289107E-3    4.280556541106462E-2   -5.372337493763804E-1   -2.620897727603515E-2
 6.457511958000000E9    -5.773604308640967E-1   -1.260632409621563E-1   -7.222893002839370E-3    4.347142315238179E-2   -4.972068708485889E-3    4.307193389702350E-2   -5.371380718163753E-1   -2.485118518522722E-2
 6.457523540750000E9    -5.775017771279748E-1   -1.250688042918798E-1   -7.141778565545946E-3    4.374037054978098E-2   -4.743761713050757E-3    4.337592011227390E-2   -5.373923743122867E-1   -2.349014879681455E-2
 6.457535123500000E9    -5.777280624845990E-1   -1.239380424131922E-1   -7.205150970866215E-3    4.409938674525535E-2   -4.798099976735539E-3    4.370513650373131E-2   -5.373912395477513E-1   -2.206981551222000E-2
 6.457546706250000E9    -5.778828032225748E-1   -1.229859906331835E-1   -7.030506370513665E-3    4.447399027363598E-2   -4.709933280237258E-3    4.398500941277009E-2   -5.373313859276206E-1   -2.057340771580496E-2
 6.457558289000000E9    -5.780416507285538E-1   -1.218773328560915E-1   -6.818496462126673E-3    4.472331299279097E-2   -4.594598851029220E-3    4.439057287377764E-2   -5.373511802038823E-1   -1.911071717071788E-2
 6.457569871750000E9    -5.782498353000129E-1   -1.207765153103219E-1   -6.872379627112052E-3    4.493016070939822E-2   -4.553607305988917E-3    4.469208768556609E-2   -5.373680138562943E-1   -1.774975977770956E-2
 6.457581454500000E9    -5.784347805458228E-1   -1.198000598707031E-1   -6.709716602845364E-3    4.541343231354181E-2   -4.426239250906483E-3    4.483392239655849E-2   -5.374426632989949E-1   -1.616529799476165E-2
 6.457593037250000E9    -5.786811673871791E-1   -1.187214573906753E-1   -6.681432208662277E-3    4.573965793857833E-2   -4.393796472705004E-3    4.522273181909663E-2   -5.374359080496781E-1   -1.486530883025286E-2
 6.457604620000000E9    -5.787428654075831E-1   -1.176985827641817E-1   -6.564363288523141E-3    4.601386567115837E-2   -4.297597232380595E-3    4.551465845641565E-2   -5.374505415024022E-1   -1.326134204765317E-2
 6.457616202750000E9    -5.789583964239279E-1   -1.166874764724341E-1   -6.460170570119214E-3    4.625479616645438E-2   -4.239087684411157E-3    4.585107396837928E-2   -5.374895140117515E-1   -1.167772786692921E-2
 6.457627785500000E9    -5.791377038360287E-1   -1.156458903773054E-1   -6.377330070488540E-3    4.662811765911391E-2   -4.193606849374858E-3    4.619615283959404E-2   -5.375309376761395E-1   -1.023229039321411E-2
 6.457639368250000E9    -5.791847195015510E-1   -1.144666197261004E-1   -6.435884519788969E-3    4.691125226672111E-2   -3.987251022305493E-3    4.653636911035165E-2   -5.374265206657349E-1   -8.766804629898057E-3
 6.457650951000000E9    -5.793660427292445E-1   -1.134264244031581E-1   -6.349157443219583E-3    4.752160511220993E-2   -3.920537528967359E-3    4.679997758626068E-2   -5.374337059869373E-1   -7.326091290186582E-3
 6.457662533750000E9    -5.795250286080571E-1   -1.123624215483351E-1   -6.194626618669869E-3    4.773392070075691E-2   -3.809203772711065E-3    4.723635157526978E-2   -5.374547464714343E-1   -5.814442163406760E-3
 6.457674116500000E9    -5.796138350941249E-1   -1.113475180135450E-1   -6.094041193956741E-3    4.806500210695038E-2   -3.783441837482930E-3    4.756479708094672E-2   -5.375064339252698E-1   -4.093349700646916E-3
 6.457685699250000E9    -5.799018028078874E-1   -1.102975728906204E-1   -6.113271447675303E-3    4.839626393026406E-2   -3.616301611385503E-3    4.797077006970396E-2   -5.375141827716003E-1   -2.587686908942625E-3
 6.457697282000000E9    -5.800718864276267E-1   -1.092689535259012E-1   -5.919652050298066E-3    4.884701858913499E-2   -3.456867989077780E-3    4.821521012896923E-2   -5.373198647866738E-1   -1.162651261798988E-3
 6.457708864750000E9    -5.802114850269322E-1   -1.080020734433830E-1   -5.898917332782691E-3    4.912060259435670E-2   -3.375418543613278E-3    4.859000472900299E-2   -5.371698470670246E-1    4.543549550377537E-4
 6.457720447500000E9    -5.802851412344285E-1   -1.070092263587948E-1   -5.904751259348830E-3    4.963575372579913E-2   -3.386532114877225E-3    4.901123767679062E-2   -5.372451750228266E-1    1.875629762696731E-3
 6.457732030250000E9    -5.804766107341838E-1   -1.059015751809764E-1   -5.621574885992056E-3    5.003356007980567E-2   -3.213420411605900E-3    4.933093984894105E-2   -5.370915874363895E-1    3.525447215009532E-3
 6.457743613000000E9    -5.807904495117416E-1   -1.049250195040292E-1   -5.657065599725552E-3    5.043580257059625E-2   -3.054770977158040E-3    4.968919835342109E-2   -5.370550805055618E-1    5.093492780589074E-3
 6.457755195750000E9    -5.807899527888832E-1   -1.037339600131734E-1   -5.564776585909625E-3    5.068613522432625E-2   -2.969364754689751E-3    5.013915095306502E-2   -5.370980761998263E-1    6.706065469095701E-3
 6.457766778500000E9    -5.809338474479285E-1   -1.026909777066801E-1   -5.272420376971527E-3    5.120396861126997E-2   -2.860772898303350E-3    5.052258780210783E-2   -5.370010562214892E-1    8.361091530878176E-3
 6.457778361250000E9    -5.810226380047419E-1   -1.016128091474190E-1   -5.328899474105040E-3    5.152230361300947E-2   -2.715021974300799E-3    5.093792691911538E-2   -5.369224812802956E-1    9.860276875184730E-3
 6.457789944000000E9    -5.812063017545775E-1   -1.004921675861982E-1   -5.220577136343440E-3    5.199486681466919E-2   -2.657899377619296E-3    5.128007346330699E-2   -5.367612005805507E-1    1.162791028945111E-2
 6.457801526750000E9    -5.812576402621462E-1   -9.938539323474783E-2   -5.103945001575746E-3    5.252870749836397E-2   -2.516284622510824E-3    5.175743626267972E-2   -5.368221655518253E-1    1.325853587150314E-2
 6.457813109500000E9    -5.814197221691042E-1   -9.828325593002604E-2   -5.012350762156730E-3    5.292983162345923E-2   -2.403937031894422E-3    5.220675140602877E-2   -5.366842147297202E-1    1.475695021569273E-2
 6.457824692250000E9    -5.815507348307586E-1   -9.726226291979460E-2   -4.808028934496408E-3    5.316637233606634E-2   -2.326427877469768E-3    5.257830883918249E-2   -5.365092945783294E-1    1.651901756186025E-2
 6.457836275000000E9    -5.815860703513667E-1   -9.612150518319602E-2   -4.699216937832797E-3    5.348385841575228E-2   -2.107964902601944E-3    5.300638989464920E-2   -5.365197373979664E-1    1.835290593166481E-2
 6.457847857750000E9    -5.818215979624485E-1   -9.493746843069555E-2   -4.655336634883681E-3    5.411922122296018E-2   -1.941230464972779E-3    5.340061028866946E-2   -5.363406055951112E-1    1.980771399514248E-2
 6.457859440500000E9    -5.818908704061521E-1   -9.386692166705904E-2   -4.511089963543767E-3    5.460035870131547E-2   -1.794834178518307E-3    5.384792926405122E-2   -5.361849761763802E-1    2.155355022244496E-2
 6.457871023250000E9    -5.820140363518369E-1   -9.267160368246255E-2   -4.386156893859034E-3    5.502168158463909E-2   -1.735587866901888E-3    5.431014087380234E-2   -5.360695106300701E-1    2.327646147918948E-2
 6.457882606000000E9    -5.820998805039689E-1   -9.151662484322416E-2   -4.263328596028622E-3    5.553277983724234E-2   -1.553764661431168E-3    5.479332484128759E-2   -5.359817357082252E-1    2.514116502760432E-2
 6.457894188750000E9    -5.822831437061443E-1   -9.036162415584477E-2   -4.110679044771982E-3    5.592306049147667E-2   -1.380015361926512E-3    5.520500500372400E-2   -5.357584720507231E-1    2.674601292859721E-2
 6.457905771500000E9    -5.823294474429301E-1   -8.935445911882157E-2   -3.955753789393059E-3    5.648452840903487E-2   -1.274606165395887E-3    5.561716102031410E-2   -5.355748901840895E-1    2.845801597159263E-2
 6.457917354250000E9    -5.824841653566739E-1   -8.822228035403397E-2   -3.772336194687765E-3    5.698032864311105E-2   -1.025348219379152E-3    5.621928220100105E-2   -5.353601394898446E-1    3.018496787089603E-2
 6.457928937000000E9    -5.825019215587787E-1   -8.699875301357313E-2   -3.673210077765741E-3    5.743442756502882E-2   -9.877784087165334E-4    5.654510205629839E-2   -5.352979651019163E-1    3.198641739059911E-2
 6.457940519750000E9    -5.826391029572340E-1   -8.588578974855042E-2   -3.662095057355875E-3    5.810391561604426E-2   -6.738937107106886E-4    5.715060888975632E-2   -5.350977127220050E-1    3.378688968428825E-2
 6.457952102500000E9    -5.826378027110848E-1   -8.466401043228242E-2   -3.443220915082352E-3    5.836733980949347E-2   -5.658596779105619E-4    5.757735236752134E-2   -5.349130498962389E-1    3.558985997369828E-2
 6.457963685250000E9    -5.827279157576133E-1   -8.361104782072004E-2   -3.297080727884317E-3    5.903454806693315E-2   -4.325637332674616E-4    5.809579667899202E-2   -5.346650143283813E-1    3.736813249896088E-2
 6.457975268000000E9    -5.828507304402342E-1   -8.236597133946928E-2   -3.124886566662899E-3    5.951218669167958E-2   -2.119251911685599E-4    5.872416416414446E-2   -5.345118551696360E-1    3.938630851552798E-2
 6.457986850750000E9    -5.829238598017406E-1   -8.130200762483589E-2   -2.971878341760194E-3    5.999699157260747E-2   -1.957259217164018E-5    5.914108762152198E-2   -5.341725033452047E-1    4.116586623494690E-2
 6.457998433500000E9    -5.829844550513270E-1   -8.008377576520781E-2   -2.867767462127508E-3    6.060343830873348E-2    8.699022145212993E-5    5.964172624600833E-2   -5.339915730470618E-1    4.299241517535043E-2
