#  HZ   S   RI   R     50.00 
! Rohde & Schwarz Vector Network Analyzer 
! Rohde-Schwarz,ZNB20-2Port,1311601062101988,3.16
! Created: UTC 3/20/2024, 10:54:03 PM
! freq[Hz]                re:S11                  im:S11                  re:S21                  im:S21                  re:S12                  im:S12                  re:S22                  im:S22
 6.457067181000000E9    -5.678231391268596E-1   -1.665774997463372E-1   -8.732055098501827E-3    3.312865712745663E-2   -6.853924426988757E-3    3.312928929730627E-2   -5.351220211113625E-1   -7.590778221544171E-2
 6.457078447025000E9    -5.682006385481325E-1   -1.656500748797038E-1   -8.632713234695248E-3    3.342136859862644E-2   -6.916530338341055E-3    3.338599362788865E-2   -5.351980438186180E-1   -7.478003943250199E-2
 6.457089713050000E9    -5.684105589346519E-1   -1.647191878752362E-1   -8.504822221150154E-3    3.343075981906382E-2   -6.767195104098241E-3    3.356992343173104E-2   -5.352334555020835E-1   -7.360085147547125E-2
 6.457100979075000E9    -5.686947610291913E-1   -1.638218031541019E-1   -8.563040240805337E-3    3.364519794875495E-2   -6.817185684242701E-3    3.371250510266816E-2   -5.354943558382501E-1   -7.228739645658658E-2
 6.457112245100000E9    -5.690631616790568E-1   -1.628672993245040E-1   -8.524414974836478E-3    3.399267974716433E-2   -6.794966894340468E-3    3.388329358167252E-2   -5.356627375094556E-1   -7.109367811375757E-2
 6.457123511125000E9    -5.691298422904508E-1   -1.619686619057298E-1   -8.616304473353893E-3    3.419784087404911E-2   -6.832867105459808E-3    3.409388777966734E-2   -5.358979078879349E-1   -6.997512037216062E-2
 6.457134777150000E9    -5.693874927631547E-1   -1.610504011243040E-1   -8.475358426011714E-3    3.444554877640434E-2   -6.651845630827368E-3    3.423542103322866E-2   -5.358587585221211E-1   -6.886848175967107E-2
 6.457146043175000E9    -5.697419382098472E-1   -1.600954583760170E-1   -8.593561784052284E-3    3.470532021373135E-2   -6.697788990084829E-3    3.451376210750896E-2   -5.360136917247160E-1   -6.755843708246115E-2
 6.457157309200000E9    -5.699831788226525E-1   -1.590906090461088E-1   -8.397381387753085E-3    3.476537578214001E-2   -6.616561685388584E-3    3.467217268765196E-2   -5.363100047015976E-1   -6.639272537837941E-2
 6.457168575225000E9    -5.702868782151436E-1   -1.581730454410639E-1   -8.408178687110121E-3    3.491511461869078E-2   -6.612875614637423E-3    3.487625371922071E-2   -5.363458752515154E-1   -6.525668747651886E-2
 6.457179841250000E9    -5.703518614175729E-1   -1.572108361530699E-1   -8.448295823999554E-3    3.503726448293780E-2   -6.522689691293033E-3    3.506060654317696E-2   -5.364965613831391E-1   -6.395847219980316E-2
 6.457191107275000E9    -5.706576920300360E-1   -1.562916317177766E-1   -8.354734066992275E-3    3.540615953025432E-2   -6.514303975089831E-3    3.528484954689930E-2   -5.367266876434901E-1   -6.270547011308020E-2
 6.457202373300000E9    -5.709323826900247E-1   -1.552719730376144E-1   -8.351537215398747E-3    3.554185175836501E-2   -6.446293058473938E-3    3.541639526730576E-2   -5.367406209117230E-1   -6.148637829807427E-2
 6.457213639325000E9    -5.711648208620165E-1   -1.543778265859854E-1   -8.213139762743689E-3    3.581571539753028E-2   -6.426529396696038E-3    3.561157830959529E-2   -5.368276973746243E-1   -6.026968652138445E-2
 6.457224905350000E9    -5.713766555011880E-1   -1.533079524862152E-1   -8.302659487849400E-3    3.602485533790432E-2   -6.408645282766468E-3    3.594664299958487E-2   -5.371084077897273E-1   -5.911506596167727E-2
 6.457236171375000E9    -5.716366148199640E-1   -1.523777694110792E-1   -8.190534001704592E-3    3.617555198772061E-2   -6.284250142835200E-3    3.604934428071212E-2   -5.371236913422673E-1   -5.774478226366505E-2
 6.457247437400000E9    -5.717790762207032E-1   -1.515331739324119E-1   -8.247809967619186E-3    3.647497151749008E-2   -6.243400738291704E-3    3.641216012162749E-2   -5.372072644399531E-1   -5.666385055078773E-2
 6.457258703425000E9    -5.720112001164647E-1   -1.504848016771092E-1   -8.319364669788720E-3    3.665552272721287E-2   -6.274496927999739E-3    3.643710434913424E-2   -5.374786168462398E-1   -5.537370794383306E-2
 6.457269969450000E9    -5.722573799520103E-1   -1.495740746377596E-1   -8.192464321951788E-3    3.690390369661690E-2   -6.169481224917075E-3    3.666421921249898E-2   -5.374611916437965E-1   -5.413303188951708E-2
 6.457281235475000E9    -5.724427250908714E-1   -1.486032814388930E-1   -8.096473597861054E-3    3.706875769781401E-2   -6.148204089956321E-3    3.689317196880026E-2   -5.377263080221026E-1   -5.287959163789197E-2
 6.457292501500000E9    -5.726115533747644E-1   -1.476105462363254E-1   -8.092242254097015E-3    3.736021490348193E-2   -6.162182019994888E-3    3.709310355502902E-2   -5.377680404231235E-1   -5.173001893135414E-2
 6.457303767525000E9    -5.729821233832649E-1   -1.467510564515682E-1   -8.045368039385494E-3    3.747658601694043E-2   -6.103113447353405E-3    3.735430592133671E-2   -5.379407747207401E-1   -5.049595674312722E-2
 6.457315033550000E9    -5.732656737096264E-1   -1.456446211026639E-1   -8.087148201996111E-3    3.782261936368828E-2   -6.017743570751741E-3    3.763269952454001E-2   -5.380229093145871E-1   -4.919498271600117E-2
 6.457326299575000E9    -5.733988977578895E-1   -1.446852847694815E-1   -8.007059394813467E-3    3.794470484305494E-2   -5.952042771755175E-3    3.780989414394033E-2   -5.380059126470821E-1   -4.772995166762400E-2
 6.457337565600000E9    -5.736273363182762E-1   -1.437256080568343E-1   -7.878655223439428E-3    3.826634352827530E-2   -5.860016787612304E-3    3.805629593633576E-2   -5.381032823034332E-1   -4.660955208363218E-2
 6.457348831625000E9    -5.738570084349190E-1   -1.428036275863017E-1   -7.861371131706910E-3    3.858568294298535E-2   -5.770581549193444E-3    3.826953656775540E-2   -5.382225872124662E-1   -4.533432911854821E-2
 6.457360097650000E9    -5.740678785182310E-1   -1.417726598574259E-1   -7.754330079616670E-3    3.888620474287344E-2   -5.859429784713400E-3    3.849856633723893E-2   -5.383791320381229E-1   -4.407360243104135E-2
 6.457371363675000E9    -5.744056923584411E-1   -1.408164493604809E-1   -7.989815217745853E-3    3.895406551024489E-2   -5.673886269545323E-3    3.880725544176412E-2   -5.385093632220761E-1   -4.279607699589324E-2
 6.457382629700000E9    -5.744653775767881E-1   -1.397875613075138E-1   -7.734745565154825E-3    3.928379285267944E-2   -5.605991748211871E-3    3.897028470324453E-2   -5.384759248057407E-1   -4.139318818152180E-2
 6.457393895725000E9    -5.747472717616479E-1   -1.388432958657083E-1   -7.602474086107871E-3    3.938128702924723E-2   -5.720589266398768E-3    3.921163939991203E-2   -5.386708770987473E-1   -4.030162369160579E-2
 6.457405161750000E9    -5.749085553649329E-1   -1.379294024792578E-1   -7.785418269638495E-3    3.964972066760519E-2   -5.547393962419152E-3    3.941000597932855E-2   -5.386787664541924E-1   -3.892471420471338E-2
 6.457416427775000E9    -5.749562849205997E-1   -1.369065161080268E-1   -7.526366416815479E-3    4.002818623307388E-2   -5.612495470568960E-3    3.969515912542791E-2   -5.386293644342233E-1   -3.768899393440110E-2
 6.457427693800000E9    -5.753331143167282E-1   -1.358941294843467E-1   -7.657369784553579E-3    4.020263117417551E-2   -5.443537216554275E-3    4.001735071040943E-2   -5.387307026872968E-1   -3.623032333970939E-2
 6.457438959825000E9    -5.754514197341900E-1   -1.349182388442820E-1   -7.599893502963503E-3    4.060793445649184E-2   -5.411224400736164E-3    4.025973154415837E-2   -5.388674767444193E-1   -3.487525372005114E-2
 6.457450225850000E9    -5.757020443371832E-1   -1.339814280894888E-1   -7.528120640185057E-3    4.083833610168969E-2   -5.300969888203764E-3    4.048183016308047E-2   -5.390437356474294E-1   -3.360573000969570E-2
 6.457461491875000E9    -5.759066096641574E-1   -1.329465813367125E-1   -7.491475765916095E-3    4.096108040400248E-2   -5.263210489273181E-3    4.079001946141073E-2   -5.390370816546167E-1   -3.230349839016544E-2
 6.457472757900000E9    -5.761563855464985E-1   -1.319656612968487E-1   -7.354590430740143E-3    4.123194411439592E-2   -5.311626519736263E-3    4.108720153135707E-2   -5.390940800307445E-1   -3.089890615831536E-2
 6.457484023925000E9    -5.762749378387039E-1   -1.309794825748609E-1   -7.393386046705371E-3    4.171886576122616E-2   -5.170171441283732E-3    4.123671725850782E-2   -5.390512377162003E-1   -2.971225838616793E-2
 6.457495289950000E9    -5.764504041291657E-1   -1.299368977006053E-1   -7.323829167914182E-3    4.194803075294030E-2   -5.048736075798867E-3    4.154645501484393E-2   -5.391970379125582E-1   -2.814991795689682E-2
 6.457506555975000E9    -5.766495850982827E-1   -1.290108050311153E-1   -7.361415555828976E-3    4.210061068312340E-2   -5.056651998843437E-3    4.183352922107949E-2   -5.392220600756267E-1   -2.691852904304919E-2
 6.457517822000000E9    -5.768142184766564E-1   -1.280043039457510E-1   -7.186444742362583E-3    4.221378835764302E-2   -4.927596744991115E-3    4.203761288326120E-2   -5.393231465554931E-1   -2.545713991562064E-2
 6.457529088025000E9    -5.771326138491010E-1   -1.269531188390033E-1   -7.105394184065084E-3    4.266248175872715E-2   -4.936839413809816E-3    4.238059123020044E-2   -5.393382612986345E-1   -2.417866756618962E-2
 6.457540354050000E9    -5.771165345775066E-1   -1.260743420744235E-1   -7.104324484051602E-3    4.293477362137656E-2   -4.837143977237790E-3    4.262896662956023E-2   -5.394420128318932E-1   -2.282378662623420E-2
 6.457551620075000E9    -5.773870580910390E-1   -1.249277286654713E-1   -6.916608091240269E-3    4.322547799084606E-2   -4.744083644440240E-3    4.293874806843088E-2   -5.393911985885456E-1   -2.151938784097372E-2
 6.457562886100000E9    -5.775669644503436E-1   -1.240128068591833E-1   -7.037239318038248E-3    4.348782008930516E-2   -4.690865243107608E-3    4.320597830991172E-2   -5.393972977907895E-1   -2.000029609268263E-2
 6.457574152125000E9    -5.777127649679021E-1   -1.229849470431238E-1   -6.901141580344683E-3    4.387341527434102E-2   -4.679278031864227E-3    4.344648030171407E-2   -5.394250733087125E-1   -1.863838323048785E-2
 6.457585418150000E9    -5.779533755490321E-1   -1.218813949101624E-1   -6.770554538689040E-3    4.411059375549001E-2   -4.500338963390900E-3    4.376872556836033E-2   -5.394612256278958E-1   -1.712229376007128E-2
 6.457596684175000E9    -5.780512980032156E-1   -1.209299751214314E-1   -6.758126953366482E-3    4.441612913631831E-2   -4.459113441408406E-3    4.404948135814215E-2   -5.395455439663875E-1   -1.587946686200034E-2
 6.457607950200000E9    -5.782867428530375E-1   -1.199180393271833E-1   -6.769523158155175E-3    4.481730148140776E-2   -4.369253769461454E-3    4.441857188537503E-2   -5.396489292610306E-1   -1.448740961442715E-2
 6.457619216225000E9    -5.784011540870587E-1   -1.189472008072121E-1   -6.669970405451403E-3    4.515695515639245E-2   -4.290475202244938E-3    4.469557042767577E-2   -5.395800340416985E-1   -1.297130364719090E-2
 6.457630482250000E9    -5.786135867833394E-1   -1.178177200239851E-1   -6.553154298399260E-3    4.537289327250895E-2   -4.240147153609245E-3    4.494805598821888E-2   -5.395336126746462E-1   -1.162943870555567E-2
 6.457641748275000E9    -5.788063609290919E-1   -1.169069298936641E-1   -6.551095496767317E-3    4.567850766397787E-2   -4.206023469471205E-3    4.523416188823984E-2   -5.395105801591386E-1   -1.024445538808237E-2
 6.457653014300000E9    -5.789958308535593E-1   -1.158194048768172E-1   -6.510235271225471E-3    4.616102317394234E-2   -4.116789896627872E-3    4.560179419048557E-2   -5.397244384354373E-1   -8.761166806288455E-3
 6.457664280325000E9    -5.791136955651276E-1   -1.148506505420754E-1   -6.405463734574364E-3    4.638617811301099E-2   -4.063477076503932E-3    4.600740084700478E-2   -5.394632079451424E-1   -7.276004510952496E-3
 6.457675546350000E9    -5.792867875931135E-1   -1.137784722134835E-1   -6.303354569878447E-3    4.675221621518830E-2   -3.943011963895679E-3    4.625947331245384E-2   -5.394492267559311E-1   -5.908396446297868E-3
 6.457686812375000E9    -5.794122416631272E-1   -1.127092823767450E-1   -6.247756202882210E-3    4.700905986016180E-2   -3.841222677813932E-3    4.657647431613701E-2   -5.394718942840733E-1   -4.402216233969417E-3
 6.457698078400000E9    -5.796156856731740E-1   -1.117653802509406E-1   -6.206275251932312E-3    4.746155901611987E-2   -3.734911413982837E-3    4.685735921680594E-2   -5.394691474460296E-1   -2.966422405456659E-3
 6.457709344425000E9    -5.798004416492273E-1   -1.107166172013610E-1   -6.143131901118092E-3    4.774619625919657E-2   -3.579774962179716E-3    4.724944687958592E-2   -5.394109644743632E-1   -1.544928262809262E-3
 6.457720610450000E9    -5.798593123669713E-1   -1.095401673425274E-1   -6.009426151683367E-3    4.807154072274086E-2   -3.568523068131810E-3    4.759000065669419E-2   -5.393525773957988E-1    6.246854172890530E-5
 6.457731876475000E9    -5.800975435548751E-1   -1.084927495880987E-1   -5.991431293623709E-3    4.846483204627146E-2   -3.516776969622523E-3    4.794140701645391E-2   -5.394730683584490E-1    1.515903427595918E-3
 6.457743142500000E9    -5.802938048335008E-1   -1.076362364787519E-1   -5.804683450203853E-3    4.869030233772971E-2   -3.312945385703689E-3    4.821829948281215E-2   -5.394139012784974E-1    3.003159254981710E-3
 6.457754408525000E9    -5.804529861920337E-1   -1.065028785212985E-1   -5.798776252125591E-3    4.918253463863637E-2   -3.235290018327704E-3    4.865866082470980E-2   -5.392065889492502E-1    4.431659610320534E-3
 6.457765674550000E9    -5.805184306430864E-1   -1.053852706360642E-1   -5.634154592369174E-3    4.954663473453155E-2   -3.141650456574149E-3    4.895870896041967E-2   -5.392896379691401E-1    6.012921824915625E-3
 6.457776940575000E9    -5.806156929733624E-1   -1.043572570703932E-1   -5.479681369376390E-3    4.995486065446610E-2   -3.082124944172518E-3    4.933474051361489E-2   -5.391889802507331E-1    7.648029010370449E-3
 6.457788206600000E9    -5.807703254855531E-1   -1.032874688934328E-1   -5.539215936699787E-3    5.021208668642766E-2   -2.899446989571072E-3    4.968495882303238E-2   -5.392089076335885E-1    9.131935907775014E-3
 6.457799472625000E9    -5.809630973796172E-1   -1.022700989114094E-1   -5.382855273948294E-3    5.077398994237903E-2   -2.780118954080646E-3    5.011166027033306E-2   -5.389202932386671E-1    1.068381170713590E-2
 6.457810738650000E9    -5.810155415514011E-1   -1.012408090675904E-1   -5.199358429411324E-3    5.108556664584976E-2   -2.752029796715531E-3    5.047547073757626E-2   -5.389450915255992E-1    1.226601608555684E-2
 6.457822004675000E9    -5.810672411911124E-1   -1.001213033086640E-1   -5.236803865862742E-3    5.150038732739684E-2   -2.592868717866009E-3    5.081702785327991E-2   -5.388262091669219E-1    1.384981089252310E-2
 6.457833270700000E9    -5.813451661612468E-1   -9.910491075407525E-2   -5.157960164677103E-3    5.194208353495635E-2   -2.590216004331302E-3    5.128220416857866E-2   -5.387059199760645E-1    1.537448780364804E-2
 6.457844536725000E9    -5.814323111669792E-1   -9.807952808793576E-2   -5.049716566022795E-3    5.232873633214328E-2   -2.494805011254301E-3    5.160785308185201E-2   -5.385889197306870E-1    1.692758520883176E-2
 6.457855802750000E9    -5.815017491513969E-1   -9.681370244194498E-2   -5.088548635689771E-3    5.270007477420846E-2   -2.236413329843929E-3    5.196098804207468E-2   -5.385831207657044E-1    1.871212407957331E-2
 6.457867068775000E9    -5.816093886057472E-1   -9.585127614656101E-2   -4.817722238548232E-3    5.310496389829028E-2   -1.964546931712720E-3    5.242236611841936E-2   -5.384518780511073E-1    2.025314632827400E-2
 6.457878334800000E9    -5.817914982654528E-1   -9.476012881929001E-2   -4.635383215848180E-3    5.354427777843334E-2   -1.872714023409794E-3    5.290322011152519E-2   -5.383049414405012E-1    2.184265734377652E-2
 6.457889600825000E9    -5.818410991437198E-1   -9.371357933596099E-2   -4.549466661875118E-3    5.390889591870138E-2   -1.737452061680972E-3    5.329171993720613E-2   -5.382135528768464E-1    2.340718696073677E-2
 6.457900866850000E9    -5.819963936956436E-1   -9.262006523654251E-2   -4.417383292993520E-3    5.434455743196175E-2   -1.687366682071039E-3    5.364484588341879E-2   -5.381934791111799E-1    2.506547469986102E-2
 6.457912132875000E9    -5.820363569089599E-1   -9.152221656638701E-2   -4.174594504321331E-3    5.488066584436176E-2   -1.614364151734601E-3    5.415621631524069E-2   -5.380462484056853E-1    2.692749800362264E-2
 6.457923398900000E9    -5.822584639587490E-1   -9.032435917458906E-2   -4.219652740446364E-3    5.533102314282103E-2   -1.430529630034762E-3    5.449680133373740E-2   -5.378582668583565E-1    2.829919579858707E-2
 6.457934664925000E9    -5.822118112633051E-1   -8.929033993887796E-2   -4.084424693559838E-3    5.563363399459618E-2   -1.323235124510805E-3    5.494874194100044E-2   -5.377179571962565E-1    2.991931248054501E-2
 6.457945930950000E9    -5.823317252131262E-1   -8.825122803297711E-2   -3.941126428221420E-3    5.632263912224386E-2   -1.150871554299011E-3    5.545366610815677E-2   -5.373265210351768E-1    3.185303995316485E-2
 6.457957196975000E9    -5.824737831723548E-1   -8.708451494230925E-2   -3.811191397855667E-3    5.670081278161385E-2   -1.004521845292080E-3    5.594372062174938E-2   -5.373089401045461E-1    3.344499851936765E-2
 6.457968463000000E9    -5.824947343064262E-1   -8.605894001104017E-2   -3.745775828116713E-3    5.708609324718140E-2   -8.232844487380330E-4    5.627706986398148E-2   -5.370347629276477E-1    3.529085916028695E-2
 6.457979729025000E9    -5.826343546018368E-1   -8.494186137222906E-2   -3.510947856696629E-3    5.763174092325830E-2   -6.799721860640185E-4    5.681814444364999E-2   -5.369928726395362E-1    3.690672055221889E-2
 6.457990995050000E9    -5.827544523297404E-1   -8.381724992459327E-2   -3.381290140844609E-3    5.812989955466605E-2   -5.568208776765512E-4    5.726069579853890E-2   -5.369267415212299E-1    3.869273124207460E-2
 6.458002261075000E9    -5.828066680157956E-1   -8.263159351097302E-2   -3.172318776895332E-3    5.866728027695506E-2   -3.700475315994529E-4    5.770654678015730E-2   -5.367097704879428E-1    4.049432834901643E-2
 6.458013527100000E9    -5.829637464529162E-1   -8.143817824800170E-2   -3.165929806534964E-3    5.928715059630744E-2   -3.045171133305371E-4    5.819776965333189E-2   -5.362409112613440E-1    4.216130567556912E-2
 6.458024793125000E9    -5.829658848755924E-1   -8.039852792319729E-2   -2.972189911418954E-3    5.970513289292747E-2   -3.028784276409592E-5    5.871076433593581E-2   -5.360950410433561E-1    4.398367906712748E-2
 6.458036059150000E9    -5.830725349324698E-1   -7.920250433056503E-2   -2.782630043183852E-3    6.023072779041917E-2    2.391675566596182E-4    5.919113968113991E-2   -5.360225008259497E-1    4.584661590196007E-2
 6.458047325175000E9    -5.830826641174588E-1   -7.807553165087373E-2   -2.485705138234041E-3    6.071124706619339E-2    3.912788238193583E-4    5.984002050016721E-2   -5.355573888920472E-1    4.765841976870595E-2
 6.458058591200000E9    -5.831587392779987E-1   -7.698738578357110E-2   -2.426727362123853E-3    6.132689794420287E-2    5.712855397047506E-4    6.023859857991332E-2   -5.354605307385890E-1    4.948624377489048E-2
 6.458069857225000E9    -5.832726369723237E-1   -7.585847804682519E-2   -2.366227031780531E-3    6.190636929277887E-2    7.149658885037453E-4    6.075242314237558E-2   -5.351820400815017E-1    5.137203521382389E-2
 6.458081123250000E9    -5.832641159199883E-1   -7.461097376280303E-2   -2.234598058891801E-3    6.242475362206923E-2    9.328095028423366E-4    6.129608785150538E-2   -5.349134769531902E-1    5.312846880238160E-2
