#  HZ   S   RI   R     50.00 
! Rohde & Schwarz Vector Network Analyzer 
! Rohde-Schwarz,ZNB20-2Port,1311601062101988,3.16
! Created: UTC 3/20/2024, 11:12:58 PM
! freq[Hz]                re:S11                  im:S11                  re:S21                  im:S21                  re:S12                  im:S12                  re:S22                  im:S22
 6.456962276000000E9    -5.662959761364310E-1   -1.731950701634538E-1   -8.950916905885738E-3    3.218011973727734E-2   -7.192671776439504E-3    3.226474431467204E-2   -5.314147281257129E-1   -8.603869694885283E-2
 6.456973837900000E9    -5.665963028550456E-1   -1.724507829031897E-1   -9.006564657673823E-3    3.238147307044566E-2   -7.352953112328050E-3    3.232399931695448E-2   -5.316000781803955E-1   -8.503472074521946E-2
 6.456985399800000E9    -5.668801031666590E-1   -1.713670497658515E-1   -8.980278873111985E-3    3.259330763146105E-2   -7.178750426859018E-3    3.250223874649496E-2   -5.317955479718259E-1   -8.377247843100669E-2
 6.456996961700000E9    -5.672491117928433E-1   -1.703667514544630E-1   -8.843745778960443E-3    3.283362152177949E-2   -7.044397314333396E-3    3.274560634000583E-2   -5.321409604380517E-1   -8.256063814107790E-2
 6.457008523600000E9    -5.674113711806170E-1   -1.695372642288787E-1   -8.942872814562594E-3    3.293267912403258E-2   -7.118847879843397E-3    3.304287815485035E-2   -5.320458863934519E-1   -8.144575728534410E-2
 6.457020085500000E9    -5.677392997426298E-1   -1.683788998948519E-1   -8.878007696632969E-3    3.311285743259260E-2   -7.110795527425683E-3    3.307989767741498E-2   -5.322568199111249E-1   -8.021107460012125E-2
 6.457031647400000E9    -5.679843208136696E-1   -1.674591752587753E-1   -8.839877640711915E-3    3.341096356135011E-2   -7.053748256365527E-3    3.324136048224989E-2   -5.324829125987263E-1   -7.907731545254286E-2
 6.457043209300000E9    -5.682000569497809E-1   -1.666641288701131E-1   -8.820580929634326E-3    3.343549233322423E-2   -7.065234025942081E-3    3.345028416340767E-2   -5.326645879553397E-1   -7.794352758148036E-2
 6.457054771200000E9    -5.684815165569685E-1   -1.655739902682918E-1   -8.726897729129414E-3    3.378397962335762E-2   -6.982948701347616E-3    3.358198915487626E-2   -5.327706539511521E-1   -7.652851434303203E-2
 6.457066333100000E9    -5.687261632849617E-1   -1.646887753111997E-1   -8.776975274457659E-3    3.397832303418542E-2   -6.906001827405662E-3    3.382480930702813E-2   -5.330731738792933E-1   -7.536964469133399E-2
 6.457077895000000E9    -5.689977797025191E-1   -1.637074568686984E-1   -8.782641281724545E-3    3.402262893026408E-2   -6.965966549993534E-3    3.400661482281356E-2   -5.331532220987053E-1   -7.423370795541835E-2
 6.457089456900000E9    -5.693454614506688E-1   -1.627171347280364E-1   -8.698991450415817E-3    3.427037120978631E-2   -6.879673348117572E-3    3.429544320217696E-2   -5.332759093753869E-1   -7.295698926507892E-2
 6.457101018800000E9    -5.695935264168994E-1   -1.616890655471297E-1   -8.677109387413246E-3    3.454757395815292E-2   -6.809858137692509E-3    3.446816025880110E-2   -5.335313802427986E-1   -7.165594608161831E-2
 6.457112580700000E9    -5.697099093330570E-1   -1.607323435032136E-1   -8.597168760261250E-3    3.472473566603759E-2   -6.822759354952328E-3    3.462672864949292E-2   -5.337698997718872E-1   -7.041003971901377E-2
 6.457124142600000E9    -5.699746878961535E-1   -1.598688485392200E-1   -8.610730121292282E-3    3.476813775488814E-2   -6.648847092685761E-3    3.490259906862690E-2   -5.338556421701004E-1   -6.931727785290974E-2
 6.457135704500000E9    -5.702770886071677E-1   -1.587813705288180E-1   -8.619058126233637E-3    3.520018133488149E-2   -6.834853253016073E-3    3.507231049749252E-2   -5.339373037611509E-1   -6.795691725204847E-2
 6.457147266400000E9    -5.704961563231862E-1   -1.577644874467983E-1   -8.495407198509674E-3    3.534284499102797E-2   -6.698263406967813E-3    3.526941342581503E-2   -5.341735437686348E-1   -6.665920052728681E-2
 6.457158828300000E9    -5.707785586308628E-1   -1.568534958504650E-1   -8.563015831839670E-3    3.553483298160511E-2   -6.549366044317210E-3    3.551097799981918E-2   -5.342404257690604E-1   -6.544094251239652E-2
 6.457170390200000E9    -5.710390499828866E-1   -1.558953532089813E-1   -8.567752092598139E-3    3.563457178855874E-2   -6.583634890209698E-3    3.564938803811549E-2   -5.344709781138717E-1   -6.427479668515688E-2
 6.457181952100000E9    -5.712472493333033E-1   -1.549821329842453E-1   -8.479767648394351E-3    3.594225301149358E-2   -6.480634496038336E-3    3.588631994024886E-2   -5.345682577686112E-1   -6.296369024179320E-2
 6.457193514000000E9    -5.714821990264890E-1   -1.539371832311374E-1   -8.286008818382790E-3    3.630218841759662E-2   -6.495022890889323E-3    3.600990924769513E-2   -5.347254785393942E-1   -6.176981592958233E-2
 6.457205075900000E9    -5.716961178388719E-1   -1.529273043464277E-1   -8.437394435898608E-3    3.648527389589378E-2   -6.506006277068575E-3    3.623051614810715E-2   -5.348210806667364E-1   -6.047793740403182E-2
 6.457216637800000E9    -5.719715188752201E-1   -1.519055960626261E-1   -8.334559270912501E-3    3.659538532388842E-2   -6.398575969797230E-3    3.655500088776904E-2   -5.348794146499615E-1   -5.926025118819621E-2
 6.457228199700000E9    -5.721127217347436E-1   -1.509193894685365E-1   -8.284149359407840E-3    3.695142454029319E-2   -6.382496318010073E-3    3.668581827152684E-2   -5.350858512160988E-1   -5.809579339440662E-2
 6.457239761600000E9    -5.723394581848534E-1   -1.500355304907821E-1   -8.360228728994161E-3    3.728614283589059E-2   -6.366779931337365E-3    3.686680434698678E-2   -5.352677107253611E-1   -5.663360715472122E-2
 6.457251323500000E9    -5.726318697158821E-1   -1.489814264646986E-1   -8.287291937314461E-3    3.724910886549649E-2   -6.270997191528471E-3    3.718288400040792E-2   -5.354652190327640E-1   -5.536714357985161E-2
 6.457262885400000E9    -5.728886210394485E-1   -1.479654907528184E-1   -8.109250599100899E-3    3.761203727552875E-2   -6.199095585561355E-3    3.742886070616511E-2   -5.354103722342051E-1   -5.403268388560751E-2
 6.457274447300000E9    -5.730731559740067E-1   -1.470572021947664E-1   -8.289447763174102E-3    3.780782889120320E-2   -6.212751930142602E-3    3.770857802035674E-2   -5.356235322291428E-1   -5.287746773900391E-2
 6.457286009200000E9    -5.734477774650032E-1   -1.460362686277696E-1   -8.184223606247753E-3    3.807148540799705E-2   -6.033941772514024E-3    3.783449134227600E-2   -5.355522142280211E-1   -5.157318194925759E-2
 6.457297571100000E9    -5.735048341975894E-1   -1.449183269276732E-1   -7.966410316306476E-3    3.825734553427956E-2   -6.074187508572024E-3    3.814192379896771E-2   -5.359001264464668E-1   -5.022369195706915E-2
 6.457309133000000E9    -5.738272327001348E-1   -1.440653997765611E-1   -8.068401923039344E-3    3.860670670055531E-2   -6.004238516794646E-3    3.843068322580814E-2   -5.359288163625265E-1   -4.889438622224915E-2
 6.457320694900000E9    -5.740339972682913E-1   -1.429902095236298E-1   -7.969750011946350E-3    3.880156794638627E-2   -5.924672011043986E-3    3.866833883713294E-2   -5.360894319190055E-1   -4.748191827764214E-2
 6.457332256800000E9    -5.742447449573027E-1   -1.420082012352397E-1   -7.855538070800005E-3    3.907925059276369E-2   -5.897269414149990E-3    3.881512916863113E-2   -5.361952343192560E-1   -4.614745221872038E-2
 6.457343818700000E9    -5.744212555808162E-1   -1.409868242097745E-1   -7.849411689395317E-3    3.925088899327808E-2   -5.837125750514672E-3    3.911750902210260E-2   -5.361601835540428E-1   -4.474628967926709E-2
 6.457355380600000E9    -5.746103627428572E-1   -1.400049698771406E-1   -7.889524039783246E-3    3.966252498335059E-2   -5.785056293929756E-3    3.930831238779722E-2   -5.363013881104995E-1   -4.359616051626428E-2
 6.457366942500000E9    -5.748251222839081E-1   -1.389596746640145E-1   -7.788789096148432E-3    3.978938500803947E-2   -5.710320574978180E-3    3.956016611254498E-2   -5.365340245934243E-1   -4.226307941033708E-2
 6.457378504400000E9    -5.750455506830042E-1   -1.380085726691064E-1   -7.836661598252123E-3    4.002929699898546E-2   -5.706675537234271E-3    3.984169991858021E-2   -5.364336174185985E-1   -4.091336933834155E-2
 6.457390066300000E9    -5.753089887741490E-1   -1.370069543086706E-1   -7.767099169056888E-3    4.038754753020189E-2   -5.635645427574087E-3    4.008419092036300E-2   -5.365410847894643E-1   -3.952248479396121E-2
 6.457401628200000E9    -5.754834384375133E-1   -1.360573885438950E-1   -7.741044208693841E-3    4.067179501816563E-2   -5.516350627464951E-3    4.042664519431188E-2   -5.366636705143555E-1   -3.825320589934526E-2
 6.457413190100000E9    -5.757401985647868E-1   -1.350758813111944E-1   -7.728423103875986E-3    4.087433968482095E-2   -5.494869892120799E-3    4.067223752191778E-2   -5.367460809199145E-1   -3.682551594325913E-2
 6.457424752000000E9    -5.759089644248836E-1   -1.339304238970647E-1   -7.480715835520915E-3    4.122656189859870E-2   -5.482927052000261E-3    4.087448875076206E-2   -5.368999681801955E-1   -3.568076072655361E-2
 6.457436313900000E9    -5.760225188968454E-1   -1.329129518836880E-1   -7.409815552572626E-3    4.146297001678440E-2   -5.330544244529479E-3    4.117081071199554E-2   -5.368666527014710E-1   -3.408223957789422E-2
 6.457447875800000E9    -5.762644800898067E-1   -1.318828652887166E-1   -7.463382337191161E-3    4.177200219986942E-2   -5.322659936129695E-3    4.137660342998378E-2   -5.369215388718237E-1   -3.275483750393664E-2
 6.457459437700000E9    -5.764114124912471E-1   -1.308423589441277E-1   -7.435651532058218E-3    4.206053114350529E-2   -5.342858606478438E-3    4.173708609917594E-2   -5.369414003848280E-1   -3.135454186685589E-2
 6.457470999600000E9    -5.767367557708643E-1   -1.298499988987140E-1   -7.268659126233646E-3    4.234365913648348E-2   -5.157717090045075E-3    4.204536440902666E-2   -5.370396387328431E-1   -2.993598447845730E-2
 6.457482561500000E9    -5.768423237129232E-1   -1.288212061387304E-1   -7.261586170237116E-3    4.274345106490247E-2   -5.193760766350250E-3    4.223232766683576E-2   -5.371515965043037E-1   -2.858071274436467E-2
 6.457494123400000E9    -5.770379630599419E-1   -1.279050073469900E-1   -7.347320678425005E-3    4.285743329887923E-2   -5.054831981992989E-3    4.259445533715743E-2   -5.371568979627154E-1   -2.722306540741673E-2
 6.457505685300000E9    -5.772596350385997E-1   -1.267579614881067E-1   -7.203858835770810E-3    4.320393853911858E-2   -4.947117939307350E-3    4.284154953828743E-2   -5.373876276358548E-1   -2.574680368229972E-2
 6.457517247200000E9    -5.774165237962035E-1   -1.257910888689317E-1   -7.195048359386071E-3    4.353310031692422E-2   -4.905110548087415E-3    4.319973698120443E-2   -5.371725982910854E-1   -2.448423298692930E-2
 6.457528809100000E9    -5.777481323580864E-1   -1.246500126838006E-1   -7.089677511964775E-3    4.381894394814553E-2   -4.746136950658491E-3    4.351622037614597E-2   -5.372536718618667E-1   -2.296416412494429E-2
 6.457540371000000E9    -5.778403467063968E-1   -1.237289380275689E-1   -6.967066172543021E-3    4.421826458511181E-2   -4.696100683314032E-3    4.379698423687003E-2   -5.373868058241043E-1   -2.142664373242504E-2
 6.457551932900000E9    -5.780584577975263E-1   -1.227239316297855E-1   -7.039906521495421E-3    4.446906126540562E-2   -4.553740264979188E-3    4.404399493061365E-2   -5.373248474955751E-1   -2.014906720905579E-2
 6.457563494800000E9    -5.781284876249537E-1   -1.215883135290357E-1   -7.018107607845215E-3    4.487134653149066E-2   -4.673627786302666E-3    4.438734641278189E-2   -5.374222589373974E-1   -1.868686424202326E-2
 6.457575056700000E9    -5.783408857676317E-1   -1.205704814468773E-1   -6.793695718235836E-3    4.507061461566594E-2   -4.515552817024265E-3    4.458898604419907E-2   -5.375176443838438E-1   -1.720565567726369E-2
 6.457586618600000E9    -5.784817734205746E-1   -1.194561631914343E-1   -6.783450714949350E-3    4.545493506954584E-2   -4.328735420909707E-3    4.500375040274700E-2   -5.374120773243125E-1   -1.562686066391775E-2
 6.457598180500000E9    -5.786389106196311E-1   -1.183937588152515E-1   -6.641188815007585E-3    4.569348945798692E-2   -4.311955708830071E-3    4.527242802288370E-2   -5.375669806790583E-1   -1.414106617941541E-2
 6.457609742400000E9    -5.788973779718074E-1   -1.173836330226970E-1   -6.674536403720912E-3    4.606870074269460E-2   -4.207789062259731E-3    4.553678189494557E-2   -5.374733027892745E-1   -1.269178609893652E-2
 6.457621304300000E9    -5.790780861990444E-1   -1.163684983071408E-1   -6.534679453429309E-3    4.628521252994475E-2   -4.206556449726441E-3    4.601966364083146E-2   -5.374076271197670E-1   -1.141982330229783E-2
 6.457632866200000E9    -5.791372782066111E-1   -1.152370697512980E-1   -6.421711051584587E-3    4.686598320413720E-2   -4.051995439692248E-3    4.629399189261573E-2   -5.376240328971652E-1   -9.819364058600981E-3
 6.457644428100000E9    -5.793042624094085E-1   -1.142456877720625E-1   -6.397020595323348E-3    4.712423240683588E-2   -4.085088163244339E-3    4.670923652435573E-2   -5.374088924125384E-1   -8.280298499988780E-3
 6.457655990000000E9    -5.796152664944810E-1   -1.131172946980116E-1   -6.427218200552431E-3    4.743004312762149E-2   -3.942613906034937E-3    4.703493787242516E-2   -5.372702858540880E-1   -6.843847040491401E-3
 6.457667551900000E9    -5.796722390107180E-1   -1.121581518813167E-1   -6.278933820696924E-3    4.779009658506855E-2   -3.831893042271659E-3    4.731596233102453E-2   -5.374268088037347E-1   -5.279021658758374E-3
 6.457679113800000E9    -5.798060965190324E-1   -1.110144242256598E-1   -6.086342733436900E-3    4.809698183523651E-2   -3.697476315819952E-3    4.765565982026465E-2   -5.373082340983466E-1   -3.644489665925945E-3
 6.457690675700000E9    -5.799678712079480E-1   -1.098955956843981E-1   -6.085143375148221E-3    4.858027280920834E-2   -3.547140932708203E-3    4.809198478158457E-2   -5.372370747000658E-1   -2.242402457267399E-3
 6.457702237600000E9    -5.802017412428903E-1   -1.089482304620951E-1   -6.003251619280246E-3    4.898049601553109E-2   -3.461429803965072E-3    4.836142098392795E-2   -5.372516597104604E-1   -6.450471621252925E-4
 6.457713799500000E9    -5.803972872423995E-1   -1.077585959050876E-1   -5.860750696607321E-3    4.934767125755173E-2   -3.450449474042546E-3    4.874736579810397E-2   -5.373931379238502E-1    8.579339508647611E-4
 6.457725361400000E9    -5.805383807116489E-1   -1.068174154203959E-1   -5.674274729298001E-3    4.976025019783267E-2   -3.244612260289202E-3    4.910971163678230E-2   -5.371994347991407E-1    2.455191995697454E-3
 6.457736923300000E9    -5.805849878647585E-1   -1.057367681613830E-1   -5.602132445837397E-3    5.002455214040597E-2   -3.139510099900284E-3    4.946794434593735E-2   -5.369942934472689E-1    3.972400888067153E-3
 6.457748485200000E9    -5.807942554468440E-1   -1.044687964601983E-1   -5.549529547941427E-3    5.041765178322800E-2   -2.979925345030138E-3    4.983480086348117E-2   -5.371366285435818E-1    5.563667004775860E-3
 6.457760047100000E9    -5.808313374848417E-1   -1.034376192016050E-1   -5.536880856538000E-3    5.092491018852546E-2   -2.884419202087780E-3    5.017409570655736E-2   -5.370925200678077E-1    7.132846541960548E-3
 6.457771609000000E9    -5.808983908852304E-1   -1.024923487188942E-1   -5.434432266778517E-3    5.127683425187061E-2   -2.827663419081057E-3    5.065923580065460E-2   -5.370128062817059E-1    8.709585769860495E-3
 6.457783170900000E9    -5.811776395092411E-1   -1.012114317399726E-1   -5.453514680049222E-3    5.167513135871415E-2   -2.615407106644634E-3    5.097560736847955E-2   -5.368966275607547E-1    1.048051236405480E-2
 6.457794732800000E9    -5.811973051940438E-1   -1.000850548304639E-1   -5.239746201894142E-3    5.210426994111571E-2   -2.544755615370485E-3    5.145970785283829E-2   -5.368466195630257E-1    1.205450990149738E-2
 6.457806294700000E9    -5.812912761825479E-1   -9.905173112516538E-2   -5.088039890413038E-3    5.251442723944856E-2   -2.458004173586412E-3    5.179578224112186E-2   -5.369084223381093E-1    1.379224076739461E-2
 6.457817856600000E9    -5.814604100976932E-1   -9.797571274805797E-2   -5.054427345538660E-3    5.292481139561511E-2   -2.386099063388434E-3    5.221089320467773E-2   -5.366814485731271E-1    1.540785044875139E-2
 6.457829418500000E9    -5.816091009380415E-1   -9.683504402793951E-2   -4.816049981732024E-3    5.343151901504198E-2   -2.181631673255577E-3    5.271609765760858E-2   -5.365658220986547E-1    1.693715846338208E-2
 6.457840980400000E9    -5.816438583594777E-1   -9.586007524910620E-2   -4.791373637576096E-3    5.374944395437022E-2   -1.966950799115932E-3    5.307081420229463E-2   -5.364269986582235E-1    1.864004769326804E-2
 6.457852542300000E9    -5.819285454809985E-1   -9.457255278525627E-2   -4.696307423546400E-3    5.423967509487285E-2   -1.940071970193309E-3    5.354826716089676E-2   -5.363176944930237E-1    2.032521772992153E-2
 6.457864104200000E9    -5.819873945499970E-1   -9.357722527286136E-2   -4.577627416148931E-3    5.473911628529408E-2   -1.717554922506121E-3    5.403929052328240E-2   -5.361189132805879E-1    2.204013982799433E-2
 6.457875666100000E9    -5.821225395907825E-1   -9.257800543286293E-2   -4.411459230417874E-3    5.504497049678263E-2   -1.663503577571234E-3    5.438125502721682E-2   -5.358990635418835E-1    2.374826602821801E-2
 6.457887228000000E9    -5.822680836838312E-1   -9.126706059669402E-2   -4.236868795005236E-3    5.555953263310814E-2   -1.514617444576238E-3    5.484374921756099E-2   -5.357714632764914E-1    2.540776153601273E-2
 6.457898789900000E9    -5.823081166405856E-1   -9.027894507353779E-2   -4.132776738262128E-3    5.611645685685731E-2   -1.299306688749271E-3    5.525265028748769E-2   -5.357018798367172E-1    2.722609509471668E-2
 6.457910351800000E9    -5.823537074131818E-1   -8.902411321962531E-2   -4.034052911901656E-3    5.666431012763504E-2   -1.114048088783862E-3    5.576787008678612E-2   -5.354569641241778E-1    2.914824440956228E-2
 6.457921913700000E9    -5.824323684918516E-1   -8.787460873679417E-2   -3.849097345950622E-3    5.710184855272082E-2   -1.097618846995638E-3    5.628966328013012E-2   -5.353937773091041E-1    3.070740007463185E-2
 6.457933475600000E9    -5.825000249325597E-1   -8.671586522935987E-2   -3.703702539925358E-3    5.771220479608597E-2   -9.055771552741771E-4    5.675019489488933E-2   -5.352373447246607E-1    3.243782363221933E-2
 6.457945037500000E9    -5.826873761614807E-1   -8.564092735198367E-2   -3.691630064613636E-3    5.807464237591110E-2   -7.565690881638288E-4    5.718098007118155E-2   -5.348880565614863E-1    3.429317481732400E-2
 6.457956599400000E9    -5.827238858368957E-1   -8.449802347767012E-2   -3.440690696245568E-3    5.868788962654621E-2   -4.667072072057116E-4    5.774558490351728E-2   -5.348361849966140E-1    3.614831962850469E-2
 6.457968161300000E9    -5.827288817487986E-1   -8.327688362849305E-2   -3.219081402820972E-3    5.907764539296283E-2   -3.221390477702630E-4    5.822356457540778E-2   -5.345368607694128E-1    3.806278233921526E-2
 6.457979723200000E9    -5.829743086449213E-1   -8.218728283482982E-2   -3.071965534332379E-3    5.969712196254418E-2   -2.329111182460078E-4    5.878873951914838E-2   -5.343854957054802E-1    3.980214056243888E-2
 6.457991285100000E9    -5.829234418318661E-1   -8.095535707943367E-2   -2.956279494490072E-3    6.025385063752135E-2    2.993782434757486E-5    5.925493661598085E-2   -5.341420199609657E-1    4.163613560502185E-2
 6.458002847000000E9    -5.830229502842921E-1   -7.979294990900053E-2   -2.695851008623915E-3    6.072604643895421E-2    2.617524982899631E-4    5.979187814663726E-2   -5.339413380350456E-1    4.334491333887198E-2
