#  HZ   S   RI   R     50.00 
! Rohde & Schwarz Vector Network Analyzer 
! Rohde-Schwarz,ZNB20-2Port,1311601062101988,3.16
! Created: UTC 3/20/2024, 11:13:20 PM
! freq[Hz]                re:S11                  im:S11                  re:S21                  im:S21                  re:S12                  im:S12                  re:S22                  im:S22
 6.456961432000000E9    -5.663336754077255E-1   -1.734506303392955E-1   -9.026439904633487E-3    3.223485929917781E-2   -7.186040741434205E-3    3.212480021745135E-2   -5.314500479879641E-1   -8.634264297461415E-2
 6.456973008975000E9    -5.666684636245100E-1   -1.723463562774167E-1   -8.933678959160635E-3    3.234481818825249E-2   -7.188141870129878E-3    3.230810800381016E-2   -5.316939763562583E-1   -8.521270102783508E-2
 6.456984585950000E9    -5.669102794207401E-1   -1.713909361730019E-1   -8.873505434417070E-3    3.250893205268303E-2   -7.209591481991519E-3    3.246234592631479E-2   -5.317793210959205E-1   -8.402274249089245E-2
 6.456996162925000E9    -5.671829579545880E-1   -1.704937923054039E-1   -8.998759603954331E-3    3.277240955136324E-2   -7.164708810576599E-3    3.265129940775752E-2   -5.319269965363723E-1   -8.264007528145646E-2
 6.457007739900000E9    -5.674533811915862E-1   -1.694991696319891E-1   -8.922442819062926E-3    3.296836152319382E-2   -7.065994721174335E-3    3.287270951159934E-2   -5.321293952395934E-1   -8.157396425221944E-2
 6.457019316875000E9    -5.676366572977340E-1   -1.685282784753846E-1   -8.886512012811805E-3    3.309350703569865E-2   -7.101051138568950E-3    3.309555649529864E-2   -5.323650565243013E-1   -8.046540495506330E-2
 6.457030893850000E9    -5.679132919062807E-1   -1.675201979269776E-1   -8.752730559076735E-3    3.339458643268869E-2   -7.015586068239302E-3    3.322750967782934E-2   -5.325934823912214E-1   -7.908197712374392E-2
 6.457042470825000E9    -5.681346461598399E-1   -1.665252744256874E-1   -8.919948918391858E-3    3.338397154195302E-2   -6.896858004725240E-3    3.341626509701183E-2   -5.325608860261619E-1   -7.782956526516911E-2
 6.457054047800000E9    -5.683911252973630E-1   -1.656458685898385E-1   -8.723024685513177E-3    3.367602811134943E-2   -6.957524986485530E-3    3.361768878038051E-2   -5.327482981889403E-1   -7.660340017459341E-2
 6.457065624775000E9    -5.687178663482437E-1   -1.646011049172343E-1   -8.787371456667491E-3    3.390184504201021E-2   -6.954253316220762E-3    3.383554108184750E-2   -5.329500317517459E-1   -7.554201084831270E-2
 6.457077201750000E9    -5.689525698313852E-1   -1.637246452599835E-1   -8.708723378353848E-3    3.392964095481683E-2   -6.921456306377380E-3    3.401243162042550E-2   -5.331958027415581E-1   -7.431470449730058E-2
 6.457088778725000E9    -5.691426417433447E-1   -1.627410602849216E-1   -8.784293230101716E-3    3.421754355633174E-2   -6.835907452462738E-3    3.418359544105463E-2   -5.333193788423106E-1   -7.308235694285171E-2
 6.457100355700000E9    -5.694173651279733E-1   -1.617329935200918E-1   -8.745229895265135E-3    3.453482039377967E-2   -6.812882904655451E-3    3.432402461612910E-2   -5.334037966411526E-1   -7.189859378003850E-2
 6.457111932675000E9    -5.696916105336489E-1   -1.608213087497544E-1   -8.564168481799726E-3    3.469394996019923E-2   -6.717531847375294E-3    3.454869705751458E-2   -5.336592744432603E-1   -7.059778201298858E-2
 6.457123509650000E9    -5.699047909711329E-1   -1.599162329313907E-1   -8.454852130276554E-3    3.475834865383320E-2   -6.737273295281624E-3    3.485607996795327E-2   -5.337056822376761E-1   -6.929103752712445E-2
 6.457135086625000E9    -5.701650281702251E-1   -1.588373639146895E-1   -8.528402616267760E-3    3.504575498235954E-2   -6.688771587791026E-3    3.503510461051164E-2   -5.340318440165495E-1   -6.807210548094313E-2
 6.457146663600000E9    -5.704375829435424E-1   -1.578688018933366E-1   -8.657058250111078E-3    3.522106153867990E-2   -6.681285481631979E-3    3.521502240648455E-2   -5.340485266297906E-1   -6.700111464825206E-2
 6.457158240575000E9    -5.708146032154503E-1   -1.568932044203388E-1   -8.476033417980325E-3    3.548139340115748E-2   -6.624350204060838E-3    3.542601477348779E-2   -5.343373332965861E-1   -6.568580816138636E-2
 6.457169817550000E9    -5.709925865361226E-1   -1.559076188951112E-1   -8.369856443151968E-3    3.574829732595525E-2   -6.612940475833072E-3    3.566331365059501E-2   -5.342890380698186E-1   -6.438317267315567E-2
 6.457181394525000E9    -5.711320433427535E-1   -1.550682595606026E-1   -8.382124022023252E-3    3.591288885029727E-2   -6.525264286816690E-3    3.583980204352506E-2   -5.345070044740070E-1   -6.314536291156701E-2
 6.457192971500000E9    -5.714167815563359E-1   -1.539548327715398E-1   -8.416178541590607E-3    3.615100645991072E-2   -6.495120413530263E-3    3.600654109702225E-2   -5.345684982721621E-1   -6.179492485552451E-2
 6.457204548475000E9    -5.716004441554881E-1   -1.529756180941103E-1   -8.364319259077985E-3    3.633696526720485E-2   -6.409737086315804E-3    3.627564870836917E-2   -5.347840271440520E-1   -6.059787606205975E-2
 6.457216125450000E9    -5.719367801836662E-1   -1.520202648774927E-1   -8.486980721875290E-3    3.666516983493526E-2   -6.287776430680530E-3    3.647420532167195E-2   -5.349189611997213E-1   -5.936642966271884E-2
 6.457227702425000E9    -5.721040778771267E-1   -1.510334443126893E-1   -8.307717637534701E-3    3.689545413246150E-2   -6.338504202749983E-3    3.677801350566184E-2   -5.349887266153226E-1   -5.817195086715441E-2
 6.457239279400000E9    -5.722582444542362E-1   -1.500199928305330E-1   -8.169107449833179E-3    3.713862310642260E-2   -6.296831647645301E-3    3.688429602399513E-2   -5.351578894699475E-1   -5.674457875037608E-2
 6.457250856375000E9    -5.726492979796757E-1   -1.490472859443323E-1   -8.358149225073153E-3    3.734259379776977E-2   -6.158548140245789E-3    3.728854004869821E-2   -5.353593345959273E-1   -5.554811157760156E-2
 6.457262433350000E9    -5.727685274406201E-1   -1.479784920348499E-1   -8.178209933687874E-3    3.753217789145771E-2   -6.195328291594623E-3    3.727681842331769E-2   -5.354746941399834E-1   -5.414221319919264E-2
 6.457274010325000E9    -5.731097210277467E-1   -1.470893309913638E-1   -8.162424319843027E-3    3.785130052708539E-2   -6.122719985056838E-3    3.766884105058600E-2   -5.355272735267264E-1   -5.294856765087731E-2
 6.457285587300000E9    -5.733739839913811E-1   -1.460553240221041E-1   -8.006566232238201E-3    3.795231523553894E-2   -6.075603698492858E-3    3.784085384815705E-2   -5.356011493143581E-1   -5.165948814027975E-2
 6.457297164275000E9    -5.734781436578983E-1   -1.450699697021798E-1   -8.092389016920276E-3    3.826429629480863E-2   -6.148105187435430E-3    3.813971171165132E-2   -5.358659712009732E-1   -5.044350588947135E-2
 6.457308741250000E9    -5.737298822395376E-1   -1.440271605078058E-1   -8.121009275059857E-3    3.846224818954223E-2   -6.020533464439437E-3    3.835159685498750E-2   -5.359210909552714E-1   -4.897553557133543E-2
 6.457320318225000E9    -5.739791856699664E-1   -1.430887572358846E-1   -8.027618194114119E-3    3.869991516765903E-2   -5.926889194065222E-3    3.855224339103008E-2   -5.359234894801512E-1   -4.772687794739693E-2
 6.457331895200000E9    -5.741172094786405E-1   -1.420256454214178E-1   -7.875570873755833E-3    3.902452698799361E-2   -5.882402088350603E-3    3.877802353981730E-2   -5.361424956691294E-1   -4.639549009922301E-2
 6.457343472175000E9    -5.743810393192518E-1   -1.410417584701278E-1   -8.043225709222382E-3    3.911954902022208E-2   -5.872061695983965E-3    3.898486656097352E-2   -5.361757828942736E-1   -4.511405495514270E-2
 6.457355049150000E9    -5.746196288828832E-1   -1.399676527309124E-1   -7.972590942290091E-3    3.958296164541735E-2   -5.713630103446971E-3    3.940116627042179E-2   -5.362908223692364E-1   -4.375666081965259E-2
 6.457366626125000E9    -5.748401496406250E-1   -1.390046746559165E-1   -7.929604828548499E-3    3.992950083701931E-2   -5.685005490919080E-3    3.956208592705295E-2   -5.362645847954854E-1   -4.228998372746876E-2
 6.457378203100000E9    -5.750182638640722E-1   -1.380293377376027E-1   -7.830811917550367E-3    4.013481470027590E-2   -5.610740195322002E-3    3.983564297717831E-2   -5.364311045539506E-1   -4.095411987904424E-2
 6.457389780075000E9    -5.753030866165604E-1   -1.369714927134230E-1   -7.781265431684608E-3    4.038590059195131E-2   -5.685636275435332E-3    4.011875416576642E-2   -5.365179480958169E-1   -3.978503649815601E-2
 6.457401357050000E9    -5.754644270332803E-1   -1.360088574153460E-1   -7.691964775451450E-3    4.061241357495160E-2   -5.527987275612099E-3    4.034907001355443E-2   -5.367222768409514E-1   -3.832983848399669E-2
 6.457412934025000E9    -5.757349420072537E-1   -1.349236667260189E-1   -7.703680325078786E-3    4.086225334603234E-2   -5.520332876054357E-3    4.054724883075508E-2   -5.366828611566865E-1   -3.701504593945118E-2
 6.457424511000000E9    -5.758184262750677E-1   -1.340853633181224E-1   -7.655681105557938E-3    4.102913745740895E-2   -5.403743529814981E-3    4.079233255173554E-2   -5.369042254957426E-1   -3.556630689828622E-2
 6.457436087975000E9    -5.761002533049571E-1   -1.329346269329327E-1   -7.562672051744465E-3    4.134791178171175E-2   -5.310415007113023E-3    4.113878312677686E-2   -5.368014509888013E-1   -3.430238503940977E-2
 6.457447664950000E9    -5.763407674522182E-1   -1.318809372724215E-1   -7.515957294572627E-3    4.176031917661845E-2   -5.258184436765430E-3    4.134454475786473E-2   -5.370101105157896E-1   -3.293254558326976E-2
 6.457459241925000E9    -5.765212579023258E-1   -1.308957571835062E-1   -7.592616524882520E-3    4.188680535907034E-2   -5.315237217717031E-3    4.163340213780883E-2   -5.370509262230374E-1   -3.140583761186234E-2
 6.457470818900000E9    -5.766749291199949E-1   -1.299604807104361E-1   -7.320688735453468E-3    4.226550985658629E-2   -5.154698781298700E-3    4.193873118652935E-2   -5.372131357046440E-1   -3.023056278153401E-2
 6.457482395875000E9    -5.767978046548619E-1   -1.289012701007697E-1   -7.471360922898515E-3    4.249613596480527E-2   -5.112784141307619E-3    4.232378542163621E-2   -5.370625165992277E-1   -2.874378192032403E-2
 6.457493972850000E9    -5.769303848076686E-1   -1.279204347445535E-1   -7.249547697725117E-3    4.287125564137958E-2   -5.056209877719107E-3    4.254539734157316E-2   -5.371604184836679E-1   -2.725218662605103E-2
 6.457505549825000E9    -5.772174091874571E-1   -1.268857089977735E-1   -7.209598982343858E-3    4.328403191039776E-2   -4.948257853232852E-3    4.282468225355233E-2   -5.372132206853134E-1   -2.600471039189535E-2
 6.457517126800000E9    -5.774797667384450E-1   -1.258604851545186E-1   -7.242918385309846E-3    4.365461351909918E-2   -4.926739129388918E-3    4.311440481222682E-2   -5.373552296206300E-1   -2.448307823840468E-2
 6.457528703775000E9    -5.775942084543743E-1   -1.247710941396156E-1   -7.181576609360503E-3    4.384412541608410E-2   -4.880252809863033E-3    4.333849315908568E-2   -5.371999627412606E-1   -2.305563430921864E-2
 6.457540280750000E9    -5.778107478034338E-1   -1.237655546731822E-1   -6.987512960500635E-3    4.414076820570298E-2   -4.743760775059047E-3    4.378295966643842E-2   -5.372713240309357E-1   -2.155818933048918E-2
 6.457551857725000E9    -5.778736947637247E-1   -1.225732572235239E-1   -6.962459405466724E-3    4.433999233262342E-2   -4.590525937155049E-3    4.395669023434457E-2   -5.373904546893618E-1   -2.008228338344017E-2
 6.457563434700000E9    -5.781072834904940E-1   -1.215671095518648E-1   -6.889556878218284E-3    4.464339317537706E-2   -4.665709305824093E-3    4.431433084728559E-2   -5.373538213214859E-1   -1.874638492949697E-2
 6.457575011675000E9    -5.783840115022907E-1   -1.205641945227279E-1   -6.847004254533757E-3    4.499750054065034E-2   -4.434851255985481E-3    4.450981524544574E-2   -5.373374289648933E-1   -1.736125852590201E-2
 6.457586588650000E9    -5.785627718959907E-1   -1.195579074542956E-1   -6.779519109934077E-3    4.544276337739429E-2   -4.293150662776376E-3    4.490003532018891E-2   -5.374489652256399E-1   -1.586435784239133E-2
 6.457598165625000E9    -5.786359602149552E-1   -1.184150676538093E-1   -6.646504028587220E-3    4.556100836370467E-2   -4.363071022872832E-3    4.536194851661384E-2   -5.374764530260656E-1   -1.438330960469616E-2
 6.457609742600000E9    -5.787780717405575E-1   -1.174236846437900E-1   -6.607481780302440E-3    4.603077116101817E-2   -4.208041032958915E-3    4.560365434531614E-2   -5.374163704557315E-1   -1.292753455275639E-2
 6.457621319575000E9    -5.790591114510696E-1   -1.163025593391953E-1   -6.496743996266596E-3    4.633582999599148E-2   -4.134620548933582E-3    4.593788474345613E-2   -5.375102549798972E-1   -1.144829075043636E-2
 6.457632896550000E9    -5.792301457400862E-1   -1.152434297770928E-1   -6.498501628294729E-3    4.680327038679981E-2   -4.009476861022067E-3    4.624241992430591E-2   -5.373997336705062E-1   -9.842974035034070E-3
 6.457644473525000E9    -5.793812299982647E-1   -1.141848492793975E-1   -6.401698304260141E-3    4.703653424044996E-2   -3.984846222704544E-3    4.654816014396188E-2   -5.375028321876792E-1   -8.315996112205157E-3
 6.457656050500000E9    -5.794450169989842E-1   -1.131139626076885E-1   -6.376722989617737E-3    4.723885904262007E-2   -3.873670839013884E-3    4.693720593474376E-2   -5.375376778405421E-1   -6.886655381696694E-3
 6.457667627475000E9    -5.796346658224872E-1   -1.120679160181092E-1   -6.276374026993117E-3    4.782890357467388E-2   -3.771747447071434E-3    4.728155452139485E-2   -5.374574703284896E-1   -5.426576445324028E-3
 6.457679204450000E9    -5.797860085282777E-1   -1.109959324370753E-1   -6.131062713911482E-3    4.808380897469809E-2   -3.660037532643965E-3    4.767911905078279E-2   -5.372760833157266E-1   -3.729966683281253E-3
 6.457690781425000E9    -5.799601991185294E-1   -1.099228982380638E-1   -6.105537921480188E-3    4.843609441368478E-2   -3.572610820209897E-3    4.799697387938970E-2   -5.374859011551865E-1   -2.360637092169850E-3
 6.457702358400000E9    -5.801382421398851E-1   -1.088997752797362E-1   -5.885144627837508E-3    4.898095409721033E-2   -3.463526275540230E-3    4.829452185184904E-2   -5.373483204880493E-1   -8.415729060664391E-4
 6.457713935375000E9    -5.802408965637209E-1   -1.078200422646080E-1   -5.892792218339142E-3    4.930665305322748E-2   -3.438378253809597E-3    4.874668874606722E-2   -5.372614111111754E-1    8.095652355893735E-4
 6.457725512350000E9    -5.803594834104866E-1   -1.066602093006718E-1   -5.820137541844939E-3    4.972579389284464E-2   -3.256333544045963E-3    4.904538079499841E-2   -5.372001506500668E-1    2.346334799486211E-3
 6.457737089325000E9    -5.805122491466320E-1   -1.055710250769019E-1   -5.772249493081519E-3    5.007862957056630E-2   -3.188923600097287E-3    4.944894763935335E-2   -5.371119072272926E-1    4.001046419550953E-3
 6.457748666300000E9    -5.807777781522249E-1   -1.044495767170072E-1   -5.489107155842191E-3    5.049332600140116E-2   -3.092514879260252E-3    4.988761343148072E-2   -5.371747829163073E-1    5.567538509454044E-3
 6.457760243275000E9    -5.808334522091706E-1   -1.034243621492027E-1   -5.524691026744979E-3    5.085215437341992E-2   -2.953775458236150E-3    5.025536898092423E-2   -5.371055433926906E-1    7.166976576044506E-3
 6.457771820250000E9    -5.809898141028296E-1   -1.023701405813380E-1   -5.432287337114399E-3    5.104391953735654E-2   -2.789869346100934E-3    5.056073392430334E-2   -5.369973309568624E-1    8.660406220356767E-3
 6.457783397225000E9    -5.810808135458487E-1   -1.013207234803389E-1   -5.403155028040155E-3    5.166077582901505E-2   -2.654932577809431E-3    5.092029088187438E-2   -5.368283970606771E-1    1.037947740295932E-2
 6.457794974200000E9    -5.812149903251290E-1   -1.001435103028867E-1   -5.109881874530154E-3    5.195900289891393E-2   -2.628839094637406E-3    5.133701210982842E-2   -5.368677586957397E-1    1.196809181482191E-2
 6.457806551175000E9    -5.813858220446982E-1   -9.905519413287069E-2   -5.099716176709321E-3    5.255472009862722E-2   -2.476623212757159E-3    5.179991198226222E-2   -5.367755884091678E-1    1.359330334534087E-2
 6.457818128150000E9    -5.814660148100502E-1   -9.800130577690672E-2   -5.013484180620400E-3    5.286354000762308E-2   -2.348635391819083E-3    5.216379859566623E-2   -5.365161340909000E-1    1.525245341641912E-2
 6.457829705125000E9    -5.816305195757346E-1   -9.692667624385556E-2   -4.814496967621204E-3    5.318545329604823E-2   -2.198855612281226E-3    5.259884033549164E-2   -5.366467749882260E-1    1.693983172602993E-2
 6.457841282100000E9    -5.817031686740376E-1   -9.572670078946921E-2   -4.774101440833863E-3    5.375810116121944E-2   -2.083177849122732E-3    5.305318436440808E-2   -5.364955697646590E-1    1.870479283563063E-2
 6.457852859075000E9    -5.818300536423944E-1   -9.469801358672728E-2   -4.604562007160892E-3    5.408116796403271E-2   -2.049527500521800E-3    5.345223601821057E-2   -5.363264708035320E-1    2.027390731065868E-2
 6.457864436050000E9    -5.819882358055151E-1   -9.348192436373699E-2   -4.434116417465456E-3    5.467267947217143E-2   -1.825317472123492E-3    5.399850081401548E-2   -5.361749976704858E-1    2.199077855586463E-2
 6.457876013025000E9    -5.821067525489863E-1   -9.245864570134149E-2   -4.310866161446503E-3    5.501290620210523E-2   -1.692875588027156E-3    5.440496418197593E-2   -5.361098552553401E-1    2.372256469849926E-2
 6.457887590000000E9    -5.822036938563189E-1   -9.129742381662352E-2   -4.301587096274807E-3    5.559463180877314E-2   -1.552391839120093E-3    5.481043885387816E-2   -5.359224735960454E-1    2.540692924210943E-2
 6.457899166975000E9    -5.822560049131615E-1   -9.020242274073220E-2   -4.073311725226662E-3    5.616665047506798E-2   -1.345838634549211E-3    5.531879598541695E-2   -5.356940905450346E-1    2.707249349095404E-2
 6.457910743950000E9    -5.824502813563660E-1   -8.901553137130244E-2   -3.956146292915649E-3    5.655928362264168E-2   -1.132678980299962E-3    5.567442832975549E-2   -5.355577405981702E-1    2.894478467972099E-2
 6.457922320925000E9    -5.825243838498965E-1   -8.779307113037257E-2   -3.884641019350083E-3    5.693689627941765E-2   -1.025537995060818E-3    5.616049614470342E-2   -5.355464617822171E-1    3.067109471263522E-2
 6.457933897900000E9    -5.826002400871836E-1   -8.667179317468587E-2   -3.677982644520882E-3    5.758456767517465E-2   -8.667183861481134E-4    5.673846326284810E-2   -5.353129889038775E-1    3.244137760888910E-2
 6.457945474875000E9    -5.826937621933131E-1   -8.560972633684713E-2   -3.600321397775455E-3    5.800196887071751E-2   -7.514304841465194E-4    5.713607378289961E-2   -5.352164098875666E-1    3.424322761551379E-2
 6.457957051850000E9    -5.827969068322728E-1   -8.448424442363027E-2   -3.323076082129104E-3    5.856443859290231E-2   -5.579171923852081E-4    5.766340491832351E-2   -5.348485029808928E-1    3.595867151847077E-2
 6.457968628825000E9    -5.828171573043880E-1   -8.334081863023081E-2   -3.373785815923267E-3    5.905048332541566E-2   -2.967228679903133E-4    5.817648824881564E-2   -5.346622278312941E-1    3.773117869825514E-2
 6.457980205800000E9    -5.829648088178014E-1   -8.209596989414088E-2   -3.124550751822595E-3    5.963983937833561E-2   -2.005328328122038E-4    5.864739975430013E-2   -5.345165040786533E-1    3.975593200741818E-2
 6.457991782775000E9    -5.829340136908323E-1   -8.089454979482666E-2   -2.908524192914542E-3    6.015629410468310E-2   -3.306653721443621E-6    5.909273400064025E-2   -5.341703685537471E-1    4.158030218458658E-2
 6.458003359750000E9    -5.831710892369740E-1   -7.972130099479025E-2   -2.699269505417048E-3    6.070328581307490E-2    1.922526975288453E-4    5.966558217521555E-2   -5.339419875918755E-1    4.325373535106907E-2
