#  HZ   S   RI   R     50.00 
! Rohde & Schwarz Vector Network Analyzer 
! Rohde-Schwarz,ZNB20-2Port,1311601062101988,3.16
! Created: UTC 3/20/2024, 11:13:38 PM
! freq[Hz]                re:S11                  im:S11                  re:S21                  im:S21                  re:S12                  im:S12                  re:S22                  im:S22
 6.456967838000000E9    -5.665420224499536E-1   -1.726527762907593E-1   -8.814367429048012E-3    3.223131208744726E-2   -7.197042824833791E-3    3.223053772746678E-2   -5.314507938357714E-1   -8.582745321855702E-2
 6.456979391700000E9    -5.668008785821976E-1   -1.718728269666407E-1   -8.895484080659368E-3    3.242964447716205E-2   -7.109737589733835E-3    3.234961667491316E-2   -5.316993107601797E-1   -8.443818549828463E-2
 6.456990945400000E9    -5.670096741836775E-1   -1.710016626186776E-1   -8.816770635582560E-3    3.273791561922910E-2   -7.173591142859891E-3    3.253786684966118E-2   -5.319543120747712E-1   -8.331488311719161E-2
 6.457002499100000E9    -5.672062650494289E-1   -1.698225102079870E-1   -8.992909302214485E-3    3.279164114511400E-2   -7.087751515621750E-3    3.275203634666665E-2   -5.320157025501876E-1   -8.217957906258129E-2
 6.457014052800000E9    -5.675902812516664E-1   -1.689300438378786E-1   -8.884083473666279E-3    3.289295090165780E-2   -7.060438342087715E-3    3.296993553318205E-2   -5.321697965518565E-1   -8.081425793624140E-2
 6.457025606500000E9    -5.677542384267470E-1   -1.679201464788825E-1   -8.946937939998166E-3    3.311768321180941E-2   -7.074172131438475E-3    3.310741784694268E-2   -5.323337950739691E-1   -7.976084663458195E-2
 6.457037160200000E9    -5.680242621452751E-1   -1.669949101260054E-1   -8.730041528414880E-3    3.336030718049460E-2   -7.059779771946716E-3    3.324707042043754E-2   -5.325416496995357E-1   -7.852126794131384E-2
 6.457048713900000E9    -5.682890960534949E-1   -1.660753662934317E-1   -8.823300136022685E-3    3.358704488918757E-2   -6.936910434157683E-3    3.349089638826834E-2   -5.327563722199902E-1   -7.740579439352989E-2
 6.457060267600000E9    -5.686387403047806E-1   -1.651378656219022E-1   -8.708108614790405E-3    3.385382047794119E-2   -7.031650876930495E-3    3.369483534409028E-2   -5.329215164600813E-1   -7.627186912528422E-2
 6.457071821300000E9    -5.688463257705575E-1   -1.640931378790875E-1   -8.798044348115200E-3    3.392001606558993E-2   -6.964182567134749E-3    3.386655974150044E-2   -5.331224276831874E-1   -7.478039656443843E-2
 6.457083375000000E9    -5.690170670665528E-1   -1.630802279935066E-1   -8.695968007172560E-3    3.402603899416608E-2   -6.938827381016489E-3    3.404233438543405E-2   -5.332790971617096E-1   -7.358616285345305E-2
 6.457094928700000E9    -5.694285103399565E-1   -1.622337847347516E-1   -8.637386138597370E-3    3.438044235255856E-2   -6.819605496764103E-3    3.432737355192639E-2   -5.332920864197304E-1   -7.240773000397856E-2
 6.457106482400000E9    -5.695346687226155E-1   -1.612928008894348E-1   -8.648575028222531E-3    3.445318363058521E-2   -6.667531568737847E-3    3.443520702980291E-2   -5.335959017500380E-1   -7.121907164339553E-2
 6.457118036100000E9    -5.699097620417382E-1   -1.602436636209260E-1   -8.466022099360376E-3    3.457562758290327E-2   -6.627602093702458E-3    3.469089906319004E-2   -5.337029829039809E-1   -6.993557199491374E-2
 6.457129589800000E9    -5.702476063340348E-1   -1.593219715735769E-1   -8.616869426630990E-3    3.501283048188071E-2   -6.750138303831425E-3    3.491078786825871E-2   -5.338309931510198E-1   -6.873047678703065E-2
 6.457141143500000E9    -5.704132319207775E-1   -1.582873183476862E-1   -8.461948358520583E-3    3.519587838505240E-2   -6.678483156975772E-3    3.508843807617685E-2   -5.341678867173727E-1   -6.759852565140079E-2
 6.457152697200000E9    -5.705391657300466E-1   -1.573516266121789E-1   -8.530307990684173E-3    3.547414832107594E-2   -6.620886426367641E-3    3.518422281444328E-2   -5.341539607811522E-1   -6.630438879029459E-2
 6.457164250900000E9    -5.707604123349785E-1   -1.563472339324104E-1   -8.580614155584487E-3    3.557025575788907E-2   -6.606425836003158E-3    3.546852379569553E-2   -5.342869766507798E-1   -6.517507216163404E-2
 6.457175804600000E9    -5.710280674269597E-1   -1.554473403834686E-1   -8.505578685096509E-3    3.589796294512521E-2   -6.534321895362754E-3    3.569975075366023E-2   -5.344999160822711E-1   -6.386790932551742E-2
 6.457187358300000E9    -5.712834017677888E-1   -1.544111393761891E-1   -8.394230740148695E-3    3.607318433809034E-2   -6.469816497445519E-3    3.592602069095905E-2   -5.345521712118191E-1   -6.251470390467055E-2
 6.457198912000000E9    -5.715638296647508E-1   -1.533467111027463E-1   -8.373739146268377E-3    3.626656803933399E-2   -6.422405006942665E-3    3.614024060402542E-2   -5.347850478010766E-1   -6.132796912155121E-2
 6.457210465700000E9    -5.717725248449091E-1   -1.525401123295670E-1   -8.342789349677230E-3    3.653301296554259E-2   -6.425146892445107E-3    3.633058601813426E-2   -5.349846563801329E-1   -6.008818309526844E-2
 6.457222019400000E9    -5.719719010696293E-1   -1.513819075867550E-1   -8.319442045326829E-3    3.665830103270199E-2   -6.302747588423039E-3    3.662884677472099E-2   -5.351043834863405E-1   -5.874921848555666E-2
 6.457233573100000E9    -5.723030876927172E-1   -1.504617480844067E-1   -8.364440079646209E-3    3.699472937864882E-2   -6.329795762249004E-3    3.677190386812056E-2   -5.351394031023416E-1   -5.739927807092214E-2
 6.457245126800000E9    -5.725209408633378E-1   -1.494711230886368E-1   -8.294832283719787E-3    3.713423371020694E-2   -6.271668782499022E-3    3.700156067930237E-2   -5.352127661537166E-1   -5.619174826932437E-2
 6.457256680500000E9    -5.727734403253122E-1   -1.485739258383500E-1   -8.318434095801063E-3    3.736036047953093E-2   -6.237094908877757E-3    3.722648925604747E-2   -5.355032991119413E-1   -5.493979771540620E-2
 6.457268234200000E9    -5.729543137744211E-1   -1.475252776775975E-1   -8.180376823033936E-3    3.753651296396880E-2   -6.158160398986524E-3    3.738574006455048E-2   -5.356306496427563E-1   -5.367915406771656E-2
 6.457279787900000E9    -5.732922062561927E-1   -1.465773149384166E-1   -8.030722639325652E-3    3.789896328640822E-2   -6.156303133035154E-3    3.768277115605706E-2   -5.356925598377189E-1   -5.236001829122058E-2
 6.457291341600000E9    -5.733481886336683E-1   -1.455954437749632E-1   -8.077677695537086E-3    3.809898627570889E-2   -6.121939162985467E-3    3.793686697574656E-2   -5.359246222341977E-1   -5.099502326426143E-2
 6.457302895300000E9    -5.736328737056227E-1   -1.445673533922588E-1   -8.080408846115480E-3    3.851764530993525E-2   -6.049717916872835E-3    3.821048275167718E-2   -5.358727561225367E-1   -4.976315925671167E-2
 6.457314449000000E9    -5.739004324574853E-1   -1.435841261690412E-1   -8.132206831152936E-3    3.859720974519319E-2   -5.963401760570737E-3    3.843118977524231E-2   -5.359868529663186E-1   -4.841821375572716E-2
 6.457326002700000E9    -5.740470034708596E-1   -1.425849092233627E-1   -8.037253969205706E-3    3.893734681682587E-2   -5.941006822511105E-3    3.861557217304350E-2   -5.361512563938677E-1   -4.701766249009215E-2
 6.457337556400000E9    -5.743207854989619E-1   -1.415528694011383E-1   -7.966256225615739E-3    3.918660611901392E-2   -5.835147542991835E-3    3.898374906557242E-2   -5.362043994105526E-1   -4.575884946870312E-2
 6.457349110100000E9    -5.745828087126590E-1   -1.406046947510885E-1   -7.887900115738103E-3    3.945346198982252E-2   -5.951891125897817E-3    3.906525362763810E-2   -5.362723822163300E-1   -4.456051697799206E-2
 6.457360663800000E9    -5.747158995038332E-1   -1.394186610224225E-1   -7.919762910596371E-3    3.956718099977117E-2   -5.743210486613234E-3    3.936080188372686E-2   -5.362779406956866E-1   -4.305115550162725E-2
 6.457372217500000E9    -5.748446573137515E-1   -1.385133561129273E-1   -7.747249546612575E-3    3.999788938667093E-2   -5.696604102749872E-3    3.966658821661826E-2   -5.365157550368990E-1   -4.187399151414097E-2
 6.457383771200000E9    -5.751554565623093E-1   -1.374769823872740E-1   -7.628804196619913E-3    4.014905630522474E-2   -5.704253838280485E-3    3.990816206640074E-2   -5.366052949597252E-1   -4.051682376528661E-2
 6.457395324900000E9    -5.753655837485520E-1   -1.364774738021756E-1   -7.586563242113016E-3    4.045108754773919E-2   -5.643328471389538E-3    4.024363982701969E-2   -5.366531705289157E-1   -3.917102903860357E-2
 6.457406878600000E9    -5.755918756959626E-1   -1.355133088743593E-1   -7.682136253405025E-3    4.065821157720607E-2   -5.504005082617992E-3    4.041801672254963E-2   -5.368002754579916E-1   -3.773688537157908E-2
 6.457418432300000E9    -5.757846453188413E-1   -1.344877851734214E-1   -7.611455237342564E-3    4.089620272526626E-2   -5.457273842681868E-3    4.069003464792976E-2   -5.367914208946485E-1   -3.633378600418700E-2
 6.457429986000000E9    -5.759693967495471E-1   -1.335280922502060E-1   -7.645075122752302E-3    4.124054887323452E-2   -5.422247199582395E-3    4.096615064289041E-2   -5.368710404982978E-1   -3.500437126663757E-2
 6.457441539700000E9    -5.760998297693793E-1   -1.323984093056903E-1   -7.434832759008713E-3    4.150134528382959E-2   -5.376780636716315E-3    4.125413089739557E-2   -5.370264089461891E-1   -3.352366546759182E-2
 6.457453093400000E9    -5.763585163246880E-1   -1.314555191459490E-1   -7.437286728182042E-3    4.179202801074429E-2   -5.313691520590723E-3    4.137840570269572E-2   -5.369176312529588E-1   -3.235106896321280E-2
 6.457464647100000E9    -5.766020296391192E-1   -1.304260890047367E-1   -7.370672166336251E-3    4.207492953904367E-2   -5.189709478441469E-3    4.171408187448151E-2   -5.370719192235712E-1   -3.092830731352075E-2
 6.457476200800000E9    -5.767991892299075E-1   -1.293286922322966E-1   -7.438538830388629E-3    4.227519485431440E-2   -5.109775549279252E-3    4.203717093904543E-2   -5.370743969443270E-1   -2.966278623429829E-2
 6.457487754500000E9    -5.770474683421666E-1   -1.284172820297635E-1   -7.177816047704875E-3    4.268393049254555E-2   -5.131593568939411E-3    4.238323899269329E-2   -5.371654462362677E-1   -2.816179499471995E-2
 6.457499308200000E9    -5.771202585508292E-1   -1.272852398795390E-1   -7.173311032621926E-3    4.303992613626929E-2   -5.092476004979673E-3    4.267334382593511E-2   -5.371037417518650E-1   -2.665505708625407E-2
 6.457510861900000E9    -5.773419908360601E-1   -1.262393855625024E-1   -7.071195052640648E-3    4.333396213891866E-2   -4.937478380897357E-3    4.285073002812471E-2   -5.372993050328148E-1   -2.533170466815801E-2
 6.457522415600000E9    -5.775291822038372E-1   -1.252085081109710E-1   -7.049480293428562E-3    4.355859370654799E-2   -4.857140499409658E-3    4.315527407306120E-2   -5.372635946378715E-1   -2.393426643866652E-2
 6.457533969300000E9    -5.776424944539301E-1   -1.242874174933351E-1   -7.079470481371541E-3    4.379665013785137E-2   -4.757540802711875E-3    4.345636105869743E-2   -5.374777361946451E-1   -2.246829783902836E-2
 6.457545523000000E9    -5.779466356807100E-1   -1.231160318440453E-1   -6.996576267980285E-3    4.428945963987268E-2   -4.702928786039145E-3    4.383041055083590E-2   -5.374313554547654E-1   -2.105815248534195E-2
 6.457557076700000E9    -5.781356585601974E-1   -1.222599922368822E-1   -6.891772522317609E-3    4.449177094709862E-2   -4.686334271092802E-3    4.419115756738420E-2   -5.373750916776099E-1   -1.958794248742546E-2
 6.457568630400000E9    -5.781867334767204E-1   -1.210455658988610E-1   -6.826749341517474E-3    4.461873304458788E-2   -4.486695734413547E-3    4.445596963940065E-2   -5.373532026465313E-1   -1.811527828337198E-2
 6.457580184100000E9    -5.783582945308861E-1   -1.200864888561560E-1   -6.969142784228132E-3    4.500962528188376E-2   -4.429589301075666E-3    4.463863206058249E-2   -5.374377461811797E-1   -1.669154354960558E-2
 6.457591737800000E9    -5.784791759402352E-1   -1.190391902578104E-1   -6.688507737583467E-3    4.547348691696164E-2   -4.357224474677905E-3    4.504607315164021E-2   -5.375116577893264E-1   -1.518823060719918E-2
 6.457603291500000E9    -5.787926686592433E-1   -1.180116020639437E-1   -6.602090948263929E-3    4.587891250584894E-2   -4.284383213173504E-3    4.537576463092231E-2   -5.374493352364041E-1   -1.374777701159444E-2
 6.457614845200000E9    -5.788584610306434E-1   -1.168141269309806E-1   -6.595245598988274E-3    4.604930565693238E-2   -4.215144838746208E-3    4.571117476832132E-2   -5.373432541299784E-1   -1.221742633173294E-2
 6.457626398900000E9    -5.789828422912541E-1   -1.159659102066681E-1   -6.516495634470655E-3    4.645321185484100E-2   -4.093001488459739E-3    4.598527989574912E-2   -5.374291894541950E-1   -1.075911325105940E-2
 6.457637952600000E9    -5.793527642101861E-1   -1.148780494665406E-1   -6.485661875839560E-3    4.677620227866026E-2   -4.009841832998676E-3    4.631976790452732E-2   -5.375070637835778E-1   -9.444363962280518E-3
 6.457649506300000E9    -5.794341110628665E-1   -1.138516773728409E-1   -6.444086363216498E-3    4.706324317985822E-2   -3.944998899040855E-3    4.671201514915443E-2   -5.373581625081827E-1   -7.816660478566941E-3
 6.457661060000000E9    -5.795473296614962E-1   -1.126163974734175E-1   -6.206587940914295E-3    4.749367862824286E-2   -3.794205282777940E-3    4.697071449826718E-2   -5.374156987861664E-1   -6.308006907168709E-3
 6.457672613700000E9    -5.797850614393271E-1   -1.116762693950980E-1   -6.218837951332763E-3    4.792658453855460E-2   -3.795571792326039E-3    4.730554131884204E-2   -5.374137700237552E-1   -4.778069770929972E-3
 6.457684167400000E9    -5.799291694914469E-1   -1.106042410174434E-1   -6.119430544565890E-3    4.822956130164859E-2   -3.710472783162960E-3    4.772706403663236E-2   -5.375156905310655E-1   -3.209970977607285E-3
 6.457695721100000E9    -5.799876788418026E-1   -1.095196052793339E-1   -6.009401879865434E-3    4.854376693712068E-2   -3.650825064761496E-3    4.814290486316495E-2   -5.372191830871781E-1   -1.684012454302452E-3
 6.457707274800000E9    -5.801401179185938E-1   -1.083583915160987E-1   -5.879524960062320E-3    4.896188461580452E-2   -3.487263196905059E-3    4.842923794930609E-2   -5.373821537468269E-1   -6.330002118405255E-5
 6.457718828500000E9    -5.804470679066260E-1   -1.073745279390507E-1   -5.910708726554227E-3    4.929880006494455E-2   -3.322737902520901E-3    4.868385060320861E-2   -5.373135914079693E-1    1.376870913360328E-3
 6.457730382200000E9    -5.804874563952324E-1   -1.063231607750998E-1   -5.680213370701607E-3    4.972166739144456E-2   -3.222196704432076E-3    4.919033012434711E-2   -5.372385183529442E-1    2.942522515314953E-3
 6.457741935900000E9    -5.806180387181635E-1   -1.052270126738605E-1   -5.625584306728574E-3    5.009018990556033E-2   -3.192206746178703E-3    4.959000635388010E-2   -5.372194590122787E-1    4.523039962539857E-3
 6.457753489600000E9    -5.807124262723782E-1   -1.041028805008748E-1   -5.554495048705933E-3    5.053912447658473E-2   -3.007493163475865E-3    4.997854580174858E-2   -5.370440529835847E-1    6.113981420743274E-3
 6.457765043300000E9    -5.807690059312467E-1   -1.029960460123330E-1   -5.379709121728425E-3    5.096820883100272E-2   -2.924352772120566E-3    5.028410688575836E-2   -5.369929307604978E-1    7.630019310415934E-3
 6.457776597000000E9    -5.811260026201541E-1   -1.020996676467776E-1   -5.393351134597772E-3    5.128877392062021E-2   -2.849813192765683E-3    5.062893187429240E-2   -5.370046678758228E-1    9.320811509430737E-3
 6.457788150700000E9    -5.811985536070396E-1   -1.008076988088639E-1   -5.296652723568341E-3    5.179397173055949E-2   -2.688804280992216E-3    5.108201441198731E-2   -5.370399690411279E-1    1.098695845575228E-2
 6.457799704400000E9    -5.813361608386689E-1   -9.967646237290731E-2   -5.119686368092609E-3    5.218452209191392E-2   -2.499715017226094E-3    5.145009958801201E-2   -5.368837741655871E-1    1.264051132472484E-2
 6.457811258100000E9    -5.812991808635131E-1   -9.859872020346457E-2   -5.010070747687588E-3    5.250548357697111E-2   -2.467313158007132E-3    5.181181118605566E-2   -5.367512530115879E-1    1.423672112125076E-2
 6.457822811800000E9    -5.816119116349295E-1   -9.753036608780061E-2   -4.977876090857503E-3    5.306721563791576E-2   -2.247111282090639E-3    5.230872419434678E-2   -5.366727783654438E-1    1.598515986485581E-2
 6.457834365500000E9    -5.816784491628304E-1   -9.653870185632857E-2   -4.818326133174430E-3    5.337445702000900E-2   -2.160621361474467E-3    5.277714155576999E-2   -5.363816931106906E-1    1.745611071298019E-2
 6.457845919200000E9    -5.817833848884127E-1   -9.537654097878034E-2   -4.804257061465254E-3    5.388066356062966E-2   -2.054613250449637E-3    5.320760044879243E-2   -5.364685406899867E-1    1.915584130974472E-2
 6.457857472900000E9    -5.818438140624943E-1   -9.410606755099871E-2   -4.632669384707923E-3    5.432521274789267E-2   -1.937280832914395E-3    5.360211720504938E-2   -5.363397110638753E-1    2.078170580001895E-2
 6.457869026600000E9    -5.819157944170975E-1   -9.302481289324636E-2   -4.455505111715845E-3    5.478689818907315E-2   -1.684578155770201E-3    5.395986130113762E-2   -5.362907447041202E-1    2.253762409704490E-2
 6.457880580300000E9    -5.820262093033641E-1   -9.194514633950492E-2   -4.322545827698889E-3    5.518218542748778E-2   -1.618522428602723E-3    5.451233252202001E-2   -5.359880795208820E-1    2.422179045849784E-2
 6.457892134000000E9    -5.821645499445703E-1   -9.081074622572735E-2   -4.126958970055358E-3    5.573071622652253E-2   -1.441464362172523E-3    5.492390763545343E-2   -5.358770165414257E-1    2.599682391212040E-2
 6.457903687700000E9    -5.823168265052716E-1   -8.970556232680853E-2   -4.190808547909355E-3    5.623152029307971E-2   -1.348477417248843E-3    5.537918550714203E-2   -5.356753238489728E-1    2.760276254130616E-2
 6.457915241400000E9    -5.824164229235440E-1   -8.849786335801936E-2   -3.907772730026788E-3    5.665118879453364E-2   -1.141586915684125E-3    5.584228228865927E-2   -5.356284749059109E-1    2.942269447774682E-2
 6.457926795100000E9    -5.824595596265001E-1   -8.738198913156522E-2   -3.735750779403678E-3    5.723736909891369E-2   -1.007613368521844E-3    5.636454243365575E-2   -5.354010096100011E-1    3.117940583621756E-2
 6.457938348800000E9    -5.825488126628311E-1   -8.626940262481113E-2   -3.624608106373193E-3    5.764175079056425E-2   -7.999102804956172E-4    5.681777271338030E-2   -5.351769998849364E-1    3.315004907099291E-2
 6.457949902500000E9    -5.827377553650039E-1   -8.510882289718738E-2   -3.581423986058588E-3    5.824107664727699E-2   -6.441467661778623E-4    5.722782234781978E-2   -5.350637432845227E-1    3.473437316295638E-2
 6.457961456200000E9    -5.827824261362671E-1   -8.392166791646671E-2   -3.340935042559346E-3    5.861980984857535E-2   -5.276247143791336E-4    5.775293293707402E-2   -5.348319813948094E-1    3.661548469169953E-2
 6.457973009900000E9    -5.828647380383004E-1   -8.286917863714884E-2   -3.199127102630802E-3    5.928822673943335E-2   -3.558361585441311E-4    5.837450553792954E-2   -5.346498852073850E-1    3.851144253628826E-2
 6.457984563600000E9    -5.829332267776017E-1   -8.168173996310907E-2   -3.009669297956887E-3    5.969892964125616E-2   -1.489584764942477E-4    5.875830396223240E-2   -5.343781932483291E-1    4.022524231956694E-2
 6.457996117300000E9    -5.830771481802728E-1   -8.054851946559717E-2   -3.020593544528211E-3    6.021910368668746E-2    3.271299044367554E-5    5.922510589530360E-2   -5.342053180248946E-1    4.211367856221970E-2
 6.458007671000000E9    -5.830718212815654E-1   -7.925760257144498E-2   -2.740546852059699E-3    6.070573800306159E-2    2.022652441481524E-4    5.977213204523684E-2   -5.338261314603252E-1    4.401354519210352E-2
