#  HZ   S   RI   R     50.00 
! Rohde & Schwarz Vector Network Analyzer 
! Rohde-Schwarz,ZNB20-2Port,1311601062101988,3.16
! Created: UTC 3/20/2024, 11:14:50 PM
! freq[Hz]                re:S11                  im:S11                  re:S21                  im:S21                  re:S12                  im:S12                  re:S22                  im:S22
 6.456979539000000E9    -5.667874200644796E-1   -1.720215165499352E-1   -8.839026474660885E-3    3.241642068498216E-2   -7.108935131597779E-3    3.233397808903334E-2   -5.319199025222466E-1   -8.458486490434279E-2
 6.456991070375000E9    -5.670074942928293E-1   -1.711056182604388E-1   -8.985357025021838E-3    3.262260741762046E-2   -7.099778946179584E-3    3.246078029773294E-2   -5.321707543313019E-1   -8.348333380138767E-2
 6.457002601750000E9    -5.672707761294385E-1   -1.700302233696088E-1   -8.916901674138011E-3    3.270161821284791E-2   -7.075819476480278E-3    3.262819047242234E-2   -5.324116424371855E-1   -8.229703816733527E-2
 6.457014133125000E9    -5.674007802081328E-1   -1.692101146659385E-1   -8.871329440428701E-3    3.289266594831246E-2   -7.122349911805902E-3    3.291351953985514E-2   -5.324450385036265E-1   -8.114203457673874E-2
 6.457025664500000E9    -5.678379650375396E-1   -1.682002895535805E-1   -8.886151141311107E-3    3.313271040994067E-2   -7.077430517847065E-3    3.300621472581271E-2   -5.327289731241690E-1   -8.000668835678103E-2
 6.457037195875000E9    -5.679422041295549E-1   -1.673287586074472E-1   -8.786899924220250E-3    3.330811950397396E-2   -6.971875031061733E-3    3.322058863541708E-2   -5.329083754215777E-1   -7.884394664831251E-2
 6.457048727250000E9    -5.682933293828665E-1   -1.662855313864647E-1   -8.817297690424638E-3    3.339810700726596E-2   -6.925414544306153E-3    3.336038997932730E-2   -5.330086037415059E-1   -7.742669018949100E-2
 6.457060258625000E9    -5.685069408369930E-1   -1.652771102802940E-1   -8.603995728138292E-3    3.366311518614794E-2   -6.941730412797083E-3    3.361267108730819E-2   -5.332806514751520E-1   -7.633488920878383E-2
 6.457071790000000E9    -5.688435285674929E-1   -1.643846730221099E-1   -8.796086771806058E-3    3.369643325680291E-2   -6.988352226982989E-3    3.380385608358855E-2   -5.333604840281997E-1   -7.524648555206276E-2
 6.457083321375000E9    -5.690504127408765E-1   -1.634611815133835E-1   -8.650616046126066E-3    3.410339018608522E-2   -6.871428421687609E-3    3.392946325471956E-2   -5.335140161502362E-1   -7.405312635204320E-2
 6.457094852750000E9    -5.693992771834100E-1   -1.625126366217524E-1   -8.691367277520090E-3    3.431369989472260E-2   -6.872632320179063E-3    3.415071505674606E-2   -5.338052278124475E-1   -7.264381500513514E-2
 6.457106384125000E9    -5.696066135463668E-1   -1.614796947234681E-1   -8.709219435507926E-3    3.449596390427447E-2   -6.827518453301649E-3    3.443707075526316E-2   -5.337932344854215E-1   -7.159580900728471E-2
 6.457117915500000E9    -5.698979584263327E-1   -1.604919277855321E-1   -8.743250157719189E-3    3.466686205387110E-2   -6.734706521167760E-3    3.462035875802597E-2   -5.340747462255704E-1   -7.045046040908508E-2
 6.457129446875000E9    -5.701306629241888E-1   -1.594664127161115E-1   -8.483909003773530E-3    3.480774321064520E-2   -6.637298133148165E-3    3.477901972272433E-2   -5.342231266412615E-1   -6.905822235078485E-2
 6.457140978250000E9    -5.703700177435764E-1   -1.586491597149389E-1   -8.666768941938335E-3    3.505516333448150E-2   -6.602891821820202E-3    3.495203020101251E-2   -5.343679204798496E-1   -6.782705174689209E-2
 6.457152509625000E9    -5.706139725145186E-1   -1.576871525760854E-1   -8.557653406592435E-3    3.524467606286051E-2   -6.575109395361135E-3    3.515009175453310E-2   -5.345090433235146E-1   -6.658052508688081E-2
 6.457164041000000E9    -5.708100690873518E-1   -1.566380547245384E-1   -8.477083515927962E-3    3.540436325188450E-2   -6.581273848844906E-3    3.540746671585693E-2   -5.346342044622031E-1   -6.544628221874989E-2
 6.457175572375000E9    -5.710147550849162E-1   -1.556643953412640E-1   -8.555091684775083E-3    3.571236414128543E-2   -6.475193530397900E-3    3.556392011124265E-2   -5.346935393770690E-1   -6.419837829378389E-2
 6.457187103750000E9    -5.712082735436711E-1   -1.547025284937034E-1   -8.406600075664232E-3    3.595715052639527E-2   -6.507811930619346E-3    3.584998411482649E-2   -5.349611776247566E-1   -6.284599518680503E-2
 6.457198635125000E9    -5.714480335435501E-1   -1.536052709912875E-1   -8.395184266384097E-3    3.624251381732258E-2   -6.470480880971884E-3    3.600563705251774E-2   -5.351038660431915E-1   -6.164439264116047E-2
 6.457210166500000E9    -5.717208594313117E-1   -1.527864977089625E-1   -8.267255109822912E-3    3.631477861032460E-2   -6.418527409578301E-3    3.626117930266060E-2   -5.350060853128529E-1   -6.029844154136152E-2
 6.457221697875000E9    -5.720306822699325E-1   -1.517080691018850E-1   -8.352989003195286E-3    3.653652672330505E-2   -6.323884238603392E-3    3.642893456669730E-2   -5.353337413252568E-1   -5.894116769803005E-2
 6.457233229250000E9    -5.722106972456917E-1   -1.506769429826786E-1   -8.222850379398836E-3    3.689889049175968E-2   -6.290158264805805E-3    3.667725750379731E-2   -5.354562474440719E-1   -5.782052306183459E-2
 6.457244760625000E9    -5.724603979269265E-1   -1.497995337213936E-1   -8.229769295951400E-3    3.703359476681769E-2   -6.326885257013670E-3    3.699247556700978E-2   -5.355906887267841E-1   -5.662016686846369E-2
 6.457256292000000E9    -5.725743609180994E-1   -1.488424145547564E-1   -8.129409835667045E-3    3.715237765824000E-2   -6.244871391640709E-3    3.713009968880103E-2   -5.357722561422806E-1   -5.521697518829224E-2
 6.457267823375000E9    -5.729571560274950E-1   -1.477683894080556E-1   -8.183399789918408E-3    3.748735871601584E-2   -6.190248289575553E-3    3.732007619388494E-2   -5.358635078877113E-1   -5.397354048479338E-2
 6.457279354750000E9    -5.731363480005095E-1   -1.467865142012263E-1   -8.244821492212027E-3    3.780221706644855E-2   -6.169663024679609E-3    3.759234633439754E-2   -5.358969587842461E-1   -5.258768690960693E-2
 6.457290886125000E9    -5.733390414856400E-1   -1.458982138754789E-1   -8.077443232684459E-3    3.801049881333593E-2   -6.162263338163850E-3    3.776201829295857E-2   -5.359656031345021E-1   -5.134242873987830E-2
 6.457302417500000E9    -5.735493152696151E-1   -1.447904461722658E-1   -8.144646822520935E-3    3.813547562701598E-2   -6.101003941735748E-3    3.802133196039974E-2   -5.361722104034190E-1   -5.000239575033652E-2
 6.457313948875000E9    -5.738500925823956E-1   -1.437914977849376E-1   -8.095651353211594E-3    3.861016480824590E-2   -5.999872307256271E-3    3.829935216116329E-2   -5.360699606351695E-1   -4.887855350188165E-2
 6.457325480250000E9    -5.741582553735741E-1   -1.428365514165300E-1   -7.858208868262802E-3    3.875346974668394E-2   -5.936921384293883E-3    3.856464735717929E-2   -5.364196041814049E-1   -4.745311592205175E-2
 6.457337011625000E9    -5.742143966260389E-1   -1.417828476043227E-1   -7.878905560499597E-3    3.890933266413148E-2   -5.819076170398843E-3    3.879978993353314E-2   -5.362926310260629E-1   -4.610253455778675E-2
 6.457348543000000E9    -5.744233081609531E-1   -1.409017253928399E-1   -7.832352198301615E-3    3.917262655812430E-2   -5.807096851995051E-3    3.896099200293002E-2   -5.365596497302945E-1   -4.472874002063636E-2
 6.457360074375000E9    -5.747275209687978E-1   -1.398847885814486E-1   -7.843609602705331E-3    3.946754758441627E-2   -5.804124528928080E-3    3.926748233592807E-2   -5.366258322473221E-1   -4.337766443729557E-2
 6.457371605750000E9    -5.748420574584223E-1   -1.389140994643518E-1   -7.648645028508988E-3    3.981502166412557E-2   -5.752508061070982E-3    3.945573731035804E-2   -5.367332339868218E-1   -4.218256953356492E-2
 6.457383137125000E9    -5.751078540046138E-1   -1.378562068117594E-1   -7.750774419490167E-3    3.993644605300189E-2   -5.650641474841284E-3    3.978031941505362E-2   -5.368718707195718E-1   -4.080336557925660E-2
 6.457394668500000E9    -5.753372149523809E-1   -1.369011595963794E-1   -7.676234112523640E-3    4.020571156768307E-2   -5.664031078725994E-3    4.001980896621238E-2   -5.369424346658391E-1   -3.945237968891150E-2
 6.457406199875000E9    -5.755319544239400E-1   -1.357308315989655E-1   -7.625579254652425E-3    4.047819120645617E-2   -5.521699643579410E-3    4.025291821840411E-2   -5.370174172177066E-1   -3.814733265562308E-2
 6.457417731250000E9    -5.757723717658699E-1   -1.348616512775568E-1   -7.613757380456167E-3    4.082822325191521E-2   -5.351242898822337E-3    4.052491973835251E-2   -5.370193037559022E-1   -3.680517952079808E-2
 6.457429262625000E9    -5.758963352881018E-1   -1.337695495294222E-1   -7.534980130663344E-3    4.104020601971706E-2   -5.480631906626245E-3    4.075227131407695E-2   -5.371388944024272E-1   -3.539337622407762E-2
 6.457440794000000E9    -5.761901816409282E-1   -1.328145432825750E-1   -7.554847796726134E-3    4.132501589643979E-2   -5.374933175161033E-3    4.103385914198783E-2   -5.372054880267596E-1   -3.403464460012661E-2
 6.457452325375000E9    -5.763547517308116E-1   -1.317964027922585E-1   -7.405543226864150E-3    4.155401830165421E-2   -5.356468296732182E-3    4.134016324446853E-2   -5.371500783800988E-1   -3.272105180601485E-2
 6.457463856750000E9    -5.765052653569078E-1   -1.306839478534800E-1   -7.466541407278984E-3    4.189910140856854E-2   -5.233237588358240E-3    4.153803505912360E-2   -5.373437467967107E-1   -3.132171029616367E-2
 6.457475388125000E9    -5.766281149642450E-1   -1.298012749107971E-1   -7.337945225881705E-3    4.216073631033519E-2   -5.203226867940683E-3    4.185338513569647E-2   -5.375232020794311E-1   -2.990450749235200E-2
 6.457486919500000E9    -5.769953290931930E-1   -1.286473019296678E-1   -7.344174932351260E-3    4.247408670227044E-2   -5.124663528679686E-3    4.219927211985055E-2   -5.374473802195561E-1   -2.869028783729024E-2
 6.457498450875000E9    -5.771687822700072E-1   -1.277398363579572E-1   -7.319935702575072E-3    4.269869609730208E-2   -5.035881278772254E-3    4.249873898137037E-2   -5.374950474642033E-1   -2.713952301457650E-2
 6.457509982250000E9    -5.773190410808944E-1   -1.265919622175210E-1   -7.124952570160318E-3    4.325606668392373E-2   -4.929666893088396E-3    4.268433189554671E-2   -5.375201731216720E-1   -2.582679396662536E-2
 6.457521513625000E9    -5.775104939066511E-1   -1.256573219224627E-1   -7.130654672609505E-3    4.330386362152761E-2   -4.830471816428917E-3    4.312697616438249E-2   -5.374716733776134E-1   -2.432655378926298E-2
 6.457533045000000E9    -5.776250315041361E-1   -1.245685605244083E-1   -7.100247597732855E-3    4.366298104837171E-2   -4.797256072570194E-3    4.336004942729098E-2   -5.375656711793424E-1   -2.301208075994136E-2
 6.457544576375000E9    -5.779735919147042E-1   -1.234716036254826E-1   -7.062443756267584E-3    4.392639648846708E-2   -4.682914409104486E-3    4.366037849438797E-2   -5.375889570683084E-1   -2.153479594864145E-2
 6.457556107750000E9    -5.780177129493420E-1   -1.225300093082156E-1   -6.992778351840731E-3    4.433301941067328E-2   -4.631224075311299E-3    4.390462569534720E-2   -5.377272016802808E-1   -2.015046143924318E-2
 6.457567639125000E9    -5.783049014816857E-1   -1.214317701607599E-1   -6.851707482711367E-3    4.451189896047471E-2   -4.567298050585602E-3    4.422351536942479E-2   -5.377782424666777E-1   -1.856448356514492E-2
 6.457579170500000E9    -5.785093981631710E-1   -1.203818414072673E-1   -6.700000298003788E-3    4.486798674494782E-2   -4.479374819175496E-3    4.455006736122629E-2   -5.377103737872939E-1   -1.726089965094635E-2
 6.457590701875000E9    -5.784901593626938E-1   -1.193321668562766E-1   -6.711605705217341E-3    4.527401918130126E-2   -4.460361199447742E-3    4.493562192759375E-2   -5.376828287898313E-1   -1.576745758435673E-2
 6.457602233250000E9    -5.787909001192325E-1   -1.183335697494301E-1   -6.719721064489553E-3    4.560185293754830E-2   -4.356538769275106E-3    4.517575191941656E-2   -5.377635080260157E-1   -1.424289977778930E-2
 6.457613764625000E9    -5.789612807165387E-1   -1.173812677192330E-1   -6.690563993807901E-3    4.589925722180229E-2   -4.281601087845814E-3    4.542499738562093E-2   -5.378521819131268E-1   -1.280727118339180E-2
 6.457625296000000E9    -5.790311959422598E-1   -1.161213020830237E-1   -6.445627974376492E-3    4.614848689971589E-2   -4.220715440220151E-3    4.581218867489063E-2   -5.378638859392306E-1   -1.133577013859072E-2
 6.457636827375000E9    -5.791184994898400E-1   -1.152029763353263E-1   -6.561998052525785E-3    4.657648332769422E-2   -4.031861876395237E-3    4.603853220087812E-2   -5.377081077289243E-1   -9.803507752784097E-3
 6.457648358750000E9    -5.794754597551219E-1   -1.141520882514878E-1   -6.371218784554668E-3    4.692860185772733E-2   -3.937048541746568E-3    4.648470321027152E-2   -5.376964270123412E-1   -8.363052389757502E-3
 6.457659890125000E9    -5.795704381199118E-1   -1.130579744919790E-1   -6.396467698164844E-3    4.733606727948426E-2   -3.855771581073123E-3    4.682616656290133E-2   -5.376813873186885E-1   -6.863819195810268E-3
 6.457671421500000E9    -5.796989640110468E-1   -1.120095978389366E-1   -6.180743072170441E-3    4.772004170749582E-2   -3.870850762970201E-3    4.709464754022539E-2   -5.377286320971485E-1   -5.329941112106715E-3
 6.457682952875000E9    -5.799147377858777E-1   -1.110015823259099E-1   -6.220563189086898E-3    4.793744423688321E-2   -3.716357688148549E-3    4.746100982490359E-2   -5.377205716121615E-1   -3.788402458106525E-3
 6.457694484250000E9    -5.799656537727741E-1   -1.098180813085230E-1   -6.001241209941601E-3    4.828243905926224E-2   -3.630528112684423E-3    4.778294349570746E-2   -5.375431516557587E-1   -2.350638666334368E-3
 6.457706015625000E9    -5.802109374885114E-1   -1.087930204929302E-1   -6.041419418885089E-3    4.862453762929930E-2   -3.456463763116790E-3    4.819896084882000E-2   -5.375931553770493E-1   -7.856784831046135E-4
 6.457717547000000E9    -5.804004945250951E-1   -1.077493030664495E-1   -5.924630290759765E-3    4.899613729888551E-2   -3.372426676429185E-3    4.859776740562099E-2   -5.375416428753134E-1    7.933181747166657E-4
 6.457729078375000E9    -5.804946885980600E-1   -1.066845318950200E-1   -5.779688626007436E-3    4.946984638780189E-2   -3.315058007589835E-3    4.880515076261530E-2   -5.375956424945471E-1    2.359641190701485E-3
 6.457740609750000E9    -5.806416482803722E-1   -1.056834904099821E-1   -5.672557785565838E-3    4.985933928757354E-2   -3.153758172337277E-3    4.923894710880264E-2   -5.375633626881122E-1    3.843843872032180E-3
 6.457752141125000E9    -5.808253038231077E-1   -1.045230946370179E-1   -5.641378972734256E-3    5.018464373921795E-2   -3.045425248225526E-3    4.968045595106291E-2   -5.375540258702813E-1    5.531659767687830E-3
 6.457763672500000E9    -5.808601913724628E-1   -1.034256173299060E-1   -5.539567430570231E-3    5.061310802389334E-2   -3.005875832129970E-3    5.004445071985489E-2   -5.373199492775989E-1    7.079242661950699E-3
 6.457775203875000E9    -5.809431671594434E-1   -1.023170310138868E-1   -5.377012836634582E-3    5.086009472986362E-2   -2.817006253782807E-3    5.044045649365685E-2   -5.373154086009215E-1    8.673416320908430E-3
 6.457786735250000E9    -5.811019181701044E-1   -1.012582763560939E-1   -5.348106619931065E-3    5.142052707864730E-2   -2.769991052483270E-3    5.078806197563083E-2   -5.372558905791455E-1    1.027043587436032E-2
 6.457798266625000E9    -5.813542761704485E-1   -1.000804305024632E-1   -5.233054050663285E-3    5.182641569167663E-2   -2.507389088964676E-3    5.121475368446265E-2   -5.370217947278099E-1    1.186573015392568E-2
 6.457809798000000E9    -5.814614245531413E-1   -9.899121457332907E-2   -5.119396308526029E-3    5.230605376535047E-2   -2.446860955675804E-3    5.162524802028173E-2   -5.371861016175757E-1    1.343188831743194E-2
 6.457821329375000E9    -5.815810023005115E-1   -9.798967152779081E-2   -5.063413489002164E-3    5.264802279863845E-2   -2.346986889047679E-3    5.199965039498151E-2   -5.369686076168281E-1    1.530044406271053E-2
 6.457832860750000E9    -5.815889820465084E-1   -9.690216305001564E-2   -4.912100478809849E-3    5.306621252379440E-2   -2.228500124714201E-3    5.243103277893014E-2   -5.368605070614410E-1    1.672797742633902E-2
 6.457844392125000E9    -5.816837789935783E-1   -9.580256111961953E-2   -4.719846675861112E-3    5.361182253259811E-2   -2.133101145586885E-3    5.285913996775907E-2   -5.367212499022590E-1    1.847508871411128E-2
 6.457855923500000E9    -5.819107246526424E-1   -9.473481494977011E-2   -4.636023861883954E-3    5.399724771204947E-2   -1.984142886259446E-3    5.326647306938000E-2   -5.367972466769098E-1    2.003305155334474E-2
 6.457867454875000E9    -5.819115183128326E-1   -9.361292319230968E-2   -4.507613616402657E-3    5.427716181481918E-2   -1.796882177287656E-3    5.367780104923027E-2   -5.365531421834534E-1    2.178484872887832E-2
 6.457878986250000E9    -5.821023230445650E-1   -9.238537483546239E-2   -4.517944229446839E-3    5.484944063846355E-2   -1.744271410368500E-3    5.419034178672221E-2   -5.363168268020482E-1    2.350805451304364E-2
 6.457890517625000E9    -5.821898306077833E-1   -9.134819826704678E-2   -4.426822149191323E-3    5.531067858783727E-2   -1.452680315679672E-3    5.461085289399863E-2   -5.361465418925101E-1    2.522546806757587E-2
 6.457902049000000E9    -5.823229248047643E-1   -9.019132307580405E-2   -4.289556922494686E-3    5.589855154079802E-2   -1.464480250543954E-3    5.501746908247745E-2   -5.361141050949179E-1    2.710610085067447E-2
 6.457913580375000E9    -5.823649839456573E-1   -8.909029864535568E-2   -3.929281069116665E-3    5.641166555207771E-2   -1.258325245419415E-3    5.555262896068659E-2   -5.358899689580452E-1    2.858759763630075E-2
 6.457925111750000E9    -5.824381763803592E-1   -8.801080933884371E-2   -3.937399832511816E-3    5.688613812482873E-2   -9.844910809277423E-4    5.594720190955052E-2   -5.357740192864878E-1    3.041393134102924E-2
 6.457936643125000E9    -5.825971828300546E-1   -8.672538446066920E-2   -3.708450986962164E-3    5.717630793897342E-2   -9.849552024786944E-4    5.656364748277125E-2   -5.355795046662797E-1    3.221526646772693E-2
 6.457948174500000E9    -5.826172439236873E-1   -8.560280807784509E-2   -3.657262264390759E-3    5.775516005469339E-2   -7.020513296397855E-4    5.696844706946511E-2   -5.354199445829031E-1    3.402743974143827E-2
 6.457959705875000E9    -5.827072193239040E-1   -8.441823946985859E-2   -3.573395578829866E-3    5.836288306367395E-2   -6.005137869337894E-4    5.739675665407341E-2   -5.352154428991662E-1    3.561991834989053E-2
 6.457971237250000E9    -5.828560587561099E-1   -8.330650710287509E-2   -3.258958873015268E-3    5.884612694677353E-2   -4.314213803085426E-4    5.787288482882419E-2   -5.350023244186034E-1    3.757860558138065E-2
 6.457982768625000E9    -5.829714374486977E-1   -8.228951491133048E-2   -3.263808955087723E-3    5.928484222563660E-2   -2.587154332040567E-4    5.835864691511820E-2   -5.348146183633365E-1    3.941520092466643E-2
 6.457994300000000E9    -5.830757956333936E-1   -8.099711391335131E-2   -2.948791907275539E-3    5.984524259808961E-2   -6.447747052519744E-5    5.896798990844707E-2   -5.345515634522154E-1    4.130257377911428E-2
 6.458005831375000E9    -5.830491421122880E-1   -7.983419506669549E-2   -2.795438727332197E-3    6.037622549158830E-2    7.830510776188122E-5    5.939720321305207E-2   -5.343287645212816E-1    4.307973699088145E-2
 6.458017362750000E9    -5.832168267424828E-1   -7.873398481669526E-2   -2.520563522292659E-3    6.098795093427546E-2    2.636345240739953E-4    5.998946299372310E-2   -5.340254847529720E-1    4.493887459908168E-2
