#  HZ   S   RI   R     50.00 
! Rohde & Schwarz Vector Network Analyzer 
! Rohde-Schwarz,ZNB20-2Port,1311601062101988,3.16
! Created: UTC 3/20/2024, 10:54:15 PM
! freq[Hz]                re:S11                  im:S11                  re:S21                  im:S21                  re:S12                  im:S12                  re:S22                  im:S22
 6.457065124000000E9    -5.679058701641002E-1   -1.668570165687512E-1   -8.665830868449211E-3    3.320089349705579E-2   -6.893934809512487E-3    3.322437250801016E-2   -5.350968278096064E-1   -7.607723425640436E-2
 6.457076385425000E9    -5.681490804355597E-1   -1.658477119934803E-1   -8.640017699168803E-3    3.345751683594332E-2   -6.869638416437287E-3    3.351382190157087E-2   -5.351144939269101E-1   -7.485989570493973E-2
 6.457087646850000E9    -5.684584408401474E-1   -1.648992545052948E-1   -8.609579544655282E-3    3.351520159047173E-2   -6.913583459923362E-3    3.347783049940636E-2   -5.351683455099262E-1   -7.374962801533406E-2
 6.457098908275000E9    -5.688028632490082E-1   -1.639912779911193E-1   -8.620045851237879E-3    3.375300535310925E-2   -6.772892103760813E-3    3.370704030829806E-2   -5.355811349871300E-1   -7.254064499823802E-2
 6.457110169700000E9    -5.688746583776753E-1   -1.630222962654117E-1   -8.563156610225116E-3    3.397329941612180E-2   -6.754469087828390E-3    3.391088084233486E-2   -5.356251115371851E-1   -7.127318305016067E-2
 6.457121431125000E9    -5.691517331024337E-1   -1.620334487160155E-1   -8.430826903854931E-3    3.419360968731065E-2   -6.753742597207816E-3    3.404109853815956E-2   -5.357736885475760E-1   -7.012282039268865E-2
 6.457132692550000E9    -5.693451770122364E-1   -1.611540804347624E-1   -8.615927890481791E-3    3.443075244078586E-2   -6.665278705273422E-3    3.434137592867562E-2   -5.358272287749596E-1   -6.885948889959519E-2
 6.457143953975000E9    -5.696939005652504E-1   -1.602200974315381E-1   -8.545825292349598E-3    3.463488133707164E-2   -6.695333267576815E-3    3.451169693006801E-2   -5.360238067920157E-1   -6.777978885305538E-2
 6.457155215400000E9    -5.697478256904638E-1   -1.592190361392160E-1   -8.488780353503892E-3    3.476298534380445E-2   -6.650628637202253E-3    3.467820840644392E-2   -5.362736801643671E-1   -6.651425845081531E-2
 6.457166476825000E9    -5.701507557792642E-1   -1.584016775529311E-1   -8.482539872931958E-3    3.498694583408030E-2   -6.573000208849007E-3    3.488951160979716E-2   -5.363710260544963E-1   -6.530294157324842E-2
 6.457177738250000E9    -5.703923886944073E-1   -1.573493216096167E-1   -8.475196589740473E-3    3.513264525257614E-2   -6.482382436660478E-3    3.516607707271903E-2   -5.365576479699277E-1   -6.397218291385091E-2
 6.457188999675000E9    -5.706296320235257E-1   -1.564874765500679E-1   -8.407750849496482E-3    3.548055124889310E-2   -6.502025563318540E-3    3.525770865776459E-2   -5.367386576814009E-1   -6.277236385029945E-2
 6.457200261100000E9    -5.707793803890540E-1   -1.553873812235720E-1   -8.269019327325851E-3    3.560337956407498E-2   -6.530249137267085E-3    3.547096714274720E-2   -5.367909356253192E-1   -6.165149803907119E-2
 6.457211522525000E9    -5.710517392077731E-1   -1.544252159087575E-1   -8.337456446723134E-3    3.590839957636007E-2   -6.406037602659025E-3    3.558824639171274E-2   -5.369389485774180E-1   -6.044905459877855E-2
 6.457222783950000E9    -5.713420082152464E-1   -1.535622448333923E-1   -8.381581382002651E-3    3.614610250263723E-2   -6.429306236261186E-3    3.586836611890575E-2   -5.370402121822586E-1   -5.929315524808035E-2
 6.457234045375000E9    -5.715787792698702E-1   -1.525882387378862E-1   -8.366233466867660E-3    3.618646394450726E-2   -6.347583492199471E-3    3.614645494582665E-2   -5.370463467383935E-1   -5.805425776619909E-2
 6.457245306800000E9    -5.718780783079115E-1   -1.517158642281298E-1   -8.265668510679740E-3    3.649542171258813E-2   -6.307823774721511E-3    3.630832321661083E-2   -5.373621162497912E-1   -5.663195057991451E-2
 6.457256568225000E9    -5.720753058367644E-1   -1.507376441495455E-1   -8.236624096208426E-3    3.678362221668949E-2   -6.208754877988329E-3    3.647007908259618E-2   -5.374066398999430E-1   -5.554870561116435E-2
 6.457267829650000E9    -5.723263489968782E-1   -1.496673610625542E-1   -8.134124848015283E-3    3.688726253461659E-2   -6.186976097195479E-3    3.668870376587489E-2   -5.374868286953544E-1   -5.430323130832913E-2
 6.457279091075000E9    -5.724580849268006E-1   -1.488114143317081E-1   -8.106928218370717E-3    3.711524348999700E-2   -6.173235451568704E-3    3.694778717325942E-2   -5.376811178973789E-1   -5.299749170747221E-2
 6.457290352500000E9    -5.726973290217848E-1   -1.477682698203209E-1   -8.087800007238495E-3    3.725463285266432E-2   -6.128148112240096E-3    3.714900701850728E-2   -5.378591194277242E-1   -5.178169561904672E-2
 6.457301613925000E9    -5.728733836718093E-1   -1.468460355738412E-1   -8.063549892334489E-3    3.763025975126239E-2   -6.132711735500489E-3    3.736327243470308E-2   -5.379827737128003E-1   -5.055829280213869E-2
 6.457312875350000E9    -5.731944143906541E-1   -1.458557970391213E-1   -8.040581045101637E-3    3.781886837448796E-2   -6.016597239267864E-3    3.758020340156543E-2   -5.379957970694752E-1   -4.925537052474972E-2
 6.457324136775000E9    -5.734113479153683E-1   -1.449298181570772E-1   -7.909848589084249E-3    3.808248238173785E-2   -6.011169838883803E-3    3.781712343561779E-2   -5.380845577630716E-1   -4.804579811023687E-2
 6.457335398200000E9    -5.734886043672123E-1   -1.438959110816703E-1   -7.973420638582005E-3    3.830669423139871E-2   -5.976933711169473E-3    3.803627879589967E-2   -5.382037042218484E-1   -4.677422576372777E-2
 6.457346659625000E9    -5.737956256169576E-1   -1.429613840441281E-1   -7.857093209562583E-3    3.849568733712386E-2   -5.851409889839878E-3    3.832379382981732E-2   -5.383342004481505E-1   -4.557068356532848E-2
 6.457357921050000E9    -5.740326831761462E-1   -1.420467366131437E-1   -7.876194605150526E-3    3.878570349636625E-2   -5.828170314935292E-3    3.846063030719773E-2   -5.383193337860531E-1   -4.421097830525552E-2
 6.457369182475000E9    -5.742557613728619E-1   -1.410711030020860E-1   -7.806094143531623E-3    3.892545424652981E-2   -5.698559993230398E-3    3.877719842278456E-2   -5.383961835755030E-1   -4.285018360367359E-2
 6.457380443900000E9    -5.744195522236611E-1   -1.400196231384484E-1   -7.770237923618403E-3    3.929072493020531E-2   -5.704539062380314E-3    3.890211495528703E-2   -5.384884393942410E-1   -4.168289465891343E-2
 6.457391705325000E9    -5.745890664290592E-1   -1.390286938986839E-1   -7.697324242643446E-3    3.941814940478532E-2   -5.661016663348247E-3    3.924611945309561E-2   -5.385416224693412E-1   -4.027058238101134E-2
 6.457402966750000E9    -5.748882333350209E-1   -1.380571044579735E-1   -7.615262351650936E-3    3.985556843081572E-2   -5.558579449013767E-3    3.953250045402927E-2   -5.385863313039457E-1   -3.898633304319305E-2
 6.457414228175000E9    -5.750121523490775E-1   -1.369851411551029E-1   -7.718018888072688E-3    4.001123150562662E-2   -5.436424909945965E-3    3.970947922679730E-2   -5.387451894111088E-1   -3.765478729871861E-2
 6.457425489600000E9    -5.751595288804696E-1   -1.361061477896068E-1   -7.570225633566419E-3    4.021853711432464E-2   -5.554607755084386E-3    4.001980908880528E-2   -5.388735117175296E-1   -3.639456564887217E-2
 6.457436751025000E9    -5.753951289782784E-1   -1.351521597598442E-1   -7.519937585185697E-3    4.052129527721143E-2   -5.382367763520005E-3    4.025757141838427E-2   -5.388443968139622E-1   -3.521583306582793E-2
 6.457448012450000E9    -5.757237173556439E-1   -1.341732632682011E-1   -7.447038212240801E-3    4.075899681076168E-2   -5.326770939764840E-3    4.045690427896113E-2   -5.390147300080222E-1   -3.359374769290699E-2
 6.457459273875000E9    -5.757107636603571E-1   -1.331891586954546E-1   -7.342108549674852E-3    4.107872880609232E-2   -5.336272178094241E-3    4.076394052934688E-2   -5.391298280376424E-1   -3.244940328932557E-2
 6.457470535300000E9    -5.760413405717721E-1   -1.321120701657494E-1   -7.396813271969698E-3    4.126836398617609E-2   -5.294334405321866E-3    4.105683068890309E-2   -5.390143032557815E-1   -3.112337588511904E-2
 6.457481796725000E9    -5.763039589504033E-1   -1.310320965633870E-1   -7.327685423188560E-3    4.163605386456982E-2   -5.161507859651276E-3    4.114313939434468E-2   -5.390490733236368E-1   -2.972038271773747E-2
 6.457493058150000E9    -5.764756764118264E-1   -1.302376837053121E-1   -7.393357253474392E-3    4.193331922448090E-2   -5.131965201315444E-3    4.152748992864958E-2   -5.392051762381620E-1   -2.834073647885651E-2
 6.457504319575000E9    -5.765783087128601E-1   -1.291809424989314E-1   -7.238272694226191E-3    4.201011725699357E-2   -4.938546523371347E-3    4.170185520069563E-2   -5.392296941270315E-1   -2.697491337993428E-2
 6.457515581000000E9    -5.768145871481801E-1   -1.281718009297916E-1   -7.258105263242549E-3    4.238864672354478E-2   -4.967575975447317E-3    4.201541996108218E-2   -5.392570364786924E-1   -2.577102355681023E-2
 6.457526842425000E9    -5.769617048416275E-1   -1.271924320978187E-1   -7.153893411356067E-3    4.279307004940856E-2   -4.971322226268777E-3    4.234328362816089E-2   -5.392113571109396E-1   -2.439569745946044E-2
 6.457538103850000E9    -5.771953556668715E-1   -1.261466010190535E-1   -7.036516872572011E-3    4.290372491517381E-2   -4.906286670381808E-3    4.261679361520205E-2   -5.393898842349343E-1   -2.299333251318904E-2
 6.457549365275000E9    -5.772951124850151E-1   -1.251964692157769E-1   -7.021033371367747E-3    4.326391786807667E-2   -4.810047769737720E-3    4.304629901493680E-2   -5.393755322405628E-1   -2.167708737290161E-2
 6.457560626700000E9    -5.775170337701451E-1   -1.240959178094652E-1   -6.848440586512128E-3    4.348740105335455E-2   -4.656844350322953E-3    4.314318180217159E-2   -5.394876349953087E-1   -2.011832552644416E-2
 6.457571888125000E9    -5.776610791219973E-1   -1.231159327886096E-1   -6.875604795655243E-3    4.390354444631801E-2   -4.682778093026230E-3    4.346386432573039E-2   -5.395682307537599E-1   -1.886713201334345E-2
 6.457583149550000E9    -5.778864573027886E-1   -1.221144037269524E-1   -6.888368269565439E-3    4.426382837315413E-2   -4.493897982434760E-3    4.379618269933660E-2   -5.393889102068198E-1   -1.743334151256575E-2
 6.457594410975000E9    -5.780160834197726E-1   -1.210050102942321E-1   -6.859582570710885E-3    4.456248965914916E-2   -4.498237728161149E-3    4.411047681185446E-2   -5.395123615347710E-1   -1.605581945402097E-2
 6.457605672400000E9    -5.781578253714329E-1   -1.200845930569960E-1   -6.676963087172323E-3    4.468002710085216E-2   -4.399216942420643E-3    4.434321965708860E-2   -5.396094925033906E-1   -1.461501299953838E-2
 6.457616933825000E9    -5.785186972227468E-1   -1.190211707038546E-1   -6.700244348040888E-3    4.506139468335565E-2   -4.350276071658108E-3    4.465850432727150E-2   -5.396466451121226E-1   -1.323422315248318E-2
 6.457628195250000E9    -5.786434249434768E-1   -1.180509399992904E-1   -6.624480843187566E-3    4.548292550782757E-2   -4.261535718844889E-3    4.503764433140328E-2   -5.396238025425178E-1   -1.175648060136086E-2
 6.457639456675000E9    -5.787503584783392E-1   -1.170446639959927E-1   -6.625409697698182E-3    4.571936347918062E-2   -4.203021797471803E-3    4.530922540860151E-2   -5.394691062836900E-1   -1.046748131908798E-2
 6.457650718100000E9    -5.789162092605269E-1   -1.160722137597977E-1   -6.438654579026360E-3    4.604190785693071E-2   -4.113500513153584E-3    4.558797712640576E-2   -5.396099335379345E-1   -8.983108875607163E-3
 6.457661979525000E9    -5.789908523471702E-1   -1.149314882313461E-1   -6.325245437320887E-3    4.635697962488519E-2   -3.921574124638475E-3    4.596606759875847E-2   -5.395223733463432E-1   -7.549725677177889E-3
 6.457673240950000E9    -5.793092762267282E-1   -1.140107032797142E-1   -6.344304019376284E-3    4.673028338102897E-2   -3.939629530006805E-3    4.616995539494568E-2   -5.396257359110627E-1   -6.016910727583153E-3
 6.457684502375000E9    -5.794087262720450E-1   -1.129219774642363E-1   -6.136846503831380E-3    4.713813206651718E-2   -3.840876852994167E-3    4.653475054434433E-2   -5.395915000316127E-1   -4.612529044870545E-3
 6.457695763800000E9    -5.795216710505293E-1   -1.119087052830565E-1   -6.248065885724325E-3    4.738569907882426E-2   -3.726630656375589E-3    4.701526105070021E-2   -5.394763740079206E-1   -3.172734732391845E-3
 6.457707025225000E9    -5.797412022628323E-1   -1.109441724407177E-1   -6.244868204987938E-3    4.770163010046987E-2   -3.627787347241051E-3    4.724666987339215E-2   -5.396012023011297E-1   -1.653592055543495E-3
 6.457718286650000E9    -5.798316368558115E-1   -1.098197988012932E-1   -6.016014935625179E-3    4.810230559117892E-2   -3.575857064204591E-3    4.755259317907912E-2   -5.394026665012182E-1   -8.634438618289047E-5
 6.457729548075000E9    -5.799605988037966E-1   -1.088023108169117E-1   -5.922302373217012E-3    4.853733283586782E-2   -3.530854964892252E-3    4.790765926207959E-2   -5.393556784665885E-1    1.394653796800938E-3
 6.457740809500000E9    -5.801513284497472E-1   -1.076533884036679E-1   -5.912497171627291E-3    4.886762670446382E-2   -3.361578033047196E-3    4.831002629018760E-2   -5.392766969781497E-1    2.754245099967281E-3
 6.457752070925000E9    -5.802598870225110E-1   -1.067016175571522E-1   -5.693990172689148E-3    4.927391050808710E-2   -3.213705351413138E-3    4.864632087563887E-2   -5.393343848351353E-1    4.438280849327641E-3
 6.457763332350000E9    -5.804504993797123E-1   -1.055878945602843E-1   -5.654329750933119E-3    4.966386985374917E-2   -3.144609887664373E-3    4.895914133299700E-2   -5.393327024255824E-1    5.912863399615318E-3
 6.457774593775000E9    -5.805887918190387E-1   -1.046185450457088E-1   -5.614737670777825E-3    4.998617219401588E-2   -3.110062396503218E-3    4.932714562744650E-2   -5.393138251007218E-1    7.357653261796254E-3
 6.457785855200000E9    -5.807176712413776E-1   -1.034881918067655E-1   -5.485457757706745E-3    5.041024424899999E-2   -2.917269733782771E-3    4.973950798055211E-2   -5.392197594789576E-1    9.043787392923898E-3
 6.457797116625000E9    -5.807827712386289E-1   -1.024806104447365E-1   -5.399856454736519E-3    5.062079364325043E-2   -2.765563481655048E-3    4.997911740448297E-2   -5.390460136157453E-1    1.061090662223733E-2
 6.457808378050000E9    -5.810229880557436E-1   -1.014304009288765E-1   -5.330822909546572E-3    5.117267628763257E-2   -2.738841022442020E-3    5.046433764436150E-2   -5.389495331868379E-1    1.206958851937350E-2
 6.457819639475000E9    -5.811545834897497E-1   -1.003340881589725E-1   -5.241688259190128E-3    5.161739320992567E-2   -2.608290247031982E-3    5.087720447887081E-2   -5.389730156576218E-1    1.363805571265142E-2
 6.457830900900000E9    -5.812115747347000E-1   -9.937678290191013E-2   -5.083545131410890E-3    5.197808874290312E-2   -2.428265870156785E-3    5.126171491691827E-2   -5.386850001094899E-1    1.519860173895172E-2
 6.457842162325000E9    -5.813465052369073E-1   -9.821320570111805E-2   -4.958343743781836E-3    5.234977014888254E-2   -2.341567234361553E-3    5.171141426138937E-2   -5.385399153589022E-1    1.681430740220223E-2
 6.457853423750000E9    -5.815507489843527E-1   -9.704290455803102E-2   -4.886757638537539E-3    5.277564611939140E-2   -2.216770770473140E-3    5.203821405988378E-2   -5.386179193963969E-1    1.841970078879214E-2
 6.457864685175000E9    -5.816003074371352E-1   -9.604468939623213E-2   -4.732668726991096E-3    5.311223896704207E-2   -2.055339178235341E-3    5.240591892670448E-2   -5.384705865658936E-1    2.010394307546431E-2
 6.457875946600000E9    -5.817064107288035E-1   -9.500241771003314E-2   -4.629827963162299E-3    5.360943131509322E-2   -2.007886028753935E-3    5.283171279957555E-2   -5.383978753886551E-1    2.167279316219184E-2
 6.457887208025000E9    -5.818033972767100E-1   -9.383002837741741E-2   -4.564397357007933E-3    5.401259782927517E-2   -1.887095122406314E-3    5.333034260120465E-2   -5.383409321425121E-1    2.311657995732011E-2
 6.457898469450000E9    -5.818705540491496E-1   -9.278352127963498E-2   -4.445992964370610E-3    5.449555705323905E-2   -1.810030044919308E-3    5.368260952399369E-2   -5.381668007394786E-1    2.493393010816221E-2
 6.457909730875000E9    -5.820532167031853E-1   -9.165348001473858E-2   -4.403679891995296E-3    5.489765950082330E-2   -1.614305598080107E-3    5.414339027669957E-2   -5.379938213566027E-1    2.657864725898226E-2
 6.457920992300000E9    -5.822132006842100E-1   -9.067496310610117E-2   -4.295696488531997E-3    5.536415201358547E-2   -1.482323710727194E-3    5.452043299404404E-2   -5.379330590231387E-1    2.827719772104915E-2
 6.457932253725000E9    -5.822210024967159E-1   -8.955099071363148E-2   -4.138125515198520E-3    5.583467684208145E-2   -1.257870757322440E-3    5.498429304143994E-2   -5.377542585573749E-1    2.985244546155851E-2
 6.457943515150000E9    -5.823294425666597E-1   -8.841650181446722E-2   -3.876160901217268E-3    5.623261689452570E-2   -1.171025411428749E-3    5.541699254059024E-2   -5.374763257041205E-1    3.154249078564629E-2
 6.457954776575000E9    -5.824970620615222E-1   -8.735383830279549E-2   -3.768832247645959E-3    5.682047840772705E-2   -9.186411077002946E-4    5.582255829380908E-2   -5.373049023682324E-1    3.328375558379105E-2
 6.457966038000000E9    -5.825439439855437E-1   -8.616973658704234E-2   -3.714249896685342E-3    5.725033676525382E-2   -8.262657485308626E-4    5.639226496773738E-2   -5.372970931809722E-1    3.506713076166518E-2
 6.457977299425000E9    -5.825606123877441E-1   -8.512491142414985E-2   -3.449489612264399E-3    5.771152682700451E-2   -6.962363891313481E-4    5.676926589014517E-2   -5.369500006262294E-1    3.672403995871792E-2
 6.457988560850000E9    -5.826466039573198E-1   -8.390564077216368E-2   -3.318453464410972E-3    5.819218131805413E-2   -6.127317974514103E-4    5.725435936172434E-2   -5.367268015033897E-1    3.862562010676958E-2
 6.457999822275000E9    -5.828068600845081E-1   -8.285336308579173E-2   -3.252705953977295E-3    5.870357167559484E-2   -4.488857357279368E-4    5.783950000341445E-2   -5.365083955890553E-1    4.025006836685564E-2
 6.458011083700000E9    -5.829609504356262E-1   -8.171078755095201E-2   -3.099812765750915E-3    5.923924185972708E-2   -9.053633882809229E-5    5.820322290884990E-2   -5.363734148628667E-1    4.197185241162574E-2
 6.458022345125000E9    -5.828825321266654E-1   -8.060471753348344E-2   -2.964701299768262E-3    5.966886414293694E-2   -6.600534398990765E-5    5.873153499611941E-2   -5.361457415845203E-1    4.382671083564323E-2
 6.458033606550000E9    -5.830566152214746E-1   -7.952583197768759E-2   -2.763554876880207E-3    6.021174988030053E-2    1.940408161749324E-4    5.928896061946930E-2   -5.359975029078707E-1    4.560106016132980E-2
 6.458044867975000E9    -5.830380289757175E-1   -7.830834695616008E-2   -2.643699651390328E-3    6.072530932891892E-2    3.529198723979644E-4    5.976626240433620E-2   -5.357113034799651E-1    4.741504402221597E-2
 6.458056129400000E9    -5.831475570048267E-1   -7.727390123453004E-2   -2.506031902140229E-3    6.131240348938512E-2    4.613960649417986E-4    6.028315974448635E-2   -5.353951107133440E-1    4.929153498982824E-2
 6.458067390825000E9    -5.832643787237606E-1   -7.595202894181083E-2   -2.269266206355820E-3    6.200414361846215E-2    6.106981562755167E-4    6.087330994038562E-2   -5.351296356503488E-1    5.110531665156547E-2
 6.458078652250000E9    -5.832654098196572E-1   -7.483901123576514E-2   -2.126011775966527E-3    6.239987472853632E-2    9.260983610367504E-4    6.133043840827968E-2   -5.348377757419343E-1    5.302375516819396E-2
