#  HZ   S   RI   R     50.00 
! Rohde & Schwarz Vector Network Analyzer 
! Rohde-Schwarz,ZNB20-2Port,1311601062101988,3.16
! Created: UTC 3/20/2024, 11:15:04 PM
! freq[Hz]                re:S11                  im:S11                  re:S21                  im:S21                  re:S12                  im:S12                  re:S22                  im:S22
 6.456985846000000E9    -5.668678887828319E-1   -1.715588318030238E-1   -8.952708317833633E-3    3.250573263526907E-2   -7.088588931790499E-3    3.244586512446910E-2   -5.321275196560319E-1   -8.426320069351471E-2
 6.456997353975000E9    -5.671761258683692E-1   -1.705303802883202E-1   -8.837981436662382E-3    3.248269678534365E-2   -7.121949287677267E-3    3.268802975530676E-2   -5.322779629140016E-1   -8.291986650738950E-2
 6.457008861950000E9    -5.674520575798270E-1   -1.697001236353277E-1   -8.848758202052800E-3    3.263173864731585E-2   -7.094997336241624E-3    3.273455886738807E-2   -5.325588479806745E-1   -8.175212952842603E-2
 6.457020369925000E9    -5.676355253170677E-1   -1.686782331205729E-1   -8.818950080590133E-3    3.300593761008188E-2   -7.111241451343548E-3    3.288213749023226E-2   -5.326884579866115E-1   -8.051828644106911E-2
 6.457031877900000E9    -5.679582725904261E-1   -1.677368305616460E-1   -8.726491087066550E-3    3.315919327603460E-2   -6.991893210974623E-3    3.305583332696982E-2   -5.328699707678646E-1   -7.937308211534422E-2
 6.457043385875000E9    -5.681122990518367E-1   -1.667269891370066E-1   -8.855375055846389E-3    3.343916982542310E-2   -6.837219345194654E-3    3.329947306504786E-2   -5.330549376759014E-1   -7.801062040966354E-2
 6.457054893850000E9    -5.684897942171383E-1   -1.659262532257632E-1   -8.782772014077560E-3    3.357940311971911E-2   -6.906683210103045E-3    3.348256809265764E-2   -5.331359747735267E-1   -7.703857308847456E-2
 6.457066401825000E9    -5.686831198901356E-1   -1.647743901162739E-1   -8.657774004187819E-3    3.368849487246033E-2   -6.911336935769177E-3    3.364598515191369E-2   -5.333076545876771E-1   -7.578388391463856E-2
 6.457077909800000E9    -5.689750641118565E-1   -1.638062419914917E-1   -8.653588727650237E-3    3.397121022386292E-2   -6.917470508486174E-3    3.386599810813090E-2   -5.334609568568442E-1   -7.464447341561799E-2
 6.457089417775000E9    -5.691845572503439E-1   -1.630998470853103E-1   -8.651970545672625E-3    3.414830820127694E-2   -6.809976847326360E-3    3.412535283708557E-2   -5.337267369857484E-1   -7.341094539470822E-2
 6.457100925750000E9    -5.694983230076230E-1   -1.619734165234787E-1   -8.581288764746143E-3    3.437368984790395E-2   -6.796139732340413E-3    3.424428347749518E-2   -5.338308562422752E-1   -7.210259630794470E-2
 6.457112433725000E9    -5.696687033550430E-1   -1.610308163494046E-1   -8.555756588029456E-3    3.455393358390923E-2   -6.724980736016796E-3    3.437425320580296E-2   -5.339812177947874E-1   -7.084442622476954E-2
 6.457123941700000E9    -5.698731070826937E-1   -1.599518265566676E-1   -8.584752398227244E-3    3.475703688489883E-2   -6.641939642833740E-3    3.464248038408157E-2   -5.341854817751486E-1   -6.971456291706780E-2
 6.457135449675000E9    -5.701750527998634E-1   -1.590025090504483E-1   -8.451369177261510E-3    3.486353975043270E-2   -6.698995525399066E-3    3.479498128759255E-2   -5.342451286293779E-1   -6.853162029048473E-2
 6.457146957650000E9    -5.704283482820260E-1   -1.581292063793461E-1   -8.575121190016254E-3    3.519512407620217E-2   -6.721864273848441E-3    3.506529058238601E-2   -5.345406624929793E-1   -6.728459339875054E-2
 6.457158465625000E9    -5.707127797135353E-1   -1.571421626420487E-1   -8.576834042642000E-3    3.528836859586799E-2   -6.586771557490234E-3    3.523787869110589E-2   -5.345091554663181E-1   -6.594799016010791E-2
 6.457169973600000E9    -5.709612731575850E-1   -1.561575356194732E-1   -8.463730007090182E-3    3.558043418694073E-2   -6.523970596050854E-3    3.542597686949232E-2   -5.348004969958748E-1   -6.477306101236421E-2
 6.457181481575000E9    -5.711089255794032E-1   -1.552307573166091E-1   -8.586521994322322E-3    3.588395029702428E-2   -6.457439793230598E-3    3.571871533139111E-2   -5.348815264945324E-1   -6.348358787878848E-2
 6.457192989550000E9    -5.713163707327786E-1   -1.541295251468273E-1   -8.408012072809156E-3    3.586635008570863E-2   -6.604731202684385E-3    3.597602524386027E-2   -5.352088492864736E-1   -6.214702317187531E-2
 6.457204497525000E9    -5.715990187232984E-1   -1.532357118501633E-1   -8.509907198148250E-3    3.621694691512715E-2   -6.433520795946402E-3    3.621076440807522E-2   -5.352338629062403E-1   -6.098073304780045E-2
 6.457216005500000E9    -5.719002162908574E-1   -1.522552582204745E-1   -8.365579810655419E-3    3.646450520821982E-2   -6.369321546607675E-3    3.633124877315506E-2   -5.352841659700647E-1   -5.977599217128824E-2
 6.457227513475000E9    -5.721426057329511E-1   -1.513273413934827E-1   -8.317335646669479E-3    3.659122766543155E-2   -6.332396689565350E-3    3.656666101439696E-2   -5.354022187004009E-1   -5.839583174266421E-2
 6.457239021450000E9    -5.723773706053624E-1   -1.502475314921787E-1   -8.208426607979175E-3    3.688205792139999E-2   -6.281472222667599E-3    3.677192387127767E-2   -5.355555506947446E-1   -5.719712147294465E-2
 6.457250529425000E9    -5.726970307360466E-1   -1.492286603423220E-1   -8.112765639100902E-3    3.707531390118267E-2   -6.311180385164420E-3    3.699231268607871E-2   -5.356197767277587E-1   -5.592917221376890E-2
 6.457262037400000E9    -5.727199457312502E-1   -1.483672887685122E-1   -8.134511858829137E-3    3.748338721551017E-2   -6.183362105677392E-3    3.714537981490359E-2   -5.358017034592651E-1   -5.466898549596354E-2
 6.457273545375000E9    -5.730028800211371E-1   -1.473051997254566E-1   -8.177384196456717E-3    3.763591055114184E-2   -6.136148864416931E-3    3.736042415220091E-2   -5.358604738405883E-1   -5.342006728221995E-2
 6.457285053350000E9    -5.732464310689871E-1   -1.462952099977675E-1   -8.128094576068796E-3    3.790061036215556E-2   -6.168495871519250E-3    3.775661056161356E-2   -5.361361490430072E-1   -5.222725715962946E-2
 6.457296561325000E9    -5.735818943764290E-1   -1.453801419464566E-1   -8.118970467412921E-3    3.803891915654566E-2   -6.040694880559304E-3    3.788066286628427E-2   -5.362193234018194E-1   -5.079353508708732E-2
 6.457308069300000E9    -5.737615475027058E-1   -1.442988446150676E-1   -8.037764535251448E-3    3.829493917933305E-2   -6.023187703169878E-3    3.822176903344238E-2   -5.362597406925613E-1   -4.946068773853126E-2
 6.457319577275000E9    -5.739586111013110E-1   -1.433497695696234E-1   -8.058046697447653E-3    3.855286940941791E-2   -5.945686196307761E-3    3.830510645115855E-2   -5.362781933981884E-1   -4.818547139642686E-2
 6.457331085250000E9    -5.742134614148731E-1   -1.423783492390507E-1   -7.920495213895637E-3    3.880544061827210E-2   -5.898715352669616E-3    3.865103599203192E-2   -5.365107785362382E-1   -4.693631868210223E-2
 6.457342593225000E9    -5.743027560409630E-1   -1.414879672812237E-1   -7.981473510268901E-3    3.912191066335428E-2   -5.861491465075242E-3    3.884158794931215E-2   -5.365691782716739E-1   -4.563669903280684E-2
 6.457354101200000E9    -5.746412095594035E-1   -1.403532808067091E-1   -7.917621262417717E-3    3.925591756932054E-2   -5.682458508252696E-3    3.921246534418721E-2   -5.365960173144980E-1   -4.433144514561846E-2
 6.457365609175000E9    -5.749185671430150E-1   -1.393400556822656E-1   -7.805152828825636E-3    3.952211149406188E-2   -5.755870562268045E-3    3.947788996097035E-2   -5.367745441114831E-1   -4.297392962480861E-2
 6.457377117150000E9    -5.750602510291019E-1   -1.383907429375171E-1   -7.812055013505064E-3    3.991450616072339E-2   -5.631562826131055E-3    3.956725515081801E-2   -5.369261971558825E-1   -4.159059444788402E-2
 6.457388625125000E9    -5.751030396811615E-1   -1.373377783661721E-1   -7.804534725257863E-3    4.008035249601843E-2   -5.670628786470756E-3    3.982659823746811E-2   -5.369574008764099E-1   -4.017359714254410E-2
 6.457400133100000E9    -5.754507156879368E-1   -1.363611140770571E-1   -7.648825603651507E-3    4.040739813840136E-2   -5.525286313780566E-3    4.003506644886566E-2   -5.369889554938654E-1   -3.896656808714741E-2
 6.457411641075000E9    -5.756002693471461E-1   -1.353125251660876E-1   -7.597888208024073E-3    4.054276959263774E-2   -5.511698861001529E-3    4.032304827622636E-2   -5.372602579560801E-1   -3.764217497011423E-2
 6.457423149050000E9    -5.757700838026749E-1   -1.342903910738699E-1   -7.586010453517785E-3    4.076400116645173E-2   -5.487449535586143E-3    4.063515017358997E-2   -5.371333068718416E-1   -3.630141977324599E-2
 6.457434657025000E9    -5.760188515621322E-1   -1.333816395628322E-1   -7.616253731867148E-3    4.122127205015812E-2   -5.417135965370166E-3    4.081737764185618E-2   -5.372576603699658E-1   -3.480077027612750E-2
 6.457446165000000E9    -5.762726176748231E-1   -1.322525232513549E-1   -7.337916578062078E-3    4.128833183239502E-2   -5.420392140618779E-3    4.121722636129738E-2   -5.372854929404922E-1   -3.348812502184570E-2
 6.457457672975000E9    -5.764859412823727E-1   -1.312383160252464E-1   -7.311374188258255E-3    4.158803536140101E-2   -5.282591847571354E-3    4.141082772083607E-2   -5.373283165998606E-1   -3.201409696155989E-2
 6.457469180950000E9    -5.765776444948200E-1   -1.302466399843018E-1   -7.328867007519526E-3    4.207814993018057E-2   -5.213162009901382E-3    4.180070443640878E-2   -5.375333748739771E-1   -3.090420569492060E-2
 6.457480688925000E9    -5.768734754333711E-1   -1.293070123149415E-1   -7.366365570144627E-3    4.223220967733592E-2   -5.058273431675304E-3    4.192596815844478E-2   -5.375267840213185E-1   -2.927822365758431E-2
 6.457492196900000E9    -5.770926907609912E-1   -1.282737675024977E-1   -7.158584685941616E-3    4.261500649909547E-2   -5.093108820833902E-3    4.219198505539787E-2   -5.376455166259700E-1   -2.803967553276130E-2
 6.457503704875000E9    -5.772501498386660E-1   -1.272182264104438E-1   -7.187455901680823E-3    4.298820998323490E-2   -4.988386270055463E-3    4.247375157207758E-2   -5.375504425928305E-1   -2.647781662975697E-2
 6.457515212850000E9    -5.774918031991294E-1   -1.262671979265975E-1   -7.315986273255004E-3    4.309132492005481E-2   -4.875126654860805E-3    4.273206527249222E-2   -5.377571647197992E-1   -2.509431109701789E-2
 6.457526720825000E9    -5.775793505322744E-1   -1.251269242514871E-1   -7.087339334349962E-3    4.342248303294981E-2   -4.804587334897863E-3    4.304966356139258E-2   -5.378092159794788E-1   -2.369626045947127E-2
 6.457538228800000E9    -5.777622316876575E-1   -1.241282445084766E-1   -6.913787206194686E-3    4.365740291003778E-2   -4.743477090418296E-3    4.334336846856757E-2   -5.376146896729183E-1   -2.229933600638606E-2
 6.457549736775000E9    -5.779637884308887E-1   -1.229894235190252E-1   -7.104754200975527E-3    4.410780343774112E-2   -4.671540715012298E-3    4.368849514840601E-2   -5.376444892323142E-1   -2.093002837485039E-2
 6.457561244750000E9    -5.780348911155611E-1   -1.220743896977813E-1   -6.817328157553078E-3    4.438130185832444E-2   -4.619244004589676E-3    4.395908897082888E-2   -5.377341946568700E-1   -1.944158717801407E-2
 6.457572752725000E9    -5.783185330817299E-1   -1.210628895502111E-1   -6.930585507118544E-3    4.465306716692682E-2   -4.481891236348613E-3    4.424672741908334E-2   -5.378318531354115E-1   -1.813983615969985E-2
 6.457584260700000E9    -5.785672237237449E-1   -1.200231794190607E-1   -6.820790553139749E-3    4.513025892269831E-2   -4.448808637906227E-3    4.461833462694077E-2   -5.378367303306383E-1   -1.670042390150769E-2
 6.457595768675000E9    -5.786432911147613E-1   -1.189517040479801E-1   -6.678553125874774E-3    4.528027628556614E-2   -4.385275660777168E-3    4.490101140931345E-2   -5.377513556430281E-1   -1.516332603883608E-2
 6.457607276650000E9    -5.787706678888956E-1   -1.178918111220723E-1   -6.493655148746256E-3    4.580776764502061E-2   -4.318977852278575E-3    4.531253278690207E-2   -5.377945524046462E-1   -1.369149427618121E-2
 6.457618784625000E9    -5.789295429709289E-1   -1.167235818565868E-1   -6.696298747050133E-3    4.596870563793538E-2   -4.173176310399911E-3    4.555192791936954E-2   -5.376821457526684E-1   -1.223074174332608E-2
 6.457630292600000E9    -5.791067546859818E-1   -1.156722280373173E-1   -6.559645348968399E-3    4.630278822515444E-2   -4.060773903873246E-3    4.584909124746198E-2   -5.378645752562610E-1   -1.074657013900539E-2
 6.457641800575000E9    -5.792680634467797E-1   -1.147988190060591E-1   -6.343458075411143E-3    4.670484552981952E-2   -3.961325133868303E-3    4.616045979943881E-2   -5.380189976483030E-1   -9.263256077920222E-3
 6.457653308550000E9    -5.794202862463893E-1   -1.136496812258269E-1   -6.437149552328383E-3    4.709557390089944E-2   -3.883005818146520E-3    4.660738504393844E-2   -5.378360476350206E-1   -7.782687355205746E-3
 6.457664816525000E9    -5.796827210887016E-1   -1.126447247518974E-1   -6.280154957558397E-3    4.742045096831594E-2   -3.943575139068098E-3    4.688145825041658E-2   -5.378403829324307E-1   -6.179879032520879E-3
 6.457676324500000E9    -5.797760745908790E-1   -1.115668698575090E-1   -6.164066244340024E-3    4.771389115274158E-2   -3.736028597403460E-3    4.725458128854654E-2   -5.378059942497030E-1   -4.682277919973376E-3
 6.457687832475000E9    -5.799929955457173E-1   -1.104404096919270E-1   -6.145338583630011E-3    4.814568275153758E-2   -3.717414935166209E-3    4.762942118082394E-2   -5.377074510434238E-1   -3.165719448882560E-3
 6.457699340450000E9    -5.800233981573992E-1   -1.095076242551806E-1   -6.093737640507827E-3    4.845676916978599E-2   -3.573480415562250E-3    4.788698197112250E-2   -5.376630989899321E-1   -1.766400053098888E-3
 6.457710848425000E9    -5.801960340091451E-1   -1.083121085839525E-1   -5.969286969172377E-3    4.886160186901012E-2   -3.472908504650111E-3    4.831610016296515E-2   -5.377717712945843E-1   -1.554411212975620E-4
 6.457722356400000E9    -5.804905289965046E-1   -1.073180654728570E-1   -5.869379193634136E-3    4.915120552694946E-2   -3.357742091185895E-3    4.865837602837704E-2   -5.376930283011520E-1    1.461758209927780E-3
 6.457733864375000E9    -5.805835119058010E-1   -1.062638098852468E-1   -5.839948483483848E-3    4.957774325485825E-2   -3.366524253174688E-3    4.901251290993021E-2   -5.375646951914915E-1    2.908500815221244E-3
 6.457745372350000E9    -5.807161808434915E-1   -1.051613766916725E-1   -5.687859444352815E-3    4.988957396653984E-2   -3.118728844644783E-3    4.931336268615657E-2   -5.375903693188522E-1    4.516980206131585E-3
 6.457756880325000E9    -5.808324760256028E-1   -1.040019760047147E-1   -5.494540317935999E-3    5.047808677198354E-2   -2.926952313965937E-3    4.978837308517885E-2   -5.375084364852610E-1    5.979714023352391E-3
 6.457768388300000E9    -5.809255203560070E-1   -1.029765622048395E-1   -5.632584705354240E-3    5.068104110060322E-2   -2.875001559137557E-3    5.014207187409904E-2   -5.375032283000319E-1    7.680640777539547E-3
 6.457779896275000E9    -5.810555566528283E-1   -1.019808081627974E-1   -5.374138823044475E-3    5.120113226020934E-2   -2.755947643201901E-3    5.055553272413229E-2   -5.373614057796282E-1    9.109100296524309E-3
 6.457791404250000E9    -5.812233649640977E-1   -1.008202529959430E-1   -5.376122968112247E-3    5.146070770012011E-2   -2.697236159026930E-3    5.090447539923487E-2   -5.373545845623939E-1    1.083687534376643E-2
 6.457802912225000E9    -5.813757654330410E-1   -9.982564138601147E-2   -5.094096127845157E-3    5.198449871433836E-2   -2.594550323690307E-3    5.133502748735320E-2   -5.371725890183772E-1    1.250564367720764E-2
 6.457814420200000E9    -5.814550931444837E-1   -9.866599455960259E-2   -5.046781106904136E-3    5.246591743537061E-2   -2.444030398830928E-3    5.172245927670650E-2   -5.371354341299709E-1    1.414813196540004E-2
 6.457825928175000E9    -5.815272122785641E-1   -9.757606713459911E-2   -4.996632154898053E-3    5.289642845842259E-2   -2.271997826105902E-3    5.210099599137014E-2   -5.370304764012963E-1    1.570543934051158E-2
 6.457837436150000E9    -5.816329638932696E-1   -9.642041039809261E-2   -4.906462781412617E-3    5.317639398431042E-2   -2.220006948445745E-3    5.254779839108072E-2   -5.369564628303346E-1    1.724613816327109E-2
 6.457848944125000E9    -5.818006548310164E-1   -9.544301447284220E-2   -4.680781433746478E-3    5.366266190109476E-2   -2.027968438460790E-3    5.300856278735319E-2   -5.367982559497609E-1    1.907616193426536E-2
 6.457860452100000E9    -5.819118479493660E-1   -9.416631949419851E-2   -4.524451580282973E-3    5.405772031637435E-2   -1.895961970696878E-3    5.339136392568596E-2   -5.366528495846956E-1    2.072647094725277E-2
 6.457871960075000E9    -5.820742130521728E-1   -9.318636786518163E-2   -4.580210529404929E-3    5.459567986119559E-2   -1.740788391421807E-3    5.381841924165731E-2   -5.365273509762708E-1    2.239240901155926E-2
 6.457883468050000E9    -5.821257187440901E-1   -9.205264874962800E-2   -4.403299692312086E-3    5.496549701407487E-2   -1.518060168485206E-3    5.424542787365014E-2   -5.364332658333810E-1    2.417796291133681E-2
 6.457894976025000E9    -5.823030002075098E-1   -9.089397003772196E-2   -4.344514816517664E-3    5.542312668094503E-2   -1.487493379047800E-3    5.459590718929513E-2   -5.362517220517449E-1    2.585373106824305E-2
 6.457906484000000E9    -5.824034642858764E-1   -8.988172211874672E-2   -4.141006962173506E-3    5.601299800632469E-2   -1.361081182243652E-3    5.511939460262676E-2   -5.362350116297470E-1    2.749594336699462E-2
 6.457917991975000E9    -5.824590452289964E-1   -8.864316797585078E-2   -3.945465479431387E-3    5.657707556796465E-2   -1.208386241029420E-3    5.556979451952834E-2   -5.359553858839209E-1    2.920872154953258E-2
 6.457929499950000E9    -5.825989853083149E-1   -8.739252989524064E-2   -3.819964465689501E-3    5.704535466615648E-2   -1.051211266884453E-3    5.607058324326902E-2   -5.357843509432524E-1    3.102549674261897E-2
 6.457941007925000E9    -5.826233781572900E-1   -8.646405968169485E-2   -3.773220009364117E-3    5.739360068887076E-2   -8.884081446346290E-4    5.656488226864717E-2   -5.356657210532931E-1    3.272122308110136E-2
 6.457952515900000E9    -5.827482021536835E-1   -8.529184371704707E-2   -3.535364620628145E-3    5.798147408385370E-2   -7.414033479384057E-4    5.711894972916984E-2   -5.354152406120631E-1    3.465587436889753E-2
 6.457964023875000E9    -5.827771344520967E-1   -8.410050811169804E-2   -3.469955045836628E-3    5.852709094352002E-2   -4.460203596160024E-4    5.753605292168099E-2   -5.352706068042433E-1    3.631164389874724E-2
 6.457975531850000E9    -5.829113232407094E-1   -8.294991263987961E-2   -3.299331260888074E-3    5.889748860752364E-2   -3.823249492933825E-4    5.801572457749054E-2   -5.350215731181311E-1    3.811803204152219E-2
 6.457987039825000E9    -5.828859190112254E-1   -8.178105843250488E-2   -3.072312889803934E-3    5.942080757771655E-2   -2.049549505749261E-4    5.858658429930265E-2   -5.348702992605364E-1    3.996487839263137E-2
 6.457998547800000E9    -5.830934308914555E-1   -8.070710701859984E-2   -2.997981490081784E-3    5.997010641675530E-2    2.945153851641211E-5    5.904322115733381E-2   -5.346327413778442E-1    4.176790927713121E-2
 6.458010055775000E9    -5.832117966424503E-1   -7.950970704080561E-2   -2.786397783496367E-3    6.044797255657092E-2    1.258162381047069E-4    5.954085126060159E-2   -5.344426658381113E-1    4.360876731544954E-2
 6.458021563750000E9    -5.832651608147127E-1   -7.838470249709616E-2   -2.629372680632657E-3    6.107784517886380E-2    4.293591546600440E-4    6.011016010315588E-2   -5.341572626132204E-1    4.553640219019774E-2
