#  HZ   S   RI   R     50.00 
! Rohde & Schwarz Vector Network Analyzer 
! Rohde-Schwarz,ZNB20-2Port,1311601062101988,3.16
! Created: UTC 3/20/2024, 11:16:11 PM
! freq[Hz]                re:S11                  im:S11                  re:S21                  im:S21                  re:S12                  im:S12                  re:S22                  im:S22
 6.457000433000000E9    -5.672099720708254E-1   -1.704358288882273E-1   -8.786953886972997E-3    3.249133725687571E-2   -7.075196217047107E-3    3.249336663674678E-2   -5.330689634795486E-1   -8.293325323791094E-2
 6.457011903400000E9    -5.674917229517792E-1   -1.695524737342586E-1   -8.798723710088727E-3    3.270631862972946E-2   -7.059500552347912E-3    3.276081146508415E-2   -5.332792771084377E-1   -8.168220423611572E-2
 6.457023373800000E9    -5.677858531522680E-1   -1.685207463298290E-1   -8.860232640827534E-3    3.277772363014399E-2   -6.971747119635823E-3    3.289549980396850E-2   -5.334906720709571E-1   -8.043610382083100E-2
 6.457034844200000E9    -5.680300009693204E-1   -1.676166161549393E-1   -8.803782243847355E-3    3.307891247825183E-2   -6.950962688294786E-3    3.303166943318286E-2   -5.335283145126748E-1   -7.920368274566089E-2
 6.457046314600000E9    -5.681809992441550E-1   -1.665947734709073E-1   -8.966691308140729E-3    3.333875434076334E-2   -6.922449776334314E-3    3.330644805936946E-2   -5.338159600893100E-1   -7.799813696234960E-2
 6.457057785000000E9    -5.685607767947015E-1   -1.657151215196635E-1   -8.734756687150392E-3    3.357919620740157E-2   -6.871762798217673E-3    3.354836549457799E-2   -5.340506160597076E-1   -7.683326051855952E-2
 6.457069255400000E9    -5.687237431657660E-1   -1.647504951494192E-1   -8.681022358530169E-3    3.378925780194934E-2   -6.807746687413005E-3    3.363953754235745E-2   -5.340831558044777E-1   -7.567508839419501E-2
 6.457080725800000E9    -5.690979369722664E-1   -1.639019408084193E-1   -8.640071934334800E-3    3.388753368828246E-2   -6.869331893633471E-3    3.373774015654055E-2   -5.342924414482215E-1   -7.453801230178596E-2
 6.457092196200000E9    -5.692456608920162E-1   -1.628390913832177E-1   -8.549691228379910E-3    3.411666387886521E-2   -6.844753660970078E-3    3.401819528065371E-2   -5.344602770320124E-1   -7.324848856674500E-2
 6.457103666600000E9    -5.694355589333745E-1   -1.619009545476642E-1   -8.600151542872770E-3    3.434449235160167E-2   -6.783449167909640E-3    3.415417694261471E-2   -5.347116779120220E-1   -7.206544877431428E-2
 6.457115137000000E9    -5.698059681982788E-1   -1.609802608113527E-1   -8.536792319712190E-3    3.442465552723407E-2   -6.718938990178423E-3    3.437319565588983E-2   -5.347220615763341E-1   -7.079416919237697E-2
 6.457126607400000E9    -5.699832288968413E-1   -1.599489341530452E-1   -8.590749984391639E-3    3.470275119438042E-2   -6.650361434820780E-3    3.459216450103333E-2   -5.349336089663688E-1   -6.949860603484831E-2
 6.457138077800000E9    -5.702968566462585E-1   -1.590073868388292E-1   -8.528306474007931E-3    3.496824909709363E-2   -6.666058499539070E-3    3.471440500805446E-2   -5.351449787925340E-1   -6.834039739206758E-2
 6.457149548200000E9    -5.704654051655934E-1   -1.579620723009977E-1   -8.502515178103128E-3    3.512530745910397E-2   -6.638083207169378E-3    3.493471042188714E-2   -5.351561495756428E-1   -6.702924611881059E-2
 6.457161018600000E9    -5.707046999333371E-1   -1.571373036572622E-1   -8.340333218132101E-3    3.534827888566221E-2   -6.511717682658868E-3    3.514443940314732E-2   -5.353613254858810E-1   -6.585790814550338E-2
 6.457172489000000E9    -5.709862960650675E-1   -1.560849646613330E-1   -8.352990430738319E-3    3.541127515024684E-2   -6.522032748475092E-3    3.535846157211846E-2   -5.354080522857390E-1   -6.477617323633669E-2
 6.457183959400000E9    -5.711165323186300E-1   -1.550277739054544E-1   -8.387786522758135E-3    3.571796142713888E-2   -6.477359897343115E-3    3.566251029009489E-2   -5.355845043902735E-1   -6.342537193891677E-2
 6.457195429800000E9    -5.713332718114443E-1   -1.542204645708659E-1   -8.416502261419720E-3    3.611160589618797E-2   -6.466220243547940E-3    3.585295129070788E-2   -5.357839832061603E-1   -6.198926360790331E-2
 6.457206900200000E9    -5.717324195625221E-1   -1.532217442121898E-1   -8.439430583363309E-3    3.615460511963766E-2   -6.477641555339315E-3    3.601726141166506E-2   -5.358236801703568E-1   -6.093236814097525E-2
 6.457218370600000E9    -5.719231572665199E-1   -1.522286941322588E-1   -8.191138883154253E-3    3.648163647364901E-2   -6.366134952840556E-3    3.622930869446411E-2   -5.360474954736477E-1   -5.967462892463243E-2
 6.457229841000000E9    -5.722546853819734E-1   -1.512273672675507E-1   -8.231753101316056E-3    3.655937615803260E-2   -6.324062921688803E-3    3.640631478432713E-2   -5.361525024192380E-1   -5.843116326446972E-2
 6.457241311400000E9    -5.724216208615522E-1   -1.502902418717614E-1   -8.220938986685137E-3    3.680669960267880E-2   -6.221135716247764E-3    3.660251327311269E-2   -5.363090431470606E-1   -5.713318022872978E-2
 6.457252781800000E9    -5.726575239401730E-1   -1.493522489324717E-1   -8.229320500661289E-3    3.717025284374920E-2   -6.285021652059334E-3    3.692475807159822E-2   -5.364033161316760E-1   -5.568479083636115E-2
 6.457264252200000E9    -5.729460918134111E-1   -1.482850065491125E-1   -8.117539154565586E-3    3.724651354673537E-2   -6.245505456162505E-3    3.711924929044907E-2   -5.364750508957119E-1   -5.458399862751032E-2
 6.457275722600000E9    -5.730996233641488E-1   -1.472868218284565E-1   -8.191102959887727E-3    3.750256821497323E-2   -6.127301626896821E-3    3.734512281005208E-2   -5.367850279108277E-1   -5.330312621440306E-2
 6.457287193000000E9    -5.733080642295091E-1   -1.463123545111240E-1   -8.136350718934126E-3    3.770906770744929E-2   -6.089047419327881E-3    3.758495795646261E-2   -5.367750163026610E-1   -5.200146516625236E-2
 6.457298663400000E9    -5.734921321269891E-1   -1.454035812184254E-1   -7.928814421772627E-3    3.799540715049794E-2   -5.956574748719193E-3    3.779799586539848E-2   -5.368854405254274E-1   -5.072809911618509E-2
 6.457310133800000E9    -5.738213178342462E-1   -1.443928000689662E-1   -8.101608093763249E-3    3.815974531080254E-2   -6.046076087576524E-3    3.803928523396589E-2   -5.369683165554004E-1   -4.936017259558940E-2
 6.457321604200000E9    -5.740285134658748E-1   -1.432712856816697E-1   -8.016200821506241E-3    3.846455623093125E-2   -5.918816290755231E-3    3.826081697811103E-2   -5.369025514543829E-1   -4.798023373177190E-2
 6.457333074600000E9    -5.741669146760421E-1   -1.423438072041852E-1   -7.979253627558636E-3    3.871553922739995E-2   -5.924946977964656E-3    3.848679430875695E-2   -5.372364411477458E-1   -4.673438469314463E-2
 6.457344545000000E9    -5.744371583114762E-1   -1.413674787548985E-1   -7.745209507530846E-3    3.885484398175942E-2   -5.782036973920699E-3    3.873491436520746E-2   -5.374211495567309E-1   -4.556847627781077E-2
 6.457356015400000E9    -5.745747464069593E-1   -1.403560798508967E-1   -7.955217973331220E-3    3.911763515936512E-2   -5.723845926529694E-3    3.906815722932303E-2   -5.375359142798055E-1   -4.423625881295934E-2
 6.457367485800000E9    -5.747841939651166E-1   -1.392964533209589E-1   -7.799283029570244E-3    3.950759817576559E-2   -5.710065496921380E-3    3.917798745204006E-2   -5.374683885819777E-1   -4.301532937700443E-2
 6.457378956200000E9    -5.750029863278373E-1   -1.383395311546104E-1   -7.863783467747706E-3    3.987978879510779E-2   -5.711676482888657E-3    3.947173871322363E-2   -5.376069363337695E-1   -4.151926666504289E-2
 6.457390426600000E9    -5.752534149171121E-1   -1.374037062310070E-1   -7.740999590086731E-3    3.995811100167448E-2   -5.633851094806596E-3    3.972515952913105E-2   -5.375286798262674E-1   -4.038459372651253E-2
 6.457401897000000E9    -5.753840979599542E-1   -1.364333227604242E-1   -7.772502581666216E-3    4.034132068413503E-2   -5.501671965642882E-3    4.006688303697172E-2   -5.377993846339983E-1   -3.893197854267295E-2
 6.457413367400000E9    -5.756177677577936E-1   -1.353864484364094E-1   -7.501955523392779E-3    4.056524199002858E-2   -5.453782512580097E-3    4.029644670614822E-2   -5.377529808063404E-1   -3.759714614941957E-2
 6.457424837800000E9    -5.758199751684747E-1   -1.344669815922226E-1   -7.521550331790320E-3    4.073610311486826E-2   -5.408465874035233E-3    4.046406879476027E-2   -5.379219552793770E-1   -3.622818177048116E-2
 6.457436308200000E9    -5.759843034309212E-1   -1.333729157827934E-1   -7.485402694771995E-3    4.109355513775675E-2   -5.330090036513279E-3    4.084855372626239E-2   -5.379518347245842E-1   -3.487734774340319E-2
 6.457447778600000E9    -5.762022555033834E-1   -1.323558699603087E-1   -7.425265255094740E-3    4.136414770207439E-2   -5.286098298907763E-3    4.097681938212788E-2   -5.380421225184661E-1   -3.354221922394313E-2
 6.457459249000000E9    -5.765114795030638E-1   -1.313337405455711E-1   -7.531240791823844E-3    4.171118961204586E-2   -5.250823405856309E-3    4.127916019977715E-2   -5.381540291746642E-1   -3.202056962232779E-2
 6.457470719400000E9    -5.766380479791012E-1   -1.304298896016897E-1   -7.388243742560331E-3    4.181899394458458E-2   -5.188324306643135E-3    4.159312328134465E-2   -5.382399616943957E-1   -3.080683231219488E-2
 6.457482189800000E9    -5.768864781206134E-1   -1.293192021723293E-1   -7.390727544845693E-3    4.213284289808883E-2   -5.085521255658142E-3    4.191287176228894E-2   -5.382857040756454E-1   -2.939960313889917E-2
 6.457493660200000E9    -5.770987732801492E-1   -1.282027264068482E-1   -7.353060433972596E-3    4.254588667532844E-2   -5.107773685113064E-3    4.221286522334169E-2   -5.381168878136339E-1   -2.788550435072614E-2
 6.457505130600000E9    -5.773237573015029E-1   -1.272362232605067E-1   -7.355118296422881E-3    4.269343738568258E-2   -4.957358814626594E-3    4.244165100519377E-2   -5.383224599509762E-1   -2.675515303697485E-2
 6.457516601000000E9    -5.774684886825592E-1   -1.261914519014315E-1   -7.095136250006235E-3    4.314974274324747E-2   -4.881810053208842E-3    4.268531483754168E-2   -5.382857320812472E-1   -2.526224250852060E-2
 6.457528071400000E9    -5.776660204773622E-1   -1.251615044378872E-1   -7.148972070985145E-3    4.345308685230441E-2   -4.790399969175010E-3    4.300142860595207E-2   -5.384234041541910E-1   -2.373243913384550E-2
 6.457539541800000E9    -5.777695088589558E-1   -1.242579547836456E-1   -6.995844620696560E-3    4.360713646198761E-2   -4.811844816162258E-3    4.328108927864942E-2   -5.384366267653078E-1   -2.231461056898178E-2
 6.457551012200000E9    -5.779830840135846E-1   -1.231942845268212E-1   -7.016708982877659E-3    4.388639466702941E-2   -4.740852763176144E-3    4.361666543151069E-2   -5.385642507128610E-1   -2.099566473673119E-2
 6.457562482600000E9    -5.782080225794441E-1   -1.221474123698332E-1   -6.909961570247993E-3    4.427763898944212E-2   -4.726292126204170E-3    4.390341708179177E-2   -5.385178774742264E-1   -1.960628662933319E-2
 6.457573953000000E9    -5.782794225855168E-1   -1.211336364229594E-1   -6.818187207283148E-3    4.460584521341900E-2   -4.463279181739209E-3    4.413695526037157E-2   -5.384776213916102E-1   -1.811841898156166E-2
 6.457585423400000E9    -5.784877390592820E-1   -1.201559567761685E-1   -6.762154342448848E-3    4.490843422986232E-2   -4.452966665340437E-3    4.449750131397490E-2   -5.386126172760856E-1   -1.669730793878577E-2
 6.457596893800000E9    -5.786309361243551E-1   -1.190215340870960E-1   -6.652181968383309E-3    4.531837057280756E-2   -4.334232011210656E-3    4.493093357144178E-2   -5.385897824922491E-1   -1.532717191559110E-2
 6.457608364200000E9    -5.787820857917817E-1   -1.179859372057589E-1   -6.711785382069713E-3    4.569834195895913E-2   -4.294940101200909E-3    4.506501163729124E-2   -5.384698967341636E-1   -1.373548730931228E-2
 6.457619834600000E9    -5.790254942676529E-1   -1.169807809746271E-1   -6.535822259123926E-3    4.591566142889352E-2   -4.165298003815976E-3    4.539724713546397E-2   -5.384637740632160E-1   -1.223364164702749E-2
 6.457631305000000E9    -5.792066068803438E-1   -1.158436771226632E-1   -6.505392703203693E-3    4.622746757052651E-2   -4.071098445731550E-3    4.568885509537758E-2   -5.385036199164135E-1   -1.085062050144979E-2
 6.457642775400000E9    -5.793489459133369E-1   -1.149008808189015E-1   -6.430289264744325E-3    4.651160472495457E-2   -4.001819935534062E-3    4.608396310950678E-2   -5.386410836126849E-1   -9.365687472658946E-3
 6.457654245800000E9    -5.795494717721725E-1   -1.137764524812782E-1   -6.484928268231806E-3    4.690284724805303E-2   -3.893091491036354E-3    4.651528343117602E-2   -5.386056670639143E-1   -7.799365024510593E-3
 6.457665716200000E9    -5.796527937030047E-1   -1.127693014210134E-1   -6.281644051369601E-3    4.736207296740787E-2   -3.887333934936678E-3    4.672748252697465E-2   -5.384950700775581E-1   -6.473905604203863E-3
 6.457677186600000E9    -5.797805524914890E-1   -1.117518336249867E-1   -6.188664271563327E-3    4.760706861110229E-2   -3.781736082709575E-3    4.706855202893224E-2   -5.385711893547307E-1   -4.845210948413995E-3
 6.457688657000000E9    -5.799790584726526E-1   -1.106064454979831E-1   -6.077203900030423E-3    4.792437900086523E-2   -3.726530903750540E-3    4.750500309514418E-2   -5.384180467215864E-1   -3.593623555653228E-3
 6.457700127400000E9    -5.802292518883032E-1   -1.096458285869496E-1   -5.981107871491010E-3    4.833608050417841E-2   -3.544897637404528E-3    4.775923468903394E-2   -5.384670830321485E-1   -1.968788128998713E-3
 6.457711597800000E9    -5.801778363645262E-1   -1.083957263158201E-1   -5.807821138329675E-3    4.873510985613306E-2   -3.443454904958984E-3    4.810762449240767E-2   -5.383327407214472E-1   -3.557673044814906E-4
 6.457723068200000E9    -5.804702927224397E-1   -1.075061363696891E-1   -5.828865169066294E-3    4.909906420765662E-2   -3.395483723398297E-3    4.851943047990415E-2   -5.384008012994087E-1    1.206296185657290E-3
 6.457734538600000E9    -5.804983963397087E-1   -1.064207066820241E-1   -5.619413566684235E-3    4.944026113468011E-2   -3.194686979653550E-3    4.881349033221447E-2   -5.383255893325526E-1    2.721413705703027E-3
 6.457746009000000E9    -5.807278546307350E-1   -1.053495118642923E-1   -5.549871958506775E-3    4.979589607948458E-2   -3.174307957832214E-3    4.917872653460266E-2   -5.383209884611341E-1    4.249121669521154E-3
 6.457757479400000E9    -5.809071459718372E-1   -1.041680668362040E-1   -5.613746800946057E-3    5.027613941788719E-2   -3.059327749771941E-3    4.957196149895294E-2   -5.381821124673998E-1    5.924426660617867E-3
 6.457768949800000E9    -5.809906806066911E-1   -1.031528987369469E-1   -5.510528090838120E-3    5.049036553341753E-2   -2.977810229592754E-3    4.995571611999504E-2   -5.381898797760980E-1    7.342586186830306E-3
 6.457780420200000E9    -5.811004166249559E-1   -1.020626437162127E-1   -5.382059699478166E-3    5.088225657946893E-2   -2.840590586723687E-3    5.026220061953020E-2   -5.380131637913096E-1    9.033688269935987E-3
 6.457791890600000E9    -5.812332087161778E-1   -1.009289128337123E-1   -5.319077282994851E-3    5.140819513154207E-2   -2.692890641528287E-3    5.082952123942142E-2   -5.380569469077182E-1    1.065442748365556E-2
 6.457803361000000E9    -5.813332348770209E-1   -9.994973410826266E-2   -5.236617892808793E-3    5.174109472350737E-2   -2.568158796577530E-3    5.123531344684300E-2   -5.378800993418292E-1    1.222026420861150E-2
 6.457814831400000E9    -5.815205316374783E-1   -9.890749888085694E-2   -5.103791901500151E-3    5.217227665067731E-2   -2.447159728540920E-3    5.145969307054024E-2   -5.379858451638565E-1    1.386743133076863E-2
 6.457826301800000E9    -5.815813427490218E-1   -9.769957844189732E-2   -4.891191978887726E-3    5.255396055748238E-2   -2.373054809802865E-3    5.189915003106343E-2   -5.377573254086464E-1    1.543393429879583E-2
 6.457837772200000E9    -5.817075634585726E-1   -9.659828402511030E-2   -4.827421417937394E-3    5.307314501575605E-2   -2.144653601785369E-3    5.240592610802225E-2   -5.376193541397143E-1    1.718151619400593E-2
 6.457849242600000E9    -5.818115590051159E-1   -9.562765504161717E-2   -4.731260555435306E-3    5.339757786056573E-2   -2.076239318564436E-3    5.274821557972006E-2   -5.374892172970119E-1    1.874774788123133E-2
 6.457860713000000E9    -5.819682246414885E-1   -9.439969450261083E-2   -4.629954286503171E-3    5.395198744553616E-2   -1.962140165780394E-3    5.318028862016911E-2   -5.373575492322983E-1    2.046119647582351E-2
 6.457872183400000E9    -5.820501979895480E-1   -9.330958642386561E-2   -4.545864337057673E-3    5.434097922481130E-2   -1.789727157367701E-3    5.364855876586287E-2   -5.372771178850709E-1    2.212514159993649E-2
 6.457883653800000E9    -5.822572321891675E-1   -9.226062053963145E-2   -4.357605886422531E-3    5.490927994201359E-2   -1.674313863288097E-3    5.407674997466327E-2   -5.371480033387859E-1    2.362587244425402E-2
 6.457895124200000E9    -5.823103669333087E-1   -9.107826384052659E-2   -4.341412047308026E-3    5.524736977115927E-2   -1.463793849993452E-3    5.447225722721209E-2   -5.369375820915302E-1    2.548518298944583E-2
 6.457906594600000E9    -5.824780270966704E-1   -8.992939861159492E-2   -4.173331268263982E-3    5.572292561431329E-2   -1.414110329766358E-3    5.489945751430626E-2   -5.368957399798356E-1    2.716483213779039E-2
 6.457918065000000E9    -5.825454186280732E-1   -8.887847316574338E-2   -4.008321137905018E-3    5.627532478745548E-2   -1.315925164814111E-3    5.536908824415605E-2   -5.367003102596498E-1    2.897514867944506E-2
 6.457929535400000E9    -5.826729149878768E-1   -8.777830622075444E-2   -3.865997335733786E-3    5.675249503899905E-2   -1.104721725172699E-3    5.581749181251557E-2   -5.364818470789441E-1    3.055453892983813E-2
 6.457941005800000E9    -5.826213999177178E-1   -8.664484925360003E-2   -3.797621788947120E-3    5.717190025171832E-2   -8.393873311854129E-4    5.626713006737642E-2   -5.363766547767178E-1    3.234771927946761E-2
 6.457952476200000E9    -5.828712008733687E-1   -8.552733345317966E-2   -3.622559495161105E-3    5.766480862080635E-2   -7.955742471860631E-4    5.670713743175126E-2   -5.361478037520779E-1    3.411412681954836E-2
 6.457963946600000E9    -5.829699553063263E-1   -8.423799871228245E-2   -3.353248888620476E-3    5.809207879838355E-2   -6.720408412667427E-4    5.730277446303069E-2   -5.359432362648250E-1    3.599668452962113E-2
 6.457975417000000E9    -5.828770310160191E-1   -8.320921158360964E-2   -3.288932283510329E-3    5.871511092590006E-2   -4.598732510109040E-4    5.767075165209379E-2   -5.357547160705541E-1    3.760112314697580E-2
 6.457986887400000E9    -5.829486026345229E-1   -8.210469926563591E-2   -3.168360785157387E-3    5.901374747428378E-2   -2.224476952454330E-4    5.826998114374474E-2   -5.356509327951718E-1    3.954010596264256E-2
 6.457998357800000E9    -5.831889956277443E-1   -8.085863636467933E-2   -2.996336823446513E-3    5.976599027689482E-2   -1.546481426044909E-4    5.858091332259822E-2   -5.352943667701403E-1    4.138539551686444E-2
 6.458009828200000E9    -5.832021038034342E-1   -7.974420704502552E-2   -2.889361402211384E-3    6.029260159252926E-2    1.324084588733547E-4    5.924020210350783E-2   -5.351867001701964E-1    4.320438717856578E-2
 6.458021298600000E9    -5.832129391434313E-1   -7.863773430894043E-2   -2.586263437775584E-3    6.070463135595212E-2    3.548165106925657E-4    5.975396084713830E-2   -5.348541733857596E-1    4.506605569009850E-2
 6.458032769000000E9    -5.833253177177642E-1   -7.751235421630001E-2   -2.535522261054949E-3    6.132844193916692E-2    5.363671794557173E-4    6.020604297421703E-2   -5.346432039518630E-1    4.693705537008595E-2
