#  HZ   S   RI   R     50.00 
! Rohde & Schwarz Vector Network Analyzer 
! Rohde-Schwarz,ZNB20-2Port,1311601062101988,3.16
! Created: UTC 3/20/2024, 11:16:28 PM
! freq[Hz]                re:S11                  im:S11                  re:S21                  im:S21                  re:S12                  im:S12                  re:S22                  im:S22
 6.457003207000000E9    -5.672436691600108E-1   -1.702986733042202E-1   -8.822810560291074E-3    3.250069240860102E-2   -6.950042523006234E-3    3.264728662401412E-2   -5.333845429004226E-1   -8.246087293599215E-2
 6.457014672225000E9    -5.675215657314936E-1   -1.692733981423640E-1   -8.760728855455313E-3    3.269358295349836E-2   -7.062050234542621E-3    3.267531173739310E-2   -5.332902783356225E-1   -8.131635314687674E-2
 6.457026137450000E9    -5.677878306755801E-1   -1.683154574623023E-1   -8.740509673872540E-3    3.292156924630316E-2   -6.954482842952536E-3    3.292476342989752E-2   -5.335587233676581E-1   -8.012360802789466E-2
 6.457037602675000E9    -5.679805774550185E-1   -1.673247940631004E-1   -8.893204695390892E-3    3.316839701240552E-2   -7.015027864791984E-3    3.304858608780762E-2   -5.336802517653418E-1   -7.897819038609769E-2
 6.457049067900000E9    -5.682297991119394E-1   -1.665206944436894E-1   -8.785321904210509E-3    3.334950849538614E-2   -6.866473482250761E-3    3.325823103690455E-2   -5.339332961622877E-1   -7.777054749794185E-2
 6.457060533125000E9    -5.684778172226467E-1   -1.655067145454170E-1   -8.716864387231673E-3    3.347986457282182E-2   -6.968635137440697E-3    3.348577461971174E-2   -5.341109911855054E-1   -7.653631036474240E-2
 6.457071998350000E9    -5.687413823786460E-1   -1.644525804747592E-1   -8.727745346879472E-3    3.355373715227859E-2   -6.869803897444488E-3    3.360982934410536E-2   -5.341620521466104E-1   -7.535444717219085E-2
 6.457083463575000E9    -5.689675521403392E-1   -1.635734658428516E-1   -8.674968405696495E-3    3.400967855666368E-2   -6.829001945441533E-3    3.378791922136985E-2   -5.344075147783426E-1   -7.422091447051905E-2
 6.457094928800000E9    -5.692851249226900E-1   -1.626054171763303E-1   -8.645514928534756E-3    3.405339625304303E-2   -6.810662817028725E-3    3.405864557924843E-2   -5.347021061218697E-1   -7.287341528876974E-2
 6.457106394025000E9    -5.694500054088554E-1   -1.616416077959795E-1   -8.520483705344065E-3    3.426523102080144E-2   -6.781081851886745E-3    3.430411171232432E-2   -5.345471811593865E-1   -7.168721651716832E-2
 6.457117859250000E9    -5.698787084910327E-1   -1.606258459490235E-1   -8.564207373908879E-3    3.451632172873089E-2   -6.724426848043549E-3    3.441122072811338E-2   -5.349394717782914E-1   -7.050906870702138E-2
 6.457129324475000E9    -5.699801549556734E-1   -1.597080391017381E-1   -8.606508862240809E-3    3.463274009792264E-2   -6.775604530215674E-3    3.468005696818889E-2   -5.351033425334432E-1   -6.933742963299751E-2
 6.457140789700000E9    -5.702417996075687E-1   -1.588009525872807E-1   -8.539949381338089E-3    3.502367018732185E-2   -6.644505549749960E-3    3.487283116604656E-2   -5.351871487713282E-1   -6.817202531947127E-2
 6.457152254925000E9    -5.704862592060495E-1   -1.576675374434568E-1   -8.514220482019655E-3    3.506179085883363E-2   -6.609853026413667E-3    3.499829425630637E-2   -5.354155856174233E-1   -6.673048361217225E-2
 6.457163720150000E9    -5.708601961301629E-1   -1.567924381010908E-1   -8.496204465689510E-3    3.528068729855830E-2   -6.471822285505428E-3    3.524561359456219E-2   -5.354815574634563E-1   -6.550134242561452E-2
 6.457175185375000E9    -5.709886975505060E-1   -1.558750163947439E-1   -8.576798720157215E-3    3.555348812411521E-2   -6.484130460779862E-3    3.546637940591929E-2   -5.355833083782522E-1   -6.434885592631373E-2
 6.457186650600000E9    -5.713262626990738E-1   -1.549070605430224E-1   -8.267308275709232E-3    3.568146135616450E-2   -6.457989241387444E-3    3.555605533186165E-2   -5.358156666616938E-1   -6.328632976817543E-2
 6.457198115825000E9    -5.715358223238247E-1   -1.540210587021087E-1   -8.420777967097112E-3    3.597214060773162E-2   -6.425692601741586E-3    3.585898495783576E-2   -5.357806687819267E-1   -6.180245524715544E-2
 6.457209581050000E9    -5.717177859409189E-1   -1.529094334360621E-1   -8.447835479065776E-3    3.619940554210435E-2   -6.430667594816033E-3    3.601272941885886E-2   -5.360101420632047E-1   -6.069969368620316E-2
 6.457221046275000E9    -5.720228649883645E-1   -1.518630049997478E-1   -8.296839753047279E-3    3.642162669569948E-2   -6.341496533072498E-3    3.622133125723726E-2   -5.362826077420059E-1   -5.936570832963537E-2
 6.457232511500000E9    -5.721659443916663E-1   -1.510087548660442E-1   -8.248031195845320E-3    3.671187042431596E-2   -6.368046864609317E-3    3.655181161627385E-2   -5.362362714357096E-1   -5.806322507145253E-2
 6.457243976725000E9    -5.724252830540444E-1   -1.500129752681554E-1   -8.293954274116189E-3    3.683733515521802E-2   -6.316188460399609E-3    3.664570760161436E-2   -5.364774185650637E-1   -5.676886739121421E-2
 6.457255441950000E9    -5.727154315784813E-1   -1.490537693222038E-1   -8.295362814284023E-3    3.707529136804776E-2   -6.259405314318669E-3    3.696327627189906E-2   -5.365721657584483E-1   -5.537755751296524E-2
 6.457266907175000E9    -5.729863880252362E-1   -1.480338378408767E-1   -8.171602745839718E-3    3.725451139899310E-2   -6.191946435458535E-3    3.719379536812754E-2   -5.367716901327356E-1   -5.432624266876698E-2
 6.457278372400000E9    -5.731465780898276E-1   -1.470715319162229E-1   -8.108905219397756E-3    3.745655597009365E-2   -6.036573344244271E-3    3.743918493976704E-2   -5.367036463039236E-1   -5.308109716709240E-2
 6.457289837625000E9    -5.733178668401188E-1   -1.461130615181311E-1   -8.136067969588988E-3    3.795562271679135E-2   -6.063900820181213E-3    3.755017940307481E-2   -5.368832522703983E-1   -5.177017390172621E-2
 6.457301302850000E9    -5.735141785925543E-1   -1.450164398536445E-1   -8.010735183097457E-3    3.794909050472182E-2   -6.035635034751156E-3    3.779574693959531E-2   -5.368435852801885E-1   -5.049468872204435E-2
 6.457312768075000E9    -5.738242988315275E-1   -1.441041062562055E-1   -7.997076234213642E-3    3.839381934725953E-2   -6.035847581513329E-3    3.805524468008088E-2   -5.370753723486322E-1   -4.920890328778604E-2
 6.457324233300000E9    -5.739858843345004E-1   -1.431203346876175E-1   -7.906750894312928E-3    3.853741944772315E-2   -5.880510782003442E-3    3.830951350297133E-2   -5.371374960812065E-1   -4.795207076395491E-2
 6.457335698525000E9    -5.742453913245867E-1   -1.421758845200796E-1   -7.991424987352932E-3    3.877326007084917E-2   -5.851234221481267E-3    3.849257471788277E-2   -5.373205103791393E-1   -4.656944604359010E-2
 6.457347163750000E9    -5.744727713298423E-1   -1.411345544294348E-1   -7.862410974440211E-3    3.903650127110345E-2   -5.848253427046776E-3    3.878602616968958E-2   -5.375204457671462E-1   -4.524103785916695E-2
 6.457358628975000E9    -5.746020441117755E-1   -1.400437549315074E-1   -7.929160790376486E-3    3.925496993862132E-2   -5.810972047171990E-3    3.902233188753314E-2   -5.374821355020953E-1   -4.396856090569349E-2
 6.457370094200000E9    -5.748302379395515E-1   -1.390358424723677E-1   -7.852270017770549E-3    3.951283368441442E-2   -5.682986517621003E-3    3.922410068250431E-2   -5.375518743339572E-1   -4.263898945927815E-2
 6.457381559425000E9    -5.751108804999239E-1   -1.381458127435344E-1   -7.703162373737215E-3    3.970436227239136E-2   -5.634793274767633E-3    3.951053817639832E-2   -5.376089514304991E-1   -4.133986520490308E-2
 6.457393024650000E9    -5.753455966551317E-1   -1.371727921289404E-1   -7.727104811082188E-3    3.998890654926395E-2   -5.585441579856367E-3    3.981051272209395E-2   -5.378001344829197E-1   -4.013988882824274E-2
 6.457404489875000E9    -5.754782818808247E-1   -1.361793520444260E-1   -7.626628220227796E-3    4.017403811793251E-2   -5.577654279670516E-3    4.003030005796141E-2   -5.378946051462051E-1   -3.853375525201071E-2
 6.457415955100000E9    -5.757117287092323E-1   -1.352065033489134E-1   -7.592144263454124E-3    4.050209380765211E-2   -5.494832238318168E-3    4.035390971338913E-2   -5.380115373009541E-1   -3.733705601860867E-2
 6.457427420325000E9    -5.759157946989848E-1   -1.341492040234624E-1   -7.636542481559826E-3    4.084520532311963E-2   -5.451303601898118E-3    4.051953623043335E-2   -5.380459562038606E-1   -3.608322920998691E-2
 6.457438885550000E9    -5.761153253506149E-1   -1.331160286732867E-1   -7.545109715811162E-3    4.098755574218598E-2   -5.383190046627924E-3    4.083865289517621E-2   -5.381736954393000E-1   -3.454186134420133E-2
 6.457450350775000E9    -5.764446698234730E-1   -1.321762588327706E-1   -7.421862328702377E-3    4.143937594144847E-2   -5.251576707924093E-3    4.106004385597491E-2   -5.382212070965156E-1   -3.322651356692764E-2
 6.457461816000000E9    -5.765161041476178E-1   -1.310864215584163E-1   -7.350116547235157E-3    4.156849723673359E-2   -5.221125638063054E-3    4.131460551238648E-2   -5.382243795925307E-1   -3.195264081330831E-2
 6.457473281225000E9    -5.766335464981475E-1   -1.300827679805044E-1   -7.336871529630993E-3    4.197624632187787E-2   -5.210114588944221E-3    4.162191313026172E-2   -5.381214164066003E-1   -3.057999902509036E-2
 6.457484746450000E9    -5.769466452693819E-1   -1.290234302316711E-1   -7.298175462769360E-3    4.217355234159671E-2   -5.095484670394360E-3    4.187164859124024E-2   -5.382832793040236E-1   -2.915907321169634E-2
 6.457496211675000E9    -5.770277822596462E-1   -1.281088959618002E-1   -7.230611697912161E-3    4.252627120791608E-2   -5.072091830514747E-3    4.226216886681097E-2   -5.382112987228798E-1   -2.782481197130697E-2
 6.457507676900000E9    -5.772610914494067E-1   -1.270831366781077E-1   -7.117286097878538E-3    4.276185167150810E-2   -5.021822354049313E-3    4.238686213968867E-2   -5.383877576006555E-1   -2.630373408957091E-2
 6.457519142125000E9    -5.773628209173876E-1   -1.260283336895410E-1   -7.193959548835509E-3    4.316335992621743E-2   -4.928294284889822E-3    4.275798703489408E-2   -5.384725014990726E-1   -2.484236587293160E-2
 6.457530607350000E9    -5.776268217903680E-1   -1.249521407202495E-1   -7.059419235479947E-3    4.342999298524805E-2   -4.827852391729157E-3    4.305263516617467E-2   -5.383732788312358E-1   -2.345904055146764E-2
 6.457542072575000E9    -5.777269777568235E-1   -1.239923360307304E-1   -6.929473339038756E-3    4.365675189471591E-2   -4.712734512568106E-3    4.325714366405113E-2   -5.385020238114340E-1   -2.208997369251132E-2
 6.457553537800000E9    -5.780289279455755E-1   -1.230415671395695E-1   -6.741235888562346E-3    4.405132107548600E-2   -4.677654695260007E-3    4.361009096992549E-2   -5.384902023440291E-1   -2.074113921084284E-2
 6.457565003025000E9    -5.781524494152248E-1   -1.220147400574763E-1   -6.871956600338681E-3    4.424474635003253E-2   -4.606202889908922E-3    4.396504617028588E-2   -5.386020455829558E-1   -1.937576091770708E-2
 6.457576468250000E9    -5.783206405885669E-1   -1.209321925982304E-1   -6.808220540768615E-3    4.474032678097524E-2   -4.515369284619767E-3    4.426760716374718E-2   -5.386043295521414E-1   -1.780567057627261E-2
 6.457587933475000E9    -5.785381589965590E-1   -1.199387090249487E-1   -6.852404223514303E-3    4.501723770246943E-2   -4.494223207298868E-3    4.455055461650127E-2   -5.387140849819748E-1   -1.644858872166259E-2
 6.457599398700000E9    -5.786650133647855E-1   -1.188641437834360E-1   -6.643522904936231E-3    4.521448534961526E-2   -4.280505632153964E-3    4.486450190159634E-2   -5.385771109241650E-1   -1.495649418019269E-2
 6.457610863925000E9    -5.788476167049429E-1   -1.177583126082246E-1   -6.730791639066224E-3    4.573118770479337E-2   -4.272008448514748E-3    4.517311256621732E-2   -5.386555140923325E-1   -1.356931155750436E-2
 6.457622329150000E9    -5.790111492574536E-1   -1.167589736191791E-1   -6.526903905603715E-3    4.589230574029254E-2   -4.073776567186491E-3    4.550360946493429E-2   -5.385801356586130E-1   -1.210447898029375E-2
 6.457633794375000E9    -5.792713963007501E-1   -1.156932131304822E-1   -6.549443014677937E-3    4.612817393278400E-2   -4.143766052370679E-3    4.569793956200593E-2   -5.386056008967823E-1   -1.058369401337853E-2
 6.457645259600000E9    -5.794157896804968E-1   -1.147054365866558E-1   -6.369748334244725E-3    4.670397288566008E-2   -3.957809289515956E-3    4.616290389459753E-2   -5.386458505743447E-1   -9.205357625673342E-3
 6.457656724825000E9    -5.795962842703618E-1   -1.135898448349661E-1   -6.357449790197175E-3    4.691379208874137E-2   -3.888057237457584E-3    4.638450695186341E-2   -5.386152755033692E-1   -7.594581640614087E-3
 6.457668190050000E9    -5.796814457275333E-1   -1.125508072682376E-1   -6.385557067791548E-3    4.720043314339606E-2   -3.782499815600214E-3    4.672308041144122E-2   -5.386398842418727E-1   -6.077618508252353E-3
 6.457679655275000E9    -5.798523679030327E-1   -1.115283439012041E-1   -6.277859350087565E-3    4.748824904732913E-2   -3.712623022926514E-3    4.709846327621214E-2   -5.386042798561073E-1   -4.588932451592122E-3
 6.457691120500000E9    -5.800830013310826E-1   -1.104838891187592E-1   -6.041114992094872E-3    4.796831768051248E-2   -3.586416479552983E-3    4.746380782584619E-2   -5.385787759281608E-1   -3.109399632809839E-3
 6.457702585725000E9    -5.802328121436499E-1   -1.093914570411465E-1   -5.917931624887257E-3    4.824541373255888E-2   -3.553169264922976E-3    4.778812802570629E-2   -5.386227769305871E-1   -1.603888349019085E-3
 6.457714050950000E9    -5.803470494887200E-1   -1.082331781393446E-1   -5.824239245159791E-3    4.855020738438898E-2   -3.415441275659503E-3    4.820129020596603E-2   -5.384334805731315E-1   -1.061133670130142E-4
 6.457725516175000E9    -5.804647660711537E-1   -1.071881729135950E-1   -5.828946935056758E-3    4.910529687842736E-2   -3.327475363469893E-3    4.852184084915921E-2   -5.385219364693642E-1    1.478922252088655E-3
 6.457736981400000E9    -5.806364805271317E-1   -1.060860697260614E-1   -5.892042231451228E-3    4.955228875059269E-2   -3.277612319586190E-3    4.880003088209175E-2   -5.383112177624887E-1    2.979970249274632E-3
 6.457748446625000E9    -5.806872461017515E-1   -1.051469906325522E-1   -5.702946031620192E-3    4.971594219328167E-2   -3.066282922112385E-3    4.926351596585400E-2   -5.383182852786883E-1    4.493333751813123E-3
 6.457759911850000E9    -5.808819874594191E-1   -1.041237657555056E-1   -5.672820152232812E-3    5.023308115143291E-2   -3.030815894004040E-3    4.957544924415472E-2   -5.382600554140203E-1    6.164390173166700E-3
 6.457771377075000E9    -5.809931971726555E-1   -1.029755734105622E-1   -5.446400037386451E-3    5.058949108560919E-2   -2.957870058465062E-3    4.999468536384222E-2   -5.382590537531340E-1    7.674161788288291E-3
 6.457782842300000E9    -5.811387612943895E-1   -1.018818972841273E-1   -5.357232817348795E-3    5.096347703336437E-2   -2.852359529730757E-3    5.034245202596640E-2   -5.382106321065954E-1    9.463337756935423E-3
 6.457794307525000E9    -5.812898184188124E-1   -1.007699360314103E-1   -5.299297116497873E-3    5.139801401364472E-2   -2.658990871224135E-3    5.074111620004477E-2   -5.381298929311178E-1    1.087353460225753E-2
 6.457805772750000E9    -5.813586550418000E-1   -9.973031771959305E-2   -5.067673314948297E-3    5.175054001124909E-2   -2.653387930703395E-3    5.117699192221314E-2   -5.378997568211940E-1    1.244821281256556E-2
 6.457817237975000E9    -5.815790204058724E-1   -9.859790113724015E-2   -5.000358962791173E-3    5.224004638224441E-2   -2.462959512806658E-3    5.160070739059897E-2   -5.378529458331764E-1    1.405856195340705E-2
 6.457828703200000E9    -5.816782517387713E-1   -9.751830889285391E-2   -4.918311172996969E-3    5.255067243147091E-2   -2.348381335023947E-3    5.188626279965870E-2   -5.378153522360287E-1    1.566707022666337E-2
 6.457840168425000E9    -5.817808934115108E-1   -9.646026518620422E-2   -4.754734036793652E-3    5.304401920801981E-2   -2.167481436418197E-3    5.232939238213758E-2   -5.377383661033932E-1    1.726275721957742E-2
 6.457851633650000E9    -5.819249797813483E-1   -9.536551434738065E-2   -4.607265786763451E-3    5.347834044892714E-2   -2.069815752352454E-3    5.275160429998994E-2   -5.376560666871032E-1    1.910450898122208E-2
 6.457863098875000E9    -5.820382545270181E-1   -9.429161448067069E-2   -4.621214845224629E-3    5.386606292674885E-2   -1.919954961283896E-3    5.322367738993056E-2   -5.375313058925960E-1    2.077357579704656E-2
 6.457874564100000E9    -5.821811750891698E-1   -9.304958101206889E-2   -4.474045844336294E-3    5.443560676805311E-2   -1.802894096218842E-3    5.355683116699182E-2   -5.372266911643984E-1    2.234622595686984E-2
 6.457886029325000E9    -5.823805210827547E-1   -9.210355014917297E-2   -4.443188765748506E-3    5.478989869527347E-2   -1.589362455224783E-3    5.407464207026867E-2   -5.370828940780915E-1    2.395531358309131E-2
 6.457897494550000E9    -5.822952956343650E-1   -9.085777869179799E-2   -4.291080026165772E-3    5.533048422252575E-2   -1.581399914852837E-3    5.455743259621555E-2   -5.369981400117859E-1    2.565836895754398E-2
 6.457908959775000E9    -5.825443670877798E-1   -8.969843340656587E-2   -3.929408468322380E-3    5.569024159451415E-2   -1.289006239282518E-3    5.492762360805162E-2   -5.369813456490319E-1    2.739390212000669E-2
 6.457920425000000E9    -5.825663764753775E-1   -8.862412334821919E-2   -3.919044262028766E-3    5.614383500512491E-2   -1.032989003090103E-3    5.537422467476011E-2   -5.367223283382255E-1    2.930765665615724E-2
 6.457931890225000E9    -5.826481229919616E-1   -8.757432768560311E-2   -3.930996077452477E-3    5.654093336652003E-2   -1.224223017615040E-3    5.584896717055380E-2   -5.366773150024836E-1    3.090437631157053E-2
 6.457943355450000E9    -5.827601027414483E-1   -8.645790234995529E-2   -3.708376152701151E-3    5.716085841653625E-2   -8.436527516262895E-4    5.632426406903911E-2   -5.365245766516553E-1    3.262006766535280E-2
 6.457954820675000E9    -5.828249722391483E-1   -8.525574543109521E-2   -3.682997540331902E-3    5.764640781534580E-2   -6.967905725239229E-4    5.681816303496046E-2   -5.362975447737325E-1    3.441399697435352E-2
 6.457966285900000E9    -5.828525066472126E-1   -8.414534345977234E-2   -3.418333823594966E-3    5.827077335950811E-2   -6.276455597976742E-4    5.729270330845793E-2   -5.360575975212384E-1    3.618229738662340E-2
 6.457977751125000E9    -5.830433549212425E-1   -8.298299407746357E-2   -3.353054720719871E-3    5.870030777038329E-2   -3.914521737315816E-4    5.767912932308026E-2   -5.358293730568754E-1    3.789712375089931E-2
 6.457989216350000E9    -5.830863422738970E-1   -8.184674632883811E-2   -3.139302445405641E-3    5.925647791450538E-2   -2.022009162891595E-4    5.824600557547680E-2   -5.356986623754701E-1    3.967395868720992E-2
 6.458000681575000E9    -5.832609134495482E-1   -8.071317781703362E-2   -3.006371219436670E-3    5.974212779327022E-2   -5.358760924664034E-5    5.872595351739027E-2   -5.354198608123073E-1    4.158572330657153E-2
 6.458012146800000E9    -5.832115777640264E-1   -7.950861497168725E-2   -2.894966958647609E-3    6.032437118125208E-2    9.811144534145700E-5    5.933675573876078E-2   -5.350343210128564E-1    4.346950830071953E-2
 6.458023612025000E9    -5.832720467479569E-1   -7.836081608560537E-2   -2.725531871604935E-3    6.083792085279268E-2    3.604519417913547E-4    5.980718183133833E-2   -5.349958125949557E-1    4.522181592513123E-2
 6.458035077250000E9    -5.833844969958871E-1   -7.725867784319482E-2   -2.445467606405213E-3    6.137780139048166E-2    4.892295528908872E-4    6.037476574799184E-2   -5.346435124806581E-1    4.705315263624709E-2
