#  HZ   S   RI   R     50.00 
! Rohde & Schwarz Vector Network Analyzer 
! Rohde-Schwarz,ZNB20-2Port,1311601062101988,3.16
! Created: UTC 3/20/2024, 10:54:25 PM
! freq[Hz]                re:S11                  im:S11                  re:S21                  im:S21                  re:S12                  im:S12                  re:S22                  im:S22
 6.457059677000000E9    -5.678852769636040E-1   -1.672915068084754E-1   -8.787398921961674E-3    3.302015777018856E-2   -6.956367456810406E-3    3.314290709053289E-2   -5.350524559484058E-1   -7.660960999533292E-2
 6.457070954350000E9    -5.680431134835608E-1   -1.662761700752284E-1   -8.707380462013366E-3    3.328278560532739E-2   -6.880697110329442E-3    3.325546798218087E-2   -5.352064053423508E-1   -7.542329281643284E-2
 6.457082231700000E9    -5.683075271810994E-1   -1.654091193491072E-1   -8.709880650712758E-3    3.350742365373000E-2   -6.879451178339865E-3    3.347398525729715E-2   -5.352857872283265E-1   -7.412627310767141E-2
 6.457093509050000E9    -5.685458518750923E-1   -1.644314071268098E-1   -8.644037699921742E-3    3.369058399664356E-2   -6.861774437717490E-3    3.361300794337586E-2   -5.355014467585485E-1   -7.318651901691606E-2
 6.457104786400000E9    -5.688013935872639E-1   -1.633808800477924E-1   -8.631664792943777E-3    3.384843235441541E-2   -6.815150025803304E-3    3.394307393294779E-2   -5.357103804729986E-1   -7.187849237974045E-2
 6.457116063750000E9    -5.691599727373902E-1   -1.624934561917593E-1   -8.525980292645787E-3    3.402022141472032E-2   -6.790684365593527E-3    3.401978034958669E-2   -5.357973829655738E-1   -7.063477829841315E-2
 6.457127341100000E9    -5.693367645937929E-1   -1.615415022227892E-1   -8.516562516588399E-3    3.419531006120428E-2   -6.697728101309849E-3    3.417974752357812E-2   -5.360052434947774E-1   -6.939808374293559E-2
 6.457138618450000E9    -5.696107729750085E-1   -1.606324783857203E-1   -8.538784241241479E-3    3.446994534587831E-2   -6.663593267943209E-3    3.442098249869303E-2   -5.361162697236665E-1   -6.824882421228465E-2
 6.457149895800000E9    -5.698077899274785E-1   -1.597346440597099E-1   -8.445545827748920E-3    3.481934864053162E-2   -6.646624479370007E-3    3.459479644840011E-2   -5.363650953778529E-1   -6.703040777237215E-2
 6.457161173150000E9    -5.700664681854137E-1   -1.587474333076098E-1   -8.332508867133818E-3    3.498853227186551E-2   -6.595538619117955E-3    3.480623290801284E-2   -5.364358447098538E-1   -6.581028689830459E-2
 6.457172450500000E9    -5.701966652956080E-1   -1.577786537837458E-1   -8.536103723785396E-3    3.515656587932756E-2   -6.558221516029368E-3    3.504616027368867E-2   -5.365525483059228E-1   -6.460930260202322E-2
 6.457183727850000E9    -5.705744299186585E-1   -1.568360946129691E-1   -8.485176508201277E-3    3.527192608324974E-2   -6.534474622195755E-3    3.526136676345432E-2   -5.367779996566843E-1   -6.336856739597453E-2
 6.457195005200000E9    -5.707536438715989E-1   -1.558704095552548E-1   -8.338797023050279E-3    3.548930199761550E-2   -6.475717096614017E-3    3.538118893094627E-2   -5.367266252225619E-1   -6.214698073985541E-2
 6.457206282550000E9    -5.710115996609422E-1   -1.549784882150728E-1   -8.341734743581320E-3    3.583049213243907E-2   -6.426407467248454E-3    3.554024965850220E-2   -5.369694374058495E-1   -6.089330904893385E-2
 6.457217559900000E9    -5.713052765570059E-1   -1.539950867451909E-1   -8.366706542173337E-3    3.591497677286763E-2   -6.384782982888567E-3    3.581296388476441E-2   -5.371116850188471E-1   -5.980237394434221E-2
 6.457228837250000E9    -5.714666752733761E-1   -1.530205811372291E-1   -8.250346961487336E-3    3.622007497000429E-2   -6.296618845319902E-3    3.605070851089535E-2   -5.371306440486610E-1   -5.845604588920496E-2
 6.457240114600000E9    -5.716950551770099E-1   -1.520607099491536E-1   -8.360640112646161E-3    3.642676990581390E-2   -6.419659389394072E-3    3.618177590141578E-2   -5.373961907904303E-1   -5.734456219450090E-2
 6.457251391950000E9    -5.719598787555931E-1   -1.511217987933423E-1   -8.200538057565890E-3    3.649096739838447E-2   -6.323782909437804E-3    3.624354903255250E-2   -5.375537757541400E-1   -5.604043249393596E-2
 6.457262669300000E9    -5.721655554616938E-1   -1.501465966506718E-1   -8.204327115456369E-3    3.674586255888976E-2   -6.164753201641220E-3    3.674327242511075E-2   -5.374756384295282E-1   -5.489184005815573E-2
 6.457273946650000E9    -5.724628626659929E-1   -1.492550752040653E-1   -8.119483513752253E-3    3.710810438707036E-2   -6.124784034649513E-3    3.682779257611984E-2   -5.376509553107143E-1   -5.355375289995590E-2
 6.457285224000000E9    -5.725898916617308E-1   -1.482968807194525E-1   -8.184733973743100E-3    3.721852802427700E-2   -6.115256921889578E-3    3.703117641945670E-2   -5.379288835092332E-1   -5.228706396498677E-2
 6.457296501350000E9    -5.728414574531612E-1   -1.473587158068526E-1   -8.071918484293639E-3    3.753748665652606E-2   -5.986008524408348E-3    3.737630167059767E-2   -5.379259199245260E-1   -5.105815208695124E-2
 6.457307778700000E9    -5.730826417620630E-1   -1.463735226383130E-1   -8.105379396035610E-3    3.774557718094217E-2   -6.002190590142202E-3    3.746312158913146E-2   -5.378579442239750E-1   -4.979068732633325E-2
 6.457319056050000E9    -5.732172016736001E-1   -1.453487853493213E-1   -8.049048846818105E-3    3.786624971542416E-2   -6.012167136236966E-3    3.782418309960090E-2   -5.379877543072974E-1   -4.854176359497939E-2
 6.457330333400000E9    -5.735683539975902E-1   -1.443104912294635E-1   -8.065243557825806E-3    3.812216725776833E-2   -5.970766957578924E-3    3.801536194034933E-2   -5.382350967233197E-1   -4.717917215967821E-2
 6.457341610750000E9    -5.737527998373940E-1   -1.435028799968257E-1   -7.987868622343903E-3    3.845588210644819E-2   -5.892560625331727E-3    3.822424147341615E-2   -5.383574828946613E-1   -4.598322495045105E-2
 6.457352888100000E9    -5.739696820553440E-1   -1.423782015310061E-1   -7.860779254225871E-3    3.874867020802066E-2   -5.945627992609175E-3    3.851115855214451E-2   -5.385130758211646E-1   -4.475183885023908E-2
 6.457364165450000E9    -5.741543698871974E-1   -1.414691461742500E-1   -7.862472846210788E-3    3.896894862336107E-2   -5.728692883103013E-3    3.872023089873394E-2   -5.385409942900949E-1   -4.334764603878487E-2
 6.457375442800000E9    -5.744018013113196E-1   -1.405709075949846E-1   -7.808838329214152E-3    3.914506056510492E-2   -5.810232678216772E-3    3.884244665722183E-2   -5.385232000264473E-1   -4.214607252883106E-2
 6.457386720150000E9    -5.744626230791574E-1   -1.394900218232193E-1   -7.724944067613574E-3    3.946133918445507E-2   -5.682741323179908E-3    3.912660133842930E-2   -5.386600083313406E-1   -4.085912795019556E-2
 6.457397997500000E9    -5.748958631762633E-1   -1.385989843620872E-1   -7.636506060849659E-3    3.966835561645874E-2   -5.657419313930978E-3    3.953501097423303E-2   -5.388229843114754E-1   -3.950007045402128E-2
 6.457409274850000E9    -5.749244465774609E-1   -1.375376628259093E-1   -7.663773254723239E-3    3.992307168061436E-2   -5.533751242987595E-3    3.974573793596853E-2   -5.388838467893773E-1   -3.817107089851984E-2
 6.457420552200000E9    -5.751315851468787E-1   -1.365948909602056E-1   -7.550097502892633E-3    4.028279992923126E-2   -5.437901457585759E-3    3.975124795688157E-2   -5.389361088465888E-1   -3.695259331442789E-2
 6.457431829550000E9    -5.753857568019163E-1   -1.356029490118528E-1   -7.609643848394240E-3    4.054868096215471E-2   -5.425485104927666E-3    4.012352286151568E-2   -5.389716699465702E-1   -3.550194819070636E-2
 6.457443106900000E9    -5.755903289489340E-1   -1.345219997571393E-1   -7.519715817957892E-3    4.087547732773406E-2   -5.392516340752346E-3    4.049021575287572E-2   -5.389727483615423E-1   -3.430511074133069E-2
 6.457454384250000E9    -5.757978189320779E-1   -1.336046228270346E-1   -7.406206519009082E-3    4.093049394706626E-2   -5.356399396509496E-3    4.076340254019634E-2   -5.391244301919258E-1   -3.300543103399877E-2
 6.457465661600000E9    -5.759830299777527E-1   -1.325991455706948E-1   -7.341181468300185E-3    4.121113105015723E-2   -5.289215080252839E-3    4.098163276495339E-2   -5.391868731033486E-1   -3.157561619747257E-2
 6.457476938950000E9    -5.761862564841841E-1   -1.315701171272283E-1   -7.411851023814214E-3    4.155546056218783E-2   -5.189507709457421E-3    4.127123550032821E-2   -5.392438530759948E-1   -3.021320089445407E-2
 6.457488216300000E9    -5.762993051553478E-1   -1.306321540776938E-1   -7.210289440447949E-3    4.177300657134722E-2   -5.196906483468035E-3    4.151574757393874E-2   -5.392525248367837E-1   -2.879620145132029E-2
 6.457499493650000E9    -5.765919122121825E-1   -1.295395930551630E-1   -7.372207898264237E-3    4.202517471551199E-2   -5.098574515213871E-3    4.175424306229267E-2   -5.393381406993826E-1   -2.757723305085242E-2
 6.457510771000000E9    -5.767540017818450E-1   -1.285716187627440E-1   -7.148420689806562E-3    4.218719994366197E-2   -5.085147365373547E-3    4.198918414332666E-2   -5.394973229753576E-1   -2.627935916792834E-2
 6.457522048350000E9    -5.768914749985454E-1   -1.275259760389365E-1   -7.153575975657770E-3    4.257450159464325E-2   -4.921136504275828E-3    4.224143613456315E-2   -5.393644446390878E-1   -2.485861685341857E-2
 6.457533325700000E9    -5.770222258248964E-1   -1.264852338305406E-1   -7.117939608118341E-3    4.293158411976364E-2   -4.901494162686885E-3    4.251858549682584E-2   -5.393104028949059E-1   -2.349631775922875E-2
 6.457544603050000E9    -5.772618941133990E-1   -1.255745975410781E-1   -7.001866620920923E-3    4.326033542673283E-2   -4.809364151015511E-3    4.282149742190756E-2   -5.394091981570204E-1   -2.207111202013614E-2
 6.457555880400000E9    -5.773948082218802E-1   -1.246274168155924E-1   -7.006585429947040E-3    4.339624316278784E-2   -4.751634971611755E-3    4.315773538248910E-2   -5.395476361988022E-1   -2.067871401880361E-2
 6.457567157750000E9    -5.775851444750030E-1   -1.235088108361170E-1   -6.865378116640937E-3    4.379685001699667E-2   -4.669112321174862E-3    4.337405808183829E-2   -5.394614104263737E-1   -1.936243372702445E-2
 6.457578435100000E9    -5.778079491470354E-1   -1.225901675881537E-1   -6.860899277323427E-3    4.410545530619289E-2   -4.559279700857548E-3    4.379897871379568E-2   -5.396911343683031E-1   -1.798052019562958E-2
 6.457589712450000E9    -5.779870920295592E-1   -1.214911987126306E-1   -6.806349146013331E-3    4.452330803747417E-2   -4.479978933424775E-3    4.404720417611752E-2   -5.394992696686639E-1   -1.648741187454548E-2
 6.457600989800000E9    -5.781128356965228E-1   -1.204997298681595E-1   -6.863107478917996E-3    4.466802793159561E-2   -4.486981778468391E-3    4.421639604985969E-2   -5.397331015984472E-1   -1.511980208417478E-2
 6.457612267150000E9    -5.782923535672403E-1   -1.196116287970631E-1   -6.766892496511597E-3    4.509219624174999E-2   -4.317021504993661E-3    4.470633636562874E-2   -5.396470730638742E-1   -1.371382294552509E-2
 6.457623544500000E9    -5.784788788619736E-1   -1.184696626752474E-1   -6.787541829781999E-3    4.541595464524140E-2   -4.311679503674390E-3    4.487578205819723E-2   -5.395679598445178E-1   -1.225861751185780E-2
 6.457634821850000E9    -5.786075062003972E-1   -1.174935659027947E-1   -6.491726206847494E-3    4.569413466947890E-2   -4.260422161448505E-3    4.519143408078285E-2   -5.396974021124192E-1   -1.092988266684267E-2
 6.457646099200000E9    -5.787832333252101E-1   -1.163974916893222E-1   -6.569240959157374E-3    4.584068508749958E-2   -4.079239060213887E-3    4.557878423804074E-2   -5.397396546706520E-1   -9.541798681773806E-3
 6.457657376550000E9    -5.789904325301404E-1   -1.153553088728214E-1   -6.561355953438899E-3    4.644384924818276E-2   -4.099033849503645E-3    4.589030350457479E-2   -5.397451820373655E-1   -7.947985057285738E-3
 6.457668653900000E9    -5.792093673667176E-1   -1.143887134384137E-1   -6.281134452513025E-3    4.663133054461483E-2   -3.984704957464041E-3    4.622935340029591E-2   -5.396237981938967E-1   -6.573357141584213E-3
 6.457679931250000E9    -5.792972677812301E-1   -1.134338032514425E-1   -6.349672520849084E-3    4.697644981753511E-2   -3.874973604595442E-3    4.643799864940212E-2   -5.396614739423180E-1   -5.002727441566072E-3
 6.457691208600000E9    -5.793791675303023E-1   -1.122905128041307E-1   -6.049730102097932E-3    4.728205111820851E-2   -3.777669971522799E-3    4.679996533333325E-2   -5.396369652536538E-1   -3.646741430330487E-3
 6.457702485950000E9    -5.795884566488286E-1   -1.112955491483007E-1   -6.016794305633200E-3    4.752768648960579E-2   -3.708099238230260E-3    4.714465167677254E-2   -5.394696786520935E-1   -2.175148915050260E-3
 6.457713763300000E9    -5.797563240008151E-1   -1.101408616009083E-1   -6.051179320235849E-3    4.803724580766310E-2   -3.628415385591111E-3    4.758256506857352E-2   -5.394418645771536E-1   -5.391288287764605E-4
 6.457725040650000E9    -5.798525290201720E-1   -1.092127758115661E-1   -5.892624953492520E-3    4.839300443851893E-2   -3.507759861867384E-3    4.783538477170831E-2   -5.394952549007486E-1    7.622509546395892E-4
 6.457736318000000E9    -5.800562467835060E-1   -1.080683328298743E-1   -5.892776122776825E-3    4.882675113594780E-2   -3.349336853251617E-3    4.825847906439817E-2   -5.394022652104923E-1    2.456762189270783E-3
 6.457747595350000E9    -5.801602591769487E-1   -1.071041645863997E-1   -5.779292315112398E-3    4.910465796407305E-2   -3.327125609747898E-3    4.858033330810992E-2   -5.394440365554184E-1    3.838604454125139E-3
 6.457758872700000E9    -5.803652206280008E-1   -1.060504122987337E-1   -5.661392263562348E-3    4.952169264968984E-2   -3.184880528312120E-3    4.885864906141953E-2   -5.393818934691483E-1    5.336962703536037E-3
 6.457770150050000E9    -5.805361284450868E-1   -1.049322440852799E-1   -5.649779786291049E-3    4.988195545871003E-2   -3.007793807748308E-3    4.928062089002810E-2   -5.393151491694477E-1    6.982278986004261E-3
 6.457781427400000E9    -5.807381407725225E-1   -1.039335071670564E-1   -5.538134916679246E-3    5.026900100353852E-2   -3.099317794925653E-3    4.963526317274107E-2   -5.392620380773759E-1    8.503733753706718E-3
 6.457792704750000E9    -5.807515300015966E-1   -1.027042720727343E-1   -5.444604133348462E-3    5.060149526791212E-2   -2.868674927060330E-3    4.997171734674501E-2   -5.391445984370212E-1    9.956492583175540E-3
 6.457803982100000E9    -5.809624358253783E-1   -1.017730645051711E-1   -5.441504193932459E-3    5.101224783227456E-2   -2.725655587677240E-3    5.039945535616241E-2   -5.391798778827139E-1    1.160360480803253E-2
 6.457815259450000E9    -5.811507731077620E-1   -1.008198246365578E-1   -5.383467364906917E-3    5.131638703371771E-2   -2.702526507641810E-3    5.074412528444875E-2   -5.389975265996665E-1    1.314648899422950E-2
 6.457826536800000E9    -5.812295327690878E-1   -9.972102904528718E-2   -5.064047316537862E-3    5.191613073856243E-2   -2.532742811444220E-3    5.112443239929178E-2   -5.389207510898590E-1    1.478146052832452E-2
 6.457837814150000E9    -5.812700071137998E-1   -9.859881217399055E-2   -5.030905796369204E-3    5.218960976693481E-2   -2.464081332110336E-3    5.157233093446451E-2   -5.389315232193762E-1    1.650564209941503E-2
 6.457849091500000E9    -5.813460360468259E-1   -9.763886904985720E-2   -5.044390508622762E-3    5.271548519481986E-2   -2.319246179905042E-3    5.187088680885393E-2   -5.386649278083480E-1    1.798670629191376E-2
 6.457860368850000E9    -5.815745010317335E-1   -9.647055434483710E-2   -4.811657069639300E-3    5.309666353236332E-2   -2.123512583506522E-3    5.230474707079247E-2   -5.386206677295530E-1    1.948544492664742E-2
 6.457871646200000E9    -5.816057164727666E-1   -9.537850244385648E-2   -4.668294174564140E-3    5.354057714929145E-2   -2.066661814372900E-3    5.278339749758332E-2   -5.385468830523527E-1    2.123140412416801E-2
 6.457882923550000E9    -5.817545327219779E-1   -9.428353781987250E-2   -4.568242566959498E-3    5.390075192231865E-2   -1.961151005073777E-3    5.315442159468053E-2   -5.383811531277932E-1    2.287009575912918E-2
 6.457894200900000E9    -5.818335399349127E-1   -9.323714475155088E-2   -4.445496015115666E-3    5.436110538227704E-2   -1.757727935393253E-3    5.354034540648970E-2   -5.383181684608407E-1    2.445406550800894E-2
 6.457905478250000E9    -5.819390047311161E-1   -9.216072655000004E-2   -4.288392685283205E-3    5.487405769267445E-2   -1.646137237337846E-3    5.408100246735824E-2   -5.380967958997362E-1    2.607585665567507E-2
 6.457916755600000E9    -5.821158310353044E-1   -9.087350376285910E-2   -4.136230482586349E-3    5.529367307217862E-2   -1.510220020980982E-3    5.438570062968359E-2   -5.380418181285715E-1    2.772131048008719E-2
 6.457928032950000E9    -5.821786956106307E-1   -8.988684090987131E-2   -4.051916113951596E-3    5.575520014253330E-2   -1.273560060540256E-3    5.486292377284749E-2   -5.378343996129943E-1    2.934200744364020E-2
 6.457939310300000E9    -5.822787146446246E-1   -8.879617256218308E-2   -4.037092193643193E-3    5.624815764371238E-2   -1.254757141261232E-3    5.535270792291304E-2   -5.376307465683421E-1    3.116218337610125E-2
 6.457950587650000E9    -5.824529941523349E-1   -8.766759616571426E-2   -3.820291983659522E-3    5.665549453555870E-2   -1.055984180955874E-3    5.582299258679101E-2   -5.373879009999250E-1    3.293187791736977E-2
 6.457961865000000E9    -5.825026598714670E-1   -8.668870180875550E-2   -3.729291040453262E-3    5.707587356844274E-2   -9.299809996965922E-4    5.623789539305792E-2   -5.373001004178692E-1    3.456386979741301E-2
 6.457973142350000E9    -5.825329208617640E-1   -8.536968861324620E-2   -3.536466983939845E-3    5.750819160152437E-2   -7.251280243917570E-4    5.672076770693978E-2   -5.370732856220364E-1    3.633481647406699E-2
 6.457984419700000E9    -5.828302563587208E-1   -8.441334236973665E-2   -3.360339420402360E-3    5.810135490876083E-2   -5.145082620901956E-4    5.721813846020413E-2   -5.370034938553105E-1    3.794911550412826E-2
 6.457995697050000E9    -5.827726318018778E-1   -8.320427549987723E-2   -3.249385450326224E-3    5.859606871501359E-2   -3.850677677918185E-4    5.769656676326256E-2   -5.367359201447849E-1    3.974645865468989E-2
 6.458006974400000E9    -5.827350745976549E-1   -8.216692388671261E-2   -3.185819891106650E-3    5.913560120675348E-2   -2.423395506163353E-4    5.819271246182596E-2   -5.365084610885864E-1    4.156575769900410E-2
 6.458018251750000E9    -5.829150098800743E-1   -8.098456040024979E-2   -2.999114804910091E-3    5.957482462072405E-2   -1.284199831779332E-4    5.879332067341293E-2   -5.363243417106627E-1    4.339371727829504E-2
 6.458029529100000E9    -5.829792019129968E-1   -7.976779541145640E-2   -2.777517925784944E-3    6.016766494629706E-2    1.610511894445417E-6    5.914977532478870E-2   -5.360283512847577E-1    4.500480535149976E-2
 6.458040806450000E9    -5.830382765997377E-1   -7.869837799283461E-2   -2.755290889705533E-3    6.063725201392545E-2    2.202288932992633E-4    5.969752746171228E-2   -5.358698168688413E-1    4.687618778130991E-2
 6.458052083800000E9    -5.831815298452028E-1   -7.757015841790728E-2   -2.458969070781964E-3    6.114986686605309E-2    4.916304786320769E-4    6.011993332736238E-2   -5.355680520624508E-1    4.882051176018547E-2
 6.458063361150000E9    -5.832220250041386E-1   -7.648763542843939E-2   -2.341180151588284E-3    6.175037943788011E-2    7.028665008700396E-4    6.074211149803471E-2   -5.352333024391278E-1    5.064520676248451E-2
 6.458074638500000E9    -5.833164423372952E-1   -7.517220358564182E-2   -2.131534301985793E-3    6.214079649334685E-2    8.861416496554696E-4    6.124063030436726E-2   -5.350315831398442E-1    5.246038880383459E-2
