#  HZ   S   RI   R     50.00 
! Rohde & Schwarz Vector Network Analyzer 
! Rohde-Schwarz,ZNB20-2Port,1311601062101988,3.16
! Created: UTC 3/20/2024, 11:16:48 PM
! freq[Hz]                re:S11                  im:S11                  re:S21                  im:S21                  re:S12                  im:S12                  re:S22                  im:S22
 6.457008418000000E9    -5.673331779403145E-1   -1.697976539509569E-1   -8.716767010363367E-3    3.266395751106763E-2   -7.038888744769699E-3    3.253166856206413E-2   -5.333127735505186E-1   -8.193074674889844E-2
 6.457019868100000E9    -5.676391197135494E-1   -1.688508554360444E-1   -8.716978854706198E-3    3.278105090489714E-2   -7.047578821044841E-3    3.277923990131318E-2   -5.334848195069780E-1   -8.080897108204611E-2
 6.457031318200000E9    -5.679270452571461E-1   -1.678516777321600E-1   -8.723536975101327E-3    3.303800430126155E-2   -6.988509387392352E-3    3.295953016599568E-2   -5.336606196461123E-1   -7.955245052105794E-2
 6.457042768300000E9    -5.681899574838206E-1   -1.668958461058593E-1   -8.619193291094861E-3    3.313239928560523E-2   -7.033432575130225E-3    3.314499987800205E-2   -5.338636119987310E-1   -7.835810305956820E-2
 6.457054218400000E9    -5.684512466454200E-1   -1.659864164611938E-1   -8.611455887763709E-3    3.336455014855300E-2   -6.937356472304665E-3    3.339406986782418E-2   -5.340354535286396E-1   -7.735838951138417E-2
 6.457065668500000E9    -5.686486431488468E-1   -1.651238831617689E-1   -8.695473549359808E-3    3.358259965087704E-2   -6.945435636401548E-3    3.354267780512136E-2   -5.342430159371931E-1   -7.606094926494476E-2
 6.457077118600000E9    -5.688823231540363E-1   -1.640147986563818E-1   -8.689335305442816E-3    3.378274870516878E-2   -6.852216502786430E-3    3.364314794630571E-2   -5.342537974619427E-1   -7.491281971510512E-2
 6.457088568700000E9    -5.691028184084062E-1   -1.631762925019787E-1   -8.542820011074606E-3    3.387431544920316E-2   -6.747507877530730E-3    3.389364947513240E-2   -5.345556057774312E-1   -7.359258814214578E-2
 6.457100018800000E9    -5.694429088945619E-1   -1.622927967494792E-1   -8.692401327937083E-3    3.422283711914852E-2   -6.720203271358274E-3    3.414284512586989E-2   -5.346814032777422E-1   -7.250934450371996E-2
 6.457111468900000E9    -5.697295283327557E-1   -1.611488182496732E-1   -8.602544351713808E-3    3.432391550419719E-2   -6.696104890268384E-3    3.436670895762532E-2   -5.348809844215611E-1   -7.133394658786239E-2
 6.457122919000000E9    -5.699489282468098E-1   -1.603466435309183E-1   -8.562383310818558E-3    3.456953452549637E-2   -6.701924781430036E-3    3.452628441537099E-2   -5.351419534132307E-1   -7.007123636946722E-2
 6.457134369100000E9    -5.701314958747629E-1   -1.593180955700932E-1   -8.461719565140857E-3    3.481210341371165E-2   -6.770387803074841E-3    3.470666352545785E-2   -5.353201416461248E-1   -6.874406489795487E-2
 6.457145819200000E9    -5.703673416796349E-1   -1.582578566596604E-1   -8.488711197015752E-3    3.490216731263762E-2   -6.705194285462355E-3    3.487404853552599E-2   -5.353010835031562E-1   -6.766816871211845E-2
 6.457157269300000E9    -5.707303477070528E-1   -1.574020335881663E-1   -8.658112336134694E-3    3.518519585300728E-2   -6.616547425557599E-3    3.516154833534178E-2   -5.353755196584690E-1   -6.635041919429385E-2
 6.457168719400000E9    -5.709783904815765E-1   -1.563895684948791E-1   -8.481102390854998E-3    3.553331577043233E-2   -6.521391337416992E-3    3.526215237333061E-2   -5.354960617131114E-1   -6.504204312375461E-2
 6.457180169500000E9    -5.710844171942445E-1   -1.553162391769730E-1   -8.503812938067450E-3    3.564920439977701E-2   -6.570705582712582E-3    3.551760085579378E-2   -5.357003855057694E-1   -6.388807111017721E-2
 6.457191619600000E9    -5.713025241418077E-1   -1.545456600331322E-1   -8.353161284267769E-3    3.594992791894540E-2   -6.519202626634548E-3    3.570048254208395E-2   -5.357943405649340E-1   -6.270663419221835E-2
 6.457203069700000E9    -5.717694618813365E-1   -1.534594755257650E-1   -8.401458291242208E-3    3.597013094405357E-2   -6.415139239615796E-3    3.591032269374730E-2   -5.360646073600441E-1   -6.140573551321719E-2
 6.457214519800000E9    -5.718280886376637E-1   -1.524930037943958E-1   -8.223912167336259E-3    3.620592027421172E-2   -6.360336829305021E-3    3.612421647410037E-2   -5.361211514707549E-1   -6.020357413293358E-2
 6.457225969900000E9    -5.720482315175537E-1   -1.514292251556499E-1   -8.329647308821395E-3    3.646913987792947E-2   -6.333836928574226E-3    3.626179849473469E-2   -5.362404229569691E-1   -5.894628775116451E-2
 6.457237420000000E9    -5.721929811207375E-1   -1.506361261366831E-1   -8.308199768663961E-3    3.673318324698848E-2   -6.368793606430305E-3    3.650808967051913E-2   -5.362927012170474E-1   -5.759898946454560E-2
 6.457248870100000E9    -5.725517027570340E-1   -1.496445842144811E-1   -8.178329974003000E-3    3.693628860858573E-2   -6.207430446194721E-3    3.676535887095112E-2   -5.364770737048576E-1   -5.633639752221885E-2
 6.457260320200000E9    -5.727146183827856E-1   -1.485506387354929E-1   -8.102602649971674E-3    3.730809883249957E-2   -6.185520300393504E-3    3.703962958200991E-2   -5.365542855394568E-1   -5.503163244862293E-2
 6.457271770300000E9    -5.729578871747877E-1   -1.475917494179547E-1   -8.244996843992679E-3    3.744430594210779E-2   -6.175337754309762E-3    3.723147932605387E-2   -5.367028859703714E-1   -5.393567132536894E-2
 6.457283220400000E9    -5.732042848545073E-1   -1.467079210553224E-1   -7.973809604271933E-3    3.755684004038453E-2   -6.000703431903392E-3    3.742420100335036E-2   -5.369214681902903E-1   -5.251260392363778E-2
 6.457294670500000E9    -5.732956221381974E-1   -1.457360779422325E-1   -8.083080026507863E-3    3.787728311345149E-2   -6.087367590492065E-3    3.766068791364881E-2   -5.370211364366414E-1   -5.123171358878250E-2
 6.457306120600000E9    -5.736660812114021E-1   -1.446299064924696E-1   -7.983027886262923E-3    3.813975614817395E-2   -6.008234759908756E-3    3.789641063846926E-2   -5.370542055322974E-1   -5.005021487137280E-2
 6.457317570700000E9    -5.739365405859372E-1   -1.436733992977316E-1   -7.922761855982782E-3    3.832459617373071E-2   -6.011166062583452E-3    3.811726270461645E-2   -5.372844289896671E-1   -4.863438532589368E-2
 6.457329020800000E9    -5.740595797741260E-1   -1.427747839526694E-1   -7.797987881278355E-3    3.841284272532782E-2   -5.829740503498700E-3    3.838484030448788E-2   -5.372726001881365E-1   -4.747701919535610E-2
 6.457340470900000E9    -5.742944264923501E-1   -1.417387686859369E-1   -7.845343887341094E-3    3.882654211776432E-2   -5.914478439495250E-3    3.865632579363415E-2   -5.374700136942415E-1   -4.601822940780142E-2
 6.457351921000000E9    -5.745233377691883E-1   -1.407763668418330E-1   -7.831210368822051E-3    3.911988065213259E-2   -5.808868113336562E-3    3.879265896529497E-2   -5.374457274292382E-1   -4.484671836808046E-2
 6.457363371100000E9    -5.747076589337724E-1   -1.398008784460233E-1   -7.641801588427620E-3    3.926350198646732E-2   -5.816668769495104E-3    3.911652426776550E-2   -5.376041258982915E-1   -4.333057840114957E-2
 6.457374821200000E9    -5.750305922835117E-1   -1.387264529328507E-1   -7.696431940751689E-3    3.941966030597567E-2   -5.717070194859745E-3    3.933783385832127E-2   -5.376812438448502E-1   -4.219694301049404E-2
 6.457386271300000E9    -5.751417116241020E-1   -1.376808598855891E-1   -7.699756872817480E-3    3.986458003392154E-2   -5.553385929906640E-3    3.956909490419057E-2   -5.376971931407849E-1   -4.077254512487894E-2
 6.457397721400000E9    -5.753348575624603E-1   -1.367107953167188E-1   -7.746346848530247E-3    4.017308982355419E-2   -5.628149543120038E-3    3.990261343630983E-2   -5.378198686578850E-1   -3.950475028461300E-2
 6.457409171500000E9    -5.755870831589343E-1   -1.357825625244209E-1   -7.720332704745298E-3    4.037162478123726E-2   -5.498209332793050E-3    4.012317038286666E-2   -5.378508062426274E-1   -3.803702117924798E-2
 6.457420621600000E9    -5.758420635381358E-1   -1.346437492603119E-1   -7.490923244386789E-3    4.065040254966473E-2   -5.511379698425719E-3    4.035472718279327E-2   -5.380002867271884E-1   -3.686769415414066E-2
 6.457432071700000E9    -5.759276578366878E-1   -1.336833473935216E-1   -7.638263281958282E-3    4.089614107812270E-2   -5.450428044247818E-3    4.057732579820073E-2   -5.379426471502721E-1   -3.548130625312333E-2
 6.457443521800000E9    -5.761592322065887E-1   -1.327322230878890E-1   -7.434363453535316E-3    4.131792226768231E-2   -5.406509683589594E-3    4.087072024993273E-2   -5.381655550523488E-1   -3.401791997841578E-2
 6.457454971900000E9    -5.763824202969731E-1   -1.316477236131908E-1   -7.428000345334486E-3    4.140544921016673E-2   -5.237307889187318E-3    4.111910507332310E-2   -5.381508909941290E-1   -3.268687849240543E-2
 6.457466422000000E9    -5.766202985521535E-1   -1.307585549813346E-1   -7.427246481315126E-3    4.170697274821555E-2   -5.219536028771561E-3    4.133241903959977E-2   -5.382109840855078E-1   -3.149607817307248E-2
 6.457477872100000E9    -5.766433059935134E-1   -1.297368185945224E-1   -7.385717204162490E-3    4.208709589501159E-2   -5.166621660960095E-3    4.163593980062615E-2   -5.382359137502959E-1   -3.008556393747797E-2
 6.457489322200000E9    -5.770324591504895E-1   -1.286565833915633E-1   -7.277622836351542E-3    4.222817265769951E-2   -5.103410362500402E-3    4.186820223496380E-2   -5.384429488100119E-1   -2.866557959560429E-2
 6.457500772300000E9    -5.771313076522170E-1   -1.277269740038225E-1   -7.103952743131223E-3    4.248363774477226E-2   -4.988640885643577E-3    4.228272070605338E-2   -5.384504803208545E-1   -2.715701334814195E-2
 6.457512222400000E9    -5.772679390993437E-1   -1.265636299204012E-1   -7.248327027406219E-3    4.284164399499633E-2   -4.914518005895490E-3    4.245130140849669E-2   -5.385993221020097E-1   -2.585935844820873E-2
 6.457523672500000E9    -5.775408148309962E-1   -1.255635529165803E-1   -7.139977872255102E-3    4.308638540363441E-2   -4.814997226416999E-3    4.283150881068440E-2   -5.384303941851731E-1   -2.436470857635671E-2
 6.457535122600000E9    -5.776874681985855E-1   -1.246858362158200E-1   -7.079143871643355E-3    4.345632178784196E-2   -4.791681908368319E-3    4.309585690099354E-2   -5.385743365766777E-1   -2.297532108184786E-2
 6.457546572700000E9    -5.778242355996890E-1   -1.235645799534284E-1   -6.988149803836064E-3    4.379837776087340E-2   -4.791871829775474E-3    4.331862601112580E-2   -5.385472968906767E-1   -2.167324054660258E-2
 6.457558022800000E9    -5.780156695747102E-1   -1.225981462932031E-1   -6.874280091316722E-3    4.405507516627107E-2   -4.741984850134901E-3    4.368746884923230E-2   -5.385975672227945E-1   -2.024125459215270E-2
 6.457569472900000E9    -5.782244137274061E-1   -1.215320642113540E-1   -6.813791332647743E-3    4.443323275926200E-2   -4.530493026331557E-3    4.400285135708504E-2   -5.386209334369126E-1   -1.888722895680513E-2
 6.457580923000000E9    -5.785376428938489E-1   -1.206270314017173E-1   -6.898160702616033E-3    4.469347787098407E-2   -4.515497078318263E-3    4.424257870202094E-2   -5.385198276990560E-1   -1.736379434212003E-2
 6.457592373100000E9    -5.785594699534345E-1   -1.195329484887485E-1   -6.830934795397684E-3    4.499666748045485E-2   -4.383812118901246E-3    4.454849098225886E-2   -5.386300193862004E-1   -1.596442224072241E-2
 6.457603823200000E9    -5.787811127936325E-1   -1.184053576346364E-1   -6.803822098599269E-3    4.530640433644442E-2   -4.377555383208581E-3    4.491601487331297E-2   -5.385262699320349E-1   -1.450114740751609E-2
 6.457615273300000E9    -5.789125523943358E-1   -1.174208939470881E-1   -6.703143249446244E-3    4.561898646881388E-2   -4.255024747259152E-3    4.518766492567990E-2   -5.387666955020625E-1   -1.311437705686225E-2
 6.457626723400000E9    -5.790473697140387E-1   -1.163195112468284E-1   -6.499257473386237E-3    4.589659654977318E-2   -4.058261788243638E-3    4.553926963492214E-2   -5.386348625333052E-1   -1.160235310628071E-2
 6.457638173500000E9    -5.792142580859962E-1   -1.153267306179262E-1   -6.501807047859762E-3    4.624026879408471E-2   -4.128623624378505E-3    4.583695921058099E-2   -5.385680612424886E-1   -1.007768544272887E-2
 6.457649623600000E9    -5.794644014954939E-1   -1.142827023641599E-1   -6.322989201299790E-3    4.655623840970483E-2   -3.945824525744797E-3    4.614318281368706E-2   -5.386962038760346E-1   -8.571042950693390E-3
 6.457661073700000E9    -5.795594905064936E-1   -1.132257577994366E-1   -6.445006748533602E-3    4.685874952942393E-2   -3.905809467668451E-3    4.648894484610977E-2   -5.385892753414212E-1   -7.135459331673697E-3
 6.457672523800000E9    -5.798459329461209E-1   -1.120574206788403E-1   -6.268227484141445E-3    4.735739640744159E-2   -3.824598042443730E-3    4.682639710950718E-2   -5.387292036768334E-1   -5.584902129859430E-3
 6.457683973900000E9    -5.798095485026471E-1   -1.111115387540067E-1   -6.230343178048273E-3    4.773629788026489E-2   -3.711993248324458E-3    4.718718769602563E-2   -5.385185012185889E-1   -4.142482113112778E-3
 6.457695424000000E9    -5.801158819449912E-1   -1.100299471947556E-1   -6.123233503011709E-3    4.798159370980246E-2   -3.654848939911555E-3    4.749805156544859E-2   -5.386648067591631E-1   -2.614365619047387E-3
 6.457706874100000E9    -5.801562351546479E-1   -1.089081531910829E-1   -5.965722038500923E-3    4.828410832004346E-2   -3.554785994523100E-3    4.788697650316404E-2   -5.384056883586348E-1   -1.109575591827830E-3
 6.457718324200000E9    -5.804052165294897E-1   -1.078105330528436E-1   -5.891884730094258E-3    4.878876313442772E-2   -3.435111119273243E-3    4.824220813342735E-2   -5.385004699068022E-1    3.849788978526226E-4
 6.457729774300000E9    -5.805019015220531E-1   -1.068636630268453E-1   -5.849004667835456E-3    4.908989535524646E-2   -3.299327207728595E-3    4.864003351192011E-2   -5.386519497797149E-1    1.781362959701056E-3
 6.457741224400000E9    -5.806225106843481E-1   -1.057553029693977E-1   -5.833167719861605E-3    4.964021429529090E-2   -3.250717850410069E-3    4.894534965869000E-2   -5.384094630546724E-1    3.393408796414669E-3
 6.457752674500000E9    -5.807597145851583E-1   -1.047419743446151E-1   -5.716647163113332E-3    4.992894655525890E-2   -3.111490225011803E-3    4.933017445145238E-2   -5.384191281077904E-1    5.017281447260677E-3
 6.457764124600000E9    -5.808732839511200E-1   -1.036127166855297E-1   -5.523258636185923E-3    5.022373287239280E-2   -2.937234670290288E-3    4.968730315067379E-2   -5.383086895750574E-1    6.538544185081704E-3
 6.457775574700000E9    -5.811175759984814E-1   -1.025795165095558E-1   -5.475544934054757E-3    5.069030287056571E-2   -2.795552520882033E-3    5.001081156431313E-2   -5.382280827567965E-1    8.150502212712222E-3
 6.457787024800000E9    -5.811093398754493E-1   -1.015007683280784E-1   -5.278061790983735E-3    5.103889808287445E-2   -2.793899572657745E-3    5.047154549102715E-2   -5.381456310356572E-1    9.793671826970168E-3
 6.457798474900000E9    -5.812532939878631E-1   -1.003931177003893E-1   -5.257375927344545E-3    5.143458456552052E-2   -2.666995876457341E-3    5.082913527785166E-2   -5.381007885282720E-1    1.124936894103507E-2
 6.457809925000000E9    -5.813849405303643E-1   -9.928735001429891E-2   -5.221482387587915E-3    5.187568859689611E-2   -2.517073472499297E-3    5.122664551908356E-2   -5.380645175236074E-1    1.306458366925697E-2
 6.457821375100000E9    -5.816241295882016E-1   -9.824762979432569E-2   -4.980886189643471E-3    5.226528186340421E-2   -2.388622967080117E-3    5.152694360517651E-2   -5.379944126146069E-1    1.466701586489654E-2
 6.457832825200000E9    -5.817288751661295E-1   -9.708062908186449E-2   -4.941649819399374E-3    5.278166483610346E-2   -2.335428113348398E-3    5.205956496255270E-2   -5.378334667946482E-1    1.623733186289099E-2
 6.457844275300000E9    -5.819220331627051E-1   -9.606103373556016E-2   -4.847632570059156E-3    5.317423657807510E-2   -2.083194004222491E-3    5.252723251731349E-2   -5.378380683528765E-1    1.776785002884645E-2
 6.457855725400000E9    -5.819134366334320E-1   -9.494607475522067E-2   -4.572264175541537E-3    5.355862478899118E-2   -2.000537133834341E-3    5.281901295074058E-2   -5.375393271433757E-1    1.956890484993990E-2
 6.457867175500000E9    -5.820310238319953E-1   -9.383003192727533E-2   -4.763489693278443E-3    5.410785081623974E-2   -1.929296945023509E-3    5.322582549307384E-2   -5.374093451987372E-1    2.119818988948128E-2
 6.457878625600000E9    -5.821074535564101E-1   -9.268046169784097E-2   -4.500111587798250E-3    5.445155298689186E-2   -1.655318842095087E-3    5.363494069364893E-2   -5.375077257435547E-1    2.280393110984877E-2
 6.457890075700000E9    -5.823260364713476E-1   -9.161261485770741E-2   -4.338227800695075E-3    5.495858795143872E-2   -1.585889515513060E-3    5.411665937794661E-2   -5.372343515475817E-1    2.464279659547100E-2
 6.457901525800000E9    -5.824073509098788E-1   -9.046177530785782E-2   -4.280363328909754E-3    5.533532553732837E-2   -1.412841195449936E-3    5.454442884493380E-2   -5.370917231270018E-1    2.613313326496217E-2
 6.457912975900000E9    -5.825615276198808E-1   -8.939755152295822E-2   -4.045981001644185E-3    5.583954018904258E-2   -1.326657832978707E-3    5.496391541996857E-2   -5.370100558493105E-1    2.794375832722060E-2
 6.457924426000000E9    -5.825552222153516E-1   -8.832169988168588E-2   -3.875554897093004E-3    5.636737376514526E-2   -1.080413541487625E-3    5.544724211037209E-2   -5.367245958440205E-1    2.964367456106873E-2
 6.457935876100000E9    -5.827101429840877E-1   -8.724664813429656E-2   -3.764372323931569E-3    5.681574848405849E-2   -1.038743365352408E-3    5.585579616723475E-2   -5.366260431675307E-1    3.145903318089557E-2
 6.457947326200000E9    -5.827489189994808E-1   -8.603673679210765E-2   -3.845454438898655E-3    5.730972808227133E-2   -8.981495219060827E-4    5.634004588429587E-2   -5.364327053103615E-1    3.306998430501255E-2
 6.457958776300000E9    -5.829551395643459E-1   -8.486312015759653E-2   -3.625998654432346E-3    5.763677785157405E-2   -7.226179592289968E-4    5.692329769498290E-2   -5.361621814365986E-1    3.481387928488046E-2
 6.457970226400000E9    -5.829891243590747E-1   -8.368398874052133E-2   -3.502107128603944E-3    5.823143429257332E-2   -6.406482953445411E-4    5.731949179417607E-2   -5.361319351395964E-1    3.671440134753188E-2
 6.457981676500000E9    -5.829927779335188E-1   -8.256633425953167E-2   -3.277304130789269E-3    5.877483797111586E-2   -3.244712181800030E-4    5.773963373872495E-2   -5.358610568664127E-1    3.838028106749937E-2
 6.457993126600000E9    -5.830981890978369E-1   -8.140075035671100E-2   -3.154192155939990E-3    5.928199964917632E-2   -2.612447287251409E-4    5.837869582223802E-2   -5.357100377386533E-1    4.032000686370343E-2
 6.458004576700000E9    -5.833193196951130E-1   -8.033139859128451E-2   -2.891659331518613E-3    5.990759267307023E-2   -1.283393599761059E-5    5.886717274842074E-2   -5.353479656518505E-1    4.206438365652613E-2
 6.458016026800000E9    -5.832216918784489E-1   -7.920433182271291E-2   -2.686196627754768E-3    6.043313835960077E-2    1.425648185910572E-4    5.930462785869770E-2   -5.351553950519490E-1    4.388773953890331E-2
 6.458027476900000E9    -5.832947471663807E-1   -7.805504397345367E-2   -2.567914873603003E-3    6.080756969524293E-2    3.913673961832165E-4    5.993813109001957E-2   -5.348986730474529E-1    4.570440808027611E-2
 6.458038927000000E9    -5.833274509040195E-1   -7.693312123485882E-2   -2.393958788914943E-3    6.136063734766384E-2    6.853513332457052E-4    6.047020628234542E-2   -5.347162207848550E-1    4.758052460155145E-2
