#  HZ   S   RI   R     50.00 
! Rohde & Schwarz Vector Network Analyzer 
! Rohde-Schwarz,ZNB20-2Port,1311601062101988,3.16
! Created: UTC 3/20/2024, 11:16:57 PM
! freq[Hz]                re:S11                  im:S11                  re:S21                  im:S21                  re:S12                  im:S12                  re:S22                  im:S22
 6.457009265000000E9    -5.674347230426096E-1   -1.698314483107805E-1   -8.841577735271978E-3    3.250861861587550E-2   -7.040585410423694E-3    3.268975234447823E-2   -5.333485459900204E-1   -8.198415177311776E-2
 6.457020716350000E9    -5.676864149545007E-1   -1.687306615938487E-1   -8.815638521813428E-3    3.289104989736604E-2   -7.028324947273420E-3    3.277744095313607E-2   -5.336081718339881E-1   -8.068128949977958E-2
 6.457032167700000E9    -5.679714051535862E-1   -1.677570776231820E-1   -8.824235249390236E-3    3.294120355801088E-2   -6.940286478630518E-3    3.289182454312892E-2   -5.337385974435653E-1   -7.962520996505630E-2
 6.457043619050000E9    -5.683111892665935E-1   -1.668327757084831E-1   -8.731850596939660E-3    3.318118681852708E-2   -6.960433862012081E-3    3.317111643273563E-2   -5.338947914693150E-1   -7.831371111859527E-2
 6.457055070400000E9    -5.684503601525088E-1   -1.659151928836481E-1   -8.738406407536210E-3    3.329834374812488E-2   -6.934126372034684E-3    3.324965277345981E-2   -5.340076796896810E-1   -7.723116260024604E-2
 6.457066521750000E9    -5.686968890737604E-1   -1.649115133298041E-1   -8.684495715866245E-3    3.353803743818055E-2   -6.947296795047734E-3    3.349216503935318E-2   -5.341852056760924E-1   -7.593130920599275E-2
 6.457077973100000E9    -5.688997591743756E-1   -1.640136480447270E-1   -8.630384214022275E-3    3.369606577462658E-2   -6.829385728008931E-3    3.378627779514580E-2   -5.343675365227667E-1   -7.473656800238784E-2
 6.457089424450000E9    -5.691128856539157E-1   -1.631600378847934E-1   -8.580190412258128E-3    3.397182638461637E-2   -6.845838152646432E-3    3.391493623715024E-2   -5.345288366169788E-1   -7.350673701335748E-2
 6.457100875800000E9    -5.693857868967189E-1   -1.620795213152158E-1   -8.635473000680136E-3    3.402548314186510E-2   -6.843420867475877E-3    3.411291669501274E-2   -5.347919882789985E-1   -7.245851010626156E-2
 6.457112327150000E9    -5.696249770034876E-1   -1.611827619860871E-1   -8.680047386264400E-3    3.437796747948555E-2   -6.763749448758695E-3    3.435538781597700E-2   -5.348717861310587E-1   -7.135966953775627E-2
 6.457123778500000E9    -5.699122833554503E-1   -1.601404271991735E-1   -8.438749320164805E-3    3.463804020511842E-2   -6.691817884179601E-3    3.449546512356427E-2   -5.350738863949204E-1   -7.004982251320406E-2
 6.457135229850000E9    -5.701129967411188E-1   -1.593287807028604E-1   -8.459602946533732E-3    3.465862231186907E-2   -6.697513028004918E-3    3.481364765288010E-2   -5.352751263792149E-1   -6.861612309853407E-2
 6.457146681200000E9    -5.704874483896570E-1   -1.581361737219251E-1   -8.490710429997675E-3    3.487396640757007E-2   -6.616274578806131E-3    3.481810126767869E-2   -5.352075910242662E-1   -6.743109700671650E-2
 6.457158132550000E9    -5.706263770148571E-1   -1.573515515554764E-1   -8.429912173497436E-3    3.521955277040457E-2   -6.601651133774298E-3    3.504268959680202E-2   -5.355536326938385E-1   -6.621707966377524E-2
 6.457169583900000E9    -5.708781353353870E-1   -1.562943169473247E-1   -8.630110391045571E-3    3.540241084832720E-2   -6.609064913036138E-3    3.528833360611166E-2   -5.356476417667801E-1   -6.499684246753937E-2
 6.457181035250000E9    -5.711648993872465E-1   -1.553472068139010E-1   -8.403642341024618E-3    3.565408134594109E-2   -6.513777052373543E-3    3.555385413789533E-2   -5.357268710783840E-1   -6.390586550060486E-2
 6.457192486600000E9    -5.713763230199514E-1   -1.543381799326142E-1   -8.425726129326284E-3    3.579719853990798E-2   -6.450775158857144E-3    3.573228091957958E-2   -5.359181487928240E-1   -6.255646194484281E-2
 6.457203937950000E9    -5.716839776808514E-1   -1.533579256405286E-1   -8.343037324790911E-3    3.614781207126135E-2   -6.509318066989428E-3    3.583948147071674E-2   -5.360890398813828E-1   -6.143748361564546E-2
 6.457215389300000E9    -5.719824964089791E-1   -1.524978104349860E-1   -8.344887355506906E-3    3.639033528358987E-2   -6.398458322494994E-3    3.609173415055563E-2   -5.361941462203160E-1   -6.006572506723883E-2
 6.457226840650000E9    -5.720136970777366E-1   -1.515717688031034E-1   -8.320716151720626E-3    3.648207502681646E-2   -6.386145801153121E-3    3.634587704174909E-2   -5.361929151659961E-1   -5.879092864178358E-2
 6.457238292000000E9    -5.723087805072926E-1   -1.504375248922083E-1   -8.178680507705474E-3    3.672627259680552E-2   -6.265034710149501E-3    3.658558215624285E-2   -5.363573988767717E-1   -5.752598189846377E-2
 6.457249743350000E9    -5.725747833538668E-1   -1.495493508742004E-1   -8.149326301935518E-3    3.698467659772224E-2   -6.329734223067647E-3    3.675910783007901E-2   -5.364028206568059E-1   -5.640774812176130E-2
 6.457261194700000E9    -5.728374214272431E-1   -1.485169367724249E-1   -8.177953636004041E-3    3.712169598967004E-2   -6.253484970363373E-3    3.701419914683669E-2   -5.366657900600422E-1   -5.514777800888142E-2
 6.457272646050000E9    -5.730663413021155E-1   -1.475786696071937E-1   -8.083776108545594E-3    3.741584332480137E-2   -6.123213696754859E-3    3.723230569001838E-2   -5.367485993141966E-1   -5.359144491461540E-2
 6.457284097400000E9    -5.732475585986587E-1   -1.465531689123560E-1   -8.118796018989613E-3    3.761760753934645E-2   -6.140894995338307E-3    3.739775287189637E-2   -5.368141888235908E-1   -5.248239023466494E-2
 6.457295548750000E9    -5.734499083813762E-1   -1.455896126053960E-1   -8.075070687170244E-3    3.790417680972065E-2   -5.983195376616289E-3    3.759376384523730E-2   -5.369239694468523E-1   -5.124779328780571E-2
 6.457307000100000E9    -5.736018147120844E-1   -1.445832433700751E-1   -7.933079174880901E-3    3.805963388186460E-2   -5.972508088612036E-3    3.798558238918011E-2   -5.370676412297274E-1   -4.993154591785481E-2
 6.457318451450000E9    -5.739222657403956E-1   -1.436870084763520E-1   -7.978726759882213E-3    3.830246816541603E-2   -5.905001458463556E-3    3.816816807192429E-2   -5.372759194502177E-1   -4.854843025452615E-2
 6.457329902800000E9    -5.740175990643980E-1   -1.427007963992755E-1   -7.994234489371251E-3    3.861819233073556E-2   -5.868395576100915E-3    3.833104445681689E-2   -5.372968642541579E-1   -4.730011697518224E-2
 6.457341354150000E9    -5.743687805788111E-1   -1.416255230105505E-1   -7.962902411295611E-3    3.883697575269211E-2   -5.846503922662469E-3    3.855185796213714E-2   -5.375852070047616E-1   -4.609753739827485E-2
 6.457352805500000E9    -5.745630890259342E-1   -1.407240888930357E-1   -7.882827012553009E-3    3.906533067491530E-2   -5.744590721354383E-3    3.883510385213938E-2   -5.375865176730148E-1   -4.459759779533912E-2
 6.457364256850000E9    -5.748206067893163E-1   -1.397200715483752E-1   -7.937636917805800E-3    3.935434181401710E-2   -5.761015207160140E-3    3.913980705269067E-2   -5.376859862258180E-1   -4.342085989980671E-2
 6.457375708200000E9    -5.749851964426382E-1   -1.387548281102496E-1   -7.886103560437376E-3    3.955304449935754E-2   -5.591222843011109E-3    3.928760457180712E-2   -5.377789270298300E-1   -4.206288599216342E-2
 6.457387159550000E9    -5.752403696226190E-1   -1.377426921140399E-1   -7.673083928700176E-3    3.986624495149822E-2   -5.552417154239203E-3    3.953967272652651E-2   -5.378987744099492E-1   -4.087593510788819E-2
 6.457398610900000E9    -5.753396642435901E-1   -1.367540879381320E-1   -7.695693074154258E-3    4.012619372951465E-2   -5.545272971353436E-3    3.985743141718295E-2   -5.379800159077007E-1   -3.948925721932098E-2
 6.457410062250000E9    -5.755637184872510E-1   -1.356755584130622E-1   -7.602327187350366E-3    4.029341768654016E-2   -5.559617705553275E-3    4.016769225099157E-2   -5.379554471911061E-1   -3.811700983793108E-2
 6.457421513600000E9    -5.758469078708377E-1   -1.346557611257959E-1   -7.544392774981210E-3    4.061506352514804E-2   -5.328177753760859E-3    4.032530263845169E-2   -5.379840685262968E-1   -3.659752626054651E-2
 6.457432964950000E9    -5.760237014642980E-1   -1.337095778537846E-1   -7.558039060896966E-3    4.093701718339049E-2   -5.396863783140597E-3    4.063019464116665E-2   -5.379869427403414E-1   -3.547099667031567E-2
 6.457444416300000E9    -5.762765699793551E-1   -1.326464438056202E-1   -7.530622521777387E-3    4.124824977723827E-2   -5.326439705252618E-3    4.086295860422361E-2   -5.381716448678376E-1   -3.411158126447985E-2
 6.457455867650000E9    -5.764359993361898E-1   -1.316329653577497E-1   -7.460542235226960E-3    4.148826519796255E-2   -5.238616211918215E-3    4.115696980691732E-2   -5.382515905121055E-1   -3.254178320174783E-2
 6.457467319000000E9    -5.766270646686856E-1   -1.306477731638438E-1   -7.393423600992926E-3    4.176420180689974E-2   -5.142997459829652E-3    4.141533531737720E-2   -5.383109587628164E-1   -3.114915694990003E-2
 6.457478770350000E9    -5.767199792028820E-1   -1.296714192413793E-1   -7.346803773669111E-3    4.201660263782091E-2   -5.128095087695604E-3    4.161458985545010E-2   -5.383758359871713E-1   -2.997551439023284E-2
 6.457490221700000E9    -5.770188568018858E-1   -1.285606811890012E-1   -7.214113480334087E-3    4.229394315558112E-2   -5.083736019106703E-3    4.193829834067184E-2   -5.384992354647805E-1   -2.863159606787420E-2
 6.457501673050000E9    -5.770876889700159E-1   -1.275744074500088E-1   -7.283059522111220E-3    4.264616381148531E-2   -4.988254083941893E-3    4.222865959769741E-2   -5.383180329228311E-1   -2.718680180088386E-2
 6.457513124400000E9    -5.773572182269067E-1   -1.265650266978809E-1   -7.114404090666029E-3    4.299520186834833E-2   -4.847920773146185E-3    4.250225509065449E-2   -5.384493510482966E-1   -2.562621289653329E-2
 6.457524575750000E9    -5.775623701791689E-1   -1.256618806486831E-1   -7.124301875882998E-3    4.319176443876262E-2   -4.764041729827393E-3    4.280443994295022E-2   -5.384791824392539E-1   -2.435751648489192E-2
 6.457536027100000E9    -5.777833605462386E-1   -1.245370257807784E-1   -7.114364333849848E-3    4.347007954647424E-2   -4.817433485638349E-3    4.310468287085282E-2   -5.384272122776124E-1   -2.308513659594287E-2
 6.457547478450000E9    -5.779158666475191E-1   -1.234476693183498E-1   -6.988058012670437E-3    4.371508080148659E-2   -4.764167069078143E-3    4.340629254793223E-2   -5.386029645959428E-1   -2.168894321213342E-2
 6.457558929800000E9    -5.780113975130009E-1   -1.223967614490708E-1   -6.862904087282229E-3    4.418561084633803E-2   -4.620170258287982E-3    4.365649237498472E-2   -5.385769650596403E-1   -2.022337002218118E-2
 6.457570381150000E9    -5.782869064730571E-1   -1.214193723672357E-1   -6.840893442477664E-3    4.442575420656213E-2   -4.622341045954823E-3    4.404231576585070E-2   -5.387620119071084E-1   -1.875723119665409E-2
 6.457581832500000E9    -5.784747293919659E-1   -1.203443859399483E-1   -6.820887102137116E-3    4.459895572914273E-2   -4.490690268034778E-3    4.425374027717507E-2   -5.387423809372111E-1   -1.735126854169005E-2
 6.457593283850000E9    -5.786268075048818E-1   -1.193207442749955E-1   -6.695643185214106E-3    4.500445996678846E-2   -4.427636532543984E-3    4.459797213182446E-2   -5.387721948870844E-1   -1.593015077470778E-2
 6.457604735200000E9    -5.788390795953712E-1   -1.182657688542256E-1   -6.697970757807911E-3    4.526515050528016E-2   -4.289464745267102E-3    4.486070576796537E-2   -5.387155294219802E-1   -1.447010710508978E-2
 6.457616186550000E9    -5.789788035709263E-1   -1.172720716788970E-1   -6.604755186399565E-3    4.572392610956742E-2   -4.320252352406869E-3    4.517549675950325E-2   -5.387259354373068E-1   -1.296775600379749E-2
 6.457627637900000E9    -5.790667313266916E-1   -1.163247874465713E-1   -6.450226207073149E-3    4.593582115972468E-2   -4.159688724800170E-3    4.554423866274137E-2   -5.386389491981156E-1   -1.156413411929299E-2
 6.457639089250000E9    -5.793448483168439E-1   -1.152072960395681E-1   -6.442550111884096E-3    4.619991780620430E-2   -4.108192054637408E-3    4.587248689951205E-2   -5.387564417512717E-1   -1.004939110107331E-2
 6.457650540600000E9    -5.794653331961992E-1   -1.141866279798679E-1   -6.369360162506108E-3    4.661537794283706E-2   -4.046593560085081E-3    4.618399085249373E-2   -5.387066514840939E-1   -8.643096118857886E-3
 6.457661991950000E9    -5.796183521188458E-1   -1.131664601926428E-1   -6.326237270958687E-3    4.694968116068127E-2   -3.902537260899241E-3    4.652881418902394E-2   -5.385582399808926E-1   -7.149971407181626E-3
 6.457673443300000E9    -5.797818168187147E-1   -1.121556861142628E-1   -6.224391563107399E-3    4.731753643132797E-2   -3.876135191138799E-3    4.685831814650492E-2   -5.386856360220884E-1   -5.452338459314369E-3
 6.457684894650000E9    -5.799380905103100E-1   -1.110161241858714E-1   -6.258221417760399E-3    4.750838599130759E-2   -3.717025903350102E-3    4.717249346931335E-2   -5.386436953659692E-1   -4.010081707157499E-3
 6.457696346000000E9    -5.801113117786343E-1   -1.099133601062022E-1   -6.073110792639708E-3    4.803970096774766E-2   -3.634246416753720E-3    4.748950184357070E-2   -5.385529194376880E-1   -2.500648964482111E-3
 6.457707797350000E9    -5.802486115277332E-1   -1.088835396608931E-1   -5.885873246684649E-3    4.833151999480945E-2   -3.521588765722868E-3    4.781834899564408E-2   -5.386647690137133E-1   -9.786026267467822E-4
 6.457719248700000E9    -5.803497573688045E-1   -1.077379533121833E-1   -5.913242258828666E-3    4.880079340322555E-2   -3.378386618789305E-3    4.820455985316682E-2   -5.386666104074436E-1    2.921700518735605E-4
 6.457730700050000E9    -5.806060668840346E-1   -1.067900401517138E-1   -5.781519268295917E-3    4.911463867966231E-2   -3.371924526839226E-3    4.854387145435939E-2   -5.385126441941912E-1    1.995516482866850E-3
 6.457742151400000E9    -5.807029253608587E-1   -1.056462903307594E-1   -5.951412935935852E-3    4.953054838351399E-2   -3.191065023965686E-3    4.894223176051007E-2   -5.385157161283166E-1    3.535723793265059E-3
 6.457753602750000E9    -5.807603140955401E-1   -1.045922729800597E-1   -5.565443024188084E-3    4.983493884772026E-2   -3.111348468969161E-3    4.928738487830663E-2   -5.383678666918316E-1    5.022428868649483E-3
 6.457765054100000E9    -5.808642081800367E-1   -1.034771228825677E-1   -5.561326655258475E-3    5.011877817026028E-2   -3.008052141156409E-3    4.969961465442558E-2   -5.384517057704156E-1    6.785060663952806E-3
 6.457776505450000E9    -5.810777245566237E-1   -1.024832162806028E-1   -5.473533064673579E-3    5.082328409964405E-2   -2.805140820614178E-3    5.002752041245905E-2   -5.382977014416634E-1    8.329001454401254E-3
 6.457787956800000E9    -5.813455586509360E-1   -1.014624112570386E-1   -5.339985475341032E-3    5.114014657452761E-2   -2.780251298734076E-3    5.049334307419222E-2   -5.382211399450455E-1    9.903863918973877E-3
 6.457799408150000E9    -5.813508783449662E-1   -1.004969530563066E-1   -5.332885062137452E-3    5.144696005392592E-2   -2.626796693587452E-3    5.079344148135655E-2   -5.381639700064076E-1    1.134942683935863E-2
 6.457810859500000E9    -5.815171944363037E-1   -9.922789781479778E-2   -5.046524028796588E-3    5.189119428159723E-2   -2.477197275986012E-3    5.115201072263238E-2   -5.380867719530671E-1    1.314811429273171E-2
 6.457822310850000E9    -5.816135010927392E-1   -9.819545479851230E-2   -5.032595670150755E-3    5.230569525656124E-2   -2.436801541099226E-3    5.165968660206252E-2   -5.379809735083857E-1    1.469787260857477E-2
 6.457833762200000E9    -5.817714025411160E-1   -9.702134141707412E-2   -4.993213958129138E-3    5.275010984170438E-2   -2.255330809253479E-3    5.206348032164187E-2   -5.379846902122265E-1    1.622895701745779E-2
 6.457845213550000E9    -5.818249957406382E-1   -9.604898510169312E-2   -4.813485328033221E-3    5.317177961754756E-2   -2.137277964902965E-3    5.238172594450640E-2   -5.377899628144450E-1    1.790174501854430E-2
 6.457856664900000E9    -5.819523254092859E-1   -9.481841432415064E-2   -4.654258343745105E-3    5.339480718120822E-2   -1.995628330163546E-3    5.283426267094575E-2   -5.376423857220677E-1    1.961173161949971E-2
 6.457868116250000E9    -5.819886097152885E-1   -9.371019945573743E-2   -4.744735164323323E-3    5.394755449996300E-2   -1.948331102603247E-3    5.332634018151910E-2   -5.374063777415206E-1    2.110832464564219E-2
 6.457879567600000E9    -5.822313202022225E-1   -9.272009125919357E-2   -4.477944872432632E-3    5.445729809702337E-2   -1.810229448715496E-3    5.373557011316859E-2   -5.372599005183484E-1    2.284608494508027E-2
 6.457891018950000E9    -5.822921702009783E-1   -9.160754407615164E-2   -4.341185978825711E-3    5.501953331442894E-2   -1.630895679966356E-3    5.411356728280559E-2   -5.372350644692818E-1    2.459629036919774E-2
 6.457902470300000E9    -5.824070458108290E-1   -9.051159075686548E-2   -4.190811987439370E-3    5.536222520203661E-2   -1.528619430018315E-3    5.456834457729066E-2   -5.371498211485930E-1    2.632488446770422E-2
 6.457913921650000E9    -5.825998283686681E-1   -8.935339405305104E-2   -4.079233546226795E-3    5.571878605501432E-2   -1.346705755828932E-3    5.502337016779274E-2   -5.369967296459390E-1    2.795506534624674E-2
 6.457925373000000E9    -5.824837919106697E-1   -8.824536220467728E-2   -4.113412336153419E-3    5.632326318503067E-2   -1.174628328419285E-3    5.548972975283801E-2   -5.367246371703713E-1    2.967354754159121E-2
 6.457936824350000E9    -5.826376125509994E-1   -8.704991269958996E-2   -3.804440867054578E-3    5.688852054691217E-2   -1.074048490150075E-3    5.600232714668303E-2   -5.366174776662460E-1    3.147551202504910E-2
 6.457948275700000E9    -5.828081553069558E-1   -8.595932012172379E-2   -3.654352774380464E-3    5.739168079984117E-2   -8.514561494127097E-4    5.636467652775103E-2   -5.364209485461584E-1    3.322219571108305E-2
 6.457959727050000E9    -5.828035950860768E-1   -8.480050667242242E-2   -3.456059232568174E-3    5.778257439637049E-2   -6.303701523984785E-4    5.694662680101073E-2   -5.361826394072400E-1    3.498141999459006E-2
 6.457971178400000E9    -5.829615209918334E-1   -8.354744420739699E-2   -3.484448243604012E-3    5.839288557704337E-2   -5.130857538046331E-4    5.730599504471439E-2   -5.360123422491596E-1    3.672054515614399E-2
 6.457982629750000E9    -5.830145575935416E-1   -8.253272261536175E-2   -3.170893521150740E-3    5.873496079531924E-2   -3.334345781306595E-4    5.778252553305680E-2   -5.359249981429181E-1    3.854466989543016E-2
 6.457994081100000E9    -5.831492235657492E-1   -8.137568726353474E-2   -3.091404403152448E-3    5.929499877514475E-2   -1.392878859993591E-4    5.833077415948338E-2   -5.355579226179976E-1    4.023512231362487E-2
 6.458005532450000E9    -5.831312748376895E-1   -8.029413741345029E-2   -3.002527204747714E-3    5.974963342150923E-2   -4.199359077949152E-5    5.890218162493828E-2   -5.354849280234196E-1    4.215450540464203E-2
 6.458016983800000E9    -5.832273983402013E-1   -7.903630439900795E-2   -2.664325461081933E-3    6.045141623586878E-2    1.581524055188102E-4    5.930714620205977E-2   -5.351516658974387E-1    4.402011106774885E-2
 6.458028435150000E9    -5.833229822230761E-1   -7.799540699442681E-2   -2.478702687572457E-3    6.100472922908300E-2    3.894452433542881E-4    5.989826061030296E-2   -5.348752257085659E-1    4.595197000710029E-2
 6.458039886500000E9    -5.834438104827869E-1   -7.686962745132385E-2   -2.411652619902881E-3    6.149679285954041E-2    5.477539367513944E-4    6.036511987464126E-2   -5.347260325097802E-1    4.761571720946296E-2
