#  HZ   S   RI   R     50.00 
! Rohde & Schwarz Vector Network Analyzer 
! Rohde-Schwarz,ZNB20-2Port,1311601062101988,3.16
! Created: UTC 3/20/2024, 11:17:12 PM
! freq[Hz]                re:S11                  im:S11                  re:S21                  im:S21                  re:S12                  im:S12                  re:S22                  im:S22
 6.457014942000000E9    -5.675556934435062E-1   -1.693171178809835E-1   -8.787097147272719E-3    3.268475419433527E-2   -7.006586328857276E-3    3.265628608509810E-2   -5.336412879061007E-1   -8.145357195960244E-2
 6.457026372625000E9    -5.677335503591502E-1   -1.683206915729639E-1   -8.712654626071396E-3    3.293895534390762E-2   -7.012665863428754E-3    3.279246818149056E-2   -5.336427997094083E-1   -8.017131906145770E-2
 6.457037803250000E9    -5.679327801197227E-1   -1.673585163870095E-1   -8.714393439754857E-3    3.298479269557836E-2   -6.971879336112936E-3    3.306809414193326E-2   -5.339123174280392E-1   -7.898716346376074E-2
 6.457049233875000E9    -5.682734355192623E-1   -1.664995954039992E-1   -8.753916683824012E-3    3.332947144914977E-2   -6.853858171420740E-3    3.321719195271002E-2   -5.340978281338166E-1   -7.781359114815792E-2
 6.457060664500000E9    -5.684301804440565E-1   -1.655513669900706E-1   -8.645820081099145E-3    3.343148161752600E-2   -6.923814397869955E-3    3.343311885136339E-2   -5.342729532313170E-1   -7.664129117801326E-2
 6.457072095125000E9    -5.686936918050968E-1   -1.646875528578804E-1   -8.640591725098993E-3    3.361436362803189E-2   -6.771148074985919E-3    3.368038611926620E-2   -5.345669631283370E-1   -7.537792793610738E-2
 6.457083525750000E9    -5.690594697099867E-1   -1.636826450814418E-1   -8.596134741319050E-3    3.384671043989648E-2   -6.877985802752188E-3    3.379911933147867E-2   -5.344973600251517E-1   -7.431685874739213E-2
 6.457094956375000E9    -5.692822256170074E-1   -1.626527274872102E-1   -8.537732922736394E-3    3.407339453415065E-2   -6.786340963234012E-3    3.404518661981037E-2   -5.346764702850734E-1   -7.299407993480014E-2
 6.457106387000000E9    -5.694142404945540E-1   -1.616368297502347E-1   -8.588477422195689E-3    3.439502974013656E-2   -6.747234130631677E-3    3.417623478897380E-2   -5.348854083453610E-1   -7.172789668793687E-2
 6.457117817625000E9    -5.697144690464432E-1   -1.607114478673705E-1   -8.555041843369970E-3    3.443930874606128E-2   -6.767593068560392E-3    3.430201043593240E-2   -5.349561848212451E-1   -7.061062817911712E-2
 6.457129248250000E9    -5.700203981021070E-1   -1.596973336644991E-1   -8.488572030045207E-3    3.468560111701771E-2   -6.639587957439935E-3    3.457681933044752E-2   -5.353129803099793E-1   -6.950847266016884E-2
 6.457140678875000E9    -5.702773979203071E-1   -1.587871077801049E-1   -8.531163552974152E-3    3.479947207147926E-2   -6.644553402793293E-3    3.480342007428312E-2   -5.352625528656551E-1   -6.818430900573887E-2
 6.457152109500000E9    -5.704527987043648E-1   -1.579124979202818E-1   -8.505240636183966E-3    3.517165259046195E-2   -6.643128890565505E-3    3.492925900286693E-2   -5.354991244699390E-1   -6.699021345449814E-2
 6.457163540125000E9    -5.707530520158822E-1   -1.568940252939331E-1   -8.458918881332258E-3    3.526115878176656E-2   -6.600679400335271E-3    3.515682496586211E-2   -5.357240373476918E-1   -6.559012540934708E-2
 6.457174970750000E9    -5.711001678137517E-1   -1.559346351715297E-1   -8.448884104373149E-3    3.541392603326270E-2   -6.594209110289590E-3    3.537373567070572E-2   -5.356698280726865E-1   -6.452683122821111E-2
 6.457186401375000E9    -5.711736471719534E-1   -1.549747252246170E-1   -8.451572169909950E-3    3.575822949019659E-2   -6.526560527738333E-3    3.554528792441689E-2   -5.358900603912694E-1   -6.328735528047459E-2
 6.457197832000000E9    -5.714665731955587E-1   -1.539861827258202E-1   -8.350027766549412E-3    3.586506011124926E-2   -6.484926086075852E-3    3.584693987540306E-2   -5.360705486619135E-1   -6.198901591528230E-2
 6.457209262625000E9    -5.717047370896056E-1   -1.529464418332974E-1   -8.355300531574598E-3    3.616201479655004E-2   -6.326473835210285E-3    3.598422413030352E-2   -5.361907097573803E-1   -6.083123228087681E-2
 6.457220693250000E9    -5.719976195324630E-1   -1.520691044390966E-1   -8.342850621754543E-3    3.632967490647897E-2   -6.388757661646391E-3    3.621008246039076E-2   -5.362889016016842E-1   -5.935778388695324E-2
 6.457232123875000E9    -5.722694483372727E-1   -1.511153331805482E-1   -8.257270123782889E-3    3.653021621496417E-2   -6.203737579231337E-3    3.640527339125840E-2   -5.364389983651958E-1   -5.821598359992067E-2
 6.457243554500000E9    -5.724983821639638E-1   -1.500128742524183E-1   -8.120387339677015E-3    3.679964764661825E-2   -6.205923556265919E-3    3.658832034242445E-2   -5.364982667934811E-1   -5.692465901840822E-2
 6.457254985125000E9    -5.727734952966733E-1   -1.491444975526576E-1   -8.164962003101359E-3    3.699345963479413E-2   -6.210540771647170E-3    3.691719460359811E-2   -5.365911462235151E-1   -5.576644862369470E-2
 6.457266415750000E9    -5.728263062287379E-1   -1.482490506000969E-1   -8.113434525276837E-3    3.731904424957878E-2   -6.164902348625516E-3    3.710188039850504E-2   -5.367624675722229E-1   -5.444160202169728E-2
 6.457277846375000E9    -5.731534928169590E-1   -1.471866311306970E-1   -8.084338911997464E-3    3.747653073425968E-2   -6.150896954402547E-3    3.727809349969103E-2   -5.368896290676446E-1   -5.310877077092543E-2
 6.457289277000000E9    -5.733498570233129E-1   -1.462342028080237E-1   -8.086828608303226E-3    3.774618986507645E-2   -6.123307889049140E-3    3.757365958709583E-2   -5.369540687182907E-1   -5.192832023562889E-2
 6.457300707625000E9    -5.734523277317094E-1   -1.452653904294912E-1   -8.045280414810506E-3    3.789780591122875E-2   -6.036234944370051E-3    3.780581135227019E-2   -5.371795461319362E-1   -5.066716463794112E-2
 6.457312138250000E9    -5.737846839081522E-1   -1.441926165078347E-1   -8.045422314045418E-3    3.812540829428186E-2   -5.976705678191484E-3    3.789945898242034E-2   -5.372884711702384E-1   -4.931022761564712E-2
 6.457323568875000E9    -5.738841798873759E-1   -1.432715056708306E-1   -7.989708083213441E-3    3.840561823132991E-2   -5.947641377089950E-3    3.824706842438244E-2   -5.373049301060100E-1   -4.814362416761046E-2
 6.457334999500000E9    -5.742094808331164E-1   -1.423463645331016E-1   -7.997386452865298E-3    3.863698122405632E-2   -5.754787360067195E-3    3.845914082915351E-2   -5.375067992601062E-1   -4.680051378783862E-2
 6.457346430125000E9    -5.744173228738559E-1   -1.412448357418770E-1   -7.845515973978368E-3    3.900401083120422E-2   -5.844851846269010E-3    3.868039391413465E-2   -5.375178928601372E-1   -4.552107670263649E-2
 6.457357860750000E9    -5.746095103885973E-1   -1.401961590454369E-1   -7.743547001982379E-3    3.910537225658543E-2   -5.706460641521491E-3    3.883443512722533E-2   -5.375309631244569E-1   -4.415232634683216E-2
 6.457369291375000E9    -5.748343381925668E-1   -1.393221420110352E-1   -7.823189186581300E-3    3.941720425932729E-2   -5.778241537175154E-3    3.924846146079460E-2   -5.376148796008245E-1   -4.283329112136720E-2
 6.457380722000000E9    -5.750037051591531E-1   -1.382998488483257E-1   -7.736733405005144E-3    3.963848750379707E-2   -5.734659525263892E-3    3.942847271648929E-2   -5.377401775936860E-1   -4.163272251310984E-2
 6.457392152625000E9    -5.752472187802796E-1   -1.372736652587667E-1   -7.735686799548931E-3    4.000837123512496E-2   -5.565501538163407E-3    3.979954614064668E-2   -5.379115996634287E-1   -4.021711940374853E-2
 6.457403583250000E9    -5.754699013994935E-1   -1.361813531679625E-1   -7.659581432826920E-3    4.014836279854100E-2   -5.551473876161162E-3    3.991004380994466E-2   -5.379141193318371E-1   -3.894258689907568E-2
 6.457415013875000E9    -5.757152159756639E-1   -1.352853231385338E-1   -7.674284428442342E-3    4.043599698973461E-2   -5.570608276177248E-3    4.017578232495672E-2   -5.379826248218822E-1   -3.747729571696027E-2
 6.457426444500000E9    -5.759271930108312E-1   -1.342511308976298E-1   -7.684896728022345E-3    4.073924536582877E-2   -5.417315451958106E-3    4.039350943799786E-2   -5.381598768510033E-1   -3.608218968935693E-2
 6.457437875125000E9    -5.760299929374308E-1   -1.332501148454214E-1   -7.667052267574239E-3    4.095072892384605E-2   -5.385702655627740E-3    4.070629559321673E-2   -5.380358340522676E-1   -3.480401101098934E-2
 6.457449305750000E9    -5.762419643050628E-1   -1.322874030531375E-1   -7.437483424481885E-3    4.128622679071230E-2   -5.287503426744360E-3    4.095539015154376E-2   -5.382184888798188E-1   -3.357577793251629E-2
 6.457460736375000E9    -5.764101797520601E-1   -1.312607468853248E-1   -7.387351646654964E-3    4.139536167452131E-2   -5.230547135168504E-3    4.132026221648186E-2   -5.383963208626842E-1   -3.208904303254346E-2
 6.457472167000000E9    -5.767027755421799E-1   -1.303404204476346E-1   -7.372272118652511E-3    4.176616927688585E-2   -5.154269712746121E-3    4.148612091964619E-2   -5.384729600889588E-1   -3.091372611800693E-2
 6.457483597625000E9    -5.768376804191687E-1   -1.291308153836176E-1   -7.375632969136358E-3    4.213936538415011E-2   -5.072421888098225E-3    4.176325174987707E-2   -5.384592631542822E-1   -2.949513220875483E-2
 6.457495028250000E9    -5.769875756541089E-1   -1.282335276541874E-1   -7.103107314088486E-3    4.243703486106593E-2   -5.013436165859303E-3    4.208326914668921E-2   -5.385455728121690E-1   -2.814425085901713E-2
 6.457506458875000E9    -5.773083604569351E-1   -1.272118052474170E-1   -7.199465045918614E-3    4.264248128125786E-2   -4.985621166454932E-3    4.234604694520945E-2   -5.385162346999041E-1   -2.669441667700398E-2
 6.457517889500000E9    -5.774916333694250E-1   -1.262446888999166E-1   -7.203318874314328E-3    4.300559151041548E-2   -4.884343371945602E-3    4.263644763626958E-2   -5.387120959237536E-1   -2.523010096897432E-2
 6.457529320125000E9    -5.776142235004323E-1   -1.252373479632304E-1   -7.144268854524099E-3    4.335304980843134E-2   -4.809088932321666E-3    4.291599222723150E-2   -5.386474144610567E-1   -2.376907611196555E-2
 6.457540750750000E9    -5.777929228535780E-1   -1.242465758504938E-1   -7.048576463705015E-3    4.364847188748767E-2   -4.844899028760178E-3    4.324061356226191E-2   -5.387129371928193E-1   -2.246543276444764E-2
 6.457552181375000E9    -5.779252974084065E-1   -1.230990136040558E-1   -7.011461512733790E-3    4.387471451776121E-2   -4.681390221721120E-3    4.344701181807603E-2   -5.386648678539866E-1   -2.097771187378551E-2
 6.457563612000000E9    -5.780695880606770E-1   -1.221116804650862E-1   -6.946172074876861E-3    4.404978207902421E-2   -4.555869056177600E-3    4.372130409969101E-2   -5.386767717181125E-1   -1.973740602646281E-2
 6.457575042625000E9    -5.783164870484202E-1   -1.210298901151122E-1   -6.841271430820226E-3    4.452456182445064E-2   -4.567433661117783E-3    4.403370149846539E-2   -5.387647735423109E-1   -1.811034952600107E-2
 6.457586473250000E9    -5.785616632869404E-1   -1.199830484118211E-1   -6.785163040969904E-3    4.477114185693125E-2   -4.448124415314810E-3    4.446049130456468E-2   -5.387256229845117E-1   -1.673041646131211E-2
 6.457597903875000E9    -5.787388816755534E-1   -1.190260914553855E-1   -6.627139777579073E-3    4.503332346372714E-2   -4.262851498300247E-3    4.465581302581136E-2   -5.388272988683238E-1   -1.527899869576192E-2
 6.457609334500000E9    -5.788239928258163E-1   -1.180684395315614E-1   -6.711699855301573E-3    4.550574786759650E-2   -4.275181471005432E-3    4.499144726839609E-2   -5.388292074015769E-1   -1.395224839987478E-2
 6.457620765125000E9    -5.790789451737846E-1   -1.168770449215503E-1   -6.617749622275748E-3    4.564057783328423E-2   -4.224369103296836E-3    4.528832961691834E-2   -5.388619138818985E-1   -1.244114641450830E-2
 6.457632195750000E9    -5.791948790469206E-1   -1.159864736510886E-1   -6.571367691296771E-3    4.603560775144602E-2   -4.011078566518081E-3    4.561992110936685E-2   -5.388746374249014E-1   -1.106109772560022E-2
 6.457643626375000E9    -5.793719534121134E-1   -1.148244684699053E-1   -6.415420242781188E-3    4.639123173333438E-2   -4.050468745160888E-3    4.597110477883502E-2   -5.387792995479156E-1   -9.515217875013041E-3
 6.457655057000000E9    -5.795428170997752E-1   -1.138091212692094E-1   -6.328773886660882E-3    4.676328001357644E-2   -3.916644504746988E-3    4.629974445329992E-2   -5.389003090775780E-1   -7.989065490854355E-3
 6.457666487625000E9    -5.795806872193142E-1   -1.127337868263014E-1   -6.273716019248425E-3    4.694290937507088E-2   -3.832881313081344E-3    4.653210568626179E-2   -5.386825447481677E-1   -6.546248589678168E-3
 6.457677918250000E9    -5.798879306790145E-1   -1.117783430984819E-1   -6.318112396174362E-3    4.746517590674366E-2   -3.732950562057998E-3    4.686710723510381E-2   -5.387919890241731E-1   -4.953033093101742E-3
 6.457689348875000E9    -5.799299122998497E-1   -1.106265993688838E-1   -6.147102931147052E-3    4.766313690192726E-2   -3.672855663170620E-3    4.728938220539673E-2   -5.386798672480270E-1   -3.527694868601583E-3
 6.457700779500000E9    -5.801251261996118E-1   -1.096625518543214E-1   -6.042985727353027E-3    4.821970222598345E-2   -3.608660381867355E-3    4.770040199550303E-2   -5.386741773215439E-1   -2.149991256249944E-3
 6.457712210125000E9    -5.802795074411112E-1   -1.085671302602168E-1   -5.876204613258548E-3    4.840538202965569E-2   -3.487931015365993E-3    4.797308727394253E-2   -5.387298150398919E-1   -5.654629410336637E-4
 6.457723640750000E9    -5.804113589117106E-1   -1.075688122333548E-1   -5.923719480443989E-3    4.884784199027901E-2   -3.357378461713594E-3    4.828223880903227E-2   -5.385841820957761E-1    1.103951628967079E-3
 6.457735071375000E9    -5.805298054265803E-1   -1.064033443139443E-1   -5.750268577250435E-3    4.921019639574085E-2   -3.320575047393183E-3    4.864383227788179E-2   -5.385401508526281E-1    2.567300743850665E-3
 6.457746502000000E9    -5.808059580260011E-1   -1.054545287561339E-1   -5.682797912894268E-3    4.959222335986676E-2   -3.260934880176460E-3    4.895585229776478E-2   -5.385284834229954E-1    4.064377443796210E-3
 6.457757932625000E9    -5.807810503536949E-1   -1.043370079538539E-1   -5.657092899395543E-3    5.004832478518095E-2   -3.039495822729933E-3    4.938801390486464E-2   -5.385055269624913E-1    5.607096590111734E-3
 6.457769363250000E9    -5.809836585466549E-1   -1.032515870163255E-1   -5.561058684261285E-3    5.033751614784644E-2   -2.978575991062380E-3    4.976866319626490E-2   -5.384942933054918E-1    7.257049787672491E-3
 6.457780793875000E9    -5.810838263528716E-1   -1.021201753518019E-1   -5.390665428542636E-3    5.078816021519079E-2   -2.815736554839004E-3    5.004978741588097E-2   -5.383104747340131E-1    8.682252120452892E-3
 6.457792224500000E9    -5.812565327626578E-1   -1.010898885532887E-1   -5.364630416275171E-3    5.107691847930374E-2   -2.742962850465132E-3    5.054206518700343E-2   -5.381699060047589E-1    1.034016221934502E-2
 6.457803655125000E9    -5.814315265835182E-1   -9.999636000027307E-2   -5.065747752762886E-3    5.171355577062400E-2   -2.615069830714364E-3    5.098394066636978E-2   -5.380811874340803E-1    1.203007720189648E-2
 6.457815085750000E9    -5.814874472860097E-1   -9.896465575455324E-2   -5.055792573030875E-3    5.193048382434476E-2   -2.413486650650974E-3    5.136619651150465E-2   -5.380833477692005E-1    1.355283682896384E-2
 6.457826516375000E9    -5.817252785694156E-1   -9.784296138729208E-2   -4.977585537089117E-3    5.248091923599954E-2   -2.406647089844755E-3    5.170866187513118E-2   -5.379191243161674E-1    1.516638903436100E-2
 6.457837947000000E9    -5.817119478347612E-1   -9.679669446872326E-2   -4.758812991497354E-3    5.281650902135364E-2   -2.242569117633693E-3    5.215163765597053E-2   -5.379357117337538E-1    1.682153573079853E-2
 6.457849377625000E9    -5.818547269518562E-1   -9.552502556760313E-2   -4.709695824399667E-3    5.327882146119339E-2   -2.036618252373769E-3    5.247744209727413E-2   -5.379679620706174E-1    1.847679121598310E-2
 6.457860808250000E9    -5.820850267351723E-1   -9.459134857237951E-2   -4.798177991458114E-3    5.378171751914005E-2   -1.972588721526529E-3    5.294033130454232E-2   -5.377338889147362E-1    2.009529959957058E-2
 6.457872238875000E9    -5.820975423137861E-1   -9.349796638150930E-2   -4.515143483068749E-3    5.411498837506037E-2   -1.869853760132288E-3    5.332533861566358E-2   -5.375813773650830E-1    2.172255890625021E-2
 6.457883669500000E9    -5.822050497457434E-1   -9.238340534067857E-2   -4.402241843054240E-3    5.448442089094508E-2   -1.718717168516756E-3    5.376453179079532E-2   -5.373831041292352E-1    2.334569605122046E-2
 6.457895100125000E9    -5.823976973354740E-1   -9.117665339954503E-2   -4.212660769574926E-3    5.502923999052437E-2   -1.637824773912335E-3    5.413866117559425E-2   -5.372912495146631E-1    2.524805412482042E-2
 6.457906530750000E9    -5.823896851519973E-1   -9.011789682437954E-2   -4.149299692653079E-3    5.559457496529951E-2   -1.475583374900115E-3    5.463706480414163E-2   -5.370417575008165E-1    2.678265655799774E-2
 6.457917961375000E9    -5.826199282301905E-1   -8.899516965262545E-2   -3.990325417827895E-3    5.604633424866423E-2   -1.305615217581596E-3    5.520196212677723E-2   -5.369937702344826E-1    2.852544486235774E-2
 6.457929392000000E9    -5.826566208271552E-1   -8.782805348460548E-2   -3.883356385533644E-3    5.626737649015071E-2   -1.147577291578992E-3    5.555774789411608E-2   -5.369660590545225E-1    3.020488386719879E-2
 6.457940822625000E9    -5.827341296895727E-1   -8.672367345243827E-2   -3.752805247085754E-3    5.680483201522969E-2   -1.015363729493844E-3    5.606286480879195E-2   -5.366542925431314E-1    3.198620570028635E-2
 6.457952253250000E9    -5.827747644681186E-1   -8.563071270543082E-2   -3.454062757686361E-3    5.742837022780332E-2   -7.579246447435191E-4    5.651775344611549E-2   -5.365401147840805E-1    3.373486463290411E-2
 6.457963683875000E9    -5.828846039359606E-1   -8.449079875734665E-2   -3.450838508383083E-3    5.792768378854380E-2   -5.650729540156715E-4    5.700863681697305E-2   -5.363793643832843E-1    3.550048170850158E-2
 6.457975114500000E9    -5.830384584525832E-1   -8.341447515717436E-2   -3.391968050396349E-3    5.842848402965550E-2   -5.495549797429398E-4    5.747539693971038E-2   -5.360322492839811E-1    3.731629447298489E-2
 6.457986545125000E9    -5.830272511707471E-1   -8.225054622483091E-2   -3.126152954709897E-3    5.881917271625900E-2   -2.817014118443786E-4    5.787058878010559E-2   -5.358351736882204E-1    3.899188808839869E-2
 6.457997975750000E9    -5.830798395419271E-1   -8.102374975526941E-2   -2.997604733635257E-3    5.957446070008190E-2   -1.144245313925245E-4    5.844062210555850E-2   -5.357244037780763E-1    4.092049033285843E-2
 6.458009406375000E9    -5.831858212595247E-1   -7.994743379865310E-2   -2.781434490972091E-3    5.998448616084542E-2    5.224594162734213E-5    5.893483199124576E-2   -5.354145202574256E-1    4.262322867111334E-2
 6.458020837000000E9    -5.833013338023029E-1   -7.883481775774671E-2   -2.674795809862053E-3    6.050653811389869E-2    1.834540253003388E-4    5.942704051465435E-2   -5.352297857627222E-1    4.442657666386800E-2
 6.458032267625000E9    -5.833435463355765E-1   -7.765205723404055E-2   -2.489772631951834E-3    6.104234687038500E-2    3.905486360581660E-4    6.008403769298713E-2   -5.350039021913540E-1    4.647479924449935E-2
 6.458043698250000E9    -5.834026191922002E-1   -7.646493865591529E-2   -2.371090981769425E-3    6.158015320059022E-2    6.114458374559544E-4    6.047181711949526E-2   -5.346622415892024E-1    4.823691042335274E-2
