#  HZ   S   RI   R     50.00 
! Rohde & Schwarz Vector Network Analyzer 
! Rohde-Schwarz,ZNB20-2Port,1311601062101988,3.16
! Created: UTC 3/20/2024, 11:17:55 PM
! freq[Hz]                re:S11                  im:S11                  re:S21                  im:S21                  re:S12                  im:S12                  re:S22                  im:S22
 6.457023268000000E9    -5.676584095237867E-1   -1.686425743864013E-1   -8.789081748388272E-3    3.285970001604678E-2   -6.979046478768110E-3    3.275603845382664E-2   -5.337377234048989E-1   -8.062949645063371E-2
 6.457034680525000E9    -5.678940908035784E-1   -1.677250849942726E-1   -8.845522739225809E-3    3.297781863190424E-2   -6.979054524492301E-3    3.290670215545438E-2   -5.340225075674692E-1   -7.921261808497108E-2
 6.457046093050000E9    -5.681305372660513E-1   -1.667284314778873E-1   -8.721343134066173E-3    3.306262222823843E-2   -6.970831267494417E-3    3.311473458356996E-2   -5.340982164931303E-1   -7.816570125884108E-2
 6.457057505575000E9    -5.685014994901569E-1   -1.657045752979088E-1   -8.708710684735868E-3    3.332528061161000E-2   -6.852892193926826E-3    3.333615021158054E-2   -5.342661555590460E-1   -7.694765126803220E-2
 6.457068918100000E9    -5.687543412449954E-1   -1.648527911993568E-1   -8.758963417545918E-3    3.359524940261884E-2   -6.795056166052448E-3    3.344786023301850E-2   -5.344571593113782E-1   -7.577636637092337E-2
 6.457080330625000E9    -5.689828889241179E-1   -1.639570313311539E-1   -8.596044358256441E-3    3.368576096547837E-2   -6.834773770210996E-3    3.374586906977096E-2   -5.346693178824189E-1   -7.454653674397181E-2
 6.457091743150000E9    -5.692052645514614E-1   -1.629903682968906E-1   -8.634282261982979E-3    3.391618572678404E-2   -6.806376534479758E-3    3.382668258810422E-2   -5.349044169278820E-1   -7.352771743942370E-2
 6.457103155675000E9    -5.694189801336397E-1   -1.620650633327941E-1   -8.575464051530529E-3    3.406949140225150E-2   -6.793792359482214E-3    3.406291278472169E-2   -5.350281159392619E-1   -7.229968809049503E-2
 6.457114568200000E9    -5.697682855665340E-1   -1.610567017807985E-1   -8.609966316701924E-3    3.431687457480018E-2   -6.747532724440769E-3    3.420427048178715E-2   -5.351091066904433E-1   -7.104999947630522E-2
 6.457125980725000E9    -5.699065339437489E-1   -1.599947300385242E-1   -8.565704803105791E-3    3.442339636037933E-2   -6.697121857718109E-3    3.448199669403065E-2   -5.351801698556385E-1   -6.975052774420072E-2
 6.457137393250000E9    -5.702085574351009E-1   -1.590129614053325E-1   -8.498403484909541E-3    3.469587032450074E-2   -6.690808463045420E-3    3.461908139175816E-2   -5.355533690190725E-1   -6.859385961439531E-2
 6.457148805775000E9    -5.704234356012755E-1   -1.581030140433219E-1   -8.380065749233050E-3    3.496233235546463E-2   -6.587103312290985E-3    3.482460071343906E-2   -5.355694645588581E-1   -6.738976601096730E-2
 6.457160218300000E9    -5.707502665054727E-1   -1.572109503619323E-1   -8.436274681004535E-3    3.508620593034666E-2   -6.642781111649243E-3    3.504850952328081E-2   -5.356548346319866E-1   -6.613551927945550E-2
 6.457171630825000E9    -5.709624201948750E-1   -1.561728059516379E-1   -8.295841618709035E-3    3.533937847293334E-2   -6.592604065499981E-3    3.522141906289703E-2   -5.357182396912482E-1   -6.487936319755128E-2
 6.457183043350000E9    -5.711111294321632E-1   -1.552701293362618E-1   -8.302754550847355E-3    3.546294367148933E-2   -6.487502669148974E-3    3.543669416222430E-2   -5.359664709663596E-1   -6.379144388273031E-2
 6.457194455875000E9    -5.713778302839949E-1   -1.542798413414964E-1   -8.388526361893241E-3    3.559919345891811E-2   -6.450717809236577E-3    3.560999763797345E-2   -5.361540399629997E-1   -6.234267130021241E-2
 6.457205868400000E9    -5.716820876713371E-1   -1.533834270658894E-1   -8.366868712636522E-3    3.592696834239838E-2   -6.447359627446347E-3    3.579884713441403E-2   -5.363225144921722E-1   -6.117690675347963E-2
 6.457217280925000E9    -5.719460748240124E-1   -1.523640835369771E-1   -8.398490712519130E-3    3.620581005080219E-2   -6.332848767346551E-3    3.605632474916953E-2   -5.363473227911718E-1   -5.993659192569427E-2
 6.457228693450000E9    -5.721898472808545E-1   -1.514508043732129E-1   -8.324327115073938E-3    3.633857164024087E-2   -6.321251407819449E-3    3.633897643053764E-2   -5.364052492016431E-1   -5.870751643934408E-2
 6.457240105975000E9    -5.724694810691709E-1   -1.504042306382784E-1   -8.272909645155502E-3    3.668534558808804E-2   -6.157980069419468E-3    3.650044130313611E-2   -5.366607711138828E-1   -5.744279308058586E-2
 6.457251518500000E9    -5.726149078848009E-1   -1.494554811993237E-1   -8.202742882186715E-3    3.689552151081778E-2   -6.340084676738700E-3    3.672594149665614E-2   -5.367798214985491E-1   -5.629598434401888E-2
 6.457262931025000E9    -5.727966269813413E-1   -1.485205955153427E-1   -8.061528575110983E-3    3.714212182921114E-2   -6.140546261312736E-3    3.689668735346877E-2   -5.368642427008095E-1   -5.491037674525939E-2
 6.457274343550000E9    -5.730018111329211E-1   -1.474520980190650E-1   -7.997613387948337E-3    3.724178418518415E-2   -6.209151938302513E-3    3.715691750589951E-2   -5.370068740881321E-1   -5.359550303667870E-2
 6.457285756075000E9    -5.731876360291538E-1   -1.465887161432252E-1   -7.939437470271699E-3    3.756000487683754E-2   -5.998466805418452E-3    3.732989947234808E-2   -5.370962042198858E-1   -5.245488041974308E-2
 6.457297168600000E9    -5.734853800541470E-1   -1.456216000152493E-1   -8.058248284024641E-3    3.782511942263608E-2   -6.090723649979457E-3    3.755644479081139E-2   -5.371925756480153E-1   -5.127784655898091E-2
 6.457308581125000E9    -5.736778206213003E-1   -1.446347593346423E-1   -8.053142306546732E-3    3.800794401114814E-2   -5.969102415145988E-3    3.781905063518887E-2   -5.373770875808805E-1   -4.992928246018925E-2
 6.457319993650000E9    -5.739126286871158E-1   -1.436833286256079E-1   -7.923608228348516E-3    3.816861961330827E-2   -5.896510177095432E-3    3.806680680822579E-2   -5.374100263504117E-1   -4.867013421117195E-2
 6.457331406175000E9    -5.741712088928375E-1   -1.426268946462839E-1   -7.888577812476072E-3    3.840826969131850E-2   -5.833480144899334E-3    3.830897744340208E-2   -5.375440930629138E-1   -4.721476146822672E-2
 6.457342818700000E9    -5.744271642411096E-1   -1.415932387924860E-1   -7.844353679625618E-3    3.887960592457906E-2   -5.857615980890883E-3    3.861475957706582E-2   -5.377394428259327E-1   -4.589816529602569E-2
 6.457354231225000E9    -5.745916981203800E-1   -1.406055397847353E-1   -7.822422961645290E-3    3.905254223988930E-2   -5.799216841042910E-3    3.877690317896301E-2   -5.377036694037887E-1   -4.466817383641781E-2
 6.457365643750000E9    -5.747764967178168E-1   -1.396108844216249E-1   -7.698576171573014E-3    3.913394561991462E-2   -5.758814196057147E-3    3.901982111033720E-2   -5.379785901121600E-1   -4.330577798325558E-2
 6.457377056275000E9    -5.749505450525245E-1   -1.386404923355781E-1   -7.831987954420885E-3    3.948661974192143E-2   -5.671639791089733E-3    3.919732866802760E-2   -5.378702146867899E-1   -4.203932102009594E-2
 6.457388468800000E9    -5.751515427352455E-1   -1.375306176449692E-1   -7.776734781112912E-3    3.967919079352397E-2   -5.572844103294746E-3    3.955673605414070E-2   -5.379296862699460E-1   -4.066572718534606E-2
 6.457399881325000E9    -5.754519101224692E-1   -1.366445519476401E-1   -7.673966573892446E-3    3.997627063361917E-2   -5.571192355385677E-3    3.965288102312900E-2   -5.380633833429270E-1   -3.939552816225431E-2
 6.457411293850000E9    -5.756244849227665E-1   -1.356280641074541E-1   -7.858481832705912E-3    4.019995649357786E-2   -5.544097842641173E-3    4.002009527596089E-2   -5.382747727637986E-1   -3.815247514508025E-2
 6.457422706375000E9    -5.757899225472748E-1   -1.346961893168711E-1   -7.618930643224817E-3    4.046343032753188E-2   -5.522075798004364E-3    4.028595369594369E-2   -5.381663230034146E-1   -3.676149275763030E-2
 6.457434118900000E9    -5.759562258190928E-1   -1.335789598331137E-1   -7.510861071078811E-3    4.076222135101028E-2   -5.424723509918053E-3    4.048002534657743E-2   -5.383279807570914E-1   -3.541355850947161E-2
 6.457445531425000E9    -5.762533757668516E-1   -1.326659864911738E-1   -7.456783522582233E-3    4.108463977867724E-2   -5.264891283354088E-3    4.076935036832419E-2   -5.383022895139379E-1   -3.411183353504352E-2
 6.457456943950000E9    -5.763892924598962E-1   -1.316107669679932E-1   -7.491022471111305E-3    4.137480178898074E-2   -5.335759415441655E-3    4.101982970254359E-2   -5.384078149756060E-1   -3.264456638705222E-2
 6.457468356475000E9    -5.765817066160425E-1   -1.306031922837258E-1   -7.342479172119257E-3    4.156277035519591E-2   -5.195632174689375E-3    4.136470971176175E-2   -5.384884549216443E-1   -3.142448349924862E-2
 6.457479769000000E9    -5.768539059617855E-1   -1.295813050577655E-1   -7.256338246195005E-3    4.187777837676569E-2   -5.059880452356308E-3    4.153661316858837E-2   -5.386142898739344E-1   -2.997848814485381E-2
 6.457491181525000E9    -5.769327567279401E-1   -1.286127607727813E-1   -7.420273608702349E-3    4.208122705505252E-2   -5.078345651385955E-3    4.181266741695589E-2   -5.386706474271776E-1   -2.861992691504215E-2
 6.457502594050000E9    -5.772237903642277E-1   -1.276589291873625E-1   -7.296450367641143E-3    4.246191271288371E-2   -4.988325029870675E-3    4.208269105503168E-2   -5.386971045399019E-1   -2.726048977266813E-2
 6.457514006575000E9    -5.773619823287941E-1   -1.265253255002635E-1   -7.183641846534971E-3    4.274309356235723E-2   -4.870375552439692E-3    4.235399986336244E-2   -5.387744857632032E-1   -2.578290370808490E-2
 6.457525419100000E9    -5.775559094327801E-1   -1.255685593253224E-1   -7.129700260924189E-3    4.310480604487058E-2   -4.858475182161359E-3    4.269661596712927E-2   -5.387300054428442E-1   -2.441899442217769E-2
 6.457536831625000E9    -5.777437600641919E-1   -1.245527408501259E-1   -7.117932487286223E-3    4.336010152129881E-2   -4.739965375439372E-3    4.294399695844228E-2   -5.389675045535435E-1   -2.310127906080538E-2
 6.457548244150000E9    -5.779402632433988E-1   -1.235397969110402E-1   -6.976873969396565E-3    4.353749416906588E-2   -4.696521824713220E-3    4.325799882710660E-2   -5.388619345783575E-1   -2.164919309583673E-2
 6.457559656675000E9    -5.780496548142084E-1   -1.225084591221553E-1   -7.023382404621114E-3    4.410217233342631E-2   -4.663791966497935E-3    4.357589494132059E-2   -5.389663270960547E-1   -2.018810461610834E-2
 6.457571069200000E9    -5.782537052431349E-1   -1.213902007015102E-1   -6.941917265582764E-3    4.416476666158928E-2   -4.526964249352484E-3    4.384622147521564E-2   -5.389326111906775E-1   -1.867983228851024E-2
 6.457582481725000E9    -5.784236687456805E-1   -1.204000374848855E-1   -6.806301460536576E-3    4.456770980168747E-2   -4.421693980043612E-3    4.405222340593580E-2   -5.388876714283060E-1   -1.731719912801089E-2
 6.457593894250000E9    -5.786895879757805E-1   -1.193803384659753E-1   -6.675965909352726E-3    4.488137646382022E-2   -4.414577446899569E-3    4.444934936353635E-2   -5.389354518216877E-1   -1.601488626638013E-2
 6.457605306775000E9    -5.788323206529651E-1   -1.183960140437986E-1   -6.762758394428440E-3    4.522063497989456E-2   -4.255843829243626E-3    4.481725109549576E-2   -5.389766851060793E-1   -1.456555443264090E-2
 6.457616719300000E9    -5.790182912853322E-1   -1.173902099003766E-1   -6.501909621351746E-3    4.536369239054214E-2   -4.268811740367074E-3    4.508016624540263E-2   -5.390543845512701E-1   -1.309366129214008E-2
 6.457628131825000E9    -5.790683989912798E-1   -1.163968115403302E-1   -6.431366399138927E-3    4.582716775878150E-2   -4.165470327991886E-3    4.543224591259185E-2   -5.389589688848239E-1   -1.166514124881687E-2
 6.457639544350000E9    -5.792814024978516E-1   -1.152969023371779E-1   -6.380537854821165E-3    4.618864379463614E-2   -4.152714997933052E-3    4.560951383241044E-2   -5.389846694384492E-1   -1.032635065670150E-2
 6.457650956875000E9    -5.794628340326459E-1   -1.142970283926216E-1   -6.349636108629602E-3    4.660952178275189E-2   -4.085122383550862E-3    4.607381745817478E-2   -5.390751142791594E-1   -8.653560605337609E-3
 6.457662369400000E9    -5.795581243366604E-1   -1.131092064793524E-1   -6.229396363316102E-3    4.686038887820932E-2   -3.754489520822211E-3    4.633665977580642E-2   -5.388891788498704E-1   -7.209166660106932E-3
 6.457673781925000E9    -5.797848286598306E-1   -1.121791927211330E-1   -6.302723470338249E-3    4.723751059940927E-2   -3.856139432001564E-3    4.666763548963814E-2   -5.389965539411665E-1   -5.790500845238711E-3
 6.457685194450000E9    -5.799393435995565E-1   -1.111223382350410E-1   -6.133509303054606E-3    4.746142650215623E-2   -3.693853566121737E-3    4.704578932523112E-2   -5.389964780167098E-1   -4.272963158867185E-3
 6.457696606975000E9    -5.800168005049896E-1   -1.100206700142430E-1   -5.994265933425268E-3    4.779693226167572E-2   -3.627978629211732E-3    4.736343760094832E-2   -5.388643794251303E-1   -2.814355546970824E-3
 6.457708019500000E9    -5.802567446210706E-1   -1.089491450663358E-1   -5.883988112868620E-3    4.808458201178672E-2   -3.631138417531145E-3    4.766573888574339E-2   -5.388650515209338E-1   -1.364145054616458E-3
 6.457719432025000E9    -5.803361527741164E-1   -1.079174120092539E-1   -5.870279801882662E-3    4.877123715355922E-2   -3.491090386739623E-3    4.803362083783932E-2   -5.389050391631554E-1    3.831453018424878E-4
 6.457730844550000E9    -5.805429443043082E-1   -1.069320456972798E-1   -5.783944541438964E-3    4.899457347504021E-2   -3.319656212288843E-3    4.845929534806884E-2   -5.388309420695739E-1    1.898895657431435E-3
 6.457742257075000E9    -5.806953521791358E-1   -1.058585238571601E-1   -5.603827228545489E-3    4.931344945237384E-2   -3.199074718372723E-3    4.882798653960745E-2   -5.386419946196918E-1    3.384230297233280E-3
 6.457753669600000E9    -5.807087917007345E-1   -1.047740990595022E-1   -5.714872037792524E-3    4.966240313862905E-2   -3.062057788809653E-3    4.908799555204649E-2   -5.386796092142964E-1    4.902528081740925E-3
 6.457765082125000E9    -5.810358102777137E-1   -1.036179706807333E-1   -5.499716854159652E-3    5.016182377237921E-2   -2.962583436864206E-3    4.951851019887214E-2   -5.385097602631839E-1    6.336575501145161E-3
 6.457776494650000E9    -5.810230419917941E-1   -1.025939156123592E-1   -5.414322040644847E-3    5.048308896569213E-2   -2.784004897523079E-3    4.982604145587051E-2   -5.384328350952661E-1    8.067665369978796E-3
 6.457787907175000E9    -5.812426473296421E-1   -1.015514195675555E-1   -5.407126469588638E-3    5.081360961736379E-2   -2.755251647796321E-3    5.024714675816481E-2   -5.384893741657546E-1    9.532482169072288E-3
 6.457799319700000E9    -5.813295619360990E-1   -1.004900116300566E-1   -5.244519503946310E-3    5.117886103622268E-2   -2.720302763919280E-3    5.063506266548813E-2   -5.383564950664160E-1    1.116581124784178E-2
 6.457810732225000E9    -5.815427013608192E-1   -9.940298268697478E-2   -5.205791497315316E-3    5.178311771507174E-2   -2.542724118953433E-3    5.100176182967271E-2   -5.381998686999159E-1    1.276672194113719E-2
 6.457822144750000E9    -5.815374126180217E-1   -9.823735157662304E-2   -4.943737518095454E-3    5.192314188259988E-2   -2.451287177984793E-3    5.144072156625278E-2   -5.382389023368536E-1    1.438910328965347E-2
 6.457833557275000E9    -5.817298469607878E-1   -9.717833921583545E-2   -4.930632599787542E-3    5.240003994696268E-2   -2.280554893054530E-3    5.185045675698145E-2   -5.381611771093968E-1    1.603016887613244E-2
 6.457844969800000E9    -5.817857860684792E-1   -9.620802627018088E-2   -4.791506392689026E-3    5.284560405099120E-2   -2.207854699346948E-3    5.223581155220747E-2   -5.378558893119022E-1    1.754546827557668E-2
 6.457856382325000E9    -5.819542742845846E-1   -9.500629121563786E-2   -4.615835684238189E-3    5.334277306146720E-2   -2.090492406464495E-3    5.260883480706351E-2   -5.379064135572458E-1    1.926327570680039E-2
 6.457867794850000E9    -5.820083204112618E-1   -9.395617447180422E-2   -4.622676657498799E-3    5.383536265596481E-2   -1.973080582095683E-3    5.298681862892922E-2   -5.377850711367876E-1    2.097033525564815E-2
 6.457879207375000E9    -5.821934957844551E-1   -9.280566683282881E-2   -4.631518119047971E-3    5.420977807619456E-2   -1.760112200869272E-3    5.356295929462716E-2   -5.376865017919695E-1    2.251437432482514E-2
 6.457890619900000E9    -5.822268448128772E-1   -9.181577656003015E-2   -4.383561385226020E-3    5.464692037323241E-2   -1.653518835384641E-3    5.392087830004091E-2   -5.374797726387753E-1    2.408870962007361E-2
 6.457902032425000E9    -5.824116381014889E-1   -9.065617505466944E-2   -4.160990531109438E-3    5.507199547556441E-2   -1.492686412794744E-3    5.435396351560715E-2   -5.374205607309568E-1    2.581319925080840E-2
 6.457913444950000E9    -5.824816711119213E-1   -8.948985401204107E-2   -4.099651271623826E-3    5.552898571856932E-2   -1.325114951840620E-3    5.473692213931521E-2   -5.371984314446512E-1    2.760742651491211E-2
 6.457924857475000E9    -5.825893429201338E-1   -8.840623495819604E-2   -3.985991003816645E-3    5.599578858346825E-2   -1.197541051989571E-3    5.517004963005761E-2   -5.371210084370065E-1    2.936408444352592E-2
 6.457936270000000E9    -5.826777011318657E-1   -8.714783262958031E-2   -3.864349060304612E-3    5.645832456641628E-2   -1.027835177401517E-3    5.568646965772364E-2   -5.369643182978541E-1    3.100953285506116E-2
 6.457947682525000E9    -5.827726433818713E-1   -8.622007847838900E-2   -3.817729018357472E-3    5.695614399441703E-2   -9.491666994389578E-4    5.623170748785076E-2   -5.367874684625770E-1    3.278891091706074E-2
 6.457959095050000E9    -5.828674045352813E-1   -8.510375322671103E-2   -3.477827242148669E-3    5.744907942693853E-2   -8.507627821134724E-4    5.667246438541514E-2   -5.366330328008606E-1    3.454974319522341E-2
 6.457970507575000E9    -5.830744638921318E-1   -8.392208635524394E-2   -3.444938914274318E-3    5.788523622590491E-2   -5.275254320167775E-4    5.713914404411401E-2   -5.363517810419507E-1    3.620822490070863E-2
 6.457981920100000E9    -5.829678549288397E-1   -8.279058155737545E-2   -3.152589444569939E-3    5.847009929671122E-2   -4.417059145576969E-4    5.758317918461365E-2   -5.361693456435618E-1    3.810872243155155E-2
 6.457993332625000E9    -5.831185506335714E-1   -8.148361029007437E-2   -3.223914336873290E-3    5.899270383621522E-2   -2.846577367301351E-4    5.805770120822803E-2   -5.360645271895074E-1    3.986934258064443E-2
 6.458004745150000E9    -5.831481212689315E-1   -8.048834359441753E-2   -2.916763505726390E-3    5.944883272622643E-2    1.866757939154460E-5    5.850422218698178E-2   -5.356057959336140E-1    4.169370591920520E-2
 6.458016157675000E9    -5.833039777864993E-1   -7.939774145174576E-2   -2.945294251777968E-3    5.999221909799112E-2    5.192622179644524E-5    5.898363538089681E-2   -5.356521533586426E-1    4.343409809568727E-2
 6.458027570200000E9    -5.833906813838284E-1   -7.823260662613450E-2   -2.504376713766575E-3    6.060586073006677E-2    2.064780366211188E-4    5.957346973843679E-2   -5.352714165008118E-1    4.527835212894604E-2
 6.458038982725000E9    -5.835150000466677E-1   -7.712136307866481E-2   -2.618150766725234E-3    6.111626605150940E-2    5.005174365346356E-4    6.007927999162913E-2   -5.350427407281314E-1    4.719118751648740E-2
 6.458050395250000E9    -5.834795827780153E-1   -7.580019172332035E-2   -2.199410325473924E-3    6.173023588527748E-2    6.240241638193042E-4    6.061218045239311E-2   -5.347745995757238E-1    4.891463202711537E-2
