#  HZ   S   RI   R     50.00 
! Rohde & Schwarz Vector Network Analyzer 
! Rohde-Schwarz,ZNB20-2Port,1311601062101988,3.16
! Created: UTC 3/20/2024, 11:18:37 PM
! freq[Hz]                re:S11                  im:S11                  re:S21                  im:S21                  re:S12                  im:S12                  re:S22                  im:S22
 6.457031399000000E9    -5.677865820384873E-1   -1.680711306028072E-1   -8.735823278616247E-3    3.283800549172305E-2   -6.942557382403826E-3    3.288177768901707E-2   -5.336911923647845E-1   -7.991902867855379E-2
 6.457042795575000E9    -5.680560310121074E-1   -1.668855039214888E-1   -8.809085728583100E-3    3.306995431009929E-2   -6.984541804426629E-3    3.292138280931540E-2   -5.339239932290878E-1   -7.848577127171548E-2
 6.457054192150000E9    -5.684399382439183E-1   -1.659433667095137E-1   -8.703071693558046E-3    3.314875426069661E-2   -6.922995629042314E-3    3.306693667152429E-2   -5.341706014213380E-1   -7.760052549159360E-2
 6.457065588725000E9    -5.686408799814439E-1   -1.651010851268915E-1   -8.700897039534115E-3    3.335694713042607E-2   -6.859044404316329E-3    3.326756283036553E-2   -5.344034017315795E-1   -7.630066498967905E-2
 6.457076985300000E9    -5.688242827215699E-1   -1.641871724657325E-1   -8.590790240977074E-3    3.351685268637253E-2   -6.886466370076864E-3    3.356343478708214E-2   -5.343834427730010E-1   -7.521083139954353E-2
 6.457088381875000E9    -5.691973856970542E-1   -1.630671534586555E-1   -8.675161334087335E-3    3.379377778725733E-2   -6.855715729357269E-3    3.371116980430198E-2   -5.346323325498937E-1   -7.400350016817218E-2
 6.457099778450000E9    -5.694394354311982E-1   -1.623285652353338E-1   -8.643029667338440E-3    3.400238990476655E-2   -6.752101893987746E-3    3.382784362954057E-2   -5.346839420783241E-1   -7.273068084088503E-2
 6.457111175025000E9    -5.696843599972138E-1   -1.613322194012536E-1   -8.453914988001519E-3    3.411883346384398E-2   -6.723481182718495E-3    3.412772521771880E-2   -5.348826545120892E-1   -7.143710849723597E-2
 6.457122571600000E9    -5.697655693212653E-1   -1.603220503810930E-1   -8.547172920878384E-3    3.439702313456092E-2   -6.724852724160194E-3    3.424432981415843E-2   -5.352581406189223E-1   -7.041542102372388E-2
 6.457133968175000E9    -5.701462668179675E-1   -1.594895059492071E-1   -8.614978392494900E-3    3.447520957060424E-2   -6.756865689105893E-3    3.443607823487984E-2   -5.352907493887837E-1   -6.907987337086588E-2
 6.457145364750000E9    -5.704145384718943E-1   -1.583968902049473E-1   -8.502391556058584E-3    3.463300160942602E-2   -6.571725414742813E-3    3.474275114692142E-2   -5.354915816647402E-1   -6.807472386730526E-2
 6.457156761325000E9    -5.706489739867092E-1   -1.575610416228403E-1   -8.362901891255024E-3    3.491474461448725E-2   -6.597923228638892E-3    3.493841942132155E-2   -5.356514193479497E-1   -6.662451136145982E-2
 6.457168157900000E9    -5.708183475797015E-1   -1.564612025665618E-1   -8.305055701219640E-3    3.524951022454766E-2   -6.527821248712738E-3    3.501738907635552E-2   -5.357330172717980E-1   -6.557620830088064E-2
 6.457179554475000E9    -5.711108029601470E-1   -1.556182372022339E-1   -8.400920132447776E-3    3.539074971440236E-2   -6.467175456594826E-3    3.524247461743262E-2   -5.357982220515283E-1   -6.416294999080382E-2
 6.457190951050000E9    -5.713252702259872E-1   -1.546301738889123E-1   -8.461463884823267E-3    3.556761537636081E-2   -6.505725122903283E-3    3.550406124304838E-2   -5.358609975852039E-1   -6.301717164278536E-2
 6.457202347625000E9    -5.716017418202221E-1   -1.538119379692653E-1   -8.373101705631894E-3    3.588980246551526E-2   -6.476556904943994E-3    3.576002555685213E-2   -5.361282085377863E-1   -6.179801916505451E-2
 6.457213744200000E9    -5.717555361163904E-1   -1.527190661520530E-1   -8.330614317031736E-3    3.615879852496955E-2   -6.373306842759158E-3    3.581207952288903E-2   -5.362234920302157E-1   -6.057499958823370E-2
 6.457225140775000E9    -5.720512418751190E-1   -1.517201431432783E-1   -8.284517156449395E-3    3.626304776238463E-2   -6.378396108919629E-3    3.615062337020976E-2   -5.363582367342511E-1   -5.927088774371613E-2
 6.457236537350000E9    -5.722539473374276E-1   -1.508896110724507E-1   -8.278614404120326E-3    3.648493181010604E-2   -6.252847081662368E-3    3.630405946253011E-2   -5.364764223191203E-1   -5.792605237378837E-2
 6.457247933925000E9    -5.725728054980052E-1   -1.497522635515152E-1   -8.210266211756585E-3    3.658850145398933E-2   -6.267444125176741E-3    3.648613512989148E-2   -5.366983761573945E-1   -5.677952227666003E-2
 6.457259330500000E9    -5.726838982082637E-1   -1.487913256619522E-1   -8.305817109746793E-3    3.692965228997660E-2   -6.216286770409131E-3    3.666016463902044E-2   -5.366397355373161E-1   -5.555005067775162E-2
 6.457270727075000E9    -5.728610609424706E-1   -1.478910717968265E-1   -8.113726101197538E-3    3.712345084107085E-2   -6.205919837432161E-3    3.696364442448188E-2   -5.367729006624115E-1   -5.430480854573971E-2
 6.457282123650000E9    -5.731072990525139E-1   -1.467584786494296E-1   -8.007789267859200E-3    3.732608262223110E-2   -6.106796478546392E-3    3.721027997160267E-2   -5.369701861683167E-1   -5.299001294518643E-2
 6.457293520225000E9    -5.733542374340772E-1   -1.458462480698892E-1   -7.984621468224937E-3    3.767221209445326E-2   -6.159327720835855E-3    3.750535668250743E-2   -5.370746972252298E-1   -5.182839698221917E-2
 6.457304916800000E9    -5.735722050003836E-1   -1.449123730317033E-1   -8.003956864729017E-3    3.796605116541082E-2   -6.097961316721652E-3    3.757039969761482E-2   -5.371461640478691E-1   -5.042190937905339E-2
 6.457316313375000E9    -5.737995667730945E-1   -1.439791860543299E-1   -7.977378195738634E-3    3.807894918672228E-2   -5.954555866691610E-3    3.782028977347599E-2   -5.373337051382104E-1   -4.923200088022385E-2
 6.457327709950000E9    -5.740932572396813E-1   -1.429321603768303E-1   -7.883230489597199E-3    3.829689924544585E-2   -5.967736638375215E-3    3.808292434894340E-2   -5.373559870473930E-1   -4.795681017600788E-2
 6.457339106525000E9    -5.741658427194170E-1   -1.419574642908433E-1   -7.915694821556272E-3    3.859800701180901E-2   -5.879475645344705E-3    3.838595946701291E-2   -5.375299310399897E-1   -4.657955519164704E-2
 6.457350503100000E9    -5.745277974272980E-1   -1.409579246224783E-1   -7.880112585022791E-3    3.885601074655209E-2   -5.800957836868142E-3    3.854162693351118E-2   -5.376358385202087E-1   -4.529044127001287E-2
 6.457361899675000E9    -5.747343896143082E-1   -1.400799294486639E-1   -7.920273047502466E-3    3.903075443784170E-2   -5.725390841570752E-3    3.886856813974877E-2   -5.377127212167671E-1   -4.410124432219385E-2
 6.457373296250000E9    -5.749274023110617E-1   -1.389874435436059E-1   -7.721036254130283E-3    3.931108374546481E-2   -5.700011552205423E-3    3.910255844362408E-2   -5.377344760378233E-1   -4.264958438194227E-2
 6.457384692825000E9    -5.750977261948690E-1   -1.380166779023427E-1   -7.794209585391307E-3    3.944967868652881E-2   -5.580312853892024E-3    3.934186276030114E-2   -5.378547734021407E-1   -4.137914893091529E-2
 6.457396089400000E9    -5.752917891312656E-1   -1.369699199029772E-1   -7.672621510507044E-3    3.979594990376058E-2   -5.614266178826056E-3    3.946122939636745E-2   -5.379600484775175E-1   -4.006145836375121E-2
 6.457407485975000E9    -5.755784055602555E-1   -1.360611973028633E-1   -7.777077532337619E-3    4.010941331404236E-2   -5.533927363397803E-3    3.972988318162955E-2   -5.379731784811159E-1   -3.871780641993366E-2
 6.457418882550000E9    -5.756743655587534E-1   -1.350037944695415E-1   -7.551198470590065E-3    4.034296580519184E-2   -5.476566230510981E-3    4.004890026728094E-2   -5.381575170451276E-1   -3.743198836455049E-2
 6.457430279125000E9    -5.759364730808176E-1   -1.340147187643857E-1   -7.590480385551534E-3    4.065217187554709E-2   -5.399840414994068E-3    4.025402875428483E-2   -5.381464006733947E-1   -3.612364323068208E-2
 6.457441675700000E9    -5.761097590276246E-1   -1.330692639404056E-1   -7.385423203398664E-3    4.094613074891284E-2   -5.302223677694642E-3    4.053642700710792E-2   -5.382826369342320E-1   -3.472634586066391E-2
 6.457453072275000E9    -5.764005395543286E-1   -1.320705050248145E-1   -7.476740269439487E-3    4.114848094491252E-2   -5.282308526381395E-3    4.083220520882610E-2   -5.382508621758397E-1   -3.351459382978605E-2
 6.457464468850000E9    -5.764635459482491E-1   -1.310042208297413E-1   -7.306227833251081E-3    4.140973669883288E-2   -5.281119041603500E-3    4.111851856483519E-2   -5.383780438498272E-1   -3.206963547746195E-2
 6.457475865425000E9    -5.767758413686331E-1   -1.299938012545154E-1   -7.365198774189238E-3    4.166598278968322E-2   -5.217695846654421E-3    4.138730709335176E-2   -5.384371991176645E-1   -3.071482062365481E-2
 6.457487262000000E9    -5.769724624006334E-1   -1.290007297650105E-1   -7.309994137476513E-3    4.202188151961241E-2   -5.172990717851149E-3    4.154030819560117E-2   -5.386090883638270E-1   -2.942791842335140E-2
 6.457498658575000E9    -5.770534679900740E-1   -1.279589837011879E-1   -7.182165245223900E-3    4.229751606175139E-2   -4.995227951820231E-3    4.197492072675338E-2   -5.385341034945348E-1   -2.790152368378276E-2
 6.457510055150000E9    -5.772718860095520E-1   -1.270155024596568E-1   -7.132149059527269E-3    4.255120091411582E-2   -4.969319184201866E-3    4.226940548680024E-2   -5.386873406038576E-1   -2.657084970596379E-2
 6.457521451725000E9    -5.774522519238592E-1   -1.259587167792791E-1   -7.190708897740150E-3    4.272839285850025E-2   -4.918267827086799E-3    4.237693879130787E-2   -5.386055289255759E-1   -2.504106410178504E-2
 6.457532848300000E9    -5.777345101159629E-1   -1.248479729640406E-1   -7.091114167057417E-3    4.306775499688366E-2   -4.781992525157955E-3    4.272026022405111E-2   -5.387624833867853E-1   -2.377555663889505E-2
 6.457544244875000E9    -5.777758052794399E-1   -1.239307530203410E-1   -7.095626929078953E-3    4.335908569229029E-2   -4.792091281168901E-3    4.302939830775522E-2   -5.386878437756423E-1   -2.245167218568672E-2
 6.457555641450000E9    -5.780957440172115E-1   -1.229110122952349E-1   -6.884114718401000E-3    4.367965456765296E-2   -4.719987130203954E-3    4.338015685907397E-2   -5.387982727679830E-1   -2.084243180223272E-2
 6.457567038025000E9    -5.782288807455359E-1   -1.217767790107784E-1   -6.863343153000771E-3    4.400737879797253E-2   -4.492324079122424E-3    4.364039940121685E-2   -5.388425865515815E-1   -1.976979646152967E-2
 6.457578434600000E9    -5.783353569923054E-1   -1.208442427655786E-1   -6.898397676396572E-3    4.420967032307716E-2   -4.566194728344998E-3    4.390193408227939E-2   -5.388141027000292E-1   -1.823086149057664E-2
 6.457589831175000E9    -5.786281084189945E-1   -1.197507650440735E-1   -6.659634666519025E-3    4.463596618071875E-2   -4.403352430609965E-3    4.423631320911829E-2   -5.387663553343732E-1   -1.686749094676599E-2
 6.457601227750000E9    -5.786619095521769E-1   -1.188230768861942E-1   -6.770827675270177E-3    4.496433401247951E-2   -4.409277437323951E-3    4.456040007092429E-2   -5.388318609771319E-1   -1.540305688518990E-2
 6.457612624325000E9    -5.788740374018992E-1   -1.177713457327702E-1   -6.587595614041590E-3    4.519975012377215E-2   -4.270636979155978E-3    4.484103466537401E-2   -5.388280575816956E-1   -1.389602634257567E-2
 6.457624020900000E9    -5.791118673860648E-1   -1.166542179283515E-1   -6.696773852579559E-3    4.550228931614424E-2   -4.178384666453437E-3    4.514303983984647E-2   -5.388059320774685E-1   -1.234567438827769E-2
 6.457635417475000E9    -5.792036677098367E-1   -1.157223089274812E-1   -6.495268258905825E-3    4.589478218054693E-2   -4.108376789508433E-3    4.540849519374025E-2   -5.387895565881365E-1   -1.106698688188031E-2
 6.457646814050000E9    -5.793625391315039E-1   -1.146281996874492E-1   -6.376160696065019E-3    4.629501936080090E-2   -4.037548303555052E-3    4.568639007586078E-2   -5.388292553831739E-1   -9.536935208276445E-3
 6.457658210625000E9    -5.795810274475218E-1   -1.135448113767239E-1   -6.347065607677593E-3    4.654202612760373E-2   -3.934746410861323E-3    4.617702510140953E-2   -5.388833235989593E-1   -8.186031645721785E-3
 6.457669607200000E9    -5.797689257483438E-1   -1.125285947455918E-1   -6.260639781949255E-3    4.685515513988572E-2   -3.834416018615710E-3    4.643133292498718E-2   -5.389697695182576E-1   -6.506579907167859E-3
 6.457681003775000E9    -5.798829490157131E-1   -1.115848243890865E-1   -6.292633463490138E-3    4.724076135168841E-2   -3.795445013180129E-3    4.681230544245845E-2   -5.388719082379667E-1   -4.988136094483465E-3
 6.457692400350000E9    -5.799803127902761E-1   -1.105434138828761E-1   -6.142059665186839E-3    4.747282516849380E-2   -3.678150880733580E-3    4.706247459980779E-2   -5.388509114707467E-1   -3.643070453854358E-3
 6.457703796925000E9    -5.801837281705925E-1   -1.095064861381734E-1   -6.038977527099415E-3    4.799161724115612E-2   -3.634922905986635E-3    4.739665816195193E-2   -5.389596133668070E-1   -1.992082113769534E-3
 6.457715193500000E9    -5.803355334611594E-1   -1.085299095871152E-1   -5.906615663646403E-3    4.828237622443551E-2   -3.420918823301142E-3    4.778025166101191E-2   -5.387931401193916E-1   -5.159810220455689E-4
 6.457726590075000E9    -5.804114199009804E-1   -1.073008137575972E-1   -5.770581268022504E-3    4.860256390641366E-2   -3.460509229766526E-3    4.814005336732707E-2   -5.387082094249426E-1    9.416325654852668E-4
 6.457737986650000E9    -5.805550175065106E-1   -1.062195063023406E-1   -5.772858198265501E-3    4.917408257019086E-2   -3.243352306474324E-3    4.841652138262856E-2   -5.387235347716672E-1    2.380576430513647E-3
 6.457749383225000E9    -5.806950033684664E-1   -1.052150966061285E-1   -5.680123766254301E-3    4.932381461748772E-2   -3.150407900782933E-3    4.884301410034617E-2   -5.386987342099825E-1    3.845531437190507E-3
 6.457760779800000E9    -5.808194875603893E-1   -1.041399362596760E-1   -5.686705027440109E-3    4.978656542392143E-2   -3.081402286890395E-3    4.924061194007513E-2   -5.384696106317733E-1    5.568125442491940E-3
 6.457772176375000E9    -5.810003917506398E-1   -1.029869495394676E-1   -5.578978523717671E-3    5.011633161848409E-2   -2.963915168043737E-3    4.957622150228719E-2   -5.385430494577119E-1    7.114340433906092E-3
 6.457783572950000E9    -5.811436974525538E-1   -1.019686308829315E-1   -5.418738082420662E-3    5.049523397493621E-2   -2.875470065838143E-3    4.992269552182921E-2   -5.385030521712005E-1    8.668456988135766E-3
 6.457794969525000E9    -5.813440427513408E-1   -1.009452638129047E-1   -5.367573583272492E-3    5.096848493218190E-2   -2.799716699832800E-3    5.030599356766096E-2   -5.384386800903244E-1    1.037135713058533E-2
 6.457806366100000E9    -5.813853415974285E-1   -9.993184321212521E-2   -5.089509964208578E-3    5.144838937653604E-2   -2.672783320682119E-3    5.062316437260980E-2   -5.383117494855753E-1    1.179541539941779E-2
 6.457817762675000E9    -5.815328844354800E-1   -9.881647112534268E-2   -5.056846135262303E-3    5.177991774236445E-2   -2.527475945943524E-3    5.112067495412242E-2   -5.382053019600193E-1    1.338553420461741E-2
 6.457829159250000E9    -5.816781245819090E-1   -9.765904086064982E-2   -5.090086667048384E-3    5.213206538033034E-2   -2.393790735008369E-3    5.146687426470006E-2   -5.380946263315844E-1    1.507231513107409E-2
 6.457840555825000E9    -5.818014400089403E-1   -9.666401853835584E-2   -4.838872141688790E-3    5.264332761007019E-2   -2.278030656595074E-3    5.192799184679471E-2   -5.379997331063548E-1    1.670845118695022E-2
 6.457851952400000E9    -5.820182915425923E-1   -9.555972609994284E-2   -4.829068853401420E-3    5.301457809550540E-2   -2.170011173636153E-3    5.233386208713157E-2   -5.379416094291731E-1    1.824816611947856E-2
 6.457863348975000E9    -5.819699126945977E-1   -9.441051888560399E-2   -4.543508097515601E-3    5.336357550475614E-2   -2.035410049498276E-3    5.264481078621495E-2   -5.377102851227427E-1    1.988860512352705E-2
 6.457874745550000E9    -5.821397173071770E-1   -9.341780618079561E-2   -4.496793834394389E-3    5.388494360907217E-2   -1.882092759105736E-3    5.315175381656531E-2   -5.376279285998264E-1    2.151913255000049E-2
 6.457886142125000E9    -5.822962238055912E-1   -9.227865598859024E-2   -4.424825259390484E-3    5.431740096432570E-2   -1.769477067206242E-3    5.357549424237446E-2   -5.376239315574410E-1    2.315561153327729E-2
 6.457897538700000E9    -5.823464542633560E-1   -9.116203195998518E-2   -4.372722696416705E-3    5.470154524937008E-2   -1.593652374458497E-3    5.395106814549554E-2   -5.372749451256199E-1    2.494115094476101E-2
 6.457908935275000E9    -5.825461336650682E-1   -8.997298460308767E-2   -4.155920721143025E-3    5.527646363723664E-2   -1.503293239501749E-3    5.441975558227468E-2   -5.372984291911725E-1    2.656398333265891E-2
 6.457920331850000E9    -5.826227190874869E-1   -8.899904986099658E-2   -4.156360991386335E-3    5.565779172447866E-2   -1.398038559896954E-3    5.483212997425919E-2   -5.369932340460991E-1    2.828764584714397E-2
 6.457931728425000E9    -5.827470932254637E-1   -8.787617313799502E-2   -3.952201626442820E-3    5.611254909315737E-2   -1.169464761581263E-3    5.527315022023998E-2   -5.370167977234418E-1    2.988982912118853E-2
 6.457943125000000E9    -5.828077851984435E-1   -8.665043076737321E-2   -3.959349978025596E-3    5.671480411721681E-2   -1.041315203308800E-3    5.571652268084481E-2   -5.368428379074174E-1    3.174517177564781E-2
 6.457954521575000E9    -5.828502210351980E-1   -8.554587759308641E-2   -3.747152512234150E-3    5.703617728112601E-2   -8.159251046255725E-4    5.621760629270215E-2   -5.365959727397834E-1    3.337823457854083E-2
 6.457965918150000E9    -5.830164663819680E-1   -8.439009577936425E-2   -3.473603635775755E-3    5.761934593201612E-2   -7.025927390351893E-4    5.664945465189118E-2   -5.364008874872946E-1    3.515519249660478E-2
 6.457977314725000E9    -5.829721164862944E-1   -8.328303529308820E-2   -3.475616166430282E-3    5.804985082849973E-2   -5.795563550805166E-4    5.716533003796260E-2   -5.362752738379911E-1    3.687607221266315E-2
 6.457988711300000E9    -5.830871678321987E-1   -8.216340541674705E-2   -3.283710850572062E-3    5.856282705532379E-2   -3.894410848865712E-4    5.768228769853935E-2   -5.361898844789688E-1    3.858985351462396E-2
 6.458000107875000E9    -5.832083133090883E-1   -8.103996334552119E-2   -3.100662637169333E-3    5.911277150872460E-2   -1.942500442857030E-4    5.810105574107526E-2   -5.359427258364692E-1    4.058054593394972E-2
 6.458011504450000E9    -5.833364343425274E-1   -7.992067768194250E-2   -2.831981449264109E-3    5.951121676112169E-2   -1.590965630552542E-5    5.860657323452476E-2   -5.357179486219101E-1    4.228230138759636E-2
 6.458022901025000E9    -5.833756407990954E-1   -7.871009508493966E-2   -2.813996165486522E-3    6.014797409578952E-2    1.841271592556914E-4    5.909034961656737E-2   -5.353933326819466E-1    4.418390129311350E-2
 6.458034297600000E9    -5.834216089873424E-1   -7.757148941844470E-2   -2.540528330382297E-3    6.059340581066633E-2    3.017771947899077E-4    5.966327917837713E-2   -5.350897188646049E-1    4.594056393041734E-2
 6.458045694175000E9    -5.833958506220743E-1   -7.644223904266215E-2   -2.272983021254656E-3    6.115238597815213E-2    4.743006539921469E-4    6.011635921255946E-2   -5.349024625214984E-1    4.777012426978947E-2
 6.458057090750000E9    -5.835713467771532E-1   -7.528669915974011E-2   -2.373776044356351E-3    6.177550440053600E-2    7.444955135699364E-4    6.072728578198336E-2   -5.345840294002063E-1    4.966915652199107E-2
