#  HZ   S   RI   R     50.00 
! Rohde & Schwarz Vector Network Analyzer 
! Rohde-Schwarz,ZNB20-2Port,1311601062101988,3.16
! Created: UTC 3/20/2024, 11:18:39 PM
! freq[Hz]                re:S11                  im:S11                  re:S21                  im:S21                  re:S12                  im:S12                  re:S22                  im:S22
 6.457032742000000E9    -5.678661838333372E-1   -1.679073729506675E-1   -8.685605566898409E-3    3.277293243381522E-2   -6.971587303124585E-3    3.279990257820696E-2   -5.337852500650748E-1   -7.975274224123804E-2
 6.457044133250000E9    -5.681703649383499E-1   -1.670124893668010E-1   -8.724581401348654E-3    3.298361994716559E-2   -6.956776722619151E-3    3.300710609845533E-2   -5.339622622838491E-1   -7.853909611266309E-2
 6.457055524500000E9    -5.683141006710236E-1   -1.659759175362024E-1   -8.589094890043921E-3    3.319470964860053E-2   -6.956523482166798E-3    3.312016323784907E-2   -5.342388644556313E-1   -7.730586633817643E-2
 6.457066915750000E9    -5.686682127561409E-1   -1.650597065055640E-1   -8.701537318226761E-3    3.344830630156595E-2   -6.921477756242085E-3    3.337924386092934E-2   -5.343253995831388E-1   -7.621467327185480E-2
 6.457078307000000E9    -5.688284332900783E-1   -1.641917477876562E-1   -8.640807161062735E-3    3.355994884896538E-2   -6.811020615421015E-3    3.342362104115063E-2   -5.343151354716673E-1   -7.505417622649355E-2
 6.457089698250000E9    -5.691423414362110E-1   -1.631671419090858E-1   -8.666280269067145E-3    3.371095815325378E-2   -6.824662846337469E-3    3.376075633126883E-2   -5.345885736300695E-1   -7.366528027574144E-2
 6.457101089500000E9    -5.694655240926113E-1   -1.622611265724299E-1   -8.577958999680954E-3    3.400840731128667E-2   -6.875388360419936E-3    3.390465499079109E-2   -5.348762649324424E-1   -7.264585664703137E-2
 6.457112480750000E9    -5.697073467578874E-1   -1.613223340304556E-1   -8.629952095340020E-3    3.421945060359716E-2   -6.734478798767177E-3    3.412246991356556E-2   -5.349575092060165E-1   -7.144127455249931E-2
 6.457123872000000E9    -5.698579190274553E-1   -1.602871051600452E-1   -8.627438714974263E-3    3.433923006865811E-2   -6.786640942371358E-3    3.441405039521794E-2   -5.350679448537559E-1   -7.008887294142305E-2
 6.457135263250000E9    -5.702294696510135E-1   -1.594479998334370E-1   -8.531376389885865E-3    3.460594919934117E-2   -6.661819561897356E-3    3.457665770546985E-2   -5.351649742434796E-1   -6.897668713191747E-2
 6.457146654500000E9    -5.703951063736471E-1   -1.584652505046024E-1   -8.510662419304338E-3    3.481259815367229E-2   -6.654569515861765E-3    3.466061825737147E-2   -5.354507067622700E-1   -6.784856949999332E-2
 6.457158045750000E9    -5.706583329162136E-1   -1.574382473666475E-1   -8.465021838631417E-3    3.504274768685403E-2   -6.586009102346404E-3    3.497032118412643E-2   -5.355968280789212E-1   -6.660275794171440E-2
 6.457169437000000E9    -5.708598508054367E-1   -1.565321003574826E-1   -8.478014374686576E-3    3.523430330636858E-2   -6.568400082825391E-3    3.508332399580814E-2   -5.356783798516545E-1   -6.541606265312709E-2
 6.457180828250000E9    -5.710215094480736E-1   -1.556579524221376E-1   -8.326443500594416E-3    3.532629296131103E-2   -6.513812917810870E-3    3.532765727791263E-2   -5.358964927151483E-1   -6.427206940830418E-2
 6.457192219500000E9    -5.713843252705884E-1   -1.544853208899680E-1   -8.303567194627949E-3    3.564701856020522E-2   -6.448129717303649E-3    3.554071774915753E-2   -5.359089537134842E-1   -6.280880484938735E-2
 6.457203610750000E9    -5.717153052186366E-1   -1.535949048670143E-1   -8.338349451679650E-3    3.580736378562018E-2   -6.465487043540363E-3    3.569581059370290E-2   -5.360483084385627E-1   -6.177873738458884E-2
 6.457215002000000E9    -5.719071524116420E-1   -1.526830054843148E-1   -8.240287551657417E-3    3.605362831167466E-2   -6.297568038644767E-3    3.588705219891607E-2   -5.362767881835707E-1   -6.048823114369485E-2
 6.457226393250000E9    -5.719863698448345E-1   -1.517877623959537E-1   -8.334446170918223E-3    3.623980249223643E-2   -6.439160891070090E-3    3.613829695171936E-2   -5.363691426397087E-1   -5.906885093885201E-2
 6.457237784500000E9    -5.722499246153860E-1   -1.508077333021861E-1   -8.136568835384068E-3    3.638801891936816E-2   -6.299183026613587E-3    3.641771913510637E-2   -5.364758766774698E-1   -5.804285211303372E-2
 6.457249175750000E9    -5.725292492641122E-1   -1.497506742661929E-1   -8.251873312205142E-3    3.661340050232711E-2   -6.220654554757194E-3    3.656237318079381E-2   -5.366804876231683E-1   -5.664399251359473E-2
 6.457260567000000E9    -5.728624027282144E-1   -1.487973131825183E-1   -8.180478969401155E-3    3.691944696269576E-2   -6.248752508755783E-3    3.677828927233898E-2   -5.365806018426528E-1   -5.545213307494712E-2
 6.457271958250000E9    -5.729700893462404E-1   -1.478037600716489E-1   -8.117553472287360E-3    3.719749751319643E-2   -6.061088741169032E-3    3.698882323160359E-2   -5.369958789293758E-1   -5.418298235528231E-2
 6.457283349500000E9    -5.732763562027624E-1   -1.468350634916340E-1   -8.031809046454445E-3    3.741573828696451E-2   -6.016083188027157E-3    3.724697303708156E-2   -5.369664854620064E-1   -5.296030071579236E-2
 6.457294740750000E9    -5.734607668315966E-1   -1.458729359732452E-1   -8.085391102582593E-3    3.771042031973326E-2   -6.053895773468389E-3    3.740098968658021E-2   -5.370709321499721E-1   -5.174721203857120E-2
 6.457306132000000E9    -5.736417434047679E-1   -1.448349065295095E-1   -8.010167010533318E-3    3.794845073953702E-2   -6.026652252554503E-3    3.769643811648472E-2   -5.371729655659514E-1   -5.027977198634057E-2
 6.457317523250000E9    -5.738888295735960E-1   -1.437987998882155E-1   -7.924621208434781E-3    3.814172815036501E-2   -5.921927681579949E-3    3.795175928290886E-2   -5.372422431326274E-1   -4.899753278417644E-2
 6.457328914500000E9    -5.740771402517810E-1   -1.428486027133581E-1   -7.865218482539705E-3    3.847230265776274E-2   -5.901625483174427E-3    3.813073297801404E-2   -5.374242874731171E-1   -4.777735956641577E-2
 6.457340305750000E9    -5.742809107503092E-1   -1.419238216406516E-1   -7.934363917525521E-3    3.858659988522564E-2   -5.873304167118912E-3    3.841803906919337E-2   -5.375311811641919E-1   -4.647137029487992E-2
 6.457351697000000E9    -5.745123273891765E-1   -1.408979218239068E-1   -7.819327522174369E-3    3.879817726778163E-2   -5.808939077231061E-3    3.863746748215371E-2   -5.375802444570686E-1   -4.524812785803597E-2
 6.457363088250000E9    -5.746901640668330E-1   -1.399042641396069E-1   -7.759689612684795E-3    3.905543627387163E-2   -5.803974612344351E-3    3.886686280226084E-2   -5.377537260020688E-1   -4.404495448072703E-2
 6.457374479500000E9    -5.749530787565934E-1   -1.390430359837512E-1   -7.889035592823543E-3    3.926191058225902E-2   -5.768924415555379E-3    3.899614198992865E-2   -5.377327885408404E-1   -4.264377636156063E-2
 6.457385870750000E9    -5.751355352192231E-1   -1.380003584960542E-1   -7.732750638352155E-3    3.943293115913936E-2   -5.693288986591498E-3    3.937777479275449E-2   -5.378703419906785E-1   -4.125765790380274E-2
 6.457397262000000E9    -5.753238956627630E-1   -1.369090720487760E-1   -7.743888869055237E-3    3.995815340911749E-2   -5.544932055453853E-3    3.957144448194112E-2   -5.380526471107292E-1   -4.003021900117953E-2
 6.457408653250000E9    -5.756834786991885E-1   -1.360404169087865E-1   -7.566189626327980E-3    4.006123011997607E-2   -5.570066964096507E-3    3.978897572300080E-2   -5.381305419031290E-1   -3.861469230620984E-2
 6.457420044500000E9    -5.758803512438813E-1   -1.350168624111075E-1   -7.612281637825195E-3    4.038459582699423E-2   -5.438119132715784E-3    4.010565912596214E-2   -5.380395638079145E-1   -3.737846813943001E-2
 6.457431435750000E9    -5.759972855566639E-1   -1.340449249965588E-1   -7.653441121527090E-3    4.063448034706330E-2   -5.445791971490562E-3    4.042876453303409E-2   -5.381575569057685E-1   -3.593744392757649E-2
 6.457442827000000E9    -5.761832789264698E-1   -1.328924332691326E-1   -7.486823881735423E-3    4.092964502324550E-2   -5.445216987256421E-3    4.066430485424359E-2   -5.381751284561525E-1   -3.462843129165427E-2
 6.457454218250000E9    -5.763731295364448E-1   -1.319885716661495E-1   -7.555876575622801E-3    4.109974137224448E-2   -5.393824095538059E-3    4.083002100933971E-2   -5.382418062777539E-1   -3.329695616344566E-2
 6.457465609500000E9    -5.766173642652948E-1   -1.310398700129504E-1   -7.387046460049085E-3    4.155338023990203E-2   -5.246031297670614E-3    4.105987627030748E-2   -5.383978745152286E-1   -3.192059618207309E-2
 6.457477000750000E9    -5.767758080289606E-1   -1.299623053756395E-1   -7.467180476456505E-3    4.176885608767852E-2   -5.262756090508239E-3    4.142167519911939E-2   -5.385323231718883E-1   -3.054791530586419E-2
 6.457488392000000E9    -5.769633856671402E-1   -1.289965093931073E-1   -7.325418689231400E-3    4.202893057472998E-2   -5.151959936929217E-3    4.165572756735024E-2   -5.385872482389887E-1   -2.910926126734614E-2
 6.457499783250000E9    -5.770890563115157E-1   -1.279110323743868E-1   -7.233810108573993E-3    4.220690684993764E-2   -5.050342559774735E-3    4.188500845722792E-2   -5.385233257064930E-1   -2.783948740036635E-2
 6.457511174500000E9    -5.773251262835289E-1   -1.270036375222258E-1   -7.188569300210565E-3    4.259395288645734E-2   -4.987953911774145E-3    4.216063514501430E-2   -5.386779309081192E-1   -2.646809769866446E-2
 6.457522565750000E9    -5.775646296717791E-1   -1.260562139081666E-1   -7.234884595378775E-3    4.270256091787750E-2   -4.897929412834017E-3    4.245287809510454E-2   -5.385737805560536E-1   -2.507835782582699E-2
 6.457533957000000E9    -5.776617725632334E-1   -1.249066681616766E-1   -7.141840958330015E-3    4.318517665351502E-2   -4.721366729015905E-3    4.273205225701625E-2   -5.387281888748393E-1   -2.372413271940836E-2
 6.457545348250000E9    -5.779082204087704E-1   -1.239138067734751E-1   -6.991554184036543E-3    4.335729643027796E-2   -4.751283253443613E-3    4.300101844754659E-2   -5.387062486653481E-1   -2.224969311179094E-2
 6.457556739500000E9    -5.780168507844508E-1   -1.229452271021281E-1   -6.934848106851024E-3    4.368250512354443E-2   -4.754017862132942E-3    4.330299678037974E-2   -5.388069914899689E-1   -2.087172478015307E-2
 6.457568130750000E9    -5.783189803135995E-1   -1.218441173085748E-1   -6.886841150976141E-3    4.407351423383928E-2   -4.591134931647961E-3    4.369431830806709E-2   -5.388209302968937E-1   -1.957714904787328E-2
 6.457579522000000E9    -5.783783933580957E-1   -1.208448941955455E-1   -6.842116168316650E-3    4.431350082445468E-2   -4.589744772364906E-3    4.395815018842759E-2   -5.389100379993271E-1   -1.800791879176905E-2
 6.457590913250000E9    -5.785917745599716E-1   -1.197235608231765E-1   -6.763586692154244E-3    4.455678460795238E-2   -4.478531043875723E-3    4.421597510664967E-2   -5.387847851602706E-1   -1.665070945711492E-2
 6.457602304500000E9    -5.787881245031908E-1   -1.188021640637598E-1   -6.604275587448582E-3    4.495194512847927E-2   -4.309249211003477E-3    4.451030892624090E-2   -5.389009651236443E-1   -1.527890343076695E-2
 6.457613695750000E9    -5.790244175697291E-1   -1.177594273165191E-1   -6.759629932026988E-3    4.521094782157616E-2   -4.243653533406735E-3    4.480652976859999E-2   -5.388782158825823E-1   -1.384687465662090E-2
 6.457625087000000E9    -5.790942730069915E-1   -1.167804893375078E-1   -6.620652597866524E-3    4.563375019536330E-2   -4.212626391733876E-3    4.517624522151868E-2   -5.390492070704024E-1   -1.238028799694470E-2
 6.457636478250000E9    -5.792834340055117E-1   -1.157658847693242E-1   -6.467262237048503E-3    4.597063816821633E-2   -4.155533942218021E-3    4.546079991090918E-2   -5.387460761168876E-1   -1.084466889426861E-2
 6.457647869500000E9    -5.793965137659599E-1   -1.146847374605953E-1   -6.410465586529053E-3    4.624606446263944E-2   -4.051597467821604E-3    4.569538719635523E-2   -5.388196005400567E-1   -9.449649216713759E-3
 6.457659260750000E9    -5.796060359452271E-1   -1.136078588570831E-1   -6.313157164068228E-3    4.646836615514539E-2   -3.979430781091323E-3    4.608018631238041E-2   -5.388806791148356E-1   -8.003400213148515E-3
 6.457670652000000E9    -5.797674564092511E-1   -1.125922190149500E-1   -6.331579096679293E-3    4.692045974044170E-2   -3.868452638778467E-3    4.645361679542091E-2   -5.387272617060355E-1   -6.542715965478737E-3
 6.457682043250000E9    -5.799263201682547E-1   -1.115771295322586E-1   -6.260257680568229E-3    4.728760646800657E-2   -3.797413310597024E-3    4.674260259115105E-2   -5.389304385247131E-1   -5.109741698172618E-3
 6.457693434500000E9    -5.799570559614182E-1   -1.104878760179827E-1   -6.189730683260784E-3    4.763708069009748E-2   -3.660121058327356E-3    4.724854382778461E-2   -5.387762631539460E-1   -3.458584080931338E-3
 6.457704825750000E9    -5.803148450048784E-1   -1.094446958020257E-1   -6.113709472539137E-3    4.802377259568228E-2   -3.579736967040186E-3    4.749586657749853E-2   -5.387812650055163E-1   -2.042773339151375E-3
 6.457716217000000E9    -5.803303562295754E-1   -1.083285680037169E-1   -5.977170574723668E-3    4.831385868125940E-2   -3.505983642399694E-3    4.783037747939468E-2   -5.388021975548398E-1   -4.253544554201702E-4
 6.457727608250000E9    -5.804628564747668E-1   -1.073938056638304E-1   -5.718436307668335E-3    4.877946251828381E-2   -3.374298491357713E-3    4.813724884410378E-2   -5.386300937089886E-1    1.073179304289650E-3
 6.457738999500000E9    -5.806931012901599E-1   -1.062165604720172E-1   -5.742795965047820E-3    4.894562836348064E-2   -3.284774542677593E-3    4.848736352358754E-2   -5.386662903979098E-1    2.566037831421025E-3
 6.457750390750000E9    -5.807867567040937E-1   -1.052254136130235E-1   -5.709143069082443E-3    4.942256640109387E-2   -3.172850483826589E-3    4.886725249440386E-2   -5.387024761557572E-1    4.157801408021290E-3
 6.457761782000000E9    -5.808636634062205E-1   -1.040997174596147E-1   -5.686064971466022E-3    4.992317451879390E-2   -3.008690172888870E-3    4.924286134879823E-2   -5.385841294851780E-1    5.663907676148882E-3
 6.457773173250000E9    -5.810533386947062E-1   -1.030046659509368E-1   -5.423760499162963E-3    5.025915533027164E-2   -2.910678511366280E-3    4.959229427478240E-2   -5.384484496214319E-1    7.154970645362604E-3
 6.457784564500000E9    -5.812068370577644E-1   -1.020217240633819E-1   -5.500649649284673E-3    5.075791537897990E-2   -2.867649536637005E-3    4.996338156412203E-2   -5.385608464130973E-1    8.726493385438952E-3
 6.457795955750000E9    -5.812939632141524E-1   -1.008902285540665E-1   -5.211391371504158E-3    5.098584824001810E-2   -2.767909500079202E-3    5.041116473276090E-2   -5.382995226125920E-1    1.039387917695978E-2
 6.457807347000000E9    -5.815065084059510E-1   -9.989286962031127E-2   -5.305820122475087E-3    5.135028398798039E-2   -2.680880848948245E-3    5.071395127100215E-2   -5.383256363231378E-1    1.191890157719387E-2
 6.457818738250000E9    -5.816072840769270E-1   -9.880464410331322E-2   -5.115260160818060E-3    5.176151080436407E-2   -2.557810124851393E-3    5.114999360192104E-2   -5.383210519166256E-1    1.338331812741853E-2
 6.457830129500000E9    -5.817591922470999E-1   -9.771418597427950E-2   -5.129636565248207E-3    5.210321934746630E-2   -2.247688701759999E-3    5.146016747097867E-2   -5.382287998299223E-1    1.516511111061701E-2
 6.457841520750000E9    -5.818262500722776E-1   -9.652330043611523E-2   -4.948018122809466E-3    5.257117987716082E-2   -2.177263435990045E-3    5.185896318413475E-2   -5.380335779256568E-1    1.670505275147962E-2
 6.457852912000000E9    -5.820179162377889E-1   -9.551039615308361E-2   -4.944010096270221E-3    5.305119269812158E-2   -2.110812846062038E-3    5.233350242687917E-2   -5.379321109967454E-1    1.829568627286311E-2
 6.457864303250000E9    -5.821222952911091E-1   -9.435494660883649E-2   -4.778286954975501E-3    5.358369193489730E-2   -2.021863538328110E-3    5.268470325299330E-2   -5.377754930682491E-1    2.000952745752511E-2
 6.457875694500000E9    -5.822734207000392E-1   -9.324215788078161E-2   -4.545152419876046E-3    5.392103950475249E-2   -1.983181986552810E-3    5.313565439179878E-2   -5.376355216039023E-1    2.159465306417879E-2
 6.457887085750000E9    -5.821635029361277E-1   -9.224667478986104E-2   -4.569970081665170E-3    5.431315388153940E-2   -1.755146731451920E-3    5.349048838342971E-2   -5.376018480864038E-1    2.335499129359232E-2
 6.457898477000000E9    -5.824626367970820E-1   -9.109701778951750E-2   -4.379253395411497E-3    5.481326754979680E-2   -1.613523191535589E-3    5.400793071994700E-2   -5.374490578855953E-1    2.493694564725049E-2
 6.457909868250000E9    -5.825053315655778E-1   -8.994772575792724E-2   -4.127015407808926E-3    5.516603002544395E-2   -1.474086050883660E-3    5.442821376312208E-2   -5.372887945790554E-1    2.676839858533406E-2
 6.457921259500000E9    -5.825979978178462E-1   -8.884072266879545E-2   -4.044625403018622E-3    5.571331233193967E-2   -1.352488068106213E-3    5.482343221293985E-2   -5.371748902110447E-1    2.833767188373880E-2
 6.457932650750000E9    -5.827676406452564E-1   -8.774977965462333E-2   -4.009210686696503E-3    5.609221028553080E-2   -1.132746969889204E-3    5.537890756383464E-2   -5.367892466291962E-1    3.006650802154351E-2
 6.457944042000000E9    -5.828254996175727E-1   -8.657051681630881E-2   -3.852584420460857E-3    5.673981443325240E-2   -9.551440478717014E-4    5.571465285718807E-2   -5.366655790790776E-1    3.190880738820028E-2
 6.457955433250000E9    -5.829171814873332E-1   -8.555561125088651E-2   -3.593812400060659E-3    5.709497610168352E-2   -8.572166455503411E-4    5.622249597474234E-2   -5.365928028853707E-1    3.358925119426345E-2
 6.457966824500000E9    -5.829205967427055E-1   -8.446639820545400E-2   -3.594115675520167E-3    5.761507510163699E-2   -7.952191509583758E-4    5.673210444592003E-2   -5.364093759195809E-1    3.523032395477550E-2
 6.457978215750000E9    -5.830710203877081E-1   -8.332185596123146E-2   -3.391338130515779E-3    5.806550374939026E-2   -6.175816399600124E-4    5.717017977039020E-2   -5.363528545196458E-1    3.690991418202246E-2
 6.457989607000000E9    -5.830950072514247E-1   -8.221028121715608E-2   -3.220591524228707E-3    5.865406913426484E-2   -4.405655144558840E-4    5.759065483390938E-2   -5.360944734256442E-1    3.883523549414458E-2
 6.458000998250000E9    -5.831364143963653E-1   -8.118547970988205E-2   -3.122765323586369E-3    5.911500768680582E-2   -2.154075618097096E-4    5.814931379371804E-2   -5.359688605763091E-1    4.066846654633811E-2
 6.458012389500000E9    -5.833010508736789E-1   -7.991444758187255E-2   -2.976515552739337E-3    5.964729791268143E-2   -3.843513234244583E-5    5.868347093626936E-2   -5.356589273556764E-1    4.247067054771547E-2
 6.458023780750000E9    -5.833102646548869E-1   -7.878085240911199E-2   -2.868305163950970E-3    6.009290331823433E-2    1.071167846238067E-4    5.913810552216088E-2   -5.353828699476769E-1    4.426342959687103E-2
 6.458035172000000E9    -5.835023714574532E-1   -7.760296213610859E-2   -2.596988361203830E-3    6.077690412920798E-2    3.131790443002261E-4    5.971723088560488E-2   -5.350688420226045E-1    4.607245700667303E-2
 6.458046563250000E9    -5.835438116963827E-1   -7.642362266264338E-2   -2.457159242676781E-3    6.116189076387318E-2    4.921352979092445E-4    6.019420408954022E-2   -5.348907383947759E-1    4.791977298882887E-2
 6.458057954500000E9    -5.836274873185455E-1   -7.524972278980283E-2   -2.266462656632614E-3    6.166311287844661E-2    8.034492643691820E-4    6.077140994866630E-2   -5.347608179030497E-1    4.980406068592041E-2
