#  HZ   S   RI   R     50.00 
! Rohde & Schwarz Vector Network Analyzer 
! Rohde-Schwarz,ZNB20-2Port,1311601062101988,3.16
! Created: UTC 3/20/2024, 11:18:47 PM
! freq[Hz]                re:S11                  im:S11                  re:S21                  im:S21                  re:S12                  im:S12                  re:S22                  im:S22
 6.457033106000000E9    -5.678681005890723E-1   -1.679176670836109E-1   -8.704050371967717E-3    3.281314562744531E-2   -6.950936279187873E-3    3.278874452011101E-2   -5.337626491142795E-1   -7.978199085375103E-2
 6.457044499700000E9    -5.681882531869966E-1   -1.669133312353416E-1   -8.769664423170787E-3    3.299867920908208E-2   -6.906458805308138E-3    3.305059208818240E-2   -5.340534923445820E-1   -7.851617744591377E-2
 6.457055893400000E9    -5.684791431639064E-1   -1.660424680984414E-1   -8.722932251420415E-3    3.325197711400803E-2   -6.895118169829852E-3    3.316208186655305E-2   -5.341494772914539E-1   -7.729555962058146E-2
 6.457067287100000E9    -5.686795523319151E-1   -1.650463441226226E-1   -8.874633426788812E-3    3.342957303323488E-2   -6.866726824659501E-3    3.338834865047895E-2   -5.342842544327268E-1   -7.616794391409218E-2
 6.457078680800000E9    -5.689092869594981E-1   -1.642084665061346E-1   -8.758602903545180E-3    3.355849109148230E-2   -6.766805110971350E-3    3.356342714988624E-2   -5.343976514191506E-1   -7.500573910070113E-2
 6.457090074500000E9    -5.691849418546451E-1   -1.631479915094998E-1   -8.720755065355341E-3    3.375263310694222E-2   -6.829115299642095E-3    3.365130601405106E-2   -5.347163868422531E-1   -7.378745674365884E-2
 6.457101468200000E9    -5.693276909199484E-1   -1.623165941475299E-1   -8.647474532871768E-3    3.398648205795959E-2   -6.700918937368771E-3    3.393633453913290E-2   -5.347909241786686E-1   -7.272566504916020E-2
 6.457112861900000E9    -5.697823629455075E-1   -1.612879703988066E-1   -8.582375080208673E-3    3.420267038403588E-2   -6.669964162843050E-3    3.409893603953191E-2   -5.348929328253492E-1   -7.139228272702187E-2
 6.457124255600000E9    -5.699369668662598E-1   -1.603384458059132E-1   -8.448598270644645E-3    3.428483953620670E-2   -6.710671099645543E-3    3.427914271506247E-2   -5.349951722895119E-1   -7.025691386677722E-2
 6.457135649300000E9    -5.701578799707533E-1   -1.593497381749091E-1   -8.371642111117884E-3    3.444971206089078E-2   -6.752623932551488E-3    3.450505790046803E-2   -5.352800435209429E-1   -6.899008526117725E-2
 6.457147043000000E9    -5.703884074319161E-1   -1.583981139417666E-1   -8.571342105971854E-3    3.480569800504025E-2   -6.513319598053027E-3    3.465256445381773E-2   -5.354391958765079E-1   -6.787797570805024E-2
 6.457158436700000E9    -5.705954879481093E-1   -1.574362347487663E-1   -8.519430713277990E-3    3.498349228190753E-2   -6.617363515049142E-3    3.480794565186705E-2   -5.355625483146802E-1   -6.650857673774967E-2
 6.457169830400000E9    -5.709494158831248E-1   -1.564055118890554E-1   -8.458586845934393E-3    3.516401341468251E-2   -6.514251939068318E-3    3.504064410742663E-2   -5.357120866729658E-1   -6.531075852808525E-2
 6.457181224100000E9    -5.711140581921335E-1   -1.555773917161863E-1   -8.367586006534623E-3    3.543421376228460E-2   -6.521908214403098E-3    3.537871231576824E-2   -5.358073032603863E-1   -6.412295477945726E-2
 6.457192617800000E9    -5.713481167866367E-1   -1.545249836726331E-1   -8.338229998361818E-3    3.562663364217596E-2   -6.515878695718437E-3    3.548684123138734E-2   -5.358803288558637E-1   -6.277566573025771E-2
 6.457204011500000E9    -5.715994624168288E-1   -1.535748489314890E-1   -8.288348258012822E-3    3.579739831251683E-2   -6.397501107690588E-3    3.572846586649391E-2   -5.359790383522801E-1   -6.173144422727400E-2
 6.457215405200000E9    -5.717731398313316E-1   -1.526572750685771E-1   -8.395725427399534E-3    3.597467801676173E-2   -6.376420134261301E-3    3.594903035495218E-2   -5.362464012076877E-1   -6.037258430919327E-2
 6.457226798900000E9    -5.719204927950363E-1   -1.516991756436075E-1   -8.166632391911743E-3    3.620058853635889E-2   -6.235971404860573E-3    3.616653264480361E-2   -5.364073982648574E-1   -5.925495556661802E-2
 6.457238192600000E9    -5.722390492441667E-1   -1.506746051971351E-1   -8.187429556307753E-3    3.641949920437831E-2   -6.362734775012402E-3    3.636762414858482E-2   -5.365366521015410E-1   -5.801730108890540E-2
 6.457249586300000E9    -5.725289276199778E-1   -1.497093672308624E-1   -8.248847792316379E-3    3.674865022491834E-2   -6.195296255303294E-3    3.659143135347206E-2   -5.366476727660696E-1   -5.672461425939106E-2
 6.457260980000000E9    -5.727778124099725E-1   -1.487497790005452E-1   -8.190977924374220E-3    3.699600258624673E-2   -6.228317752677352E-3    3.679550794293887E-2   -5.366125577406691E-1   -5.556442867585813E-2
 6.457272373700000E9    -5.730242354431495E-1   -1.477539474186530E-1   -8.087603538644832E-3    3.715767034443578E-2   -6.231269356273056E-3    3.705828786459656E-2   -5.368941277708427E-1   -5.422589374106059E-2
 6.457283767400000E9    -5.731048324155998E-1   -1.468740655210533E-1   -8.132681504879195E-3    3.738034050977938E-2   -6.036049153573141E-3    3.723835701701171E-2   -5.369448077184874E-1   -5.286245102350349E-2
 6.457295161100000E9    -5.735277690871298E-1   -1.458415283894789E-1   -8.040049423671329E-3    3.761039629621660E-2   -5.996331822279122E-3    3.738892515849128E-2   -5.370135526003512E-1   -5.160438769209164E-2
 6.457306554800000E9    -5.735248302441027E-1   -1.448400117642431E-1   -8.071170634222299E-3    3.782188709837132E-2   -6.049818682089713E-3    3.761537855128499E-2   -5.371564586638906E-1   -5.031924848745935E-2
 6.457317948500000E9    -5.738474197894802E-1   -1.437677703358460E-1   -8.061374154684296E-3    3.821184577687462E-2   -5.988928117216834E-3    3.798728811297611E-2   -5.373917437352631E-1   -4.905766912506029E-2
 6.457329342200000E9    -5.739901079505857E-1   -1.429039804205461E-1   -7.993587373892103E-3    3.836418494341189E-2   -5.918741756684693E-3    3.811071089917559E-2   -5.374148034299843E-1   -4.786981963824836E-2
 6.457340735900000E9    -5.742530479699047E-1   -1.418760098303794E-1   -7.960947553943139E-3    3.862096813788177E-2   -5.870114443301001E-3    3.834095302653286E-2   -5.375655678776304E-1   -4.642776049803805E-2
 6.457352129600000E9    -5.745577209835703E-1   -1.409097053081404E-1   -7.785207405144800E-3    3.877499543371865E-2   -5.756951684265599E-3    3.853246065423614E-2   -5.377383929259386E-1   -4.526707494566903E-2
 6.457363523300000E9    -5.747898273095011E-1   -1.398819389722785E-1   -7.882496673435701E-3    3.890811262612817E-2   -5.771198299842652E-3    3.874788220930839E-2   -5.376917275565740E-1   -4.384284120731204E-2
 6.457374917000000E9    -5.748773278953484E-1   -1.388042838622517E-1   -7.738860568985362E-3    3.921990411069085E-2   -5.676432540896423E-3    3.904212402902580E-2   -5.378382808049508E-1   -4.263449528822850E-2
 6.457386310700000E9    -5.751544073839444E-1   -1.379014954867203E-1   -7.841105219985002E-3    3.955730070486942E-2   -5.620736707929131E-3    3.924284054808496E-2   -5.377889897419332E-1   -4.119348013993336E-2
 6.457397704400000E9    -5.753576253453870E-1   -1.369309789866816E-1   -7.934379767098629E-3    3.989175205224301E-2   -5.581047194698926E-3    3.954201026483582E-2   -5.379621921468690E-1   -3.992951938406900E-2
 6.457409098100000E9    -5.754838703409477E-1   -1.359853515842909E-1   -7.610620209742520E-3    4.010353550723078E-2   -5.477046306629837E-3    3.981707739431511E-2   -5.380680862903047E-1   -3.858168342814197E-2
 6.457420491800000E9    -5.757541134479701E-1   -1.348697610913617E-1   -7.638872568156087E-3    4.036639320640164E-2   -5.512868895718212E-3    4.005006081339049E-2   -5.381729524103306E-1   -3.721148641396753E-2
 6.457431885500000E9    -5.761014443532531E-1   -1.339641137182457E-1   -7.545722478197642E-3    4.065958998023738E-2   -5.406666331850432E-3    4.037019272232738E-2   -5.381231731140000E-1   -3.596332749376629E-2
 6.457443279200000E9    -5.762108280429533E-1   -1.329224712713399E-1   -7.465055459756214E-3    4.082854955222913E-2   -5.346174713991372E-3    4.061893288578871E-2   -5.381680316492052E-1   -3.465318561386771E-2
 6.457454672900000E9    -5.763729891816560E-1   -1.319658169966572E-1   -7.510505369324788E-3    4.114705322422402E-2   -5.244699108379210E-3    4.078222348143273E-2   -5.381828319446511E-1   -3.316831164451678E-2
 6.457466066600000E9    -5.765173722270980E-1   -1.309482084105753E-1   -7.502897042144155E-3    4.138628028767204E-2   -5.229844339945504E-3    4.103790885495683E-2   -5.383405216686755E-1   -3.203065596769100E-2
 6.457477460300000E9    -5.767167036034949E-1   -1.299965628140649E-1   -7.388712330743707E-3    4.170503690839383E-2   -5.206560069199047E-3    4.136190933758310E-2   -5.384435309891852E-1   -3.039161712491451E-2
 6.457488854000000E9    -5.770130062671833E-1   -1.289989640322907E-1   -7.259979230973553E-3    4.198050923672216E-2   -5.134376825402503E-3    4.169332816219098E-2   -5.385853743783011E-1   -2.912099005816148E-2
 6.457500247700000E9    -5.771472709188087E-1   -1.279188320250359E-1   -7.289825639975606E-3    4.225948252995432E-2   -5.038475784702521E-3    4.205890445664413E-2   -5.385355086192860E-1   -2.789175026941487E-2
 6.457511641400000E9    -5.772500463455449E-1   -1.268409144303762E-1   -7.241644233847645E-3    4.255745410860384E-2   -4.932787903818745E-3    4.214097436088256E-2   -5.387156911579735E-1   -2.639097884782025E-2
 6.457523035100000E9    -5.774119693957083E-1   -1.259104682270042E-1   -7.231367880070757E-3    4.282445131025814E-2   -4.952846650487985E-3    4.242224598719452E-2   -5.387231917145977E-1   -2.499033412487047E-2
 6.457534428800000E9    -5.777393942172844E-1   -1.249041580489145E-1   -6.995492876719628E-3    4.309486679382230E-2   -4.740326565916291E-3    4.275999395613302E-2   -5.387482881080645E-1   -2.378728484253145E-2
 6.457545822500000E9    -5.779057666630183E-1   -1.238412140464460E-1   -7.079840519849008E-3    4.351433928314778E-2   -4.685517255082696E-3    4.299433573764380E-2   -5.386935732732390E-1   -2.224742119649468E-2
 6.457557216200000E9    -5.780503780599888E-1   -1.227305506768619E-1   -7.016835655110762E-3    4.367227502039036E-2   -4.676267706154089E-3    4.334106421643266E-2   -5.388550445352981E-1   -2.079049743947208E-2
 6.457568609900000E9    -5.782510697429885E-1   -1.218489706198790E-1   -6.952680452746646E-3    4.390881249485739E-2   -4.598487681545337E-3    4.364416104851283E-2   -5.388967736107989E-1   -1.933892168557834E-2
 6.457580003600000E9    -5.784489842585560E-1   -1.208445788387936E-1   -6.864064485191251E-3    4.433502291704895E-2   -4.535705157835041E-3    4.392540392972123E-2   -5.387385765256180E-1   -1.810693342521901E-2
 6.457591397300000E9    -5.785763805925735E-1   -1.197558417627901E-1   -6.771634682225078E-3    4.450723563829476E-2   -4.423414153292443E-3    4.421343590712365E-2   -5.388605070110815E-1   -1.670402209678576E-2
 6.457602791000000E9    -5.787179731188898E-1   -1.187430091766305E-1   -6.710099280979678E-3    4.495204693618258E-2   -4.381752102863497E-3    4.452454024547021E-2   -5.388715527472907E-1   -1.520427597799380E-2
 6.457614184700000E9    -5.788985232085342E-1   -1.177216811700239E-1   -6.629051968536534E-3    4.529752017918798E-2   -4.267925132063435E-3    4.483579158074749E-2   -5.388063811052055E-1   -1.371495010362489E-2
 6.457625578400000E9    -5.791241845143912E-1   -1.166925308152375E-1   -6.570899309592511E-3    4.545978698501153E-2   -4.210407634069570E-3    4.514798731215196E-2   -5.388500958981403E-1   -1.235540043590463E-2
 6.457636972100000E9    -5.792070923968506E-1   -1.154491646990386E-1   -6.580366657794548E-3    4.592248989770209E-2   -4.168393800861721E-3    4.550223750534811E-2   -5.388416091776832E-1   -1.093898861642283E-2
 6.457648365800000E9    -5.794532873944508E-1   -1.145555904596450E-1   -6.368436769686135E-3    4.622989309021347E-2   -4.093540264095588E-3    4.570046098173639E-2   -5.388655660560280E-1   -9.407258383425149E-3
 6.457659759500000E9    -5.795247449839038E-1   -1.135519480045563E-1   -6.343564542807298E-3    4.647762551059017E-2   -3.927495194454035E-3    4.618463704400412E-2   -5.388162065807370E-1   -7.995684447088610E-3
 6.457671153200000E9    -5.797957128639770E-1   -1.125912875664747E-1   -6.344393368722810E-3    4.689738487488425E-2   -3.793860127284585E-3    4.646500535704689E-2   -5.389294392202899E-1   -6.484038193530360E-3
 6.457682546900000E9    -5.798112538674128E-1   -1.114087869011007E-1   -6.146624016460711E-3    4.726704689212683E-2   -3.788555204687372E-3    4.673837963506931E-2   -5.387672525255711E-1   -4.995757392587668E-3
 6.457693940600000E9    -5.800412134526695E-1   -1.105482374241615E-1   -6.074306640104970E-3    4.761681179419204E-2   -3.767333468957192E-3    4.708132713725924E-2   -5.387446302622245E-1   -3.475544283654978E-3
 6.457705334300000E9    -5.802588570600508E-1   -1.093405870428472E-1   -6.138523237952524E-3    4.786712999129662E-2   -3.584871655864918E-3    4.748587046040990E-2   -5.387629665093513E-1   -2.058000591974079E-3
 6.457716728000000E9    -5.802990155673529E-1   -1.084014167791022E-1   -5.983164374117915E-3    4.828964253349004E-2   -3.424672842758644E-3    4.780134686298237E-2   -5.387716218503855E-1   -4.609410069115009E-4
 6.457728121700000E9    -5.805706988717410E-1   -1.072491156872155E-1   -5.812219616839344E-3    4.874234294660457E-2   -3.340945265814103E-3    4.807649979780151E-2   -5.386733508396084E-1    9.539873408069736E-4
 6.457739515400000E9    -5.806928537829847E-1   -1.062622450034826E-1   -5.875907852550453E-3    4.911549957468783E-2   -3.293896394174183E-3    4.840926421044366E-2   -5.386247181613851E-1    2.587247771181944E-3
 6.457750909100000E9    -5.807563871688667E-1   -1.051962212307930E-1   -5.659253462165316E-3    4.948924344096853E-2   -3.156691672316638E-3    4.883537473027472E-2   -5.386507321607922E-1    4.075477530736932E-3
 6.457762302800000E9    -5.809153394603960E-1   -1.040812344938497E-1   -5.675536655676344E-3    4.987669991299760E-2   -3.108725106016313E-3    4.921633043120612E-2   -5.385622731307326E-1    5.580877680170208E-3
 6.457773696500000E9    -5.811252342507965E-1   -1.029977562169228E-1   -5.559445760289097E-3    5.021280672294805E-2   -2.938257376451383E-3    4.964782144471765E-2   -5.386457640547964E-1    7.269049858399857E-3
 6.457785090200000E9    -5.811031829510019E-1   -1.019181316471874E-1   -5.290149477501250E-3    5.055936957810841E-2   -2.918214141648602E-3    4.997032788823298E-2   -5.385830230225604E-1    8.689509473802112E-3
 6.457796483900000E9    -5.813442430941915E-1   -1.009398281234491E-1   -5.422057806766470E-3    5.110649400687454E-2   -2.705682135609081E-3    5.026860670897536E-2   -5.383201360726447E-1    1.044643778489246E-2
 6.457807877600000E9    -5.815004847829400E-1   -9.988558371878015E-2   -5.232458258583536E-3    5.149086022913410E-2   -2.621522275947943E-3    5.070352661066364E-2   -5.383623328712943E-1    1.199958663463722E-2
 6.457819271300000E9    -5.816313262442346E-1   -9.875353135649875E-2   -4.988258399042485E-3    5.185514118783745E-2   -2.529898082536686E-3    5.105943679708269E-2   -5.381895588820064E-1    1.374967946782775E-2
 6.457830665000000E9    -5.816924447074618E-1   -9.767038023205719E-2   -4.989190086933100E-3    5.217712106459105E-2   -2.456261340277241E-3    5.150557692830117E-2   -5.381623364641972E-1    1.517366972785148E-2
 6.457842058700000E9    -5.817927125303337E-1   -9.659794236512624E-2   -4.898151239806547E-3    5.263991059370137E-2   -2.289107739641172E-3    5.183089387287544E-2   -5.379633477445688E-1    1.671493000873055E-2
 6.457853452400000E9    -5.820231716458962E-1   -9.548250910077763E-2   -4.728772647150748E-3    5.301216482859817E-2   -2.182342699555769E-3    5.236038004236468E-2   -5.380027470011026E-1    1.839174901018446E-2
 6.457864846100000E9    -5.819994660180282E-1   -9.432813083262372E-2   -4.736801456649898E-3    5.352128250128119E-2   -2.021006939032688E-3    5.271795833566812E-2   -5.378332042567414E-1    2.002037781560454E-2
 6.457876239800000E9    -5.821011349226747E-1   -9.328354398693206E-2   -4.558592107015588E-3    5.382482405191239E-2   -1.909070961732945E-3    5.316408550531890E-2   -5.377703429298273E-1    2.172360785370596E-2
 6.457887633500000E9    -5.821961116583689E-1   -9.211704292671179E-2   -4.412364331624770E-3    5.434432770479254E-2   -1.781538104247597E-3    5.364169381318924E-2   -5.375724071923689E-1    2.326707182974596E-2
 6.457899027200000E9    -5.823583307114840E-1   -9.119057627191764E-2   -4.188147591849667E-3    5.476841471477367E-2   -1.614914238136561E-3    5.401954878613430E-2   -5.373441673076323E-1    2.501333485824036E-2
 6.457910420900000E9    -5.824755348931249E-1   -8.993174694380400E-2   -4.230109080509729E-3    5.522857438253688E-2   -1.446576692397601E-3    5.439906114478260E-2   -5.372342528007917E-1    2.669939682576736E-2
 6.457921814600000E9    -5.825946437243918E-1   -8.890477477636698E-2   -4.022447137735721E-3    5.567550841098463E-2   -1.382992215871972E-3    5.488832173200088E-2   -5.370453746120309E-1    2.838835004960595E-2
 6.457933208300000E9    -5.827271176553606E-1   -8.776913390873237E-2   -3.858491192085089E-3    5.619196623334431E-2   -1.241267365849614E-3    5.534572878308851E-2   -5.369760658554253E-1    3.011211665681607E-2
 6.457944602000000E9    -5.828284786218365E-1   -8.662799353965765E-2   -3.848624347960557E-3    5.660750653496592E-2   -1.009146717776511E-3    5.586201758557710E-2   -5.367404487386060E-1    3.174969522727120E-2
 6.457955995700000E9    -5.828963790092038E-1   -8.560559115894513E-2   -3.829419843464769E-3    5.697119211703815E-2   -8.805492710496737E-4    5.621979067772041E-2   -5.366039771011337E-1    3.350059134301898E-2
 6.457967389400000E9    -5.829275958137732E-1   -8.445164606149753E-2   -3.485621368924135E-3    5.756874833650452E-2   -6.932990305499740E-4    5.668623702023674E-2   -5.364721660682568E-1    3.531011480948540E-2
 6.457978783100000E9    -5.831359339192986E-1   -8.320762993044180E-2   -3.439187502170289E-3    5.813097160412781E-2   -5.220502133062146E-4    5.717874592354844E-2   -5.363321040137098E-1    3.711545783219809E-2
 6.457990176800000E9    -5.831513238729260E-1   -8.211596258218776E-2   -3.293810825657903E-3    5.860508936196512E-2   -4.737442966493497E-4    5.761086090600833E-2   -5.360616574440482E-1    3.876686229197965E-2
 6.458001570500000E9    -5.833147449433662E-1   -8.102932590402662E-2   -3.219787968622182E-3    5.903063970701366E-2   -1.957064253324989E-4    5.813824162424897E-2   -5.358881596106246E-1    4.060804657274886E-2
 6.458012964200000E9    -5.833062507539689E-1   -7.985245682745164E-2   -2.895996911619620E-3    5.969305405126948E-2   -5.554369800990351E-5    5.870770489574721E-2   -5.356100490700579E-1    4.241962273786509E-2
 6.458024357900000E9    -5.833592243927915E-1   -7.866031083398103E-2   -2.734083987741736E-3    6.011356655770741E-2    1.509493448561424E-4    5.927253104968068E-2   -5.354474760994650E-1    4.433477570780695E-2
 6.458035751600000E9    -5.834483936241343E-1   -7.762333151762850E-2   -2.628969222448351E-3    6.071521928476210E-2    3.653073329103210E-4    5.968970304761474E-2   -5.351863283168121E-1    4.617466043768410E-2
 6.458047145300000E9    -5.834756619703819E-1   -7.637989453013867E-2   -2.403448083583331E-3    6.132035967672545E-2    5.519239493688152E-4    6.021964000433962E-2   -5.349480791270809E-1    4.777948815192016E-2
 6.458058539000000E9    -5.836195977486850E-1   -7.518540555678031E-2   -2.360797534874898E-3    6.178139342351687E-2    6.657706536238415E-4    6.072303105918994E-2   -5.346209833441390E-1    4.976736746766291E-2
