#  HZ   S   RI   R     50.00 
! Rohde & Schwarz Vector Network Analyzer 
! Rohde-Schwarz,ZNB20-2Port,1311601062101988,3.16
! Created: UTC 3/20/2024, 11:19:36 PM
! freq[Hz]                re:S11                  im:S11                  re:S21                  im:S21                  re:S12                  im:S12                  re:S22                  im:S22
 6.457050205000000E9    -5.682102783867541E-1   -1.661045639860057E-1   -8.613182079598457E-3    3.306375744178093E-2   -6.832528385128805E-3    3.292490270116544E-2   -5.345394602636095E-1   -7.772724618895917E-2
 6.457061549325000E9    -5.685361650162001E-1   -1.653232798817041E-1   -8.652445887877955E-3    3.316397978369254E-2   -6.835226387698299E-3    3.315942756286942E-2   -5.347532910251330E-1   -7.666835123077859E-2
 6.457072893650000E9    -5.686605890192900E-1   -1.645017196848987E-1   -8.521123191981396E-3    3.328550924934282E-2   -6.816599689286461E-3    3.333198456408849E-2   -5.348997872544221E-1   -7.553311581850099E-2
 6.457084237975000E9    -5.689946081782643E-1   -1.634608775779871E-1   -8.703095369947372E-3    3.350328641400561E-2   -6.798750202204816E-3    3.348314411786373E-2   -5.350556334234936E-1   -7.440113710806504E-2
 6.457095582300000E9    -5.692091360600389E-1   -1.625955053618587E-1   -8.653381542226002E-3    3.382447539103779E-2   -6.780300435010168E-3    3.368233059079582E-2   -5.353199366365516E-1   -7.309903749902520E-2
 6.457106926625000E9    -5.694371173983611E-1   -1.616176471423168E-1   -8.439916264383427E-3    3.399599601541820E-2   -6.679250678513947E-3    3.384869276599221E-2   -5.355379886825928E-1   -7.194628212637900E-2
 6.457118270950000E9    -5.697261981351586E-1   -1.606428930451088E-1   -8.434213837453089E-3    3.425793711300819E-2   -6.675564384376312E-3    3.408656770374823E-2   -5.355788871457885E-1   -7.072293648639176E-2
 6.457129615275000E9    -5.698401131295232E-1   -1.597143991264370E-1   -8.420513421093368E-3    3.431449079667527E-2   -6.649017329040811E-3    3.420075045067146E-2   -5.357417025540481E-1   -6.978899694781175E-2
 6.457140959600000E9    -5.701973743909441E-1   -1.586529151899111E-1   -8.566276924197693E-3    3.456204035530026E-2   -6.678104646415959E-3    3.446877436494826E-2   -5.359319963543016E-1   -6.856345794274930E-2
 6.457152303925000E9    -5.704075428726640E-1   -1.577770446942439E-1   -8.443564041636068E-3    3.470974563951702E-2   -6.550582644121406E-3    3.465505568029883E-2   -5.358770284258002E-1   -6.722980401856517E-2
 6.457163648250000E9    -5.707695201181857E-1   -1.568671111817367E-1   -8.494430149205853E-3    3.503663205978868E-2   -6.504717948096683E-3    3.484741974553741E-2   -5.362015955225048E-1   -6.593683673922923E-2
 6.457174992575000E9    -5.709981254266705E-1   -1.559121329333448E-1   -8.410772612329486E-3    3.518084399361067E-2   -6.534343410304314E-3    3.499719819008974E-2   -5.363840914283002E-1   -6.473887507464243E-2
 6.457186336900000E9    -5.712642386726969E-1   -1.549509052631217E-1   -8.343722834024112E-3    3.541540720862890E-2   -6.418385597586583E-3    3.527046262759346E-2   -5.363928202288368E-1   -6.355525636940514E-2
 6.457197681225000E9    -5.713642128794517E-1   -1.539664347552200E-1   -8.232518997487096E-3    3.558955743932626E-2   -6.387039206746644E-3    3.546183345449357E-2   -5.366218015226014E-1   -6.239147648749181E-2
 6.457209025550000E9    -5.717258937403912E-1   -1.530694041027409E-1   -8.276245794508811E-3    3.573720426826402E-2   -6.338668320760826E-3    3.566962576745770E-2   -5.367642538039729E-1   -6.109367505658563E-2
 6.457220369875000E9    -5.719171266322752E-1   -1.520639329623538E-1   -8.328066370901553E-3    3.587608413462450E-2   -6.280874559521049E-3    3.588431342003953E-2   -5.368523370177276E-1   -5.973003326232611E-2
 6.457231714200000E9    -5.721299431159023E-1   -1.510214905321700E-1   -8.212453010693909E-3    3.621293795470473E-2   -6.257276339440386E-3    3.614676835166448E-2   -5.368081503129805E-1   -5.856238572859745E-2
 6.457243058525000E9    -5.723690350412105E-1   -1.501761763927317E-1   -8.220422819715058E-3    3.638616475575420E-2   -6.252816796603581E-3    3.626043662070430E-2   -5.370408082299116E-1   -5.748587688562754E-2
 6.457254402850000E9    -5.726390928591411E-1   -1.491475465218179E-1   -8.157109438835877E-3    3.676339278926365E-2   -6.210026055864453E-3    3.648549432417290E-2   -5.371098890433963E-1   -5.598826789100739E-2
 6.457265747175000E9    -5.727564702365675E-1   -1.483017574611985E-1   -8.076299553578538E-3    3.689637046670791E-2   -6.108295064732473E-3    3.670014397351450E-2   -5.373454835800473E-1   -5.490547625440714E-2
 6.457277091500000E9    -5.731543605598503E-1   -1.472850411357870E-1   -8.028707552000938E-3    3.712889498083041E-2   -6.102670642171499E-3    3.688481424583286E-2   -5.373780883115844E-1   -5.360351104675169E-2
 6.457288435825000E9    -5.732295690955981E-1   -1.462684388876911E-1   -7.976591890145348E-3    3.734696013059394E-2   -6.160240758679588E-3    3.727740868480644E-2   -5.375360895159481E-1   -5.238754930989807E-2
 6.457299780150000E9    -5.734654178432068E-1   -1.454006396389425E-1   -7.932076330970581E-3    3.763186688256438E-2   -6.091622455303712E-3    3.736132727228761E-2   -5.375873605027940E-1   -5.105101384128281E-2
 6.457311124475000E9    -5.737013818212964E-1   -1.443038200965963E-1   -7.990112820141703E-3    3.779827481681432E-2   -6.013320402181999E-3    3.755000269785810E-2   -5.377472542221565E-1   -4.983616876315704E-2
 6.457322468800000E9    -5.738281232739432E-1   -1.433703890244128E-1   -7.982032401248135E-3    3.802833466456122E-2   -5.995220098892418E-3    3.792799712183090E-2   -5.379773791685261E-1   -4.843276937273095E-2
 6.457333813125000E9    -5.741230264077519E-1   -1.423788198748567E-1   -7.910696128901213E-3    3.834143172926777E-2   -5.958755567167523E-3    3.813885807161510E-2   -5.378818185105997E-1   -4.724671553449064E-2
 6.457345157450000E9    -5.743603666719758E-1   -1.414060263418785E-1   -7.794798402214154E-3    3.850502867763220E-2   -5.852812234534694E-3    3.826371899623183E-2   -5.380784970180122E-1   -4.615679301248705E-2
 6.457356501775000E9    -5.745539016631401E-1   -1.403327527755179E-1   -7.955816235915712E-3    3.877130918975234E-2   -5.794419343772429E-3    3.857484289237219E-2   -5.381926588371704E-1   -4.463293632425835E-2
 6.457367846100000E9    -5.747897701614127E-1   -1.393170276056826E-1   -7.842695242876247E-3    3.905212945640921E-2   -5.686033937154997E-3    3.872736822741434E-2   -5.382035229776494E-1   -4.343394056631811E-2
 6.457379190425000E9    -5.749627767669657E-1   -1.385061186474873E-1   -7.824364601073816E-3    3.922621910110009E-2   -5.772548025191896E-3    3.902574042174470E-2   -5.383436290969191E-1   -4.209919398667630E-2
 6.457390534750000E9    -5.753025194255459E-1   -1.375449247226704E-1   -7.722952230922277E-3    3.946931315132875E-2   -5.512801443546865E-3    3.919916050747865E-2   -5.384732846905043E-1   -4.089296453560490E-2
 6.457401879075000E9    -5.753497622319269E-1   -1.364365872788077E-1   -7.610214570302427E-3    3.984364460379806E-2   -5.456495677312752E-3    3.946774949555838E-2   -5.385091540516124E-1   -3.948285581406805E-2
 6.457413223400000E9    -5.757043822874215E-1   -1.355178867868842E-1   -7.565463034777093E-3    4.006164045153371E-2   -5.411292403794145E-3    3.980922653993299E-2   -5.386040350904495E-1   -3.802914452653855E-2
 6.457424567725000E9    -5.758288314211033E-1   -1.345489075004174E-1   -7.539446401525336E-3    4.031243379575226E-2   -5.483960432447614E-3    4.002844223277519E-2   -5.387508813587938E-1   -3.681980483629929E-2
 6.457435912050000E9    -5.760857694528604E-1   -1.335928800308848E-1   -7.492555308932005E-3    4.048360810847122E-2   -5.283364152549985E-3    4.025812662167733E-2   -5.386898312603849E-1   -3.542986206215203E-2
 6.457447256375000E9    -5.761808562014986E-1   -1.325999900019814E-1   -7.407366155220555E-3    4.066373262811573E-2   -5.293307748668732E-3    4.061344187075939E-2   -5.388494903810510E-1   -3.418208186171478E-2
 6.457458600700000E9    -5.764479071231633E-1   -1.316328705023761E-1   -7.455267156706614E-3    4.105209915571555E-2   -5.289123038820658E-3    4.072699772624134E-2   -5.389613523938259E-1   -3.269385332747004E-2
 6.457469945025000E9    -5.766993637698913E-1   -1.306298211039707E-1   -7.374279202288946E-3    4.136138233644193E-2   -5.210269109915966E-3    4.104789795597246E-2   -5.389378436532307E-1   -3.159682417482101E-2
 6.457481289350000E9    -5.767833955282734E-1   -1.294631619715130E-1   -7.208901416130763E-3    4.172212539001492E-2   -5.102121434630417E-3    4.134089265417746E-2   -5.390264172607754E-1   -3.007065637677674E-2
 6.457492633675000E9    -5.768772920105781E-1   -1.285212892378597E-1   -7.196553683086747E-3    4.198745082340422E-2   -5.086565004654382E-3    4.155584858439218E-2   -5.389688020970416E-1   -2.881855869967819E-2
 6.457503978000000E9    -5.772140530741653E-1   -1.275111006214880E-1   -7.335316946269343E-3    4.210608889052597E-2   -5.003683911049319E-3    4.192236994556211E-2   -5.390838304905023E-1   -2.749246487097048E-2
 6.457515322325000E9    -5.774117240340109E-1   -1.265874015095398E-1   -7.104145829299155E-3    4.232812649952157E-2   -4.953579201718929E-3    4.218985169324055E-2   -5.391861212796821E-1   -2.591090292268384E-2
 6.457526666650000E9    -5.776241723706715E-1   -1.255562047621875E-1   -7.041119693892642E-3    4.269583878774685E-2   -4.800289642389599E-3    4.240191909975245E-2   -5.392431990949833E-1   -2.466672002271254E-2
 6.457538010975000E9    -5.776984095323252E-1   -1.245665871902478E-1   -7.019438580754090E-3    4.308306843467826E-2   -4.726383839854761E-3    4.275568447102130E-2   -5.392071951141857E-1   -2.319784055951224E-2
 6.457549355300000E9    -5.779635386703531E-1   -1.235094117190148E-1   -6.885420214230139E-3    4.329919940842860E-2   -4.803447791926220E-3    4.299169449702969E-2   -5.393551932015787E-1   -2.180948566933892E-2
 6.457560699625000E9    -5.781436990937856E-1   -1.224934265199296E-1   -6.928182371741103E-3    4.361628548355406E-2   -4.662323308578698E-3    4.331249578482049E-2   -5.392363451845062E-1   -2.059183050853602E-2
 6.457572043950000E9    -5.783234461918408E-1   -1.214548873013412E-1   -6.839883651087454E-3    4.391182533182568E-2   -4.615869289996980E-3    4.353978448831775E-2   -5.392530432965847E-1   -1.911042659110072E-2
 6.457583388275000E9    -5.784643645135384E-1   -1.203928826339971E-1   -6.808164440676079E-3    4.414340300326550E-2   -4.462089956512968E-3    4.388168845861202E-2   -5.393707493059053E-1   -1.770510847064185E-2
 6.457594732600000E9    -5.786135323857281E-1   -1.195100935459477E-1   -6.717930524194149E-3    4.452377443003277E-2   -4.483425649593352E-3    4.415178509288796E-2   -5.393141118673739E-1   -1.625158604782096E-2
 6.457606076925000E9    -5.788303068581041E-1   -1.183752131956665E-1   -6.737407788179870E-3    4.488707048757353E-2   -4.293261576095310E-3    4.447404462040901E-2   -5.394190771731088E-1   -1.482457708779216E-2
 6.457617421250000E9    -5.788773642264600E-1   -1.173802467133145E-1   -6.471799057945193E-3    4.515354579930524E-2   -4.290708299081124E-3    4.472753578041637E-2   -5.392843499847542E-1   -1.335777194832002E-2
 6.457628765575000E9    -5.792145798184460E-1   -1.163930275442110E-1   -6.431193204488092E-3    4.543328255388311E-2   -4.212601054438682E-3    4.497132080256519E-2   -5.393895306795395E-1   -1.197953506762261E-2
 6.457640109900000E9    -5.793698322723430E-1   -1.153547511902948E-1   -6.475042196616057E-3    4.579171547298175E-2   -4.121361996888636E-3    4.534457017231093E-2   -5.393505020987917E-1   -1.059806240476396E-2
 6.457651454225000E9    -5.795177097839697E-1   -1.142901115103610E-1   -6.362861013150499E-3    4.612301921961931E-2   -4.045592680032185E-3    4.563982043877633E-2   -5.393934108843360E-1   -9.165186570548276E-3
 6.457662798550000E9    -5.795937109263042E-1   -1.132450822129307E-1   -6.254812264761891E-3    4.660209462418541E-2   -4.001288358153786E-3    4.602348504859476E-2   -5.393772500148295E-1   -7.621927411357665E-3
 6.457674142875000E9    -5.797541124804223E-1   -1.121615287315502E-1   -6.207738858408660E-3    4.702589288674355E-2   -3.790078918404931E-3    4.635646200094460E-2   -5.394259565290704E-1   -6.105797781125106E-3
 6.457685487200000E9    -5.799844479771208E-1   -1.111446131598692E-1   -6.217306566866791E-3    4.716445047235759E-2   -3.741229799606547E-3    4.667216256320260E-2   -5.393427655914316E-1   -4.600276866591731E-3
 6.457696831525000E9    -5.799762191828242E-1   -1.101176256089568E-1   -6.210351082450805E-3    4.753993224002681E-2   -3.610661827603005E-3    4.697671658923339E-2   -5.393200293957663E-1   -3.129005196480252E-3
 6.457708175850000E9    -5.801650104122572E-1   -1.091051669022884E-1   -5.903197902038613E-3    4.787776281505806E-2   -3.621803085493324E-3    4.735100398379929E-2   -5.392932148102276E-1   -1.812324383829108E-3
 6.457719520175000E9    -5.803474188206355E-1   -1.080334741021606E-1   -5.887018558504858E-3    4.820885323597190E-2   -3.522349336145985E-3    4.765895395295229E-2   -5.392922506299802E-1   -2.676501224647529E-4
 6.457730864500000E9    -5.805270616619322E-1   -1.069746721759263E-1   -5.742011593687554E-3    4.847988894711868E-2   -3.394004502779723E-3    4.801449022498475E-2   -5.391640428713107E-1    1.253298594106014E-3
 6.457742208825000E9    -5.807205521743615E-1   -1.059259769498178E-1   -5.724251991409640E-3    4.891016811374995E-2   -3.292533655607764E-3    4.835692066469304E-2   -5.391094072521188E-1    2.943517466278391E-3
 6.457753553150000E9    -5.807598593526826E-1   -1.050113176046254E-1   -5.687966258151068E-3    4.935385619075641E-2   -3.133097804098455E-3    4.871892297759389E-2   -5.390846038435760E-1    4.372443663577602E-3
 6.457764897475000E9    -5.809395811389050E-1   -1.038147229694535E-1   -5.737119890866275E-3    4.960098520817967E-2   -3.001447178531745E-3    4.916300208940019E-2   -5.390388760054796E-1    5.881926033883163E-3
 6.457776241800000E9    -5.811401489008976E-1   -1.028943454313085E-1   -5.469193222981622E-3    4.999478734831086E-2   -2.906521862228468E-3    4.945947979444663E-2   -5.390389119228403E-1    7.440142644613324E-3
 6.457787586125000E9    -5.812313688359824E-1   -1.016733687709183E-1   -5.387599044277541E-3    5.052546038683234E-2   -2.819046049306207E-3    4.978004464053477E-2   -5.389442030963737E-1    8.887861668102513E-3
 6.457798930450000E9    -5.813709140403648E-1   -1.006168959882931E-1   -5.399538687573053E-3    5.084983740521132E-2   -2.702953199812284E-3    5.019365409834784E-2   -5.388022822496998E-1    1.056450695076458E-2
 6.457810274775000E9    -5.815110368104828E-1   -9.961406492852071E-2   -5.122304007880968E-3    5.134155225615308E-2   -2.603847694101653E-3    5.065975818823638E-2   -5.389107490407921E-1    1.214270851931004E-2
 6.457821619100000E9    -5.815144454902832E-1   -9.855951775794460E-2   -5.129742383552226E-3    5.167002556077974E-2   -2.497736586167586E-3    5.096564236168501E-2   -5.387920012895133E-1    1.369351663964466E-2
 6.457832963425000E9    -5.817176830381808E-1   -9.747877279091953E-2   -5.099526819579156E-3    5.197910769915123E-2   -2.404679041319673E-3    5.142894136811821E-2   -5.386256091613554E-1    1.536502849536597E-2
 6.457844307750000E9    -5.817774592093120E-1   -9.632324207226364E-2   -4.749215784340193E-3    5.229858563030176E-2   -2.170728290573865E-3    5.180839563796482E-2   -5.384798737703606E-1    1.704073643331306E-2
 6.457855652075000E9    -5.820432898611418E-1   -9.530452125713415E-2   -4.635710201724313E-3    5.277120114927510E-2   -2.082224494226812E-3    5.209560140887332E-2   -5.384955009705124E-1    1.855505201175843E-2
 6.457866996400000E9    -5.821305074245585E-1   -9.416388798283133E-2   -4.689452797419054E-3    5.336791971058276E-2   -1.987353832861137E-3    5.252259246436081E-2   -5.383084481776209E-1    2.015539984018377E-2
 6.457878340725000E9    -5.821624894508624E-1   -9.309509855246552E-2   -4.553495490479500E-3    5.368791133857104E-2   -1.807452153253625E-3    5.288123695692917E-2   -5.382146873537631E-1    2.194699778068600E-2
 6.457889685050000E9    -5.823385359408744E-1   -9.205870821187946E-2   -4.487867824338622E-3    5.412050769905786E-2   -1.748999242629300E-3    5.342123410901660E-2   -5.380780325332362E-1    2.344198558532964E-2
 6.457901029375000E9    -5.824482005390716E-1   -9.088073920589897E-2   -4.370953326477336E-3    5.447557493165858E-2   -1.608460296078122E-3    5.378510348790676E-2   -5.379904794742615E-1    2.517017430130031E-2
 6.457912373700000E9    -5.825459196200180E-1   -8.994245433288696E-2   -4.196023944679115E-3    5.497771740619376E-2   -1.487368787465204E-3    5.427940738126810E-2   -5.377993582695477E-1    2.680662731671232E-2
 6.457923718025000E9    -5.827187298938523E-1   -8.877260759457106E-2   -4.121111824145933E-3    5.551096200469771E-2   -1.317143028886961E-3    5.465771439559521E-2   -5.375969314779235E-1    2.838919544574610E-2
 6.457935062350000E9    -5.826748828979663E-1   -8.759271987238873E-2   -3.868582420700362E-3    5.596331257641970E-2   -1.192466084711582E-3    5.510249105572641E-2   -5.374116905714205E-1    3.019202535660773E-2
 6.457946406675000E9    -5.828025531423013E-1   -8.644414143736250E-2   -3.779456113708279E-3    5.637209017151331E-2   -9.604828013959683E-4    5.553431144130235E-2   -5.372868727317166E-1    3.197478840149949E-2
 6.457957751000000E9    -5.828889678972453E-1   -8.540398276934991E-2   -3.651638613674502E-3    5.695683112507952E-2   -8.662373275034993E-4    5.604687415937645E-2   -5.371394053341394E-1    3.349417502202613E-2
 6.457969095325000E9    -5.830235621414896E-1   -8.431881835565148E-2   -3.431345978978761E-3    5.730576770535365E-2   -7.022390893948745E-4    5.651144214804353E-2   -5.369266872079547E-1    3.527679731208836E-2
 6.457980439650000E9    -5.831004872979602E-1   -8.317240093155250E-2   -3.363785810812865E-3    5.777656501895834E-2   -5.996204603005521E-4    5.695061508065333E-2   -5.367786091464108E-1    3.699079858338528E-2
 6.457991783975000E9    -5.831095434470895E-1   -8.201847661739867E-2   -3.329881558755037E-3    5.840839179671924E-2   -4.092491293805805E-4    5.738318974065633E-2   -5.365750958315428E-1    3.875007519943018E-2
 6.458003128300000E9    -5.832272069869848E-1   -8.094711875729874E-2   -3.056914613661395E-3    5.883098107715208E-2   -2.232471435261776E-4    5.798126359199850E-2   -5.363049854741534E-1    4.053725059716557E-2
 6.458014472625000E9    -5.833206263983327E-1   -7.976408055915998E-2   -2.939291675496371E-3    5.930645871790645E-2   -4.542700378258151E-5    5.840020914053203E-2   -5.361916590353598E-1    4.240097949271499E-2
 6.458025816950000E9    -5.833751030731833E-1   -7.861515257117624E-2   -2.831854565830855E-3    5.978805544181351E-2    8.590176200609581E-5    5.896429360870200E-2   -5.359966200518308E-1    4.411275264720185E-2
 6.458037161275000E9    -5.834652817060071E-1   -7.746703437084733E-2   -2.570363395460387E-3    6.034974876914394E-2    3.578392891959362E-4    5.945032668216525E-2   -5.355871741924100E-1    4.606696231303257E-2
 6.458048505600000E9    -5.834588756712412E-1   -7.621424896724929E-2   -2.340408118343421E-3    6.098297825730223E-2    4.365000088639399E-4    5.996194880053868E-2   -5.354032247324869E-1    4.790021202752889E-2
 6.458059849925000E9    -5.835888125817696E-1   -7.525354886114263E-2   -2.211382792030225E-3    6.153112224077999E-2    6.952443829329420E-4    6.053267696922530E-2   -5.351889147206904E-1    4.986351727705456E-2
 6.458071194250000E9    -5.836402969730810E-1   -7.403934965752028E-2   -2.051440658234196E-3    6.205774683915660E-2    9.129397437383310E-4    6.095648515252612E-2   -5.348664603126009E-1    5.168642942846538E-2
