#  HZ   S   RI   R     50.00 
! Rohde & Schwarz Vector Network Analyzer 
! Rohde-Schwarz,ZNB20-2Port,1311601062101988,3.16
! Created: UTC 3/20/2024, 11:20:10 PM
! freq[Hz]                re:S11                  im:S11                  re:S21                  im:S21                  re:S12                  im:S12                  re:S22                  im:S22
 6.457057949000000E9    -5.684347473692178E-1   -1.660001841762452E-1   -8.771445877534065E-3    3.300243443694668E-2   -6.890044237940863E-3    3.301281478637578E-2   -5.348752920013355E-1   -7.697064708472548E-2
 6.457069281300000E9    -5.686787556688612E-1   -1.649872208442859E-1   -8.639572483399598E-3    3.320357498987127E-2   -6.808246820194377E-3    3.320100807954023E-2   -5.349931221259052E-1   -7.594301282640102E-2
 6.457080613600000E9    -5.689026286071979E-1   -1.641760304227027E-1   -8.573540243170459E-3    3.352192231838308E-2   -6.834510110715078E-3    3.332540725156331E-2   -5.353001654804126E-1   -7.470141586626018E-2
 6.457091945900000E9    -5.691494688119835E-1   -1.630684207704703E-1   -8.606076259100752E-3    3.367979652869677E-2   -6.744169221350529E-3    3.355496589816531E-2   -5.353593190051281E-1   -7.351079849768284E-2
 6.457103278200000E9    -5.695067753967266E-1   -1.621995570213087E-1   -8.581818519963768E-3    3.386262479059934E-2   -6.718554708715693E-3    3.376087857560399E-2   -5.354765553736981E-1   -7.245418420045911E-2
 6.457114610500000E9    -5.697130655346015E-1   -1.612201050472564E-1   -8.459631878376849E-3    3.395928193438302E-2   -6.620018838821426E-3    3.398676531620966E-2   -5.357453470563639E-1   -7.121738718096847E-2
 6.457125942800000E9    -5.698226229532392E-1   -1.602434036784375E-1   -8.579027300092811E-3    3.418356431334185E-2   -6.696731508146848E-3    3.416231583955956E-2   -5.359268701342380E-1   -6.992922169380691E-2
 6.457137275100000E9    -5.701908988998216E-1   -1.593471139003906E-1   -8.461208256847758E-3    3.442637619132050E-2   -6.688256921886415E-3    3.431951532684644E-2   -5.360094851535281E-1   -6.886852513281916E-2
 6.457148607400000E9    -5.704826356636340E-1   -1.583614659502595E-1   -8.391482453445924E-3    3.461942977879300E-2   -6.501372075047330E-3    3.453992747769341E-2   -5.361127822226346E-1   -6.759509813584194E-2
 6.457159939700000E9    -5.706506989217275E-1   -1.575125457017495E-1   -8.390360479310978E-3    3.482410878367775E-2   -6.555558923466819E-3    3.473354264082301E-2   -5.362254679121602E-1   -6.630553632657760E-2
 6.457171272000000E9    -5.708778863625615E-1   -1.564905226713542E-1   -8.423605883190379E-3    3.502497976237020E-2   -6.509820333750450E-3    3.495500035215018E-2   -5.364527375734233E-1   -6.501689023502578E-2
 6.457182604300000E9    -5.711948276854888E-1   -1.555261152980225E-1   -8.323156703125582E-3    3.519816533146428E-2   -6.485863718941896E-3    3.507068709908761E-2   -5.365183205326822E-1   -6.384429613503710E-2
 6.457193936600000E9    -5.713534459424309E-1   -1.545624552437526E-1   -8.371757214295917E-3    3.541355812945839E-2   -6.417579547789431E-3    3.536511465601757E-2   -5.367098491134100E-1   -6.274337949820924E-2
 6.457205268900000E9    -5.715439864814811E-1   -1.537179190255427E-1   -8.416176098137414E-3    3.553165882227469E-2   -6.435526591473094E-3    3.551995793825250E-2   -5.369812978826207E-1   -6.149887183148590E-2
 6.457216601200000E9    -5.718519591758838E-1   -1.526932048760691E-1   -8.268063930124402E-3    3.580464119293272E-2   -6.285089602213416E-3    3.567832393317211E-2   -5.371264221437702E-1   -6.017315936617080E-2
 6.457227933500000E9    -5.721545356459590E-1   -1.517556006464536E-1   -8.203417665424172E-3    3.612945219650925E-2   -6.406566980021523E-3    3.598994848407584E-2   -5.371105146744106E-1   -5.904722620872615E-2
 6.457239265800000E9    -5.722869379430122E-1   -1.506960983516038E-1   -8.126307769621815E-3    3.630229960514382E-2   -6.231045842643227E-3    3.613231360715863E-2   -5.371840313692996E-1   -5.769470332925410E-2
 6.457250598100000E9    -5.725854510157901E-1   -1.497254080218847E-1   -8.239993472951550E-3    3.648561593647077E-2   -6.177104274939275E-3    3.646116810352236E-2   -5.373256215321749E-1   -5.652803494892480E-2
 6.457261930400000E9    -5.727471520492206E-1   -1.488041729080433E-1   -8.040010265995221E-3    3.676321264688167E-2   -6.139488878425075E-3    3.652716815737267E-2   -5.376821520061664E-1   -5.531042298343433E-2
 6.457273262700000E9    -5.728993163005344E-1   -1.477678297161501E-1   -8.104463394330779E-3    3.691233208392001E-2   -6.163572781811053E-3    3.677866844066357E-2   -5.376893478022486E-1   -5.399962840739384E-2
 6.457284595000000E9    -5.732503469773895E-1   -1.468146160140850E-1   -8.087200869945041E-3    3.703398905993479E-2   -6.116638396991875E-3    3.695136178369687E-2   -5.376562244276764E-1   -5.286622893182491E-2
 6.457295927300000E9    -5.734713258190623E-1   -1.459098897251860E-1   -8.084257873211598E-3    3.738252498855968E-2   -6.092112211327712E-3    3.714566883432679E-2   -5.378197881372726E-1   -5.144566194567871E-2
 6.457307259600000E9    -5.735989529061722E-1   -1.449210209680381E-1   -8.081372839134815E-3    3.766879639000188E-2   -6.007603512339727E-3    3.752703602922918E-2   -5.377910305554615E-1   -5.021460102682371E-2
 6.457318591900000E9    -5.738906951937268E-1   -1.439366959336215E-1   -7.988112125897177E-3    3.778904755610071E-2   -5.899888270227712E-3    3.768109357533989E-2   -5.379770847511617E-1   -4.901001239741250E-2
 6.457329924200000E9    -5.739777180450154E-1   -1.429555239821290E-1   -7.836347272751501E-3    3.807082982870631E-2   -5.828539824262831E-3    3.789261945050146E-2   -5.381352885338934E-1   -4.775121030569444E-2
 6.457341256500000E9    -5.743066924553105E-1   -1.419506718094185E-1   -7.783953676832393E-3    3.838944585747418E-2   -5.859740011595695E-3    3.810162127515500E-2   -5.382558709302759E-1   -4.625778782592584E-2
 6.457352588800000E9    -5.745438975735653E-1   -1.410650327052486E-1   -7.920049619488058E-3    3.856316032182734E-2   -5.790259427630842E-3    3.833720420238108E-2   -5.382834542472859E-1   -4.525652394492990E-2
 6.457363921100000E9    -5.747391107320864E-1   -1.400557037908659E-1   -7.840924455724431E-3    3.882219721982736E-2   -5.699030209524654E-3    3.863535720862450E-2   -5.383684268107506E-1   -4.383312645623732E-2
 6.457375253400000E9    -5.749523878086581E-1   -1.389603346786664E-1   -7.857243791893564E-3    3.898818119315589E-2   -5.668290882715332E-3    3.886317056100850E-2   -5.384639688987423E-1   -4.258939473628968E-2
 6.457386585700000E9    -5.751700737412805E-1   -1.380502340098318E-1   -7.772846975442020E-3    3.928048328428103E-2   -5.667385729204731E-3    3.900935133073397E-2   -5.386317405854832E-1   -4.122455227840466E-2
 6.457397918000000E9    -5.753611194446867E-1   -1.370206348674341E-1   -7.717581486300939E-3    3.956188657389454E-2   -5.617320565936328E-3    3.933434006274727E-2   -5.388184814848026E-1   -4.008947040802406E-2
 6.457409250300000E9    -5.755709547410266E-1   -1.360579084209212E-1   -7.682475641322950E-3    3.983661635683032E-2   -5.554262985054647E-3    3.960267648695660E-2   -5.388167675082886E-1   -3.872857835246818E-2
 6.457420582600000E9    -5.757948176338821E-1   -1.351404254246601E-1   -7.578258508869881E-3    4.004513895369519E-2   -5.437916418488364E-3    3.982582666380088E-2   -5.388045331059145E-1   -3.740071130991408E-2
 6.457431914900000E9    -5.759518197056120E-1   -1.341099797531576E-1   -7.586885487519590E-3    4.031754294193302E-2   -5.390879250818504E-3    4.008718484537607E-2   -5.388913954524608E-1   -3.599079267829858E-2
 6.457443247200000E9    -5.761868506779610E-1   -1.331282188274740E-1   -7.498677380297191E-3    4.043229502906618E-2   -5.323949059973232E-3    4.019207089032149E-2   -5.390767689971881E-1   -3.465485109870783E-2
 6.457454579500000E9    -5.763144827491834E-1   -1.320891196826608E-1   -7.376515683419993E-3    4.088910971812554E-2   -5.244042992196031E-3    4.051730776399348E-2   -5.390951517781781E-1   -3.327586459758954E-2
 6.457465911800000E9    -5.764817248928381E-1   -1.311543806157064E-1   -7.342351959920348E-3    4.112250624897063E-2   -5.282670812955328E-3    4.078001983215333E-2   -5.390872804621375E-1   -3.211676924568983E-2
 6.457477244100000E9    -5.767094076377889E-1   -1.301078709368971E-1   -7.399252096343137E-3    4.139888728564453E-2   -5.150463711059932E-3    4.110899862268223E-2   -5.390794653548578E-1   -3.070913265754245E-2
 6.457488576400000E9    -5.769138406204726E-1   -1.291322343944280E-1   -7.198181518671374E-3    4.162044186140551E-2   -5.095614529853146E-3    4.124682675484282E-2   -5.391513868867595E-1   -2.920955102654358E-2
 6.457499908700000E9    -5.771023413661917E-1   -1.281354572528896E-1   -7.196682294302373E-3    4.197196350628370E-2   -4.997678062756278E-3    4.163007139769183E-2   -5.393802245330408E-1   -2.798185306662967E-2
 6.457511241000000E9    -5.772987611067215E-1   -1.272134304717629E-1   -7.136683294235481E-3    4.220565009189326E-2   -4.924679281465562E-3    4.190277784803650E-2   -5.393677816501363E-1   -2.661323040758303E-2
 6.457522573300000E9    -5.774166692941052E-1   -1.260994055545738E-1   -7.017261803882119E-3    4.249467102997306E-2   -4.912647392511821E-3    4.224466479091013E-2   -5.394172365570380E-1   -2.521299218480146E-2
 6.457533905600000E9    -5.777815616985990E-1   -1.250580616737264E-1   -7.053632343732907E-3    4.289447492796657E-2   -4.831432597714290E-3    4.252141122530607E-2   -5.394903893192979E-1   -2.388571513098021E-2
 6.457545237900000E9    -5.778522245109261E-1   -1.241956486862709E-1   -7.078347475870358E-3    4.298302575482262E-2   -4.744502825122911E-3    4.265698449725953E-2   -5.394479689599276E-1   -2.249357903756364E-2
 6.457556570200000E9    -5.779970895692849E-1   -1.230945635037899E-1   -6.970734914159922E-3    4.347681355388086E-2   -4.702249754589450E-3    4.297385902907074E-2   -5.396162776889958E-1   -2.105713016163811E-2
 6.457567902500000E9    -5.782593095128929E-1   -1.220963372490654E-1   -6.838625182324106E-3    4.363968248680038E-2   -4.639314938234450E-3    4.327080538262130E-2   -5.395116498538048E-1   -1.969219725710837E-2
 6.457579234800000E9    -5.784284207263259E-1   -1.210481822795186E-1   -6.926015458976481E-3    4.400384025666980E-2   -4.568377159144521E-3    4.364085737498897E-2   -5.395928326621914E-1   -1.836885910550162E-2
 6.457590567100000E9    -5.786110096611620E-1   -1.202099795278819E-1   -6.725848438892799E-3    4.431987184210006E-2   -4.456028604794687E-3    4.397360210542845E-2   -5.395611211452668E-1   -1.678188701230323E-2
 6.457601899400000E9    -5.787389383851976E-1   -1.189655944622718E-1   -6.641115821405853E-3    4.453208642799224E-2   -4.267686217644964E-3    4.418261324650817E-2   -5.395827558809313E-1   -1.550956888840170E-2
 6.457613231700000E9    -5.789172527553271E-1   -1.180197967341536E-1   -6.667684695135488E-3    4.492531991267367E-2   -4.248328501279495E-3    4.440105236337301E-2   -5.395505572742018E-1   -1.411077711112275E-2
 6.457624564000000E9    -5.790067948298468E-1   -1.169197565680103E-1   -6.587981191875316E-3    4.520431940681428E-2   -4.157599243223850E-3    4.483372186320039E-2   -5.395763275535349E-1   -1.258395906961187E-2
 6.457635896300000E9    -5.792962984691282E-1   -1.159613065859404E-1   -6.471429477978205E-3    4.541362932220962E-2   -4.139973602836826E-3    4.506306795672780E-2   -5.396610124724573E-1   -1.115225932868058E-2
 6.457647228600000E9    -5.794469761783294E-1   -1.148849587693794E-1   -6.552550179892313E-3    4.592548213731430E-2   -4.048632316354733E-3    4.546005444838464E-2   -5.395751671879911E-1   -9.715814718196459E-3
 6.457658560900000E9    -5.795199506624265E-1   -1.139388111315903E-1   -6.486641487825853E-3    4.615851333384115E-2   -3.987156809512696E-3    4.578374840419380E-2   -5.396259456015567E-1   -8.278047770171037E-3
 6.457669893200000E9    -5.796994862137137E-1   -1.128257135766881E-1   -6.307369677058493E-3    4.658664513306080E-2   -3.876000173234872E-3    4.609454828189661E-2   -5.395710870753413E-1   -6.866137022071111E-3
 6.457681225500000E9    -5.799388511199115E-1   -1.117155973820606E-1   -6.283091062270089E-3    4.684415712362298E-2   -3.749469883047943E-3    4.635943541843719E-2   -5.395777724449718E-1   -5.332903530273672E-3
 6.457692557800000E9    -5.800639404756932E-1   -1.107125538179762E-1   -6.016087917246209E-3    4.716814736146466E-2   -3.797075009831843E-3    4.668924391644705E-2   -5.395274876321096E-1   -3.752204206240214E-3
 6.457703890100000E9    -5.801689143295587E-1   -1.097000377046302E-1   -6.046784412627224E-3    4.761065175417264E-2   -3.571127866260700E-3    4.707055649573706E-2   -5.396094768565483E-1   -2.399798456164906E-3
 6.457715222400000E9    -5.803656708754507E-1   -1.086540790679053E-1   -5.940909449304004E-3    4.784552906784761E-2   -3.564684841207223E-3    4.739291939230832E-2   -5.394713215403310E-1   -8.189432978466651E-4
 6.457726554700000E9    -5.804904010135112E-1   -1.076732319708747E-1   -5.888358436123360E-3    4.835876988625416E-2   -3.416222319112259E-3    4.777868522114449E-2   -5.395828359932162E-1    6.637662632262028E-4
 6.457737887000000E9    -5.806500100139066E-1   -1.065384139693286E-1   -5.722858192370901E-3    4.861092949579447E-2   -3.427561389113849E-3    4.801460665491426E-2   -5.396097348930644E-1    2.328729738613786E-3
 6.457749219300000E9    -5.807194392318829E-1   -1.055399220486486E-1   -5.575207353800106E-3    4.913229987884048E-2   -3.157858478317809E-3    4.837782036395524E-2   -5.393248133761207E-1    3.546050730705041E-3
 6.457760551600000E9    -5.809942707515595E-1   -1.044985975092162E-1   -5.710940517522454E-3    4.926627849494538E-2   -3.067624179730112E-3    4.882152077231160E-2   -5.394439771190195E-1    5.238831106174958E-3
 6.457771883900000E9    -5.810584874741281E-1   -1.035054490075010E-1   -5.593376013085868E-3    4.981945063205730E-2   -3.005949869312270E-3    4.918458013863723E-2   -5.392522694542485E-1    6.739775150758512E-3
 6.457783216200000E9    -5.812108920100765E-1   -1.023081128436259E-1   -5.438893593407376E-3    5.008632204492056E-2   -2.911058574033976E-3    4.943320753948096E-2   -5.391467045746962E-1    8.329665730219524E-3
 6.457794548500000E9    -5.813037169878927E-1   -1.013782579225288E-1   -5.304163871891999E-3    5.039635699661340E-2   -2.833044438865335E-3    4.985618270497037E-2   -5.391349485099720E-1    9.781727127189485E-3
 6.457805880800000E9    -5.814585415525786E-1   -1.002346804463565E-1   -5.269929313427027E-3    5.088245726733258E-2   -2.701249946020363E-3    5.022293145572564E-2   -5.389995524746128E-1    1.135565907665788E-2
 6.457817213100000E9    -5.815841785203025E-1   -9.925492135596829E-2   -5.109710329280120E-3    5.132327156724426E-2   -2.532386933933767E-3    5.068623867039502E-2   -5.390010904366243E-1    1.298559664515316E-2
 6.457828545400000E9    -5.818259978803485E-1   -9.809944551717814E-2   -5.190929628368241E-3    5.163764951187139E-2   -2.454431704190091E-3    5.099544253010019E-2   -5.387752488010917E-1    1.459284863871495E-2
 6.457839877700000E9    -5.819334598262617E-1   -9.698808330121921E-2   -4.991827466174888E-3    5.207685945213929E-2   -2.335046844794385E-3    5.140925721738109E-2   -5.387802376807307E-1    1.610628198156400E-2
 6.457851210000000E9    -5.820008804209928E-1   -9.591907919948149E-2   -4.845711171978609E-3    5.244246577319011E-2   -2.143254875070898E-3    5.185369702183660E-2   -5.387263453548624E-1    1.766836336126161E-2
 6.457862542300000E9    -5.821228814861621E-1   -9.480274490513969E-2   -4.831672291908565E-3    5.295195175800836E-2   -2.099999612929230E-3    5.223811101184737E-2   -5.385505071552136E-1    1.935537190159735E-2
 6.457873874600000E9    -5.822018976797597E-1   -9.379023352241618E-2   -4.608630691592743E-3    5.334268385119773E-2   -1.986104612958832E-3    5.257052533257538E-2   -5.384873028598829E-1    2.121953459234999E-2
 6.457885206900000E9    -5.822663610847792E-1   -9.262264491744587E-2   -4.454855298434564E-3    5.376714709868340E-2   -1.774016515666108E-3    5.294385358335268E-2   -5.382719529648379E-1    2.267233045779922E-2
 6.457896539200000E9    -5.824388596105371E-1   -9.157728595842260E-2   -4.473333769674971E-3    5.409120972548095E-2   -1.691178861606110E-3    5.343973583670124E-2   -5.382564209024439E-1    2.427527650399040E-2
 6.457907871500000E9    -5.825315849368525E-1   -9.048950461184767E-2   -4.281934906255684E-3    5.449172304102098E-2   -1.492520000445073E-3    5.379891549636885E-2   -5.381354511921629E-1    2.593379276912948E-2
 6.457919203800000E9    -5.825855797923177E-1   -8.947197191749590E-2   -4.147827184979221E-3    5.510070334725214E-2   -1.358603130351911E-3    5.426957924245165E-2   -5.379945293348922E-1    2.756377139460802E-2
 6.457930536100000E9    -5.827406489934555E-1   -8.822709300100824E-2   -4.009587542101720E-3    5.547419966348263E-2   -1.364813924616305E-3    5.472206110681017E-2   -5.378106729129549E-1    2.922381965074761E-2
 6.457941868400000E9    -5.829061744048960E-1   -8.723582489148513E-2   -3.816890312517154E-3    5.601202521792854E-2   -1.062746017506034E-3    5.512273871444837E-2   -5.377293659295536E-1    3.093347507039125E-2
 6.457953200700000E9    -5.829196926056777E-1   -8.608296369006747E-2   -3.706729957364565E-3    5.653634382670551E-2   -9.388311529942022E-4    5.560843389649243E-2   -5.374743989815352E-1    3.259834071038391E-2
 6.457964533000000E9    -5.830214347693252E-1   -8.496189238700748E-2   -3.654441337257371E-3    5.686720470535811E-2   -8.018268644603461E-4    5.610834907566296E-2   -5.373380062101668E-1    3.442847308862340E-2
 6.457975865300000E9    -5.830711799738726E-1   -8.385584845044332E-2   -3.347096195434789E-3    5.745979818535694E-2   -6.570994656559976E-4    5.657411427043772E-2   -5.371120795869968E-1    3.614331528780715E-2
 6.457987197600000E9    -5.831493225274420E-1   -8.278581281912689E-2   -3.278972388042439E-3    5.786412908081365E-2   -5.144032484861762E-4    5.699414123151634E-2   -5.368466752886052E-1    3.789029677299199E-2
 6.457998529900000E9    -5.832691712586311E-1   -8.160880661024074E-2   -3.136140368235871E-3    5.834040998394985E-2   -4.311566271717438E-4    5.746251660656425E-2   -5.366505579625769E-1    3.960495513167103E-2
 6.458009862200000E9    -5.833617231951953E-1   -8.050685686561256E-2   -2.901106335594640E-3    5.890984005831233E-2   -1.831381740729054E-4    5.793204738786046E-2   -5.365184402647203E-1    4.139078202949191E-2
 6.458021194500000E9    -5.834120094285118E-1   -7.923211841147189E-2   -2.925228690165393E-3    5.944337505117733E-2    8.584559658289333E-5    5.845334751580197E-2   -5.362624533135469E-1    4.315401571728669E-2
 6.458032526800000E9    -5.834298174340369E-1   -7.824474084844950E-2   -2.753003496079852E-3    5.997183502084013E-2    1.830495428249668E-4    5.898080200006400E-2   -5.361404401463088E-1    4.515981922093237E-2
 6.458043859100000E9    -5.836916577434637E-1   -7.701811855420658E-2   -2.612816199566670E-3    6.046323826401281E-2    3.972507769400772E-4    5.943510749051245E-2   -5.359111198585204E-1    4.690225992675304E-2
 6.458055191400000E9    -5.836339477629086E-1   -7.595084377450816E-2   -2.428659620865072E-3    6.114874195936875E-2    5.935905880230567E-4    6.001841533051281E-2   -5.356342976583783E-1    4.869601518925717E-2
 6.458066523700000E9    -5.836632889235470E-1   -7.472520495212973E-2   -2.199513454796844E-3    6.161285935476581E-2    7.729980626683551E-4    6.050668294354936E-2   -5.353631748997622E-1    5.037799051192739E-2
 6.458077856000000E9    -5.838067414387010E-1   -7.354794557960505E-2   -2.026313861691824E-3    6.212903241695073E-2    1.022417381393158E-3    6.106134693516575E-2   -5.348225819913267E-1    5.233757444917746E-2
