#  HZ   S   RI   R     50.00 
! Rohde & Schwarz Vector Network Analyzer 
! Rohde-Schwarz,ZNB20-2Port,1311601062101988,3.16
! Created: UTC 3/20/2024, 11:20:40 PM
! freq[Hz]                re:S11                  im:S11                  re:S21                  im:S21                  re:S12                  im:S12                  re:S22                  im:S22
 6.457066821000000E9    -5.686915315706796E-1   -1.652957563555173E-1   -8.630590654091561E-3    3.310208975379086E-2   -6.831748791898619E-3    3.306182890262451E-2   -5.346120127441417E-1   -7.640257848295974E-2
 6.457078139100000E9    -5.688964909332525E-1   -1.643320062570645E-1   -8.666855220361319E-3    3.335452287919287E-2   -6.799132936556393E-3    3.327357272254398E-2   -5.348214524739517E-1   -7.517238862052748E-2
 6.457089457200000E9    -5.691947637351935E-1   -1.632156984625133E-1   -8.685374170882883E-3    3.342366390721666E-2   -6.750328868724562E-3    3.346221119671298E-2   -5.349793540312661E-1   -7.397228084957018E-2
 6.457100775300000E9    -5.694004063731781E-1   -1.623089790165337E-1   -8.660653022686017E-3    3.375635790213004E-2   -6.713822493228693E-3    3.361418981690262E-2   -5.351270877133646E-1   -7.293488305845963E-2
 6.457112093400000E9    -5.696921752057819E-1   -1.614458872185993E-1   -8.509040862532489E-3    3.390514766075166E-2   -6.690756590543357E-3    3.387488566450481E-2   -5.353413517798341E-1   -7.177282296120474E-2
 6.457123411500000E9    -5.698846357172745E-1   -1.605873427244523E-1   -8.295787762667184E-3    3.403480736750373E-2   -6.639991119942465E-3    3.408281788993649E-2   -5.353653251517171E-1   -7.040502423895907E-2
 6.457134729600000E9    -5.702350617461668E-1   -1.596089365963864E-1   -8.536486318623346E-3    3.430378681512811E-2   -6.620799048991579E-3    3.410262834640439E-2   -5.355037684591015E-1   -6.944674149959139E-2
 6.457146047700000E9    -5.703314838919352E-1   -1.585741060284274E-1   -8.528302068528231E-3    3.451110521019580E-2   -6.642682845426824E-3    3.436565822532648E-2   -5.357767477157892E-1   -6.809388664106025E-2
 6.457157365800000E9    -5.706140071965162E-1   -1.576291294045176E-1   -8.390116264648214E-3    3.459191724050873E-2   -6.714918249075596E-3    3.456822552508285E-2   -5.359544332666875E-1   -6.690174867735396E-2
 6.457168683900000E9    -5.708075086203132E-1   -1.566837693565320E-1   -8.358084564723247E-3    3.484366669668459E-2   -6.557747176034551E-3    3.476641015640180E-2   -5.358902722827675E-1   -6.562227654732210E-2
 6.457180002000000E9    -5.711740612579174E-1   -1.558853084674960E-1   -8.469213806749013E-3    3.505193222225929E-2   -6.547576380728466E-3    3.494833913123135E-2   -5.361551913130259E-1   -6.439423001216783E-2
 6.457191320100000E9    -5.713980610635745E-1   -1.547381677377495E-1   -8.380376548508752E-3    3.527010314710540E-2   -6.500989455413275E-3    3.521838229749463E-2   -5.362514281631838E-1   -6.328500428502891E-2
 6.457202638200000E9    -5.715221306006003E-1   -1.538967925062220E-1   -8.269453109850765E-3    3.531449926927984E-2   -6.372396544982851E-3    3.534593565488784E-2   -5.364213291536508E-1   -6.201159496060373E-2
 6.457213956300000E9    -5.717822625459907E-1   -1.529416185559428E-1   -8.303235391825068E-3    3.578460208027456E-2   -6.317025287690391E-3    3.558024334542917E-2   -5.364392477515009E-1   -6.077194562845065E-2
 6.457225274400000E9    -5.720353980006576E-1   -1.520189714742656E-1   -8.170361181800168E-3    3.589008404331561E-2   -6.387531623549773E-3    3.575148378414465E-2   -5.366903013242472E-1   -5.961451903510418E-2
 6.457236592500000E9    -5.722978148313176E-1   -1.509737370994793E-1   -8.149324917977107E-3    3.611068177591136E-2   -6.348600822725718E-3    3.596576634826794E-2   -5.367628932482226E-1   -5.830124061815243E-2
 6.457247910600000E9    -5.725288697004743E-1   -1.500735190795091E-1   -8.164220582782768E-3    3.639392513737653E-2   -6.358161572180137E-3    3.616655016255520E-2   -5.368830156779735E-1   -5.712775635893329E-2
 6.457259228700000E9    -5.727540509533634E-1   -1.490356651359017E-1   -8.092266503883653E-3    3.652671195494970E-2   -6.177691805107795E-3    3.644376970707881E-2   -5.371066314315454E-1   -5.586383416005820E-2
 6.457270546800000E9    -5.729282281307593E-1   -1.481210333886104E-1   -7.960298972817199E-3    3.684825425028088E-2   -6.123706750763251E-3    3.664050283481125E-2   -5.371063341159875E-1   -5.469589623857568E-2
 6.457281864900000E9    -5.731751876183707E-1   -1.471030826921547E-1   -8.112414074397663E-3    3.712730615940899E-2   -6.127641753102937E-3    3.697264861021042E-2   -5.374045319121935E-1   -5.338008138971004E-2
 6.457293183000000E9    -5.734410276957180E-1   -1.461479091429191E-1   -8.043857626107586E-3    3.735490658269947E-2   -6.016039217525843E-3    3.719055063188608E-2   -5.374300423525331E-1   -5.215693890001527E-2
 6.457304501100000E9    -5.736045037573385E-1   -1.451598224529556E-1   -8.159615078728111E-3    3.753139385847105E-2   -6.028628315683890E-3    3.725353245140385E-2   -5.374204197594753E-1   -5.079850985837057E-2
 6.457315819200000E9    -5.738188182354774E-1   -1.442337039785923E-1   -7.971621382361771E-3    3.779076186146640E-2   -6.004778258064874E-3    3.746258429273815E-2   -5.375702972199474E-1   -4.963508596748166E-2
 6.457327137300000E9    -5.739957394236708E-1   -1.433095451390034E-1   -7.876213081254944E-3    3.783886753701491E-2   -5.858112683498246E-3    3.770456445339562E-2   -5.377310884854415E-1   -4.833622617756598E-2
 6.457338455400000E9    -5.742600766629798E-1   -1.422691066992622E-1   -7.796979572228651E-3    3.811815261424212E-2   -5.814147356073693E-3    3.794128320967015E-2   -5.378204229038821E-1   -4.703708749009633E-2
 6.457349773500000E9    -5.745072259646140E-1   -1.413240014971110E-1   -7.786505358610816E-3    3.836983751148481E-2   -5.788390944834331E-3    3.820398250327228E-2   -5.379800313564426E-1   -4.575468652701239E-2
 6.457361091600000E9    -5.746769247491862E-1   -1.403087843581614E-1   -7.813188911330156E-3    3.861371830324701E-2   -5.751651405673418E-3    3.841405456022067E-2   -5.379205620675016E-1   -4.448335239660040E-2
 6.457372409700000E9    -5.748885293761367E-1   -1.393852350641857E-1   -7.806833305756268E-3    3.890208212987787E-2   -5.697020696622406E-3    3.864358648939280E-2   -5.381780899644667E-1   -4.327241015588212E-2
 6.457383727800000E9    -5.751627130639066E-1   -1.382888898946092E-1   -7.700666581130652E-3    3.912468364754623E-2   -5.667592377914646E-3    3.890144597897389E-2   -5.381098486969623E-1   -4.187101837638584E-2
 6.457395045900000E9    -5.753857470491915E-1   -1.373796594606773E-1   -7.677059173217384E-3    3.940582606871344E-2   -5.576740890920319E-3    3.906602980271028E-2   -5.382481707235810E-1   -4.059742164652286E-2
 6.457406364000000E9    -5.756733319027896E-1   -1.363731302467752E-1   -7.592835250530189E-3    3.956185408473364E-2   -5.568622150291849E-3    3.939344880480885E-2   -5.384115332088255E-1   -3.920063998498938E-2
 6.457417682100000E9    -5.757248516410504E-1   -1.354498419260277E-1   -7.681461377077476E-3    3.985132693453286E-2   -5.441942052973308E-3    3.958759798157296E-2   -5.384377807858348E-1   -3.805660699854618E-2
 6.457429000200000E9    -5.759809131463842E-1   -1.344807965572217E-1   -7.560049060792319E-3    4.017698703724765E-2   -5.436001809586127E-3    3.979953957980731E-2   -5.385008697977905E-1   -3.663829309029529E-2
 6.457440318300000E9    -5.760918249041654E-1   -1.335389879217602E-1   -7.451416708156303E-3    4.029396029275124E-2   -5.322468564193781E-3    4.010068353208217E-2   -5.384862327101048E-1   -3.549613215865167E-2
 6.457451636400000E9    -5.763305331611213E-1   -1.324249823026690E-1   -7.397463581134970E-3    4.062976935422467E-2   -5.228436427567976E-3    4.033100646025684E-2   -5.385427236123232E-1   -3.404691891762419E-2
 6.457462954500000E9    -5.766469832592384E-1   -1.315127525338939E-1   -7.463503728277501E-3    4.098028855568864E-2   -5.298713754787866E-3    4.057241193372333E-2   -5.387798262571268E-1   -3.257137099374657E-2
 6.457474272600000E9    -5.766826544526635E-1   -1.304986200154282E-1   -7.261653967231951E-3    4.116413010827633E-2   -5.149571157756555E-3    4.087425681781796E-2   -5.389015680329271E-1   -3.137542354496672E-2
 6.457485590700000E9    -5.770175233087828E-1   -1.294535721409149E-1   -7.310692298409063E-3    4.150499793961015E-2   -5.157377920526838E-3    4.115115353979749E-2   -5.389322367258048E-1   -3.007288739689873E-2
 6.457496908800000E9    -5.770646703968774E-1   -1.283669489987440E-1   -7.253090300089218E-3    4.171061952186930E-2   -5.033755922341846E-3    4.137284186026813E-2   -5.388193837780118E-1   -2.860155223802356E-2
 6.457508226900000E9    -5.772032951434977E-1   -1.274238437873451E-1   -7.190892428305292E-3    4.202039516964678E-2   -4.961092649496385E-3    4.179374156319306E-2   -5.389638193601938E-1   -2.731933288155528E-2
 6.457519545000000E9    -5.775174405058330E-1   -1.264089356572247E-1   -7.186227373011958E-3    4.228202246785662E-2   -4.892471022119527E-3    4.199969637039551E-2   -5.390025131984708E-1   -2.591609293397766E-2
 6.457530863100000E9    -5.777085173309865E-1   -1.254044050638159E-1   -7.119710974768931E-3    4.256060953641017E-2   -4.919005117657947E-3    4.223004043334346E-2   -5.391004839982575E-1   -2.439721303244401E-2
 6.457542181200000E9    -5.778482100669576E-1   -1.244838277663776E-1   -6.985858348357344E-3    4.285094669111706E-2   -4.789759263680619E-3    4.242858192664160E-2   -5.389869992883290E-1   -2.315568254458975E-2
 6.457553499300000E9    -5.780734250757630E-1   -1.235189936461695E-1   -6.971892180183939E-3    4.322300960847957E-2   -4.739818016928177E-3    4.270298721864097E-2   -5.391498647849604E-1   -2.188551852399054E-2
 6.457564817400000E9    -5.781654718282180E-1   -1.223335630336852E-1   -7.039442744244781E-3    4.362473022892437E-2   -4.607793010840400E-3    4.306960096482058E-2   -5.391765623687103E-1   -2.044262957716840E-2
 6.457576135500000E9    -5.784112840442707E-1   -1.213663820796862E-1   -6.809350051372208E-3    4.376535100245008E-2   -4.576661964985269E-3    4.338321399484847E-2   -5.391196646366589E-1   -1.902561437239382E-2
 6.457587453600000E9    -5.785539701153491E-1   -1.203233234813638E-1   -6.720975576282546E-3    4.397571822400000E-2   -4.485248055454657E-3    4.365343669058823E-2   -5.392125533650745E-1   -1.770334764168322E-2
 6.457598771700000E9    -5.787421426950451E-1   -1.193673769792194E-1   -6.714087272778362E-3    4.426924812827028E-2   -4.446122064153348E-3    4.388536003257873E-2   -5.391753541981034E-1   -1.621448156064701E-2
 6.457610089800000E9    -5.789047471673067E-1   -1.183176279350119E-1   -6.630751144533416E-3    4.473625109266203E-2   -4.338212373371938E-3    4.434783103617625E-2   -5.393054154289283E-1   -1.479219230381250E-2
 6.457621407900000E9    -5.790785494445665E-1   -1.173911487212205E-1   -6.602162651809982E-3    4.490191340255429E-2   -4.235679021682098E-3    4.457392595216071E-2   -5.392769404605128E-1   -1.336715765175857E-2
 6.457632726000000E9    -5.792882704980851E-1   -1.163165124040870E-1   -6.609151352928165E-3    4.543255956279932E-2   -4.146359276648951E-3    4.479898948883752E-2   -5.391818300856823E-1   -1.198240074621136E-2
 6.457644044100000E9    -5.794418859224963E-1   -1.153285615062981E-1   -6.697613000473789E-3    4.568659402050369E-2   -4.070981565425746E-3    4.513266044875930E-2   -5.392962513706139E-1   -1.044452374180008E-2
 6.457655362200000E9    -5.795430015453692E-1   -1.142246237395576E-1   -6.568973142349737E-3    4.586404892986084E-2   -4.036706069576264E-3    4.545188209474509E-2   -5.393663356623658E-1   -8.988999403185901E-3
 6.457666680300000E9    -5.797085322911641E-1   -1.133200138933523E-1   -6.409241063790654E-3    4.616751743394573E-2   -3.840979172432997E-3    4.586332401511195E-2   -5.392625238566703E-1   -7.679275892269752E-3
 6.457677998400000E9    -5.799000029201705E-1   -1.121765003839543E-1   -6.255813124265787E-3    4.663858031825977E-2   -3.810771004480161E-3    4.608618385642684E-2   -5.392615413795862E-1   -6.226764681679626E-3
 6.457689316500000E9    -5.799573253229393E-1   -1.110996501119603E-1   -6.134994245734019E-3    4.693758007274797E-2   -3.706571343758340E-3    4.645491689731382E-2   -5.393339504491009E-1   -4.638149773633172E-3
 6.457700634600000E9    -5.801635749286361E-1   -1.101519007001524E-1   -6.012171928518206E-3    4.716694610402529E-2   -3.732097426425933E-3    4.683016474814981E-2   -5.392010103218028E-1   -3.364098707195284E-3
 6.457711952700000E9    -5.802786165098714E-1   -1.090579026149564E-1   -6.114332308342039E-3    4.764288077449146E-2   -3.599895955866663E-3    4.708714757002464E-2   -5.391457520668493E-1   -1.809117117310465E-3
 6.457723270800000E9    -5.804564153184286E-1   -1.080158097972483E-1   -5.918059038802578E-3    4.784366441691372E-2   -3.485277479733163E-3    4.748443969037223E-2   -5.390945574262734E-1   -2.306750196080497E-4
 6.457734588900000E9    -5.806876845680227E-1   -1.069403787116190E-1   -5.781259893311519E-3    4.828920544660466E-2   -3.250707858893779E-3    4.781747688377019E-2   -5.391125615304487E-1    1.164564013884800E-3
 6.457745907000000E9    -5.810175259564794E-1   -1.058830485731459E-1   -5.730789650533816E-3    4.864244199434121E-2   -3.253161098461756E-3    4.812729939813094E-2   -5.391680544956994E-1    2.707976772612285E-3
 6.457757225100000E9    -5.809462444697555E-1   -1.048589197956111E-1   -5.609417845559088E-3    4.895813475814215E-2   -3.272448448130910E-3    4.852672985207090E-2   -5.390198498043478E-1    4.231392403114469E-3
 6.457768543200000E9    -5.811625462153236E-1   -1.038209585599741E-1   -5.607904009859808E-3    4.935604444874463E-2   -3.051859283232280E-3    4.889118201139953E-2   -5.389249253624063E-1    5.758714106474281E-3
 6.457779861300000E9    -5.811924903204209E-1   -1.027620384504831E-1   -5.447911588769534E-3    4.973607868551651E-2   -3.074556824504125E-3    4.921483807136937E-2   -5.390539097056215E-1    7.324310763916713E-3
 6.457791179400000E9    -5.813951807910434E-1   -1.018014885505075E-1   -5.389649820872432E-3    5.010370269362579E-2   -2.894431092741519E-3    4.959017594627813E-2   -5.389073552094462E-1    8.983094888081480E-3
 6.457802497500000E9    -5.814788464590741E-1   -1.006775434889934E-1   -5.283073692643123E-3    5.064577730049517E-2   -2.665331791276973E-3    4.987755210025738E-2   -5.386956562663473E-1    1.048061605646152E-2
 6.457813815600000E9    -5.815761475718277E-1   -9.966919413538856E-2   -5.130116016864660E-3    5.105064540057054E-2   -2.633964953536307E-3    5.034147808397599E-2   -5.387285056959272E-1    1.187239272173931E-2
 6.457825133700000E9    -5.817388863268166E-1   -9.843251617058804E-2   -5.137719229370065E-3    5.136800485179415E-2   -2.575589286519621E-3    5.066766208543196E-2   -5.387828795886108E-1    1.363926685546702E-2
 6.457836451800000E9    -5.819327361381806E-1   -9.746120746579498E-2   -5.038476632532861E-3    5.173955190474008E-2   -2.427343259000353E-3    5.103297152113168E-2   -5.385878324073156E-1    1.515922624085582E-2
 6.457847769900000E9    -5.819890361721424E-1   -9.634379904550958E-2   -4.889268237527695E-3    5.212937247086068E-2   -2.273013592643550E-3    5.142002942300078E-2   -5.384644537208306E-1    1.678294059210886E-2
 6.457859088000000E9    -5.820806479412444E-1   -9.542152422040046E-2   -4.900843235838247E-3    5.254209126793234E-2   -2.208889434622207E-3    5.182218583191981E-2   -5.384309386655017E-1    1.825208857940036E-2
 6.457870406100000E9    -5.822426885349827E-1   -9.413039137127606E-2   -4.718447242679970E-3    5.307108287048493E-2   -1.996597345392915E-3    5.220385475674155E-2   -5.382273482396321E-1    1.992235085049082E-2
 6.457881724200000E9    -5.822585230052760E-1   -9.314276720634335E-2   -4.538111663508357E-3    5.344049006208052E-2   -1.886145820990136E-3    5.264705323752145E-2   -5.380409534791476E-1    2.159283043811605E-2
 6.457893042300000E9    -5.823969294606230E-1   -9.201912990098242E-2   -4.559426505032031E-3    5.385679218964904E-2   -1.786022529350315E-3    5.310603553470952E-2   -5.379904093228972E-1    2.322594118867803E-2
 6.457904360400000E9    -5.826185448194344E-1   -9.089678023583700E-2   -4.433094621929437E-3    5.419046221484503E-2   -1.666757476109814E-3    5.348503779077525E-2   -5.377643186921968E-1    2.478513179233074E-2
 6.457915678500000E9    -5.825443835903961E-1   -8.986336228527521E-2   -4.208642047683760E-3    5.475907566497969E-2   -1.513426411096089E-3    5.393200655542690E-2   -5.377122782501830E-1    2.645819420921371E-2
 6.457926996600000E9    -5.826822991681592E-1   -8.882061917455433E-2   -4.094049709159155E-3    5.504005680720440E-2   -1.348218277102466E-3    5.438225340718451E-2   -5.376077640050920E-1    2.824487707275162E-2
 6.457938314700000E9    -5.828333068134168E-1   -8.755649919976388E-2   -3.938970685551334E-3    5.565732893249757E-2   -1.199969780005646E-3    5.480071168792993E-2   -5.374253900456221E-1    2.984085193722650E-2
 6.457949632800000E9    -5.830195914185544E-1   -8.650126672710166E-2   -3.903370691800063E-3    5.603097943574672E-2   -1.063853814494398E-3    5.532551708244363E-2   -5.372083484480381E-1    3.156181543753257E-2
 6.457960950900000E9    -5.830338765468233E-1   -8.540224184254866E-2   -3.785234132191314E-3    5.649417589338265E-2   -8.835812642798287E-4    5.561128919352944E-2   -5.371056383546595E-1    3.334355691060005E-2
 6.457972269000000E9    -5.830923047682848E-1   -8.423953087148722E-2   -3.601990919953065E-3    5.710333812641383E-2   -7.747580625443906E-4    5.607491416517749E-2   -5.368260673396125E-1    3.497640721144987E-2
 6.457983587100000E9    -5.832681862210288E-1   -8.315458075514580E-2   -3.428270500709528E-3    5.757608713172975E-2   -6.765499386509989E-4    5.659058390681228E-2   -5.367722590975693E-1    3.679460950245333E-2
 6.457994905200000E9    -5.832079878273044E-1   -8.210048724411004E-2   -3.317656619633468E-3    5.793669742664526E-2   -4.597915283624025E-4    5.707472988312833E-2   -5.364649563019568E-1    3.850888706630851E-2
 6.458006223300000E9    -5.833787627125152E-1   -8.089010372554725E-2   -3.157202875291692E-3    5.845768341254340E-2   -2.889417337820588E-4    5.759073345518605E-2   -5.362752817931001E-1    4.027878507833772E-2
 6.458017541400000E9    -5.834321505028486E-1   -7.977025814967922E-2   -2.963838017691757E-3    5.889219070473493E-2   -2.447021942004991E-5    5.805869088940358E-2   -5.361752342997885E-1    4.198042128150330E-2
 6.458028859500000E9    -5.835311339471527E-1   -7.867567381874579E-2   -2.821811315689436E-3    5.946302297447511E-2    8.563302480121686E-5    5.854035440859486E-2   -5.358620885465338E-1    4.389623414388741E-2
 6.458040177600000E9    -5.835116350206228E-1   -7.750554025850798E-2   -2.815498226961907E-3    6.008572877701758E-2    1.604861800202611E-4    5.905749749132385E-2   -5.358010343862591E-1    4.566890185955039E-2
 6.458051495700000E9    -5.836645731200422E-1   -7.640956090531115E-2   -2.515784313802292E-3    6.068000962347594E-2    4.893181526991915E-4    5.948974337805812E-2   -5.353773485204893E-1    4.752466603098177E-2
 6.458062813800000E9    -5.836753518508208E-1   -7.524621099528009E-2   -2.356906607780166E-3    6.105721218283926E-2    5.935134859402016E-4    6.000742228190376E-2   -5.351977626363885E-1    4.924888305203100E-2
 6.458074131900000E9    -5.837456537851544E-1   -7.410496049898364E-2   -2.195491217803539E-3    6.170651347535874E-2    7.673389747306737E-4    6.057055077195420E-2   -5.349436285279409E-1    5.108641666045520E-2
 6.458085450000000E9    -5.838134346613439E-1   -7.294557294577873E-2   -1.948684274920439E-3    6.219978171344002E-2    1.004654359764929E-3    6.118026265099966E-2   -5.346987435598245E-1    5.302429957763265E-2
