#  HZ   S   RI   R     50.00 
! Rohde & Schwarz Vector Network Analyzer 
! Rohde-Schwarz,ZNB20-2Port,1311601062101988,3.16
! Created: UTC 3/20/2024, 11:20:55 PM
! freq[Hz]                re:S11                  im:S11                  re:S21                  im:S21                  re:S12                  im:S12                  re:S22                  im:S22
 6.457068164000000E9    -5.686033942814588E-1   -1.650951447376517E-1   -8.589838366179822E-3    3.308183678774270E-2   -6.869444254264792E-3    3.303319591611062E-2   -5.345971387724138E-1   -7.638622866303163E-2
 6.457079492700000E9    -5.689948916814348E-1   -1.641851289560738E-1   -8.538592898504919E-3    3.333225112820111E-2   -6.801415831171971E-3    3.317333597991411E-2   -5.347671121781393E-1   -7.524983098145308E-2
 6.457090821400000E9    -5.692426564544261E-1   -1.632299753368791E-1   -8.657730466400431E-3    3.341081314236411E-2   -6.711045206900134E-3    3.334913520452024E-2   -5.349011063475774E-1   -7.415629232457978E-2
 6.457102150100000E9    -5.693782624865461E-1   -1.624122822802658E-1   -8.497489208495388E-3    3.365841332863317E-2   -6.742385450031385E-3    3.348754153811304E-2   -5.350533553133859E-1   -7.279625556807880E-2
 6.457113478800000E9    -5.697240419689508E-1   -1.614031717928771E-1   -8.686870971186559E-3    3.388194443368126E-2   -6.705209233775191E-3    3.369154228935372E-2   -5.350076624033715E-1   -7.183743971567182E-2
 6.457124807500000E9    -5.698794174646926E-1   -1.603695998623196E-1   -8.608560316985784E-3    3.416013021605546E-2   -6.646713602041003E-3    3.388435518767115E-2   -5.353062783410393E-1   -7.047854964134861E-2
 6.457136136200000E9    -5.701271276577623E-1   -1.594407937876304E-1   -8.456411552287492E-3    3.415629367633602E-2   -6.666582537866176E-3    3.418719924280290E-2   -5.354931884818743E-1   -6.922699701017714E-2
 6.457147464900000E9    -5.704095174423787E-1   -1.585550286645251E-1   -8.420826054447947E-3    3.453362531853003E-2   -6.614295737275079E-3    3.436947171369188E-2   -5.356376346622860E-1   -6.816255435266277E-2
 6.457158793600000E9    -5.707063036176294E-1   -1.576086540079187E-1   -8.489656259185711E-3    3.460606099110496E-2   -6.468705975921692E-3    3.463977509618340E-2   -5.358647326345973E-1   -6.678715223624274E-2
 6.457170122300000E9    -5.709030486106516E-1   -1.566661608526303E-1   -8.435102378161497E-3    3.491209953090042E-2   -6.537681980433438E-3    3.473521208360531E-2   -5.359354029911565E-1   -6.570529058045441E-2
 6.457181451000000E9    -5.711654125724142E-1   -1.556601969421197E-1   -8.329976566207294E-3    3.502775799417822E-2   -6.486884740581433E-3    3.492036396509291E-2   -5.361268263226983E-1   -6.445966517878141E-2
 6.457192779700000E9    -5.713425210162113E-1   -1.548194591948642E-1   -8.455461588333990E-3    3.525672346746706E-2   -6.413305787885336E-3    3.508289770811872E-2   -5.362291849670260E-1   -6.324010114526005E-2
 6.457204108400000E9    -5.715416051084348E-1   -1.537807634271214E-1   -8.285707481251205E-3    3.550880402758714E-2   -6.362475815418526E-3    3.538135732896770E-2   -5.363587218544530E-1   -6.199663060432749E-2
 6.457215437100000E9    -5.718871776469173E-1   -1.527506683311260E-1   -8.345384390454290E-3    3.556392735296616E-2   -6.403458565608231E-3    3.569164809888641E-2   -5.364534489278077E-1   -6.076539164158696E-2
 6.457226765800000E9    -5.719665675133024E-1   -1.518044237893285E-1   -8.353980184789065E-3    3.579231565553224E-2   -6.278619174948497E-3    3.581249679138344E-2   -5.366699520562924E-1   -5.962161494923918E-2
 6.457238094500000E9    -5.723893080300450E-1   -1.508551580671795E-1   -8.111502658713736E-3    3.612018326364080E-2   -6.270487572126366E-3    3.595630099872885E-2   -5.368560911378842E-1   -5.840851842214020E-2
 6.457249423200000E9    -5.725026856520787E-1   -1.500331572409278E-1   -8.284621259979814E-3    3.621242495901392E-2   -6.278487415334134E-3    3.619959598435656E-2   -5.368453451287964E-1   -5.692879218732298E-2
 6.457260751900000E9    -5.727299140772422E-1   -1.489856360252123E-1   -8.119849325621582E-3    3.653029927177773E-2   -6.148764452136203E-3    3.628326163324459E-2   -5.370490977601946E-1   -5.591138012672318E-2
 6.457272080600000E9    -5.730184501344981E-1   -1.480010926808753E-1   -8.047006839861587E-3    3.665473995558167E-2   -6.150078679538511E-3    3.657744230884698E-2   -5.370514755658631E-1   -5.458586161681027E-2
 6.457283409300000E9    -5.732127822900475E-1   -1.470093711927298E-1   -8.029324166077576E-3    3.703527839415502E-2   -5.997981848450784E-3    3.685182280135646E-2   -5.371129280744510E-1   -5.335949766486060E-2
 6.457294738000000E9    -5.734903081835739E-1   -1.460381737377371E-1   -8.062420122211339E-3    3.718866642660321E-2   -5.997543970652754E-3    3.705253453717763E-2   -5.372952351895565E-1   -5.193729649374884E-2
 6.457306066700000E9    -5.735605101738459E-1   -1.450701697220007E-1   -7.960994357066500E-3    3.730262711539991E-2   -5.963944923165973E-3    3.715558202302712E-2   -5.373971658129340E-1   -5.068833595888596E-2
 6.457317395400000E9    -5.739129732492726E-1   -1.440905985165415E-1   -7.812877492692978E-3    3.761668131929161E-2   -5.920525906267061E-3    3.750302871333452E-2   -5.376207456920603E-1   -4.957118696925035E-2
 6.457328724100000E9    -5.741061429425480E-1   -1.430874293977075E-1   -7.972773015205622E-3    3.786906594947237E-2   -5.855269037578339E-3    3.763664648893071E-2   -5.376534141116065E-1   -4.830597316691576E-2
 6.457340052800000E9    -5.744050455447882E-1   -1.421815255187541E-1   -7.873134518581909E-3    3.806265309522735E-2   -5.866048596924818E-3    3.792006062609789E-2   -5.377839804161914E-1   -4.694616305838899E-2
 6.457351381500000E9    -5.745481020167698E-1   -1.411045828563564E-1   -7.858898568656361E-3    3.839900892092652E-2   -5.877635161446668E-3    3.803856834574717E-2   -5.378610946567262E-1   -4.580042676395245E-2
 6.457362710200000E9    -5.746805865561838E-1   -1.402578509440559E-1   -7.811933239989031E-3    3.852006211099908E-2   -5.736139104780291E-3    3.839440468364678E-2   -5.380022643645380E-1   -4.450473732401060E-2
 6.457374038900000E9    -5.749529819789887E-1   -1.392812548052283E-1   -7.712290259834406E-3    3.880271575561416E-2   -5.750380915933408E-3    3.863767655345431E-2   -5.380459049185194E-1   -4.315055933629839E-2
 6.457385367600000E9    -5.751498728340800E-1   -1.382753078926706E-1   -7.690005367505760E-3    3.913203061788455E-2   -5.632230242463773E-3    3.879262285379770E-2   -5.380946145497927E-1   -4.190168412773754E-2
 6.457396696300000E9    -5.753753919881727E-1   -1.373074075064315E-1   -7.662922218777342E-3    3.942054612062174E-2   -5.691933763765603E-3    3.899838806007249E-2   -5.381708676675064E-1   -4.058596530389347E-2
 6.457408025000000E9    -5.755478222246616E-1   -1.362893102246187E-1   -7.611991211482665E-3    3.962960513733277E-2   -5.617336537392066E-3    3.938487511385539E-2   -5.383790757810275E-1   -3.923042120257997E-2
 6.457419353700000E9    -5.757849385656924E-1   -1.353841463557195E-1   -7.591960754450228E-3    3.984350693261160E-2   -5.486429020183217E-3    3.961803292850993E-2   -5.384802117269080E-1   -3.786430674202870E-2
 6.457430682400000E9    -5.759519999537974E-1   -1.343003598985953E-1   -7.606869726676481E-3    4.007457146458911E-2   -5.418564844355927E-3    3.984006441390366E-2   -5.384081150364532E-1   -3.666326382953387E-2
 6.457442011100000E9    -5.761524345797443E-1   -1.332688381662332E-1   -7.553052392833947E-3    4.040765471870550E-2   -5.356957804129299E-3    4.007148318853098E-2   -5.385898775221081E-1   -3.525999968783297E-2
 6.457453339800000E9    -5.763608729945228E-1   -1.323227097980281E-1   -7.393012389185510E-3    4.050525250802824E-2   -5.301125969311276E-3    4.026291572054762E-2   -5.386950005135231E-1   -3.401994115450410E-2
 6.457464668500000E9    -5.765043409085134E-1   -1.312857506107084E-1   -7.390518528799041E-3    4.092574259449820E-2   -5.273324954323128E-3    4.057799299030530E-2   -5.385556935341446E-1   -3.251967397749025E-2
 6.457475997200000E9    -5.768266329164047E-1   -1.303243573698928E-1   -7.163632067360847E-3    4.102600804686037E-2   -5.164701207671207E-3    4.081956436992616E-2   -5.388054359208242E-1   -3.135836031653409E-2
 6.457487325900000E9    -5.770350521257166E-1   -1.293232832081522E-1   -7.315537553331831E-3    4.145880421136140E-2   -5.116153284846397E-3    4.105664004960025E-2   -5.388538761523608E-1   -3.005135256294427E-2
 6.457498654600000E9    -5.771336290957120E-1   -1.283946705104914E-1   -7.171629039350558E-3    4.165157141824734E-2   -5.006337612257495E-3    4.146801411448092E-2   -5.389185000547910E-1   -2.860208768089889E-2
 6.457509983300000E9    -5.774069310593202E-1   -1.273374638772626E-1   -7.088675357602523E-3    4.190925539220349E-2   -4.954059314875438E-3    4.172514024788436E-2   -5.389856723813972E-1   -2.741733388463472E-2
 6.457521312000000E9    -5.776364578914415E-1   -1.263628759020730E-1   -7.142898698606345E-3    4.219241056806913E-2   -4.938402069600103E-3    4.196204906863184E-2   -5.389321642472625E-1   -2.587596802542691E-2
 6.457532640700000E9    -5.776557333628497E-1   -1.252386806022815E-1   -7.107528790937991E-3    4.255461257541972E-2   -4.839623705131095E-3    4.220091636051231E-2   -5.389182679299322E-1   -2.454910376286632E-2
 6.457543969400000E9    -5.779273691039745E-1   -1.243611181782592E-1   -7.047319744259473E-3    4.289945811899291E-2   -4.819601403621182E-3    4.241546922748843E-2   -5.390048397602234E-1   -2.316660447446739E-2
 6.457555298100000E9    -5.779795868681747E-1   -1.232603467067553E-1   -6.921213253215595E-3    4.304443986184571E-2   -4.683844337153095E-3    4.267603905352590E-2   -5.390522840488829E-1   -2.173537776402427E-2
 6.457566626800000E9    -5.782837346686007E-1   -1.222088151533928E-1   -6.711704079693215E-3    4.336066049636218E-2   -4.694544493860232E-3    4.298061836532233E-2   -5.390814552612195E-1   -2.039288375946807E-2
 6.457577955500000E9    -5.784162699137479E-1   -1.212370669092796E-1   -6.768297016319928E-3    4.366789224780888E-2   -4.570618720042793E-3    4.334304713492015E-2   -5.389933255837099E-1   -1.908038702432528E-2
 6.457589284200000E9    -5.785534006990387E-1   -1.202162297317781E-1   -6.851586729669251E-3    4.402500244895487E-2   -4.474055470478145E-3    4.354712275719919E-2   -5.391890230553122E-1   -1.758491297835555E-2
 6.457600612900000E9    -5.787984055248074E-1   -1.192909791778901E-1   -6.714176057810281E-3    4.423381461399317E-2   -4.433046205793951E-3    4.390986468898962E-2   -5.391155957301422E-1   -1.611682256246496E-2
 6.457611941600000E9    -5.789717537942498E-1   -1.182781666546317E-1   -6.605583485275406E-3    4.471967891208688E-2   -4.314868005642558E-3    4.420520705602761E-2   -5.390918921122863E-1   -1.475578577285187E-2
 6.457623270300000E9    -5.790417464452144E-1   -1.172284875369023E-1   -6.680326122733406E-3    4.496228776733701E-2   -4.188281831270654E-3    4.459946735287585E-2   -5.393295907340130E-1   -1.337009886230360E-2
 6.457634599000000E9    -5.791487684557497E-1   -1.161268989380700E-1   -6.526008202180801E-3    4.532112770866437E-2   -4.174213010011966E-3    4.479278126141081E-2   -5.392802405443735E-1   -1.202861521250772E-2
 6.457645927700000E9    -5.793839809009781E-1   -1.150144772026612E-1   -6.539705093016815E-3    4.565161978927749E-2   -4.068722919024458E-3    4.521414155795561E-2   -5.391549892394510E-1   -1.042741829913014E-2
 6.457657256400000E9    -5.796307781197577E-1   -1.141726047159430E-1   -6.456180195491053E-3    4.587472864898030E-2   -3.924773924689445E-3    4.547874897379640E-2   -5.393019853983355E-1   -9.012998916696564E-3
 6.457668585100000E9    -5.798402609926363E-1   -1.132703783217411E-1   -6.373304647568196E-3    4.618353673408487E-2   -4.024459239608313E-3    4.579671738664978E-2   -5.391984153509635E-1   -7.678551731853288E-3
 6.457679913800000E9    -5.798847085888007E-1   -1.119530587217806E-1   -6.319931437707343E-3    4.659123429520762E-2   -3.915912453623886E-3    4.608863784682387E-2   -5.391358675373700E-1   -6.148873129358707E-3
 6.457691242500000E9    -5.800366160480759E-1   -1.110215386201913E-1   -6.182481807472903E-3    4.680725966690657E-2   -3.766037767416310E-3    4.644058055959662E-2   -5.392214951596567E-1   -4.634926958809294E-3
 6.457702571200000E9    -5.802729143841482E-1   -1.100349884305975E-1   -6.135606250450518E-3    4.722154187566373E-2   -3.642805731362448E-3    4.669152335199780E-2   -5.391551060673168E-1   -3.080145691938984E-3
 6.457713899900000E9    -5.802294315415770E-1   -1.090154569871897E-1   -6.138892885914500E-3    4.750073297913086E-2   -3.598797491491675E-3    4.707565709967835E-2   -5.390289847819175E-1   -1.660855163316751E-3
 6.457725228600000E9    -5.805505321744051E-1   -1.079586495398523E-1   -5.880178557736462E-3    4.803689512230524E-2   -3.498161861818688E-3    4.732723955968199E-2   -5.389452287787380E-1   -2.231381701492711E-4
 6.457736557300000E9    -5.806482350724149E-1   -1.067289441339455E-1   -5.757846307601795E-3    4.842539164337931E-2   -3.345914495983562E-3    4.773564087137216E-2   -5.390432658641324E-1    1.351284052837577E-3
 6.457747886000000E9    -5.808062602816414E-1   -1.056644320165520E-1   -5.681202186692809E-3    4.866891588263817E-2   -3.250156127650306E-3    4.805714247479620E-2   -5.390384861905081E-1    2.853019323172599E-3
 6.457759214700000E9    -5.809422003790305E-1   -1.047323900168189E-1   -5.731982490013655E-3    4.901005512763849E-2   -3.138938378331965E-3    4.835673166709699E-2   -5.390200620466418E-1    4.410950586619606E-3
 6.457770543400000E9    -5.810631443017926E-1   -1.036187097015605E-1   -5.689893548937893E-3    4.949441930643473E-2   -3.075997712522799E-3    4.882172418067153E-2   -5.388327160197004E-1    5.752091590865952E-3
 6.457781872100000E9    -5.812738141126674E-1   -1.026619150096408E-1   -5.493753720932144E-3    4.976886064832774E-2   -2.994475486148314E-3    4.918766216823357E-2   -5.388749242612072E-1    7.345235474907691E-3
 6.457793200800000E9    -5.813781556999703E-1   -1.016007226657101E-1   -5.572990047372588E-3    5.014103735244806E-2   -2.879483910697922E-3    4.944705099264310E-2   -5.387475784497039E-1    8.878329081248660E-3
 6.457804529500000E9    -5.813624120316655E-1   -1.003913662836306E-1   -5.302576672746583E-3    5.052453298378428E-2   -2.740098239445652E-3    4.987989605556022E-2   -5.387884827530433E-1    1.051076640805684E-2
 6.457815858200000E9    -5.816021713544480E-1   -9.944732774255659E-2   -5.194981197069898E-3    5.092502696098505E-2   -2.630368560580925E-3    5.018501679069326E-2   -5.387278780019369E-1    1.206993434752581E-2
 6.457827186900000E9    -5.817814065673562E-1   -9.828066111608921E-2   -5.177494801465825E-3    5.125508977069332E-2   -2.512835682386725E-3    5.067724532800404E-2   -5.385513884076296E-1    1.362725681595530E-2
 6.457838515600000E9    -5.819008700979215E-1   -9.714803163513532E-2   -5.078222699784427E-3    5.160162804477177E-2   -2.366725317559508E-3    5.104671942820310E-2   -5.385623789385282E-1    1.521991143836111E-2
 6.457849844300000E9    -5.820180043124732E-1   -9.616044873820455E-2   -4.929605630647170E-3    5.206382174684357E-2   -2.271177191006013E-3    5.144705214427211E-2   -5.384138655589338E-1    1.675392900002964E-2
 6.457861173000000E9    -5.822310660764393E-1   -9.521687133474095E-2   -4.767240259911956E-3    5.253861027749331E-2   -2.177651102040041E-3    5.179806800895764E-2   -5.383632740013148E-1    1.844118467564568E-2
 6.457872501700000E9    -5.822024493325343E-1   -9.398759151155428E-2   -4.650366265173937E-3    5.287614842902124E-2   -1.988921135947409E-3    5.222791662237200E-2   -5.381368153980870E-1    1.993641489824874E-2
 6.457883830400000E9    -5.824023121750813E-1   -9.287616127552188E-2   -4.594431878470285E-3    5.333025212450977E-2   -1.897628180966599E-3    5.264372166746688E-2   -5.380230604906909E-1    2.165185897473340E-2
 6.457895159100000E9    -5.824026945994653E-1   -9.188926749193951E-2   -4.511095188221314E-3    5.388228970558900E-2   -1.794308452020725E-3    5.302159615960059E-2   -5.378501489437723E-1    2.333417227570806E-2
 6.457906487800000E9    -5.825399200592685E-1   -9.089775446516463E-2   -4.358077185334363E-3    5.425716271650566E-2   -1.605216165220268E-3    5.345683014744573E-2   -5.378069280503048E-1    2.491751764179594E-2
 6.457917816500000E9    -5.826547242586613E-1   -8.974625712857029E-2   -4.184368741534981E-3    5.458276020157834E-2   -1.524771632231700E-3    5.383393122285951E-2   -5.375722311468198E-1    2.653285125049521E-2
 6.457929145200000E9    -5.827486178748394E-1   -8.857843264704576E-2   -4.082639159136548E-3    5.499501151100927E-2   -1.365372054903045E-3    5.433499402799592E-2   -5.375117185488840E-1    2.825730458197667E-2
 6.457940473900000E9    -5.827919088529839E-1   -8.743647385170744E-2   -4.018241959537702E-3    5.553080630592200E-2   -1.258203258979241E-3    5.480255118825156E-2   -5.372651702539606E-1    2.995625366251732E-2
 6.457951802600000E9    -5.829139921277333E-1   -8.638380406072878E-2   -3.849036084918183E-3    5.595354211668895E-2   -1.113356676806854E-3    5.520427970735669E-2   -5.372317503601567E-1    3.163186847258440E-2
 6.457963131300000E9    -5.830796380450292E-1   -8.536485478402642E-2   -3.764113089852215E-3    5.648961507968378E-2   -9.560163930208280E-4    5.564429640409001E-2   -5.370771751416756E-1    3.327192753716724E-2
 6.457974460000000E9    -5.831591547669953E-1   -8.409092206408958E-2   -3.668673774800407E-3    5.712410423919178E-2   -7.204465852190617E-4    5.602467033963426E-2   -5.368267009067764E-1    3.510672547602591E-2
 6.457985788700000E9    -5.832476867945928E-1   -8.306526298992442E-2   -3.519142056465011E-3    5.745481758402505E-2   -5.747621663332855E-4    5.661714852363928E-2   -5.366563264228579E-1    3.681981141081245E-2
 6.457997117400000E9    -5.832921368353670E-1   -8.197980093750593E-2   -3.330211975387974E-3    5.794433276862871E-2   -4.899486299788908E-4    5.703968777441693E-2   -5.364458520092902E-1    3.860136787542157E-2
 6.458008446100000E9    -5.833240996344600E-1   -8.076258969687679E-2   -3.104321892552753E-3    5.847222405677714E-2   -3.249828908403932E-4    5.752910481487934E-2   -5.362183825754184E-1    4.019003807858919E-2
 6.458019774800000E9    -5.834536581152137E-1   -7.968624396551023E-2   -2.923177072490609E-3    5.894804094237462E-2   -1.061509456910382E-4    5.801797073106064E-2   -5.360412213359729E-1    4.206634511382226E-2
 6.458031103500000E9    -5.835884017684196E-1   -7.850090467649169E-2   -2.810648360282347E-3    5.937779917723188E-2    3.276559916382123E-5    5.851980372992673E-2   -5.358565507604984E-1    4.393254043295462E-2
 6.458042432200000E9    -5.836053832176175E-1   -7.736147281084460E-2   -2.645591878540078E-3    5.992827245370482E-2    2.899650338546694E-4    5.899468020157925E-2   -5.356545423433214E-1    4.579925831315147E-2
 6.458053760900000E9    -5.837415805369689E-1   -7.619947068103804E-2   -2.514591105293625E-3    6.062468656357909E-2    2.978716220226297E-4    5.948663638749359E-2   -5.353241129970682E-1    4.748603034159686E-2
 6.458065089600000E9    -5.837440977866900E-1   -7.518191630051355E-2   -2.225803833792525E-3    6.101641637597904E-2    6.733829675961544E-4    5.999229104553085E-2   -5.351524911226022E-1    4.928708329038810E-2
 6.458076418300000E9    -5.838231479180076E-1   -7.395635644145847E-2   -2.312082240389023E-3    6.153471110993590E-2    8.179369797746839E-4    6.048943119303701E-2   -5.349038398078243E-1    5.116955706702189E-2
 6.458087747000000E9    -5.838043089472977E-1   -7.279532397725261E-2   -1.882944615500536E-3    6.207849737216178E-2    1.040390315868583E-3    6.107843013348627E-2   -5.346397818798079E-1    5.301523832454720E-2
