#  HZ   S   RI   R     50.00 
! Rohde & Schwarz Vector Network Analyzer 
! Rohde-Schwarz,ZNB20-2Port,1311601062101988,3.16
! Created: UTC 3/20/2024, 11:21:04 PM
! freq[Hz]                re:S11                  im:S11                  re:S21                  im:S21                  re:S12                  im:S12                  re:S22                  im:S22
 6.457071653000000E9    -5.687563619161862E-1   -1.648325124269773E-1   -8.564545418415894E-3    3.307532905282669E-2   -6.805227485391457E-3    3.300357739515674E-2   -5.344739072103004E-1   -7.623010964994556E-2
 6.457082977625000E9    -5.690379936574876E-1   -1.639019314315867E-1   -8.598932612559920E-3    3.321959172116810E-2   -6.772896502497528E-3    3.329743228301227E-2   -5.346433380605153E-1   -7.499316856962357E-2
 6.457094302250000E9    -5.693182105616837E-1   -1.629421379603324E-1   -8.687597448137513E-3    3.344485190141244E-2   -6.863577093282659E-3    3.341057530433870E-2   -5.348905748239655E-1   -7.374781435361377E-2
 6.457105626875000E9    -5.694973969400134E-1   -1.621554798441328E-1   -8.378112396170891E-3    3.379976738138134E-2   -6.716512414352340E-3    3.359873088859367E-2   -5.351236069080009E-1   -7.253131693980541E-2
 6.457116951500000E9    -5.698463727172218E-1   -1.611023256355371E-1   -8.539450164852915E-3    3.375225475064487E-2   -6.733882125980514E-3    3.377324464785782E-2   -5.353711604254123E-1   -7.126007759778501E-2
 6.457128276125000E9    -5.700037174188727E-1   -1.601309682562657E-1   -8.457454301878694E-3    3.403649640789178E-2   -6.672542809940563E-3    3.399092953852335E-2   -5.353133082065565E-1   -7.020475746406400E-2
 6.457139600750000E9    -5.701847121516043E-1   -1.591916415105259E-1   -8.348551056812498E-3    3.426828674024532E-2   -6.535503701488200E-3    3.415816114950822E-2   -5.354540434657971E-1   -6.899340295441415E-2
 6.457150925375000E9    -5.705513344900257E-1   -1.582434889653376E-1   -8.411815784577805E-3    3.437695283597426E-2   -6.455359981564796E-3    3.428200349194330E-2   -5.356716005007579E-1   -6.789011094094186E-2
 6.457162250000000E9    -5.706347212505459E-1   -1.572023025239239E-1   -8.396853455334042E-3    3.478178703187679E-2   -6.526246480470121E-3    3.457256101061515E-2   -5.358760607930227E-1   -6.651739107440456E-2
 6.457173574625000E9    -5.709890004265898E-1   -1.562825966042847E-1   -8.335152914414917E-3    3.493061928188083E-2   -6.504669830345622E-3    3.473586292059586E-2   -5.360031445551022E-1   -6.535832665556482E-2
 6.457184899250000E9    -5.712710575375300E-1   -1.554351958111301E-1   -8.412440123673788E-3    3.495004251193176E-2   -6.378778675935803E-3    3.495589200166895E-2   -5.360096345801468E-1   -6.410529284438471E-2
 6.457196223875000E9    -5.714077533349013E-1   -1.544668207569323E-1   -8.393677628265397E-3    3.531864117205823E-2   -6.403523702678694E-3    3.522267210132587E-2   -5.363744819388869E-1   -6.283462209201369E-2
 6.457207548500000E9    -5.717370494871439E-1   -1.534235619740745E-1   -8.201787936258384E-3    3.535424944013846E-2   -6.447837465159488E-3    3.526121982935607E-2   -5.363323672623829E-1   -6.177765795421855E-2
 6.457218873125000E9    -5.718528154430790E-1   -1.525111880069110E-1   -8.273134830527926E-3    3.558647012428110E-2   -6.282122780743778E-3    3.557105179795383E-2   -5.364265816859467E-1   -6.041638259204823E-2
 6.457230197750000E9    -5.721528636549422E-1   -1.515148023557204E-1   -8.104349573880971E-3    3.586808404409126E-2   -6.268420264695642E-3    3.580222915973852E-2   -5.365485204067936E-1   -5.911744302321237E-2
 6.457241522375000E9    -5.723757252712282E-1   -1.506148979926954E-1   -8.167404722194942E-3    3.612831802465293E-2   -6.260111630858206E-3    3.593371950568522E-2   -5.366458276358735E-1   -5.791153358451624E-2
 6.457252847000000E9    -5.725385871037549E-1   -1.496800310611325E-1   -8.113315567882074E-3    3.626514309487089E-2   -6.223833982999253E-3    3.605266825172319E-2   -5.368144754491897E-1   -5.682368332688800E-2
 6.457264171625000E9    -5.728721295437627E-1   -1.487551884031582E-1   -8.027975095458526E-3    3.652804856786518E-2   -6.190339350214747E-3    3.635270152447516E-2   -5.370414126142903E-1   -5.547169237022535E-2
 6.457275496250000E9    -5.730016848525677E-1   -1.477382017103494E-1   -8.124248124462408E-3    3.670489284791992E-2   -6.028243383789974E-3    3.656787685220919E-2   -5.371585907764567E-1   -5.430647364306650E-2
 6.457286820875000E9    -5.732268825775664E-1   -1.467701218922517E-1   -8.015608873483241E-3    3.701981751530208E-2   -6.092842641549397E-3    3.675420418623304E-2   -5.371502043428894E-1   -5.308379605864418E-2
 6.457298145500000E9    -5.735429632571190E-1   -1.458043412647838E-1   -7.927091271236815E-3    3.712729521315355E-2   -6.027141233196075E-3    3.700997923835408E-2   -5.372598084597563E-1   -5.176859487996209E-2
 6.457309470125000E9    -5.737514547830719E-1   -1.448863310192293E-1   -7.967409906961351E-3    3.737779718590812E-2   -6.059066919530248E-3    3.726757710626004E-2   -5.373564273174358E-1   -5.065334471519193E-2
 6.457320794750000E9    -5.740333327283874E-1   -1.438502488338078E-1   -7.981915917134775E-3    3.757896670700384E-2   -5.845630657333573E-3    3.753623228958273E-2   -5.375344464077189E-1   -4.919221080037801E-2
 6.457332119375000E9    -5.741626890791511E-1   -1.428728162555212E-1   -7.819177293755985E-3    3.778683744973888E-2   -5.844690796487383E-3    3.775423526592332E-2   -5.377021225253337E-1   -4.800956560282529E-2
 6.457343444000000E9    -5.742530155535850E-1   -1.418127172261391E-1   -7.857570902317710E-3    3.811435034887784E-2   -5.853563744076126E-3    3.783762500124092E-2   -5.376141411862840E-1   -4.667546853992777E-2
 6.457354768625000E9    -5.745752111930839E-1   -1.409244274894443E-1   -7.693091697338570E-3    3.837805823826188E-2   -5.748538636036816E-3    3.816358663022755E-2   -5.378073464809234E-1   -4.539054258205391E-2
 6.457366093250000E9    -5.747633834957204E-1   -1.400833463209251E-1   -7.803079002712487E-3    3.858225066362977E-2   -5.746938934002432E-3    3.844231922629643E-2   -5.380074830613690E-1   -4.416644478123581E-2
 6.457377417875000E9    -5.750355465340016E-1   -1.388942574250717E-1   -7.724467462545841E-3    3.869787672940489E-2   -5.716699298659678E-3    3.858080338011465E-2   -5.382126700999731E-1   -4.283644258402367E-2
 6.457388742500000E9    -5.751949490253302E-1   -1.379179021306591E-1   -7.744053413331534E-3    3.905182849845196E-2   -5.639259179808944E-3    3.886548392635195E-2   -5.380308527143153E-1   -4.152197878650509E-2
 6.457400067125000E9    -5.753992469564525E-1   -1.370078550456359E-1   -7.680481432989540E-3    3.941745447067792E-2   -5.477074380058648E-3    3.911333308623789E-2   -5.382884859337631E-1   -4.024082313577802E-2
 6.457411391750000E9    -5.755840810696810E-1   -1.360129530130063E-1   -7.544182140404394E-3    3.951815096442184E-2   -5.490583075716047E-3    3.933187934076259E-2   -5.382767160056187E-1   -3.888445372764469E-2
 6.457422716375000E9    -5.757983066941140E-1   -1.351090120973533E-1   -7.595031320880846E-3    3.984446208603903E-2   -5.419477546576767E-3    3.953281682605939E-2   -5.383744445693412E-1   -3.770849612807298E-2
 6.457434041000000E9    -5.760485092164637E-1   -1.341328635935122E-1   -7.509446804118655E-3    4.009348578312173E-2   -5.309473413707295E-3    3.990218860040960E-2   -5.384965703959849E-1   -3.630036626593466E-2
 6.457445365625000E9    -5.762742237245227E-1   -1.330134089442722E-1   -7.503363235938423E-3    4.041595058069497E-2   -5.257138439486090E-3    4.006631760727174E-2   -5.384689106762404E-1   -3.500486595076071E-2
 6.457456690250000E9    -5.764195135297999E-1   -1.319850332049972E-1   -7.444612479223618E-3    4.060392930740093E-2   -5.264176790258870E-3    4.029132539309919E-2   -5.386060519624951E-1   -3.358523384902611E-2
 6.457468014875000E9    -5.766345164210902E-1   -1.310669666084234E-1   -7.219345240417384E-3    4.098289074506638E-2   -5.235068517164153E-3    4.057410557162549E-2   -5.386828378109110E-1   -3.226241679244431E-2
 6.457479339500000E9    -5.768444001645896E-1   -1.300885535947253E-1   -7.439980289449698E-3    4.117952262724539E-2   -5.106219026126057E-3    4.092205043454208E-2   -5.388295266366818E-1   -3.098940198814238E-2
 6.457490664125000E9    -5.769527131243573E-1   -1.289944045027777E-1   -7.285550040470849E-3    4.148339370122122E-2   -5.118136039570982E-3    4.104235256363054E-2   -5.387181984192380E-1   -2.959594488369108E-2
 6.457501988750000E9    -5.771796892674466E-1   -1.281032295716323E-1   -7.156683233484618E-3    4.168161544698652E-2   -4.992172680003915E-3    4.141538823330390E-2   -5.388523162709268E-1   -2.840046693631895E-2
 6.457513313375000E9    -5.773188228511712E-1   -1.271173551120643E-1   -7.156482500310657E-3    4.204160539178845E-2   -4.937113414600157E-3    4.176326003376855E-2   -5.389044015900768E-1   -2.692033644476286E-2
 6.457524638000000E9    -5.775348297930092E-1   -1.259872114417576E-1   -7.134561932142584E-3    4.221985541280914E-2   -4.821566902395641E-3    4.197391059213559E-2   -5.389031850774776E-1   -2.554776531861004E-2
 6.457535962625000E9    -5.778497071857136E-1   -1.250625533422245E-1   -7.099900631653734E-3    4.254833073918329E-2   -4.856959823218417E-3    4.214184063926377E-2   -5.389653998384971E-1   -2.412548013019444E-2
 6.457547287250000E9    -5.778569170351521E-1   -1.239860118652041E-1   -6.912933360623958E-3    4.284430788361798E-2   -4.806089128778833E-3    4.242760093466246E-2   -5.390504980401386E-1   -2.290476660334886E-2
 6.457558611875000E9    -5.781523001775640E-1   -1.231103701438644E-1   -7.049157288661637E-3    4.300240975722914E-2   -4.653358142388191E-3    4.280078765703631E-2   -5.389638717919186E-1   -2.150024879906683E-2
 6.457569936500000E9    -5.783050056205302E-1   -1.219893246321990E-1   -6.840767005416233E-3    4.325742693614356E-2   -4.595532578591502E-3    4.304983271262992E-2   -5.393294271124224E-1   -2.008118827333101E-2
 6.457581261125000E9    -5.784749902002522E-1   -1.209362850687819E-1   -6.756540808103847E-3    4.376665850718099E-2   -4.521766603997633E-3    4.330954253871418E-2   -5.390910983164439E-1   -1.869331044543142E-2
 6.457592585750000E9    -5.787232087795900E-1   -1.199952140167123E-1   -6.922952955971535E-3    4.384118568879837E-2   -4.408659629407770E-3    4.359533149628958E-2   -5.391689801995734E-1   -1.733269010586367E-2
 6.457603910375000E9    -5.788128271580826E-1   -1.188539735787141E-1   -6.712998480173482E-3    4.417873166491294E-2   -4.379781381048647E-3    4.392862691422088E-2   -5.391901683859043E-1   -1.593687164820765E-2
 6.457615235000000E9    -5.789390055719130E-1   -1.178656766658296E-1   -6.514322579759989E-3    4.453272845470135E-2   -4.293926558102967E-3    4.422292480526967E-2   -5.391744393883116E-1   -1.451291113561185E-2
 6.457626559625000E9    -5.792105079684370E-1   -1.168723828471624E-1   -6.463791423836469E-3    4.491806793339068E-2   -4.241449869002783E-3    4.461538619516346E-2   -5.391667960818789E-1   -1.311218519550108E-2
 6.457637884250000E9    -5.792384779689765E-1   -1.158722751276404E-1   -6.487062768682583E-3    4.523778749783798E-2   -4.124430987591210E-3    4.477075197415585E-2   -5.391218866776353E-1   -1.157182274908844E-2
 6.457649208875000E9    -5.794698011360574E-1   -1.147043408672297E-1   -6.367240555077864E-3    4.548521031649536E-2   -4.027120258420747E-3    4.520462140272288E-2   -5.391906450028255E-1   -1.010654502636674E-2
 6.457660533500000E9    -5.796056097186036E-1   -1.138318261861323E-1   -6.419546835868663E-3    4.598046008189763E-2   -4.003386388777752E-3    4.547261608638804E-2   -5.392804426060667E-1   -8.763742090378996E-3
 6.457671858125000E9    -5.798436549015024E-1   -1.128671819587845E-1   -6.403226383851512E-3    4.612619103482645E-2   -3.965982307809097E-3    4.576174760213043E-2   -5.390914119030572E-1   -7.239486885812224E-3
 6.457683182750000E9    -5.799335229229831E-1   -1.118024854654256E-1   -6.083924305271275E-3    4.656326188354153E-2   -3.780584138670575E-3    4.605334172418540E-2   -5.391268192052128E-1   -5.817988728298666E-3
 6.457694507375000E9    -5.800416317070876E-1   -1.107048009775215E-1   -6.064767835452694E-3    4.688029913902987E-2   -3.725118413717515E-3    4.644754491349649E-2   -5.391821738070965E-1   -4.252839196590824E-3
 6.457705832000000E9    -5.802404837176219E-1   -1.096999725588941E-1   -6.038835139847125E-3    4.712818827695252E-2   -3.542937967469285E-3    4.667849794751856E-2   -5.391088255455051E-1   -2.770198151417306E-3
 6.457717156625000E9    -5.804551040114819E-1   -1.085988843371551E-1   -5.948932762950173E-3    4.754835716663169E-2   -3.476076959973975E-3    4.707533911622439E-2   -5.390133003488017E-1   -1.373603717594893E-3
 6.457728481250000E9    -5.806226038926461E-1   -1.075380022170446E-1   -5.795877234514687E-3    4.786967280604492E-2   -3.449694067506605E-3    4.746822228783686E-2   -5.390364609822964E-1    7.122289693169000E-5
 6.457739805875000E9    -5.806373054587557E-1   -1.064902919765973E-1   -5.802818272814126E-3    4.822957630764933E-2   -3.353511109409593E-3    4.769248008449253E-2   -5.388990013061544E-1    1.544028179149684E-3
 6.457751130500000E9    -5.808285958447538E-1   -1.055233018457318E-1   -5.698590559173891E-3    4.871687555334155E-2   -3.273425196278940E-3    4.808657511373683E-2   -5.389004377231306E-1    2.960195097114133E-3
 6.457762455125000E9    -5.809648371356924E-1   -1.045096326183152E-1   -5.657752132209936E-3    4.917890148381429E-2   -3.125644586172361E-3    4.840758055359248E-2   -5.388605244527135E-1    4.636302686972188E-3
 6.457773779750000E9    -5.810972698285016E-1   -1.034350464192117E-1   -5.696945962591143E-3    4.932117190056717E-2   -3.137903646653589E-3    4.881971909848856E-2   -5.389228966334182E-1    6.125089777774502E-3
 6.457785104375000E9    -5.812558065279559E-1   -1.023063746924826E-1   -5.520940707923703E-3    4.976271003581667E-2   -2.969689441575458E-3    4.919574958148729E-2   -5.388572374251274E-1    7.677983190464503E-3
 6.457796429000000E9    -5.813916150806421E-1   -1.013068899369558E-1   -5.385185961385906E-3    5.015453495741594E-2   -2.884658274160204E-3    4.938547285646314E-2   -5.387388674111431E-1    9.203595886439509E-3
 6.457807753625000E9    -5.815357378938855E-1   -1.002120929971383E-1   -5.300322374892633E-3    5.043341351162173E-2   -2.665352285572468E-3    4.988027345155640E-2   -5.386977862628476E-1    1.084380131284843E-2
 6.457819078250000E9    -5.817379545254758E-1   -9.902787662777190E-2   -5.233800056298107E-3    5.080067966083868E-2   -2.594660036041668E-3    5.024350506804438E-2   -5.386761836063968E-1    1.239106851295890E-2
 6.457830402875000E9    -5.817725270635383E-1   -9.813220188378152E-2   -4.994744623509772E-3    5.126556235316805E-2   -2.429400762830482E-3    5.062207436208666E-2   -5.385645283729975E-1    1.397913741398512E-2
 6.457841727500000E9    -5.819646699512777E-1   -9.693876172679650E-2   -4.914021839954786E-3    5.183428348058183E-2   -2.434536102150612E-3    5.100727088363267E-2   -5.385294830720115E-1    1.556708467709405E-2
 6.457853052125000E9    -5.820821825221465E-1   -9.589641448644197E-2   -4.839088384760607E-3    5.197962244639741E-2   -2.257635062165777E-3    5.143612261243167E-2   -5.384000313223497E-1    1.704963638195998E-2
 6.457864376750000E9    -5.821989524625055E-1   -9.496535525692892E-2   -4.870348386142632E-3    5.257540243488099E-2   -2.139931373689032E-3    5.177780101749691E-2   -5.382990083550533E-1    1.871096882764324E-2
 6.457875701375000E9    -5.822219625068467E-1   -9.375785594644091E-2   -4.834506649957242E-3    5.306560468335656E-2   -2.020787792438548E-3    5.227079871303866E-2   -5.381403016222495E-1    2.025028361794722E-2
 6.457887026000000E9    -5.823538962891948E-1   -9.272261683251826E-2   -4.564467402967520E-3    5.343188613998768E-2   -1.882395961466934E-3    5.264696109234993E-2   -5.379392145235876E-1    2.194476407547740E-2
 6.457898350625000E9    -5.824720320912992E-1   -9.159161164915862E-2   -4.546073122090302E-3    5.371932739163341E-2   -1.705686004449766E-3    5.310540863640000E-2   -5.378952542688757E-1    2.362344514214212E-2
 6.457909675250000E9    -5.825845311993342E-1   -9.054940707774255E-2   -4.287340584133300E-3    5.423102395297342E-2   -1.709712131439431E-3    5.345979520302405E-2   -5.378765001462643E-1    2.526182326045224E-2
 6.457920999875000E9    -5.826499484155020E-1   -8.940794749694181E-2   -4.133947416997063E-3    5.461471725041655E-2   -1.443376528562921E-3    5.386043445366036E-2   -5.376647296434237E-1    2.682224143642185E-2
 6.457932324500000E9    -5.827635295614360E-1   -8.831094432078931E-2   -4.042904117061369E-3    5.502856397396814E-2   -1.240898806502299E-3    5.442910635194190E-2   -5.375712694625533E-1    2.851579764848341E-2
 6.457943649125000E9    -5.829000547644907E-1   -8.719071975303549E-2   -3.797659194150357E-3    5.549424607072544E-2   -1.246902389734194E-3    5.483258779453885E-2   -5.373421132403322E-1    3.012913041010626E-2
 6.457954973750000E9    -5.829600876033485E-1   -8.608813465227848E-2   -3.820607690424673E-3    5.608945705741931E-2   -1.081226225448887E-3    5.517728572155438E-2   -5.372427377904173E-1    3.193875562288177E-2
 6.457966298375000E9    -5.830161922727970E-1   -8.491639063136515E-2   -3.673300725761630E-3    5.657740675033100E-2   -8.770610276413956E-4    5.564723455518911E-2   -5.369196762328247E-1    3.378967100458097E-2
 6.457977623000000E9    -5.831163783414827E-1   -8.387898614431037E-2   -3.552219539308091E-3    5.704168233520467E-2   -7.496854783922759E-4    5.604449978674274E-2   -5.367486269423747E-1    3.531575471746404E-2
 6.457988947625000E9    -5.831761673235094E-1   -8.278173688845865E-2   -3.465273028889905E-3    5.742484988811515E-2   -4.955978648971574E-4    5.665229990159158E-2   -5.365506869255753E-1    3.694456603557127E-2
 6.458000272250000E9    -5.832910136710346E-1   -8.165901074541951E-2   -3.358544566868319E-3    5.813310169536696E-2   -4.096010436847718E-4    5.701642311113432E-2   -5.364543895682953E-1    3.879298983708211E-2
 6.458011596875000E9    -5.834463701894160E-1   -8.042722504081709E-2   -3.116159408000390E-3    5.856608217189301E-2   -2.258559920642275E-4    5.748991409945457E-2   -5.361773422651459E-1    4.051164782134544E-2
 6.458022921500000E9    -5.835100063315252E-1   -7.939984211305071E-2   -2.948780336986847E-3    5.909836267934188E-2   -1.141553545410857E-4    5.803043554107660E-2   -5.361557247685764E-1    4.246046134392088E-2
 6.458034246125000E9    -5.836236419123315E-1   -7.813101032620692E-2   -2.881506322012568E-3    5.957752757525379E-2    7.444453485818927E-5    5.849471510482304E-2   -5.357704359011948E-1    4.419856231904253E-2
 6.458045570750000E9    -5.837547548659332E-1   -7.699447104838103E-2   -2.624480163128718E-3    5.990494585006428E-2    3.090382315311084E-4    5.896829472831292E-2   -5.357095094143985E-1    4.601264791320973E-2
 6.458056895375000E9    -5.836130780214271E-1   -7.598919971858131E-2   -2.451018205502949E-3    6.061205372181931E-2    4.986804228577824E-4    5.947744056121245E-2   -5.354011539183723E-1    4.793725610615794E-2
 6.458068220000000E9    -5.837802602178503E-1   -7.482064384741481E-2   -2.239971575451890E-3    6.107519085362013E-2    6.327354512145024E-4    5.990391199509482E-2   -5.350359586041500E-1    4.976620014653480E-2
 6.458079544625000E9    -5.838104114170711E-1   -7.373070462070214E-2   -2.225234909244747E-3    6.172107045121969E-2    8.118466369220460E-4    6.053176581205468E-2   -5.348516168254164E-1    5.147652617871108E-2
 6.458090869250000E9    -5.838287708259896E-1   -7.248028990927048E-2   -1.928602746726566E-3    6.205431180152220E-2    9.714497771894161E-4    6.108926119380378E-2   -5.344780511683145E-1    5.337507745257156E-2
