#  HZ   S   RI   R     50.00 
! Rohde & Schwarz Vector Network Analyzer 
! Rohde-Schwarz,ZNB20-2Port,1311601062101988,3.16
! Created: UTC 3/20/2024, 11:21:12 PM
! freq[Hz]                re:S11                  im:S11                  re:S21                  im:S21                  re:S12                  im:S12                  re:S22                  im:S22
 6.457072482000000E9    -5.687970786729534E-1   -1.648517408501624E-1   -8.722650172949580E-3    3.304645292870634E-2   -6.818847174769035E-3    3.313935283722892E-2   -5.345363300342044E-1   -7.617253772465979E-2
 6.457083814200000E9    -5.690271498745955E-1   -1.637545811866959E-1   -8.575860246051920E-3    3.316470257672842E-2   -6.834927107020219E-3    3.321095553801806E-2   -5.347778534653856E-1   -7.474465677093250E-2
 6.457095146400000E9    -5.692612435345130E-1   -1.628808911459561E-1   -8.496390114505894E-3    3.355440719022691E-2   -6.770391308440751E-3    3.337989715573488E-2   -5.348847935694723E-1   -7.377055983133220E-2
 6.457106478600000E9    -5.695564248507282E-1   -1.619402339030594E-1   -8.430159985713691E-3    3.353679276071300E-2   -6.758197772139932E-3    3.362755989433981E-2   -5.350596018089129E-1   -7.251379863603559E-2
 6.457117810800000E9    -5.697483242679393E-1   -1.610077758970354E-1   -8.419013406307177E-3    3.374569405065819E-2   -6.603000391210173E-3    3.383036695602779E-2   -5.353645457294552E-1   -7.135292360473355E-2
 6.457129143000000E9    -5.700819840502441E-1   -1.601806847837857E-1   -8.433112099910841E-3    3.412832924779045E-2   -6.652413453456843E-3    3.392299072873724E-2   -5.354595743496681E-1   -7.015192678547663E-2
 6.457140475200000E9    -5.702605858371463E-1   -1.592173603584529E-1   -8.463501617348022E-3    3.419058375505796E-2   -6.562331596721852E-3    3.412064156353797E-2   -5.353925952873287E-1   -6.887621181721922E-2
 6.457151807400000E9    -5.704785202647342E-1   -1.581891426420154E-1   -8.365650192295482E-3    3.450414789849693E-2   -6.612404954450665E-3    3.429929499292068E-2   -5.356413291100068E-1   -6.782650524543865E-2
 6.457163139600000E9    -5.707924610122463E-1   -1.572772787737962E-1   -8.400414195491288E-3    3.474790931923689E-2   -6.598307694338503E-3    3.457432185166563E-2   -5.358663529724518E-1   -6.646552853459704E-2
 6.457174471800000E9    -5.709472571997627E-1   -1.563207926601007E-1   -8.376057430235074E-3    3.474693635690935E-2   -6.471028833614323E-3    3.463490910724836E-2   -5.360800426370357E-1   -6.524053569165765E-2
 6.457185804000000E9    -5.712121332169725E-1   -1.552250138346176E-1   -8.350453358393116E-3    3.509001682235116E-2   -6.454213152121997E-3    3.494195398349206E-2   -5.360425138930752E-1   -6.406328915779454E-2
 6.457197136200000E9    -5.714310386251984E-1   -1.543800622657374E-1   -8.410526567571982E-3    3.526273435605326E-2   -6.474217414654213E-3    3.502154726481230E-2   -5.362741595271350E-1   -6.287712548445731E-2
 6.457208468400000E9    -5.716548473588655E-1   -1.534719630280340E-1   -8.313283361543486E-3    3.538408935259128E-2   -6.341587436785306E-3    3.537492191042868E-2   -5.364513072690867E-1   -6.168612681143012E-2
 6.457219800600000E9    -5.718736269008472E-1   -1.524369530410328E-1   -8.168027719157494E-3    3.566823072658511E-2   -6.329251297721547E-3    3.553095280381110E-2   -5.365804778626202E-1   -6.032996987887086E-2
 6.457231132800000E9    -5.721515037443021E-1   -1.515398490017954E-1   -8.182271501609139E-3    3.592728842378645E-2   -6.311514980893848E-3    3.564863109359659E-2   -5.365745814605392E-1   -5.922690190623723E-2
 6.457242465000000E9    -5.724517149924896E-1   -1.505963211423523E-1   -8.188886580916779E-3    3.613457190381763E-2   -6.223369427384562E-3    3.585385106010285E-2   -5.367469814709771E-1   -5.796771597195652E-2
 6.457253797200000E9    -5.726910615925594E-1   -1.494966879106939E-1   -8.114790060988211E-3    3.634808473091528E-2   -6.268825156839967E-3    3.624595894709334E-2   -5.367952218751600E-1   -5.667847353374594E-2
 6.457265129400000E9    -5.728839020474632E-1   -1.485508359420683E-1   -8.153003756781936E-3    3.656011837861910E-2   -6.143399458287103E-3    3.636428304186563E-2   -5.368905975173737E-1   -5.547232959860766E-2
 6.457276461600000E9    -5.730256628884115E-1   -1.475621037104606E-1   -8.039205373160392E-3    3.667897204936291E-2   -6.173015486267351E-3    3.659825347098820E-2   -5.370133731428286E-1   -5.406549417900472E-2
 6.457287793800000E9    -5.732319961368102E-1   -1.466973512222069E-1   -8.178387694603642E-3    3.688914414109466E-2   -6.106385118450303E-3    3.675321634723763E-2   -5.372872220745568E-1   -5.301382089296980E-2
 6.457299126000000E9    -5.735395922503564E-1   -1.457110251368871E-1   -8.106395129999843E-3    3.717142436726686E-2   -6.066229263959585E-3    3.700633109242878E-2   -5.374035226297313E-1   -5.177176111651349E-2
 6.457310458200000E9    -5.737118404765152E-1   -1.448028636841955E-1   -7.898330616545844E-3    3.752154780296976E-2   -6.047927705945374E-3    3.722707871770738E-2   -5.374528412650441E-1   -5.029767024966061E-2
 6.457321790400000E9    -5.740210484176651E-1   -1.437975369964821E-1   -7.820554376241014E-3    3.764332691667584E-2   -5.854231550446749E-3    3.750550737730760E-2   -5.376312874413899E-1   -4.929297749425617E-2
 6.457333122600000E9    -5.741990368470505E-1   -1.427109359609699E-1   -7.925921609143755E-3    3.788138622031055E-2   -5.895372934575690E-3    3.774097378063558E-2   -5.376505720329621E-1   -4.784681918949353E-2
 6.457344454800000E9    -5.743134850215368E-1   -1.418919181903196E-1   -7.724305611317561E-3    3.811121062721361E-2   -5.877392997848615E-3    3.790370535981567E-2   -5.378593755337372E-1   -4.662913226686719E-2
 6.457355787000000E9    -5.745568382719659E-1   -1.409000324770160E-1   -7.782212202406679E-3    3.816197779607534E-2   -5.752046396475331E-3    3.811891662855103E-2   -5.379309930931109E-1   -4.546319509388878E-2
 6.457367119200000E9    -5.747602034562301E-1   -1.399312769877475E-1   -7.929059324627872E-3    3.869159637087840E-2   -5.750219101606184E-3    3.838116740512296E-2   -5.379507132978049E-1   -4.407754308906408E-2
 6.457378451400000E9    -5.749849100987874E-1   -1.388903012374542E-1   -7.701706213418121E-3    3.877524412870539E-2   -5.636770545043802E-3    3.867379848341462E-2   -5.380883937249512E-1   -4.282083928631948E-2
 6.457389783600000E9    -5.752057129867144E-1   -1.379980282451806E-1   -7.768789372719969E-3    3.901979133358031E-2   -5.630247109174541E-3    3.876541552055623E-2   -5.381759021673702E-1   -4.139592223533178E-2
 6.457401115800000E9    -5.754010465519718E-1   -1.369097722839870E-1   -7.694170689319388E-3    3.927190897661899E-2   -5.529145933718001E-3    3.912914423633899E-2   -5.381709484494238E-1   -4.000652299620523E-2
 6.457412448000000E9    -5.756174872178439E-1   -1.358654619435395E-1   -7.644126436034764E-3    3.955715722007275E-2   -5.539978996182761E-3    3.938903659378287E-2   -5.384533701715982E-1   -3.890601293699009E-2
 6.457423780200000E9    -5.757732716719804E-1   -1.349596019689260E-1   -7.557010152638877E-3    3.979520066500047E-2   -5.446075513720042E-3    3.958083797613862E-2   -5.383598715706519E-1   -3.747639725603450E-2
 6.457435112400000E9    -5.760192904803538E-1   -1.340132414041992E-1   -7.667233262573881E-3    4.005227961484091E-2   -5.299375832040740E-3    3.983839185519977E-2   -5.385898724973889E-1   -3.622981777812160E-2
 6.457446444600000E9    -5.761678987334342E-1   -1.329319326164705E-1   -7.368305936434854E-3    4.033330076814839E-2   -5.276917824401576E-3    4.009775824048933E-2   -5.384684578502984E-1   -3.479878814302981E-2
 6.457457776800000E9    -5.764971323602794E-1   -1.319367297065134E-1   -7.437430173136228E-3    4.044916949448939E-2   -5.366622243665322E-3    4.021487594182295E-2   -5.385918496496619E-1   -3.360138049088839E-2
 6.457469109000000E9    -5.765694815764000E-1   -1.309405265044181E-1   -7.364143489094421E-3    4.101884981724291E-2   -5.177436137025706E-3    4.063264544093789E-2   -5.387061887489482E-1   -3.225581529173169E-2
 6.457480441200000E9    -5.768223254815386E-1   -1.299775827730332E-1   -7.245621024792159E-3    4.104619970663530E-2   -5.142697639709619E-3    4.083175160447342E-2   -5.386904577954820E-1   -3.076680276374966E-2
 6.457491773400000E9    -5.769681984831839E-1   -1.290413749268619E-1   -7.329404175268704E-3    4.135452452897228E-2   -5.050325864711858E-3    4.114905549307443E-2   -5.387929868730780E-1   -2.958756498216235E-2
 6.457503105600000E9    -5.772334858374315E-1   -1.280117700613960E-1   -7.133778600635884E-3    4.167445953857645E-2   -4.924790559155831E-3    4.141429821400633E-2   -5.388591467811861E-1   -2.812465091087230E-2
 6.457514437800000E9    -5.773713014766576E-1   -1.270242139574598E-1   -7.067916236594514E-3    4.191232129390635E-2   -5.042591748051446E-3    4.164311601415168E-2   -5.389382914022633E-1   -2.690092107921441E-2
 6.457525770000000E9    -5.775924283347061E-1   -1.259110079118896E-1   -7.103949295817242E-3    4.226498965137214E-2   -4.781014574620391E-3    4.191771305827470E-2   -5.389123946169766E-1   -2.552340224149452E-2
 6.457537102200000E9    -5.777100881952200E-1   -1.250513608327828E-1   -7.138272835969597E-3    4.244309635568062E-2   -4.836283740992960E-3    4.218687978544104E-2   -5.389354349106109E-1   -2.406669458568495E-2
 6.457548434400000E9    -5.779076668932536E-1   -1.239653042763114E-1   -7.004425217323474E-3    4.273668136296169E-2   -4.743484113233296E-3    4.240517766787807E-2   -5.389015347210199E-1   -2.279399309951134E-2
 6.457559766600000E9    -5.781160371287732E-1   -1.229460122368018E-1   -6.878540764742224E-3    4.304139613551958E-2   -4.697678177516561E-3    4.278773388127239E-2   -5.389719702805137E-1   -2.146212051243996E-2
 6.457571098800000E9    -5.783039496172930E-1   -1.219724235068831E-1   -6.918517476742029E-3    4.338121896874497E-2   -4.545873385607851E-3    4.308503873206026E-2   -5.391151082163288E-1   -2.010697096358732E-2
 6.457582431000000E9    -5.784715514924470E-1   -1.208733472648141E-1   -6.764079399886395E-3    4.371341722650839E-2   -4.560447959677472E-3    4.327042926812183E-2   -5.391690900649019E-1   -1.854033603826151E-2
 6.457593763200000E9    -5.787199795733216E-1   -1.200734443887779E-1   -6.730977995029357E-3    4.408315230462580E-2   -4.422662968975101E-3    4.357351060205087E-2   -5.391785627259603E-1   -1.714327049477791E-2
 6.457605095400000E9    -5.788234587590259E-1   -1.190096769362148E-1   -6.737131291480822E-3    4.444111675637575E-2   -4.373883041205669E-3    4.391695843260032E-2   -5.391768510544337E-1   -1.575726470549210E-2
 6.457616427600000E9    -5.789528451401464E-1   -1.179339557485461E-1   -6.719573586959132E-3    4.450755636923636E-2   -4.253729834219779E-3    4.423145861932772E-2   -5.392065176666128E-1   -1.438505542685800E-2
 6.457627759800000E9    -5.790679002291503E-1   -1.169105756817075E-1   -6.492787355347404E-3    4.488548898539410E-2   -4.320076729690430E-3    4.449903559870800E-2   -5.391425300155508E-1   -1.293691877141023E-2
 6.457639092000000E9    -5.794167337189348E-1   -1.158119944100239E-1   -6.374076348788347E-3    4.526471676579250E-2   -4.098614273573832E-3    4.475972688784045E-2   -5.391936812196965E-1   -1.164211823765533E-2
 6.457650424200000E9    -5.794598639296140E-1   -1.148596322862021E-1   -6.388761912035907E-3    4.553636840158593E-2   -4.007424669056437E-3    4.515456740060929E-2   -5.392122804727163E-1   -1.014328782704038E-2
 6.457661756400000E9    -5.796384964918166E-1   -1.138420718253744E-1   -6.359522460262119E-3    4.587603675016200E-2   -4.009065156584553E-3    4.536819015044383E-2   -5.391925744138519E-1   -8.645326310237188E-3
 6.457673088600000E9    -5.798004565229343E-1   -1.126828621947517E-1   -6.146799024288505E-3    4.616281307902734E-2   -3.904796430418361E-3    4.573593810493534E-2   -5.392248748441759E-1   -7.171806123704379E-3
 6.457684420800000E9    -5.799523705968154E-1   -1.117276469675625E-1   -6.196162129108594E-3    4.654845122744509E-2   -3.767895226351706E-3    4.609780075171721E-2   -5.390920342067989E-1   -5.613551486351339E-3
 6.457695753000000E9    -5.801072043571204E-1   -1.107235765131646E-1   -6.082047400133065E-3    4.681724420872747E-2   -3.761353258879862E-3    4.645114555084882E-2   -5.390899291668176E-1   -4.239222485272452E-3
 6.457707085200000E9    -5.802094675513682E-1   -1.095947870718430E-1   -6.049622507904530E-3    4.722303225349744E-2   -3.697899512428845E-3    4.671704742855532E-2   -5.392586564955603E-1   -2.846474862488508E-3
 6.457718417400000E9    -5.804079340289433E-1   -1.086009052391470E-1   -6.029727557244824E-3    4.746807285983000E-2   -3.438207223248478E-3    4.706037707194267E-2   -5.389534253498892E-1   -1.192823607879047E-3
 6.457729749600000E9    -5.806215839585646E-1   -1.075522026356411E-1   -5.897997244251841E-3    4.797166601287529E-2   -3.464375246993500E-3    4.741292322584831E-2   -5.390755219097896E-1    1.424884510377932E-4
 6.457741081800000E9    -5.807047129155103E-1   -1.064586116357694E-1   -5.759309352028397E-3    4.823238755253685E-2   -3.378784170435716E-3    4.764414250978386E-2   -5.389762702318837E-1    1.681927375810667E-3
 6.457752414000000E9    -5.808601617466264E-1   -1.055356024211291E-1   -5.732295325331275E-3    4.860254911485741E-2   -3.277970252828844E-3    4.803540467914438E-2   -5.389378135946336E-1    3.173526309666043E-3
 6.457763746200000E9    -5.809401080595699E-1   -1.043696400743899E-1   -5.654267954075001E-3    4.897693808451710E-2   -3.138591969692035E-3    4.851156133248663E-2   -5.388943561496704E-1    4.666258653890159E-3
 6.457775078400000E9    -5.811814434904186E-1   -1.034144371001181E-1   -5.511382696265529E-3    4.932256736992374E-2   -3.068012501455095E-3    4.881289110399275E-2   -5.387535677909984E-1    6.175356995198202E-3
 6.457786410600000E9    -5.812775928461449E-1   -1.022560054873960E-1   -5.478311254062098E-3    4.974497603595217E-2   -3.029293114178440E-3    4.909694991672858E-2   -5.388382776855151E-1    7.892804629498054E-3
 6.457797742800000E9    -5.813973731145640E-1   -1.010998700879032E-1   -5.302814784156239E-3    5.026433669614629E-2   -2.803699207377793E-3    4.947588734658712E-2   -5.386299829917710E-1    9.318530571903351E-3
 6.457809075000000E9    -5.815356502971983E-1   -1.001573782422204E-1   -5.245242621802351E-3    5.058436668472163E-2   -2.769020532814251E-3    4.991055478195260E-2   -5.387619596230100E-1    1.091171434290179E-2
 6.457820407200000E9    -5.816909888484806E-1   -9.906306550214282E-2   -5.139206208359272E-3    5.091710713108197E-2   -2.642170820490917E-3    5.024820062044861E-2   -5.385592482103824E-1    1.244741154404665E-2
 6.457831739400000E9    -5.817423034022917E-1   -9.803348659380993E-2   -5.111822901242362E-3    5.123006654251606E-2   -2.490994135510941E-3    5.065726405208471E-2   -5.385575990804354E-1    1.401900697012132E-2
 6.457843071600000E9    -5.820047676609078E-1   -9.694667914857000E-2   -4.986915705814811E-3    5.165258555516469E-2   -2.450536064389454E-3    5.087775058341062E-2   -5.384090311069296E-1    1.550571467148355E-2
 6.457854403800000E9    -5.820388320869879E-1   -9.586657232621709E-2   -4.874671545087222E-3    5.220469055275438E-2   -2.229604838833929E-3    5.139767622046044E-2   -5.382788300561925E-1    1.706385695327351E-2
 6.457865736000000E9    -5.821221468715213E-1   -9.478401514050003E-2   -4.664309541005158E-3    5.249860923829721E-2   -2.171417344763717E-3    5.182385472599324E-2   -5.383090109270798E-1    1.860705796937651E-2
 6.457877068200000E9    -5.822677646625241E-1   -9.368848910435831E-2   -4.662267126760838E-3    5.284543906709866E-2   -1.987691030426445E-3    5.210183726409520E-2   -5.381550643863746E-1    2.034804376433349E-2
 6.457888400400000E9    -5.823284084623482E-1   -9.260820116223362E-2   -4.530512320189591E-3    5.325934170069838E-2   -1.899510975672327E-3    5.256460357490757E-2   -5.379914047993610E-1    2.197030691467336E-2
 6.457899732600000E9    -5.823721297866012E-1   -9.146075571595336E-2   -4.422734336590770E-3    5.390893581958237E-2   -1.735529204840191E-3    5.305712200718114E-2   -5.378566280943109E-1    2.369199652258762E-2
 6.457911064800000E9    -5.826334218454191E-1   -9.049104608650975E-2   -4.220905673172518E-3    5.426911219205330E-2   -1.556318683824400E-3    5.340957296856144E-2   -5.378262162986618E-1    2.530965575307529E-2
 6.457922397000000E9    -5.826668144844923E-1   -8.930433631906758E-2   -4.216710495712286E-3    5.465886877286645E-2   -1.420774352064127E-3    5.380288459788437E-2   -5.376334043863326E-1    2.683387017778864E-2
 6.457933729200000E9    -5.828168967439271E-1   -8.825462560924560E-2   -4.143392753836130E-3    5.501061065848630E-2   -1.379581957453788E-3    5.433315402524699E-2   -5.374737376719150E-1    2.858342034901141E-2
 6.457945061400000E9    -5.828473014990819E-1   -8.719789755868512E-2   -3.969490951778353E-3    5.557099113025357E-2   -1.197454005676570E-3    5.474672099180306E-2   -5.374103603964370E-1    3.028716785826656E-2
 6.457956393600000E9    -5.829657269504287E-1   -8.601714934979254E-2   -3.820731368007051E-3    5.602194343094955E-2   -1.103361057445909E-3    5.514425654261106E-2   -5.371212835818374E-1    3.200552083294001E-2
 6.457967725800000E9    -5.830783995284294E-1   -8.494851023477462E-2   -3.736873971609128E-3    5.644580487818839E-2   -9.166029893855691E-4    5.559015882802629E-2   -5.370930519829780E-1    3.381057993572815E-2
 6.457979058000000E9    -5.831176587667216E-1   -8.382987234715246E-2   -3.635039727469304E-3    5.695939032816522E-2   -7.278988540305818E-4    5.605340018853922E-2   -5.368743764074020E-1    3.549253394139154E-2
 6.457990390200000E9    -5.833419816161918E-1   -8.270939596110552E-2   -3.410001177330985E-3    5.740687696941582E-2   -5.904119620338143E-4    5.652481945163089E-2   -5.367210588557023E-1    3.722001827093049E-2
 6.458001722400000E9    -5.833010765646255E-1   -8.152908621352369E-2   -3.288720886877685E-3    5.792790628758118E-2   -3.527196863195093E-4    5.699737732321601E-2   -5.363977611890136E-1    3.892180816423321E-2
 6.458013054600000E9    -5.833623816214573E-1   -8.048498727466374E-2   -3.232055727503687E-3    5.853073420921043E-2   -2.497711563539201E-4    5.742010812801520E-2   -5.362644410272618E-1    4.055572415200510E-2
 6.458024386800000E9    -5.835230281437950E-1   -7.935094327456212E-2   -2.934928643728824E-3    5.902180400995149E-2   -2.166146959424187E-5    5.794014791769213E-2   -5.359679057730388E-1    4.249322982650442E-2
 6.458035719000000E9    -5.836477667354680E-1   -7.812088858878939E-2   -2.848496416723989E-3    5.944679295909639E-2    1.070614485631954E-4    5.849035627940326E-2   -5.357182179670941E-1    4.407239261856637E-2
 6.458047051200000E9    -5.836346806819714E-1   -7.708253218850931E-2   -2.604472835746157E-3    5.993001719325831E-2    2.561242277446880E-4    5.891026049889243E-2   -5.355532672952499E-1    4.601382552459434E-2
 6.458058383400000E9    -5.837387463426122E-1   -7.576348651030132E-2   -2.450605350605164E-3    6.059561948416726E-2    5.201441568423536E-4    5.953135488194827E-2   -5.353279831930740E-1    4.783589074468741E-2
 6.458069715600000E9    -5.838268760908600E-1   -7.477685135896932E-2   -2.213664034865991E-3    6.107074770770959E-2    7.023968470037935E-4    6.006019714603097E-2   -5.350772191630149E-1    4.983546059705762E-2
 6.458081047800000E9    -5.837557735053827E-1   -7.355614663227855E-2   -2.028338226318867E-3    6.148074948536536E-2    8.651169025315784E-4    6.047681984811962E-2   -5.348206951438417E-1    5.153561689635457E-2
 6.458092380000000E9    -5.839564440834739E-1   -7.235336339509849E-2   -1.904625862746667E-3    6.204616929607864E-2    1.077577602873583E-3    6.100145672949280E-2   -5.345879244613937E-1    5.341220086064651E-2
