#  HZ   S   RI   R     50.00 
! Rohde & Schwarz Vector Network Analyzer 
! Rohde-Schwarz,ZNB20-2Port,1311601062101988,3.16
! Created: UTC 3/20/2024, 11:21:14 PM
! freq[Hz]                re:S11                  im:S11                  re:S21                  im:S21                  re:S12                  im:S12                  re:S22                  im:S22
 6.457070921000000E9    -5.686627808275906E-1   -1.650246838284086E-1   -8.592610890925612E-3    3.296919120728158E-2   -6.776031352525299E-3    3.307485534160277E-2   -5.346029759015438E-1   -7.622074399594991E-2
 6.457082265000000E9    -5.690011395630018E-1   -1.640339268235008E-1   -8.719499262096180E-3    3.323180752854809E-2   -6.834485236391351E-3    3.310996790999294E-2   -5.347733621158499E-1   -7.509730727073655E-2
 6.457093609000000E9    -5.692851938609979E-1   -1.630486626272001E-1   -8.612704341701513E-3    3.333777016734218E-2   -6.786507935130240E-3    3.331446136104504E-2   -5.349858357779781E-1   -7.385951746175955E-2
 6.457104953000000E9    -5.694684244334759E-1   -1.621012647184495E-1   -8.532141759191104E-3    3.356134759872301E-2   -6.679735896107008E-3    3.348240722731809E-2   -5.349586895995877E-1   -7.263481989371234E-2
 6.457116297000000E9    -5.697533586873738E-1   -1.611097273399418E-1   -8.529184425591819E-3    3.374964430806789E-2   -6.680796664181489E-3    3.366540072158932E-2   -5.351348895869749E-1   -7.139736315665184E-2
 6.457127641000000E9    -5.699076318427623E-1   -1.602507866873742E-1   -8.489496170909380E-3    3.404063059827851E-2   -6.641060412729809E-3    3.395547092686543E-2   -5.352318695007386E-1   -7.014656002200129E-2
 6.457138985000000E9    -5.702269560417871E-1   -1.592380216561019E-1   -8.549504027198529E-3    3.414946956724463E-2   -6.625135982178169E-3    3.408434222827508E-2   -5.353750732625867E-1   -6.917109538166676E-2
 6.457150329000000E9    -5.704157086198004E-1   -1.583498699575913E-1   -8.504630135833366E-3    3.429443495331894E-2   -6.572803147772526E-3    3.430648005775225E-2   -5.356354768287636E-1   -6.788619974902455E-2
 6.457161673000000E9    -5.707257326481593E-1   -1.574304126181176E-1   -8.505597693000197E-3    3.454926010248707E-2   -6.606400589031407E-3    3.451744108207693E-2   -5.357266435621882E-1   -6.654232702148219E-2
 6.457173017000000E9    -5.710004477149808E-1   -1.564367161288697E-1   -8.288360593164013E-3    3.481935908816002E-2   -6.541671932555465E-3    3.466101365004205E-2   -5.358131409552931E-1   -6.559858780857476E-2
 6.457184361000000E9    -5.711703523996304E-1   -1.554716324869109E-1   -8.424187555270456E-3    3.491591292041743E-2   -6.468682039554911E-3    3.482280905500589E-2   -5.360580592462324E-1   -6.424153468865219E-2
 6.457195705000000E9    -5.715680305974882E-1   -1.544775561060311E-1   -8.276535808697553E-3    3.524770559833846E-2   -6.381004274188907E-3    3.508668268146488E-2   -5.360456521446046E-1   -6.297127567158980E-2
 6.457207049000000E9    -5.717069062289688E-1   -1.535703105521807E-1   -8.400585067526663E-3    3.545962885633319E-2   -6.395261731824828E-3    3.531264189805072E-2   -5.362763400863750E-1   -6.178536406055057E-2
 6.457218393000000E9    -5.719516989013651E-1   -1.526094696371803E-1   -8.237855098216645E-3    3.559732053520678E-2   -6.323890221465494E-3    3.548512162143776E-2   -5.363988287463151E-1   -6.057695118927540E-2
 6.457229737000000E9    -5.721516556741337E-1   -1.516911877444484E-1   -8.225717339581618E-3    3.571813339936391E-2   -6.214519483066248E-3    3.567276165831848E-2   -5.365764793586041E-1   -5.948176410507885E-2
 6.457241081000000E9    -5.724446197223617E-1   -1.507556449286339E-1   -8.044414428514739E-3    3.614241295558904E-2   -6.223489511975111E-3    3.583984418892223E-2   -5.367569246510511E-1   -5.806768199299441E-2
 6.457252425000000E9    -5.725656658065521E-1   -1.497804459065883E-1   -8.225531871776414E-3    3.634272438924879E-2   -6.239985290453391E-3    3.613307879984894E-2   -5.367840578026136E-1   -5.699248606718720E-2
 6.457263769000000E9    -5.727991799249726E-1   -1.487071338717296E-1   -8.151565426840153E-3    3.648642831473991E-2   -6.109802381211604E-3    3.628977185136930E-2   -5.370245326220960E-1   -5.562987078434385E-2
 6.457275113000000E9    -5.730471625171843E-1   -1.478070239403631E-1   -8.020629702260969E-3    3.677886906225997E-2   -6.074606848311227E-3    3.657684223613052E-2   -5.370124183738147E-1   -5.440119034298753E-2
 6.457286457000000E9    -5.731754009386456E-1   -1.468397091348008E-1   -8.015419109045888E-3    3.689398061033343E-2   -6.031757731210167E-3    3.673648634536736E-2   -5.372013882103660E-1   -5.313615930818095E-2
 6.457297801000000E9    -5.734446870655336E-1   -1.457762189077323E-1   -8.132344313264546E-3    3.719472278070097E-2   -6.032360926785341E-3    3.701728422994978E-2   -5.373241700579571E-1   -5.188284998097559E-2
 6.457309145000000E9    -5.738098243984788E-1   -1.447934498453511E-1   -8.121222327147874E-3    3.735824187595591E-2   -5.963001748914770E-3    3.710575675774488E-2   -5.374186016591537E-1   -5.054793159803918E-2
 6.457320489000000E9    -5.739015494727843E-1   -1.439038943138978E-1   -7.993639383957340E-3    3.757068236978330E-2   -5.888013061688426E-3    3.741476374248611E-2   -5.375126455998678E-1   -4.942277283044982E-2
 6.457331833000000E9    -5.741600235281668E-1   -1.429038153090569E-1   -7.848215626296427E-3    3.792351492968342E-2   -5.844814723269994E-3    3.761521671315553E-2   -5.377328671847664E-1   -4.811963457315867E-2
 6.457343177000000E9    -5.743474010784526E-1   -1.419849382453132E-1   -7.995208299030023E-3    3.803229780069765E-2   -5.925290604646035E-3    3.793352431725489E-2   -5.378118900658868E-1   -4.673241862638238E-2
 6.457354521000000E9    -5.745069757690761E-1   -1.410024415954768E-1   -7.694124106155464E-3    3.810224713034808E-2   -5.742731456270627E-3    3.800156440290545E-2   -5.377982230625310E-1   -4.561695730529144E-2
 6.457365865000000E9    -5.747531124423635E-1   -1.399354545540861E-1   -7.774409774533459E-3    3.843967038007031E-2   -5.745752801678431E-3    3.837499674027516E-2   -5.378513574891255E-1   -4.424988153924656E-2
 6.457377209000000E9    -5.750148082406915E-1   -1.390152086578524E-1   -7.607565536644930E-3    3.870617448508494E-2   -5.682323528397294E-3    3.860530039777982E-2   -5.381091482674389E-1   -4.297565647428523E-2
 6.457388553000000E9    -5.751466562819652E-1   -1.380444476944032E-1   -7.671931109683184E-3    3.908087413932497E-2   -5.563615580763921E-3    3.877695204380009E-2   -5.381389057681668E-1   -4.155700910992898E-2
 6.457399897000000E9    -5.755383014842895E-1   -1.370323751008504E-1   -7.613537902085209E-3    3.932530871655859E-2   -5.615548255581032E-3    3.902809883238303E-2   -5.382086273082997E-1   -4.036632790966649E-2
 6.457411241000000E9    -5.755453962144542E-1   -1.360809970588493E-1   -7.634344414437019E-3    3.944342648176022E-2   -5.486375472890340E-3    3.919435126235223E-2   -5.382256837185067E-1   -3.900359317720690E-2
 6.457422585000000E9    -5.758862175945352E-1   -1.350581074410076E-1   -7.468486335286569E-3    3.977803735678654E-2   -5.466204197055441E-3    3.945353709893341E-2   -5.382182230358625E-1   -3.783263924528380E-2
 6.457433929000000E9    -5.760365004379271E-1   -1.340350775065771E-1   -7.503196351833988E-3    3.993353894362767E-2   -5.376118494635656E-3    3.980287320955127E-2   -5.385159012697541E-1   -3.632217698679088E-2
 6.457445273000000E9    -5.762862107002211E-1   -1.330430389068722E-1   -7.567905930661483E-3    4.013685109970964E-2   -5.294713425749317E-3    4.003572076768238E-2   -5.383944810830796E-1   -3.503790189685721E-2
 6.457456617000000E9    -5.763271737184809E-1   -1.321122012250687E-1   -7.365988632543884E-3    4.045084915595819E-2   -5.313824840180600E-3    4.028775579884453E-2   -5.385862834234936E-1   -3.375876372707300E-2
 6.457467961000000E9    -5.765895289047674E-1   -1.310860741629020E-1   -7.333440196021954E-3    4.084449169760678E-2   -5.296870730546496E-3    4.052227564164070E-2   -5.387133976211659E-1   -3.235655222566993E-2
 6.457479305000000E9    -5.767698419283334E-1   -1.301427185848952E-1   -7.401412688470244E-3    4.107134035164715E-2   -5.101628050456129E-3    4.070420543076669E-2   -5.385702087198589E-1   -3.118366933512224E-2
 6.457490649000000E9    -5.769843308392844E-1   -1.290982485189771E-1   -7.345073828595351E-3    4.134655729259019E-2   -5.011275762137671E-3    4.104280123697382E-2   -5.388095318117601E-1   -2.967315971391090E-2
 6.457501993000000E9    -5.771768860715624E-1   -1.281448251635547E-1   -7.240526973584142E-3    4.156193714130626E-2   -5.065510626637214E-3    4.126226984908682E-2   -5.387913869436248E-1   -2.835062917962361E-2
 6.457513337000000E9    -5.773707985637742E-1   -1.271109704409096E-1   -7.087774075067053E-3    4.195795258702078E-2   -4.995144884261907E-3    4.154383906451319E-2   -5.388569165308988E-1   -2.706745907791913E-2
 6.457524681000000E9    -5.775722780924778E-1   -1.261016668937477E-1   -7.106498453403496E-3    4.227974725521025E-2   -4.782102530128605E-3    4.197530191812179E-2   -5.387983304662669E-1   -2.559014292328590E-2
 6.457536025000000E9    -5.777160567798320E-1   -1.251348050627280E-1   -7.111109802787765E-3    4.244727000451052E-2   -4.812891467835343E-3    4.205245779184483E-2   -5.389665511253520E-1   -2.422382319391036E-2
 6.457547369000000E9    -5.779289686085910E-1   -1.241122544438335E-1   -7.042142729215321E-3    4.274200406128049E-2   -4.770990281665869E-3    4.238613458963308E-2   -5.391072574048605E-1   -2.306353359299064E-2
 6.457558713000000E9    -5.780470462954918E-1   -1.229552129116995E-1   -6.923054805352621E-3    4.298998509184991E-2   -4.711727678648151E-3    4.268779864779093E-2   -5.390087478703736E-1   -2.159299337273869E-2
 6.457570057000000E9    -5.783380756055663E-1   -1.220891219859933E-1   -6.743547558106720E-3    4.337752069020673E-2   -4.728671524423848E-3    4.302318050047410E-2   -5.389884622743034E-1   -2.021419591929736E-2
 6.457581401000000E9    -5.784679590882142E-1   -1.209499017353759E-1   -6.715001152573868E-3    4.354941628398082E-2   -4.518353408338871E-3    4.322711006589815E-2   -5.391295294346330E-1   -1.867261019509020E-2
 6.457592745000000E9    -5.786892883982487E-1   -1.199936525722683E-1   -6.685691381956844E-3    4.391497129094336E-2   -4.522326400940102E-3    4.350913104880252E-2   -5.392018707049778E-1   -1.741234518721041E-2
 6.457604089000000E9    -5.788283797150956E-1   -1.189589263899252E-1   -6.737576044728550E-3    4.437706438796345E-2   -4.328077258357547E-3    4.383061158436437E-2   -5.391780755637778E-1   -1.605966826251505E-2
 6.457615433000000E9    -5.789465113675000E-1   -1.179184316652423E-1   -6.740435703742905E-3    4.463921602970318E-2   -4.268625869660374E-3    4.422072524407620E-2   -5.391231387601564E-1   -1.455666542514775E-2
 6.457626777000000E9    -5.791003208122221E-1   -1.169040440389229E-1   -6.620970880810703E-3    4.483327309371789E-2   -4.187370836918913E-3    4.442490445849324E-2   -5.391827565718239E-1   -1.320140089781985E-2
 6.457638121000000E9    -5.792109449731383E-1   -1.158928335936237E-1   -6.419861538464978E-3    4.512021496531318E-2   -4.112807756520734E-3    4.478563778806773E-2   -5.391593174471511E-1   -1.182360099243165E-2
 6.457649465000000E9    -5.794741166746253E-1   -1.149241269559427E-1   -6.529083893401469E-3    4.546602322196933E-2   -4.111819369975685E-3    4.500391149263891E-2   -5.390968610387364E-1   -1.019513765301138E-2
 6.457660809000000E9    -5.796458396541221E-1   -1.137966366496058E-1   -6.416442445731868E-3    4.571816723194031E-2   -3.953080604958230E-3    4.532937845711434E-2   -5.390798467208202E-1   -8.882018673885517E-3
 6.457672153000000E9    -5.797844263973276E-1   -1.128905810345880E-1   -6.299050483041853E-3    4.601163188405842E-2   -3.848061409179232E-3    4.567417032706586E-2   -5.391863278291884E-1   -7.413868341743618E-3
 6.457683497000000E9    -5.798768233344449E-1   -1.118049805448165E-1   -6.236038263546504E-3    4.654077847437503E-2   -3.791493219155788E-3    4.603552056894194E-2   -5.392001812163117E-1   -5.919695235860291E-3
 6.457694841000000E9    -5.801728069946792E-1   -1.107942590412026E-1   -6.224980010454591E-3    4.678656807300930E-2   -3.808523965427872E-3    4.632905918371311E-2   -5.391437188028075E-1   -4.480591943628038E-3
 6.457706185000000E9    -5.801867872384072E-1   -1.096861913729735E-1   -5.956463570938806E-3    4.720962781403029E-2   -3.627616460926909E-3    4.657025868771879E-2   -5.390195834387044E-1   -3.021999030893036E-3
 6.457717529000000E9    -5.804850908295320E-1   -1.086673622885044E-1   -6.017181951898683E-3    4.753718360531989E-2   -3.501587760755935E-3    4.698457161970781E-2   -5.390969854662493E-1   -1.507525271629800E-3
 6.457728873000000E9    -5.804918565259267E-1   -1.076593297213409E-1   -5.922834154492619E-3    4.786798546688948E-2   -3.430502257585246E-3    4.739290613333406E-2   -5.390830316997688E-1    2.689507757726415E-5
 6.457740217000000E9    -5.806982922855596E-1   -1.065498758058967E-1   -5.773528011124639E-3    4.818148859787455E-2   -3.258668697758940E-3    4.767472567345904E-2   -5.388565995021503E-1    1.511185581895026E-3
 6.457751561000000E9    -5.808411563680238E-1   -1.055047463945393E-1   -5.892332386056950E-3    4.845461544067584E-2   -3.204966520974917E-3    4.801728251565480E-2   -5.389682192175204E-1    3.020711499598458E-3
 6.457762905000000E9    -5.810173052427278E-1   -1.044494997934955E-1   -5.631906262531790E-3    4.888244479575510E-2   -3.231473830834075E-3    4.829593996548402E-2   -5.389457190552484E-1    4.443793952290993E-3
 6.457774249000000E9    -5.811321794742687E-1   -1.034282890021501E-1   -5.588666148390431E-3    4.929555736399797E-2   -3.042773329576904E-3    4.871585545655551E-2   -5.388512713578543E-1    6.084053669739014E-3
 6.457785593000000E9    -5.812886098874052E-1   -1.023501570391838E-1   -5.391268197318645E-3    4.964591097265424E-2   -2.919297006782292E-3    4.900272391146451E-2   -5.386699651507636E-1    7.594711227165447E-3
 6.457796937000000E9    -5.814264848622994E-1   -1.013066117611371E-1   -5.399583526530132E-3    4.993509558704907E-2   -2.804671835086786E-3    4.942414111551666E-2   -5.387843615626642E-1    9.068897679423277E-3
 6.457808281000000E9    -5.815341736200332E-1   -1.001784473625412E-1   -5.299019133670609E-3    5.048040039216602E-2   -2.767554259760050E-3    4.983537672695677E-2   -5.386490413415351E-1    1.058124332870365E-2
 6.457819625000000E9    -5.816989396000836E-1   -9.919045694396088E-2   -5.248268189757016E-3    5.094842600209885E-2   -2.690770551078094E-3    5.018227908471571E-2   -5.386434773796154E-1    1.217456299458647E-2
 6.457830969000000E9    -5.817498887425409E-1   -9.803284768560395E-2   -5.033400502690854E-3    5.123507746576633E-2   -2.442277582597139E-3    5.054708321064903E-2   -5.384593973702002E-1    1.387446325538369E-2
 6.457842313000000E9    -5.818972601676587E-1   -9.695321251533472E-2   -4.941029876643772E-3    5.156579531856349E-2   -2.388648710279294E-3    5.092576001194973E-2   -5.384154023660962E-1    1.553321297265969E-2
 6.457853657000000E9    -5.821502828784000E-1   -9.594393308439413E-2   -4.896824211988554E-3    5.195468693806952E-2   -2.300141470161766E-3    5.127667302119424E-2   -5.381157339555588E-1    1.701381255034225E-2
 6.457865001000000E9    -5.821157378799423E-1   -9.492121794553705E-2   -4.751616712338321E-3    5.245147989570562E-2   -2.247783691829300E-3    5.169938290462587E-2   -5.383422533648783E-1    1.862236370973329E-2
 6.457876345000000E9    -5.822108199145418E-1   -9.384587845890706E-2   -4.630987742705510E-3    5.289653411454219E-2   -2.020822764119301E-3    5.218046437324075E-2   -5.381358425482426E-1    2.031459757452413E-2
 6.457887689000000E9    -5.823321779317739E-1   -9.269468736384585E-2   -4.550824522742056E-3    5.328403241109729E-2   -1.823291567795743E-3    5.247490553149840E-2   -5.379922905594318E-1    2.178194747223679E-2
 6.457899033000000E9    -5.825056527864239E-1   -9.165853808541363E-2   -4.442487891677348E-3    5.375233674388298E-2   -1.745112660525935E-3    5.295189553388726E-2   -5.379697576922637E-1    2.350844056784528E-2
 6.457910377000000E9    -5.825952036130273E-1   -9.060591532036995E-2   -4.226682340983904E-3    5.412433021885474E-2   -1.657278867470075E-3    5.330385855143482E-2   -5.377498341895196E-1    2.515351521362386E-2
 6.457921721000000E9    -5.827956948154536E-1   -8.943125477566784E-2   -4.311378078361217E-3    5.457897113573611E-2   -1.509187902810609E-3    5.380578575453632E-2   -5.374940473004904E-1    2.683098908518075E-2
 6.457933065000000E9    -5.828190315029720E-1   -8.820626361562299E-2   -4.126071636950693E-3    5.510626268934582E-2   -1.389940480860583E-3    5.422444413074842E-2   -5.375095042398116E-1    2.851517557222466E-2
 6.457944409000000E9    -5.828567047135808E-1   -8.727932329958406E-2   -3.918252439708364E-3    5.563414972431111E-2   -1.195332432068031E-3    5.468487556500380E-2   -5.372721563544068E-1    3.028671280606463E-2
 6.457955753000000E9    -5.830420046942156E-1   -8.610855082248972E-2   -3.848374193781429E-3    5.610719171471026E-2   -1.145747362076554E-3    5.512112276762483E-2   -5.371761150179731E-1    3.192977815788976E-2
 6.457967097000000E9    -5.830956308700790E-1   -8.491112657325040E-2   -3.605808185101348E-3    5.648606597241258E-2   -7.933795437629097E-4    5.549610622172213E-2   -5.369487047255952E-1    3.352050389139871E-2
 6.457978441000000E9    -5.831920352612062E-1   -8.389634720775960E-2   -3.687451648911908E-3    5.682993996417763E-2   -6.276528320833753E-4    5.609499911715109E-2   -5.367478550053217E-1    3.525585295334296E-2
 6.457989785000000E9    -5.833189668197375E-1   -8.282316394642643E-2   -3.346366432504469E-3    5.735966455184324E-2   -5.886394802910209E-4    5.644315912590097E-2   -5.366950524521902E-1    3.704323516409617E-2
 6.458001129000000E9    -5.835352789757847E-1   -8.162651195594407E-2   -3.219473418669858E-3    5.772030014918939E-2   -3.780418740153077E-4    5.685193608101801E-2   -5.364397571609483E-1    3.863177399879155E-2
 6.458012473000000E9    -5.834089714534475E-1   -8.063966502432726E-2   -3.209743881641725E-3    5.843154472929665E-2   -3.182767725720689E-4    5.742006039031680E-2   -5.362004579749624E-1    4.047569681650483E-2
 6.458023817000000E9    -5.835400413268826E-1   -7.936721154275217E-2   -3.059248810892548E-3    5.898311657392270E-2   -6.941066000250485E-5    5.787414419479640E-2   -5.360176478423220E-1    4.221783486436371E-2
 6.458035161000000E9    -5.835540533700521E-1   -7.827366743012806E-2   -2.810381455305788E-3    5.935469630699740E-2    1.485100520755918E-4    5.846663149819711E-2   -5.358304196702600E-1    4.404717633436112E-2
 6.458046505000000E9    -5.836034288074055E-1   -7.708705218013638E-2   -2.610100387698958E-3    5.987479117142882E-2    2.721208475311982E-4    5.893503039088328E-2   -5.355603896157167E-1    4.576420288361764E-2
 6.458057849000000E9    -5.837149153269764E-1   -7.597095811428609E-2   -2.424929936070367E-3    6.048006845428514E-2    4.608401712326888E-4    5.940845134356639E-2   -5.353268799295819E-1    4.774867668954499E-2
 6.458069193000000E9    -5.837860309613717E-1   -7.477077663441221E-2   -2.267893062796740E-3    6.094802276656079E-2    6.208814379701996E-4    5.990860980010645E-2   -5.351137523102766E-1    4.957524176832288E-2
 6.458080537000000E9    -5.838000959846126E-1   -7.362006685744490E-2   -2.129471979117320E-3    6.150328078976857E-2    8.454724137627054E-4    6.034733263108860E-2   -5.347846672690852E-1    5.133948150858143E-2
 6.458091881000000E9    -5.838385953610246E-1   -7.254339083605563E-2   -1.976663768122620E-3    6.209333305687487E-2    1.002454180366171E-3    6.082582514556563E-2   -5.344690990218512E-1    5.326149163912405E-2
