#  HZ   S   RI   R     50.00 
! Rohde & Schwarz Vector Network Analyzer 
! Rohde-Schwarz,ZNB20-2Port,1311601062101988,3.16
! Created: UTC 3/20/2024, 11:21:59 PM
! freq[Hz]                re:S11                  im:S11                  re:S21                  im:S21                  re:S12                  im:S12                  re:S22                  im:S22
 6.457082757000000E9    -5.689830146831980E-1   -1.640590430104388E-1   -8.425241794140588E-3    3.297703757511034E-2   -6.715953225389112E-3    3.271168929614695E-2   -5.342328178902620E-1   -7.586085952967274E-2
 6.457094171025000E9    -5.692752229981525E-1   -1.630120197792217E-1   -8.527189036792067E-3    3.300405525581949E-2   -6.660912148104159E-3    3.298350724088467E-2   -5.344354140115202E-1   -7.458565106969348E-2
 6.457105585050000E9    -5.695616586995260E-1   -1.622120701132250E-1   -8.585980284094262E-3    3.321653232011034E-2   -6.688185706899286E-3    3.321517207042991E-2   -5.346284002053092E-1   -7.350456989590509E-2
 6.457116999075000E9    -5.696467493729706E-1   -1.611856903675344E-1   -8.486010587955123E-3    3.357221144645480E-2   -6.635007913303646E-3    3.334597292351806E-2   -5.347337818886303E-1   -7.230879480253798E-2
 6.457128413100000E9    -5.699568119143027E-1   -1.603401546316206E-1   -8.305230676154728E-3    3.370211928903055E-2   -6.613776744745692E-3    3.359035784153323E-2   -5.348749467740226E-1   -7.103845901875408E-2
 6.457139827125000E9    -5.701393849607139E-1   -1.593069003283765E-1   -8.350352910433761E-3    3.383939252088212E-2   -6.602624531011617E-3    3.373110120058765E-2   -5.349676069208086E-1   -6.978761242840709E-2
 6.457151241150000E9    -5.705308622256322E-1   -1.583479452051033E-1   -8.273723660187509E-3    3.392416901619458E-2   -6.488626636744809E-3    3.397040970277207E-2   -5.352824296612255E-1   -6.862312757637608E-2
 6.457162655175000E9    -5.706732800553930E-1   -1.574208303641736E-1   -8.292442740587897E-3    3.418880700334654E-2   -6.528314589398875E-3    3.420349992713693E-2   -5.354883608459107E-1   -6.749578147949049E-2
 6.457174069200000E9    -5.710092399745014E-1   -1.564106304072549E-1   -8.229362342244502E-3    3.441254993112385E-2   -6.429531571184046E-3    3.434745557512974E-2   -5.354170492055488E-1   -6.624718954047001E-2
 6.457185483225000E9    -5.711972808042322E-1   -1.555330246263069E-1   -8.274147676387024E-3    3.454725371802013E-2   -6.428637802309839E-3    3.446789378978250E-2   -5.355706691155204E-1   -6.498629373943814E-2
 6.457196897250000E9    -5.714240857922809E-1   -1.545274094183588E-1   -8.181212223247856E-3    3.489832931048428E-2   -6.368284135155486E-3    3.472127369979252E-2   -5.358151158816558E-1   -6.387263112372149E-2
 6.457208311275000E9    -5.717089192813775E-1   -1.536324910088127E-1   -8.271813639729302E-3    3.500846125136989E-2   -6.298626937633336E-3    3.497624814537102E-2   -5.359382727490997E-1   -6.272815592074163E-2
 6.457219725300000E9    -5.719446356248910E-1   -1.525278547442084E-1   -8.175396723320252E-3    3.528433278119020E-2   -6.310192854034532E-3    3.504456206362453E-2   -5.361095705557669E-1   -6.134669626343350E-2
 6.457231139325000E9    -5.720924910682799E-1   -1.515807162620923E-1   -8.183265237765157E-3    3.543062606081358E-2   -6.268422905946380E-3    3.526319112473821E-2   -5.361662717504029E-1   -6.022936423362626E-2
 6.457242553350000E9    -5.724447545613339E-1   -1.507059465094278E-1   -8.149587593475376E-3    3.567372627799814E-2   -6.130014555418092E-3    3.545824613192956E-2   -5.363006806912580E-1   -5.901814649926731E-2
 6.457253967375000E9    -5.726599058950194E-1   -1.496719344852809E-1   -8.010514947180393E-3    3.591320335157739E-2   -6.125930481097067E-3    3.570930618747951E-2   -5.364321418684405E-1   -5.762833063174610E-2
 6.457265381400000E9    -5.728316890930286E-1   -1.487004803131274E-1   -8.030576640671350E-3    3.608893073919345E-2   -6.080599090421184E-3    3.587164893827596E-2   -5.365269798325446E-1   -5.643931179208064E-2
 6.457276795425000E9    -5.730645208049545E-1   -1.478014489329476E-1   -7.867867041639640E-3    3.617892252263952E-2   -6.126369534169589E-3    3.623759760312555E-2   -5.365884660954607E-1   -5.519133446951116E-2
 6.457288209450000E9    -5.733547555656371E-1   -1.467977165869983E-1   -8.090625402530647E-3    3.658923261898570E-2   -6.005375711073077E-3    3.633613694880715E-2   -5.367481101705561E-1   -5.380575631480765E-2
 6.457299623475000E9    -5.734100866167580E-1   -1.459606485718419E-1   -7.992045296227469E-3    3.666482252275759E-2   -6.018906505756420E-3    3.658726760343117E-2   -5.370089949324168E-1   -5.259619999215957E-2
 6.457311037500000E9    -5.738162734343889E-1   -1.449483825140183E-1   -7.921510861639329E-3    3.700996604665375E-2   -5.922305319010899E-3    3.674214093083662E-2   -5.369856473415605E-1   -5.144142955456330E-2
 6.457322451525000E9    -5.739777772648542E-1   -1.439456796695943E-1   -7.680619987615938E-3    3.730241625499540E-2   -5.863321305417137E-3    3.691674792544345E-2   -5.369942648334820E-1   -5.013888367700842E-2
 6.457333865550000E9    -5.742079984711194E-1   -1.429007857968679E-1   -7.809898525655898E-3    3.744379012458696E-2   -5.781458995041329E-3    3.719117147931968E-2   -5.372465175157982E-1   -4.884582364163349E-2
 6.457345279575000E9    -5.743842005466948E-1   -1.418509633006705E-1   -7.799075230068716E-3    3.770575343840776E-2   -5.792577187059165E-3    3.739147283990298E-2   -5.372695266446864E-1   -4.758508458792722E-2
 6.457356693600000E9    -5.746433815051384E-1   -1.410034719686049E-1   -7.752476829741973E-3    3.789115126995946E-2   -5.721174870246132E-3    3.765527647362799E-2   -5.373487943923403E-1   -4.638514685096171E-2
 6.457368107625000E9    -5.747860568222461E-1   -1.399240278924167E-1   -7.837037969532253E-3    3.801513312680309E-2   -5.737898556564666E-3    3.784196099152078E-2   -5.375250065314902E-1   -4.514172215472430E-2
 6.457379521650000E9    -5.750393332908560E-1   -1.389733224908512E-1   -7.732696515204345E-3    3.833143155114649E-2   -5.596486728862179E-3    3.813134560264050E-2   -5.376252525790398E-1   -4.368586108576818E-2
 6.457390935675000E9    -5.753030128121620E-1   -1.379606182953575E-1   -7.634041269405443E-3    3.849951297804908E-2   -5.652291618690903E-3    3.835276711803962E-2   -5.376320282758594E-1   -4.239430601712316E-2
 6.457402349700000E9    -5.754534052355010E-1   -1.369577521495367E-1   -7.718853429507141E-3    3.887532609431778E-2   -5.547281895026226E-3    3.857015854608665E-2   -5.378582869327221E-1   -4.109686649866965E-2
 6.457413763725000E9    -5.756469283809100E-1   -1.360425402050096E-1   -7.622027616202879E-3    3.899887883457587E-2   -5.436606551900697E-3    3.895319290927016E-2   -5.379626424851450E-1   -3.995754367729294E-2
 6.457425177750000E9    -5.758847402054942E-1   -1.349805688216345E-1   -7.566912221946994E-3    3.945137304591562E-2   -5.428164987634261E-3    3.909808169060238E-2   -5.380296314283705E-1   -3.859527358559018E-2
 6.457436591775000E9    -5.760562437733473E-1   -1.339466114141149E-1   -7.444105493852005E-3    3.963155219469906E-2   -5.288883471847798E-3    3.932129927771996E-2   -5.380265537916658E-1   -3.727237756981334E-2
 6.457448005800000E9    -5.762620011221364E-1   -1.330114122926569E-1   -7.446651211908396E-3    3.983118855345003E-2   -5.319665072675191E-3    3.949860472252776E-2   -5.382779429505749E-1   -3.597302734751780E-2
 6.457459419825000E9    -5.764994684716297E-1   -1.320214149773172E-1   -7.372916762227293E-3    4.013795702693627E-2   -5.328456059996814E-3    3.979822879240123E-2   -5.382041908356665E-1   -3.463847574356557E-2
 6.457470833850000E9    -5.766606707632813E-1   -1.310562900635714E-1   -7.263516798787625E-3    4.033570418792452E-2   -5.196727951065163E-3    4.008802622804240E-2   -5.381531234058451E-1   -3.327050927245907E-2
 6.457482247875000E9    -5.768295117158555E-1   -1.300543897292973E-1   -7.185574672420837E-3    4.062973872794930E-2   -5.103244041846746E-3    4.025439298560713E-2   -5.383889003820944E-1   -3.193894895694116E-2
 6.457493661900000E9    -5.769700074309132E-1   -1.290350277845739E-1   -7.325717353094572E-3    4.093214533463065E-2   -4.976964505782456E-3    4.055214279575573E-2   -5.384946925321916E-1   -3.055540971771057E-2
 6.457505075925000E9    -5.772650754045960E-1   -1.281203180766038E-1   -7.210924294621773E-3    4.122417042489334E-2   -5.044421160453515E-3    4.081025881914016E-2   -5.383651640790992E-1   -2.921632061601199E-2
 6.457516489950000E9    -5.773907703203351E-1   -1.270007637310284E-1   -7.178171125970440E-3    4.145348935583251E-2   -4.916430277229961E-3    4.112858764829905E-2   -5.384899155077861E-1   -2.784254539297282E-2
 6.457527903975000E9    -5.776028882295038E-1   -1.259699240423418E-1   -6.987598571810909E-3    4.179880862975222E-2   -4.862064105990560E-3    4.134477591068911E-2   -5.384958794993353E-1   -2.650043071483173E-2
 6.457539318000000E9    -5.778336995819302E-1   -1.249003141833279E-1   -7.007298344052657E-3    4.197512570028918E-2   -4.759148357262585E-3    4.162469033550713E-2   -5.386267402940339E-1   -2.526450964235297E-2
 6.457550732025000E9    -5.779493256845559E-1   -1.239695638599115E-1   -6.988468548885084E-3    4.228596346642152E-2   -4.692945210653911E-3    4.182194262193525E-2   -5.386581203554067E-1   -2.393319330584921E-2
 6.457562146050000E9    -5.781877610241293E-1   -1.229538586723702E-1   -6.915907496422074E-3    4.253088431541390E-2   -4.641279224563983E-3    4.221321012799379E-2   -5.386597604547411E-1   -2.239677059084558E-2
 6.457573560075000E9    -5.783280438907664E-1   -1.219644433189492E-1   -6.791151991872012E-3    4.284707165593789E-2   -4.633958021577929E-3    4.237344226778286E-2   -5.387382975021109E-1   -2.096731785093276E-2
 6.457584974100000E9    -5.785466430056652E-1   -1.208967739254887E-1   -6.750486230557023E-3    4.311889073493035E-2   -4.505233598840802E-3    4.274728147623680E-2   -5.387808933143207E-1   -1.966370907050809E-2
 6.457596388125000E9    -5.786444270797657E-1   -1.199175383806000E-1   -6.704160023786537E-3    4.342636660787886E-2   -4.432760600234843E-3    4.298192859268707E-2   -5.388153436783236E-1   -1.830089607747193E-2
 6.457607802150000E9    -5.788689194723956E-1   -1.189417267003663E-1   -6.623119142914351E-3    4.369598087895445E-2   -4.392061682819623E-3    4.329726628058145E-2   -5.387300025771687E-1   -1.683255412886246E-2
 6.457619216175000E9    -5.790598328161695E-1   -1.177929391261754E-1   -6.545567950596984E-3    4.404316338660158E-2   -4.253737979189595E-3    4.356839077033405E-2   -5.388632753310879E-1   -1.550743919336561E-2
 6.457630630200000E9    -5.792297149670099E-1   -1.168640306480107E-1   -6.424723991531133E-3    4.436744157175865E-2   -4.242911850503205E-3    4.389666109647031E-2   -5.389505663103855E-1   -1.398963463844627E-2
 6.457642044225000E9    -5.793326100362181E-1   -1.158100428286845E-1   -6.371873545755739E-3    4.474102816356099E-2   -4.067459301776123E-3    4.423567835389233E-2   -5.388902666082724E-1   -1.259030297094622E-2
 6.457653458250000E9    -5.795421696270463E-1   -1.148025560049661E-1   -6.335870590388483E-3    4.492693256902100E-2   -4.097878212888906E-3    4.443369570237377E-2   -5.389520630558886E-1   -1.118806970890858E-2
 6.457664872275000E9    -5.796609653127958E-1   -1.137847113515171E-1   -6.305877605513950E-3    4.527348170060442E-2   -4.065401136315364E-3    4.473697793061541E-2   -5.388804774271196E-1   -9.781327440243820E-3
 6.457676286300000E9    -5.798801446541136E-1   -1.126872659563395E-1   -6.165782020251667E-3    4.554878713871113E-2   -3.900271816451351E-3    4.506101135648871E-2   -5.387951000979219E-1   -8.362434313321650E-3
 6.457687700325000E9    -5.799649929035153E-1   -1.117056240459418E-1   -6.165359471059750E-3    4.593529710096986E-2   -3.789755741269496E-3    4.541878706832565E-2   -5.387008565664620E-1   -6.717284174844016E-3
 6.457699114350000E9    -5.801941030243418E-1   -1.107393990840205E-1   -6.033302930907900E-3    4.630537022536531E-2   -3.734253970310910E-3    4.582783318388138E-2   -5.387412252309091E-1   -5.458163782574922E-3
 6.457710528375000E9    -5.802393835867666E-1   -1.095568667701027E-1   -5.958162037812595E-3    4.653926316550792E-2   -3.666179855253846E-3    4.610045691684791E-2   -5.388285142421789E-1   -3.841714304512848E-3
 6.457721942400000E9    -5.804570608893567E-1   -1.085331336112219E-1   -6.068235186017552E-3    4.695040626719876E-2   -3.488066094348328E-3    4.641226298042343E-2   -5.387205019882670E-1   -2.554017587780354E-3
 6.457733356425000E9    -5.807060847269285E-1   -1.074853193554625E-1   -5.729680724839235E-3    4.721769494218878E-2   -3.452013608809721E-3    4.679659341634003E-2   -5.387668616516014E-1   -9.621498284662833E-4
 6.457744770450000E9    -5.807624125017559E-1   -1.064933388363056E-1   -5.820389298762181E-3    4.756887775182935E-2   -3.317845376936114E-3    4.705611121630057E-2   -5.388930808759581E-1    5.621236575452916E-4
 6.457756184475000E9    -5.809860883938246E-1   -1.053679824965982E-1   -5.673478406840333E-3    4.798377317359704E-2   -3.314243054624500E-3    4.737636893073906E-2   -5.386666206556185E-1    2.125252247990175E-3
 6.457767598500000E9    -5.809879161955132E-1   -1.043417827607692E-1   -5.582519971177704E-3    4.831639055712139E-2   -3.139886857044002E-3    4.771823506928032E-2   -5.386132191528443E-1    3.500329602540903E-3
 6.457779012525000E9    -5.812843680096752E-1   -1.033282602062979E-1   -5.567841224890439E-3    4.876388048113372E-2   -3.094205910553934E-3    4.807471164111906E-2   -5.386153937023287E-1    5.144923506689948E-3
 6.457790426550000E9    -5.813155420018006E-1   -1.021942790760446E-1   -5.347254465064117E-3    4.904979052995952E-2   -2.948050866755781E-3    4.843488798547895E-2   -5.384585716826624E-1    6.564980274034116E-3
 6.457801840575000E9    -5.815027414436528E-1   -1.010172563568952E-1   -5.489035464950244E-3    4.944807987881566E-2   -2.902717099616334E-3    4.880964428858522E-2   -5.384419449014216E-1    8.152536266928927E-3
 6.457813254600000E9    -5.815161998919622E-1   -9.999361184801406E-2   -5.257564151987353E-3    4.975890377774265E-2   -2.715734441354424E-3    4.918365339118378E-2   -5.384595634704460E-1    9.700501219749512E-3
 6.457824668625000E9    -5.818106518771500E-1   -9.897619700877248E-2   -5.234317587913235E-3    5.017072247862420E-2   -2.684238395617980E-3    4.959027755910682E-2   -5.383781885193085E-1    1.115404789460397E-2
 6.457836082650000E9    -5.819137900460232E-1   -9.796713369470073E-2   -5.103269400660265E-3    5.049570142320582E-2   -2.564739310732773E-3    4.992354331502418E-2   -5.382241836437918E-1    1.268634221014847E-2
 6.457847496675000E9    -5.819457562529903E-1   -9.683435508698268E-2   -4.968601228141672E-3    5.109306588636191E-2   -2.285075354379288E-3    5.029334535670878E-2   -5.382402005010803E-1    1.442303540988063E-2
 6.457858910700000E9    -5.821049543530531E-1   -9.593887059437337E-2   -4.822918876192222E-3    5.141162564025521E-2   -2.238986650522342E-3    5.064312883664613E-2   -5.381822530845002E-1    1.593840681352966E-2
 6.457870324725000E9    -5.822396853086269E-1   -9.474887549171605E-2   -4.748171219281955E-3    5.177309063399255E-2   -2.201692917325446E-3    5.101111836639317E-2   -5.380180996811051E-1    1.753296435428966E-2
 6.457881738750000E9    -5.824460558663498E-1   -9.363144822811252E-2   -4.592794747576615E-3    5.219223713008622E-2   -2.047592105323746E-3    5.142415509151770E-2   -5.378775963715106E-1    1.915024389242415E-2
 6.457893152775000E9    -5.824161976513701E-1   -9.253169411221498E-2   -4.519890436296308E-3    5.252353082047786E-2   -1.940601818765969E-3    5.182577075927054E-2   -5.378229961615979E-1    2.084273522063016E-2
 6.457904566800000E9    -5.825348717127166E-1   -9.144669966084842E-2   -4.265403719185709E-3    5.293069772521593E-2   -1.731873889833300E-3    5.227280199520515E-2   -5.376170927836915E-1    2.239424562321769E-2
 6.457915980825000E9    -5.827321942250249E-1   -9.034062593775276E-2   -4.447085618387994E-3    5.344030598562235E-2   -1.627278311724517E-3    5.265119266077598E-2   -5.375139519224312E-1    2.396591616699864E-2
 6.457927394850000E9    -5.826767605725602E-1   -8.921079226261527E-2   -4.246040339204765E-3    5.382892006785484E-2   -1.517193209804451E-3    5.303321182424780E-2   -5.376034606707942E-1    2.575418356384702E-2
 6.457938808875000E9    -5.828905275244335E-1   -8.809140348165341E-2   -4.138095550415099E-3    5.426884266537114E-2   -1.380426631942304E-3    5.346055301127216E-2   -5.370811513521155E-1    2.738703854498261E-2
 6.457950222900000E9    -5.830134050335950E-1   -8.701024821451911E-2   -3.939315201390380E-3    5.466484277482679E-2   -1.129786149027272E-3    5.392761462664038E-2   -5.370959736268873E-1    2.893133341053686E-2
 6.457961636925000E9    -5.831575255718888E-1   -8.588952249379307E-2   -3.876032957279237E-3    5.519628628661540E-2   -1.075437512378425E-3    5.437767554573589E-2   -5.369621576235412E-1    3.076308051268635E-2
 6.457973050950000E9    -5.831296378665438E-1   -8.478336064598606E-2   -3.623004406730423E-3    5.552379529199834E-2   -8.942871838333430E-4    5.484701799722234E-2   -5.367739220323557E-1    3.247367125573068E-2
 6.457984464975000E9    -5.832522687464932E-1   -8.361039200360743E-2   -3.427575153831012E-3    5.615062760043296E-2   -8.059588654189832E-4    5.523518652734313E-2   -5.367080717849251E-1    3.415891706487172E-2
 6.457995879000000E9    -5.833586662264425E-1   -8.254485297884268E-2   -3.426469334996620E-3    5.665677493306553E-2   -6.727825904518596E-4    5.568289982588153E-2   -5.365208165482559E-1    3.571955507652331E-2
 6.458007293025000E9    -5.834249428567573E-1   -8.158290622617601E-2   -3.322904385018252E-3    5.702980548315424E-2   -4.422970415650942E-4    5.616316617843713E-2   -5.364134029463161E-1    3.753207253981455E-2
 6.458018707050000E9    -5.835782499869091E-1   -8.040734004384559E-2   -3.174468941523372E-3    5.760748038094401E-2   -3.016331704844475E-4    5.663866978451548E-2   -5.360115861563952E-1    3.933433542139883E-2
 6.458030121075000E9    -5.836264521320664E-1   -7.917791895644934E-2   -2.844858763202363E-3    5.802499869613415E-2   -1.552477237824671E-4    5.708243350116270E-2   -5.359287029314389E-1    4.103712557819589E-2
 6.458041535100000E9    -5.835739882758476E-1   -7.815084370878238E-2   -2.688513719477076E-3    5.850088738769718E-2    1.924688030265165E-5    5.757537265840810E-2   -5.356937729195896E-1    4.279549225326810E-2
 6.458052949125000E9    -5.836647342956286E-1   -7.699513310180944E-2   -2.643984887230485E-3    5.897345407748470E-2    2.059752501775967E-4    5.805255816857396E-2   -5.355243134697093E-1    4.465789033221599E-2
 6.458064363150000E9    -5.836991931223009E-1   -7.582588941788837E-2   -2.549561343843766E-3    5.954351972047914E-2    4.042630297261219E-4    5.848017297617071E-2   -5.352112136257331E-1    4.651118194502131E-2
 6.458075777175000E9    -5.838460814530592E-1   -7.469499579538424E-2   -2.247987989244857E-3    6.006067620698419E-2    6.496897865790660E-4    5.904737870822874E-2   -5.350298552298454E-1    4.833992214327281E-2
 6.458087191200000E9    -5.838486185706876E-1   -7.345098313317248E-2   -2.092536096837975E-3    6.063823400885841E-2    7.713971536339302E-4    5.964422415123512E-2   -5.347745277627978E-1    5.012000494345482E-2
 6.458098605225000E9    -5.839891792748328E-1   -7.231937759912575E-2   -1.960292902647214E-3    6.107628187661585E-2    9.480799475826343E-4    6.015731674798545E-2   -5.344284498026334E-1    5.203109735907263E-2
 6.458110019250000E9    -5.839899605031496E-1   -7.113227816642313E-2   -1.856141585573860E-3    6.168538348311485E-2    1.222356197175863E-3    6.067659978729413E-2   -5.341566265808725E-1    5.382468849781571E-2
