#  HZ   S   RI   R     50.00 
! Rohde & Schwarz Vector Network Analyzer 
! Rohde-Schwarz,ZNB20-2Port,1311601062101988,3.16
! Created: UTC 3/20/2024, 11:22:24 PM
! freq[Hz]                re:S11                  im:S11                  re:S21                  im:S21                  re:S12                  im:S12                  re:S22                  im:S22
 6.457080848000000E9    -5.690901447153860E-1   -1.637990217388362E-1   -8.433648887709928E-3    3.272386049572632E-2   -6.724117329442298E-3    3.275925933943021E-2   -5.339606164739908E-1   -7.632649247575311E-2
 6.457092305050000E9    -5.693196891274691E-1   -1.628626061172600E-1   -8.392078843750560E-3    3.298047727613404E-2   -6.691944675236224E-3    3.286886388617964E-2   -5.340717989991001E-1   -7.522565830198596E-2
 6.457103762100000E9    -5.695898887477768E-1   -1.618333844862605E-1   -8.414548561412197E-3    3.306112172083266E-2   -6.678048831500818E-3    3.304963874869953E-2   -5.342525704302473E-1   -7.392163897919053E-2
 6.457115219150000E9    -5.699043778271794E-1   -1.609306531765969E-1   -8.462363494339943E-3    3.325468704829039E-2   -6.489841527750848E-3    3.320017999360894E-2   -5.343225068335304E-1   -7.277227238454952E-2
 6.457126676200000E9    -5.701426964337536E-1   -1.599638491269759E-1   -8.340922664504362E-3    3.349413694347901E-2   -6.549240106176376E-3    3.347859528013478E-2   -5.345515035782056E-1   -7.157435442920716E-2
 6.457138133250000E9    -5.703031029349385E-1   -1.589181117504628E-1   -8.262957543813638E-3    3.380565238544921E-2   -6.536620435765554E-3    3.361239495685048E-2   -5.346360277544010E-1   -7.033023933636087E-2
 6.457149590300000E9    -5.706052387317919E-1   -1.580555012621206E-1   -8.329689292478735E-3    3.399339368368740E-2   -6.543847966620637E-3    3.388115211331564E-2   -5.348864680434642E-1   -6.925928108711113E-2
 6.457161047350000E9    -5.707865571208218E-1   -1.571595363743807E-1   -8.344892351445808E-3    3.397202642850451E-2   -6.542929304164711E-3    3.397198935932759E-2   -5.350140374521997E-1   -6.806765788355854E-2
 6.457172504400000E9    -5.710505382693101E-1   -1.562044810386873E-1   -8.316180316948456E-3    3.433285244884560E-2   -6.459512780921440E-3    3.419694811081922E-2   -5.351930304356601E-1   -6.673379917811489E-2
 6.457183961450000E9    -5.712769205387807E-1   -1.552183366325796E-1   -8.154783914846791E-3    3.441446410815609E-2   -6.487349776099645E-3    3.442911670907452E-2   -5.351942666244899E-1   -6.564799705186791E-2
 6.457195418500000E9    -5.715372410365764E-1   -1.542522346317480E-1   -8.149304665089225E-3    3.472115074896522E-2   -6.371698552138547E-3    3.456125801364589E-2   -5.354792814206120E-1   -6.436950217202009E-2
 6.457206875550000E9    -5.717679953920073E-1   -1.532805135479957E-1   -8.061988212575298E-3    3.490229976018643E-2   -6.311359574680216E-3    3.477885928434448E-2   -5.356809835605810E-1   -6.316527973230339E-2
 6.457218332600000E9    -5.719109532073801E-1   -1.522497902394608E-1   -8.208112656217669E-3    3.510950436381752E-2   -6.307344714256003E-3    3.504040355810482E-2   -5.358162784645428E-1   -6.181579053207559E-2
 6.457229789650000E9    -5.722128197340499E-1   -1.513294240201668E-1   -8.116697622742825E-3    3.521075772545013E-2   -6.220435290562297E-3    3.517013908653191E-2   -5.359880700499438E-1   -6.073104048076081E-2
 6.457241246700000E9    -5.724886822850536E-1   -1.502879201997905E-1   -8.195828570230820E-3    3.547456064272597E-2   -6.208507752964610E-3    3.536071743121084E-2   -5.361247262618963E-1   -5.937254824052416E-2
 6.457252703750000E9    -5.725861833358989E-1   -1.492941141791405E-1   -7.978145082376284E-3    3.567473208725114E-2   -6.243518104366440E-3    3.552184026096678E-2   -5.362283932599172E-1   -5.830911869030505E-2
 6.457264160800000E9    -5.728645629434342E-1   -1.484336634853680E-1   -8.136720541723314E-3    3.601880269599609E-2   -6.116404357738956E-3    3.573668736116935E-2   -5.362496525029071E-1   -5.700143502888175E-2
 6.457275617850000E9    -5.731910553078610E-1   -1.474633262723160E-1   -7.979986952240850E-3    3.615694386864704E-2   -5.947358028028131E-3    3.603258564653675E-2   -5.364384840768478E-1   -5.570419106128405E-2
 6.457287074900000E9    -5.733744711392535E-1   -1.465394994326414E-1   -8.050932110577044E-3    3.647934012985485E-2   -5.997398103071518E-3    3.620085618733788E-2   -5.365611861690895E-1   -5.445396425509954E-2
 6.457298531950000E9    -5.736019966737720E-1   -1.454321551993539E-1   -7.940577560141935E-3    3.655641894721473E-2   -5.994105597653149E-3    3.648884312427950E-2   -5.366988046534960E-1   -5.319986371641529E-2
 6.457309989000000E9    -5.737841490951312E-1   -1.444472547740214E-1   -7.962435335987802E-3    3.672151361567817E-2   -5.955747823094716E-3    3.661705287127481E-2   -5.367030769300857E-1   -5.193797839910042E-2
 6.457321446050000E9    -5.739746877954621E-1   -1.436552646113268E-1   -7.818626101644324E-3    3.709601682739384E-2   -5.832030298614895E-3    3.685011870816601E-2   -5.369907467521020E-1   -5.073323571817462E-2
 6.457332903100000E9    -5.742622514960009E-1   -1.425735261737608E-1   -7.787374113014683E-3    3.731854323266705E-2   -5.821824832241236E-3    3.706604011003331E-2   -5.370261898020280E-1   -4.951908663117118E-2
 6.457344360150000E9    -5.745578300474325E-1   -1.416157060989154E-1   -7.751627641517413E-3    3.761659478664790E-2   -5.784245392300631E-3    3.727917049893696E-2   -5.370686331952069E-1   -4.811496474502868E-2
 6.457355817200000E9    -5.746654427719220E-1   -1.405494669654209E-1   -7.841756749320403E-3    3.778448239027948E-2   -5.767272374989392E-3    3.755902153879608E-2   -5.372995549495599E-1   -4.683261546167708E-2
 6.457367274250000E9    -5.749296469066418E-1   -1.397127970978954E-1   -7.709390631502162E-3    3.791913108890794E-2   -5.657931855237399E-3    3.770001594325032E-2   -5.371911976266971E-1   -4.557531245495297E-2
 6.457378731300000E9    -5.751181859086442E-1   -1.386752314575793E-1   -7.658376413411576E-3    3.824598779797213E-2   -5.640032277356260E-3    3.799976034806973E-2   -5.373638373434626E-1   -4.422534824718641E-2
 6.457390188350000E9    -5.753365527765310E-1   -1.377102028083224E-1   -7.557715539021099E-3    3.840256961205408E-2   -5.549032302112233E-3    3.816531769877626E-2   -5.375027525013447E-1   -4.293457501663642E-2
 6.457401645400000E9    -5.754911997867037E-1   -1.365895494005566E-1   -7.610329568495847E-3    3.863283249305475E-2   -5.471187126862780E-3    3.841681213971301E-2   -5.375280041363515E-1   -4.175056575120090E-2
 6.457413102450000E9    -5.757360366268514E-1   -1.356079780182166E-1   -7.565740865450131E-3    3.886478379304130E-2   -5.458552593365665E-3    3.868725042781172E-2   -5.377111783191807E-1   -4.039092519216182E-2
 6.457424559500000E9    -5.759315112708985E-1   -1.346274428650218E-1   -7.523923478231927E-3    3.916676755759958E-2   -5.374150440175897E-3    3.886731913947475E-2   -5.376541736298115E-1   -3.908550882362210E-2
 6.457436016550000E9    -5.761805041701112E-1   -1.336337151283516E-1   -7.472584285158506E-3    3.941277630403997E-2   -5.307118390074072E-3    3.922885785621800E-2   -5.378244077169726E-1   -3.777624438155820E-2
 6.457447473600000E9    -5.763318401778516E-1   -1.326179515469799E-1   -7.426922611986672E-3    3.963551265955911E-2   -5.223259089761240E-3    3.939341323156222E-2   -5.378384003829927E-1   -3.643313182137517E-2
 6.457458930650000E9    -5.765225343302538E-1   -1.317243086769194E-1   -7.461256705502101E-3    3.991056518481318E-2   -5.159299290367390E-3    3.961071491960357E-2   -5.378791305183587E-1   -3.498065648423846E-2
 6.457470387700000E9    -5.766580818630992E-1   -1.306699193396510E-1   -7.291542728740903E-3    4.015504024496197E-2   -5.119916949676429E-3    3.985446566525552E-2   -5.379795941229715E-1   -3.385335215525661E-2
 6.457481844750000E9    -5.769227585094107E-1   -1.296144973431293E-1   -7.208727503325564E-3    4.040947608773481E-2   -5.063173901630317E-3    4.010472113588929E-2   -5.380042368664870E-1   -3.240443984559788E-2
 6.457493301800000E9    -5.770540705804177E-1   -1.285996255828394E-1   -7.286840536592170E-3    4.077130271831884E-2   -5.092431951833853E-3    4.036018327666543E-2   -5.380767554488853E-1   -3.108536794648556E-2
 6.457504758850000E9    -5.773080738498118E-1   -1.275922144975102E-1   -7.115931882324465E-3    4.098173395492584E-2   -4.982645876538364E-3    4.070386174160807E-2   -5.382339583489506E-1   -2.973337040027373E-2
 6.457516215900000E9    -5.774949012888535E-1   -1.266219549398174E-1   -7.074278480977058E-3    4.126866384797104E-2   -4.837829059666942E-3    4.097608588904429E-2   -5.382495804064547E-1   -2.840855409056225E-2
 6.457527672950000E9    -5.775864676401736E-1   -1.255425937426901E-1   -6.983466376470445E-3    4.152768834831390E-2   -4.815718621545131E-3    4.117138438116295E-2   -5.383597463379612E-1   -2.705958377105459E-2
 6.457539130000000E9    -5.779182821644441E-1   -1.246282917498751E-1   -6.907253938281051E-3    4.184262082674119E-2   -4.753082070357800E-3    4.142667000638227E-2   -5.383088178351746E-1   -2.578199979326522E-2
 6.457550587050000E9    -5.780308076174974E-1   -1.236571357005513E-1   -6.994695432080469E-3    4.205018385279049E-2   -4.724440763148934E-3    4.170255372594801E-2   -5.383805261403166E-1   -2.438544058069069E-2
 6.457562044100000E9    -5.783208694066030E-1   -1.225923054360380E-1   -6.801304197967355E-3    4.232576053133214E-2   -4.699982359080051E-3    4.199882696251893E-2   -5.383705015013067E-1   -2.293634211964440E-2
 6.457573501150000E9    -5.784032239335627E-1   -1.216220733269212E-1   -6.748142078130797E-3    4.261570523277160E-2   -4.582985243125840E-3    4.222989034991155E-2   -5.384798256163268E-1   -2.162902160439666E-2
 6.457584958200000E9    -5.786003878292972E-1   -1.204387483220997E-1   -6.676006984640050E-3    4.299714422578724E-2   -4.492045340321763E-3    4.256885169570424E-2   -5.385198575437669E-1   -2.014218226333778E-2
 6.457596415250000E9    -5.787986624950465E-1   -1.194827393307682E-1   -6.792532376013214E-3    4.319901514677527E-2   -4.336130885447428E-3    4.281445258263934E-2   -5.384692128497187E-1   -1.873924342619578E-2
 6.457607872300000E9    -5.790577241984497E-1   -1.185276894289315E-1   -6.619329205353475E-3    4.359081695395372E-2   -4.341964005200178E-3    4.304582445043127E-2   -5.386085080002618E-1   -1.734220418206202E-2
 6.457619329350000E9    -5.791365263646372E-1   -1.174086035593678E-1   -6.497904207419299E-3    4.388423766024401E-2   -4.293953659325435E-3    4.341956864810367E-2   -5.385804484548015E-1   -1.597032141214614E-2
 6.457630786400000E9    -5.792621965806988E-1   -1.164512084844520E-1   -6.645977442512573E-3    4.417400661163130E-2   -4.167292973004524E-3    4.368748846706034E-2   -5.386737924696910E-1   -1.463026827030110E-2
 6.457642243450000E9    -5.795306025314133E-1   -1.154070003522530E-1   -6.394422338226880E-3    4.430827489755861E-2   -4.057584984086707E-3    4.391668920534196E-2   -5.386297776756501E-1   -1.303432034760953E-2
 6.457653700500000E9    -5.796883218155882E-1   -1.143414757761642E-1   -6.376138690115987E-3    4.484220287872297E-2   -4.016063835808490E-3    4.433280710371603E-2   -5.386482144868301E-1   -1.175929033325713E-2
 6.457665157550000E9    -5.798323395435747E-1   -1.133907305750240E-1   -6.335993419183771E-3    4.515309599598850E-2   -3.975606848424072E-3    4.459157726782181E-2   -5.386787223111262E-1   -1.029500151119251E-2
 6.457676614600000E9    -5.799302268845457E-1   -1.123105310715759E-1   -6.312976082859241E-3    4.543766222968382E-2   -3.879456896420485E-3    4.497336403215029E-2   -5.386762233486380E-1   -8.696693749458504E-3
 6.457688071650000E9    -5.801829296966027E-1   -1.112265651654228E-1   -6.094427697161190E-3    4.582532641529843E-2   -3.729750916709289E-3    4.528764162042013E-2   -5.386693956646625E-1   -7.199531435170564E-3
 6.457699528700000E9    -5.802841675586291E-1   -1.102469424172429E-1   -6.122863645629549E-3    4.600543041348314E-2   -3.738358835727973E-3    4.550926285710939E-2   -5.385873038971084E-1   -5.882073276300919E-3
 6.457710985750000E9    -5.804327823764170E-1   -1.091636670781806E-1   -6.064285015070132E-3    4.640633432677143E-2   -3.595527546735528E-3    4.580681076645145E-2   -5.385539644005234E-1   -4.325021090867366E-3
 6.457722442800000E9    -5.805841388108436E-1   -1.081570830051501E-1   -5.916227150000179E-3    4.676205448185072E-2   -3.529893875724324E-3    4.616074315900157E-2   -5.386494219318001E-1   -2.929684353561844E-3
 6.457733899850000E9    -5.807610534487346E-1   -1.070116637302508E-1   -5.843785232393406E-3    4.700815577825922E-2   -3.415817024131169E-3    4.653597297632101E-2   -5.386525885148296E-1   -1.384463427292615E-3
 6.457745356900000E9    -5.808874868842040E-1   -1.059710673867508E-1   -5.742456012831641E-3    4.743552390659382E-2   -3.308645130407268E-3    4.684137940703591E-2   -5.385445085043795E-1    4.765187423691996E-5
 6.457756813950000E9    -5.811081302855887E-1   -1.050301002906067E-1   -5.710683951264071E-3    4.764909325008445E-2   -3.122527898450770E-3    4.718708633394674E-2   -5.385327994144479E-1    1.557898754897135E-3
 6.457768271000000E9    -5.811538442497596E-1   -1.039519142744493E-1   -5.552142148557595E-3    4.806523314239986E-2   -3.178639716949227E-3    4.753597756454186E-2   -5.385994920240823E-1    2.921789346795605E-3
 6.457779728050000E9    -5.813193333352347E-1   -1.029376518000371E-1   -5.504597247850760E-3    4.834813664086540E-2   -3.091188716418682E-3    4.783840088299407E-2   -5.382544342523883E-1    4.623028888818851E-3
 6.457791185100000E9    -5.814535764019447E-1   -1.017743918239032E-1   -5.462498156105280E-3    4.886035524238614E-2   -2.953067771691133E-3    4.817226148784989E-2   -5.382821008968746E-1    5.979331844803635E-3
 6.457802642150000E9    -5.815992337750465E-1   -1.006727790902700E-1   -5.387463765150217E-3    4.932522968241845E-2   -2.816996230475549E-3    4.856772258520570E-2   -5.382200620546648E-1    7.642638233089767E-3
 6.457814099200000E9    -5.816232488388901E-1   -9.971592800041180E-2   -5.218171209327474E-3    4.944050923417698E-2   -2.726441397826237E-3    4.902053359152845E-2   -5.381712275510500E-1    9.183303425059507E-3
 6.457825556250000E9    -5.817987761141483E-1   -9.859377234963436E-2   -5.120760274915778E-3    4.996802856440204E-2   -2.709321596422193E-3    4.935261667789282E-2   -5.380591067467598E-1    1.079388792376997E-2
 6.457837013300000E9    -5.819508129403004E-1   -9.739993668405958E-2   -5.099158874033890E-3    5.023708338233152E-2   -2.476585718549978E-3    4.963972547952186E-2   -5.381717870612513E-1    1.217436112781184E-2
 6.457848470350000E9    -5.821300724099044E-1   -9.645099783612497E-2   -4.943404588272897E-3    5.068631222877162E-2   -2.417603091127375E-3    5.015340800822819E-2   -5.379140150058020E-1    1.375526197985264E-2
 6.457859927400000E9    -5.822023437160381E-1   -9.546081197753523E-2   -4.968420995771993E-3    5.109690327157829E-2   -2.367493474535784E-3    5.050280508239503E-2   -5.379101495043822E-1    1.549213256524365E-2
 6.457871384450000E9    -5.823478270164381E-1   -9.425045737457563E-2   -4.715398149001390E-3    5.144221376418461E-2   -2.187768029188365E-3    5.084385993051070E-2   -5.379076786007674E-1    1.709890493155043E-2
 6.457882841500000E9    -5.824685664445844E-1   -9.326895434045934E-2   -4.596229578974526E-3    5.182456796012463E-2   -1.964893411860598E-3    5.123108409217889E-2   -5.376403618382337E-1    1.857990561421172E-2
 6.457894298550000E9    -5.826030024774068E-1   -9.205781620100002E-2   -4.548139206844094E-3    5.241694215570027E-2   -1.927253271371462E-3    5.164926491557957E-2   -5.375105106307543E-1    2.025847088090199E-2
 6.457905755600000E9    -5.827344155950741E-1   -9.100967470173642E-2   -4.427430589068255E-3    5.285497428359621E-2   -1.792325572692262E-3    5.194030119247176E-2   -5.374696095730703E-1    2.183401676802196E-2
 6.457917212650000E9    -5.828153190715315E-1   -8.993041750301894E-2   -4.238921599368404E-3    5.323401120568978E-2   -1.477292453968809E-3    5.242680570362967E-2   -5.374171563701057E-1    2.349341270655564E-2
 6.457928669700000E9    -5.828529969130705E-1   -8.873281584863400E-2   -4.132607548080230E-3    5.355518765692567E-2   -1.537629967315697E-3    5.278916886585773E-2   -5.371756968197546E-1    2.515033620286743E-2
 6.457940126750000E9    -5.829315895500269E-1   -8.764657713718323E-2   -4.113982601902547E-3    5.410947623519744E-2   -1.311086667419819E-3    5.325098589228956E-2   -5.369811832064966E-1    2.672392291687700E-2
 6.457951583800000E9    -5.831682491280961E-1   -8.650504135950354E-2   -3.884444735136344E-3    5.449932672655970E-2   -1.142610717029732E-3    5.363432153814496E-2   -5.369685254754155E-1    2.854678912475886E-2
 6.457963040850000E9    -5.831979255576895E-1   -8.543342560998064E-2   -3.744841890318107E-3    5.499229525470393E-2   -1.101084790637763E-3    5.409958381433155E-2   -5.368823546708115E-1    3.018849360310539E-2
 6.457974497900000E9    -5.832176985129953E-1   -8.431507111487771E-2   -3.753969552223291E-3    5.555847213314143E-2   -9.472716905415459E-4    5.452105743477794E-2   -5.366489061698320E-1    3.187646327070252E-2
 6.457985954950000E9    -5.833699131262345E-1   -8.325464580569986E-2   -3.392561602150667E-3    5.590683894384352E-2   -7.751205253815065E-4    5.512731703567954E-2   -5.365385240491877E-1    3.349675258067101E-2
 6.457997412000000E9    -5.834510436071032E-1   -8.204697038476888E-2   -3.407482210652397E-3    5.633575144707695E-2   -6.031657282643298E-4    5.547313499292609E-2   -5.362944259286916E-1    3.530403275647895E-2
 6.458008869050000E9    -5.835576936683022E-1   -8.090365155775989E-2   -3.247722501785510E-3    5.686707379564025E-2   -4.931536884347687E-4    5.591871449379443E-2   -5.361545565623824E-1    3.711786544841715E-2
 6.458020326100000E9    -5.836455595693731E-1   -7.983555079638520E-2   -3.016538756872375E-3    5.731997376974355E-2   -3.201479115727587E-4    5.644023997470961E-2   -5.360619282759105E-1    3.886848718142574E-2
 6.458031783150000E9    -5.836432050687810E-1   -7.863074182971781E-2   -2.884828079624216E-3    5.771006762946428E-2   -1.735782587390375E-4    5.687111218617907E-2   -5.356841730793988E-1    4.040443176196606E-2
 6.458043240200000E9    -5.837271626387557E-1   -7.763275352903429E-2   -2.665924729857653E-3    5.828155651310543E-2    5.803460087178567E-5    5.733600320568673E-2   -5.354390589659652E-1    4.227428895836207E-2
 6.458054697250000E9    -5.838476031871510E-1   -7.642325984358896E-2   -2.539331002562842E-3    5.885678317517967E-2    2.683693917574368E-4    5.775925864017480E-2   -5.353029749123535E-1    4.399389464227971E-2
 6.458066154300000E9    -5.839351884270375E-1   -7.535507275771341E-2   -2.433512176553929E-3    5.930010294394066E-2    4.788437657741743E-4    5.830088528366802E-2   -5.350647295413387E-1    4.587705971370398E-2
 6.458077611350000E9    -5.840114465780927E-1   -7.418845470301934E-2   -2.310068227259585E-3    5.982448027631199E-2    6.338165315011504E-4    5.884636883387197E-2   -5.348082872303038E-1    4.773175422021639E-2
 6.458089068400000E9    -5.841308719014856E-1   -7.304945505192485E-2   -2.053657340718122E-3    6.044416485779305E-2    8.347199352123222E-4    5.928445574944870E-2   -5.346643685640705E-1    4.954731211856313E-2
 6.458100525450000E9    -5.842405698568429E-1   -7.186694585257221E-2   -1.976634048905168E-3    6.089154552201519E-2    1.020014143478239E-3    5.974858616678721E-2   -5.341704600773547E-1    5.147984058604609E-2
 6.458111982500000E9    -5.842156832934732E-1   -7.069653839413186E-2   -1.840732006004113E-3    6.146764114182564E-2    1.134748233785729E-3    6.026517857388978E-2   -5.340427545173246E-1    5.319923274290117E-2
