#  HZ   S   RI   R     50.00 
! Rohde & Schwarz Vector Network Analyzer 
! Rohde-Schwarz,ZNB20-2Port,1311601062101988,3.16
! Created: UTC 3/20/2024, 10:55:03 PM
! freq[Hz]                re:S11                  im:S11                  re:S21                  im:S21                  re:S12                  im:S12                  re:S22                  im:S22
 6.457049772000000E9    -5.676487322620130E-1   -1.679565534004888E-1   -8.693507187598612E-3    3.305413054767437E-2   -7.065228322496104E-3    3.312875969442040E-2   -5.346726943132936E-1   -7.748631463473020E-2
 6.457061062975000E9    -5.678232116211168E-1   -1.670384645195677E-1   -8.797687424791346E-3    3.321970099947328E-2   -6.964211960389852E-3    3.334586652232908E-2   -5.347761150656183E-1   -7.631342267858775E-2
 6.457072353950000E9    -5.681015320294328E-1   -1.660898835316655E-1   -8.765994250900622E-3    3.347461020794133E-2   -6.869179330042762E-3    3.334710527349918E-2   -5.350539292778664E-1   -7.509343178409172E-2
 6.457083644925000E9    -5.683655040117139E-1   -1.652644796108691E-1   -8.688119940639860E-3    3.366018021650741E-2   -6.864074008665157E-3    3.363978921233078E-2   -5.353090456941937E-1   -7.384393743495099E-2
 6.457094935900000E9    -5.685206670237468E-1   -1.642880725201740E-1   -8.671464088561195E-3    3.384499138011194E-2   -6.802307645215982E-3    3.382565955129840E-2   -5.353637502623534E-1   -7.265825607507946E-2
 6.457106226875000E9    -5.688535959594482E-1   -1.633273500551579E-1   -8.657493550870934E-3    3.406943056967760E-2   -6.748803476526820E-3    3.402211414296462E-2   -5.355234853926052E-1   -7.153149193641908E-2
 6.457117517850000E9    -5.690929841060581E-1   -1.623152147554165E-1   -8.534886378030406E-3    3.417703333774812E-2   -6.826214352931226E-3    3.418910089475172E-2   -5.356531945475147E-1   -7.032675389975110E-2
 6.457128808825000E9    -5.694372125410389E-1   -1.614218748606515E-1   -8.647493886735974E-3    3.447504121054463E-2   -6.684174447505327E-3    3.438906054926114E-2   -5.357103621288303E-1   -6.911100332671291E-2
 6.457140099800000E9    -5.695372470615718E-1   -1.605960547368040E-1   -8.475100353627850E-3    3.468481219228599E-2   -6.678485031073756E-3    3.458716832794931E-2   -5.359575357859273E-1   -6.792817631568762E-2
 6.457151390775000E9    -5.698430924437035E-1   -1.595011122656273E-1   -8.565956391468852E-3    3.495043539256799E-2   -6.683156000775048E-3    3.470532723890912E-2   -5.361025564270512E-1   -6.669200067441955E-2
 6.457162681750000E9    -5.700665499394799E-1   -1.587004870496008E-1   -8.561079143601762E-3    3.509184683974646E-2   -6.604155181376653E-3    3.497798725785906E-2   -5.362630462205590E-1   -6.557893504286789E-2
 6.457173972725000E9    -5.703620101081501E-1   -1.576377263139122E-1   -8.398262160541226E-3    3.513286349215287E-2   -6.588968522099573E-3    3.517918609403965E-2   -5.364259579650404E-1   -6.436530382441463E-2
 6.457185263700000E9    -5.705606081664742E-1   -1.566603848426375E-1   -8.378656759697865E-3    3.562229902270607E-2   -6.596568741070605E-3    3.530237546590247E-2   -5.364918720884712E-1   -6.313994912090017E-2
 6.457196554675000E9    -5.707288973711918E-1   -1.557127533940411E-1   -8.422714865341675E-3    3.571520794205143E-2   -6.536608354145744E-3    3.553812008114409E-2   -5.365846028875348E-1   -6.200170471280046E-2
 6.457207845650000E9    -5.709820779925064E-1   -1.548301319944509E-1   -8.394549526519199E-3    3.591334699363195E-2   -6.507875983410768E-3    3.573062987280057E-2   -5.368130261942535E-1   -6.075050890897171E-2
 6.457219136625000E9    -5.712614024221425E-1   -1.537341691626300E-1   -8.285913070850236E-3    3.621357149354485E-2   -6.422088139495591E-3    3.596405897869781E-2   -5.369770646749804E-1   -5.941728869932777E-2
 6.457230427600000E9    -5.714962443214866E-1   -1.527818395461311E-1   -8.187809321089633E-3    3.631113137244997E-2   -6.440871682106888E-3    3.616912486291241E-2   -5.369731113171166E-1   -5.824477627217575E-2
 6.457241718575000E9    -5.717672886496382E-1   -1.519246625142764E-1   -8.252770468606266E-3    3.657398084744039E-2   -6.343140578240163E-3    3.644981200001390E-2   -5.371494469351642E-1   -5.684585954012636E-2
 6.457253009550000E9    -5.720161458630678E-1   -1.509570550169956E-1   -8.238558222974165E-3    3.667610887284322E-2   -6.292350204932969E-3    3.661277482048984E-2   -5.373120892581028E-1   -5.578886652619764E-2
 6.457264300525000E9    -5.721363013599867E-1   -1.500263094195375E-1   -8.221452564757177E-3    3.698686919260932E-2   -6.211284437838130E-3    3.687637932352890E-2   -5.374193201697137E-1   -5.439197149584363E-2
 6.457275591500000E9    -5.725216700859626E-1   -1.490066043437673E-1   -8.095132581216130E-3    3.722100550063803E-2   -6.163285667817819E-3    3.708625742475738E-2   -5.376169921810102E-1   -5.317967530137373E-2
 6.457286882475000E9    -5.725819115467710E-1   -1.480515818502139E-1   -8.033162593180610E-3    3.742168838245102E-2   -6.110288882020829E-3    3.731769800220803E-2   -5.376921882698269E-1   -5.197225657155431E-2
 6.457298173450000E9    -5.729923499472097E-1   -1.471313116803318E-1   -8.012837869564712E-3    3.769920148654523E-2   -6.123196196734488E-3    3.753569418780810E-2   -5.377157967100429E-1   -5.074539660490483E-2
 6.457309464425000E9    -5.732048681137548E-1   -1.461642218949377E-1   -8.014416097824781E-3    3.787981296963052E-2   -6.056851624071010E-3    3.775809429721066E-2   -5.378104939464469E-1   -4.941550206107521E-2
 6.457320755400000E9    -5.732052458063351E-1   -1.450963837823609E-1   -8.011297190679353E-3    3.809304172428942E-2   -5.907599144476487E-3    3.787507221965904E-2   -5.379170862193288E-1   -4.803986012182936E-2
 6.457332046375000E9    -5.734876855197394E-1   -1.441817163657233E-1   -7.889031939385168E-3    3.846822925072516E-2   -5.949240185731348E-3    3.821372235090102E-2   -5.380861851034391E-1   -4.678410324755743E-2
 6.457343337350000E9    -5.737652645801836E-1   -1.431921056147706E-1   -7.928764601782797E-3    3.864982009334073E-2   -5.934254083849492E-3    3.841372608970236E-2   -5.381674806312884E-1   -4.561738356216923E-2
 6.457354628325000E9    -5.739531379571283E-1   -1.422412796125705E-1   -7.878516572941953E-3    3.890345774698873E-2   -5.842503343136232E-3    3.861949876840419E-2   -5.382614462431984E-1   -4.444087566980651E-2
 6.457365919300000E9    -5.741865757650171E-1   -1.412436999624627E-1   -7.914350378734331E-3    3.910420847840020E-2   -5.740935848255992E-3    3.889298400741156E-2   -5.383262074311309E-1   -4.309332497453114E-2
 6.457377210275000E9    -5.743926289574636E-1   -1.402369917814343E-1   -7.769192983871352E-3    3.925104718964392E-2   -5.783986551855030E-3    3.913453912049539E-2   -5.384788068289637E-1   -4.170747367609797E-2
 6.457388501250000E9    -5.744394358439748E-1   -1.393057789467838E-1   -7.810221933335072E-3    3.957435088804720E-2   -5.702851415376227E-3    3.941939276598654E-2   -5.385323011243507E-1   -4.047955011348681E-2
 6.457399792225000E9    -5.748415863738812E-1   -1.383286279338135E-1   -7.665309429564521E-3    3.989677519756096E-2   -5.636784066917561E-3    3.965815019919991E-2   -5.386397836881180E-1   -3.903382708342717E-2
 6.457411083200000E9    -5.750093751171158E-1   -1.373211533405928E-1   -7.749156377702909E-3    4.000932805475242E-2   -5.627189454592283E-3    3.987309830487303E-2   -5.387431763102507E-1   -3.789348166601179E-2
 6.457422374175000E9    -5.753115883933798E-1   -1.363253915129270E-1   -7.536169507383667E-3    4.047858770515431E-2   -5.550854900092946E-3    4.009375804655569E-2   -5.386618315803297E-1   -3.647206700030191E-2
 6.457433665150000E9    -5.754071644956400E-1   -1.353372744302127E-1   -7.597767640992488E-3    4.071377973338356E-2   -5.385454176261020E-3    4.041071245393316E-2   -5.388820656049131E-1   -3.515405097269396E-2
 6.457444956125000E9    -5.756216184363192E-1   -1.343699522243570E-1   -7.563821316305426E-3    4.105355912526701E-2   -5.419197861094694E-3    4.062016903739368E-2   -5.389008740888446E-1   -3.378044705137955E-2
 6.457456247100000E9    -5.758140013098670E-1   -1.333835245752529E-1   -7.403639787648834E-3    4.119826100123015E-2   -5.445829705532240E-3    4.084538436764586E-2   -5.389190230012254E-1   -3.247770586006151E-2
 6.457467538075000E9    -5.760139549702621E-1   -1.323423071579425E-1   -7.446154557900818E-3    4.147465483229006E-2   -5.263483045146723E-3    4.117123235716547E-2   -5.390841461057043E-1   -3.109902372771941E-2
 6.457478829050000E9    -5.761782916288574E-1   -1.313808322038363E-1   -7.336167944174890E-3    4.177262122298632E-2   -5.189796271321236E-3    4.137649307178788E-2   -5.392487739792664E-1   -2.989187636659902E-2
 6.457490120025000E9    -5.763593341770472E-1   -1.303588811643367E-1   -7.380067685409442E-3    4.198297667836016E-2   -5.164137314866076E-3    4.174241496921141E-2   -5.390394493774761E-1   -2.844266743390735E-2
 6.457501411000000E9    -5.765448137206178E-1   -1.294004693503933E-1   -7.252828124742316E-3    4.228637745732194E-2   -5.001779939162175E-3    4.191146363222888E-2   -5.390408191521054E-1   -2.703555530819194E-2
 6.457512701975000E9    -5.767369535613777E-1   -1.283014637500322E-1   -7.217491914767985E-3    4.262123908976440E-2   -5.064425148151034E-3    4.226342639277988E-2   -5.391639247557354E-1   -2.572556084474668E-2
 6.457523992950000E9    -5.769728062683110E-1   -1.272025772877113E-1   -7.295031414168976E-3    4.290403232716233E-2   -4.948892062939068E-3    4.253445513573691E-2   -5.392795491815788E-1   -2.434149304604985E-2
 6.457535283925000E9    -5.771150579955385E-1   -1.262793166422288E-1   -7.017245677633283E-3    4.308191147502331E-2   -4.879227165095865E-3    4.283495686584721E-2   -5.393346623957678E-1   -2.295555135796960E-2
 6.457546574900000E9    -5.773026472622297E-1   -1.253736852831794E-1   -6.908213123214526E-3    4.354664431305758E-2   -4.756032546876684E-3    4.308466493349005E-2   -5.394471929774844E-1   -2.160570077098135E-2
 6.457557865875000E9    -5.775551387501840E-1   -1.243941798769222E-1   -6.973794534394393E-3    4.379476354933454E-2   -4.765051904050991E-3    4.336928887313903E-2   -5.394327856514103E-1   -2.014501080663327E-2
 6.457569156850000E9    -5.776813006373449E-1   -1.233407237576329E-1   -6.987495224215504E-3    4.402791487719012E-2   -4.619860515679137E-3    4.359150768472476E-2   -5.394727538115517E-1   -1.878533378071845E-2
 6.457580447825000E9    -5.778455528767609E-1   -1.223037809232403E-1   -6.855026692969256E-3    4.441319815337580E-2   -4.550099173195656E-3    4.392354962989946E-2   -5.394239003181160E-1   -1.743346360971890E-2
 6.457591738800000E9    -5.779927314811968E-1   -1.212312834253957E-1   -6.804096125573179E-3    4.458659383141023E-2   -4.557157990766629E-3    4.426717377843970E-2   -5.393745104190693E-1   -1.609083248439681E-2
 6.457603029775000E9    -5.782089319469093E-1   -1.203218274826336E-1   -6.765496655739983E-3    4.492187597619202E-2   -4.522659639222910E-3    4.461908517842593E-2   -5.394137513459643E-1   -1.458599553111201E-2
 6.457614320750000E9    -5.783685911546208E-1   -1.191669227526217E-1   -6.611968648725033E-3    4.523898304574820E-2   -4.313923928236550E-3    4.485555734782479E-2   -5.394238823339097E-1   -1.308555017634879E-2
 6.457625611725000E9    -5.785607246132181E-1   -1.182470373596388E-1   -6.534275871508642E-3    4.554792107086469E-2   -4.211342610626577E-3    4.520336134185286E-2   -5.393993147142611E-1   -1.180165205988228E-2
 6.457636902700000E9    -5.786584702306855E-1   -1.171788514072820E-1   -6.575700243438431E-3    4.591094070321641E-2   -4.228111345531371E-3    4.553003026147089E-2   -5.393788577613176E-1   -1.041221548961639E-2
 6.457648193675000E9    -5.788089785296552E-1   -1.161733438613793E-1   -6.488535469316060E-3    4.635487563587896E-2   -4.095370284730528E-3    4.581391424034219E-2   -5.394435219031166E-1   -8.834093872445867E-3
 6.457659484650000E9    -5.789773790188055E-1   -1.151101767392365E-1   -6.366542108249683E-3    4.661310516530136E-2   -3.990215367197103E-3    4.617901564376271E-2   -5.395184922354110E-1   -7.402612465885399E-3
 6.457670775625000E9    -5.792393820730162E-1   -1.140110027642589E-1   -6.309503316082834E-3    4.691648510547997E-2   -3.951350246926805E-3    4.648219380003848E-2   -5.394100835819562E-1   -5.960854472984465E-3
 6.457682066600000E9    -5.794292914407021E-1   -1.130292765565455E-1   -6.200859254254285E-3    4.734834984654877E-2   -3.782004489030169E-3    4.674482043858687E-2   -5.393662407555607E-1   -4.546133703858694E-3
 6.457693357575000E9    -5.794838231286156E-1   -1.119565362636031E-1   -6.156223289492919E-3    4.752582996526959E-2   -3.742572602336837E-3    4.714096618437889E-2   -5.393713051975770E-1   -2.920609922519492E-3
 6.457704648550000E9    -5.797428119487985E-1   -1.109156522716911E-1   -6.169478708965117E-3    4.811348122361619E-2   -3.673414819640383E-3    4.744076533100744E-2   -5.393834887171678E-1   -1.581595379226530E-3
 6.457715939525000E9    -5.798303892572673E-1   -1.100207311123692E-1   -6.018457851170206E-3    4.834276829089122E-2   -3.571396882426517E-3    4.777712945289862E-2   -5.394535852878914E-1   -8.029357676799536E-5
 6.457727230500000E9    -5.800333795776905E-1   -1.088325813117248E-1   -5.969984404020461E-3    4.860775911914459E-2   -3.515020453106187E-3    4.814523819452515E-2   -5.391981827502589E-1    1.339282574000523E-3
 6.457738521475000E9    -5.801169475687359E-1   -1.078145302900245E-1   -5.832974337125597E-3    4.914012834198620E-2   -3.424988455401207E-3    4.855519057128978E-2   -5.392441361873344E-1    3.090313412944420E-3
 6.457749812450000E9    -5.803178169086196E-1   -1.068219895058932E-1   -5.797619711747172E-3    4.936997564247540E-2   -3.262825437314075E-3    4.888643941101499E-2   -5.391078229970826E-1    4.519400056837582E-3
 6.457761103425000E9    -5.804212691705291E-1   -1.056964490083434E-1   -5.723789164065322E-3    4.988447824652524E-2   -3.144630033677737E-3    4.915387132869023E-2   -5.390404826413503E-1    6.075479649881039E-3
 6.457772394400000E9    -5.805899814412078E-1   -1.046995701747479E-1   -5.550527709495662E-3    5.006388464268359E-2   -3.032616039993007E-3    4.958691756548436E-2   -5.390674727033825E-1    7.612136325134810E-3
 6.457783685375000E9    -5.807647702102792E-1   -1.036169847072320E-1   -5.444353687627806E-3    5.055295062621043E-2   -2.941613078955754E-3    5.003994008330796E-2   -5.390772813842029E-1    9.039359813831223E-3
 6.457794976350000E9    -5.807795953592105E-1   -1.025537953501479E-1   -5.265639956327213E-3    5.093897619804157E-2   -2.867062609406928E-3    5.034062407318612E-2   -5.390707733614704E-1    1.075149424708862E-2
 6.457806267325000E9    -5.809012949299645E-1   -1.014787312520017E-1   -5.287313759148963E-3    5.135972977735220E-2   -2.628091750777153E-3    5.072415474340880E-2   -5.388567370817309E-1    1.236274074707848E-2
 6.457817558300000E9    -5.811899879584305E-1   -1.003967138697473E-1   -5.200615973123565E-3    5.180493178787551E-2   -2.648490946767012E-3    5.114297733711151E-2   -5.386901088885369E-1    1.389031742848405E-2
 6.457828849275000E9    -5.811666720933981E-1   -9.927859846223973E-2   -5.001491429918487E-3    5.231178377898486E-2   -2.381345978587673E-3    5.145223540077638E-2   -5.386612814888905E-1    1.550572889179854E-2
 6.457840140250000E9    -5.813602487910421E-1   -9.825735053302877E-2   -5.099597541712277E-3    5.266284552026523E-2   -2.366422628536289E-3    5.189860632339501E-2   -5.386852041009164E-1    1.695063794338572E-2
 6.457851431225000E9    -5.813871088292154E-1   -9.714566729778130E-2   -4.771049363969506E-3    5.318057739132156E-2   -2.194705173028792E-3    5.231438109180618E-2   -5.384507755792228E-1    1.870731428524362E-2
 6.457862722200000E9    -5.815659513676609E-1   -9.614101640052203E-2   -4.729047765630365E-3    5.340427857522383E-2   -2.112318228715185E-3    5.273538703896536E-2   -5.382584837687043E-1    2.036107094453653E-2
 6.457874013175000E9    -5.817031758378599E-1   -9.503310379816375E-2   -4.602240372387369E-3    5.387113360039351E-2   -2.003857354713307E-3    5.313079842032604E-2   -5.382778057131732E-1    2.193141904056342E-2
 6.457885304150000E9    -5.817480384634333E-1   -9.397545427138222E-2   -4.472206343730755E-3    5.419770340168367E-2   -1.770234913170918E-3    5.350092919824682E-2   -5.380658491251249E-1    2.364263467330147E-2
 6.457896595125000E9    -5.819344618149485E-1   -9.282324591441443E-2   -4.449718333617623E-3    5.473432521577917E-2   -1.722437898103750E-3    5.396406984696887E-2   -5.380004417126307E-1    2.528716749571534E-2
 6.457907886100000E9    -5.819846687332720E-1   -9.169353741083033E-2   -4.332676710885704E-3    5.528206777144958E-2   -1.607132067233363E-3    5.442838735491059E-2   -5.378209873392531E-1    2.694480081571943E-2
 6.457919177075000E9    -5.820815028461013E-1   -9.071411361374145E-2   -4.175467395408956E-3    5.562815874639682E-2   -1.444308791142405E-3    5.487384270229502E-2   -5.376988946241368E-1    2.855194024852205E-2
 6.457930468050000E9    -5.821289990707421E-1   -8.962127388900427E-2   -4.034824763298040E-3    5.611353136046038E-2   -1.319719364997025E-3    5.527935078263684E-2   -5.375064697326559E-1    3.021944663553710E-2
 6.457941759025000E9    -5.823061237832972E-1   -8.840506675299258E-2   -3.952922272700121E-3    5.659221012302421E-2   -1.034086668334506E-3    5.565728402488231E-2   -5.373742329600950E-1    3.190209265923596E-2
 6.457953050000000E9    -5.824536608848974E-1   -8.730889781032955E-2   -3.737882291506679E-3    5.698912180045643E-2   -1.007819409246989E-3    5.619088632990839E-2   -5.371556711561873E-1    3.352951096663520E-2
 6.457964340975000E9    -5.825211402637223E-1   -8.616285454821559E-2   -3.676179861545358E-3    5.755773153400369E-2   -8.318834816801543E-4    5.668080137967946E-2   -5.369395462139840E-1    3.543992640359108E-2
 6.457975631950000E9    -5.824903396373390E-1   -8.505557220631779E-2   -3.420126812973110E-3    5.806000944530498E-2   -6.353922945784772E-4    5.717184962166136E-2   -5.367840433507450E-1    3.715146056853708E-2
 6.457986922925000E9    -5.827266309194392E-1   -8.406009529841554E-2   -3.347632121409782E-3    5.853610822238207E-2   -4.179239697441925E-4    5.755982501877131E-2   -5.366179455913882E-1    3.891683364338763E-2
 6.457998213900000E9    -5.827421439584279E-1   -8.287417988100862E-2   -3.280855637508086E-3    5.898234195317911E-2   -3.725716523772798E-4    5.817361340789089E-2   -5.363738133801075E-1    4.071100774902259E-2
 6.458009504875000E9    -5.827916146651388E-1   -8.157312202484525E-2   -2.995392235831543E-3    5.966798392735374E-2   -1.872317718795378E-4    5.856176496748355E-2   -5.361901720953470E-1    4.245840897770494E-2
 6.458020795850000E9    -5.829467659343315E-1   -8.058720077059681E-2   -2.782491111761005E-3    6.014230304798633E-2   -5.634158644598607E-5    5.912428636618130E-2   -5.359480429325824E-1    4.430978990782741E-2
 6.458032086825000E9    -5.829798492214691E-1   -7.939626859577441E-2   -2.747283242689846E-3    6.057958097791899E-2    1.956516423814365E-4    5.964053708152799E-2   -5.356625503784713E-1    4.600425325951060E-2
 6.458043377800000E9    -5.831238341667719E-1   -7.828136928206700E-2   -2.533448745461837E-3    6.113275037614375E-2    3.879211510965916E-4    6.015864907123000E-2   -5.353761862642221E-1    4.792234865712915E-2
 6.458054668775000E9    -5.831391212166963E-1   -7.711306345962131E-2   -2.598143890476746E-3    6.160856741449554E-2    5.667601100807231E-4    6.066439260330267E-2   -5.353917211799500E-1    4.970554913487432E-2
 6.458065959750000E9    -5.832092574277138E-1   -7.601592853399972E-2   -2.138749928640816E-3    6.220364808014562E-2    7.786179404939824E-4    6.116636328827137E-2   -5.349482055094473E-1    5.157581068281071E-2
