#  HZ   S   RI   R     50.00 
! Rohde & Schwarz Vector Network Analyzer 
! Rohde-Schwarz,ZNB20-2Port,1311601062101988,3.16
! Created: UTC 3/20/2024, 10:55:10 PM
! freq[Hz]                re:S11                  im:S11                  re:S21                  im:S21                  re:S12                  im:S12                  re:S22                  im:S22
 6.457045618000000E9    -5.675242127196564E-1   -1.684403606299675E-1   -8.807420917502475E-3    3.316541044144147E-2   -6.990838600964352E-3    3.294031666502395E-2   -5.346327228097911E-1   -7.769748411626928E-2
 6.457056922675000E9    -5.677818566066435E-1   -1.673420709269266E-1   -8.716811058535704E-3    3.323306172124267E-2   -6.970366394944911E-3    3.324677174877685E-2   -5.347831510861778E-1   -7.665740913037944E-2
 6.457068227350000E9    -5.679143263949702E-1   -1.664456214934476E-1   -8.680987299488492E-3    3.334616478967296E-2   -6.879155077939078E-3    3.338081874274584E-2   -5.349406317839709E-1   -7.551771735903394E-2
 6.457079532025000E9    -5.682541449631940E-1   -1.655203013049488E-1   -8.666285472396179E-3    3.377684451780204E-2   -6.875804259087184E-3    3.358286352212279E-2   -5.352208496490440E-1   -7.414182490749591E-2
 6.457090836700000E9    -5.684354350735281E-1   -1.645703198122302E-1   -8.754067658171185E-3    3.383820845881890E-2   -6.865935591768979E-3    3.379646471627888E-2   -5.351888699410644E-1   -7.315267976906137E-2
 6.457102141375000E9    -5.687587244646504E-1   -1.636725524960871E-1   -8.519958293953567E-3    3.403881766307971E-2   -6.802393050100336E-3    3.395535478672998E-2   -5.355192898429331E-1   -7.193429433280882E-2
 6.457113446050000E9    -5.689917268205686E-1   -1.626883079194772E-1   -8.513506101263977E-3    3.430033175214507E-2   -6.761064514418846E-3    3.408566050955868E-2   -5.355274949371023E-1   -7.074887424808163E-2
 6.457124750725000E9    -5.691900802931914E-1   -1.617576902252100E-1   -8.662572805064262E-3    3.432884774465211E-2   -6.702414387046138E-3    3.438753277672744E-2   -5.357197561822583E-1   -6.962441671874599E-2
 6.457136055400000E9    -5.694825207105514E-1   -1.608750316575682E-1   -8.492184579135212E-3    3.451332469457524E-2   -6.663144740704904E-3    3.457796759950240E-2   -5.359691518857924E-1   -6.823503570365447E-2
 6.457147360075000E9    -5.697871815712195E-1   -1.599115832643533E-1   -8.544511791587460E-3    3.491773441021101E-2   -6.705681354529320E-3    3.475084979487487E-2   -5.359184969246329E-1   -6.711895930650302E-2
 6.457158664750000E9    -5.700113348578245E-1   -1.590162016191281E-1   -8.411391218515755E-3    3.500971139004758E-2   -6.643371128523207E-3    3.493993450797981E-2   -5.361681775240676E-1   -6.589576709360796E-2
 6.457169969425000E9    -5.703059065792225E-1   -1.578708625452258E-1   -8.512022727640456E-3    3.516792897539939E-2   -6.624329016228738E-3    3.508391471249445E-2   -5.363201990367251E-1   -6.462849879493865E-2
 6.457181274100000E9    -5.704848157760558E-1   -1.569370464293775E-1   -8.606352418056181E-3    3.543468566361669E-2   -6.506844541074187E-3    3.528882223164408E-2   -5.366214862715162E-1   -6.347186280462712E-2
 6.457192578775000E9    -5.707069933134874E-1   -1.559525436282007E-1   -8.359149100385335E-3    3.562563122722565E-2   -6.516997562211071E-3    3.546883833728313E-2   -5.365066091258434E-1   -6.225356116198447E-2
 6.457203883450000E9    -5.708982233390011E-1   -1.551409808818880E-1   -8.397945681069632E-3    3.574723292738399E-2   -6.491372205763718E-3    3.568098735059225E-2   -5.367006358113214E-1   -6.105045932515045E-2
 6.457215188125000E9    -5.711594123713296E-1   -1.540869485016335E-1   -8.290845271105124E-3    3.597463911736119E-2   -6.418540431125420E-3    3.588212013475380E-2   -5.368838864107045E-1   -5.983892472161206E-2
 6.457226492800000E9    -5.713872308693972E-1   -1.532036962520123E-1   -8.291830860522108E-3    3.631639481452336E-2   -6.321643522692448E-3    3.608218883914082E-2   -5.368602964756498E-1   -5.853601122048079E-2
 6.457237797475000E9    -5.716024107581551E-1   -1.522059320953950E-1   -8.307622747172328E-3    3.641876131930993E-2   -6.242107525811314E-3    3.629853364941619E-2   -5.369453216053397E-1   -5.721890792357837E-2
 6.457249102150000E9    -5.718581217886066E-1   -1.511628681965344E-1   -8.235369046184002E-3    3.669438560018862E-2   -6.299849147026441E-3    3.654704898583500E-2   -5.372585742286736E-1   -5.603269255998816E-2
 6.457260406825000E9    -5.721903636525167E-1   -1.502768864202398E-1   -8.265937998011001E-3    3.697014399145814E-2   -6.296733909350318E-3    3.682433109502895E-2   -5.372263377565568E-1   -5.472058682899813E-2
 6.457271711500000E9    -5.723187383824353E-1   -1.492316814051447E-1   -8.159083560006743E-3    3.714728706425349E-2   -6.128182802951351E-3    3.700470514093780E-2   -5.375100596337296E-1   -5.361923448634287E-2
 6.457283016175000E9    -5.725476536492942E-1   -1.483004677056753E-1   -8.162741100776132E-3    3.736567666629406E-2   -6.142819015601449E-3    3.722678144158846E-2   -5.375076606262765E-1   -5.238062450552757E-2
 6.457294320850000E9    -5.727676785932215E-1   -1.474131903450973E-1   -8.047437748046306E-3    3.768851779797695E-2   -6.178449263206729E-3    3.747338671223577E-2   -5.377401502520922E-1   -5.115015188923045E-2
 6.457305625525000E9    -5.730795880309828E-1   -1.465031891054018E-1   -8.034469655403820E-3    3.791951510150973E-2   -6.068430619973842E-3    3.770471791546225E-2   -5.377646408901462E-1   -4.969710392265030E-2
 6.457316930200000E9    -5.732542508798477E-1   -1.454054153147073E-1   -8.081042638740699E-3    3.802901243600253E-2   -6.082966530623455E-3    3.790454956453614E-2   -5.378717339335097E-1   -4.863140117512935E-2
 6.457328234875000E9    -5.734285056177578E-1   -1.445022664909096E-1   -7.968830433400463E-3    3.817021830467537E-2   -6.070396006253038E-3    3.806079182800046E-2   -5.380122219738711E-1   -4.722415789754752E-2
 6.457339539550000E9    -5.737057055744869E-1   -1.434524251144016E-1   -7.901011889082845E-3    3.867979824472841E-2   -5.939483218535230E-3    3.833535384913803E-2   -5.380821763114567E-1   -4.605736466854680E-2
 6.457350844225000E9    -5.738012432868979E-1   -1.424644761002182E-1   -7.876064763057631E-3    3.886712524120579E-2   -5.924999390592842E-3    3.863150222082708E-2   -5.382067844719823E-1   -4.465610496644593E-2
 6.457362148900000E9    -5.740480911669958E-1   -1.414962788463580E-1   -7.909526063984904E-3    3.916773192857858E-2   -5.803777309317934E-3    3.883304287312996E-2   -5.382455491997187E-1   -4.332852659394556E-2
 6.457373453575000E9    -5.743517177675170E-1   -1.405620073249300E-1   -7.776631663062404E-3    3.924480234848111E-2   -5.768527984438500E-3    3.905861999173021E-2   -5.383704857356814E-1   -4.214695155754256E-2
 6.457384758250000E9    -5.744934905945382E-1   -1.396062510885593E-1   -7.795052283697760E-3    3.959082667605697E-2   -5.728735655216120E-3    3.934416379791074E-2   -5.383768882612207E-1   -4.082705983639057E-2
 6.457396062925000E9    -5.745848302125475E-1   -1.385789828522715E-1   -7.759557801546824E-3    3.966730844769054E-2   -5.688812783652690E-3    3.949440923815204E-2   -5.385288087923867E-1   -3.957960821504408E-2
 6.457407367600000E9    -5.749020870022280E-1   -1.377186734907177E-1   -7.756188406057488E-3    4.009069245550916E-2   -5.578104680271075E-3    3.969397327487609E-2   -5.385947554625236E-1   -3.819389608059939E-2
 6.457418672275000E9    -5.751974289722991E-1   -1.366559062312884E-1   -7.591391955627550E-3    4.037251280118027E-2   -5.466840498108730E-3    4.006974595287689E-2   -5.386193602143003E-1   -3.681775011804958E-2
 6.457429976950000E9    -5.752556601242035E-1   -1.356154635540262E-1   -7.563267199641712E-3    4.066206271662727E-2   -5.367802536991934E-3    4.035193722735080E-2   -5.386864841275878E-1   -3.564294704620659E-2
 6.457441281625000E9    -5.755398842440205E-1   -1.345989462133313E-1   -7.518657452208679E-3    4.089370787538173E-2   -5.458451172605367E-3    4.062556013641661E-2   -5.388103290891167E-1   -3.426989936452352E-2
 6.457452586300000E9    -5.756962420022848E-1   -1.336006949651700E-1   -7.562730914925732E-3    4.117342243228240E-2   -5.390542551439000E-3    4.074916686801386E-2   -5.388856382116480E-1   -3.277292835726158E-2
 6.457463890975000E9    -5.759607018369047E-1   -1.325437115924814E-1   -7.318208764058812E-3    4.141014037308678E-2   -5.356053794068290E-3    4.117300400242700E-2   -5.389352532127061E-1   -3.154410625687998E-2
 6.457475195650000E9    -5.760664037580906E-1   -1.315724955661986E-1   -7.415505574173514E-3    4.176197008018386E-2   -5.199021915132915E-3    4.135424783743257E-2   -5.390073460915631E-1   -3.016340005846320E-2
 6.457486500325000E9    -5.763856309556995E-1   -1.307115710636259E-1   -7.363033486602351E-3    4.185790468817897E-2   -5.168874363280171E-3    4.169398204951174E-2   -5.390236491494930E-1   -2.887001828261711E-2
 6.457497805000000E9    -5.765600558224383E-1   -1.296112394980997E-1   -7.273868442524404E-3    4.229047452776857E-2   -5.006392115817938E-3    4.193178380628116E-2   -5.392871131678295E-1   -2.758221627768969E-2
 6.457509109675000E9    -5.766751679375184E-1   -1.286748274378192E-1   -7.219767880326085E-3    4.259634281369217E-2   -4.990509133500309E-3    4.216813582792617E-2   -5.390420403064924E-1   -2.610039686370857E-2
 6.457520414350000E9    -5.769287053296832E-1   -1.276534372169076E-1   -7.184027780946074E-3    4.281718193875942E-2   -5.016782029636464E-3    4.243139264009125E-2   -5.391675032745169E-1   -2.479671717682532E-2
 6.457531719025000E9    -5.769604877545561E-1   -1.265584082809375E-1   -7.164636012958195E-3    4.307758719500202E-2   -4.855897855296392E-3    4.276623781754067E-2   -5.393336421900821E-1   -2.338326748653264E-2
 6.457543023700000E9    -5.773728821974433E-1   -1.256640496449959E-1   -7.131334252535747E-3    4.340083705333471E-2   -4.835741050325188E-3    4.304176917261999E-2   -5.392293454855475E-1   -2.198095819635340E-2
 6.457554328375000E9    -5.774101204742744E-1   -1.245139505131450E-1   -7.046677237481364E-3    4.374926400392316E-2   -4.731443794134293E-3    4.335040078539461E-2   -5.392572661395457E-1   -2.066393308424054E-2
 6.457565633050000E9    -5.776383667483377E-1   -1.236817364563790E-1   -6.854019706979046E-3    4.399295947370235E-2   -4.805020930350962E-3    4.356590711058671E-2   -5.392156143024913E-1   -1.914098736974603E-2
 6.457576937725000E9    -5.777880856538743E-1   -1.225614584433095E-1   -6.952887945548666E-3    4.432214809820138E-2   -4.611564735582790E-3    4.388001001909148E-2   -5.393956557543131E-1   -1.782634919493463E-2
 6.457588242400000E9    -5.779754093736408E-1   -1.215648705360417E-1   -6.807658471433263E-3    4.475068421153359E-2   -4.515709714618345E-3    4.421805449135396E-2   -5.395299713077234E-1   -1.642318112973566E-2
 6.457599547075000E9    -5.780561475784043E-1   -1.204846292963699E-1   -6.736333025809422E-3    4.485869414111031E-2   -4.468525591646444E-3    4.451658480833980E-2   -5.392968023870409E-1   -1.505980548082977E-2
 6.457610851750000E9    -5.783707285057740E-1   -1.195403255866947E-1   -6.624230656154818E-3    4.517763109366905E-2   -4.445732055272105E-3    4.478724589262721E-2   -5.393929982236161E-1   -1.359299216160711E-2
 6.457622156425000E9    -5.784732921245848E-1   -1.184841229586025E-1   -6.551323293461290E-3    4.561146554603712E-2   -4.346310477527176E-3    4.511642430632518E-2   -5.395095235267888E-1   -1.215797914059562E-2
 6.457633461100000E9    -5.786988835825927E-1   -1.175631726939900E-1   -6.622465753196971E-3    4.580316848810672E-2   -4.247096419275753E-3    4.545577256158945E-2   -5.393621321894464E-1   -1.074082745849441E-2
 6.457644765775000E9    -5.789072697706684E-1   -1.164985194360175E-1   -6.430592206372596E-3    4.624335466104946E-2   -4.152397108667290E-3    4.567473015948995E-2   -5.393028034275975E-1   -9.449713656387110E-3
 6.457656070450000E9    -5.789533722539096E-1   -1.154749900875096E-1   -6.490781597123075E-3    4.651378096428222E-2   -4.070544829971726E-3    4.600127090910563E-2   -5.392790117268974E-1   -7.872937942133862E-3
 6.457667375125000E9    -5.791437839049278E-1   -1.142987923891662E-1   -6.354852556029048E-3    4.686579574165241E-2   -4.012764670513378E-3    4.639351434054004E-2   -5.392231955862156E-1   -6.335746361924926E-3
 6.457678679800000E9    -5.793273285477460E-1   -1.132666933248379E-1   -6.163266832450028E-3    4.730817788094720E-2   -3.834862890050103E-3    4.664993691620743E-2   -5.393773206906640E-1   -4.876785453141989E-3
 6.457689984475000E9    -5.794934572142848E-1   -1.122893237555968E-1   -6.248199786408895E-3    4.758839514966932E-2   -3.757415903672107E-3    4.711642420131975E-2   -5.392817852208562E-1   -3.494518077914128E-3
 6.457701289150000E9    -5.796098277964379E-1   -1.113050554758179E-1   -6.041485041647774E-3    4.799007049762766E-2   -3.663448682558325E-3    4.733711870981144E-2   -5.393610809904310E-1   -1.787413404738414E-3
 6.457712593825000E9    -5.796616988131418E-1   -1.101808241241196E-1   -6.010143233882206E-3    4.820333252921603E-2   -3.620538266564566E-3    4.773186847693822E-2   -5.392957923981815E-1   -4.140291677799150E-4
 6.457723898500000E9    -5.799474912853441E-1   -1.091746097849894E-1   -5.987502587974156E-3    4.859065372082605E-2   -3.513114094571676E-3    4.807062521853000E-2   -5.391552844528742E-1    1.110869836538388E-3
 6.457735203175000E9    -5.801603401780283E-1   -1.081578015171190E-1   -5.835213411713806E-3    4.901162761556015E-2   -3.449943112595535E-3    4.841408508401004E-2   -5.392660348378236E-1    2.601379202391308E-3
 6.457746507850000E9    -5.800804791706057E-1   -1.070229535931436E-1   -5.876756306759089E-3    4.936640502847812E-2   -3.274976064021666E-3    4.879310429277495E-2   -5.391230162238363E-1    4.027837900797811E-3
 6.457757812525000E9    -5.802473615805656E-1   -1.059190120448911E-1   -5.790151552824810E-3    4.983269096378040E-2   -3.210852624788272E-3    4.917077138031349E-2   -5.390734067625202E-1    5.610960016728405E-3
 6.457769117200000E9    -5.804699042850139E-1   -1.049137614660311E-1   -5.440391173184161E-3    5.019104801854558E-2   -3.146659466149736E-3    4.956212212896959E-2   -5.391168827963134E-1    7.208099273708021E-3
 6.457780421875000E9    -5.806214847533676E-1   -1.038677136488016E-1   -5.560343328984766E-3    5.050777353298645E-2   -3.029613336527489E-3    4.995635143155671E-2   -5.389461272486293E-1    8.759549265238259E-3
 6.457791726550000E9    -5.807205840492190E-1   -1.027077101985625E-1   -5.373438180799153E-3    5.091655632790766E-2   -2.858924496059217E-3    5.021114321621314E-2   -5.388924358887459E-1    1.031025742245280E-2
 6.457803031225000E9    -5.808178152100004E-1   -1.017105348929067E-1   -5.242876081514447E-3    5.131784164747694E-2   -2.791055472284023E-3    5.065585429763527E-2   -5.389890506125532E-1    1.193394024049379E-2
 6.457814335900000E9    -5.809340619001865E-1   -1.006325489477830E-1   -5.263279361335513E-3    5.166802150148542E-2   -2.580084238944057E-3    5.098163907328292E-2   -5.387860374515477E-1    1.356642199725710E-2
 6.457825640575000E9    -5.811227067115170E-1   -9.963869128837523E-2   -5.107953641194304E-3    5.200766406710271E-2   -2.405476231027799E-3    5.138025192646030E-2   -5.386378328797103E-1    1.519464999549114E-2
 6.457836945250000E9    -5.813054263656460E-1   -9.841880942148777E-2   -5.017991934838334E-3    5.253429444561655E-2   -2.426209790208839E-3    5.188946259804837E-2   -5.384474007632127E-1    1.663757266021313E-2
 6.457848249925000E9    -5.813228322574880E-1   -9.743539726858745E-2   -4.900305857918494E-3    5.292546200168657E-2   -2.261047057729245E-3    5.220060780392716E-2   -5.384763506562821E-1    1.828381356973369E-2
 6.457859554600000E9    -5.814823485115533E-1   -9.636453386987713E-2   -4.943591392641846E-3    5.340873480863944E-2   -2.065530362469371E-3    5.280767077032046E-2   -5.383049900389127E-1    1.985374544150691E-2
 6.457870859275000E9    -5.815398876231487E-1   -9.533013944497783E-2   -4.668800459275899E-3    5.366813075492569E-2   -2.016145376763547E-3    5.304552809333812E-2   -5.381914922053362E-1    2.149949689821158E-2
 6.457882163950000E9    -5.817404311582707E-1   -9.413754305852998E-2   -4.663385528202406E-3    5.430433020228397E-2   -1.819936165127488E-3    5.347446601799007E-2   -5.381449746536935E-1    2.312997552126915E-2
 6.457893468625000E9    -5.818766038774079E-1   -9.311922516966507E-2   -4.452645437001017E-3    5.464055398596494E-2   -1.761607205661107E-3    5.394566632156811E-2   -5.380513920411488E-1    2.478060845925844E-2
 6.457904773300000E9    -5.819169607288003E-1   -9.208617307903035E-2   -4.340610079062343E-3    5.499833538250398E-2   -1.555771803614325E-3    5.430577734766960E-2   -5.379422378720238E-1    2.637656870328434E-2
 6.457916077975000E9    -5.820413165117680E-1   -9.092652820671790E-2   -4.177334916920977E-3    5.557783524560766E-2   -1.479972331746888E-3    5.478480608241947E-2   -5.375823278483663E-1    2.801568245254378E-2
 6.457927382650000E9    -5.821566000100133E-1   -8.979522552058122E-2   -3.952252291521687E-3    5.596596780280617E-2   -1.315226515396451E-3    5.521749288713537E-2   -5.374876657183975E-1    2.979614365534090E-2
 6.457938687325000E9    -5.822254190291072E-1   -8.866542382273065E-2   -3.994359929784994E-3    5.642031199519185E-2   -1.231616956292391E-3    5.566936595365302E-2   -5.373136756452340E-1    3.149526511910006E-2
 6.457949992000000E9    -5.823511614489313E-1   -8.752574504510688E-2   -3.759892296653798E-3    5.708869989707294E-2   -1.006996265390133E-3    5.607327611862521E-2   -5.371138680483015E-1    3.322218272401681E-2
 6.457961296675000E9    -5.823756531556392E-1   -8.642974465158801E-2   -3.634063479307799E-3    5.737629928346531E-2   -8.308135039190211E-4    5.657743908069814E-2   -5.369558985043045E-1    3.507883625482327E-2
 6.457972601350000E9    -5.825333510019121E-1   -8.527022220904733E-2   -3.507056668425843E-3    5.782142512597166E-2   -6.848270092642568E-4    5.698631153321800E-2   -5.368738714200301E-1    3.671814387831963E-2
 6.457983906025000E9    -5.826166450437970E-1   -8.427504374114769E-2   -3.375290098866227E-3    5.850378900177765E-2   -5.631205409029714E-4    5.750703620588678E-2   -5.366517089603630E-1    3.843247190907937E-2
 6.457995210700000E9    -5.827391183325761E-1   -8.306675654732960E-2   -3.205669441334226E-3    5.896032966732800E-2   -3.205376268915478E-4    5.806863395961642E-2   -5.365184508670652E-1    4.031701913869699E-2
 6.458006515375000E9    -5.828158472091041E-1   -8.203413173645749E-2   -3.042519909998759E-3    5.937397894041867E-2   -2.711735279743678E-4    5.850139551163142E-2   -5.362724107421212E-1    4.205074045142102E-2
 6.458017820050000E9    -5.828731019147527E-1   -8.082045585173665E-2   -2.914425635245961E-3    6.000918124032967E-2    1.308780349135569E-5    5.901308836886288E-2   -5.359295868329116E-1    4.395438702095946E-2
 6.458029124725000E9    -5.829565183630004E-1   -7.965967557770606E-2   -2.792544756773312E-3    6.053478576535158E-2    1.789150491198349E-4    5.948302761496500E-2   -5.357925265559728E-1    4.568860315224407E-2
 6.458040429400000E9    -5.830651666383834E-1   -7.858208326688813E-2   -2.543477115438492E-3    6.106933885345238E-2    3.966603171000620E-4    5.999745097452244E-2   -5.354794323886265E-1    4.749978122021464E-2
 6.458051734075000E9    -5.830417609765691E-1   -7.733667351010760E-2   -2.437189225550391E-3    6.156557221301572E-2    5.593607521840778E-4    6.057892939004138E-2   -5.352624078490069E-1    4.940041487845952E-2
 6.458063038750000E9    -5.831311335325624E-1   -7.618646676813987E-2   -2.190846159098367E-3    6.215770732412829E-2    7.100778631342960E-4    6.110923245970688E-2   -5.349979797562007E-1    5.124286714078786E-2
