#  HZ   S   RI   R     50.00 
! Rohde & Schwarz Vector Network Analyzer 
! Rohde-Schwarz,ZNB20-2Port,1311601062101988,3.16
! Created: UTC 3/20/2024, 10:55:25 PM
! freq[Hz]                re:S11                  im:S11                  re:S21                  im:S21                  re:S12                  im:S12                  re:S22                  im:S22
 6.457042043000000E9    -5.674278213178634E-1   -1.686316199145352E-1   -8.662211201466248E-3    3.302093805046600E-2   -6.989369672471202E-3    3.304041771430257E-2   -5.345900315785599E-1   -7.830109708471002E-2
 6.457053353800000E9    -5.677184670908582E-1   -1.677738370068470E-1   -8.772583879101896E-3    3.336330359117891E-2   -6.953455543642295E-3    3.312188958353069E-2   -5.347611724071554E-1   -7.709131205248765E-2
 6.457064664600000E9    -5.679269900194284E-1   -1.667429986326747E-1   -8.667018432699906E-3    3.342787561336056E-2   -7.016409100996843E-3    3.337492252416326E-2   -5.348589843748806E-1   -7.600423676592183E-2
 6.457075975400000E9    -5.683168388481815E-1   -1.657941203895145E-1   -8.626124153889915E-3    3.371611729787693E-2   -6.913489873834105E-3    3.352028181209066E-2   -5.349326173199878E-1   -7.465386124887211E-2
 6.457087286200000E9    -5.683031690567023E-1   -1.648650643237555E-1   -8.700712149219475E-3    3.387232898914711E-2   -6.819379541988353E-3    3.369802008146747E-2   -5.351470432035199E-1   -7.351190989850312E-2
 6.457098597000000E9    -5.686259516799350E-1   -1.639270212473982E-1   -8.753445576956675E-3    3.392507162116019E-2   -6.787848058676099E-3    3.395482111571684E-2   -5.353952354877586E-1   -7.229598092041135E-2
 6.457109907800000E9    -5.689296166299491E-1   -1.629522302724951E-1   -8.524772085258909E-3    3.423668258241180E-2   -6.738178894513497E-3    3.410919389584832E-2   -5.354592937412488E-1   -7.104936572988847E-2
 6.457121218600000E9    -5.691502353528068E-1   -1.620090893752324E-1   -8.712797174280952E-3    3.436884949969195E-2   -6.753326787009515E-3    3.437731806906182E-2   -5.356255862850210E-1   -6.988671725888147E-2
 6.457132529400000E9    -5.694021292739561E-1   -1.611066259731061E-1   -8.615401091949304E-3    3.458038625330799E-2   -6.765483781358517E-3    3.447822133924511E-2   -5.357294148038928E-1   -6.863907879085390E-2
 6.457143840200000E9    -5.697342197854990E-1   -1.601792036114033E-1   -8.589306991564277E-3    3.486726432786844E-2   -6.751654570689512E-3    3.472790804826646E-2   -5.360836156066228E-1   -6.752469366042446E-2
 6.457155151000000E9    -5.699995939095851E-1   -1.590911319887299E-1   -8.544796893726407E-3    3.507976690267902E-2   -6.652068878570426E-3    3.489637664398967E-2   -5.360808506219431E-1   -6.625627619153471E-2
 6.457166461800000E9    -5.701530669970852E-1   -1.582125358868411E-1   -8.495774197730739E-3    3.510612192371860E-2   -6.618384564531439E-3    3.504824957029627E-2   -5.362263279027116E-1   -6.497448539715431E-2
 6.457177772600000E9    -5.702714654828387E-1   -1.574098700791437E-1   -8.512467415775897E-3    3.536856150124561E-2   -6.563021753459031E-3    3.528541077198640E-2   -5.363079656625004E-1   -6.374968583311207E-2
 6.457189083400000E9    -5.706608335436942E-1   -1.562501631964339E-1   -8.321208371573742E-3    3.555509414287546E-2   -6.581518380711375E-3    3.544403337185160E-2   -5.365519029062752E-1   -6.266555494379918E-2
 6.457200394200000E9    -5.708620629722050E-1   -1.553391198373531E-1   -8.439497957014912E-3    3.581023083221203E-2   -6.409222112742343E-3    3.583217127793777E-2   -5.365379761830390E-1   -6.141994255302354E-2
 6.457211705000000E9    -5.711267689981441E-1   -1.544223066965831E-1   -8.327424348455251E-3    3.601583925012476E-2   -6.451912282875895E-3    3.588725285999762E-2   -5.367818823701784E-1   -6.012027126020662E-2
 6.457223015800000E9    -5.713566363206313E-1   -1.533661282554807E-1   -8.353623488587812E-3    3.615866479782028E-2   -6.376866420188364E-3    3.613921105599490E-2   -5.370330637997650E-1   -5.902374705896890E-2
 6.457234326600000E9    -5.716742674969837E-1   -1.524778842782726E-1   -8.202807689011561E-3    3.643424274844966E-2   -6.304392101150130E-3    3.639089921308994E-2   -5.370848868592211E-1   -5.772829166134491E-2
 6.457245637400000E9    -5.718300802622308E-1   -1.515417460239011E-1   -8.272031985876619E-3    3.665662524086454E-2   -6.393144253338956E-3    3.654921700266773E-2   -5.371343320486551E-1   -5.646987297211725E-2
 6.457256948200000E9    -5.719428685041281E-1   -1.505588678422859E-1   -8.227738572242807E-3    3.700300315811377E-2   -6.331941729332513E-3    3.672988375265430E-2   -5.371275468893243E-1   -5.523848878375218E-2
 6.457268259000000E9    -5.722010685016722E-1   -1.495043628661819E-1   -8.232756340091022E-3    3.714927491786674E-2   -6.248610348336886E-3    3.704875069155628E-2   -5.374240756358503E-1   -5.399245935136635E-2
 6.457279569800000E9    -5.724702124495220E-1   -1.486060580615079E-1   -8.224097522712739E-3    3.732850290107920E-2   -6.133322168838873E-3    3.718179276522851E-2   -5.375211214102462E-1   -5.274859515448146E-2
 6.457290880600000E9    -5.726382319961325E-1   -1.476568309883597E-1   -8.079672544931388E-3    3.767342168479942E-2   -6.171687627191363E-3    3.743162799509425E-2   -5.376631927823462E-1   -5.149502847189113E-2
 6.457302191400000E9    -5.729870705684338E-1   -1.466524094355010E-1   -7.964790848791948E-3    3.789532160760613E-2   -6.024859951952579E-3    3.766880378844054E-2   -5.376861824852120E-1   -5.010316133667417E-2
 6.457313502200000E9    -5.732058900827980E-1   -1.457713190434017E-1   -8.019831916224908E-3    3.809450338430079E-2   -6.006067010014655E-3    3.787394756935566E-2   -5.378019367741397E-1   -4.887055903936659E-2
 6.457324813000000E9    -5.734129177921666E-1   -1.447592459351180E-1   -7.984478691302704E-3    3.837349851364232E-2   -5.905039968263924E-3    3.805311631106896E-2   -5.379506135901557E-1   -4.753478357249188E-2
 6.457336123800000E9    -5.736546997146957E-1   -1.437957014762593E-1   -7.883257433870878E-3    3.861285403691406E-2   -5.887740715627007E-3    3.834257941265080E-2   -5.380859672905357E-1   -4.626734880828016E-2
 6.457347434600000E9    -5.738584325887501E-1   -1.428920214260076E-1   -7.975679901921625E-3    3.882589761206676E-2   -5.861516045023923E-3    3.862181792117902E-2   -5.382154409878493E-1   -4.511748405292404E-2
 6.457358745400000E9    -5.740531591504520E-1   -1.417330606793419E-1   -7.919903293652905E-3    3.886598835902347E-2   -5.875319117385299E-3    3.876839460412834E-2   -5.383375676846077E-1   -4.367268804958786E-2
 6.457370056200000E9    -5.742234118837525E-1   -1.408479015958144E-1   -7.971430966517406E-3    3.937032840190562E-2   -5.719938871454471E-3    3.904197373041020E-2   -5.383931341266689E-1   -4.242586326623982E-2
 6.457381367000000E9    -5.744200731022834E-1   -1.398560609100555E-1   -7.833493498129914E-3    3.947945886814491E-2   -5.769169476268954E-3    3.923438565466639E-2   -5.383665031228511E-1   -4.123398030355717E-2
 6.457392677800000E9    -5.746915403737058E-1   -1.389124304650227E-1   -7.698479782354543E-3    3.977997833454604E-2   -5.665375097978994E-3    3.956748620948991E-2   -5.384644977076382E-1   -3.977005569212960E-2
 6.457403988600000E9    -5.749222992459954E-1   -1.378288108611013E-1   -7.803361341834186E-3    4.002856893587895E-2   -5.599524442606131E-3    3.981858662093812E-2   -5.385578546087186E-1   -3.858557348049227E-2
 6.457415299400000E9    -5.750715150530764E-1   -1.368548231332411E-1   -7.690440763354379E-3    4.040916006715043E-2   -5.623783945984427E-3    4.009909829637268E-2   -5.385911243353991E-1   -3.723703764851910E-2
 6.457426610200000E9    -5.753943158356293E-1   -1.359487492570700E-1   -7.557801213584118E-3    4.059975324559648E-2   -5.500793745379969E-3    4.024161287692250E-2   -5.387000281407589E-1   -3.590459343400766E-2
 6.457437921000000E9    -5.753888824658708E-1   -1.349681641152089E-1   -7.552713562798555E-3    4.079745402117625E-2   -5.412641623097777E-3    4.052648655734284E-2   -5.387818391664188E-1   -3.453982532249659E-2
 6.457449231800000E9    -5.756213441875739E-1   -1.338427978233216E-1   -7.563045509135705E-3    4.119800039318233E-2   -5.432663993683187E-3    4.084160965681569E-2   -5.388643698573793E-1   -3.322324509899252E-2
 6.457460542600000E9    -5.758123202140631E-1   -1.328408041209450E-1   -7.475963262799495E-3    4.141026924956105E-2   -5.292312778085806E-3    4.107320668621778E-2   -5.388709993399519E-1   -3.183644568970613E-2
 6.457471853400000E9    -5.761161106703225E-1   -1.319426074950459E-1   -7.469995291536360E-3    4.172145145685190E-2   -5.300116560509411E-3    4.135910442897132E-2   -5.388416029458550E-1   -3.062728073646601E-2
 6.457483164200000E9    -5.762614151687765E-1   -1.309322287038730E-1   -7.254947190118453E-3    4.187306183311160E-2   -5.162847501426791E-3    4.162823916695706E-2   -5.390393320032058E-1   -2.917107681417310E-2
 6.457494475000000E9    -5.763880205368042E-1   -1.298567319831742E-1   -7.222374508977209E-3    4.213947462043059E-2   -5.073784107209091E-3    4.190538305100940E-2   -5.391747880943480E-1   -2.784395465447757E-2
 6.457505785800000E9    -5.765742725654790E-1   -1.288543522044892E-1   -7.309667286505589E-3    4.249480969288007E-2   -5.110743095330532E-3    4.210189604770775E-2   -5.389895340682069E-1   -2.642302146396433E-2
 6.457517096600000E9    -5.768891924674110E-1   -1.279397507938926E-1   -7.092315379170312E-3    4.277982972131965E-2   -5.007248094823754E-3    4.243081493810186E-2   -5.391198077633444E-1   -2.512917204433176E-2
 6.457528407400000E9    -5.770964239412694E-1   -1.268573318953604E-1   -7.090306248155428E-3    4.308534042434498E-2   -4.901519138700416E-3    4.267863293158271E-2   -5.390681854163057E-1   -2.368421136969377E-2
 6.457539718200000E9    -5.772003720693129E-1   -1.259102512660729E-1   -7.168905165710952E-3    4.332912502679395E-2   -4.805308015148214E-3    4.304294683238008E-2   -5.391674353034962E-1   -2.241407468465094E-2
 6.457551029000000E9    -5.773113511143190E-1   -1.248774958579254E-1   -7.060720634580895E-3    4.366241094437962E-2   -4.760182341598063E-3    4.333437568024062E-2   -5.391922363929555E-1   -2.101954285193027E-2
 6.457562339800000E9    -5.775769853566183E-1   -1.238819374428862E-1   -6.911189026632936E-3    4.399481356790285E-2   -4.654832471774947E-3    4.361608086020059E-2   -5.393794644918485E-1   -1.962731123814286E-2
 6.457573650600000E9    -5.777136975428455E-1   -1.228514792989775E-1   -6.780794790077307E-3    4.428255660131466E-2   -4.740265534888932E-3    4.387094535310500E-2   -5.392090824621373E-1   -1.814866592031646E-2
 6.457584961400000E9    -5.779726581257498E-1   -1.218786736095833E-1   -6.856020188744447E-3    4.467286076665029E-2   -4.596998021526181E-3    4.421982550691864E-2   -5.392951062211864E-1   -1.669478025239467E-2
 6.457596272200000E9    -5.780667640080849E-1   -1.207662249300792E-1   -6.681273157401660E-3    4.488013185769369E-2   -4.482803582899819E-3    4.447653562809559E-2   -5.394221290142566E-1   -1.526653923589275E-2
 6.457607583000000E9    -5.782799970255178E-1   -1.196250054005327E-1   -6.704900661468391E-3    4.514987420544112E-2   -4.436720727535644E-3    4.485698125370860E-2   -5.393241254145549E-1   -1.399582347368225E-2
 6.457618893800000E9    -5.784673441505945E-1   -1.188733915199885E-1   -6.622042544788465E-3    4.551325796844957E-2   -4.272460899776154E-3    4.515387273592338E-2   -5.393822558507192E-1   -1.262312861882921E-2
 6.457630204600000E9    -5.786245153793281E-1   -1.177283746285501E-1   -6.682373001923033E-3    4.582400829294657E-2   -4.274729963700064E-3    4.547177406095013E-2   -5.393628449327317E-1   -1.108461748095534E-2
 6.457641515400000E9    -5.787691367740430E-1   -1.166257235779662E-1   -6.346235013434991E-3    4.632162820377712E-2   -4.096153391097627E-3    4.576398067051198E-2   -5.394938951922714E-1   -9.580727317900743E-3
 6.457652826200000E9    -5.788274562893747E-1   -1.156354207337123E-1   -6.448276379467870E-3    4.655026502050730E-2   -4.091004723577620E-3    4.615298034284989E-2   -5.393874951373886E-1   -8.268528106002017E-3
 6.457664137000000E9    -5.791025615572214E-1   -1.145871183517843E-1   -6.380449920625942E-3    4.690368342690777E-2   -4.027950287763563E-3    4.640693377724938E-2   -5.393047113245630E-1   -6.740103992865928E-3
 6.457675447800000E9    -5.792745737465645E-1   -1.136458424939872E-1   -6.319254285504893E-3    4.711016803563793E-2   -3.905577152120099E-3    4.667609357266223E-2   -5.393395232852819E-1   -5.203647523423731E-3
 6.457686758600000E9    -5.793947978792469E-1   -1.126340364873518E-1   -6.115776943276256E-3    4.753222567156391E-2   -3.790544067628490E-3    4.707038992754676E-2   -5.393391667542013E-1   -3.607269837733908E-3
 6.457698069400000E9    -5.796108602520642E-1   -1.115211810999856E-1   -6.154560357653680E-3    4.783437725402429E-2   -3.740572275382567E-3    4.728005334600334E-2   -5.393218320063450E-1   -2.245465179880654E-3
 6.457709380200000E9    -5.797012913147311E-1   -1.104649904604339E-1   -6.009462594877607E-3    4.822306152880426E-2   -3.627517971945307E-3    4.774522400567660E-2   -5.391290541763082E-1   -7.869034421688431E-4
 6.457720691000000E9    -5.798038385265243E-1   -1.093211363393119E-1   -6.054732960504337E-3    4.860414345647016E-2   -3.526657730912874E-3    4.803686812969591E-2   -5.391314684293671E-1    8.322864020955805E-4
 6.457732001800000E9    -5.799601013687892E-1   -1.083424587865889E-1   -5.762090727409930E-3    4.899264233519603E-2   -3.375144562368029E-3    4.834223420021251E-2   -5.390993150498598E-1    2.288318999373484E-3
 6.457743312600000E9    -5.802560978099789E-1   -1.073472800373452E-1   -5.625080132141139E-3    4.930837265407603E-2   -3.338420811408801E-3    4.883616652325454E-2   -5.392123486551804E-1    3.770267116634291E-3
 6.457754623400000E9    -5.802905503645774E-1   -1.062125544498777E-1   -5.751996744652153E-3    4.958790587894597E-2   -3.184386152297785E-3    4.915666501956073E-2   -5.389151440748777E-1    5.401536093161660E-3
 6.457765934200000E9    -5.804734257373605E-1   -1.051738983778946E-1   -5.627531086442246E-3    5.000781125031780E-2   -3.088652429410731E-3    4.945349149280728E-2   -5.390068144078055E-1    6.938077141066250E-3
 6.457777245000000E9    -5.805789930962825E-1   -1.040892513929798E-1   -5.567650933639902E-3    5.043545798377237E-2   -3.005764917566068E-3    4.983671154109503E-2   -5.390188230475494E-1    8.234707410835051E-3
 6.457788555800000E9    -5.807085549013573E-1   -1.030898858023847E-1   -5.434632506292823E-3    5.076138340228650E-2   -2.927046289394805E-3    5.026632433123807E-2   -5.389178740441469E-1    1.000805563983580E-2
 6.457799866600000E9    -5.808731149037752E-1   -1.019817240184082E-1   -5.297483324397825E-3    5.129525169316580E-2   -2.701589088938515E-3    5.062850719476666E-2   -5.387716050609727E-1    1.146753135840449E-2
 6.457811177400000E9    -5.810274464758934E-1   -1.009908530124108E-1   -5.273214642286102E-3    5.163429150071847E-2   -2.698925167090864E-3    5.101517292785254E-2   -5.386626158125551E-1    1.323646652013811E-2
 6.457822488200000E9    -5.811525038106754E-1   -9.981071096614234E-2   -5.104408256567417E-3    5.201799111830091E-2   -2.565534568581951E-3    5.139721609145420E-2   -5.386203165823367E-1    1.477885447859239E-2
 6.457833799000000E9    -5.812846071288907E-1   -9.886757959855381E-2   -5.080969169024284E-3    5.241353118245931E-2   -2.446190912319875E-3    5.175547514252861E-2   -5.386140017086036E-1    1.625644172392380E-2
 6.457845109800000E9    -5.813700807901524E-1   -9.781005518314000E-2   -5.045036924057363E-3    5.296704594422397E-2   -2.316880427494313E-3    5.210630088677332E-2   -5.384199998083191E-1    1.789972292523330E-2
 6.457856420600000E9    -5.813923255622788E-1   -9.658805828468207E-2   -4.810347235598424E-3    5.338274404347296E-2   -2.205529802990141E-3    5.263328956842478E-2   -5.382356820880659E-1    1.954249477506474E-2
 6.457867731400000E9    -5.816412337254794E-1   -9.550093353082492E-2   -4.710670222987287E-3    5.378962181974875E-2   -1.958736965789097E-3    5.294106930942923E-2   -5.382795181019501E-1    2.124239887812722E-2
 6.457879042200000E9    -5.817608467143918E-1   -9.440784544378514E-2   -4.620298164730815E-3    5.419695867792786E-2   -1.899477092345371E-3    5.342245669697502E-2   -5.380049351931975E-1    2.280796971484877E-2
 6.457890353000000E9    -5.818334965610865E-1   -9.340767448614673E-2   -4.505496382531669E-3    5.454548944543242E-2   -1.753615591256201E-3    5.383308480120703E-2   -5.380041260059841E-1    2.450612794286088E-2
 6.457901663800000E9    -5.818846838015285E-1   -9.230896037969621E-2   -4.298335953043303E-3    5.511728468049548E-2   -1.552106509889888E-3    5.424392388004860E-2   -5.376873544754326E-1    2.607867262915773E-2
 6.457912974600000E9    -5.821468872935542E-1   -9.118062904597594E-2   -4.227365933329643E-3    5.553329652686559E-2   -1.444879659190933E-3    5.478586436417528E-2   -5.376951894274979E-1    2.767630226963333E-2
 6.457924285400000E9    -5.821410956422576E-1   -9.011718927355847E-2   -4.091603190978398E-3    5.591657400911873E-2   -1.308828150445134E-3    5.521012486824617E-2   -5.374950287730904E-1    2.945668121745340E-2
 6.457935596200000E9    -5.822526270546362E-1   -8.897808019633641E-2   -4.008693718084638E-3    5.642696497675587E-2   -1.177774408154541E-3    5.558161507988264E-2   -5.374130950016917E-1    3.125783854997784E-2
 6.457946907000000E9    -5.824784066564610E-1   -8.786663835684397E-2   -3.941711434792144E-3    5.693195905282646E-2   -1.008145674263372E-3    5.605857454679173E-2   -5.371653863511708E-1    3.295609625950633E-2
 6.457958217800000E9    -5.823703507752692E-1   -8.667046752405128E-2   -3.682677440627499E-3    5.740614679043728E-2   -9.295880216753213E-4    5.657402850718348E-2   -5.368957554499539E-1    3.463571136321540E-2
 6.457969528600000E9    -5.825584624221350E-1   -8.562811538996340E-2   -3.583051676996934E-3    5.790618077566054E-2   -6.963165794661302E-4    5.705895593790986E-2   -5.367806568165066E-1    3.649563130858529E-2
 6.457980839400000E9    -5.826175558069755E-1   -8.445649876492045E-2   -3.333476013298143E-3    5.846839315400199E-2   -6.156607320627861E-4    5.748463462970219E-2   -5.366557014262689E-1    3.801093861568339E-2
 6.457992150200000E9    -5.826553514053253E-1   -8.329244800524041E-2   -3.137943585466178E-3    5.877547176791359E-2   -2.318109245179373E-4    5.795618858441622E-2   -5.363624015226037E-1    3.989667144748077E-2
 6.458003461000000E9    -5.827885372295948E-1   -8.208564492023224E-2   -3.055107556957417E-3    5.951562961179196E-2   -3.010487359543681E-4    5.851339578406774E-2   -5.361185285651711E-1    4.164043304064079E-2
 6.458014771800000E9    -5.827480689853626E-1   -8.110544189670142E-2   -2.969064986073126E-3    5.989910424419479E-2   -4.925372011558934E-5    5.895829601105164E-2   -5.360191842838716E-1    4.360228880266546E-2
 6.458026082600000E9    -5.828956318951904E-1   -7.990794587006264E-2   -2.727139568634436E-3    6.049457449384550E-2    1.837992573102768E-4    5.953536026213628E-2   -5.356172881008213E-1    4.545656972146531E-2
 6.458037393400000E9    -5.830680393150954E-1   -7.883086947415276E-2   -2.549298395953122E-3    6.099644965266100E-2    3.041047804580167E-4    6.004405125603662E-2   -5.355173550116210E-1    4.720899792826173E-2
 6.458048704200000E9    -5.830167588927836E-1   -7.766773425635647E-2   -2.436405420982155E-3    6.156384647228388E-2    5.353140426649012E-4    6.065192368082244E-2   -5.352094217374098E-1    4.909383837647550E-2
 6.458060015000000E9    -5.831692657328018E-1   -7.643177043701545E-2   -2.239893354948332E-3    6.208285404078741E-2    6.993983848191423E-4    6.113075472150193E-2   -5.350516224384082E-1    5.095845891731189E-2
