#  HZ   S   RI   R     50.00 
! Rohde & Schwarz Vector Network Analyzer 
! Rohde-Schwarz,ZNB20-2Port,1311601062101988,3.16
! Created: UTC 3/20/2024, 10:55:58 PM
! freq[Hz]                re:S11                  im:S11                  re:S21                  im:S21                  re:S12                  im:S12                  re:S22                  im:S22
 6.457032479000000E9    -5.672710115302703E-1   -1.693133031709151E-1   -8.806803843144055E-3    3.295619594941417E-2   -7.085825690192429E-3    3.290680744958988E-2   -5.343498039282386E-1   -7.920476768794826E-2
 6.457043811325000E9    -5.674354442101631E-1   -1.684824633129353E-1   -8.793046232784131E-3    3.313278278757459E-2   -7.042259606146250E-3    3.320295020201066E-2   -5.344712436702598E-1   -7.779709729051364E-2
 6.457055143650000E9    -5.678292823656432E-1   -1.674547158145470E-1   -8.736039682985251E-3    3.343387968202594E-2   -6.938880152086896E-3    3.335158412032753E-2   -5.347233510257084E-1   -7.673606268585244E-2
 6.457066475975000E9    -5.680289123766840E-1   -1.664459667791694E-1   -8.716505035642771E-3    3.353054058275370E-2   -6.958398037160279E-3    3.341877950342795E-2   -5.348850679587220E-1   -7.551016513154900E-2
 6.457077808300000E9    -5.682327785049154E-1   -1.654901753350395E-1   -8.658346051693321E-3    3.376283138111019E-2   -6.870154202988252E-3    3.362850664887944E-2   -5.350422710266097E-1   -7.438861716017230E-2
 6.457089140625000E9    -5.684701844403550E-1   -1.646551595327023E-1   -8.636889937875470E-3    3.393105709068319E-2   -6.907464587074006E-3    3.377333147252504E-2   -5.351996748691231E-1   -7.315190015772909E-2
 6.457100472950000E9    -5.687932403080330E-1   -1.635793232336647E-1   -8.653165158830571E-3    3.415134648360867E-2   -6.839987048590960E-3    3.404058355271023E-2   -5.352200692101972E-1   -7.189000523550426E-2
 6.457111805275000E9    -5.689626061228146E-1   -1.628526521500933E-1   -8.613743903777246E-3    3.427606450178334E-2   -6.770838599830112E-3    3.416539374250015E-2   -5.355045190547622E-1   -7.074289088120847E-2
 6.457123137600000E9    -5.691994975981522E-1   -1.618143666292167E-1   -8.506505323933046E-3    3.453736499042365E-2   -6.687380962134083E-3    3.437854310316489E-2   -5.356191974326240E-1   -6.953175295691008E-2
 6.457134469925000E9    -5.694690995189061E-1   -1.608278737642930E-1   -8.611187749742169E-3    3.467326913694683E-2   -6.666602551610711E-3    3.456518024466618E-2   -5.357802553840496E-1   -6.826552754341492E-2
 6.457145802250000E9    -5.697362165854692E-1   -1.599959093575626E-1   -8.571021170360245E-3    3.487324025819827E-2   -6.679038483644169E-3    3.471824469636887E-2   -5.358983176484631E-1   -6.708083277128177E-2
 6.457157134575000E9    -5.701005741443668E-1   -1.589466748675863E-1   -8.378422996141943E-3    3.505846164820069E-2   -6.701700089994021E-3    3.496647631463602E-2   -5.362808630678159E-1   -6.606775276611283E-2
 6.457168466900000E9    -5.702358499283371E-1   -1.579690313356122E-1   -8.482479331163265E-3    3.536575683164950E-2   -6.626473932939554E-3    3.523052534732666E-2   -5.362297139975106E-1   -6.473116989064491E-2
 6.457179799225000E9    -5.704571974556463E-1   -1.570128742558897E-1   -8.376207009421483E-3    3.549928596785683E-2   -6.522754675787295E-3    3.547315544264976E-2   -5.363569028015382E-1   -6.351422895913163E-2
 6.457191131550000E9    -5.706854855140449E-1   -1.561685291436888E-1   -8.537177617487013E-3    3.573420433648850E-2   -6.514085621637213E-3    3.563681447840444E-2   -5.366122073150330E-1   -6.226096472121215E-2
 6.457202463875000E9    -5.709051426203348E-1   -1.550924107502875E-1   -8.361357622877605E-3    3.598152615481608E-2   -6.442476056315049E-3    3.583055802093565E-2   -5.366701995742009E-1   -6.098626579501087E-2
 6.457213796200000E9    -5.712038432996781E-1   -1.542392610303720E-1   -8.403485087663778E-3    3.619568561676453E-2   -6.431898506800546E-3    3.606175194644221E-2   -5.367972565826121E-1   -5.979714442575400E-2
 6.457225128525000E9    -5.715196815717816E-1   -1.532225438491840E-1   -8.338302912688323E-3    3.626468899793878E-2   -6.334295345219443E-3    3.624922105974600E-2   -5.368554515564805E-1   -5.853366241881765E-2
 6.457236460850000E9    -5.717261053552810E-1   -1.522107482585217E-1   -8.248198696293011E-3    3.659276020909725E-2   -6.263361051872525E-3    3.646192994032061E-2   -5.370699139060585E-1   -5.730077279386064E-2
 6.457247793175000E9    -5.719134052549651E-1   -1.511772993160980E-1   -8.290490041840253E-3    3.677561137016321E-2   -6.333471012488835E-3    3.668900260102285E-2   -5.371655728881761E-1   -5.610186184281688E-2
 6.457259125500000E9    -5.721720054504135E-1   -1.503030887214518E-1   -8.136820676235935E-3    3.697256382036791E-2   -6.280836707873941E-3    3.683269631001208E-2   -5.371955079401773E-1   -5.482855416665836E-2
 6.457270457825000E9    -5.724142889787099E-1   -1.493321305883612E-1   -8.147675079850555E-3    3.724527480132011E-2   -6.215581076808432E-3    3.705827025595756E-2   -5.374026189251719E-1   -5.351285343733823E-2
 6.457281790150000E9    -5.725215688437308E-1   -1.483681509183925E-1   -8.022105969612451E-3    3.749515478592780E-2   -6.086954653557131E-3    3.735724250371518E-2   -5.375436874676330E-1   -5.221196177185958E-2
 6.457293122475000E9    -5.728607399365928E-1   -1.472682153570413E-1   -8.032208942838546E-3    3.762259518097542E-2   -6.110389136118493E-3    3.752320569532291E-2   -5.376481030549067E-1   -5.104509715838663E-2
 6.457304454800000E9    -5.730130339099317E-1   -1.463683563041806E-1   -8.117400220425865E-3    3.793336014796548E-2   -6.062391309644656E-3    3.780552564868120E-2   -5.376176275834406E-1   -4.964488390290896E-2
 6.457315787125000E9    -5.732885916256646E-1   -1.453700385439786E-1   -8.082890104115148E-3    3.825873741140862E-2   -6.012655231003808E-3    3.806130886923413E-2   -5.377655523953846E-1   -4.847990056303451E-2
 6.457327119450000E9    -5.735201104367293E-1   -1.444425455389868E-1   -7.938310418103446E-3    3.835306822149089E-2   -5.903446437742911E-3    3.825698766381613E-2   -5.379423320538327E-1   -4.739622154552064E-2
 6.457338451775000E9    -5.736988618547811E-1   -1.433883361425405E-1   -7.868893773442669E-3    3.864392692710546E-2   -5.958930012994418E-3    3.848691655915250E-2   -5.378729131394060E-1   -4.591622033306263E-2
 6.457349784100000E9    -5.739026190446737E-1   -1.425484362636079E-1   -7.936757980352326E-3    3.907542554367897E-2   -5.855218574158725E-3    3.869277754367355E-2   -5.382018794138895E-1   -4.452383749585873E-2
 6.457361116425000E9    -5.741322293117441E-1   -1.414392725589060E-1   -7.897407472414306E-3    3.921367671637432E-2   -5.816259712601294E-3    3.901767538530173E-2   -5.382275780417440E-1   -4.341414571868624E-2
 6.457372448750000E9    -5.743274493475937E-1   -1.404544400037408E-1   -7.743282914822663E-3    3.945899718557780E-2   -5.826345735241303E-3    3.923957626313166E-2   -5.383224503262740E-1   -4.197879700206728E-2
 6.457383781075000E9    -5.744775636240612E-1   -1.395495176381493E-1   -7.706745329032812E-3    3.964095047410450E-2   -5.726665977221755E-3    3.951345421786077E-2   -5.383617377947238E-1   -4.069484438794383E-2
 6.457395113400000E9    -5.748018979904523E-1   -1.385688117072054E-1   -7.613443559975986E-3    3.994273780372253E-2   -5.631032492088489E-3    3.962713796744876E-2   -5.384787902253496E-1   -3.957498468545396E-2
 6.457406445725000E9    -5.749236330059825E-1   -1.375544426709204E-1   -7.676639335045446E-3    4.028059399644893E-2   -5.624424600306043E-3    3.989513667130083E-2   -5.385753687043838E-1   -3.811777469030357E-2
 6.457417778050000E9    -5.751663356431416E-1   -1.365193471492638E-1   -7.782053709771673E-3    4.049206477130297E-2   -5.510005915581295E-3    4.019184551807416E-2   -5.386600136350493E-1   -3.682622725852335E-2
 6.457429110375000E9    -5.753193404283831E-1   -1.355264534329334E-1   -7.525926505005392E-3    4.075895559711467E-2   -5.452395553923648E-3    4.039318640420136E-2   -5.386862399948424E-1   -3.544726510708841E-2
 6.457440442700000E9    -5.755999395193711E-1   -1.345762559926838E-1   -7.630183232218048E-3    4.100372355445793E-2   -5.405562972142946E-3    4.072509486143509E-2   -5.386578145830264E-1   -3.406867838757928E-2
 6.457451775025000E9    -5.757175536978474E-1   -1.334931079585415E-1   -7.566050374741904E-3    4.134340710616069E-2   -5.289317873933678E-3    4.106487445820368E-2   -5.388191521823212E-1   -3.276460613302165E-2
 6.457463107350000E9    -5.759968664266292E-1   -1.325770272234799E-1   -7.484297323948053E-3    4.161016334138080E-2   -5.250926452346701E-3    4.116442108337396E-2   -5.387764449147725E-1   -3.131562757598830E-2
 6.457474439675000E9    -5.761430135019876E-1   -1.316155303343045E-1   -7.349130769284186E-3    4.184646438933684E-2   -5.187776381049669E-3    4.148451832199067E-2   -5.388830370442498E-1   -3.008929731590449E-2
 6.457485772000000E9    -5.764307154725788E-1   -1.305625762767023E-1   -7.208124813220159E-3    4.216743705890204E-2   -5.235883407631641E-3    4.173621848025343E-2   -5.389733471745844E-1   -2.863161704868459E-2
 6.457497104325000E9    -5.765291155154506E-1   -1.294738181960555E-1   -7.270000990303253E-3    4.239301284764641E-2   -5.079003140934896E-3    4.208957622169431E-2   -5.389855510293298E-1   -2.737367467921913E-2
 6.457508436650000E9    -5.766432707064322E-1   -1.284490252537947E-1   -7.221517401608518E-3    4.258873501901983E-2   -5.009859871222690E-3    4.233747991498548E-2   -5.391465430358264E-1   -2.579869423598204E-2
 6.457519768975000E9    -5.768364030329780E-1   -1.274981625951326E-1   -7.178680576456948E-3    4.287362258419381E-2   -4.924146896789458E-3    4.256832978342723E-2   -5.391052008392503E-1   -2.461657745997385E-2
 6.457531101300000E9    -5.770827128044994E-1   -1.265688850480320E-1   -7.151425017528639E-3    4.325115438090546E-2   -4.879636956046570E-3    4.289651621934810E-2   -5.390879369320087E-1   -2.318161172332456E-2
 6.457542433625000E9    -5.773256712125695E-1   -1.255059450418109E-1   -7.121365920356314E-3    4.360964909355265E-2   -4.750456339481981E-3    4.323016696858929E-2   -5.391669279728509E-1   -2.182897446502192E-2
 6.457553765950000E9    -5.774503469669979E-1   -1.244952649732178E-1   -6.981703819213351E-3    4.382262890617982E-2   -4.803662970018059E-3    4.337082393195622E-2   -5.391950843541869E-1   -2.050722667152369E-2
 6.457565098275000E9    -5.776133646491175E-1   -1.235214446934667E-1   -6.802700125094768E-3    4.411944021613081E-2   -4.645226426472375E-3    4.382611740553177E-2   -5.392674473405428E-1   -1.895100827437465E-2
 6.457576430600000E9    -5.778633533778611E-1   -1.224343567101135E-1   -6.862518026872864E-3    4.445289277561782E-2   -4.602079611987703E-3    4.409175930338623E-2   -5.392858732322423E-1   -1.753368600458774E-2
 6.457587762925000E9    -5.779892354697893E-1   -1.213317483821856E-1   -6.784845435018128E-3    4.476440953579518E-2   -4.533071002500882E-3    4.441118679432821E-2   -5.393708703213411E-1   -1.607865036641534E-2
 6.457599095250000E9    -5.782334598306327E-1   -1.204248464864157E-1   -6.886406580826262E-3    4.506538713292678E-2   -4.518719828902651E-3    4.473416456217129E-2   -5.392501159385151E-1   -1.477685569042376E-2
 6.457610427575000E9    -5.783885108020573E-1   -1.194627727197604E-1   -6.606266197464418E-3    4.548387111127897E-2   -4.359440054686524E-3    4.498777409726929E-2   -5.393753134527388E-1   -1.332155188195266E-2
 6.457621759900000E9    -5.785389484256498E-1   -1.183312294817907E-1   -6.673411878066058E-3    4.562288688900964E-2   -4.261041378449815E-3    4.529608958964498E-2   -5.393469904639554E-1   -1.185587809931084E-2
 6.457633092225000E9    -5.787358905801095E-1   -1.173310689612521E-1   -6.539737939114009E-3    4.612396750773796E-2   -4.134620619526549E-3    4.565651298681649E-2   -5.393933875431339E-1   -1.047339766308774E-2
 6.457644424550000E9    -5.788334996336123E-1   -1.163076855593480E-1   -6.540874077334645E-3    4.632461567155723E-2   -4.152634517266263E-3    4.600648306699138E-2   -5.393060230790521E-1   -8.982059781311714E-3
 6.457655756875000E9    -5.789871515097629E-1   -1.151814657441914E-1   -6.346605834296038E-3    4.674772737608046E-2   -3.976436321581539E-3    4.630132308575851E-2   -5.393221045059784E-1   -7.448188350067086E-3
 6.457667089200000E9    -5.791149775654599E-1   -1.142728560391498E-1   -6.143944871490139E-3    4.707118149022253E-2   -4.017645923477061E-3    4.663458278646741E-2   -5.392202634375526E-1   -6.041687202338873E-3
 6.457678421525000E9    -5.792995704365236E-1   -1.132559311570335E-1   -6.321921452402536E-3    4.737412095029792E-2   -3.818076431545758E-3    4.696329754034785E-2   -5.391596614613289E-1   -4.627506484395332E-3
 6.457689753850000E9    -5.794312970462518E-1   -1.121219506556615E-1   -6.144900657905165E-3    4.774730569608073E-2   -3.704509523380822E-3    4.727954366217506E-2   -5.392248874401858E-1   -3.054412714637211E-3
 6.457701086175000E9    -5.796501696042112E-1   -1.111729891138918E-1   -6.141134792070470E-3    4.811553328087802E-2   -3.640076128952898E-3    4.758290079476038E-2   -5.391979440127760E-1   -1.663196534009028E-3
 6.457712418500000E9    -5.797907796796500E-1   -1.100873714147053E-1   -5.951473900016041E-3    4.840314010939122E-2   -3.590305375439755E-3    4.797224155839963E-2   -5.392966776012903E-1   -6.050407407129971E-5
 6.457723750825000E9    -5.800094024858100E-1   -1.089719100915938E-1   -5.971540608175706E-3    4.883860498149953E-2   -3.496121307230653E-3    4.837104080428258E-2   -5.391479465981597E-1    1.308664435456159E-3
 6.457735083150000E9    -5.801173801444410E-1   -1.078667176921222E-1   -5.822868104230661E-3    4.925157807259063E-2   -3.311779115126958E-3    4.870401589307621E-2   -5.389162111906858E-1    2.923697894209555E-3
 6.457746415475000E9    -5.802256738837734E-1   -1.069019490997510E-1   -5.884734396883608E-3    4.958357411058156E-2   -3.275772891287529E-3    4.892090476612964E-2   -5.391297681085364E-1    4.464327578613565E-3
 6.457757747800000E9    -5.804635563426580E-1   -1.059068745698301E-1   -5.678663478938152E-3    5.005736338837089E-2   -3.125426599937051E-3    4.938104533705596E-2   -5.389907739779038E-1    6.039721910250062E-3
 6.457769080125000E9    -5.804876434179932E-1   -1.048377724272949E-1   -5.685160107471881E-3    5.035621242478428E-2   -3.056661685813905E-3    4.984820455487481E-2   -5.387979791646670E-1    7.571354524824990E-3
 6.457780412450000E9    -5.806483848039841E-1   -1.036939011958955E-1   -5.523675881085924E-3    5.077464350195435E-2   -2.916167325616646E-3    5.014340952927301E-2   -5.388253230370580E-1    9.128831117123992E-3
 6.457791744775000E9    -5.808394506743149E-1   -1.027287124706638E-1   -5.325622742437075E-3    5.113735765216640E-2   -2.845857252504853E-3    5.050752994923236E-2   -5.388312991298442E-1    1.067456384452830E-2
 6.457803077100000E9    -5.809659109678913E-1   -1.014585759315575E-1   -5.267385771612983E-3    5.166292561247208E-2   -2.766143714516822E-3    5.083424639140597E-2   -5.386877371965700E-1    1.218224119517451E-2
 6.457814409425000E9    -5.810830049102976E-1   -1.005018242781246E-1   -5.203293081180020E-3    5.192637212439708E-2   -2.591331238267106E-3    5.130450616886634E-2   -5.384822742278480E-1    1.383661697802102E-2
 6.457825741750000E9    -5.811325286557720E-1   -9.942159138836630E-2   -4.949571118111348E-3    5.239435653798476E-2   -2.424527099004669E-3    5.167413350601284E-2   -5.384815957525808E-1    1.546211707129998E-2
 6.457837074075000E9    -5.812387831327056E-1   -9.843325675402374E-2   -5.046791139704896E-3    5.277120541030618E-2   -2.259136793160684E-3    5.208113915314880E-2   -5.384565947925786E-1    1.705547963179989E-2
 6.457848406400000E9    -5.814433755784794E-1   -9.726686813805577E-2   -4.880336215836384E-3    5.320349431340423E-2   -2.182816847590956E-3    5.242818467571508E-2   -5.382092684005763E-1    1.870520273905493E-2
 6.457859738725000E9    -5.814737851241917E-1   -9.619455852784524E-2   -4.706360507825084E-3    5.366120899650741E-2   -2.080103451170730E-3    5.299403754257404E-2   -5.381368619366880E-1    2.027262963322540E-2
 6.457871071050000E9    -5.815810025605311E-1   -9.505206913728176E-2   -4.674076220137739E-3    5.400361960044818E-2   -1.945609202225812E-3    5.329920980623816E-2   -5.380197406173667E-1    2.201556204741630E-2
 6.457882403375000E9    -5.817317220605714E-1   -9.396543603490311E-2   -4.576860320357205E-3    5.450386733615818E-2   -1.815516432530410E-3    5.369338310919757E-2   -5.379820067173924E-1    2.359998534879017E-2
 6.457893735700000E9    -5.818092332510139E-1   -9.284746606930486E-2   -4.326583771172459E-3    5.491393089571935E-2   -1.715511519477309E-3    5.417804292217600E-2   -5.377713262326382E-1    2.533711071938580E-2
 6.457905068025000E9    -5.818801430505972E-1   -9.165468584207637E-2   -4.243090233902355E-3    5.538639564231113E-2   -1.556333926038624E-3    5.455778588117850E-2   -5.376318699259538E-1    2.698546898312018E-2
 6.457916400350000E9    -5.821411271546594E-1   -9.068443630915578E-2   -4.205501247557137E-3    5.588805303804516E-2   -1.421776121439252E-3    5.502615631329823E-2   -5.374730393367202E-1    2.856301512389527E-2
 6.457927732675000E9    -5.822038403584229E-1   -8.948625332887201E-2   -4.125976129741330E-3    5.633097293176391E-2   -1.329582626644381E-3    5.544764258516388E-2   -5.372716352106647E-1    3.035099824144589E-2
 6.457939065000000E9    -5.822281343209038E-1   -8.829842486580405E-2   -3.915767029041959E-3    5.677524220249819E-2   -1.109375926408137E-3    5.593000010963388E-2   -5.371195152226691E-1    3.206486792302524E-2
 6.457950397325000E9    -5.824240849554683E-1   -8.733390348637968E-2   -3.702630377823325E-3    5.718598610324774E-2   -9.397530777279980E-4    5.641001835872118E-2   -5.370426247454071E-1    3.372865471299688E-2
 6.457961729650000E9    -5.824357875640822E-1   -8.620636029331838E-2   -3.504781956616749E-3    5.785256334972498E-2   -7.231020675927168E-4    5.692500219945680E-2   -5.367878014956265E-1    3.549754027621212E-2
 6.457973061975000E9    -5.825558994478556E-1   -8.503711882523268E-2   -3.465826445102502E-3    5.824276161756604E-2   -6.004883853652729E-4    5.738808329520514E-2   -5.365363442222154E-1    3.724175973059021E-2
 6.457984394300000E9    -5.827523227002480E-1   -8.396792194931160E-2   -3.205079059901976E-3    5.880369948131511E-2   -4.887883920004325E-4    5.795598424911506E-2   -5.363239968018247E-1    3.900742036248613E-2
 6.457995726625000E9    -5.827298815478126E-1   -8.278203643016151E-2   -3.205226674030556E-3    5.938424891393208E-2   -2.163708481354775E-4    5.837818541374359E-2   -5.362488810135129E-1    4.091837984152245E-2
 6.458007058950000E9    -5.827562733258349E-1   -8.166377837162696E-2   -2.935154916956621E-3    5.990456023699083E-2   -4.031271519865413E-5    5.882723014777198E-2   -5.359008346269281E-1    4.273084934790893E-2
 6.458018391275000E9    -5.828486042941441E-1   -8.049075347804729E-2   -2.929992693244722E-3    6.029777303059104E-2    1.106905938965286E-4    5.932697793125889E-2   -5.358891403755662E-1    4.446086130344463E-2
 6.458029723600000E9    -5.828473378220884E-1   -7.939158707613601E-2   -2.604372747332457E-3    6.087016023485939E-2    3.273222787793999E-4    5.987120623020592E-2   -5.355634701612908E-1    4.637680979857887E-2
 6.458041055925000E9    -5.830776882722052E-1   -7.815720104130167E-2   -2.472738230975027E-3    6.148932863668256E-2    4.199312846202833E-4    6.047583246501814E-2   -5.351595644748485E-1    4.814589260814748E-2
 6.458052388250000E9    -5.831506433841658E-1   -7.711202076024480E-2   -2.339866883832335E-3    6.209857100430837E-2    5.535010591786990E-4    6.099043375451434E-2   -5.349726271597647E-1    5.001594463983938E-2
