#  HZ   S   RI   R     50.00 
! Rohde & Schwarz Vector Network Analyzer 
! Rohde-Schwarz,ZNB20-2Port,1311601062101988,3.16
! Created: UTC 3/20/2024, 10:56:22 PM
! freq[Hz]                re:S11                  im:S11                  re:S21                  im:S21                  re:S12                  im:S12                  re:S22                  im:S22
 6.457024667000000E9    -5.670996433268796E-1   -1.699751469877160E-1   -8.780490044991731E-3    3.288111177273832E-2   -7.060007541460440E-3    3.283850418770225E-2   -5.341826537238629E-1   -7.996043240374374E-2
 6.457036021925000E9    -5.673486666104054E-1   -1.689434624930063E-1   -8.740187922505445E-3    3.309500806263659E-2   -7.049885244524606E-3    3.294344601981081E-2   -5.342723555652409E-1   -7.873106808401378E-2
 6.457047376850000E9    -5.675821630362349E-1   -1.679953707228621E-1   -8.774889374097749E-3    3.323109272244369E-2   -7.009542435992378E-3    3.321957821520614E-2   -5.345879280153617E-1   -7.755622045674876E-2
 6.457058731775000E9    -5.677421112005508E-1   -1.669603190508581E-1   -8.697170677546023E-3    3.338870753953270E-2   -6.988622462750397E-3    3.341402189287699E-2   -5.347063448310788E-1   -7.618244904658480E-2
 6.457070086700000E9    -5.681475257008269E-1   -1.662247968112124E-1   -8.719681877132891E-3    3.367212851193482E-2   -7.005315586106232E-3    3.358167167017918E-2   -5.347720176017388E-1   -7.535328346913131E-2
 6.457081441625000E9    -5.684356903336688E-1   -1.651778650608923E-1   -8.617093868940190E-3    3.381785072195875E-2   -6.870989746683007E-3    3.378188663287395E-2   -5.350687649263380E-1   -7.401554900147836E-2
 6.457092796550000E9    -5.686628540785386E-1   -1.642256670680906E-1   -8.625539740375594E-3    3.402366367966195E-2   -6.800605146034317E-3    3.389368239934250E-2   -5.351820565342507E-1   -7.285062264676180E-2
 6.457104151475000E9    -5.688454479474427E-1   -1.632336738093586E-1   -8.756832843661830E-3    3.422136558130575E-2   -6.856118469354288E-3    3.407497632832400E-2   -5.353792896825350E-1   -7.159488428633473E-2
 6.457115506400000E9    -5.691289583574514E-1   -1.624255521066827E-1   -8.490601098671219E-3    3.449712308141177E-2   -6.752327850884652E-3    3.436357217990901E-2   -5.353420485635503E-1   -7.037373546657941E-2
 6.457126861325000E9    -5.694177984835712E-1   -1.613721976892132E-1   -8.619482196685605E-3    3.470484732157482E-2   -6.791149157657376E-3    3.459575279774020E-2   -5.356379204270123E-1   -6.918452155733301E-2
 6.457138216250000E9    -5.695239379046151E-1   -1.604595362289851E-1   -8.536309946686875E-3    3.481322557696281E-2   -6.723521510520462E-3    3.473357039855367E-2   -5.356020884697762E-1   -6.798186822926632E-2
 6.457149571175000E9    -5.699135370132190E-1   -1.594987794900040E-1   -8.518307053953624E-3    3.509882617776216E-2   -6.693840386584130E-3    3.491623409228728E-2   -5.358472249611123E-1   -6.675310888208745E-2
 6.457160926100000E9    -5.701811967668263E-1   -1.585009885193165E-1   -8.581348474386059E-3    3.534746514847204E-2   -6.588922642693626E-3    3.515758454120550E-2   -5.360443576723415E-1   -6.555368013461095E-2
 6.457172281025000E9    -5.704398451731518E-1   -1.575568711108770E-1   -8.440394435142060E-3    3.544546000560427E-2   -6.624769817649299E-3    3.528562628099727E-2   -5.362321268129806E-1   -6.444256503948541E-2
 6.457183635950000E9    -5.705777481311934E-1   -1.566950443267289E-1   -8.468439127517683E-3    3.559788393754178E-2   -6.646727456487356E-3    3.555502618094401E-2   -5.363642480490737E-1   -6.303641640321485E-2
 6.457194990875000E9    -5.706955288385220E-1   -1.556966558310670E-1   -8.565698842689411E-3    3.575811338214478E-2   -6.535090009781954E-3    3.580414329611906E-2   -5.364224800092483E-1   -6.202019778795784E-2
 6.457206345800000E9    -5.709622351865049E-1   -1.547022645819056E-1   -8.233217086229226E-3    3.606999656087010E-2   -6.473671000479990E-3    3.592465635906781E-2   -5.365683888248866E-1   -6.053305700936209E-2
 6.457217700725000E9    -5.713252967032874E-1   -1.537964879254234E-1   -8.341391495492106E-3    3.628311489524467E-2   -6.451498670808178E-3    3.619033447123845E-2   -5.366230994904791E-1   -5.921535412774474E-2
 6.457229055650000E9    -5.715349840101597E-1   -1.528113898380758E-1   -8.429776492985522E-3    3.646506568141490E-2   -6.301521783901962E-3    3.637504233289984E-2   -5.369740278368110E-1   -5.806756302708468E-2
 6.457240410575000E9    -5.718671533572958E-1   -1.517722691991398E-1   -8.313371474125083E-3    3.677009228161780E-2   -6.284799344619255E-3    3.657047712750688E-2   -5.370572985664968E-1   -5.683079656599430E-2
 6.457251765500000E9    -5.720781832456718E-1   -1.508011604501152E-1   -8.182057202151876E-3    3.693095238515319E-2   -6.311693899323868E-3    3.678062787534844E-2   -5.371035150421530E-1   -5.569487624406604E-2
 6.457263120425000E9    -5.722488171395383E-1   -1.498598366564667E-1   -8.266116026211405E-3    3.726657059171121E-2   -6.226510314025937E-3    3.703367793050176E-2   -5.372833717473899E-1   -5.428190204680269E-2
 6.457274475350000E9    -5.723512452583636E-1   -1.489485574476886E-1   -8.110463606947345E-3    3.744435275470408E-2   -6.147112603057914E-3    3.724441966522946E-2   -5.374683164226121E-1   -5.316370615404496E-2
 6.457285830275000E9    -5.726322728796920E-1   -1.479670673186410E-1   -8.162121863922935E-3    3.757666919854313E-2   -6.173167398807469E-3    3.749695019971335E-2   -5.373874313191012E-1   -5.175590865955169E-2
 6.457297185200000E9    -5.729164771936099E-1   -1.469082795596008E-1   -8.182860110136362E-3    3.788435377102627E-2   -6.070043658515327E-3    3.764343197598892E-2   -5.373894432444885E-1   -5.052198175453983E-2
 6.457308540125000E9    -5.730411401782657E-1   -1.460082046347032E-1   -8.024611600894951E-3    3.824087016563840E-2   -6.080851078411228E-3    3.797992398554747E-2   -5.376872333867706E-1   -4.909745395301890E-2
 6.457319895050000E9    -5.734169033426709E-1   -1.450355949601272E-1   -7.986227549844000E-3    3.827871533335513E-2   -6.015055912999977E-3    3.818959142804515E-2   -5.377076277093549E-1   -4.809062033084259E-2
 6.457331249975000E9    -5.736158426519918E-1   -1.439324633932509E-1   -7.987822286396057E-3    3.853922124204003E-2   -5.949086377005339E-3    3.843428180759440E-2   -5.377565641705249E-1   -4.673344868181797E-2
 6.457342604900000E9    -5.738591706574316E-1   -1.429111367070847E-1   -8.000352790441010E-3    3.889324550400292E-2   -5.909447710253406E-3    3.868079042541014E-2   -5.379848738621079E-1   -4.544374998603014E-2
 6.457353959825000E9    -5.740223180742533E-1   -1.420888171854221E-1   -7.954657495972489E-3    3.910704179793775E-2   -5.926365932564702E-3    3.886841522929183E-2   -5.380539029831430E-1   -4.416192155464040E-2
 6.457365314750000E9    -5.742435664994151E-1   -1.410837576557961E-1   -7.859773146730023E-3    3.931480611385282E-2   -5.844220793269932E-3    3.910640421301178E-2   -5.380536862888736E-1   -4.273932287092455E-2
 6.457376669675000E9    -5.744282592830570E-1   -1.400178365808196E-1   -7.844194670631554E-3    3.963688445629436E-2   -5.719489767044519E-3    3.943455214098960E-2   -5.382475139387143E-1   -4.156322330898177E-2
 6.457388024600000E9    -5.746614664390876E-1   -1.390053035443227E-1   -7.746708044200050E-3    4.001115279711280E-2   -5.625522689502839E-3    3.960375869154529E-2   -5.382392414624367E-1   -4.032390962637703E-2
 6.457399379525000E9    -5.748189654720507E-1   -1.381362259018708E-1   -7.872520872499966E-3    3.998542060533553E-2   -5.616811126498784E-3    3.981330652577144E-2   -5.383508601318683E-1   -3.895799582163993E-2
 6.457410734450000E9    -5.749903659374325E-1   -1.370589471355568E-1   -7.615437720123866E-3    4.031972413608089E-2   -5.636920752554489E-3    4.000911116759352E-2   -5.384810178638898E-1   -3.750841773969970E-2
 6.457422089375000E9    -5.753161484366265E-1   -1.361036277292546E-1   -7.579465018828991E-3    4.059210615504010E-2   -5.556601095467749E-3    4.037267923928056E-2   -5.385392114482036E-1   -3.628644165021649E-2
 6.457433444300000E9    -5.754731719641469E-1   -1.350578865382817E-1   -7.543743655768328E-3    4.102167268167417E-2   -5.501639460472219E-3    4.063351885408775E-2   -5.386177520995891E-1   -3.492880512742438E-2
 6.457444799225000E9    -5.757093775337958E-1   -1.341543738198392E-1   -7.556681114315669E-3    4.119261092156142E-2   -5.383194949809282E-3    4.104934825392181E-2   -5.388718134876443E-1   -3.373638159698253E-2
 6.457456154150000E9    -5.758054317401494E-1   -1.330809368491610E-1   -7.442331631261380E-3    4.145029510883896E-2   -5.369626133203028E-3    4.111404808165102E-2   -5.387256718418284E-1   -3.216674872312877E-2
 6.457467509075000E9    -5.760154692800173E-1   -1.320167768814826E-1   -7.237300981327844E-3    4.175211653501473E-2   -5.313302589097344E-3    4.145276580890021E-2   -5.387510313280570E-1   -3.082969340430794E-2
 6.457478864000000E9    -5.762229553355573E-1   -1.310634239308022E-1   -7.353084587295612E-3    4.207216559053093E-2   -5.202704342012101E-3    4.168848954719009E-2   -5.388559672515606E-1   -2.941392767501639E-2
 6.457490218925000E9    -5.763802337468615E-1   -1.301374969175889E-1   -7.240993291946419E-3    4.235194207112847E-2   -5.201206696728881E-3    4.199096150635883E-2   -5.389144777302112E-1   -2.803802207048014E-2
 6.457501573850000E9    -5.766203332905949E-1   -1.290160961688400E-1   -7.348137148111238E-3    4.251729009372547E-2   -5.124023896687996E-3    4.219517067782196E-2   -5.390029152278190E-1   -2.686155086973281E-2
 6.457512928775000E9    -5.767857231977374E-1   -1.281748612156297E-1   -7.167695146213406E-3    4.281113252497266E-2   -5.015770507866297E-3    4.241923932207743E-2   -5.389975090557654E-1   -2.544301584051984E-2
 6.457524283700000E9    -5.770955517290343E-1   -1.270417263352481E-1   -7.148199628746070E-3    4.310015623080816E-2   -4.911495006013828E-3    4.281301999325910E-2   -5.389686820744608E-1   -2.406491825452723E-2
 6.457535638625000E9    -5.771611136169311E-1   -1.261152661257760E-1   -7.151233087355240E-3    4.343647352399375E-2   -4.871032525379433E-3    4.313077403920791E-2   -5.390636331829228E-1   -2.257733205892525E-2
 6.457546993550000E9    -5.772502200582604E-1   -1.249421498166427E-1   -7.047028316581750E-3    4.377736644358333E-2   -4.814279694338209E-3    4.341628079492871E-2   -5.390058577435697E-1   -2.109036066148650E-2
 6.457558348475000E9    -5.775069462276148E-1   -1.240421018148611E-1   -7.026771854400942E-3    4.396272709598388E-2   -4.657214421704648E-3    4.369743879489089E-2   -5.391597677390446E-1   -1.976550181768588E-2
 6.457569703400000E9    -5.776221701559320E-1   -1.230357535573333E-1   -6.865550503236053E-3    4.430970190324592E-2   -4.666810986645643E-3    4.398570825990494E-2   -5.390930120475755E-1   -1.855160187103982E-2
 6.457581058325000E9    -5.778942062888106E-1   -1.219677804963034E-1   -6.804933578642529E-3    4.466763597599113E-2   -4.648273333472684E-3    4.428840766242913E-2   -5.391557934583610E-1   -1.699889912490632E-2
 6.457592413250000E9    -5.780673109159427E-1   -1.209035329698610E-1   -6.848476672030302E-3    4.515429063419840E-2   -4.527570379452417E-3    4.466349890343287E-2   -5.391783228307098E-1   -1.561805479016297E-2
 6.457603768175000E9    -5.782844933284927E-1   -1.198535177526889E-1   -6.759127636368902E-3    4.533309578586301E-2   -4.399034210804237E-3    4.480708343467574E-2   -5.392116553053583E-1   -1.408350151202898E-2
 6.457615123100000E9    -5.784590477335326E-1   -1.189787426457089E-1   -6.742371612129934E-3    4.558030531018481E-2   -4.394018428975510E-3    4.525359113010838E-2   -5.391511885881458E-1   -1.262503031701017E-2
 6.457626478025000E9    -5.785710958542508E-1   -1.178735921647018E-1   -6.514400901651432E-3    4.598106087682381E-2   -4.258996863721779E-3    4.550325191978289E-2   -5.392653235902803E-1   -1.118395111432624E-2
 6.457637832950000E9    -5.787924723677773E-1   -1.168137397623384E-1   -6.441201184515595E-3    4.641144977952949E-2   -4.232911265077836E-3    4.582206470070278E-2   -5.391352734185363E-1   -9.783672543951523E-3
 6.457649187875000E9    -5.788851209565967E-1   -1.158526308832567E-1   -6.458880818890647E-3    4.668176179087929E-2   -4.049505745173710E-3    4.623991695046567E-2   -5.392111902052611E-1   -8.320908140414951E-3
 6.457660542800000E9    -5.790595710287259E-1   -1.147297270681479E-1   -6.323817763545185E-3    4.684941576885700E-2   -3.981172337171524E-3    4.648586778451933E-2   -5.391712277408771E-1   -6.968904589965135E-3
 6.457671897725000E9    -5.791833430387630E-1   -1.137036562331383E-1   -6.324002821326502E-3    4.726265625321737E-2   -3.855378948421929E-3    4.688162726730259E-2   -5.391257330617147E-1   -5.482394586023024E-3
 6.457683252650000E9    -5.794475089669652E-1   -1.127021297426482E-1   -6.104949304678466E-3    4.759223159849737E-2   -3.746196356394575E-3    4.708003315576077E-2   -5.391547674210625E-1   -3.878565169496785E-3
 6.457694607575000E9    -5.794577764954882E-1   -1.117114646567113E-1   -6.135525177388280E-3    4.801141137829113E-2   -3.618350143916122E-3    4.753207078678252E-2   -5.391250410350166E-1   -2.233822019407984E-3
 6.457705962500000E9    -5.798103623369898E-1   -1.105861630758756E-1   -6.046107866039215E-3    4.833692828448089E-2   -3.626921007467468E-3    4.776971086963797E-2   -5.390966103560317E-1   -9.142593155952566E-4
 6.457717317425000E9    -5.798182988520528E-1   -1.094218930201577E-1   -5.960669596446535E-3    4.879031184028243E-2   -3.463993611725293E-3    4.817737614664885E-2   -5.390234320928622E-1    6.738283086185937E-4
 6.457728672350000E9    -5.799132343026742E-1   -1.084344235783938E-1   -5.873016142457881E-3    4.902008698130109E-2   -3.431422863757742E-3    4.857625477727288E-2   -5.389944075163563E-1    2.129839951876198E-3
 6.457740027275000E9    -5.802246381420025E-1   -1.074075137114370E-1   -5.709661728159706E-3    4.952354598214113E-2   -3.330361450651113E-3    4.893732035241544E-2   -5.389715351042150E-1    3.643423966420118E-3
 6.457751382200000E9    -5.802658904886735E-1   -1.062868596721508E-1   -5.734861565030947E-3    4.993885496035532E-2   -3.230562442110695E-3    4.932122440280720E-2   -5.389827780822546E-1    5.142831046167930E-3
 6.457762737125000E9    -5.804879208231567E-1   -1.052742809922317E-1   -5.620827785819003E-3    5.040356216983852E-2   -3.112782310961273E-3    4.966684689681589E-2   -5.389204245275496E-1    6.795053436727188E-3
 6.457774092050000E9    -5.806595211937270E-1   -1.041839605340776E-1   -5.555304843297585E-3    5.057869720607529E-2   -2.987502065732794E-3    5.000936374081913E-2   -5.388112799981818E-1    8.329705835241900E-3
 6.457785446975000E9    -5.807073961868356E-1   -1.031263101361905E-1   -5.371918523463146E-3    5.089776553014273E-2   -2.879559282237877E-3    5.038793877540204E-2   -5.386989729514122E-1    9.906999136373648E-3
 6.457796801900000E9    -5.808157290883581E-1   -1.020549096369009E-1   -5.302724005397897E-3    5.151657280917575E-2   -2.779911305794366E-3    5.073426111464616E-2   -5.387260139235697E-1    1.144080225097873E-2
 6.457808156825000E9    -5.810282688577075E-1   -1.010080810644672E-1   -5.250104558212077E-3    5.180561326205438E-2   -2.629313934455162E-3    5.116661988400578E-2   -5.385912254661083E-1    1.311505692945893E-2
 6.457819511750000E9    -5.809767777211675E-1   -9.995704933671930E-2   -5.202053949707100E-3    5.221705636049997E-2   -2.452128611415778E-3    5.153972166781574E-2   -5.384545317151300E-1    1.457636656725760E-2
 6.457830866675000E9    -5.811917576556893E-1   -9.890992078814242E-2   -5.034750240295155E-3    5.274613954929677E-2   -2.417009079773700E-3    5.197799696188695E-2   -5.382929481121130E-1    1.624608225838879E-2
 6.457842221600000E9    -5.812312540260227E-1   -9.774915587635827E-2   -4.867124151450114E-3    5.297600324264308E-2   -2.232654469487835E-3    5.240094895395156E-2   -5.381896772546186E-1    1.787470825460805E-2
 6.457853576525000E9    -5.815590159519979E-1   -9.660576731426809E-2   -4.809719590492766E-3    5.351744782133776E-2   -2.188629287727027E-3    5.276165000377389E-2   -5.381117681433094E-1    1.954816390268484E-2
 6.457864931450000E9    -5.815722892697606E-1   -9.565081308341941E-2   -4.751053284610518E-3    5.393713299190196E-2   -1.979389938780026E-3    5.313884921284263E-2   -5.379663770064681E-1    2.120800713093885E-2
 6.457876286375000E9    -5.816198100525961E-1   -9.448228249049702E-2   -4.579945507702672E-3    5.444834854421639E-2   -1.834636564333317E-3    5.359819261648677E-2   -5.379204793740868E-1    2.280086564987993E-2
 6.457887641300000E9    -5.817768762439054E-1   -9.328914519986824E-2   -4.491940784999574E-3    5.485041193513974E-2   -1.827388233544883E-3    5.407287831338675E-2   -5.376788728945998E-1    2.447273598673894E-2
 6.457898996225000E9    -5.818720010307876E-1   -9.223754674951452E-2   -4.354034897396813E-3    5.520459110577615E-2   -1.569873730843884E-3    5.446489742373486E-2   -5.376739830287178E-1    2.616403103700632E-2
 6.457910351150000E9    -5.820282827314675E-1   -9.108344233065228E-2   -4.144855623973349E-3    5.572404082774089E-2   -1.414655495688259E-3    5.485459504145892E-2   -5.374843328396455E-1    2.793804753816887E-2
 6.457921706075000E9    -5.821016829799817E-1   -9.003176780515004E-2   -4.087501867678534E-3    5.622505398613045E-2   -1.332499736705811E-3    5.541267573990006E-2   -5.373559949306341E-1    2.952445498108057E-2
 6.457933061000000E9    -5.822859418435206E-1   -8.889252758397566E-2   -3.980029754079866E-3    5.664901764833606E-2   -1.194983302932485E-3    5.594024180236783E-2   -5.371270326286292E-1    3.123796438718770E-2
 6.457944415925000E9    -5.823538113760599E-1   -8.780251750329492E-2   -3.769727071390768E-3    5.711212678636200E-2   -1.000397165753240E-3    5.635880091533566E-2   -5.370278233192283E-1    3.305658646161391E-2
 6.457955770850000E9    -5.823726156545915E-1   -8.666304943793289E-2   -3.652449513856209E-3    5.755252474098377E-2   -8.579451815479930E-4    5.677234587469070E-2   -5.367845707321597E-1    3.481854601425047E-2
 6.457967125775000E9    -5.825201820098828E-1   -8.557999587934149E-2   -3.485535339219553E-3    5.825085759953490E-2   -7.559826337637952E-4    5.730690733455145E-2   -5.364440653009183E-1    3.639499133427363E-2
 6.457978480700000E9    -5.826464728403479E-1   -8.443620347741812E-2   -3.427388015714780E-3    5.861809289303153E-2   -5.311118848101643E-4    5.776590425259281E-2   -5.363593208595014E-1    3.832545544984434E-2
 6.457989835625000E9    -5.827016590073696E-1   -8.332446760430048E-2   -3.190708331922705E-3    5.923541939144131E-2   -3.033308368174179E-4    5.825110551731262E-2   -5.362308600600959E-1    4.008428397940186E-2
 6.458001190550000E9    -5.827741963142368E-1   -8.206285720042955E-2   -3.089614447694101E-3    5.964305736452533E-2   -1.399891344692234E-4    5.873835652855015E-2   -5.358382854409790E-1    4.188959259135161E-2
 6.458012545475000E9    -5.827762751078737E-1   -8.105137997830496E-2   -2.787194359218839E-3    6.026849328505458E-2    3.658243269022945E-5    5.925279967660216E-2   -5.357109308850957E-1    4.357905796772043E-2
 6.458023900400000E9    -5.828918615272622E-1   -7.989801395943200E-2   -2.656580106509235E-3    6.075960284384364E-2    1.279969014973126E-4    5.978836256298155E-2   -5.355383489972805E-1    4.542756700203205E-2
 6.458035255325000E9    -5.830479489562146E-1   -7.874352550510610E-2   -2.520633505104639E-3    6.124426821706731E-2    4.396127613475205E-4    6.041695294244585E-2   -5.352381729375431E-1    4.737569100474120E-2
 6.458046610250000E9    -5.830855919239076E-1   -7.746011841012466E-2   -2.408109092987773E-3    6.186358694547516E-2    5.714855526964604E-4    6.078970809481023E-2   -5.348977190111067E-1    4.927210681095296E-2
