#  HZ   S   RI   R     50.00 
! Rohde & Schwarz Vector Network Analyzer 
! Rohde-Schwarz,ZNB20-2Port,1311601062101988,3.16
! Created: UTC 3/20/2024, 10:52:24 PM
! freq[Hz]                re:S11                  im:S11                  re:S21                  im:S21                  re:S12                  im:S12                  re:S22                  im:S22
 6.457050850000000E9    -5.674337547033564E-1   -1.681310099540773E-1   -8.640227434747776E-3    3.295839258209015E-2   -7.006903780989377E-3    3.288604612018352E-2   -5.344009648013218E-1   -7.771774421166258E-2
 6.457062232925000E9    -5.676994559712597E-1   -1.671778109018925E-1   -8.715773972924890E-3    3.320600480772461E-2   -6.994422303555785E-3    3.314822430633071E-2   -5.345893781877481E-1   -7.646538461416390E-2
 6.457073615850000E9    -5.679582585594336E-1   -1.662157766713730E-1   -8.582362793330788E-3    3.337378068042560E-2   -6.868819181630357E-3    3.325506155722809E-2   -5.349515007449288E-1   -7.540868401722840E-2
 6.457084998775000E9    -5.682422134549916E-1   -1.653215263904255E-1   -8.580416377654837E-3    3.354904097419063E-2   -6.821447642176190E-3    3.338826004426846E-2   -5.348675534066041E-1   -7.404282010786999E-2
 6.457096381700000E9    -5.684237349849739E-1   -1.644253629965722E-1   -8.612247318763736E-3    3.372471125546231E-2   -6.752062889453391E-3    3.368164036652211E-2   -5.350426960305043E-1   -7.286575045627784E-2
 6.457107764625000E9    -5.689120644743150E-1   -1.633963265495977E-1   -8.541272780512164E-3    3.391042296775610E-2   -6.786571893647320E-3    3.384771111038298E-2   -5.352176534013121E-1   -7.178280059332351E-2
 6.457119147550000E9    -5.690663395137568E-1   -1.624371365240696E-1   -8.521586939728898E-3    3.394161975533645E-2   -6.701678428297179E-3    3.400195199235014E-2   -5.354626197190749E-1   -7.056078409009006E-2
 6.457130530475000E9    -5.692142625310166E-1   -1.614580075187135E-1   -8.507934326144414E-3    3.432557967280263E-2   -6.629224778361548E-3    3.423701418400973E-2   -5.355335605549156E-1   -6.936734149562783E-2
 6.457141913400000E9    -5.695141415006844E-1   -1.604202772287424E-1   -8.383678670953720E-3    3.443312237456422E-2   -6.629731763620590E-3    3.438161160034894E-2   -5.357598116575344E-1   -6.820273677010337E-2
 6.457153296325000E9    -5.696720138886174E-1   -1.595624644720459E-1   -8.529896931828346E-3    3.480958541046310E-2   -6.627374916093205E-3    3.458387333131559E-2   -5.358504176677860E-1   -6.706781991018811E-2
 6.457164679250000E9    -5.700225552145548E-1   -1.585952345122817E-1   -8.396180311854412E-3    3.481323766283922E-2   -6.536377448201277E-3    3.486585313956101E-2   -5.359760994895129E-1   -6.592386658486206E-2
 6.457176062175000E9    -5.702976526259240E-1   -1.577353720213880E-1   -8.528118462472241E-3    3.502788434633807E-2   -6.564995219571945E-3    3.495746114948293E-2   -5.361141309264434E-1   -6.456389063135184E-2
 6.457187445100000E9    -5.705470180204881E-1   -1.567098103200445E-1   -8.539501564115055E-3    3.533921747002751E-2   -6.584695315388368E-3    3.514182384535092E-2   -5.361689132826998E-1   -6.326582470744689E-2
 6.457198828025000E9    -5.707515210476701E-1   -1.556315722256796E-1   -8.388285308548189E-3    3.555163675701306E-2   -6.456404070552328E-3    3.537028656025075E-2   -5.362117946179094E-1   -6.199526199112300E-2
 6.457210210950000E9    -5.709230120868292E-1   -1.548193174386568E-1   -8.227269411950728E-3    3.567913274309737E-2   -6.410261760387496E-3    3.555561011448793E-2   -5.366147880896336E-1   -6.080082111695331E-2
 6.457221593875000E9    -5.711681385417644E-1   -1.537750664087852E-1   -8.257980464526549E-3    3.595412856901926E-2   -6.428044111116845E-3    3.588446030353992E-2   -5.366222554737630E-1   -5.944998009245202E-2
 6.457232976800000E9    -5.714874639893255E-1   -1.527439777905955E-1   -8.164952739182996E-3    3.627386378184173E-2   -6.428845375317240E-3    3.608441164934587E-2   -5.368578583109898E-1   -5.841302410767297E-2
 6.457244359725000E9    -5.716190179839425E-1   -1.518616477536695E-1   -8.272410568133123E-3    3.639796377365433E-2   -6.288736853948178E-3    3.620334635827696E-2   -5.368339767535631E-1   -5.699308053058059E-2
 6.457255742650000E9    -5.719863422022173E-1   -1.508212975836231E-1   -8.063123713368134E-3    3.669254516328375E-2   -6.259593537888194E-3    3.644968766470073E-2   -5.370553885285052E-1   -5.590452612358681E-2
 6.457267125575000E9    -5.721577110623649E-1   -1.500515539870585E-1   -8.120892055389212E-3    3.684874898424431E-2   -6.236198689853073E-3    3.674765682808913E-2   -5.370621407123926E-1   -5.471663154676932E-2
 6.457278508500000E9    -5.722796164049838E-1   -1.489257627166919E-1   -8.122749655235769E-3    3.710972027989805E-2   -6.154286690186231E-3    3.688519745626040E-2   -5.372836974013236E-1   -5.339039213458911E-2
 6.457289891425000E9    -5.726103787924153E-1   -1.480073481430924E-1   -8.073994132345812E-3    3.723349836663938E-2   -6.112313468241517E-3    3.717727258603605E-2   -5.374046132593666E-1   -5.221395790104808E-2
 6.457301274350000E9    -5.727360551814192E-1   -1.470182441860330E-1   -8.093404170729339E-3    3.747649053859935E-2   -5.961192728555333E-3    3.732785768475241E-2   -5.374877820618569E-1   -5.104483509547714E-2
 6.457312657275000E9    -5.731392855650361E-1   -1.460718281534079E-1   -7.962443337644948E-3    3.775697345656519E-2   -5.994067785253638E-3    3.751805723299733E-2   -5.377212369806529E-1   -4.972847655322388E-2
 6.457324040200000E9    -5.731928550306638E-1   -1.451174232097816E-1   -7.862792291734387E-3    3.802322225325418E-2   -5.890167536875212E-3    3.778810955788336E-2   -5.376892662899705E-1   -4.833579917011304E-2
 6.457335423125000E9    -5.735094908851728E-1   -1.440997675549890E-1   -7.867928501421375E-3    3.811870524660555E-2   -5.927369417273872E-3    3.813661656504228E-2   -5.378390392447541E-1   -4.701686685286200E-2
 6.457346806050000E9    -5.736750310775413E-1   -1.431628408698757E-1   -7.823382436044031E-3    3.839011420847355E-2   -5.916542530248855E-3    3.821970168939597E-2   -5.378104203276634E-1   -4.571943556301555E-2
 6.457358188975000E9    -5.738539004378416E-1   -1.421118268358609E-1   -7.847561122096201E-3    3.865574890068299E-2   -5.828415053865922E-3    3.840816052925689E-2   -5.378435703603534E-1   -4.437500261989830E-2
 6.457369571900000E9    -5.741759191703946E-1   -1.411578390161180E-1   -7.756768872767863E-3    3.887756599812841E-2   -5.743497255560904E-3    3.864601100975702E-2   -5.379345778632942E-1   -4.313263068400323E-2
 6.457380954825000E9    -5.743611364779196E-1   -1.401456782333237E-1   -7.695855530797348E-3    3.920709608331055E-2   -5.743770649441855E-3    3.899112773498310E-2   -5.380502434940672E-1   -4.187114854395535E-2
 6.457392337750000E9    -5.745476434890234E-1   -1.390631754023246E-1   -7.675684593051861E-3    3.933525821397433E-2   -5.736253926501631E-3    3.920595766915572E-2   -5.382375963434175E-1   -4.055734491631235E-2
 6.457403720675000E9    -5.747694540441964E-1   -1.382983292553447E-1   -7.608337674237084E-3    3.976988007541168E-2   -5.622197430819652E-3    3.942119583424750E-2   -5.383129353569802E-1   -3.915744470428187E-2
 6.457415103600000E9    -5.749837805159824E-1   -1.372072543587306E-1   -7.605782726264244E-3    3.997224617477131E-2   -5.561821748156991E-3    3.967576666152114E-2   -5.383643994848909E-1   -3.791016671029146E-2
 6.457426486525000E9    -5.752620053408695E-1   -1.362023339996129E-1   -7.575929787207122E-3    4.016936606198395E-2   -5.514670829077735E-3    4.000011633056601E-2   -5.384465002086501E-1   -3.659458978103435E-2
 6.457437869450000E9    -5.753902484710182E-1   -1.351884919963020E-1   -7.399616820304765E-3    4.050290839196549E-2   -5.478275403222142E-3    4.017637964039136E-2   -5.385173627371922E-1   -3.530375631287709E-2
 6.457449252375000E9    -5.756013910714651E-1   -1.341995144854306E-1   -7.278667110347542E-3    4.078432111994496E-2   -5.402799218794124E-3    4.045067336750179E-2   -5.386606092890305E-1   -3.397764373019788E-2
 6.457460635300000E9    -5.758354493865027E-1   -1.332370706300040E-1   -7.383812931295992E-3    4.097338993602830E-2   -5.268777194938639E-3    4.072213088822004E-2   -5.386266509283913E-1   -3.260077704580383E-2
 6.457472018225000E9    -5.760079962820230E-1   -1.322188507036162E-1   -7.443843141247328E-3    4.124952457233354E-2   -5.247594412720836E-3    4.102279958932695E-2   -5.387989368341445E-1   -3.134176803036925E-2
 6.457483401150000E9    -5.761871802258001E-1   -1.312128554882606E-1   -7.369481088107105E-3    4.151002675858522E-2   -5.222755208192464E-3    4.125948553160639E-2   -5.387559802240358E-1   -2.983224438973481E-2
 6.457494784075000E9    -5.762516257048983E-1   -1.301439187660828E-1   -7.329358232090085E-3    4.192011006130914E-2   -5.116148174271497E-3    4.142168128919569E-2   -5.388544018069777E-1   -2.860499007877220E-2
 6.457506167000000E9    -5.765964829961259E-1   -1.291885759730017E-1   -7.274696826204397E-3    4.204705529539338E-2   -4.932014443226052E-3    4.172932442981669E-2   -5.388862374761240E-1   -2.708297644698560E-2
 6.457517549925000E9    -5.768143368153258E-1   -1.281451534315945E-1   -7.083548426855331E-3    4.237322553903859E-2   -5.027228267444814E-3    4.201005092238151E-2   -5.390539091787452E-1   -2.583504168614229E-2
 6.457528932850000E9    -5.769507587445266E-1   -1.271714104749351E-1   -7.068616188523493E-3    4.273756334375823E-2   -4.880163375587145E-3    4.227116219052030E-2   -5.388941182566260E-1   -2.445644663206781E-2
 6.457540315775000E9    -5.770313045594390E-1   -1.261217248021856E-1   -7.067943197918851E-3    4.282807265528222E-2   -4.809619974553201E-3    4.254884575321116E-2   -5.390471718309037E-1   -2.305849401102461E-2
 6.457551698700000E9    -5.773619881176113E-1   -1.252070263621680E-1   -7.079858435620222E-3    4.320731179211766E-2   -4.780043671170544E-3    4.295049564535081E-2   -5.389970893939803E-1   -2.160335394281315E-2
 6.457563081625000E9    -5.774753547333071E-1   -1.241781597065086E-1   -6.832707704602145E-3    4.362102972402603E-2   -4.767378007841276E-3    4.313783255712844E-2   -5.391702997201916E-1   -2.024968522318590E-2
 6.457574464550000E9    -5.776125696718173E-1   -1.230443277117517E-1   -6.967106891003104E-3    4.383934502636856E-2   -4.673935633562686E-3    4.343973582418242E-2   -5.391778128905437E-1   -1.875707189785743E-2
 6.457585847475000E9    -5.778373644848738E-1   -1.220979557144328E-1   -6.821481569167289E-3    4.416330555951540E-2   -4.618194463513694E-3    4.370793693977724E-2   -5.392455014777372E-1   -1.753780152291323E-2
 6.457597230400000E9    -5.779328523864790E-1   -1.210109559713046E-1   -6.808992501343544E-3    4.457998330977026E-2   -4.411209094698294E-3    4.406702143714555E-2   -5.391321357268460E-1   -1.610439238309260E-2
 6.457608613325000E9    -5.782335853335995E-1   -1.199191769777710E-1   -6.627929339534080E-3    4.481192754030063E-2   -4.353802976054067E-3    4.437770439104919E-2   -5.391463479060121E-1   -1.447842181498198E-2
 6.457619996250000E9    -5.783686314223681E-1   -1.190638901183109E-1   -6.633978153571942E-3    4.502652944728724E-2   -4.246476620094905E-3    4.460108875286234E-2   -5.391303158489110E-1   -1.324369215675731E-2
 6.457631379175000E9    -5.786264146672255E-1   -1.179600421765275E-1   -6.512392170318041E-3    4.534012949837419E-2   -4.183739017604826E-3    4.494648778578374E-2   -5.391326764099834E-1   -1.182380779709845E-2
 6.457642762100000E9    -5.787118281143244E-1   -1.169021787587617E-1   -6.492053307349228E-3    4.577735860634539E-2   -4.143204746984499E-3    4.523689214407642E-2   -5.391454143811694E-1   -1.041248752197342E-2
 6.457654145025000E9    -5.789680129979051E-1   -1.158593270776739E-1   -6.488380118230281E-3    4.602665002060016E-2   -4.096366287969135E-3    4.559547983712610E-2   -5.391726820120525E-1   -8.901207907562301E-3
 6.457665527950000E9    -5.790181502025036E-1   -1.148627555094433E-1   -6.321688191515322E-3    4.644078747760853E-2   -3.941665210751157E-3    4.595583818061855E-2   -5.391447467080461E-1   -7.367413559984261E-3
 6.457676910875000E9    -5.791923784884331E-1   -1.138184570631627E-1   -6.333139463788031E-3    4.658168808737693E-2   -3.821916589073573E-3    4.621008820934367E-2   -5.392095936374498E-1   -5.960858318961829E-3
 6.457688293800000E9    -5.793994865467053E-1   -1.127790096981715E-1   -6.234184656071000E-3    4.711890443012654E-2   -3.858802630529220E-3    4.660551856219668E-2   -5.390642423035086E-1   -4.460230188942912E-3
 6.457699676725000E9    -5.794862031128297E-1   -1.117689667781017E-1   -6.151431719109537E-3    4.737673761829954E-2   -3.651466743711989E-3    4.699101707762879E-2   -5.391357621489976E-1   -2.883284087182950E-3
 6.457711059650000E9    -5.796144770997145E-1   -1.107218584789100E-1   -5.972879524108199E-3    4.786141407809729E-2   -3.623571036381800E-3    4.727844032945098E-2   -5.390431358941294E-1   -1.584055491027530E-3
 6.457722442575000E9    -5.798385851142970E-1   -1.095683601245776E-1   -5.927109562969889E-3    4.812963580728193E-2   -3.467794559141180E-3    4.766587767861661E-2   -5.389203375569769E-1    1.059830322511799E-4
 6.457733825500000E9    -5.801010482274310E-1   -1.086125471213200E-1   -5.877040389561249E-3    4.851342185763764E-2   -3.444001135945684E-3    4.796790620872569E-2   -5.390224130046778E-1    1.482620355054735E-3
 6.457745208425000E9    -5.801036940327391E-1   -1.075311069867353E-1   -5.767439140549569E-3    4.893224757917553E-2   -3.311132624972782E-3    4.825029078598850E-2   -5.389350547203671E-1    3.121501367793354E-3
 6.457756591350000E9    -5.802546806724106E-1   -1.064877848593652E-1   -5.674877830898511E-3    4.913375536210313E-2   -3.210395403647800E-3    4.862704798092507E-2   -5.388421106945719E-1    4.683361376234063E-3
 6.457767974275000E9    -5.803621019804936E-1   -1.054775813643176E-1   -5.664939411441541E-3    4.955005947582328E-2   -3.099072568530928E-3    4.899576534027129E-2   -5.388764439888085E-1    6.075075985649717E-3
 6.457779357200000E9    -5.805741275324887E-1   -1.043680855720955E-1   -5.417944701558644E-3    4.993528408883387E-2   -3.004706492289623E-3    4.943598281188911E-2   -5.387326808496844E-1    7.771300906505049E-3
 6.457790740125000E9    -5.807912325760998E-1   -1.033081593230399E-1   -5.437317666809444E-3    5.021974476160986E-2   -2.768764994874664E-3    4.964204063046546E-2   -5.386766450967083E-1    9.148680530835007E-3
 6.457802123050000E9    -5.808466058785794E-1   -1.022101476709754E-1   -5.310603412638787E-3    5.079020916529634E-2   -2.763057364200888E-3    5.009290776660935E-2   -5.386595359185701E-1    1.086017824719774E-2
 6.457813505975000E9    -5.809106926054594E-1   -1.011222549538907E-1   -5.246712631814823E-3    5.120225500967751E-2   -2.765213094695845E-3    5.057240207193255E-2   -5.386041051150883E-1    1.242586915925815E-2
 6.457824888900000E9    -5.810664990128040E-1   -1.000027223089904E-1   -5.043749024809763E-3    5.148093682375886E-2   -2.638614590974907E-3    5.094474693152173E-2   -5.384567601491288E-1    1.384930880286813E-2
 6.457836271825000E9    -5.812025906494819E-1   -9.892806480734276E-2   -5.052392050106340E-3    5.201059977172875E-2   -2.384070308659115E-3    5.119169026563763E-2   -5.383448766800264E-1    1.551499002045669E-2
 6.457847654750000E9    -5.814272132463484E-1   -9.795121247367798E-2   -4.829238866319320E-3    5.235194810035099E-2   -2.283039952693853E-3    5.169518235743376E-2   -5.383375284358473E-1    1.712943036451206E-2
 6.457859037675000E9    -5.814532192814352E-1   -9.685912134033975E-2   -4.785847462430748E-3    5.278276626078292E-2   -2.228682725476489E-3    5.207836702381582E-2   -5.381639071936936E-1    1.865559777897649E-2
 6.457870420600000E9    -5.814780806852567E-1   -9.571750241189610E-2   -4.601773720985850E-3    5.312725369614187E-2   -2.118135452928374E-3    5.246598402890017E-2   -5.380739945150484E-1    2.049527950406487E-2
 6.457881803525000E9    -5.817254035845988E-1   -9.459233769340659E-2   -4.551288809613764E-3    5.370705866049837E-2   -2.021590265950564E-3    5.286708037738998E-2   -5.377973785650252E-1    2.214469664598962E-2
 6.457893186450000E9    -5.817284464214337E-1   -9.354788901008503E-2   -4.453674760050771E-3    5.413785303295279E-2   -1.685973850900894E-3    5.343880487865595E-2   -5.376867550647493E-1    2.370001122023795E-2
 6.457904569375000E9    -5.818862890760690E-1   -9.235604090039932E-2   -4.262268313666412E-3    5.445528515773270E-2   -1.704592871449810E-3    5.373895501589573E-2   -5.377565367746376E-1    2.535745534007529E-2
 6.457915952300000E9    -5.819976722805709E-1   -9.121234568225764E-2   -4.207071046203216E-3    5.485390887753822E-2   -1.500825463483412E-3    5.417383328324585E-2   -5.374877218527671E-1    2.702838239141017E-2
 6.457927335225000E9    -5.822059008518559E-1   -9.022190511222355E-2   -4.114247076308700E-3    5.545094071745013E-2   -1.313738110256938E-3    5.450669579246413E-2   -5.374236352442981E-1    2.852918118259293E-2
 6.457938718150000E9    -5.821781945309888E-1   -8.912805916700393E-2   -3.953621140396902E-3    5.591906337709911E-2   -1.206200308122837E-3    5.500967034378655E-2   -5.373652633169138E-1    3.041607805785943E-2
 6.457950101075000E9    -5.823341836591471E-1   -8.792037443340188E-2   -3.761022414809587E-3    5.633552635687662E-2   -1.020149974412397E-3    5.547275725923340E-2   -5.370350650320609E-1    3.215189363882954E-2
 6.457961484000000E9    -5.824623736068868E-1   -8.685080469227881E-2   -3.670110506918118E-3    5.675669116127231E-2   -8.900265136760774E-4    5.598521802688160E-2   -5.368916655813732E-1    3.398052025346558E-2
 6.457972866925000E9    -5.826304656939539E-1   -8.575203538192985E-2   -3.617700248389888E-3    5.727540116811149E-2   -7.968268026798408E-4    5.640963415130321E-2   -5.366071481332899E-1    3.563187934752170E-2
 6.457984249850000E9    -5.825042255137592E-1   -8.458802772766007E-2   -3.316842044656142E-3    5.786973284048802E-2   -6.267129970505995E-4    5.683598097957001E-2   -5.365576554112008E-1    3.730149346055091E-2
 6.457995632775000E9    -5.827029565734221E-1   -8.355114298766009E-2   -3.190712429207567E-3    5.834436183882875E-2   -4.130595069596258E-4    5.739011091457684E-2   -5.363450404638043E-1    3.907409138004754E-2
 6.458007015700000E9    -5.827441425129363E-1   -8.233952160778396E-2   -2.976990567610423E-3    5.884539856688364E-2   -1.941952866322307E-4    5.786412647284984E-2   -5.360503827835382E-1    4.080734760576457E-2
 6.458018398625000E9    -5.828619147462759E-1   -8.126017838116248E-2   -2.918304716308789E-3    5.933268643959388E-2   -3.046095030904517E-5    5.837626411333738E-2   -5.356920093861243E-1    4.265636063934329E-2
 6.458029781550000E9    -5.830060604625880E-1   -8.007069940004581E-2   -2.816716897310711E-3    5.987136163846841E-2    8.924437072074839E-5    5.885697092475310E-2   -5.355832861025278E-1    4.446107627671567E-2
 6.458041164475000E9    -5.830026981078339E-1   -7.886427808647535E-2   -2.541294749096154E-3    6.041535102709678E-2    2.547384944755136E-4    5.944248932871530E-2   -5.352898005557051E-1    4.626987915868579E-2
 6.458052547400000E9    -5.830694222347745E-1   -7.780534706160001E-2   -2.524926576895166E-3    6.107773219009675E-2    4.659099186742566E-4    5.988919018056486E-2   -5.351461426351992E-1    4.809535316096602E-2
 6.458063930325000E9    -5.830114766289830E-1   -7.664421825786899E-2   -2.341785473903601E-3    6.149835132021345E-2    6.856049477895024E-4    6.038575846531894E-2   -5.349473674510473E-1    5.000308389951678E-2
 6.458075313250000E9    -5.831160644843940E-1   -7.549511462080484E-2   -2.103104930999054E-3    6.201309642075404E-2    8.833426876317958E-4    6.099257921740919E-2   -5.346868493021647E-1    5.178578962674574E-2
