#  HZ   S   RI   R     50.00 
! Rohde & Schwarz Vector Network Analyzer 
! Rohde-Schwarz,ZNB20-2Port,1311601062101988,3.16
! Created: UTC 12/23/2023, 3:46:59 AM
! freq[Hz]                re:S11                  im:S11                  re:S21                  im:S21                  re:S12                  im:S12                  re:S22                  im:S22
 6.516883186000000E9    -2.312967987072872E-1   -1.931736741597763E-2    1.282094386621626E-2   -4.985130149461346E-3    1.287352359987059E-2   -4.459283009517869E-3    1.950615884285273E-1    5.123066362337332E-1
 6.516895432725000E9    -2.310521852668175E-1   -1.913546360440136E-2    1.285101215569139E-2   -4.935977180798845E-3    1.305076319212187E-2   -4.613031825584149E-3    1.958748167473219E-1    5.118954406648314E-1
 6.516907679450000E9    -2.310400875130224E-1   -1.886427322527114E-2    1.295721940616667E-2   -5.113198450551872E-3    1.315233522437088E-2   -4.672839656573484E-3    1.968677298103413E-1    5.116156447281567E-1
 6.516919926175000E9    -2.309332416964524E-1   -1.877183301619598E-2    1.302403262572014E-2   -5.169574238918504E-3    1.308828538796458E-2   -4.620747221945945E-3    1.978304740253930E-1    5.111807303677496E-1
 6.516932172900000E9    -2.307073122249356E-1   -1.846178208658746E-2    1.298858831248471E-2   -5.246782040342293E-3    1.322243093615307E-2   -4.772479343923185E-3    1.985244750385185E-1    5.109475950378645E-1
 6.516944419625000E9    -2.306338883170717E-1   -1.829117654323499E-2    1.320643885665388E-2   -5.160385513647358E-3    1.320554832784872E-2   -4.807038155299767E-3    1.994829654362235E-1    5.105324131870792E-1
 6.516956666350000E9    -2.304687706589841E-1   -1.810636640605902E-2    1.317744613578952E-2   -5.369781269041594E-3    1.332132196872235E-2   -4.755592370541745E-3    2.004601864952476E-1    5.102476226923494E-1
 6.516968913075000E9    -2.305256241810499E-1   -1.792896829853906E-2    1.317577010111422E-2   -5.426215845180223E-3    1.334400986691907E-2   -4.814182511762344E-3    2.013330532485485E-1    5.097650193189832E-1
 6.516981159800000E9    -2.302825820459276E-1   -1.769081876296785E-2    1.324534749369215E-2   -5.405786307191102E-3    1.334720933475853E-2   -5.012769761841396E-3    2.022194742054095E-1    5.095844818781626E-1
 6.516993406525000E9    -2.301779460526886E-1   -1.764189693779128E-2    1.341370736465371E-2   -5.406570660172590E-3    1.344189575505676E-2   -5.002293482658630E-3    2.032123964823807E-1    5.092430597310915E-1
 6.517005653250000E9    -2.300568372338391E-1   -1.731582728436693E-2    1.331449825141280E-2   -5.441853386314239E-3    1.350581030924261E-2   -5.074718326834864E-3    2.040571510947144E-1    5.087736496879015E-1
 6.517017899975000E9    -2.299595576141771E-1   -1.718589854375762E-2    1.340482875841647E-2   -5.620989927217981E-3    1.361191348285503E-2   -5.163885657624538E-3    2.049777251334842E-1    5.084567725460525E-1
 6.517030146700000E9    -2.297969602198021E-1   -1.704975488365475E-2    1.345834776324105E-2   -5.733341852960731E-3    1.368439458605915E-2   -5.097935634585874E-3    2.059908307691570E-1    5.079299186053057E-1
 6.517042393425000E9    -2.297206631220483E-1   -1.682290095291008E-2    1.362080968825661E-2   -5.695329284472395E-3    1.362524857458002E-2   -5.276786587133216E-3    2.068879908451992E-1    5.077838762138148E-1
 6.517054640150000E9    -2.295787035104597E-1   -1.659318424652666E-2    1.358538828689352E-2   -5.722141970013174E-3    1.375422615497744E-2   -5.215057251579084E-3    2.077335804835373E-1    5.074490243799418E-1
 6.517066886875000E9    -2.294591679446799E-1   -1.643116980095763E-2    1.365174737310941E-2   -5.701503281644503E-3    1.382636402181357E-2   -5.417312975008821E-3    2.084872212883599E-1    5.071392695432185E-1
 6.517079133600000E9    -2.293498969136292E-1   -1.629691202822035E-2    1.368648030468123E-2   -5.819972506929619E-3    1.391816105442576E-2   -5.373786210089854E-3    2.095837678091247E-1    5.066407317387701E-1
 6.517091380325000E9    -2.292042867486760E-1   -1.610983468232215E-2    1.374436166060980E-2   -5.993401581576146E-3    1.385070083060855E-2   -5.443390915605116E-3    2.105925189281800E-1    5.064303122053158E-1
 6.517103627050000E9    -2.290786412174137E-1   -1.574137262754049E-2    1.380837050529420E-2   -5.958248724625818E-3    1.393709428366745E-2   -5.527292532896542E-3    2.113555173711495E-1    5.059170871221295E-1
 6.517115873775000E9    -2.289639856060042E-1   -1.566823965137280E-2    1.393181054158770E-2   -5.947111702342955E-3    1.401930363191002E-2   -5.635619859150552E-3    2.121370288073461E-1    5.056375465557844E-1
 6.517128120500000E9    -2.287729263898921E-1   -1.546761074224472E-2    1.400667667373715E-2   -6.114255064843109E-3    1.401087956782444E-2   -5.675701347134539E-3    2.130263475989854E-1    5.052403645830174E-1
 6.517140367225000E9    -2.286571483945042E-1   -1.539511736165256E-2    1.400143527459859E-2   -6.123324104175441E-3    1.415243257406128E-2   -5.604318921588376E-3    2.140447433824476E-1    5.047889247111487E-1
 6.517152613950000E9    -2.284801748356686E-1   -1.516496394995795E-2    1.408682529555384E-2   -6.120088072495976E-3    1.426714248170788E-2   -5.662604506782798E-3    2.150500071162282E-1    5.044473422579688E-1
 6.517164860675000E9    -2.283358998469796E-1   -1.496828064058425E-2    1.427317741441413E-2   -6.291960906192828E-3    1.428223757422999E-2   -5.849240675713035E-3    2.157821767245705E-1    5.040702714542720E-1
 6.517177107400000E9    -2.282491145170999E-1   -1.475708481669520E-2    1.420697562811892E-2   -6.343804152783385E-3    1.440481927954519E-2   -5.812395599302312E-3    2.167906985114155E-1    5.038382681670794E-1
 6.517189354125000E9    -2.281609276370930E-1   -1.459747279958973E-2    1.430983807622235E-2   -6.484730207445341E-3    1.451793939700833E-2   -5.903903689477600E-3    2.175562311713644E-1    5.034402951975396E-1
 6.517201600850000E9    -2.279792671142293E-1   -1.442724057513385E-2    1.433664301968252E-2   -6.516486297827328E-3    1.447331017723030E-2   -6.052711810069283E-3    2.186826080516490E-1    5.029556914399421E-1
 6.517213847575000E9    -2.278073883340626E-1   -1.435512436268531E-2    1.451596115829465E-2   -6.593224411353231E-3    1.461493034766172E-2   -6.080470198125718E-3    2.194131885731070E-1    5.026346511522474E-1
 6.517226094300000E9    -2.276916088463206E-1   -1.410449363229633E-2    1.451497928037539E-2   -6.612900762399533E-3    1.470268040389772E-2   -6.063431633333875E-3    2.204311110305658E-1    5.021359520397818E-1
 6.517238341025000E9    -2.275544468446089E-1   -1.385096845952662E-2    1.455821085750801E-2   -6.687731819103650E-3    1.478953900915040E-2   -6.130063663906591E-3    2.212172869950742E-1    5.019060807062834E-1
 6.517250587750000E9    -2.274556033644930E-1   -1.368654681570206E-2    1.464708892079048E-2   -6.829246156999871E-3    1.480102281419881E-2   -6.136635756477388E-3    2.222189020017930E-1    5.015096906779830E-1
 6.517262834475000E9    -2.273248323136428E-1   -1.367297847823871E-2    1.471126840763284E-2   -6.766174393284566E-3    1.481131876584439E-2   -6.241615813946062E-3    2.231816464516013E-1    5.010584460174000E-1
 6.517275081200000E9    -2.272131299354591E-1   -1.329776036520738E-2    1.482212902177077E-2   -6.928155220701870E-3    1.497476757927830E-2   -6.316772372698991E-3    2.241796220166480E-1    5.006827742785228E-1
 6.517287327925000E9    -2.270608599926809E-1   -1.315541556129165E-2    1.473758741588076E-2   -6.939768934548270E-3    1.511430194067167E-2   -6.467454764329258E-3    2.249676947636729E-1    5.001991686645937E-1
 6.517299574650000E9    -2.267849540912590E-1   -1.300946081444420E-2    1.488523298274767E-2   -6.971466353685550E-3    1.512801605752682E-2   -6.497515777896008E-3    2.258468072114666E-1    4.999211951219232E-1
 6.517311821375000E9    -2.266999930768916E-1   -1.294687388103054E-2    1.492645639661065E-2   -7.125416495435111E-3    1.520026249021663E-2   -6.574177467983447E-3    2.269291762990095E-1    4.993259220903660E-1
 6.517324068100000E9    -2.265817823315041E-1   -1.257738596073684E-2    1.501812729997758E-2   -7.229081590746852E-3    1.527187313886918E-2   -6.539670134259068E-3    2.277640044236958E-1    4.990608138521913E-1
 6.517336314825000E9    -2.264956315729499E-1   -1.248042833802060E-2    1.502175768245856E-2   -7.216586894992532E-3    1.528321726717088E-2   -6.701280364175437E-3    2.285993093262457E-1    4.984671239459371E-1
 6.517348561550000E9    -2.262848879722567E-1   -1.243429027553677E-2    1.518216400563050E-2   -7.251535027227168E-3    1.534792086033157E-2   -6.763570532513045E-3    2.295033503916042E-1    4.982557530798484E-1
 6.517360808275000E9    -2.260914471622483E-1   -1.219334463540263E-2    1.524164550812596E-2   -7.305702092800872E-3    1.537732821119743E-2   -6.823351305011618E-3    2.304193923455248E-1    4.978808602650130E-1
 6.517373055000000E9    -2.260724186246851E-1   -1.214350136500374E-2    1.529008234291066E-2   -7.516058914535446E-3    1.539321807624169E-2   -6.936633468589825E-3    2.314069469310575E-1    4.973038736850483E-1
 6.517385301725000E9    -2.258296549248383E-1   -1.183547800201216E-2    1.546442787762327E-2   -7.551993505956182E-3    1.555009214563629E-2   -6.999144052738391E-3    2.322248989287174E-1    4.969019874740506E-1
 6.517397548450000E9    -2.256963582333640E-1   -1.162004156380364E-2    1.558414898351404E-2   -7.638951417401798E-3    1.564597105496442E-2   -7.039947495338332E-3    2.330294914433482E-1    4.965295027280552E-1
 6.517409795175000E9    -2.255767768083675E-1   -1.157547042072353E-2    1.553814866424977E-2   -7.765098702845944E-3    1.579325706228616E-2   -7.200382833744636E-3    2.340099092259003E-1    4.962360632321144E-1
 6.517422041900000E9    -2.253772764736078E-1   -1.136412915462749E-2    1.566720402201443E-2   -7.685942559806577E-3    1.583878339669882E-2   -7.328854502190387E-3    2.349276926496323E-1    4.957697531925388E-1
 6.517434288625000E9    -2.251251019340101E-1   -1.114962349182961E-2    1.575200707846380E-2   -7.802729065897999E-3    1.593518875094952E-2   -7.387605473888076E-3    2.357978128150355E-1    4.952755196892644E-1
 6.517446535350000E9    -2.249688231830486E-1   -1.108610220418809E-2    1.575938850129003E-2   -7.995146335401182E-3    1.599048387493130E-2   -7.367821516755716E-3    2.366586798071466E-1    4.948175325714064E-1
 6.517458782075000E9    -2.249741204449283E-1   -1.084464050948780E-2    1.585512447594532E-2   -8.024276826530043E-3    1.608300725918888E-2   -7.521559978763700E-3    2.374824493652884E-1    4.943634251272687E-1
 6.517471028800000E9    -2.246203164411618E-1   -1.081486295115627E-2    1.603133086603353E-2   -8.117610394132176E-3    1.622856543416236E-2   -7.601074934063840E-3    2.385981382509745E-1    4.939656516208634E-1
 6.517483275525000E9    -2.246020342243172E-1   -1.050285590146289E-2    1.598460174759818E-2   -8.174674775138771E-3    1.622138856551282E-2   -7.688455374692428E-3    2.393889241870880E-1    4.936299521616082E-1
 6.517495522250000E9    -2.244718965583171E-1   -1.049839632356042E-2    1.616441573004169E-2   -8.324639177159044E-3    1.633359890477884E-2   -7.897465317158651E-3    2.403634382276872E-1    4.931418019839869E-1
 6.517507768975000E9    -2.241645348602747E-1   -1.033271599535369E-2    1.618071269939942E-2   -8.380480757696264E-3    1.650639485157706E-2   -7.909236085356120E-3    2.413413170378103E-1    4.926522962308159E-1
 6.517520015700000E9    -2.240874487485722E-1   -1.008917831079252E-2    1.624816858978366E-2   -8.526871503128818E-3    1.656843298441673E-2   -7.907419198824935E-3    2.421853371447448E-1    4.922856769144650E-1
 6.517532262425000E9    -2.238791500467200E-1   -1.004406786462484E-2    1.634666722622553E-2   -8.621458861042064E-3    1.667339818828786E-2   -8.009302707043796E-3    2.430132431382879E-1    4.918484015246484E-1
 6.517544509150000E9    -2.236315092589738E-1   -9.915848650879902E-3    1.640303053551378E-2   -8.702405571023730E-3    1.674518087900590E-2   -8.140111492655316E-3    2.440142194377495E-1    4.912139192652984E-1
 6.517556755875000E9    -2.235427719270907E-1   -9.632804834415752E-3    1.656769985859604E-2   -8.692529600586659E-3    1.677555961191889E-2   -8.228727564782783E-3    2.448537922470265E-1    4.910313337627598E-1
 6.517569002600000E9    -2.234264023016981E-1   -9.582351305877094E-3    1.664497412123639E-2   -8.957819377882001E-3    1.693184645946555E-2   -8.294848233552355E-3    2.457888431820878E-1    4.904684832398165E-1
 6.517581249325000E9    -2.232108178133545E-1   -9.472224598683240E-3    1.676348080558455E-2   -9.007147321418258E-3    1.697832040381804E-2   -8.408512376039066E-3    2.465195813611966E-1    4.899307588702995E-1
 6.517593496050000E9    -2.230301487589176E-1   -9.315692913639194E-3    1.685349983970969E-2   -9.105562005618533E-3    1.710643102402053E-2   -8.483846792166348E-3    2.475228629207309E-1    4.895033821265216E-1
 6.517605742775000E9    -2.228106988236788E-1   -9.110040039027666E-3    1.700894660371473E-2   -9.098768801905544E-3    1.723187817279036E-2   -8.514388211469570E-3    2.484864260443742E-1    4.890956066431371E-1
 6.517617989500000E9    -2.226718418421583E-1   -9.039457063808045E-3    1.697365280987847E-2   -9.194950713644429E-3    1.726077988793947E-2   -8.818542796717250E-3    2.494380081862851E-1    4.885115084342707E-1
 6.517630236225000E9    -2.224133705125088E-1   -8.888882695761520E-3    1.717124105326785E-2   -9.328783181547361E-3    1.739691337947971E-2   -8.833259024040656E-3    2.503751830625239E-1    4.881165593009941E-1
 6.517642482950000E9    -2.222964144236620E-1   -8.755005865954199E-3    1.721189436480506E-2   -9.516944841258828E-3    1.753929578667721E-2   -8.936365022269617E-3    2.511749036585759E-1    4.876805103972888E-1
 6.517654729675000E9    -2.221377512252651E-1   -8.655294463478179E-3    1.725655788533042E-2   -9.694460727325535E-3    1.748924746304457E-2   -9.017902583364813E-3    2.521497223437911E-1    4.871974351803008E-1
 6.517666976400000E9    -2.219693821959623E-1   -8.563775792316897E-3    1.749540849491147E-2   -9.842729974556630E-3    1.755532772458317E-2   -9.181168144607649E-3    2.530613852157848E-1    4.866973938949160E-1
 6.517679223125000E9    -2.218357183851873E-1   -8.363363613781634E-3    1.743713906905489E-2   -9.896280704558631E-3    1.775570502570359E-2   -9.218432441941921E-3    2.539513171047738E-1    4.863055940030255E-1
 6.517691469850000E9    -2.216406104075978E-1   -8.141377439576247E-3    1.759812064331332E-2   -9.972659165417775E-3    1.778494056412235E-2   -9.368022261276412E-3    2.549304993599659E-1    4.856744644816439E-1
 6.517703716575000E9    -2.213170561646347E-1   -8.115147288971282E-3    1.767866149795725E-2   -9.985051412961739E-3    1.793840974236397E-2   -9.477910228826507E-3    2.557516974801328E-1    4.854060732471483E-1
 6.517715963300000E9    -2.211657953775749E-1   -8.020790058433170E-3    1.774363946860855E-2   -1.013983222883919E-2    1.801193102975126E-2   -9.567400364304698E-3    2.567351122824011E-1    4.848153835782346E-1
 6.517728210025000E9    -2.210126526678631E-1   -7.918941361869393E-3    1.789682498588141E-2   -1.025906648570282E-2    1.822737327652926E-2   -9.664170383736438E-3    2.575005178638423E-1    4.843194209806121E-1
 6.517740456750000E9    -2.206640416309918E-1   -7.788656224585612E-3    1.795585465936589E-2   -1.048636208669920E-2    1.833367285229340E-2   -9.776621988798447E-3    2.583992498221187E-1    4.837684604774424E-1
 6.517752703475000E9    -2.205767841446767E-1   -7.615919095797564E-3    1.807447234482779E-2   -1.068541838634630E-2    1.845872911017884E-2   -9.931216307664135E-3    2.593307807038708E-1    4.832306658415598E-1
 6.517764950200000E9    -2.204579218712676E-1   -7.546842939020262E-3    1.817765915726601E-2   -1.066290248698216E-2    1.857815770689705E-2   -1.010411609017262E-2    2.602242750220498E-1    4.828517201463536E-1
 6.517777196925000E9    -2.200976405077246E-1   -7.365179725741372E-3    1.824621690992140E-2   -1.088115823554752E-2    1.865694233398505E-2   -1.018578833128031E-2    2.612206019026115E-1    4.823251067246125E-1
 6.517789443650000E9    -2.200039831565179E-1   -7.392036016864971E-3    1.844059786679489E-2   -1.092164189552646E-2    1.872770636631777E-2   -1.039345121076621E-2    2.622614159801608E-1    4.816867816764681E-1
 6.517801690375000E9    -2.197526320154571E-1   -7.267560015963389E-3    1.864021269282848E-2   -1.094360277973358E-2    1.890657189833711E-2   -1.043135654893918E-2    2.630885755841773E-1    4.812391482341372E-1
 6.517813937100000E9    -2.196211732199581E-1   -7.186288069008603E-3    1.851528629712443E-2   -1.116408515006972E-2    1.907072996614876E-2   -1.061455029857685E-2    2.639923022368367E-1    4.807044962392485E-1
 6.517826183825000E9    -2.192628237675996E-1   -7.014396375701530E-3    1.868155466168758E-2   -1.126449697272110E-2    1.919533442349081E-2   -1.069824455767448E-2    2.649226678134471E-1    4.801775032560009E-1
 6.517838430550000E9    -2.190357322612480E-1   -6.937085902435495E-3    1.887304178653178E-2   -1.146925776777376E-2    1.919271598954839E-2   -1.092833111226820E-2    2.657902404232881E-1    4.797355524257625E-1
 6.517850677275000E9    -2.190081449368194E-1   -6.818911613825275E-3    1.897857003333924E-2   -1.154075452843521E-2    1.934516074277208E-2   -1.101459070873288E-2    2.667818162865566E-1    4.791516172321517E-1
 6.517862924000000E9    -2.186667630682602E-1   -6.728479229242906E-3    1.912434359868070E-2   -1.186578478758997E-2    1.956600481204463E-2   -1.120890575260375E-2    2.675053445115812E-1    4.786234577310421E-1
 6.517875170725000E9    -2.183631794059415E-1   -6.652433815395335E-3    1.922398905788347E-2   -1.195776105922115E-2    1.956877188264223E-2   -1.130098243162219E-2    2.685843578331807E-1    4.780134862240432E-1
 6.517887417450000E9    -2.183111082775752E-1   -6.641220442451679E-3    1.929159229931329E-2   -1.213467876104730E-2    1.974111808369210E-2   -1.151235946741384E-2    2.694775964682542E-1    4.776079648613416E-1
 6.517899664175000E9    -2.180864767726300E-1   -6.553071395155931E-3    1.940023968480890E-2   -1.214263752707306E-2    1.978424604647217E-2   -1.167080091625537E-2    2.703201994250276E-1    4.770002818086580E-1
 6.517911910900000E9    -2.178449261377740E-1   -6.433867865346975E-3    1.962931038817415E-2   -1.242638902677078E-2    1.987482154088389E-2   -1.176283310269802E-2    2.713116089151354E-1    4.765322341436928E-1
 6.517924157625000E9    -2.175358954723048E-1   -6.242668277948519E-3    1.973945184590779E-2   -1.255938799041288E-2    2.008979783230802E-2   -1.192836551710771E-2    2.721637287644849E-1    4.760590325982149E-1
 6.517936404350000E9    -2.173543705754444E-1   -6.324529716180242E-3    1.984781679776825E-2   -1.274809876572305E-2    2.025034517813073E-2   -1.205584056923483E-2    2.729767464414054E-1    4.753332433782280E-1
 6.517948651075000E9    -2.171250266832050E-1   -6.182219796061672E-3    1.986553341669764E-2   -1.278876853376847E-2    2.035899414112077E-2   -1.221587247423086E-2    2.740206565312036E-1    4.748016388305700E-1
 6.517960897800000E9    -2.168282813179216E-1   -6.117408274768586E-3    2.005670574777720E-2   -1.307416373425541E-2    2.052707328157822E-2   -1.235115843541554E-2    2.749352054323635E-1    4.742857079225828E-1
 6.517973144525000E9    -2.166808526139979E-1   -6.020501722819114E-3    2.016929256639803E-2   -1.311946787965408E-2    2.069929115185242E-2   -1.254420236733222E-2    2.757816646650730E-1    4.736456320449944E-1
 6.517985391250000E9    -2.163696983078470E-1   -5.950684718945950E-3    2.046142190975354E-2   -1.334633059312048E-2    2.080393034322083E-2   -1.277055591325439E-2    2.766074421052527E-1    4.732508496987949E-1
