#  HZ   S   RI   R     50.00 
! Rohde & Schwarz Vector Network Analyzer 
! Rohde-Schwarz,ZNB20-2Port,1311601062101988,3.16
! Created: UTC 12/23/2023, 3:54:16 AM
! freq[Hz]                re:S11                  im:S11                  re:S21                  im:S21                  re:S12                  im:S12                  re:S22                  im:S22
 6.516922021000000E9    -2.308664368914884E-1   -1.855854480265847E-2    1.289800209716827E-2   -5.146544642773783E-3    1.301484213262387E-2   -4.619857747682607E-3    1.976385434237850E-1    5.111566344072276E-1
 6.516934163500000E9    -2.307340326368286E-1   -1.821863736990626E-2    1.303598937619739E-2   -5.233851184157103E-3    1.315970868107743E-2   -4.725359708800500E-3    1.987044144546016E-1    5.108822646490647E-1
 6.516946306000000E9    -2.306447327575495E-1   -1.809071097493196E-2    1.309502700783219E-2   -5.149904808157946E-3    1.329638422594210E-2   -4.736430145039596E-3    1.994348187831310E-1    5.106009119459868E-1
 6.516958448500000E9    -2.305807147526012E-1   -1.791666115630488E-2    1.309167855534912E-2   -5.149481102226400E-3    1.321387522621396E-2   -4.814229439044633E-3    2.003698895297600E-1    5.101817183120279E-1
 6.516970591000000E9    -2.303989512302493E-1   -1.761021925286168E-2    1.317760019457748E-2   -5.338587086245171E-3    1.332534460323812E-2   -4.870630562702882E-3    2.011140437058609E-1    5.100893692004030E-1
 6.516982733500000E9    -2.302097430532404E-1   -1.752791146877630E-2    1.329203613068453E-2   -5.427143031601248E-3    1.333622405188932E-2   -4.891405017840905E-3    2.021136156612441E-1    5.096388390521621E-1
 6.516994876000000E9    -2.301550572215746E-1   -1.738482546592666E-2    1.336244973372502E-2   -5.284293059739448E-3    1.343006948069913E-2   -4.911784089677915E-3    2.031505007393182E-1    5.092121991553185E-1
 6.517007018500000E9    -2.301150405038428E-1   -1.704951718791070E-2    1.340775252702740E-2   -5.449214879174820E-3    1.340658613897478E-2   -5.051511456659585E-3    2.039982685576747E-1    5.088977150351423E-1
 6.517019161000000E9    -2.298817624899726E-1   -1.698188101683222E-2    1.340903946042966E-2   -5.552166263017676E-3    1.349880546182683E-2   -4.959606456951686E-3    2.048847384605315E-1    5.084793606457189E-1
 6.517031303500000E9    -2.297385699871386E-1   -1.687932441398009E-2    1.333509125507632E-2   -5.514429081428988E-3    1.364146441750032E-2   -5.066694868688127E-3    2.057473930640559E-1    5.081595788530124E-1
 6.517043446000000E9    -2.296824470400073E-1   -1.664003497859777E-2    1.351487273426096E-2   -5.505259522804425E-3    1.364415958615430E-2   -5.126563371971272E-3    2.066658986697203E-1    5.078019440715889E-1
 6.517055588500000E9    -2.296524863862351E-1   -1.646770250845572E-2    1.350846521556644E-2   -5.672051557383495E-3    1.369402882723268E-2   -5.255422924788161E-3    2.074030645507541E-1    5.075009901586012E-1
 6.517067731000000E9    -2.294311192892704E-1   -1.615292961729200E-2    1.355916523378928E-2   -5.763299186404051E-3    1.377767310205841E-2   -5.233808562573146E-3    2.083939970436913E-1    5.070153417957877E-1
 6.517079873500000E9    -2.292614813156290E-1   -1.599888524397639E-2    1.361217953869326E-2   -5.713763355515405E-3    1.379451347488986E-2   -5.245095509297688E-3    2.094545761135825E-1    5.067445563072556E-1
 6.517092016000000E9    -2.291643932802906E-1   -1.578688581511007E-2    1.370349692251109E-2   -5.790718860878890E-3    1.381896707883118E-2   -5.288728682252468E-3    2.103198628994306E-1    5.063368626499021E-1
 6.517104158500000E9    -2.290238894686526E-1   -1.563683326948961E-2    1.380409791171439E-2   -5.786821752906459E-3    1.389020660802450E-2   -5.402927297679885E-3    2.111957418295395E-1    5.061045597410925E-1
 6.517116301000000E9    -2.290625401382633E-1   -1.542989772972307E-2    1.376885166554197E-2   -5.779060971193390E-3    1.398188144955722E-2   -5.395322091345234E-3    2.119225058487940E-1    5.057041631909489E-1
 6.517128443500000E9    -2.286829337242614E-1   -1.528847333023681E-2    1.385305635723471E-2   -5.967255541340746E-3    1.401290338798208E-2   -5.593812070054648E-3    2.128166618819471E-1    5.053439159931149E-1
 6.517140586000000E9    -2.285980968551793E-1   -1.500944215391070E-2    1.398680311488826E-2   -6.091620179512376E-3    1.412225564964211E-2   -5.549649446192320E-3    2.138693838926190E-1    5.048987506144526E-1
 6.517152728500000E9    -2.285634324977809E-1   -1.497135098497908E-2    1.403495234969816E-2   -6.031696670092079E-3    1.420915314123090E-2   -5.599911108197783E-3    2.146580804479777E-1    5.046841581674075E-1
 6.517164871000000E9    -2.284457108891101E-1   -1.472662025773155E-2    1.410445235801302E-2   -6.091877684159604E-3    1.420926956701970E-2   -5.795052205583759E-3    2.156242317177020E-1    5.041675322966662E-1
 6.517177013500000E9    -2.282976913217319E-1   -1.455607504977685E-2    1.406548972268293E-2   -6.329914204642866E-3    1.432013867243511E-2   -5.738132828520211E-3    2.164916454998669E-1    5.039026559623191E-1
 6.517189156000000E9    -2.280523142328254E-1   -1.433922930696943E-2    1.416944875819259E-2   -6.297466328552425E-3    1.436462163378504E-2   -5.745256292164895E-3    2.173777585449349E-1    5.035141983368884E-1
 6.517201298500000E9    -2.280269423448480E-1   -1.427895531340413E-2    1.419912140152644E-2   -6.350677283222752E-3    1.437901631893075E-2   -5.954544921548418E-3    2.183402565791842E-1    5.030034038358918E-1
 6.517213441000000E9    -2.277965853211735E-1   -1.396666003900010E-2    1.432620080276532E-2   -6.436981927225170E-3    1.450792625206850E-2   -5.966991467176493E-3    2.193492896091228E-1    5.027297604502240E-1
 6.517225583500000E9    -2.277611302031037E-1   -1.386029327824931E-2    1.445430464239592E-2   -6.557442191179613E-3    1.453238836198500E-2   -6.080239839526756E-3    2.201688020664146E-1    5.022385363864178E-1
 6.517237726000000E9    -2.275519084235444E-1   -1.372470787989902E-2    1.453062950853031E-2   -6.640139740959069E-3    1.461204558811774E-2   -6.007792954409395E-3    2.209727488270520E-1    5.019858161747833E-1
 6.517249868500000E9    -2.274053949287646E-1   -1.343658496548456E-2    1.446065944401873E-2   -6.626382603764887E-3    1.471453454839793E-2   -6.065461004238882E-3    2.218956312819064E-1    5.015170977437284E-1
 6.517262011000000E9    -2.271810763701502E-1   -1.338836058540807E-2    1.467276206175939E-2   -6.632134738559912E-3    1.478325482916096E-2   -6.190985016913400E-3    2.228635657725031E-1    5.012237845793934E-1
 6.517274153500000E9    -2.271862882808471E-1   -1.328587734995760E-2    1.460558601660163E-2   -6.743253812715370E-3    1.488727080174653E-2   -6.287795473677340E-3    2.236461015373475E-1    5.008786808179689E-1
 6.517286296000000E9    -2.270051709893446E-1   -1.304685726305716E-2    1.473719572028291E-2   -6.791762202634056E-3    1.476527727143298E-2   -6.337162747767662E-3    2.247344518568425E-1    5.003735570448795E-1
 6.517298438500000E9    -2.267731678254880E-1   -1.280263924116848E-2    1.483773688912765E-2   -6.951948198097241E-3    1.501172578030398E-2   -6.378088773364047E-3    2.255763985582728E-1    5.000655355075081E-1
 6.517310581000000E9    -2.267177109197359E-1   -1.267466985203286E-2    1.490776347244472E-2   -7.018047573735565E-3    1.510221559797983E-2   -6.366341674617428E-3    2.264128940490584E-1    4.996161527705733E-1
 6.517322723500000E9    -2.266639410760589E-1   -1.253395988124099E-2    1.494332024178546E-2   -7.083434441494410E-3    1.512360614681864E-2   -6.548917522466490E-3    2.273171687020088E-1    4.992533826331595E-1
 6.517334866000000E9    -2.264790025184641E-1   -1.229837706315270E-2    1.503544774301730E-2   -7.187000826882859E-3    1.515904423246264E-2   -6.680654447506739E-3    2.282462874928406E-1    4.988333543430169E-1
 6.517347008500000E9    -2.263597926371419E-1   -1.211283903061884E-2    1.519684526949692E-2   -7.250107445309246E-3    1.524777953153248E-2   -6.681820818756607E-3    2.291322431506091E-1    4.983512260290903E-1
 6.517359151000000E9    -2.261602211718199E-1   -1.190381632041203E-2    1.521250249335338E-2   -7.123702073751676E-3    1.531109252809106E-2   -6.671458238250013E-3    2.299954742020669E-1    4.980013382335824E-1
 6.517371293500000E9    -2.260782990936266E-1   -1.180185411654720E-2    1.518854642177565E-2   -7.216480379161762E-3    1.536694539317310E-2   -6.794790806720510E-3    2.309771836889012E-1    4.976476212730324E-1
 6.517383436000000E9    -2.257912020385403E-1   -1.173859242971681E-2    1.519278268698438E-2   -7.499666917404104E-3    1.546079903025370E-2   -7.000827476703717E-3    2.318127534176142E-1    4.971628157053833E-1
 6.517395578500000E9    -2.257657878956921E-1   -1.156450231071610E-2    1.538244266994011E-2   -7.588783530078003E-3    1.551759503061296E-2   -7.044528450244391E-3    2.328345565966471E-1    4.968627949213922E-1
 6.517407721000000E9    -2.254977135778977E-1   -1.130532598536216E-2    1.546698121197589E-2   -7.627932484783986E-3    1.560310593356680E-2   -7.121072584881439E-3    2.337021089319014E-1    4.962416696777348E-1
 6.517419863500000E9    -2.253565821119866E-1   -1.119787822850298E-2    1.559684281013840E-2   -7.649589681095990E-3    1.575759612956800E-2   -7.117725182418180E-3    2.344913385815116E-1    4.960192677620878E-1
 6.517432006000000E9    -2.251499577048472E-1   -1.102771710657335E-2    1.571377693331053E-2   -7.782246157204589E-3    1.573057674921661E-2   -7.251952975374551E-3    2.353700894034625E-1    4.955252516860348E-1
 6.517444148500000E9    -2.250479690007328E-1   -1.087228142702374E-2    1.565486341416916E-2   -7.854276471051164E-3    1.589725635432918E-2   -7.273350430523789E-3    2.361841614503890E-1    4.950294620136412E-1
 6.517456291000000E9    -2.249748285124698E-1   -1.071631228272376E-2    1.570768900121222E-2   -7.777562407052106E-3    1.596471894915922E-2   -7.370018138158221E-3    2.372858003495155E-1    4.946472304011517E-1
 6.517468433500000E9    -2.248264277259280E-1   -1.054494927928571E-2    1.586166184192292E-2   -7.923138276869190E-3    1.609485837244850E-2   -7.392369480543498E-3    2.380832362495734E-1    4.942864475643956E-1
 6.517480576000000E9    -2.246329808122142E-1   -1.044853514460986E-2    1.586020686403074E-2   -8.116420892585642E-3    1.618512948697691E-2   -7.564048198693455E-3    2.389080242753902E-1    4.938910674360917E-1
 6.517492718500000E9    -2.245832575129496E-1   -1.027704511150586E-2    1.591863539409133E-2   -8.246008636028961E-3    1.627326582913380E-2   -7.517400675077243E-3    2.397673876561567E-1    4.934426401354329E-1
 6.517504861000000E9    -2.244639667197156E-1   -9.972315398725616E-3    1.604736229709006E-2   -8.286689475596380E-3    1.629042120015772E-2   -7.725990395208811E-3    2.407741189224382E-1    4.929711141649566E-1
 6.517517003500000E9    -2.241915730052643E-1   -1.000266630656651E-2    1.617344523284223E-2   -8.275014655012477E-3    1.644151929614418E-2   -7.713647686954837E-3    2.416341611744516E-1    4.924903163042476E-1
 6.517529146000000E9    -2.240173695899152E-1   -9.756070296342172E-3    1.630779645714546E-2   -8.360537749351389E-3    1.642843068245269E-2   -7.988536271266932E-3    2.425193814567205E-1    4.920967753541367E-1
 6.517541288500000E9    -2.238314269139632E-1   -9.610435892636441E-3    1.633182921451946E-2   -8.388138888201068E-3    1.657000502385655E-2   -7.983588168940677E-3    2.435306712555161E-1    4.915869516832385E-1
 6.517553431000000E9    -2.235862231181803E-1   -9.595262702276747E-3    1.642188269051900E-2   -8.657960767702332E-3    1.661406839170588E-2   -8.015099088367681E-3    2.443235740016431E-1    4.912362687394287E-1
 6.517565573500000E9    -2.234570616753179E-1   -9.333494113178329E-3    1.645685041806911E-2   -8.793174756917132E-3    1.677045934471811E-2   -8.175007148463047E-3    2.451503327343289E-1    4.907787871089683E-1
 6.517577716000000E9    -2.232976198319220E-1   -9.295217976573161E-3    1.653126737188596E-2   -8.735606796046460E-3    1.687421336827906E-2   -8.284769474875334E-3    2.460543602195560E-1    4.902680420130123E-1
 6.517589858500000E9    -2.231010800623620E-1   -9.206472248372521E-3    1.662211164223136E-2   -8.960448107983450E-3    1.699833617445643E-2   -8.443233674775209E-3    2.471650543002497E-1    4.898890068647869E-1
 6.517602001000000E9    -2.229698521640628E-1   -8.797142256866076E-3    1.676022757182246E-2   -9.135504328745209E-3    1.696642679026707E-2   -8.367380785882577E-3    2.479793758818095E-1    4.893873851079703E-1
 6.517614143500000E9    -2.227184496729533E-1   -8.924380527170329E-3    1.674660674773277E-2   -9.041168983056704E-3    1.704274384404939E-2   -8.518671621470101E-3    2.488613288238723E-1    4.889930377046732E-1
 6.517626286000000E9    -2.225603626363466E-1   -8.629305153015552E-3    1.692866892656765E-2   -9.183288845575730E-3    1.708532875369777E-2   -8.583882362481705E-3    2.497228957968713E-1    4.884771049356042E-1
 6.517638428500000E9    -2.224491920801693E-1   -8.434823353172102E-3    1.706242884389625E-2   -9.259623286307694E-3    1.733824150754435E-2   -8.735641315861404E-3    2.507306681273462E-1    4.879335560736605E-1
 6.517650571000000E9    -2.222373796869533E-1   -8.308693350222036E-3    1.723660329720343E-2   -9.502620744166688E-3    1.751116596263763E-2   -8.921304045490311E-3    2.515418030032330E-1    4.875084248268587E-1
 6.517662713500000E9    -2.220167024253627E-1   -8.154543095098816E-3    1.743237560790225E-2   -9.570057926640689E-3    1.744216294158882E-2   -8.941564683461533E-3    2.524067053620686E-1    4.870810503990800E-1
 6.517674856000000E9    -2.218236950531705E-1   -8.151380228235611E-3    1.735541620680824E-2   -9.674163721310192E-3    1.763734973824496E-2   -9.075012498764370E-3    2.533972627532995E-1    4.866440517090165E-1
 6.517686998500000E9    -2.216736860948408E-1   -7.976918264024460E-3    1.738016716845501E-2   -9.794717277826796E-3    1.769225335606636E-2   -9.191817341518764E-3    2.542175657868946E-1    4.861900131100192E-1
 6.517699141000000E9    -2.215565650820905E-1   -7.988848245167665E-3    1.752062043832829E-2   -9.900656845583300E-3    1.786375126233089E-2   -9.283430289542255E-3    2.551375856257901E-1    4.855532739233624E-1
 6.517711283500000E9    -2.212723210133901E-1   -7.700507315687360E-3    1.767529658906101E-2   -9.848958658668847E-3    1.792736948859281E-2   -9.317114970274673E-3    2.561121428663467E-1    4.851371693978623E-1
 6.517723426000000E9    -2.211202128520101E-1   -7.589917266519595E-3    1.769388020492877E-2   -1.007257060326047E-2    1.796730887065204E-2   -9.476656707993421E-3    2.569325543461398E-1    4.847106798032798E-1
 6.517735568500000E9    -2.208993327473158E-1   -7.403827361161447E-3    1.774647699440606E-2   -1.015143673128619E-2    1.804969029382893E-2   -9.589438615058388E-3    2.578847361427644E-1    4.841450328852895E-1
 6.517747711000000E9    -2.206755560227961E-1   -7.386544339441131E-3    1.800677415061079E-2   -1.040917444648343E-2    1.816627695392198E-2   -9.685010575237830E-3    2.587539625864285E-1    4.837019061493932E-1
 6.517759853500000E9    -2.204312325037861E-1   -7.211083890416383E-3    1.810839512221860E-2   -1.045219309278226E-2    1.831655918929864E-2   -9.821021024485867E-3    2.595931940244116E-1    4.832219712363008E-1
 6.517771996000000E9    -2.203299868916352E-1   -7.177795747453179E-3    1.812940328927852E-2   -1.057290790393142E-2    1.845893637290177E-2   -9.998898888860911E-3    2.605406023625715E-1    4.827367324993055E-1
 6.517784138500000E9    -2.200013850738919E-1   -7.070259580936637E-3    1.826326730013467E-2   -1.071415206647800E-2    1.858717654071311E-2   -1.002032680142383E-2    2.613929016297581E-1    4.822536038543566E-1
 6.517796281000000E9    -2.199963352039578E-1   -6.992978401806783E-3    1.839235968391707E-2   -1.074124787859354E-2    1.871734389180009E-2   -1.026292761111282E-2    2.624104379153266E-1    4.816709323751225E-1
 6.517808423500000E9    -2.196866662408793E-1   -6.835554417799079E-3    1.854857285759178E-2   -1.103393861954724E-2    1.873006878471227E-2   -1.032879934520793E-2    2.632069220976389E-1    4.811409368210805E-1
 6.517820566000000E9    -2.195327327063009E-1   -6.723688093799660E-3    1.854945004267440E-2   -1.122133867024516E-2    1.882330711614269E-2   -1.053182846077051E-2    2.641571486621592E-1    4.805986351030141E-1
 6.517832708500000E9    -2.193177193039305E-1   -6.694746783999805E-3    1.862092617926186E-2   -1.120129952402702E-2    1.904759995822326E-2   -1.061349533437601E-2    2.651591846370357E-1    4.800033704516162E-1
 6.517844851000000E9    -2.190165995680233E-1   -6.497968711614209E-3    1.882997707585000E-2   -1.130363613906780E-2    1.919286142756358E-2   -1.071928432503752E-2    2.659970801889082E-1    4.796830435258043E-1
 6.517856993500000E9    -2.188956243007093E-1   -6.528921156067020E-3    1.898130418970308E-2   -1.160463930540784E-2    1.930822323889527E-2   -1.081934617268812E-2    2.666991466745208E-1    4.790799946655045E-1
 6.517869136000000E9    -2.187646072468446E-1   -6.346003508455191E-3    1.910651493769377E-2   -1.166947658393571E-2    1.938810663886833E-2   -1.111846521367871E-2    2.677592954315857E-1    4.786708153636907E-1
 6.517881278500000E9    -2.185127934270858E-1   -6.151243703001286E-3    1.909263145731606E-2   -1.177377813477230E-2    1.946013321494713E-2   -1.123202416325611E-2    2.688019808691225E-1    4.782071280679540E-1
 6.517893421000000E9    -2.182386728703775E-1   -6.168396598869557E-3    1.923997836346773E-2   -1.191258829762910E-2    1.959045900882559E-2   -1.130846245167839E-2    2.696350049090619E-1    4.775302400449309E-1
 6.517905563500000E9    -2.179650182006496E-1   -6.118305986224109E-3    1.944361415338352E-2   -1.203750272649673E-2    1.973231499070349E-2   -1.141815598958606E-2    2.705909150035249E-1    4.769727747869654E-1
 6.517917706000000E9    -2.178022905186001E-1   -6.024248979344775E-3    1.945968879678205E-2   -1.226214436734066E-2    1.991915258778931E-2   -1.164463558450761E-2    2.714038156349766E-1    4.764396120034087E-1
 6.517929848500000E9    -2.174917574966583E-1   -5.937461845350965E-3    1.974227233286240E-2   -1.228892892825788E-2    1.997540558342150E-2   -1.183041697096622E-2    2.723324307739955E-1    4.759318704075718E-1
 6.517941991000000E9    -2.173413189036491E-1   -5.886006830287853E-3    1.983248871249676E-2   -1.262432086887169E-2    2.011569875981958E-2   -1.199269247109666E-2    2.732417432560224E-1    4.753705505547269E-1
 6.517954133500000E9    -2.170995146819857E-1   -5.870192655002157E-3    1.988513309357572E-2   -1.272312983674374E-2    2.021659444564827E-2   -1.207773966738037E-2    2.740932711535742E-1    4.747578756143991E-1
 6.517966276000000E9    -2.168825913872043E-1   -5.717543498968172E-3    2.001035068074774E-2   -1.297691201447083E-2    2.041067038077543E-2   -1.221137927768786E-2    2.750682002895302E-1    4.743898647613051E-1
 6.517978418500000E9    -2.166966224958250E-1   -5.609505698165825E-3    2.024194445053208E-2   -1.297524960015258E-2    2.057290372607872E-2   -1.239327220301541E-2    2.759291952598607E-1    4.738314524666626E-1
 6.517990561000000E9    -2.163671174392907E-1   -5.600281484743271E-3    2.025332409863873E-2   -1.312851252697832E-2    2.069823562456446E-2   -1.245824990866988E-2    2.769471825518938E-1    4.732130512950586E-1
 6.518002703500000E9    -2.161340501463161E-1   -5.526933277367741E-3    2.025822822152754E-2   -1.342910784661922E-2    2.079563565089882E-2   -1.278052757609586E-2    2.778307946676733E-1    4.726067600426155E-1
 6.518014846000000E9    -2.159436070714576E-1   -5.431085392966632E-3    2.040253668388545E-2   -1.364421326843474E-2    2.082489948501923E-2   -1.296057172343876E-2    2.787241463672596E-1    4.721488632470117E-1
