#  HZ   S   RI   R     50.00 
! Rohde & Schwarz Vector Network Analyzer 
! Rohde-Schwarz,ZNB20-2Port,1311601062101988,3.16
! Created: UTC 12/23/2023, 3:54:27 AM
! freq[Hz]                re:S11                  im:S11                  re:S21                  im:S21                  re:S12                  im:S12                  re:S22                  im:S22
 6.516928040000000E9    -2.308679704103410E-1   -1.834314608011330E-2    1.293465887356214E-2   -5.307768477621757E-3    1.314669539037595E-2   -4.624957626552008E-3    1.981748902639303E-1    5.110053079631992E-1
 6.516940163175000E9    -2.306880359109534E-1   -1.812177849340640E-2    1.293490016908074E-2   -5.225294543153979E-3    1.313875727413534E-2   -4.702940836184415E-3    1.989459726202014E-1    5.107181587529538E-1
 6.516952286350000E9    -2.305859447611559E-1   -1.797716693812735E-2    1.317642512136505E-2   -5.144144802902901E-3    1.315370713201072E-2   -4.788592889002291E-3    1.999138829653683E-1    5.103595915571132E-1
 6.516964409525000E9    -2.304306217002826E-1   -1.780029184683830E-2    1.305180231324560E-2   -5.243384026535233E-3    1.327483354034309E-2   -4.777614923527031E-3    2.008272438388851E-1    5.101321226961361E-1
 6.516976532700000E9    -2.303923562360179E-1   -1.759978556284823E-2    1.313697106362536E-2   -5.247026380103719E-3    1.331377862411192E-2   -4.850088136977200E-3    2.016463526157196E-1    5.096340763415658E-1
 6.516988655875000E9    -2.302269656329914E-1   -1.745999312276025E-2    1.328298791481754E-2   -5.244407555662392E-3    1.326459810037236E-2   -4.831375277632158E-3    2.026399041296676E-1    5.093296333713770E-1
 6.517000779050000E9    -2.301090213753004E-1   -1.722374285002911E-2    1.328849744427895E-2   -5.397115197244917E-3    1.338555726325227E-2   -4.970170503931360E-3    2.034339547836831E-1    5.090086429268063E-1
 6.517012902225000E9    -2.300016443947519E-1   -1.702334944964093E-2    1.326755172895246E-2   -5.573491473339612E-3    1.346206999781227E-2   -4.972588172159302E-3    2.043491171325819E-1    5.087017410154856E-1
 6.517025025400000E9    -2.298405670307051E-1   -1.685410203038004E-2    1.350224119307217E-2   -5.505597739409266E-3    1.348455695821005E-2   -5.028360778068022E-3    2.053486521024210E-1    5.082894074353895E-1
 6.517037148575000E9    -2.297797613020799E-1   -1.663091736971602E-2    1.345301175183300E-2   -5.681449521472290E-3    1.355819231658595E-2   -5.125504413169378E-3    2.061561176308352E-1    5.081160074853741E-1
 6.517049271750000E9    -2.295671479310477E-1   -1.641865081631456E-2    1.353775324162824E-2   -5.625123299528443E-3    1.359144695817782E-2   -5.069438751492532E-3    2.070596762591894E-1    5.075750840368766E-1
 6.517061394925000E9    -2.295192561757373E-1   -1.629702483927694E-2    1.365869368521177E-2   -5.526639824864116E-3    1.361373117255339E-2   -5.202458047731236E-3    2.079358426514592E-1    5.073555817537411E-1
 6.517073518100000E9    -2.293306046658248E-1   -1.611773880220310E-2    1.354341261842940E-2   -5.699846354740487E-3    1.365446546367875E-2   -5.414304954944827E-3    2.089100037533904E-1    5.069489063296985E-1
 6.517085641275000E9    -2.291889012428832E-1   -1.591428175231686E-2    1.362440803072712E-2   -5.770873210982306E-3    1.379741743205545E-2   -5.362412696057840E-3    2.096134290349482E-1    5.066151880695791E-1
 6.517097764450000E9    -2.291165006425074E-1   -1.577672643404900E-2    1.370776601153778E-2   -5.992606840742717E-3    1.380048008715269E-2   -5.456127010810978E-3    2.106173704495295E-1    5.061350707293698E-1
 6.517109887625000E9    -2.289733069398760E-1   -1.555238802544140E-2    1.370843865206433E-2   -5.929941692720699E-3    1.391350623786318E-2   -5.405747021008643E-3    2.115984117398569E-1    5.058864221658969E-1
 6.517122010800000E9    -2.289841654414750E-1   -1.529807789768221E-2    1.383581071165109E-2   -5.935914337174165E-3    1.397901735291972E-2   -5.513330199462978E-3    2.125127244011327E-1    5.055352721047535E-1
 6.517134133975000E9    -2.287317575780549E-1   -1.520152272498682E-2    1.402578093323228E-2   -5.841766458707561E-3    1.401249801275364E-2   -5.494572206184742E-3    2.132351568745373E-1    5.051455719607802E-1
 6.517146257150000E9    -2.285734669886294E-1   -1.501297942682864E-2    1.401044559748976E-2   -6.117023703774612E-3    1.413804408133519E-2   -5.517318447057206E-3    2.142693496747379E-1    5.047781329187849E-1
 6.517158380325000E9    -2.285102689134802E-1   -1.485377492239547E-2    1.405515917213636E-2   -6.167410514197729E-3    1.423847475840058E-2   -5.555968418451937E-3    2.151652499740758E-1    5.043950823315259E-1
 6.517170503500000E9    -2.283629270099163E-1   -1.469061796728529E-2    1.413416878046711E-2   -6.231173967577193E-3    1.421421806309116E-2   -5.716479666860119E-3    2.160412389797721E-1    5.040405838060413E-1
 6.517182626675000E9    -2.281748155381609E-1   -1.439457785956877E-2    1.423879998571917E-2   -6.128756206817591E-3    1.428890082166053E-2   -5.884186529788647E-3    2.167480916688309E-1    5.037497686295154E-1
 6.517194749850000E9    -2.281660263909855E-1   -1.424809621580404E-2    1.419455394812854E-2   -6.405990369850309E-3    1.442431492465903E-2   -5.836606183196753E-3    2.177472217364908E-1    5.033310298968239E-1
 6.517206873025000E9    -2.278734650800633E-1   -1.402629503656019E-2    1.425188358658005E-2   -6.402079237650970E-3    1.450631058772778E-2   -5.833667373736679E-3    2.187190564848168E-1    5.030556979978904E-1
 6.517218996200000E9    -2.278574700954417E-1   -1.400080091689964E-2    1.426972103996552E-2   -6.473205075693243E-3    1.446837936055683E-2   -6.039871200650542E-3    2.195719010426530E-1    5.025159984327449E-1
 6.517231119375000E9    -2.276747406523504E-1   -1.384204853626976E-2    1.450763199544416E-2   -6.476488862654973E-3    1.461126920368455E-2   -6.061491596210659E-3    2.205411601345087E-1    5.021616127492960E-1
 6.517243242550000E9    -2.274653296523260E-1   -1.349732344835489E-2    1.440220488344606E-2   -6.647466393723669E-3    1.471503427844965E-2   -6.171941993595774E-3    2.214495151477578E-1    5.018302307111199E-1
 6.517255365725000E9    -2.275022431514111E-1   -1.349500373169796E-2    1.457266662887734E-2   -6.654497812341693E-3    1.466273378493250E-2   -6.227856647850577E-3    2.223419848720462E-1    5.013798710353763E-1
 6.517267488900000E9    -2.272838043849856E-1   -1.306799183243193E-2    1.462076753376345E-2   -6.749291632130151E-3    1.487349646298697E-2   -6.247243794853090E-3    2.231977479573446E-1    5.010428498606487E-1
 6.517279612075000E9    -2.270603557319927E-1   -1.304447413926127E-2    1.475873657731986E-2   -6.739778046797203E-3    1.473471845802380E-2   -6.288597205126728E-3    2.241418624537468E-1    5.005885117675682E-1
 6.517291735250000E9    -2.270700036457316E-1   -1.286093916547131E-2    1.480626451951299E-2   -6.749750316978961E-3    1.487233244046857E-2   -6.375457716646576E-3    2.248809530783149E-1    5.001046601858828E-1
 6.517303858425000E9    -2.268758091668449E-1   -1.274024942081075E-2    1.475012053172993E-2   -6.879691134406213E-3    1.502512648246579E-2   -6.418477645901707E-3    2.257426065009686E-1    4.998838163273559E-1
 6.517315981600000E9    -2.267057044404922E-1   -1.257430361176576E-2    1.486344012464796E-2   -7.059339798058448E-3    1.499525778071287E-2   -6.443889177445834E-3    2.268141796445414E-1    4.993784377083384E-1
 6.517328104775000E9    -2.266225716003878E-1   -1.235699994797618E-2    1.497240561538798E-2   -6.989251152620728E-3    1.513391021321572E-2   -6.589851758909865E-3    2.276427335744273E-1    4.989832766340053E-1
 6.517340227950000E9    -2.265173693838414E-1   -1.224012294908627E-2    1.499649111934679E-2   -7.107571893603577E-3    1.525705504787042E-2   -6.611546209715925E-3    2.284890691245813E-1    4.986475960453617E-1
 6.517352351125000E9    -2.262805457449693E-1   -1.207636553301801E-2    1.512177837805654E-2   -7.338216631057490E-3    1.534278870573467E-2   -6.775920121786766E-3    2.294361833571361E-1    4.982684064373015E-1
 6.517364474300000E9    -2.261819382461484E-1   -1.192478169656127E-2    1.511436434365384E-2   -7.445553857488445E-3    1.539318620839268E-2   -6.910491700945916E-3    2.304122065177907E-1    4.978627190540753E-1
 6.517376597475000E9    -2.260078207885036E-1   -1.163388281094492E-2    1.513115197477357E-2   -7.266844387888390E-3    1.542503689199396E-2   -6.949851108096657E-3    2.313133002369107E-1    4.974272460966652E-1
 6.517388720650000E9    -2.258264584400953E-1   -1.151543031937228E-2    1.530988944047109E-2   -7.550190802708458E-3    1.552824115817467E-2   -6.877034391589407E-3    2.321693859758633E-1    4.970401670157915E-1
 6.517400843825000E9    -2.256199785346223E-1   -1.125026719152772E-2    1.526576504123234E-2   -7.479491845007544E-3    1.543623941873140E-2   -7.021154158489824E-3    2.330802280626222E-1    4.966066519268247E-1
 6.517412967000000E9    -2.254235056504766E-1   -1.127669039663718E-2    1.550298424981197E-2   -7.625177454168749E-3    1.573229170503218E-2   -7.120964376170868E-3    2.340041084937313E-1    4.962218679709427E-1
 6.517425090175000E9    -2.253387527551172E-1   -1.104480229960890E-2    1.571096040459406E-2   -7.798534146080342E-3    1.578035101728377E-2   -7.182616688303256E-3    2.348398552583643E-1    4.958848400685740E-1
 6.517437213350000E9    -2.251553046757976E-1   -1.091390685164903E-2    1.554800477204682E-2   -7.795078053091169E-3    1.586382105435593E-2   -7.203443819538671E-3    2.356766972985053E-1    4.952828827091627E-1
 6.517449336525000E9    -2.250048633887353E-1   -1.071246029632438E-2    1.570726217714161E-2   -7.848907960971038E-3    1.590526651865013E-2   -7.356438564243069E-3    2.365513374750210E-1    4.948985891841168E-1
 6.517461459700000E9    -2.248111881776240E-1   -1.054853941177910E-2    1.581965554720171E-2   -7.888981210892144E-3    1.602494646128189E-2   -7.341281940085157E-3    2.375026457761999E-1    4.946144184133670E-1
 6.517473582875000E9    -2.247615262913125E-1   -1.039545058787313E-2    1.594109443823549E-2   -7.997201933941543E-3    1.604356945279285E-2   -7.534279211676762E-3    2.385423989563103E-1    4.940764269291761E-1
 6.517485706050000E9    -2.244762856037910E-1   -1.036038051440053E-2    1.590950867162691E-2   -8.084773986415227E-3    1.613692682744168E-2   -7.572618815144795E-3    2.393965749756489E-1    4.934697104508310E-1
 6.517497829225000E9    -2.245301441526694E-1   -1.009210928124044E-2    1.597312453622523E-2   -8.243992870019295E-3    1.625176444594073E-2   -7.736249012938474E-3    2.401345503914543E-1    4.933561505172531E-1
 6.517509952400000E9    -2.243547770126883E-1   -9.990772784433553E-3    1.613036263253152E-2   -8.378417974637325E-3    1.633715054512391E-2   -7.792586112154583E-3    2.410681275218600E-1    4.928060392004908E-1
 6.517522075575000E9    -2.240129828848918E-1   -9.883845121100849E-3    1.608545361617494E-2   -8.347785420254009E-3    1.640337487376654E-2   -7.855754278187842E-3    2.419191998533634E-1    4.923220698941736E-1
 6.517534198750000E9    -2.239548875074871E-1   -9.601742485740318E-3    1.623863568825074E-2   -8.548378318123861E-3    1.651218159999817E-2   -7.964939880374729E-3    2.427991605016369E-1    4.919572802250221E-1
 6.517546321925000E9    -2.236893001190713E-1   -9.566741831404523E-3    1.634390258565359E-2   -8.579361610272623E-3    1.660342836700329E-2   -7.966438581229951E-3    2.437523866240812E-1    4.913618430111915E-1
 6.517558445100000E9    -2.236446147036632E-1   -9.415388102626033E-3    1.644226727101454E-2   -8.658361059325031E-3    1.666670632676752E-2   -8.070930250788651E-3    2.445533250851082E-1    4.910812407522886E-1
 6.517570568275000E9    -2.234014160095301E-1   -9.219636309845189E-3    1.650896812712014E-2   -8.756240894490877E-3    1.677357650042803E-2   -8.156149447495573E-3    2.456259370725417E-1    4.906550646738087E-1
 6.517582691450000E9    -2.232247827832275E-1   -9.154732069419379E-3    1.653951649812582E-2   -8.783025464466637E-3    1.679375279574933E-2   -8.288898491328861E-3    2.464630468528358E-1    4.901388841634734E-1
 6.517594814625000E9    -2.230796674503630E-1   -8.927270202512553E-3    1.678037556741140E-2   -8.961260270985210E-3    1.687782041745462E-2   -8.276995708204912E-3    2.475309037940283E-1    4.896263063444386E-1
 6.517606937800000E9    -2.229767035932564E-1   -8.880342332308767E-3    1.676535678468081E-2   -8.929668208599131E-3    1.705201115051365E-2   -8.567220574200930E-3    2.483563193562643E-1    4.893141617743730E-1
 6.517619060975000E9    -2.227811842070681E-1   -8.658264083542375E-3    1.699712529143055E-2   -9.134140367725051E-3    1.708350724969357E-2   -8.469683698394430E-3    2.492217926292259E-1    4.888052086702778E-1
 6.517631184150000E9    -2.225188535337795E-1   -8.605001369834341E-3    1.701571914206929E-2   -9.305737710155542E-3    1.717926084302858E-2   -8.799440799111566E-3    2.501612755678217E-1    4.883014412392384E-1
 6.517643307325000E9    -2.223334447956711E-1   -8.598076859414267E-3    1.700632798119629E-2   -9.274895320028186E-3    1.738659309357256E-2   -8.737747701186887E-3    2.509814720539936E-1    4.879506552913051E-1
 6.517655430500000E9    -2.221866830246330E-1   -8.233426974521658E-3    1.724474293712926E-2   -9.458474675492242E-3    1.749604391059187E-2   -8.874669259071427E-3    2.517041183645063E-1    4.872991229718844E-1
 6.517667553675000E9    -2.219464924159672E-1   -8.064831441156836E-3    1.722564082736725E-2   -9.576889976135910E-3    1.748477781481741E-2   -8.883587273166446E-3    2.527669388723264E-1    4.870154063155230E-1
 6.517679676850000E9    -2.218268095083118E-1   -8.144389143656882E-3    1.723747809107438E-2   -9.691041278491750E-3    1.768788545122188E-2   -9.061336412216995E-3    2.536252157944950E-1    4.865054338389766E-1
 6.517691800025000E9    -2.216010898878636E-1   -7.952308225258518E-3    1.747921897946423E-2   -9.770572918280132E-3    1.770611662584467E-2   -9.230679977456068E-3    2.546298924687222E-1    4.859655987164712E-1
 6.517703923200000E9    -2.213275247998180E-1   -7.842328464804708E-3    1.746026051172883E-2   -9.973279740099492E-3    1.787101023793107E-2   -9.332318752636591E-3    2.555286141632213E-1    4.854396133498308E-1
 6.517716046375000E9    -2.212673942529748E-1   -7.672119799490978E-3    1.755173596243393E-2   -9.862070357544987E-3    1.794797861882010E-2   -9.357287497158051E-3    2.563167818873009E-1    4.850151474187375E-1
 6.517728169550000E9    -2.210198117611597E-1   -7.480051117259330E-3    1.768510115330101E-2   -1.017571474777607E-2    1.801527199728942E-2   -9.638257842574513E-3    2.572354653775312E-1    4.844817572406033E-1
 6.517740292725000E9    -2.208212989277083E-1   -7.429399636131309E-3    1.781225124266475E-2   -1.023270091639457E-2    1.808752657773851E-2   -9.605752599247437E-3    2.581422445630180E-1    4.840323075344106E-1
 6.517752415900000E9    -2.206531066752818E-1   -7.379530713976138E-3    1.796459054993576E-2   -1.038950436502754E-2    1.816546436260887E-2   -9.664407194903140E-3    2.591722328849030E-1    4.833795109210927E-1
 6.517764539075000E9    -2.204314617745276E-1   -7.117235461288444E-3    1.794978459641074E-2   -1.039885596578173E-2    1.837530991669729E-2   -9.798703926604190E-3    2.599827039514048E-1    4.830117342038160E-1
 6.517776662250000E9    -2.202114829273886E-1   -7.169608154320627E-3    1.813065374588156E-2   -1.051452300978027E-2    1.845583675779277E-2   -9.940972643724762E-3    2.608017403178439E-1    4.824887334316113E-1
 6.517788785425000E9    -2.201928233439103E-1   -6.859315335766832E-3    1.833678202824767E-2   -1.070150813461331E-2    1.854987053098228E-2   -1.015784392783316E-2    2.619628018141384E-1    4.820538254429897E-1
 6.517800908600000E9    -2.199581577164558E-1   -6.775060354064639E-3    1.838674485657968E-2   -1.082113321177848E-2    1.870693056386547E-2   -1.018434172762797E-2    2.625294032866939E-1    4.814756654011901E-1
 6.517813031775000E9    -2.196934501887484E-1   -6.755942294315688E-3    1.841882867238870E-2   -1.100710091774358E-2    1.885126872678090E-2   -1.011477405811502E-2    2.635207954720841E-1    4.810206465348817E-1
 6.517825154950000E9    -2.193791378207823E-1   -6.633262221509493E-3    1.851142317777367E-2   -1.110494091587439E-2    1.895171310865566E-2   -1.046475324242256E-2    2.643669838615216E-1    4.805743812555789E-1
 6.517837278125000E9    -2.192120244145891E-1   -6.613677653589305E-3    1.874851843958314E-2   -1.131139490004025E-2    1.899402038107440E-2   -1.062235439973034E-2    2.654510107982395E-1    4.801804968010934E-1
 6.517849401300000E9    -2.189484470633120E-1   -6.456886635572845E-3    1.878494192035810E-2   -1.152304164045107E-2    1.915491555779104E-2   -1.072977040294764E-2    2.664146915636496E-1    4.794690909625308E-1
 6.517861524475000E9    -2.188454569536400E-1   -6.390286666204600E-3    1.895364950269675E-2   -1.153500808762276E-2    1.927541906122840E-2   -1.088211837647570E-2    2.671076415876615E-1    4.789319670583572E-1
 6.517873647650000E9    -2.185585542050285E-1   -6.357099492162233E-3    1.907679485001949E-2   -1.170302041273062E-2    1.944819351444502E-2   -1.102439007128764E-2    2.681129034881855E-1    4.784237538028351E-1
 6.517885770825000E9    -2.183951333346486E-1   -6.271714612977406E-3    1.911310366524474E-2   -1.176659003333325E-2    1.950680224561624E-2   -1.118059089731563E-2    2.689318072796464E-1    4.780068339199948E-1
 6.517897894000000E9    -2.181535146960989E-1   -6.063391689432593E-3    1.931035216376654E-2   -1.192177214453033E-2    1.967561149794109E-2   -1.138943524695568E-2    2.699114201826689E-1    4.773883307588522E-1
 6.517910017175000E9    -2.179782697378377E-1   -6.065150038289347E-3    1.939420920352417E-2   -1.206021744918284E-2    1.980242135208073E-2   -1.144322741756034E-2    2.707835029352711E-1    4.769021773200279E-1
 6.517922140350000E9    -2.177318507997530E-1   -5.954972879254963E-3    1.947281169033177E-2   -1.220591217650493E-2    1.992096001541217E-2   -1.168734318513572E-2    2.717975702254480E-1    4.763193679541524E-1
 6.517934263525000E9    -2.174452485632893E-1   -5.863124233861411E-3    1.951725449535295E-2   -1.236306204678552E-2    1.991613487086270E-2   -1.173959218721247E-2    2.726483865594588E-1    4.758620941940818E-1
 6.517946386700000E9    -2.173196277090689E-1   -5.799997233306760E-3    1.981262806858926E-2   -1.258749371110636E-2    2.018067862332541E-2   -1.191366175574309E-2    2.734073851120635E-1    4.753029163244585E-1
 6.517958509875000E9    -2.169475410867653E-1   -5.719816834553206E-3    1.985090588320092E-2   -1.265074356190349E-2    2.031778054326800E-2   -1.204372734854133E-2    2.745227018922204E-1    4.747322447402471E-1
 6.517970633050000E9    -2.168548143937401E-1   -5.650342904571436E-3    2.007606710558198E-2   -1.298616642816650E-2    2.045434399980881E-2   -1.227648509051892E-2    2.755182416716924E-1    4.741909211523527E-1
 6.517982756225000E9    -2.165993565407862E-1   -5.588368083267661E-3    2.019581577316956E-2   -1.315759447220111E-2    2.042818657306520E-2   -1.238652083662847E-2    2.763338490482468E-1    4.734505161828766E-1
 6.517994879400000E9    -2.163403754975751E-1   -5.549079246758057E-3    2.034474217894124E-2   -1.313580548836590E-2    2.068384842606382E-2   -1.249652470431515E-2    2.769999824651453E-1    4.730054452320177E-1
 6.518007002575000E9    -2.160210031941678E-1   -5.436969745938167E-3    2.034630762475641E-2   -1.348317352228386E-2    2.079763833183812E-2   -1.274261217339998E-2    2.781493731373686E-1    4.723889118454392E-1
 6.518019125750000E9    -2.158522383682279E-1   -5.423597207257816E-3    2.055777520857477E-2   -1.361140192189697E-2    2.094189026646250E-2   -1.286963140525322E-2    2.790708935340367E-1    4.719734452601086E-1
