#  HZ   S   RI   R     50.00 
! Rohde & Schwarz Vector Network Analyzer 
! Rohde-Schwarz,ZNB20-2Port,1311601062101988,3.16
! Created: UTC 12/23/2023, 3:58:51 AM
! freq[Hz]                re:S11                  im:S11                  re:S21                  im:S21                  re:S12                  im:S12                  re:S22                  im:S22
 6.517059773000000E9    -2.298597993571187E-1   -1.591948956899635E-2    1.332152365348404E-2   -5.413210292916488E-3    1.342127319090413E-2   -4.952262023955652E-3    2.073393535566192E-1    5.076542129332136E-1
 6.517071512825000E9    -2.298000979001386E-1   -1.572064436006172E-2    1.332466992944779E-2   -5.492219510964844E-3    1.335380626265375E-2   -4.947559637800830E-3    2.081836622439956E-1    5.073724834723813E-1
 6.517083252650000E9    -2.296130546021606E-1   -1.558449387697251E-2    1.337521309103286E-2   -5.571240443062273E-3    1.351656175781827E-2   -5.112107740157126E-3    2.091093087133557E-1    5.069952692665468E-1
 6.517094992475000E9    -2.294805206168069E-1   -1.534644997610527E-2    1.349146212377046E-2   -5.544624275929453E-3    1.345183331131885E-2   -5.241324800965461E-3    2.099794783272650E-1    5.066962756464686E-1
 6.517106732300000E9    -2.294534354146541E-1   -1.514872885648510E-2    1.354022914694793E-2   -5.683526103532813E-3    1.358107292218189E-2   -5.180794153045615E-3    2.107959803438084E-1    5.063469748431798E-1
 6.517118472125000E9    -2.292917128337716E-1   -1.500575029381764E-2    1.349240158055057E-2   -5.750068449668825E-3    1.372230829283815E-2   -5.248846759374199E-3    2.117198108470506E-1    5.059158574045756E-1
 6.517130211950000E9    -2.291710683349968E-1   -1.488086306152743E-2    1.363724069936779E-2   -5.819426202369580E-3    1.377976842899913E-2   -5.367795794644677E-3    2.124023391813736E-1    5.055595501221410E-1
 6.517141951775000E9    -2.289921318136915E-1   -1.464329926275899E-2    1.367473236570734E-2   -5.750623964000407E-3    1.377511177362487E-2   -5.386831781873345E-3    2.134997836728133E-1    5.052489145889959E-1
 6.517153691600000E9    -2.289135368661728E-1   -1.447252190636199E-2    1.367302188425490E-2   -5.872891131138231E-3    1.377441506710193E-2   -5.451237205903738E-3    2.142888775172968E-1    5.049513043331905E-1
 6.517165431425000E9    -2.287747114475519E-1   -1.427877621463176E-2    1.375326315484205E-2   -5.826249957075856E-3    1.395578568597402E-2   -5.543940657541761E-3    2.150572398613821E-1    5.044652541148755E-1
 6.517177171250000E9    -2.286531910383576E-1   -1.414773614488036E-2    1.382983548877472E-2   -5.969225382898872E-3    1.396489976441927E-2   -5.413782069360957E-3    2.161242126297785E-1    5.043105188310262E-1
 6.517188911075000E9    -2.285600103887393E-1   -1.397188019775784E-2    1.397060559745735E-2   -5.997050411298306E-3    1.405201069707744E-2   -5.589788777022369E-3    2.167899306010743E-1    5.038401563742906E-1
 6.517200650900000E9    -2.284262666694975E-1   -1.374881421868247E-2    1.398447406586475E-2   -6.129520446189980E-3    1.413830704854397E-2   -5.660699607536143E-3    2.178165052707922E-1    5.033996556338811E-1
 6.517212390725000E9    -2.282636039389045E-1   -1.360717003214719E-2    1.400176322041852E-2   -6.218782350116585E-3    1.414258887406121E-2   -5.699233509139524E-3    2.186961950258404E-1    5.031195048105046E-1
 6.517224130550000E9    -2.281352929709145E-1   -1.338881806832711E-2    1.412799391133754E-2   -6.131896098557216E-3    1.415605211429269E-2   -5.839890909919836E-3    2.194818112189024E-1    5.027770530192838E-1
 6.517235870375000E9    -2.279868999800551E-1   -1.319616636022574E-2    1.409334183654013E-2   -6.196977642984664E-3    1.423393412054193E-2   -5.790242756979305E-3    2.202858757834517E-1    5.025129788646669E-1
 6.517247610200000E9    -2.279047629407401E-1   -1.307349840889177E-2    1.420497018757968E-2   -6.361689976349717E-3    1.443275122464014E-2   -5.852376991522462E-3    2.212035397250524E-1    5.020598479727272E-1
 6.517259350025000E9    -2.277196097280717E-1   -1.292373904328047E-2    1.423954309992786E-2   -6.365200202351528E-3    1.444442561295765E-2   -5.867547133007136E-3    2.220329497960143E-1    5.016509473164178E-1
 6.517271089850000E9    -2.277572627830055E-1   -1.273552748664169E-2    1.432823623128358E-2   -6.442472748013979E-3    1.444805299228059E-2   -5.979675384447518E-3    2.229125790877078E-1    5.012947826808286E-1
 6.517282829675000E9    -2.276045954628385E-1   -1.259224956706418E-2    1.440596953331673E-2   -6.488884833726152E-3    1.445685645605007E-2   -6.004595256718604E-3    2.238443577733103E-1    5.008278152878658E-1
 6.517294569500000E9    -2.273682079458194E-1   -1.237350013541485E-2    1.440795341366493E-2   -6.643865883738631E-3    1.462732750280347E-2   -6.113517548653396E-3    2.247447138465875E-1    5.005664631685813E-1
 6.517306309325000E9    -2.272548224586482E-1   -1.221312781237040E-2    1.455795417028799E-2   -6.662317485958936E-3    1.463483537150669E-2   -6.250862570009020E-3    2.255339179315924E-1    5.002366205338300E-1
 6.517318049150000E9    -2.270888453958799E-1   -1.207570154028269E-2    1.448090403215251E-2   -6.803201676657896E-3    1.475711664906487E-2   -6.232580955900638E-3    2.263692280104479E-1    4.997602086033051E-1
 6.517329788975000E9    -2.269066094807201E-1   -1.185206470434942E-2    1.465038768704754E-2   -6.871895750656847E-3    1.483934888544531E-2   -6.303640888596574E-3    2.271782774099403E-1    4.993463608610753E-1
 6.517341528800000E9    -2.268273787341389E-1   -1.166340159501252E-2    1.469324305488093E-2   -6.873279094492002E-3    1.485660934308359E-2   -6.336525928429411E-3    2.280399446275043E-1    4.989448621990214E-1
 6.517353268625000E9    -2.266316960655065E-1   -1.156521721737160E-2    1.476161377450754E-2   -6.927454119076827E-3    1.494786800235389E-2   -6.472076621887494E-3    2.289167103005312E-1    4.986297106152283E-1
 6.517365008450000E9    -2.264728499461924E-1   -1.133674088391694E-2    1.471838691536519E-2   -7.030534167349676E-3    1.503463886994277E-2   -6.421199047076255E-3    2.299721747746558E-1    4.982283467715800E-1
 6.517376748275000E9    -2.262983433460753E-1   -1.119991088968580E-2    1.488379750761897E-2   -7.021095316606587E-3    1.508997831986740E-2   -6.568406864289525E-3    2.307445877478262E-1    4.978978458535140E-1
 6.517388488100000E9    -2.262640961640032E-1   -1.114757944439896E-2    1.500555539467216E-2   -7.145047700652112E-3    1.516989271036668E-2   -6.608120450412987E-3    2.315553332732048E-1    4.974608173799100E-1
 6.517400227925000E9    -2.260762154971578E-1   -1.089649945227299E-2    1.495001307350198E-2   -7.290501153823806E-3    1.519795340286236E-2   -6.633050062571467E-3    2.325031990686088E-1    4.970198187099402E-1
 6.517411967750000E9    -2.258430086670720E-1   -1.080860074963522E-2    1.497788140683144E-2   -7.381116854615735E-3    1.524989651707461E-2   -6.836338794498037E-3    2.332983034417321E-1    4.966464376581616E-1
 6.517423707575000E9    -2.257448649456211E-1   -1.054388302151388E-2    1.516759415245503E-2   -7.403006882015316E-3    1.537494783180756E-2   -6.894716141571567E-3    2.342072247925450E-1    4.962276399264075E-1
 6.517435447400000E9    -2.257837762784643E-1   -1.050102775505021E-2    1.536943972616839E-2   -7.354623596812850E-3    1.548836518747679E-2   -6.752761710996840E-3    2.350678704172724E-1    4.957311078045152E-1
 6.517447187225000E9    -2.255541862112511E-1   -1.027384300320929E-2    1.536906319916885E-2   -7.588714717156020E-3    1.543662764085743E-2   -7.011942692192919E-3    2.359346789560753E-1    4.954903729886489E-1
 6.517458927050000E9    -2.253544156056856E-1   -1.011822539242064E-2    1.534404947279197E-2   -7.609817579595058E-3    1.565986659847262E-2   -7.087724528545137E-3    2.366728796746702E-1    4.950556556822415E-1
 6.517470666875000E9    -2.252366694322294E-1   -9.972392736100238E-3    1.546111281512127E-2   -7.612185907667136E-3    1.565888721888342E-2   -7.066753989845517E-3    2.375886120829291E-1    4.947489315490982E-1
 6.517482406700000E9    -2.250376499659708E-1   -9.748620742008643E-3    1.552847635441623E-2   -7.775889518982249E-3    1.576390954664453E-2   -7.190895776058073E-3    2.384519920011665E-1    4.942329804220461E-1
 6.517494146525000E9    -2.248612416377835E-1   -9.614837102239523E-3    1.571446868828522E-2   -7.744289341936245E-3    1.580756499254887E-2   -7.314224860889429E-3    2.393807455171400E-1    4.939099398291248E-1
 6.517505886350000E9    -2.247287344463642E-1   -9.524608416633764E-3    1.573506841877302E-2   -7.897055756903401E-3    1.590517913227657E-2   -7.323469700116394E-3    2.403120725078234E-1    4.933469995177523E-1
 6.517517626175000E9    -2.245133881092165E-1   -9.266192194724899E-3    1.571082769232286E-2   -7.988317827595978E-3    1.597090537621643E-2   -7.498309230337256E-3    2.410298340321652E-1    4.930898336556808E-1
 6.517529366000000E9    -2.244390822557379E-1   -9.179831337763889E-3    1.590514536221516E-2   -8.093335448344039E-3    1.597882423695408E-2   -7.452102153802234E-3    2.419764739814598E-1    4.925887384710763E-1
 6.517541105825000E9    -2.242510319418942E-1   -9.089709206831668E-3    1.583104145861991E-2   -8.065482227857563E-3    1.609075035502782E-2   -7.575291528657272E-3    2.428640765029499E-1    4.920957347356469E-1
 6.517552845650000E9    -2.241522703082804E-1   -8.916461965588028E-3    1.603865514332886E-2   -8.348483830203713E-3    1.629186451922161E-2   -7.709081993666479E-3    2.436616812812286E-1    4.918512202540197E-1
 6.517564585475000E9    -2.239855108181072E-1   -8.750577480611373E-3    1.616899084602441E-2   -8.255615278610252E-3    1.633191482363145E-2   -7.707389112986410E-3    2.445861215446596E-1    4.912673851834164E-1
 6.517576325300000E9    -2.239636258700512E-1   -8.626520399891596E-3    1.615636759107844E-2   -8.402075585708784E-3    1.632130794925709E-2   -7.916845478734121E-3    2.453658137950935E-1    4.908012260191608E-1
 6.517588065125000E9    -2.235890399791231E-1   -8.459355704775713E-3    1.622209275604564E-2   -8.558793906437514E-3    1.646993318844253E-2   -7.947373397046747E-3    2.461424987656567E-1    4.904279589235747E-1
 6.517599804950000E9    -2.235748357445620E-1   -8.309029415698123E-3    1.640105791384984E-2   -8.431828226474000E-3    1.653526593200611E-2   -8.087888944098686E-3    2.472151714579268E-1    4.901690738557403E-1
 6.517611544775000E9    -2.234196166601865E-1   -8.221619325051728E-3    1.641136368424254E-2   -8.569133488098854E-3    1.655161659490671E-2   -8.076459464347060E-3    2.479545645666384E-1    4.895578546054620E-1
 6.517623284600000E9    -2.231714633716480E-1   -8.060941096461691E-3    1.646466052156997E-2   -8.825709885554587E-3    1.676932323634727E-2   -8.279277905945006E-3    2.488557979513852E-1    4.891342284032437E-1
 6.517635024425000E9    -2.229453651319274E-1   -7.899612532772849E-3    1.650281675356743E-2   -8.799760170218251E-3    1.675691547066610E-2   -8.434072563911347E-3    2.497370171129223E-1    4.887795148398976E-1
 6.517646764250000E9    -2.228373314434334E-1   -7.838398547870247E-3    1.672325531498801E-2   -8.873537954335988E-3    1.684875779372091E-2   -8.502784377481950E-3    2.504771816490453E-1    4.884013402379982E-1
 6.517658504075000E9    -2.226645301840500E-1   -7.697725329748715E-3    1.678865146332065E-2   -9.091424567812851E-3    1.696882579632740E-2   -8.481469961111611E-3    2.515126489553075E-1    4.878415003952954E-1
 6.517670243900000E9    -2.224898864046357E-1   -7.558346688767916E-3    1.676496468052220E-2   -9.203014175600630E-3    1.709191324819823E-2   -8.558572426401042E-3    2.523061389737895E-1    4.873007396863968E-1
 6.517681983725000E9    -2.223133183413719E-1   -7.344760820128912E-3    1.699361547007113E-2   -9.301349571584124E-3    1.728792644221992E-2   -8.734793363084673E-3    2.532550540938226E-1    4.869077792407744E-1
 6.517693723550000E9    -2.221926152477779E-1   -7.213573299167147E-3    1.700436521631042E-2   -9.316110496209049E-3    1.720220438648882E-2   -8.733870186217369E-3    2.540932261920127E-1    4.865521888147560E-1
 6.517705463375000E9    -2.219369194943888E-1   -7.117122616647746E-3    1.715783946876792E-2   -9.497960307177852E-3    1.734185474172402E-2   -8.918312720023996E-3    2.550632020641599E-1    4.860843266993892E-1
 6.517717203200000E9    -2.219223348941163E-1   -6.898251929213964E-3    1.721996358894993E-2   -9.511324301335061E-3    1.749515564875161E-2   -8.885882039940226E-3    2.557025282514070E-1    4.855051333984340E-1
 6.517728943025000E9    -2.216094201634048E-1   -6.837288920669670E-3    1.725105969714326E-2   -9.591870883179717E-3    1.741777793305513E-2   -9.113781212361470E-3    2.568010933820474E-1    4.851002755202853E-1
 6.517740682850000E9    -2.214118536911053E-1   -6.699723790318728E-3    1.743957916848614E-2   -9.794798989440051E-3    1.766461983338096E-2   -9.156945110227601E-3    2.575444176288451E-1    4.846791425909382E-1
 6.517752422675000E9    -2.213945713818189E-1   -6.567071143468411E-3    1.755528896873319E-2   -9.903987485179558E-3    1.769765170809923E-2   -9.279291543736632E-3    2.584507749960626E-1    4.840313932738140E-1
 6.517764162500000E9    -2.210937957871693E-1   -6.534054664791415E-3    1.748696079587204E-2   -9.854740714477441E-3    1.782906984725728E-2   -9.359224520042717E-3    2.593212712119376E-1    4.837477457510154E-1
 6.517775902325000E9    -2.208613756527529E-1   -6.293751242939323E-3    1.761720266619967E-2   -1.004077665842936E-2    1.796176149245058E-2   -9.530308989841340E-3    2.601471946860155E-1    4.832474425089164E-1
 6.517787642150000E9    -2.206385183687404E-1   -6.237165181149164E-3    1.779832891963801E-2   -9.961635966635589E-3    1.804780519008826E-2   -9.627210086579912E-3    2.609901396957670E-1    4.828268160987345E-1
 6.517799381975000E9    -2.204444389185526E-1   -6.171609928289930E-3    1.787618971774308E-2   -1.035937955103324E-2    1.819135215638111E-2   -9.725689331766839E-3    2.617985084025967E-1    4.822546164865775E-1
 6.517811121800000E9    -2.203114235091056E-1   -6.014109160357050E-3    1.798742613291436E-2   -1.046079945411761E-2    1.820919251321598E-2   -9.777762856345273E-3    2.627697739100451E-1    4.818490145090850E-1
 6.517822861625000E9    -2.202031388845387E-1   -5.995697647097661E-3    1.815901010084259E-2   -1.050876180442185E-2    1.836557048253403E-2   -9.894667358273011E-3    2.636502565305734E-1    4.813011087312495E-1
 6.517834601450000E9    -2.198878568929758E-1   -5.848304712453602E-3    1.807698576316059E-2   -1.059005498361716E-2    1.846332741381381E-2   -1.008707121109443E-2    2.644026584361162E-1    4.808310995579425E-1
 6.517846341275000E9    -2.196770189467290E-1   -5.593497873405007E-3    1.829578381510083E-2   -1.077405604581631E-2    1.860343743036574E-2   -1.023135345392481E-2    2.652429936820443E-1    4.803066654601182E-1
 6.517858081100000E9    -2.195258564973403E-1   -5.697152261966294E-3    1.834415377929155E-2   -1.098158581828226E-2    1.870437191677364E-2   -1.033964460043478E-2    2.662230159138630E-1    4.798223629286729E-1
 6.517869820925000E9    -2.193285005412231E-1   -5.584864322893550E-3    1.846583684678359E-2   -1.101266438047481E-2    1.882241411843735E-2   -1.044822434763962E-2    2.671234653442686E-1    4.793971669627479E-1
 6.517881560750000E9    -2.191624034145031E-1   -5.489879175929659E-3    1.855337031104689E-2   -1.114228748927435E-2    1.889659867145229E-2   -1.056146570577277E-2    2.680237876595081E-1    4.787484630529061E-1
 6.517893300575000E9    -2.189063811812013E-1   -5.320974847749187E-3    1.860116691316797E-2   -1.142692898289211E-2    1.900215881369984E-2   -1.066540102144675E-2    2.687547595280695E-1    4.782675834421090E-1
 6.517905040400000E9    -2.187544613712527E-1   -5.402859353141434E-3    1.880298902567352E-2   -1.143095418560800E-2    1.910675544063330E-2   -1.076704432927038E-2    2.696486389074843E-1    4.778822393241516E-1
 6.517916780225000E9    -2.185264548051264E-1   -5.149112049732191E-3    1.884349648069927E-2   -1.166221288774165E-2    1.922169114330055E-2   -1.095078453802346E-2    2.705602328791625E-1    4.771498016871089E-1
 6.517928520050000E9    -2.183645785229567E-1   -5.107402899285778E-3    1.912961843192790E-2   -1.168537714604633E-2    1.942041749143448E-2   -1.104211811768440E-2    2.714840026580230E-1    4.769112530002582E-1
 6.517940259875000E9    -2.181321032482562E-1   -4.951518639259724E-3    1.910612682685291E-2   -1.187927978655581E-2    1.945605787901139E-2   -1.131145354778944E-2    2.722592704264547E-1    4.762977826309361E-1
 6.517951999700000E9    -2.178429441839747E-1   -5.044446878823313E-3    1.919438276773369E-2   -1.200855233737066E-2    1.961064541714948E-2   -1.131177555781208E-2    2.732904857170973E-1    4.757869774887209E-1
 6.517963739525000E9    -2.178227413279118E-1   -4.826043215809416E-3    1.931185827533670E-2   -1.207136705443885E-2    1.969425947417610E-2   -1.155560063801456E-2    2.739793195238345E-1    4.752696542718741E-1
 6.517975479350000E9    -2.175596420187156E-1   -4.726950453425281E-3    1.955273139957438E-2   -1.235431175799549E-2    1.977855493808749E-2   -1.161594682790019E-2    2.749782815232372E-1    4.746851812878615E-1
 6.517987219175000E9    -2.171348172668128E-1   -4.671882531180458E-3    1.963827169067143E-2   -1.239874219342067E-2    1.999186482736370E-2   -1.170711918095569E-2    2.759868269715908E-1    4.740274468118961E-1
 6.517998959000000E9    -2.170193185059032E-1   -4.598707059747845E-3    1.973103758736123E-2   -1.259741982508385E-2    2.012009560538655E-2   -1.190925982217609E-2    2.766521467330798E-1    4.737091537589112E-1
 6.518010698825000E9    -2.166974729503902E-1   -4.461237098423495E-3    1.985369278361029E-2   -1.269256199952218E-2    2.028066051684460E-2   -1.206959316893362E-2    2.776430637496670E-1    4.731364255655369E-1
 6.518022438650000E9    -2.165038204680625E-1   -4.456404873284639E-3    2.001304770234210E-2   -1.295678104586576E-2    2.035878241749690E-2   -1.220403220687865E-2    2.786525869683805E-1    4.725742062097140E-1
 6.518034178475000E9    -2.163300014672385E-1   -4.366691966521495E-3    2.011444244761311E-2   -1.302635036642447E-2    2.048907352786772E-2   -1.240656337399890E-2    2.792731410703845E-1    4.721715623971454E-1
 6.518045918300000E9    -2.160742394774353E-1   -4.330795551098636E-3    2.025757756808132E-2   -1.317442740796871E-2    2.059654287692159E-2   -1.251992252296439E-2    2.802330592386675E-1    4.714348191500497E-1
 6.518057658125000E9    -2.158114053350681E-1   -4.284643737834537E-3    2.027613031602499E-2   -1.343073712542815E-2    2.067905942148049E-2   -1.273438229211736E-2    2.811131178172294E-1    4.709424834522354E-1
 6.518069397950000E9    -2.156874135060623E-1   -4.157931445816764E-3    2.048127041280980E-2   -1.357956890998338E-2    2.091997796312087E-2   -1.284742762120565E-2    2.820078724014354E-1    4.703549853373596E-1
 6.518081137775000E9    -2.153690769635576E-1   -4.292908767560623E-3    2.059227658205976E-2   -1.366783711096220E-2    2.116378085808265E-2   -1.315688537099077E-2    2.829036185590074E-1    4.697700881405223E-1
 6.518092877600000E9    -2.151058373277513E-1   -4.161257155112695E-3    2.077358711011694E-2   -1.376044579125904E-2    2.124688947147609E-2   -1.322708706495050E-2    2.837641639361662E-1    4.694169812253942E-1
 6.518104617425000E9    -2.148848141528776E-1   -4.144262175975326E-3    2.070418742399901E-2   -1.400902033814639E-2    2.124357538724488E-2   -1.341448838557363E-2    2.846698384894410E-1    4.687002779951406E-1
 6.518116357250000E9    -2.146157159829607E-1   -4.123993649850415E-3    2.101029082445381E-2   -1.430843155958824E-2    2.144499772595715E-2   -1.359822714147753E-2    2.853956062804694E-1    4.680222110307278E-1
