#  HZ   S   RI   R     50.00 
! Rohde & Schwarz Vector Network Analyzer 
! Rohde-Schwarz,ZNB20-2Port,1311601062101988,3.16
! Created: UTC 12/23/2023, 4:01:59 AM
! freq[Hz]                re:S11                  im:S11                  re:S21                  im:S21                  re:S12                  im:S12                  re:S22                  im:S22
 6.517168397000000E9    -2.291204602349032E-1   -1.347278766927722E-2    1.363998924070826E-2   -5.825769368723847E-3    1.374402715350308E-2   -5.323728384651043E-3    2.152170135383734E-1    5.046656957492983E-1
 6.517179774850000E9    -2.289045955778469E-1   -1.337564009428534E-2    1.379158426004773E-2   -5.980238249769797E-3    1.371400539573879E-2   -5.403809382140852E-3    2.161510566914045E-1    5.043274434705686E-1
 6.517191152700000E9    -2.288557974460138E-1   -1.324255976245224E-2    1.367754340446286E-2   -5.771488158412092E-3    1.380041777879203E-2   -5.457072030650425E-3    2.167368946040194E-1    5.038760991827128E-1
 6.517202530550000E9    -2.287390795713858E-1   -1.299895991453358E-2    1.376313670436275E-2   -6.017673631434989E-3    1.389591772648007E-2   -5.475124509927752E-3    2.176516069339279E-1    5.035356355144076E-1
 6.517213908400000E9    -2.286224649773636E-1   -1.288736698165272E-2    1.395178260243915E-2   -5.832028765904914E-3    1.407175563781461E-2   -5.581447505899865E-3    2.185456325659211E-1    5.032796122495253E-1
 6.517225286250000E9    -2.284597614710480E-1   -1.269762844812192E-2    1.396156697639460E-2   -6.056729312391440E-3    1.402155320451979E-2   -5.557283109549664E-3    2.193966666823976E-1    5.029636390720130E-1
 6.517236664100000E9    -2.283297539590247E-1   -1.246572752689921E-2    1.401687350915899E-2   -6.250310966521474E-3    1.411747956742030E-2   -5.589039522056657E-3    2.202783157663945E-1    5.026402244161748E-1
 6.517248041950000E9    -2.282889627412516E-1   -1.233005900193387E-2    1.391757459654192E-2   -6.269304531343100E-3    1.413070908962074E-2   -5.665960722865696E-3    2.210666443392620E-1    5.022346892488631E-1
 6.517259419800000E9    -2.281864505365090E-1   -1.222291267725162E-2    1.406401421277542E-2   -6.228877324143784E-3    1.410093863500057E-2   -5.737674950910928E-3    2.217812649157657E-1    5.017964803598530E-1
 6.517270797650000E9    -2.279930168560525E-1   -1.194623887655197E-2    1.407785492037150E-2   -6.241841922935738E-3    1.432129213870333E-2   -5.905297829243787E-3    2.226523523507114E-1    5.014393027161419E-1
 6.517282175500000E9    -2.277984876778573E-1   -1.191544864967793E-2    1.421934966735847E-2   -6.434466094622071E-3    1.432859489994958E-2   -5.967245870144469E-3    2.236012207370283E-1    5.010938677404112E-1
 6.517293553350000E9    -2.277402836051078E-1   -1.163268043058137E-2    1.422974213218494E-2   -6.488426529484378E-3    1.433902213885214E-2   -5.833544686070854E-3    2.243553687546451E-1    5.009308421942964E-1
 6.517304931200000E9    -2.276417120272686E-1   -1.143062207753660E-2    1.429921639716899E-2   -6.477775123004394E-3    1.444342149581067E-2   -6.105401722790924E-3    2.251641869002093E-1    5.005616939989863E-1
 6.517316309050000E9    -2.274919240822067E-1   -1.137031984365237E-2    1.435209882489963E-2   -6.463498593558256E-3    1.442312228904969E-2   -6.154661872983583E-3    2.260251705147077E-1    5.001579074087212E-1
 6.517327686900000E9    -2.272864356344995E-1   -1.118039523512621E-2    1.439817499209760E-2   -6.531942156087609E-3    1.449261768870600E-2   -6.148504284220604E-3    2.269442460328330E-1    4.996603349196850E-1
 6.517339064750000E9    -2.272053133741600E-1   -1.106679739967834E-2    1.445009056934907E-2   -6.695361837829285E-3    1.464481327154415E-2   -6.227343424093714E-3    2.278205049076711E-1    4.993211727861324E-1
 6.517350442600000E9    -2.270763598875964E-1   -1.088637676501158E-2    1.455640887854953E-2   -6.777336564973116E-3    1.473789506801456E-2   -6.255820566719288E-3    2.285813726455790E-1    4.987952706070488E-1
 6.517361820450000E9    -2.268890457203706E-1   -1.069526286984173E-2    1.452180065452063E-2   -6.742940320886808E-3    1.481687069767192E-2   -6.333870698841797E-3    2.295162171290905E-1    4.985094203339075E-1
 6.517373198300000E9    -2.267759320580325E-1   -1.051768848532917E-2    1.470783652641789E-2   -6.858019564805068E-3    1.476311438794521E-2   -6.347121140999202E-3    2.302638392412566E-1    4.981598096667761E-1
 6.517384576150000E9    -2.266176004126782E-1   -1.036436852152413E-2    1.481104759057881E-2   -7.007348666575323E-3    1.495060440855614E-2   -6.490682883739216E-3    2.311501221442896E-1    4.977741875612175E-1
 6.517395954000000E9    -2.265336693737856E-1   -1.012540141314733E-2    1.486775563155449E-2   -6.992703343472969E-3    1.502181636601899E-2   -6.398517311122652E-3    2.319391502144476E-1    4.975042643022363E-1
 6.517407331850000E9    -2.263453223500159E-1   -1.003641238325745E-2    1.481013009519098E-2   -7.120612387616484E-3    1.501522979112632E-2   -6.530835796333961E-3    2.328793854020456E-1    4.969881816189813E-1
 6.517418709700000E9    -2.262971099902861E-1   -9.877747802114294E-3    1.489430953519535E-2   -7.170370516007640E-3    1.513162491346802E-2   -6.554144934489991E-3    2.337241492746655E-1    4.966948267412237E-1
 6.517430087550000E9    -2.260954793162218E-1   -9.749758943300482E-3    1.491650386412758E-2   -7.209412341831171E-3    1.517386180592530E-2   -6.679525837641088E-3    2.344851858789119E-1    4.962080534335684E-1
 6.517441465400000E9    -2.259156367341438E-1   -9.554272357915828E-3    1.507686815779345E-2   -7.242457869970409E-3    1.516840930816647E-2   -6.876842117987044E-3    2.354432323075615E-1    4.957870660501970E-1
 6.517452843250000E9    -2.258690334029337E-1   -9.458148910079098E-3    1.502915649845316E-2   -7.223005147337006E-3    1.531628834881972E-2   -6.868607181609653E-3    2.360371796505353E-1    4.954018930038494E-1
 6.517464221100000E9    -2.256229579911673E-1   -9.297853772516825E-3    1.523634416193574E-2   -7.384103144994724E-3    1.538269581757662E-2   -6.861411676564044E-3    2.368988336129177E-1    4.949872742037165E-1
 6.517475598950000E9    -2.255845088321752E-1   -9.112933289747266E-3    1.515206425837377E-2   -7.445245018815594E-3    1.545709712158605E-2   -6.949204988196882E-3    2.378792532774212E-1    4.945605304470435E-1
 6.517486976800000E9    -2.254952469209444E-1   -8.948005512481226E-3    1.531600278291485E-2   -7.518072190948915E-3    1.556582249649613E-2   -7.122702217020976E-3    2.385269316388706E-1    4.942223242718686E-1
 6.517498354650000E9    -2.252644240864593E-1   -8.832241329188901E-3    1.548249696043065E-2   -7.707295022432659E-3    1.561085693027576E-2   -7.064190461744006E-3    2.395354964626027E-1    4.939425437727326E-1
 6.517509732500000E9    -2.251810558956082E-1   -8.736255280443986E-3    1.561829822407495E-2   -7.715369156025308E-3    1.568305719011469E-2   -7.118616617501758E-3    2.402203103550246E-1    4.934388563586083E-1
 6.517521110350000E9    -2.249130331027514E-1   -8.577351536598242E-3    1.556983332095966E-2   -7.771950908307369E-3    1.568701194592796E-2   -7.244632104031013E-3    2.411727932527773E-1    4.931880696182738E-1
 6.517532488200000E9    -2.248477840023119E-1   -8.381879555825299E-3    1.557788419226465E-2   -7.810329141300736E-3    1.592999806533643E-2   -7.233637748868864E-3    2.420682972956328E-1    4.926660544711717E-1
 6.517543866050000E9    -2.246490099859957E-1   -8.234624425852283E-3    1.569113067226931E-2   -7.978883159617620E-3    1.589229014394671E-2   -7.360511397054364E-3    2.427636819756536E-1    4.922970728636730E-1
 6.517555243900000E9    -2.244861496920736E-1   -8.135188960205948E-3    1.562354193441521E-2   -8.029638274258099E-3    1.603721831248865E-2   -7.543623342807356E-3    2.437714109139371E-1    4.920266432291950E-1
 6.517566621750000E9    -2.242529995750644E-1   -7.928524798933799E-3    1.574189113090527E-2   -8.022251672658296E-3    1.598886189129485E-2   -7.544285875624923E-3    2.444190501546820E-1    4.914639302921812E-1
 6.517577999600000E9    -2.243192397450316E-1   -7.792269852256235E-3    1.579781171661760E-2   -8.228214921459870E-3    1.615487883764737E-2   -7.607088228386125E-3    2.453775937940422E-1    4.910807959237528E-1
 6.517589377450000E9    -2.241461370300364E-1   -7.604873954165647E-3    1.603198229076318E-2   -8.220151376953245E-3    1.613887110143959E-2   -7.667058058451249E-3    2.461895675816811E-1    4.906344010421734E-1
 6.517600755300000E9    -2.239323911181533E-1   -7.525440946547634E-3    1.603764630869045E-2   -8.335460873320325E-3    1.623424626835504E-2   -7.770150922564117E-3    2.470561401636479E-1    4.903198154928415E-1
 6.517612133150000E9    -2.238703099205341E-1   -7.359117376685305E-3    1.612871826737680E-2   -8.423855257131798E-3    1.632487044104738E-2   -7.880676942550374E-3    2.477837229362471E-1    4.898476781026315E-1
 6.517623511000000E9    -2.235447804467591E-1   -7.287536757483383E-3    1.610180626099818E-2   -8.531368318933492E-3    1.647319117389860E-2   -7.975302156645074E-3    2.486645560957625E-1    4.894348049314234E-1
 6.517634888850000E9    -2.234700807496449E-1   -7.190058786193125E-3    1.632772899417916E-2   -8.569843569431759E-3    1.655434294568563E-2   -8.083775889521217E-3    2.495669293859276E-1    4.889327951945689E-1
 6.517646266700000E9    -2.233665843681384E-1   -6.936298744076370E-3    1.633499995637167E-2   -8.729701189025010E-3    1.657732849047640E-2   -8.040047785084926E-3    2.504847083560090E-1    4.885451408185145E-1
 6.517657644550000E9    -2.231292226246193E-1   -6.895926784914995E-3    1.642581632694512E-2   -8.813859520721036E-3    1.672377688128842E-2   -8.183945114181699E-3    2.512387420298130E-1    4.881832812609259E-1
 6.517669022400000E9    -2.230216994480632E-1   -6.648478554094785E-3    1.659180694260532E-2   -8.770433529792966E-3    1.667293568594637E-2   -8.421081620035329E-3    2.520487616838081E-1    4.875545918709551E-1
 6.517680400250000E9    -2.228328205948440E-1   -6.598819872902025E-3    1.655992143593861E-2   -9.037228075832994E-3    1.684495060645405E-2   -8.315481196231192E-3    2.528514945035006E-1    4.871645919752113E-1
 6.517691778100000E9    -2.226796394395621E-1   -6.542708208614524E-3    1.677884996291748E-2   -9.017217625486785E-3    1.695968697251144E-2   -8.462795285879277E-3    2.536097433752630E-1    4.867413554405183E-1
 6.517703155950000E9    -2.224169119910994E-1   -6.333098565917471E-3    1.676864723972559E-2   -9.118281211817502E-3    1.702243862656968E-2   -8.474798033530717E-3    2.546847369405530E-1    4.863995235961792E-1
 6.517714533800000E9    -2.222965735930020E-1   -6.268614775835237E-3    1.689077097408826E-2   -9.157188033922035E-3    1.702986018734630E-2   -8.725261799678847E-3    2.555035589375841E-1    4.860084991010377E-1
 6.517725911650000E9    -2.222228129314122E-1   -5.997661244539342E-3    1.692180443364189E-2   -9.311646466919645E-3    1.734197266671273E-2   -8.718617009661369E-3    2.562218121229421E-1    4.855464539906585E-1
 6.517737289500000E9    -2.219446441729361E-1   -5.951636230865641E-3    1.714230901286993E-2   -9.431613465104103E-3    1.725930127440213E-2   -8.896073075255542E-3    2.570307187131751E-1    4.851294524253829E-1
 6.517748667350000E9    -2.218241646733445E-1   -5.796736795179454E-3    1.702623074376945E-2   -9.526493737193666E-3    1.729939110705509E-2   -8.872524085963902E-3    2.580146739739485E-1    4.845448594748034E-1
 6.517760045200000E9    -2.215843417795234E-1   -5.741827556036114E-3    1.723772672200924E-2   -9.529805620203271E-3    1.749664798668787E-2   -9.102387965353063E-3    2.588191777864028E-1    4.841344049492418E-1
 6.517771423050000E9    -2.214512528831501E-1   -5.676633415550042E-3    1.741628521837294E-2   -9.676874146069403E-3    1.765275015616114E-2   -9.109336450915870E-3    2.595395689164133E-1    4.837308306421949E-1
 6.517782800900000E9    -2.212742434966316E-1   -5.527975917865555E-3    1.740870639292013E-2   -9.802311838956858E-3    1.762901409371695E-2   -9.235866673684649E-3    2.604225939554767E-1    4.834144004333515E-1
 6.517794178750000E9    -2.210700117070534E-1   -5.280040923478665E-3    1.746510894754349E-2   -9.904158832066381E-3    1.774407707086507E-2   -9.303420563679861E-3    2.611789136090322E-1    4.827365461801237E-1
 6.517805556600000E9    -2.209881305614341E-1   -5.212111216515571E-3    1.756169323467256E-2   -1.013930810408623E-2    1.782853564382761E-2   -9.513300787333690E-3    2.620884606101372E-1    4.823929865616244E-1
 6.517816934450000E9    -2.206982536055693E-1   -5.143727515161154E-3    1.771224398947496E-2   -1.012036748848758E-2    1.799967646200493E-2   -9.510651685849025E-3    2.629037452757732E-1    4.819127473457824E-1
 6.517828312300000E9    -2.206336487068841E-1   -5.046045823794290E-3    1.784402425813624E-2   -1.032834432728294E-2    1.803920701166217E-2   -9.610278825176802E-3    2.638488308173583E-1    4.814280243315722E-1
 6.517839690150000E9    -2.203849052868721E-1   -4.851489405092853E-3    1.791834934575549E-2   -1.022596933326507E-2    1.818987913504882E-2   -9.814697922102988E-3    2.646967557942042E-1    4.810765018734188E-1
 6.517851068000000E9    -2.201749002086051E-1   -4.682493974599686E-3    1.780504085174145E-2   -1.042433277367465E-2    1.821516271418242E-2   -9.844067973141081E-3    2.654749436589650E-1    4.803536181729440E-1
 6.517862445850000E9    -2.199825567396032E-1   -4.773866212382676E-3    1.800370996664272E-2   -1.053236296920676E-2    1.836097957415579E-2   -9.914085251015094E-3    2.663499775881876E-1    4.798514261365076E-1
 6.517873823700000E9    -2.197236575071626E-1   -4.509245418910740E-3    1.820129439141762E-2   -1.077105611255925E-2    1.843937468612005E-2   -1.016230611744741E-2    2.671038320770696E-1    4.794104486462254E-1
 6.517885201550000E9    -2.196727991950325E-1   -4.441201033533420E-3    1.831597720436661E-2   -1.081174978946598E-2    1.847781670922824E-2   -1.020169717054023E-2    2.679805843200156E-1    4.789256476694842E-1
 6.517896579400000E9    -2.193342244576703E-1   -4.324382240989333E-3    1.839408838398917E-2   -1.094324179281713E-2    1.874940115566867E-2   -1.017572388089882E-2    2.688644285171912E-1    4.784982145959663E-1
 6.517907957250000E9    -2.191381976845258E-1   -4.272910219848222E-3    1.836856954131312E-2   -1.107228426319837E-2    1.879612503092578E-2   -1.043645820067393E-2    2.695769989733200E-1    4.781035952761689E-1
 6.517919335100000E9    -2.190239058420022E-1   -4.112220944158277E-3    1.871931815599143E-2   -1.099989889516007E-2    1.895938046478191E-2   -1.057770924721812E-2    2.704745225971495E-1    4.776911367085762E-1
 6.517930712950000E9    -2.188260729086809E-1   -4.175576344688238E-3    1.869863098598132E-2   -1.122775526043963E-2    1.898836558657684E-2   -1.070999169078326E-2    2.713347286949119E-1    4.772008119779272E-1
 6.517942090800000E9    -2.185073568404466E-1   -3.987391578259636E-3    1.877249591839551E-2   -1.138086473721611E-2    1.919254425450698E-2   -1.082288094352655E-2    2.723912354996963E-1    4.767063909485841E-1
 6.517953468650000E9    -2.183343047324010E-1   -3.792702210212234E-3    1.894406482510595E-2   -1.156539096974852E-2    1.937725202044021E-2   -1.082032456275776E-2    2.730141577008233E-1    4.762035571571785E-1
 6.517964846500000E9    -2.181749620860474E-1   -3.884434002514300E-3    1.905852862202655E-2   -1.165828888316358E-2    1.934237543822176E-2   -1.111538694174073E-2    2.739411452415142E-1    4.757098435875594E-1
 6.517976224350000E9    -2.180622361132992E-1   -3.688632707906051E-3    1.906745568147386E-2   -1.189121735599554E-2    1.950656890468072E-2   -1.120137192687358E-2    2.748589000777220E-1    4.751261582310530E-1
 6.517987602200000E9    -2.179058816770075E-1   -3.699779420394621E-3    1.916813833459717E-2   -1.184897965183985E-2    1.960514960747661E-2   -1.124067609680855E-2    2.756502679512137E-1    4.744683914600056E-1
 6.517998980050000E9    -2.175033562281229E-1   -3.647460390917393E-3    1.929534528157606E-2   -1.215248442592028E-2    1.973259325471435E-2   -1.147989784481992E-2    2.764467319653554E-1    4.742104392138991E-1
 6.518010357900000E9    -2.173268232632119E-1   -3.462011922133542E-3    1.936118148826348E-2   -1.223396381889451E-2    1.986134153262820E-2   -1.164984152019609E-2    2.771581666158439E-1    4.735109322210447E-1
 6.518021735750000E9    -2.172180293681210E-1   -3.467972771609949E-3    1.966267209131194E-2   -1.239575034418203E-2    1.995373422636175E-2   -1.172694360010096E-2    2.781355009271731E-1    4.731928950189999E-1
 6.518033113600000E9    -2.169371127597634E-1   -3.363718033260047E-3    1.978162981607879E-2   -1.245381280737713E-2    2.007959697008252E-2   -1.192406522036031E-2    2.789589065093599E-1    4.725280902246272E-1
 6.518044491450000E9    -2.166096109231646E-1   -3.306030264410010E-3    1.977027476742022E-2   -1.265778298060776E-2    2.010083933668841E-2   -1.209656048659897E-2    2.798570127819065E-1    4.718980252089570E-1
 6.518055869300000E9    -2.163755203260556E-1   -3.231884580482010E-3    1.994409342057617E-2   -1.281951634988596E-2    2.038264588578722E-2   -1.223270936561889E-2    2.805574575220173E-1    4.716178509649824E-1
 6.518067247150000E9    -2.162364578842408E-1   -3.071565865404898E-3    1.998806265656551E-2   -1.298434474749398E-2    2.044589590516342E-2   -1.228561324727173E-2    2.815652580430544E-1    4.709262980466679E-1
 6.518078625000000E9    -2.160970430667125E-1   -2.989912317159149E-3    2.013240305348405E-2   -1.308503632471695E-2    2.057119625369266E-2   -1.257371677037161E-2    2.823139161840034E-1    4.705978134617894E-1
 6.518090002850000E9    -2.157996119806693E-1   -2.986580214826447E-3    2.028829102846759E-2   -1.337480345464572E-2    2.071781232171813E-2   -1.262738852056118E-2    2.832275556723644E-1    4.698645910180739E-1
 6.518101380700000E9    -2.154790489096398E-1   -3.018532010626027E-3    2.030709539324758E-2   -1.344772965374925E-2    2.093428000994573E-2   -1.281887183587026E-2    2.840575559483515E-1    4.693542430822842E-1
 6.518112758550000E9    -2.153309989848483E-1   -2.907339295532864E-3    2.056453227392505E-2   -1.358288289258810E-2    2.093128318653169E-2   -1.295279236323517E-2    2.849281283574408E-1    4.687942853042358E-1
 6.518124136400000E9    -2.150045765003529E-1   -2.758314366290610E-3    2.064850408499857E-2   -1.387218471435349E-2    2.114128784358597E-2   -1.308216293055180E-2    2.857944413645502E-1    4.683114803597364E-1
 6.518135514250000E9    -2.149242035321174E-1   -2.870222753712680E-3    2.073118356517892E-2   -1.396252070800700E-2    2.124967091042396E-2   -1.337878822775819E-2    2.866923915427854E-1    4.676893341852090E-1
 6.518146892100000E9    -2.145682337474017E-1   -2.780299544128360E-3    2.093655093845785E-2   -1.401911926842351E-2    2.144185189207363E-2   -1.340934433669144E-2    2.875016037622162E-1    4.670605987547861E-1
 6.518158269950000E9    -2.143388352685794E-1   -2.735651643348394E-3    2.114636913165598E-2   -1.427229691659493E-2    2.159867570837821E-2   -1.364623766126268E-2    2.884148475306965E-1    4.665029517660526E-1
 6.518169647800000E9    -2.142047030787813E-1   -2.650678711427839E-3    2.127003651467418E-2   -1.443694882427818E-2    2.172870199355917E-2   -1.375889388542322E-2    2.892174459629072E-1    4.658999145976141E-1
 6.518181025650000E9    -2.139137035191438E-1   -2.673004664729034E-3    2.144153299738914E-2   -1.484056666131557E-2    2.181727530576810E-2   -1.409439508833672E-2    2.899977497358339E-1    4.654765479974520E-1
 6.518192403500000E9    -2.136744209423134E-1   -2.618587166206202E-3    2.154466598746586E-2   -1.487503738610443E-2    2.209111165132665E-2   -1.428771598504908E-2    2.908798764367850E-1    4.648400350463392E-1
