#  HZ   S   RI   R     50.00 
! Rohde & Schwarz Vector Network Analyzer 
! Rohde-Schwarz,ZNB20-2Port,1311601062101988,3.16
! Created: UTC 12/23/2023, 3:37:16 AM
! freq[Hz]                re:S11                  im:S11                  re:S21                  im:S21                  re:S12                  im:S12                  re:S22                  im:S22
 6.517090726000000E9    -2.300974302712125E-1   -1.522803850937102E-2    1.347058037864809E-2   -5.610822167234858E-3    1.355915005859762E-2   -5.222250178685937E-3    2.103826545643942E-1    5.067175127480235E-1
 6.517102290250000E9    -2.300033923347983E-1   -1.508282982346680E-2    1.342537384344515E-2   -5.651576585128167E-3    1.353632934890689E-2   -5.189611083670579E-3    2.111950684102482E-1    5.063572538912993E-1
 6.517113854500000E9    -2.299113428091746E-1   -1.488181847702925E-2    1.357440650446162E-2   -5.742793029868291E-3    1.364667075910069E-2   -5.338203195479979E-3    2.120998586777880E-1    5.061646358402425E-1
 6.517125418750000E9    -2.298401246608603E-1   -1.470129082950140E-2    1.362077543004365E-2   -5.747530817141347E-3    1.366114783715201E-2   -5.320212970859843E-3    2.130879806382393E-1    5.057603978550408E-1
 6.517136983000000E9    -2.296564049351867E-1   -1.448767571119491E-2    1.359037642037902E-2   -5.831743256615673E-3    1.382210620449961E-2   -5.290289451044022E-3    2.138535150627083E-1    5.053563839338991E-1
 6.517148547250000E9    -2.295394180128716E-1   -1.432506743380347E-2    1.375347237192393E-2   -5.854902323888732E-3    1.381372153760695E-2   -5.352135899170275E-3    2.148250366472074E-1    5.049436818446972E-1
 6.517160111500000E9    -2.294997643587717E-1   -1.419039760566155E-2    1.384512749774645E-2   -5.879818245909428E-3    1.396343146955866E-2   -5.458218601763395E-3    2.153502271626934E-1    5.046541604015436E-1
 6.517171675750000E9    -2.292603220476067E-1   -1.390449729091096E-2    1.375263949374798E-2   -6.057931968985691E-3    1.393860138121773E-2   -5.448590647878529E-3    2.163314284953911E-1    5.042996578479959E-1
 6.517183240000000E9    -2.290770614662803E-1   -1.377675446322708E-2    1.386819622195029E-2   -6.070724753459255E-3    1.400373962627660E-2   -5.535551996364631E-3    2.174070376438801E-1    5.039661252059996E-1
 6.517194804250000E9    -2.289328073855047E-1   -1.361556591759200E-2    1.394646531614894E-2   -6.110473352715217E-3    1.411909750887591E-2   -5.636528032352284E-3    2.180744433039958E-1    5.035794528482918E-1
 6.517206368500000E9    -2.289449598760556E-1   -1.349279080718297E-2    1.399411582020844E-2   -6.015335430126681E-3    1.416883428457135E-2   -5.739291846015303E-3    2.189904715212729E-1    5.031809442983282E-1
 6.517217932750000E9    -2.286989991032971E-1   -1.326505295144896E-2    1.410661515795381E-2   -6.188361317382274E-3    1.414540822510080E-2   -5.732537263918256E-3    2.196682041623635E-1    5.029780607890721E-1
 6.517229497000000E9    -2.286957709003032E-1   -1.321030007396164E-2    1.403756399106759E-2   -6.160798806872046E-3    1.427356935383926E-2   -5.734515683750937E-3    2.206231568569381E-1    5.024309189835577E-1
 6.517241061250000E9    -2.284941010160397E-1   -1.296870100430426E-2    1.413057351509458E-2   -6.293780982426899E-3    1.418847171386555E-2   -5.871808824350081E-3    2.215407628701673E-1    5.021805515371802E-1
 6.517252625500000E9    -2.283579620068632E-1   -1.266618411452367E-2    1.428652381793173E-2   -6.471471041635631E-3    1.444627492619762E-2   -5.866385166675463E-3    2.222910587563334E-1    5.016891934592543E-1
 6.517264189750000E9    -2.282657327953139E-1   -1.264146919565694E-2    1.431324223932077E-2   -6.557074556844670E-3    1.443673369011167E-2   -5.915655490832936E-3    2.232847483691854E-1    5.012215768238302E-1
 6.517275754000000E9    -2.281400637535604E-1   -1.239913990684892E-2    1.441560830245803E-2   -6.503882975665341E-3    1.450444785306322E-2   -6.080510020186197E-3    2.239477803425671E-1    5.011519463552552E-1
 6.517287318250000E9    -2.280411891627290E-1   -1.235794210566804E-2    1.439285715654154E-2   -6.527030225712932E-3    1.455073514173883E-2   -6.035291667389752E-3    2.248368001644612E-1    5.006045738955565E-1
 6.517298882500000E9    -2.278712458299699E-1   -1.206868238947570E-2    1.439829586579368E-2   -6.748908190465037E-3    1.454430605894804E-2   -6.203791304656788E-3    2.256603982789301E-1    5.002030274247498E-1
 6.517310446750000E9    -2.276567462052947E-1   -1.186885154230903E-2    1.451861232205406E-2   -6.667612706545354E-3    1.467603549109533E-2   -6.202334062185017E-3    2.267458817668673E-1    5.000156890800302E-1
 6.517322011000000E9    -2.276300800688504E-1   -1.190853359027397E-2    1.439862597664509E-2   -6.777474190226699E-3    1.470233449073902E-2   -6.299792908177774E-3    2.274994572710162E-1    4.995646949902810E-1
 6.517333575250000E9    -2.274859377596568E-1   -1.171819167301603E-2    1.473786277303649E-2   -6.860646889382194E-3    1.482847107922100E-2   -6.306144147884885E-3    2.282241472131916E-1    4.992224370924988E-1
 6.517345139500000E9    -2.274046295663759E-1   -1.140543276642929E-2    1.474873547517297E-2   -6.878801506035600E-3    1.490754375192411E-2   -6.444387255877542E-3    2.292419006222068E-1    4.987038242200924E-1
 6.517356703750000E9    -2.272712219597085E-1   -1.137432031880667E-2    1.474657254413669E-2   -7.017706253902891E-3    1.485287202049486E-2   -6.434830415239343E-3    2.300599371193473E-1    4.983124799978563E-1
 6.517368268000000E9    -2.270019323928017E-1   -1.116666031727778E-2    1.495539379710987E-2   -6.990715351645188E-3    1.511463096702446E-2   -6.413960561852772E-3    2.308219171742449E-1    4.979399999364406E-1
 6.517379832250000E9    -2.269537723340960E-1   -1.101258354691736E-2    1.487564287883204E-2   -7.074492556962367E-3    1.516468935141519E-2   -6.558182644000645E-3    2.317738826277432E-1    4.975556478251321E-1
 6.517391396500000E9    -2.267906475980715E-1   -1.081610822785100E-2    1.495765259620156E-2   -7.112260150106207E-3    1.514618911396382E-2   -6.658855418353136E-3    2.326066783126466E-1    4.972025947881503E-1
 6.517402960750000E9    -2.265697447075289E-1   -1.065840186019935E-2    1.496514791203154E-2   -7.293903519980075E-3    1.523233493030211E-2   -6.710615618582633E-3    2.335298842672928E-1    4.968362679987802E-1
 6.517414525000000E9    -2.265465456839107E-1   -1.053105776176421E-2    1.520944362252625E-2   -7.309468043814996E-3    1.541787254647496E-2   -6.900514453851705E-3    2.341001988103002E-1    4.965469149057084E-1
 6.517426089250000E9    -2.263619812955195E-1   -1.030127662929016E-2    1.524757969467629E-2   -7.347083689276350E-3    1.543005411842579E-2   -6.880976643334294E-3    2.350343484309012E-1    4.959946520632235E-1
 6.517437653500000E9    -2.262082795851456E-1   -1.024350314255427E-2    1.522556692206035E-2   -7.484468235403231E-3    1.546042786750130E-2   -6.920990560463218E-3    2.358440760024189E-1    4.956660585014727E-1
 6.517449217750000E9    -2.260489610804045E-1   -1.004227670529846E-2    1.540770993361294E-2   -7.523483682627089E-3    1.557540169946232E-2   -6.964451828168000E-3    2.368921572250625E-1    4.953064927556113E-1
 6.517460782000000E9    -2.258418793097935E-1   -9.827251604724880E-3    1.539749258509113E-2   -7.545300326897542E-3    1.555755199015720E-2   -7.146414348526836E-3    2.377149361797577E-1    4.947952233547452E-1
 6.517472346250000E9    -2.257832033425360E-1   -9.711572514295793E-3    1.543960955624616E-2   -7.630646159845897E-3    1.570510961551716E-2   -7.222506428259472E-3    2.386070347064759E-1    4.943224490971797E-1
 6.517483910500000E9    -2.255976159520829E-1   -9.617864382427609E-3    1.561922610613103E-2   -7.753277670180215E-3    1.577678269680568E-2   -7.204846031630777E-3    2.393411925511743E-1    4.939924264535042E-1
 6.517495474750000E9    -2.253846644537238E-1   -9.354680133509314E-3    1.560607811159375E-2   -7.974736612255472E-3    1.581072140947589E-2   -7.254330120747646E-3    2.403175360383437E-1    4.935979139697767E-1
 6.517507039000000E9    -2.251875854653721E-1   -9.204487749055896E-3    1.565904256577494E-2   -7.886818554857049E-3    1.573229667833732E-2   -7.327464752787114E-3    2.409832869997099E-1    4.932438134782278E-1
 6.517518603250000E9    -2.252222070881974E-1   -9.150149367853846E-3    1.573932111950463E-2   -7.958731109998974E-3    1.599364349727583E-2   -7.454614220520249E-3    2.419518082857690E-1    4.927317602596702E-1
 6.517530167500000E9    -2.249321842906299E-1   -8.937848376478914E-3    1.579924426245303E-2   -8.141795448329010E-3    1.599653182255999E-2   -7.576901742247573E-3    2.427465602573831E-1    4.925061240505869E-1
 6.517541731750000E9    -2.249098245405722E-1   -8.870642886318732E-3    1.591433221586079E-2   -8.191742522885771E-3    1.607124115306650E-2   -7.528293361116758E-3    2.435877738026668E-1    4.918543422671989E-1
 6.517553296000000E9    -2.248011600452618E-1   -8.694839996365843E-3    1.603969099333014E-2   -8.279061483008216E-3    1.624214993895517E-2   -7.670865310190004E-3    2.444320884067777E-1    4.915716888972427E-1
 6.517564860250000E9    -2.245577574219762E-1   -8.548586177782957E-3    1.614496679111976E-2   -8.369709220725205E-3    1.628595777290762E-2   -7.804093763343136E-3    2.453349575904057E-1    4.912252651387450E-1
 6.517576424500000E9    -2.245135077311392E-1   -8.379842004377447E-3    1.608865873775548E-2   -8.416802849029606E-3    1.636919387792023E-2   -7.839665851426907E-3    2.461367659317025E-1    4.908211783796324E-1
 6.517587988750000E9    -2.241660541335616E-1   -8.331448008549690E-3    1.627421138120715E-2   -8.466788471340185E-3    1.647574324470135E-2   -7.990563425325298E-3    2.470424346449248E-1    4.902051212315158E-1
 6.517599553000000E9    -2.241798426724506E-1   -8.152229377690914E-3    1.624137404713628E-2   -8.679009977640265E-3    1.664167921585723E-2   -8.097677700734891E-3    2.479396759933207E-1    4.898342743495144E-1
 6.517611117250000E9    -2.239190117255191E-1   -7.937655214871085E-3    1.647174172841046E-2   -8.767147922452896E-3    1.667148443715708E-2   -8.145608431961179E-3    2.486070808545381E-1    4.894209345748677E-1
 6.517622681500000E9    -2.237155917419323E-1   -7.831643665580972E-3    1.645643840499370E-2   -8.863372067848811E-3    1.672185366205233E-2   -8.225267598399894E-3    2.495516199215983E-1    4.890167377792767E-1
 6.517634245750000E9    -2.236414469644619E-1   -7.779032707014253E-3    1.652603854726256E-2   -8.918181314716398E-3    1.679280553755406E-2   -8.343275381323697E-3    2.505463412361739E-1    4.886248669721912E-1
 6.517645810000000E9    -2.234244852033378E-1   -7.529655318458481E-3    1.665812505035169E-2   -8.995159107617764E-3    1.691753364711963E-2   -8.387208340090690E-3    2.514239963317171E-1    4.880820119179315E-1
 6.517657374250000E9    -2.231705142611158E-1   -7.482965510803848E-3    1.674986550259490E-2   -9.079635725355160E-3    1.702062298239713E-2   -8.458754766583686E-3    2.521703184716313E-1    4.878222109804773E-1
 6.517668938500000E9    -2.230915960213691E-1   -7.266380092234101E-3    1.684928915682955E-2   -9.128311572984171E-3    1.706573603177668E-2   -8.589547905905194E-3    2.529516249725110E-1    4.871922130002933E-1
 6.517680502750000E9    -2.228592858529703E-1   -7.227060336693080E-3    1.682527902176748E-2   -9.223083799519952E-3    1.718984930164167E-2   -8.729868420439732E-3    2.539911029407597E-1    4.867827785105925E-1
 6.517692067000000E9    -2.227050490501257E-1   -7.074259936328773E-3    1.698326242240492E-2   -9.287217238386592E-3    1.726610786615585E-2   -8.814637776293230E-3    2.546579124449342E-1    4.863394444529376E-1
 6.517703631250000E9    -2.225993958466178E-1   -6.837440434841160E-3    1.710055247096121E-2   -9.509420939415642E-3    1.736519313605062E-2   -8.898956095352340E-3    2.557437058096747E-1    4.859620027584222E-1
 6.517715195500000E9    -2.223897033732618E-1   -6.770223767013461E-3    1.731820413260489E-2   -9.557671815359799E-3    1.740575249763261E-2   -8.938936095254915E-3    2.563457074105214E-1    4.854709494973871E-1
 6.517726759750000E9    -2.223290254645170E-1   -6.723313110517736E-3    1.733230347183260E-2   -9.728310490795150E-3    1.753441943681160E-2   -9.058377154553736E-3    2.573669227835313E-1    4.850299295321658E-1
 6.517738324000000E9    -2.220030873242026E-1   -6.554529240432883E-3    1.741109976377961E-2   -9.787664192061589E-3    1.762757002738861E-2   -9.108473003453812E-3    2.581158564792012E-1    4.845591853059782E-1
 6.517749888250000E9    -2.218696752301456E-1   -6.387129706206475E-3    1.752179930010087E-2   -9.810905294001065E-3    1.776939262438056E-2   -9.306357448137027E-3    2.589510590951040E-1    4.841938881676237E-1
 6.517761452500000E9    -2.217015535803070E-1   -6.359635203441490E-3    1.750903413886063E-2   -9.994781771663654E-3    1.774761100573551E-2   -9.329787784399194E-3    2.598490424159913E-1    4.836098352443512E-1
 6.517773016750000E9    -2.214054268431368E-1   -6.265505646847767E-3    1.761106018491447E-2   -9.910815307102430E-3    1.795827085317305E-2   -9.488328141739293E-3    2.608592700966045E-1    4.831169091471579E-1
 6.517784581000000E9    -2.212893898220027E-1   -6.095450976842128E-3    1.766075308115453E-2   -1.016985092019713E-2    1.805743160508905E-2   -9.522225157983682E-3    2.616208998864237E-1    4.826719768378614E-1
 6.517796145250000E9    -2.211711734370746E-1   -5.983815480998580E-3    1.781035887616300E-2   -1.031604821194548E-2    1.819630396152733E-2   -9.560480939894166E-3    2.625518611181260E-1    4.822106301474158E-1
 6.517807709500000E9    -2.209470283446682E-1   -5.898165490890105E-3    1.798647063929890E-2   -1.032396586721602E-2    1.818954741539359E-2   -9.834814349055010E-3    2.634010830116334E-1    4.818502732089965E-1
 6.517819273750000E9    -2.208357368610915E-1   -5.751399552660284E-3    1.810130642405525E-2   -1.050368760925478E-2    1.833123078807683E-2   -9.941293845378721E-3    2.640447309197910E-1    4.812341615914232E-1
 6.517830838000000E9    -2.204244295710449E-1   -5.746645620526301E-3    1.819087295384177E-2   -1.060506181795666E-2    1.828801209628560E-2   -1.006950725799808E-2    2.649831217479252E-1    4.806709202808764E-1
 6.517842402250000E9    -2.203816194682099E-1   -5.572181714191074E-3    1.827456404416295E-2   -1.083857452887158E-2    1.859737163090697E-2   -9.990562228521439E-3    2.659655366758978E-1    4.801537812926949E-1
 6.517853966500000E9    -2.201457564028399E-1   -5.556570362209414E-3    1.823355074763079E-2   -1.087945469642763E-2    1.865805867047965E-2   -1.036797565249544E-2    2.667159873979124E-1    4.797949377754331E-1
 6.517865530750000E9    -2.200169161108273E-1   -5.307186036740822E-3    1.841196857573478E-2   -1.091364559578580E-2    1.875122210998146E-2   -1.037794497556756E-2    2.675774175604949E-1    4.794914437867633E-1
 6.517877095000000E9    -2.198489675161933E-1   -5.252316304641591E-3    1.851441796988370E-2   -1.118774827585936E-2    1.882389838150665E-2   -1.048100182198741E-2    2.683315523900466E-1    4.787021474522600E-1
 6.517888659250000E9    -2.195399625817536E-1   -5.153498772218749E-3    1.857779088652914E-2   -1.131179633383256E-2    1.899668360765988E-2   -1.069366745633631E-2    2.692207822515958E-1    4.783990283176714E-1
 6.517900223500000E9    -2.193814447479339E-1   -5.082806969948802E-3    1.870631020706512E-2   -1.136535905214133E-2    1.911907864948069E-2   -1.082237264860610E-2    2.701915354186084E-1    4.779410469866741E-1
 6.517911787750000E9    -2.190978637301988E-1   -5.026551439612157E-3    1.878716021464782E-2   -1.148064363533936E-2    1.924048161481935E-2   -1.092776107638855E-2    2.709326384663409E-1    4.773553423414023E-1
 6.517923352000000E9    -2.189050711049035E-1   -4.981390071880957E-3    1.896299464605169E-2   -1.168581946739078E-2    1.930572837594891E-2   -1.109146839529516E-2    2.719773365992565E-1    4.767726210338385E-1
 6.517934916250000E9    -2.187377744068514E-1   -4.797247793983134E-3    1.903907473804798E-2   -1.176126851422307E-2    1.949882713673939E-2   -1.110268701392768E-2    2.728117174524694E-1    4.764678316600123E-1
 6.517946480500000E9    -2.185542033387460E-1   -4.629161072828671E-3    1.930273156933639E-2   -1.189691411068829E-2    1.962296981091349E-2   -1.126144849148945E-2    2.736476375687837E-1    4.758662185157956E-1
 6.517958044750000E9    -2.184099878685429E-1   -4.597118509307625E-3    1.926246278485378E-2   -1.204732565819504E-2    1.969965075690468E-2   -1.136624585507478E-2    2.743999072283198E-1    4.753327223013585E-1
 6.517969609000000E9    -2.181045407179241E-1   -4.569942640944842E-3    1.939747876641761E-2   -1.220491053271974E-2    1.987751156657623E-2   -1.163032923673541E-2    2.753860641442765E-1    4.748279717412630E-1
 6.517981173250000E9    -2.178637892678804E-1   -4.460818562241382E-3    1.961351542233946E-2   -1.242424454260461E-2    1.991051326135278E-2   -1.178259503780445E-2    2.761920200194047E-1    4.742368692397485E-1
 6.517992737500000E9    -2.177416269603721E-1   -4.401201259678036E-3    1.965146929873991E-2   -1.249040456873788E-2    2.009747593325485E-2   -1.196761792839918E-2    2.769870992416867E-1    4.737599469381449E-1
 6.518004301750000E9    -2.175050524552980E-1   -4.309081327847700E-3    1.989583258985016E-2   -1.267060533081153E-2    2.015453198829908E-2   -1.206440409619410E-2    2.779130065158866E-1    4.731698654059177E-1
 6.518015866000000E9    -2.172855824156072E-1   -4.352365500588457E-3    1.990097729992978E-2   -1.289407409833161E-2    2.034063958816306E-2   -1.209620752103534E-2    2.787556823725931E-1    4.726029275935938E-1
 6.518027430250000E9    -2.170269416397569E-1   -4.176435440005784E-3    2.007568447542393E-2   -1.300590852533052E-2    2.047704413596393E-2   -1.225116505603334E-2    2.797447099711498E-1    4.721559346034237E-1
 6.518038994500000E9    -2.168399178732112E-1   -4.092884177001412E-3    2.013754862556141E-2   -1.303183800181476E-2    2.054702006527414E-2   -1.251850896437446E-2    2.805609621494367E-1    4.716802945266618E-1
 6.518050558750000E9    -2.165527017298340E-1   -4.140265858033428E-3    2.034200190843685E-2   -1.324290268790091E-2    2.076042826803579E-2   -1.263848149526771E-2    2.814064126763016E-1    4.710282351573678E-1
 6.518062123000000E9    -2.163398780595917E-1   -3.950562642371060E-3    2.039294778915702E-2   -1.343522103580454E-2    2.089374808786627E-2   -1.274937990489993E-2    2.821860389254643E-1    4.705015532753918E-1
 6.518073687250000E9    -2.160870692389777E-1   -4.014364461887266E-3    2.050696326562330E-2   -1.361879515011687E-2    2.094229192922308E-2   -1.301400625321665E-2    2.830920983552840E-1    4.699105435808806E-1
 6.518085251500000E9    -2.158177876602907E-1   -3.910091419046984E-3    2.068136022249898E-2   -1.385962595276011E-2    2.123730161313430E-2   -1.310143889068171E-2    2.841052587206773E-1    4.694067860862068E-1
 6.518096815750000E9    -2.157271886490013E-1   -3.851870657733875E-3    2.078352645008614E-2   -1.406918369213807E-2    2.128216210628815E-2   -1.338280749781685E-2    2.848977293987834E-1    4.689087077255933E-1
 6.518108380000000E9    -2.152446510200799E-1   -3.753145761935445E-3    2.097377702777741E-2   -1.419871600444299E-2    2.128926626479156E-2   -1.348237185072586E-2    2.858685227639198E-1    4.682871912376196E-1
 6.518119944250000E9    -2.150706519598156E-1   -3.813505002294406E-3    2.100499196402084E-2   -1.436074343097775E-2    2.157281594588711E-2   -1.361897277011589E-2    2.865235898141208E-1    4.676291205788184E-1
 6.518131508500000E9    -2.148115686946583E-1   -3.734938287882745E-3    2.121621853175196E-2   -1.457771867711933E-2    2.176282969856124E-2   -1.374275925224987E-2    2.875409608521672E-1    4.671591104593034E-1
