#  HZ   S   RI   R     50.00 
! Rohde & Schwarz Vector Network Analyzer 
! Rohde-Schwarz,ZNB20-2Port,1311601062101988,3.16
! Created: UTC 12/23/2023, 4:03:16 AM
! freq[Hz]                re:S11                  im:S11                  re:S21                  im:S21                  re:S12                  im:S12                  re:S22                  im:S22
 6.517213531000000E9    -2.287800038323504E-1   -1.263102940991915E-2    1.385384551064951E-2   -5.934727894471675E-3    1.386618369262642E-2   -5.458350369812410E-3    2.183461163331037E-1    5.034619759030701E-1
 6.517224757850000E9    -2.287516444390118E-1   -1.249050648316927E-2    1.382981518555977E-2   -5.990164209555545E-3    1.406342257881576E-2   -5.516514684937336E-3    2.193212623465275E-1    5.030340022699611E-1
 6.517235984700000E9    -2.285535426032608E-1   -1.242619112058919E-2    1.384578008448584E-2   -5.939820478449696E-3    1.398476430978136E-2   -5.700870858079713E-3    2.201304584314836E-1    5.026040756722923E-1
 6.517247211550000E9    -2.284269983725241E-1   -1.212441904549347E-2    1.387611765785864E-2   -6.372487250550154E-3    1.406487399321133E-2   -5.631119957614208E-3    2.209293200923720E-1    5.022967372989210E-1
 6.517258438400000E9    -2.284045608906590E-1   -1.199711804888779E-2    1.381432716573030E-2   -6.127884862591316E-3    1.408769018803459E-2   -5.601254198268302E-3    2.215357194793584E-1    5.019664603455415E-1
 6.517269665250000E9    -2.281554965268696E-1   -1.190326839997457E-2    1.411303177772223E-2   -6.344122478947609E-3    1.418683968043776E-2   -5.737176807870065E-3    2.225188795692270E-1    5.014507243446420E-1
 6.517280892100000E9    -2.281937302118871E-1   -1.165766989451591E-2    1.416933089841984E-2   -6.355683291432749E-3    1.414884602381696E-2   -5.805277513719891E-3    2.234168153595954E-1    5.010617857925741E-1
 6.517292118950000E9    -2.279079614772128E-1   -1.145063565961805E-2    1.411671573753754E-2   -6.212009206592377E-3    1.427332075375543E-2   -5.787461993034764E-3    2.241989937319502E-1    5.008851263178705E-1
 6.517303345800000E9    -2.278244985438781E-1   -1.130124060048976E-2    1.428695951694957E-2   -6.500475360441678E-3    1.434204077782396E-2   -5.901495281375818E-3    2.251095457603448E-1    5.004903040058644E-1
 6.517314572650000E9    -2.276711891285646E-1   -1.130955743674946E-2    1.434063483722181E-2   -6.385825870438446E-3    1.434180402347576E-2   -6.005537930228712E-3    2.258494652597127E-1    5.001607772964499E-1
 6.517325799500000E9    -2.276614214875975E-1   -1.093375156911386E-2    1.433335269334696E-2   -6.569330823127731E-3    1.444080156406468E-2   -6.012841408731416E-3    2.266249504599855E-1    4.998543682648876E-1
 6.517337026350000E9    -2.275207588575565E-1   -1.084425546047689E-2    1.444080653611241E-2   -6.557654307226045E-3    1.466390271601689E-2   -6.100736636566777E-3    2.275265759727518E-1    4.994173816807299E-1
 6.517348253200000E9    -2.272734811810119E-1   -1.066214528534511E-2    1.441870740825825E-2   -6.634902140322765E-3    1.469654620553224E-2   -6.090711412314292E-3    2.284115128216527E-1    4.990942434671675E-1
 6.517359480050000E9    -2.272803574350161E-1   -1.046998508357427E-2    1.441910177769227E-2   -6.856851249670461E-3    1.464379307307624E-2   -6.214099156324268E-3    2.291724978491903E-1    4.986268125356093E-1
 6.517370706900000E9    -2.271358594594980E-1   -1.035903061148605E-2    1.457729855567999E-2   -6.838687568703180E-3    1.473603994827377E-2   -6.278423456699207E-3    2.299873139490679E-1    4.983798276745687E-1
 6.517381933750000E9    -2.269379813809012E-1   -1.026521067072789E-2    1.462879671595111E-2   -6.890388295771592E-3    1.481427922219276E-2   -6.390991610005154E-3    2.308559775451767E-1    4.978862095702312E-1
 6.517393160600000E9    -2.268082016457057E-1   -9.975415557188460E-3    1.486135212549787E-2   -6.772795414286066E-3    1.476616677280990E-2   -6.430237423484855E-3    2.316705085627316E-1    4.975896707442088E-1
 6.517404387450000E9    -2.265876889650982E-1   -9.874562042079107E-3    1.466381240064930E-2   -6.860972855761001E-3    1.489686592057740E-2   -6.496516618672102E-3    2.325470988831968E-1    4.972428925318049E-1
 6.517415614300000E9    -2.264288795203223E-1   -9.809590072784811E-3    1.472211300911204E-2   -7.015978675160760E-3    1.495800637204284E-2   -6.514864121633024E-3    2.331174365858839E-1    4.968058368295720E-1
 6.517426841150000E9    -2.263898823714618E-1   -9.554464243051746E-3    1.487210236300942E-2   -7.058381159356198E-3    1.514256103384932E-2   -6.586165902338941E-3    2.341045515760801E-1    4.963264381763471E-1
 6.517438068000000E9    -2.261802313822675E-1   -9.507964467416214E-3    1.498092133591130E-2   -7.125857494089677E-3    1.513962130627367E-2   -6.681776489997088E-3    2.350234611975448E-1    4.960982668809357E-1
 6.517449294850000E9    -2.260839290094821E-1   -9.163992076578305E-3    1.505138520526063E-2   -7.199738862622907E-3    1.514391027044790E-2   -6.724166175349658E-3    2.357083284295544E-1    4.956126265702477E-1
 6.517460521700000E9    -2.259836017923244E-1   -9.084067726410693E-3    1.512931691394782E-2   -7.277052416669287E-3    1.520832348860883E-2   -6.831229709147406E-3    2.366978088202890E-1    4.953891001516307E-1
 6.517471748550000E9    -2.258985317116975E-1   -8.962904796044771E-3    1.518731305807888E-2   -7.296024579410901E-3    1.535495019762794E-2   -6.881680944197909E-3    2.373281997043180E-1    4.948527013424299E-1
 6.517482975400000E9    -2.256675582758015E-1   -8.868041673802323E-3    1.523704697030626E-2   -7.498981831642248E-3    1.541727297280589E-2   -6.975018027039381E-3    2.383114378805292E-1    4.946016599543424E-1
 6.517494202250000E9    -2.255612481165016E-1   -8.693953426548643E-3    1.522344968901101E-2   -7.519309628100002E-3    1.543032716417434E-2   -6.982972936988814E-3    2.390340485009175E-1    4.940541300694941E-1
 6.517505429100000E9    -2.253391715170015E-1   -8.481476586955222E-3    1.534146732518341E-2   -7.620070892554155E-3    1.554254272745893E-2   -6.961836096732403E-3    2.399738748260964E-1    4.937183298815729E-1
 6.517516655950000E9    -2.253151833983432E-1   -8.377099624986100E-3    1.536749721548722E-2   -7.572012459770062E-3    1.551940238542750E-2   -7.101811862315914E-3    2.408721855884450E-1    4.932813059777198E-1
 6.517527882800000E9    -2.250718653838586E-1   -8.169867386691846E-3    1.552705618040887E-2   -7.779036042322734E-3    1.573086950389268E-2   -7.153240041108734E-3    2.415823176085381E-1    4.930570842029388E-1
 6.517539109650000E9    -2.249930102338257E-1   -8.098694229480490E-3    1.554924355533091E-2   -7.757580135048517E-3    1.571919766497712E-2   -7.267325436203382E-3    2.424535118372674E-1    4.925364757246727E-1
 6.517550336500000E9    -2.247429720882857E-1   -8.036118445554734E-3    1.561631248018431E-2   -7.905394423763899E-3    1.578441673128585E-2   -7.289042791359676E-3    2.432833060521707E-1    4.921897131002708E-1
 6.517561563350000E9    -2.246197400073873E-1   -7.820616326130399E-3    1.557017332665875E-2   -7.884334231567676E-3    1.595002954357020E-2   -7.392774480106839E-3    2.439842588135097E-1    4.917846580015828E-1
 6.517572790200000E9    -2.245224543490907E-1   -7.653459678303483E-3    1.573503945697535E-2   -7.953224909484699E-3    1.593207383798604E-2   -7.456817945709311E-3    2.448244410343901E-1    4.913099078957988E-1
 6.517584017050000E9    -2.243835162974404E-1   -7.500291048894196E-3    1.582260348354587E-2   -8.068173267511218E-3    1.612430398005054E-2   -7.605454291473394E-3    2.456686408810088E-1    4.908251082687365E-1
 6.517595243900000E9    -2.241504865124331E-1   -7.359233826715419E-3    1.582020576308729E-2   -8.105515785133145E-3    1.609496616832712E-2   -7.624607492850452E-3    2.466066613270634E-1    4.904429230046544E-1
 6.517606470750000E9    -2.240962431247613E-1   -7.139084738889525E-3    1.606030847880609E-2   -8.325399132909281E-3    1.622389723257692E-2   -7.736693915603288E-3    2.473659022429301E-1    4.901747129108774E-1
 6.517617697600000E9    -2.237823410312106E-1   -7.065209755439294E-3    1.605030330833072E-2   -8.307116278364658E-3    1.620070426007006E-2   -7.821890130798877E-3    2.481227038865199E-1    4.897544760550607E-1
 6.517628924450000E9    -2.238151352442294E-1   -6.926394128321748E-3    1.604634154045067E-2   -8.519602696989878E-3    1.630712214399501E-2   -7.794147356356989E-3    2.490023974622597E-1    4.892591944557637E-1
 6.517640151300000E9    -2.235937577884760E-1   -6.803075676368950E-3    1.634170531018256E-2   -8.569723011616296E-3    1.642900560261203E-2   -8.007668903444266E-3    2.497495644733412E-1    4.889126513034573E-1
 6.517651378150000E9    -2.234030957805734E-1   -6.574964199441140E-3    1.622532435942275E-2   -8.557674155141548E-3    1.658384182434233E-2   -7.972609700347100E-3    2.505004540765428E-1    4.885160998342921E-1
 6.517662605000000E9    -2.232994116772259E-1   -6.518331633623212E-3    1.634085052707640E-2   -8.752080609163047E-3    1.673200073115221E-2   -8.102274031335783E-3    2.513243873648068E-1    4.881172747682519E-1
 6.517673831850000E9    -2.230625891905153E-1   -6.459846155344712E-3    1.638399964661807E-2   -8.782282488525008E-3    1.663709227230927E-2   -8.276685912636259E-3    2.522870826425025E-1    4.876251755501575E-1
 6.517685058700000E9    -2.229477251635430E-1   -6.326562970076170E-3    1.654474498712490E-2   -8.819414916490898E-3    1.677263535984051E-2   -8.298786596675026E-3    2.530489499109724E-1    4.872564065714352E-1
 6.517696285550000E9    -2.228774076472556E-1   -6.123290160300571E-3    1.667572676100468E-2   -8.906102645736214E-3    1.690349024920683E-2   -8.357732264179360E-3    2.539870349426162E-1    4.867425204838514E-1
 6.517707512400000E9    -2.227308898016754E-1   -5.985784318045061E-3    1.682621557169646E-2   -8.983333122963753E-3    1.698394399663360E-2   -8.503014436602362E-3    2.547849155843757E-1    4.862886680157792E-1
 6.517718739250000E9    -2.224887916532454E-1   -5.827154465156806E-3    1.690513240977713E-2   -9.216839536177966E-3    1.707687902741057E-2   -8.647226845347697E-3    2.556385435066523E-1    4.859320949294108E-1
 6.517729966100000E9    -2.223749931151555E-1   -5.749676678336951E-3    1.687811236554461E-2   -9.167235931161781E-3    1.708520745290412E-2   -8.690578248857767E-3    2.562510412619883E-1    4.855453204193814E-1
 6.517741192950000E9    -2.220688104801514E-1   -5.701151102379890E-3    1.704102231259924E-2   -9.309883463204003E-3    1.722350768297183E-2   -8.676723484946110E-3    2.573584931299845E-1    4.850214142431640E-1
 6.517752419800000E9    -2.219610877553973E-1   -5.507986318249827E-3    1.709178784992556E-2   -9.363393570275850E-3    1.738504249641515E-2   -8.895903580428790E-3    2.580873471277384E-1    4.845549584357458E-1
 6.517763646650000E9    -2.217043648894093E-1   -5.317922907554070E-3    1.703657433809948E-2   -9.416336072910442E-3    1.736788719545277E-2   -8.979879954989467E-3    2.588468118124668E-1    4.842070047729846E-1
 6.517774873500000E9    -2.216135787873030E-1   -5.183044993798920E-3    1.717397335074192E-2   -9.690352606639422E-3    1.742733362239482E-2   -9.026805948157713E-3    2.597581296841643E-1    4.836225995829399E-1
 6.517786100350000E9    -2.214831711464899E-1   -5.140430479448408E-3    1.729556752284880E-2   -9.707819280915559E-3    1.752845143033845E-2   -9.200073132890675E-3    2.606310154680459E-1    4.833283318776658E-1
 6.517797327200000E9    -2.212613822609156E-1   -4.995944242561055E-3    1.741161438039771E-2   -9.777666419236776E-3    1.765062214417818E-2   -9.300423772553320E-3    2.613518638067752E-1    4.827599049882028E-1
 6.517808554050000E9    -2.210705369747494E-1   -5.012785256547206E-3    1.750374246899759E-2   -9.882658030395258E-3    1.776671781002534E-2   -9.368692313400319E-3    2.622132255119496E-1    4.823495729568776E-1
 6.517819780900000E9    -2.209333960634398E-1   -4.835849833246671E-3    1.768604742413674E-2   -1.004904806722810E-2    1.798104490368401E-2   -9.432956522765348E-3    2.630100010203673E-1    4.818958185589617E-1
 6.517831007750000E9    -2.208161874390729E-1   -4.608959456585117E-3    1.766013362701308E-2   -1.023920950308657E-2    1.796772246027622E-2   -9.505467090064224E-3    2.637895111512775E-1    4.814293624396361E-1
 6.517842234600000E9    -2.205124209560617E-1   -4.545254457732338E-3    1.780146544852196E-2   -1.018349939926238E-2    1.814900770887538E-2   -9.685740316176503E-3    2.647046653684373E-1    4.810474110154851E-1
 6.517853461450000E9    -2.203456549077242E-1   -4.485663219170243E-3    1.785718712097793E-2   -1.021029338042385E-2    1.817698673678923E-2   -9.729641642465330E-3    2.655883547251230E-1    4.805669736493613E-1
 6.517864688300000E9    -2.201121994818626E-1   -4.342391306343813E-3    1.800986005528436E-2   -1.048682469725259E-2    1.836454194431533E-2   -9.927689824211191E-3    2.663700170377808E-1    4.799890852602470E-1
 6.517875915150000E9    -2.200320305358736E-1   -4.345229499339055E-3    1.800909146954452E-2   -1.054923279143398E-2    1.844779026272898E-2   -9.931655965570907E-3    2.670722434593987E-1    4.796934344822118E-1
 6.517887142000000E9    -2.197607205175144E-1   -4.235158772332724E-3    1.810826059961305E-2   -1.064333710939131E-2    1.851429851019591E-2   -1.006435007046896E-2    2.680087370241007E-1    4.791134369165102E-1
 6.517898368850000E9    -2.195742299990761E-1   -4.122712207021533E-3    1.810309193395475E-2   -1.082526269888346E-2    1.858653470593159E-2   -1.012375144460494E-2    2.688801872164038E-1    4.786594176211184E-1
 6.517909595700000E9    -2.193728227066140E-1   -4.029110402983987E-3    1.822374016885535E-2   -1.087966790739598E-2    1.873319948133400E-2   -1.033992102524433E-2    2.697760524111799E-1    4.781845370878213E-1
 6.517920822550000E9    -2.190976076863011E-1   -3.868479542462376E-3    1.844183305476270E-2   -1.105897819595960E-2    1.865379388449053E-2   -1.037181708030333E-2    2.705378320726722E-1    4.775375498323106E-1
 6.517932049400000E9    -2.189613328681622E-1   -3.700303777411936E-3    1.855941836395340E-2   -1.110794853039180E-2    1.898200180626360E-2   -1.062079088479508E-2    2.712477966093644E-1    4.772882222930870E-1
 6.517943276250000E9    -2.189066457330188E-1   -3.704390180502109E-3    1.868661023671144E-2   -1.130478476473856E-2    1.898097292379163E-2   -1.062119842467289E-2    2.722835833001411E-1    4.768110857688790E-1
 6.517954503100000E9    -2.185839366918578E-1   -3.404756634244782E-3    1.879939461937811E-2   -1.143861539720504E-2    1.912021568191670E-2   -1.074747525037876E-2    2.731481355678061E-1    4.762621533325430E-1
 6.517965729950000E9    -2.184177017148453E-1   -3.437637188063451E-3    1.887387875281837E-2   -1.149352072719495E-2    1.920857750112475E-2   -1.080903383286309E-2    2.739583622941480E-1    4.757754514650755E-1
 6.517976956800000E9    -2.182709824582551E-1   -3.400086061100363E-3    1.902719289517747E-2   -1.171476266297827E-2    1.937662914374008E-2   -1.092885728614862E-2    2.747720892264462E-1    4.752912556083737E-1
 6.517988183650000E9    -2.180781559856260E-1   -3.329282032283182E-3    1.901412150623073E-2   -1.163676515359125E-2    1.948086774246363E-2   -1.123142914095765E-2    2.755472633783084E-1    4.748213197284388E-1
 6.517999410500000E9    -2.177975098197859E-1   -3.261637567061935E-3    1.938842896273933E-2   -1.195410300239744E-2    1.960320195181047E-2   -1.128308928653268E-2    2.763525599175569E-1    4.741566001909057E-1
 6.518010637350000E9    -2.175660666143079E-1   -3.200591993338249E-3    1.937227881252599E-2   -1.206267905015993E-2    1.963765080928885E-2   -1.137398146327778E-2    2.770869929823959E-1    4.736685403741942E-1
 6.518021864200000E9    -2.174452548738605E-1   -3.132692649230978E-3    1.941636534108793E-2   -1.217998456468320E-2    1.979767435679783E-2   -1.159067373345250E-2    2.779694327268758E-1    4.733266056080370E-1
 6.518033091050000E9    -2.172293675498671E-1   -2.951185511850779E-3    1.949463063894155E-2   -1.223954481044059E-2    1.996962095647711E-2   -1.159059472065364E-2    2.789291343215888E-1    4.726215440993972E-1
 6.518044317900000E9    -2.170024089796236E-1   -2.864470943636918E-3    1.968283679216692E-2   -1.243361332890255E-2    2.015426264952649E-2   -1.191675363215869E-2    2.796088002848455E-1    4.723704340231253E-1
 6.518055544750000E9    -2.168089714521339E-1   -2.822607908693921E-3    1.976885943170757E-2   -1.268081108921188E-2    2.019135911885758E-2   -1.199209455212717E-2    2.807021166634882E-1    4.718161213447876E-1
 6.518066771600000E9    -2.166055149572394E-1   -2.838608248925778E-3    1.979723609618752E-2   -1.282873942835233E-2    2.020543817067727E-2   -1.211867178678471E-2    2.814320808506354E-1    4.710877007439435E-1
 6.518077998450000E9    -2.163849290663688E-1   -2.650652152330115E-3    2.005174493338375E-2   -1.294954475126322E-2    2.047065874743441E-2   -1.220516958945332E-2    2.821733401912617E-1    4.705692333108644E-1
 6.518089225300000E9    -2.161533727684553E-1   -2.668437550976242E-3    2.027050091465343E-2   -1.310532126098765E-2    2.043622539440759E-2   -1.247989789364088E-2    2.831295444867892E-1    4.701975370911913E-1
 6.518100452150000E9    -2.159427308993705E-1   -2.698072081330082E-3    2.022059937358951E-2   -1.323814445864992E-2    2.071033604479688E-2   -1.262530673377786E-2    2.839022485013797E-1    4.696786914151859E-1
 6.518111679000000E9    -2.156246630520067E-1   -2.464994123530741E-3    2.049718566420947E-2   -1.341517643439083E-2    2.072164621798999E-2   -1.265858907121247E-2    2.847117431068227E-1    4.689789348281444E-1
 6.518122905850000E9    -2.154311718327329E-1   -2.388503963724001E-3    2.051896416937915E-2   -1.362362530537419E-2    2.085024242343477E-2   -1.288177929594628E-2    2.854973939211278E-1    4.686741990406886E-1
 6.518134132700000E9    -2.150982242679285E-1   -2.418222901677240E-3    2.064346311706094E-2   -1.375366715242374E-2    2.110817245787527E-2   -1.301229098485971E-2    2.862526173273022E-1    4.679639913740902E-1
 6.518145359550000E9    -2.149631610269283E-1   -2.332433265392091E-3    2.081825295179610E-2   -1.386584767028691E-2    2.121540150614035E-2   -1.332770318734240E-2    2.871830216545018E-1    4.674365254102344E-1
 6.518156586400000E9    -2.147750723642932E-1   -2.433135276442874E-3    2.091529497516589E-2   -1.397125048151159E-2    2.132776985084182E-2   -1.334893521172726E-2    2.880712582364837E-1    4.669891015226213E-1
 6.518167813250000E9    -2.144883674427681E-1   -2.278490904250938E-3    2.098755968214375E-2   -1.418323855669590E-2    2.152678899771897E-2   -1.376127229068406E-2    2.887530469826503E-1    4.664419289156573E-1
 6.518179040100000E9    -2.142291130144882E-1   -2.267333879126914E-3    2.118963124201596E-2   -1.441789398792865E-2    2.163291405240246E-2   -1.373319394079886E-2    2.897471904925357E-1    4.657450960064982E-1
 6.518190266950000E9    -2.141099083560834E-1   -2.285916644188961E-3    2.135971028565800E-2   -1.476692688884420E-2    2.182882645791893E-2   -1.385956730528228E-2    2.905850466448752E-1    4.652085332218082E-1
 6.518201493800000E9    -2.137993445787916E-1   -2.128631308860378E-3    2.142294875898073E-2   -1.472701250956023E-2    2.189783760256175E-2   -1.402355617160918E-2    2.913744957349870E-1    4.647299363049582E-1
 6.518212720650000E9    -2.134759197327287E-1   -2.129290400571832E-3    2.157238057076611E-2   -1.493627482046047E-2    2.201380705051017E-2   -1.427909017281562E-2    2.922423350565567E-1    4.641072873072452E-1
 6.518223947500000E9    -2.132333825526192E-1   -2.093896429291767E-3    2.165016855638937E-2   -1.519649027572829E-2    2.221550788326247E-2   -1.442847237399099E-2    2.931661159359678E-1    4.635533095799238E-1
