#  HZ   S   RI   R     50.00 
! Rohde & Schwarz Vector Network Analyzer 
! Rohde-Schwarz,ZNB20-2Port,1311601062101988,3.16
! Created: UTC 12/23/2023, 3:40:45 AM
! freq[Hz]                re:S11                  im:S11                  re:S21                  im:S21                  re:S12                  im:S12                  re:S22                  im:S22
 6.517039065000000E9    -2.302223718809654E-1   -1.652470295362423E-2    1.334299143971320E-2   -5.545942513821192E-3    1.344617248327920E-2   -5.020763404389941E-3    2.066169453514801E-1    5.081984608862891E-1
 6.517050750850000E9    -2.300536494173359E-1   -1.640405368954455E-2    1.345784271437050E-2   -5.385334705975757E-3    1.345892040414498E-2   -5.004060825429384E-3    2.074670322168727E-1    5.078932551045089E-1
 6.517062436700000E9    -2.300385020332138E-1   -1.619550647974784E-2    1.349053853167217E-2   -5.535839226011821E-3    1.352255737474491E-2   -5.129182722846608E-3    2.082037392334073E-1    5.074346816056730E-1
 6.517074122550000E9    -2.298005639919415E-1   -1.598350830481335E-2    1.350679901532657E-2   -5.557626825047597E-3    1.367167377243217E-2   -5.126715010830728E-3    2.091549292168826E-1    5.070604720153535E-1
 6.517085808400000E9    -2.297601848514072E-1   -1.582325688193366E-2    1.349788945691000E-2   -5.532468310796710E-3    1.361765235685322E-2   -5.218827868758765E-3    2.099703553530236E-1    5.067711737227958E-1
 6.517097494250000E9    -2.295647295886484E-1   -1.561537229816867E-2    1.362785905156067E-2   -5.872555304421547E-3    1.368580421921533E-2   -5.198769198500102E-3    2.108723058425601E-1    5.064251974564252E-1
 6.517109180100000E9    -2.295225451038437E-1   -1.544224430566864E-2    1.368759676868568E-2   -5.838770164093550E-3    1.371743493341383E-2   -5.300942123697268E-3    2.116856048716252E-1    5.061802311634288E-1
 6.517120865950000E9    -2.292735000906156E-1   -1.529156119969120E-2    1.373558061977439E-2   -5.874547007324638E-3    1.376855669759087E-2   -5.361874251209847E-3    2.126025906572822E-1    5.058150510249417E-1
 6.517132551800000E9    -2.292536249566238E-1   -1.507390995622493E-2    1.376458257994410E-2   -5.858479326405240E-3    1.391082079794702E-2   -5.468166548048409E-3    2.134398873326079E-1    5.052833614446096E-1
 6.517144237650000E9    -2.291826842067411E-1   -1.485619200119149E-2    1.401179465015617E-2   -5.880096145032795E-3    1.394256749322661E-2   -5.553191981864999E-3    2.143006760528796E-1    5.051147605920335E-1
 6.517155923500000E9    -2.290291367562276E-1   -1.479653098919369E-2    1.390112416247211E-2   -6.048017444399864E-3    1.402141648711670E-2   -5.551233059184670E-3    2.151341110950680E-1    5.047409105159143E-1
 6.517167609350000E9    -2.288348651635795E-1   -1.454802404135588E-2    1.396203113697277E-2   -5.978592820342673E-3    1.409647201573476E-2   -5.439342304459215E-3    2.160934155588206E-1    5.043742078367727E-1
 6.517179295200000E9    -2.287963884327907E-1   -1.441466845727870E-2    1.395432408960849E-2   -6.071647277575764E-3    1.412950210141189E-2   -5.622082352782903E-3    2.168313412429292E-1    5.039017856239724E-1
 6.517190981050000E9    -2.285414287440057E-1   -1.429932403130941E-2    1.411462393946761E-2   -6.319099662274942E-3    1.426786088997160E-2   -5.646998252897801E-3    2.178488617164402E-1    5.036225335313406E-1
 6.517202666900000E9    -2.284611729471344E-1   -1.402737316149383E-2    1.415467942689019E-2   -6.238779108496616E-3    1.435113982099149E-2   -5.746186219450274E-3    2.186827900288356E-1    5.032277254694280E-1
 6.517214352750000E9    -2.284880997029359E-1   -1.388635092337250E-2    1.421303189544307E-2   -6.219252118834308E-3    1.436789386984323E-2   -5.704465141143278E-3    2.195351633918544E-1    5.028242356852687E-1
 6.517226038600000E9    -2.283342130570148E-1   -1.364317905659218E-2    1.423550982933127E-2   -6.432470602323348E-3    1.437759186096448E-2   -5.952910900612596E-3    2.202421145191377E-1    5.024904335040326E-1
 6.517237724450000E9    -2.280341926467218E-1   -1.351992548648947E-2    1.431604636035737E-2   -6.432358944595972E-3    1.449186001102483E-2   -5.981016025184587E-3    2.211381256124055E-1    5.022179500847695E-1
 6.517249410300000E9    -2.280646852642774E-1   -1.335088278505743E-2    1.434335060875785E-2   -6.537541705374158E-3    1.455395371259223E-2   -5.928175654963569E-3    2.219644446569286E-1    5.018910124907795E-1
 6.517261096150000E9    -2.279553979867074E-1   -1.303622822738758E-2    1.441237258777477E-2   -6.575728233566111E-3    1.460443954768539E-2   -6.109099466213275E-3    2.229877422675650E-1    5.014942530060114E-1
 6.517272782000000E9    -2.277522037187905E-1   -1.302652390560298E-2    1.455170929764991E-2   -6.570732343358319E-3    1.463627557550950E-2   -6.005052845496160E-3    2.237009222377178E-1    5.010093429678438E-1
 6.517284467850000E9    -2.275784011573402E-1   -1.289959536330405E-2    1.463936012298791E-2   -6.590221754509937E-3    1.478194922660655E-2   -6.171799457668674E-3    2.245997382506095E-1    5.007701909630927E-1
 6.517296153700000E9    -2.275389114403596E-1   -1.262179472834796E-2    1.473367474038669E-2   -6.807271768763267E-3    1.467397901342220E-2   -6.243133705087492E-3    2.256175150350612E-1    5.001780102793639E-1
 6.517307839550000E9    -2.273602052790792E-1   -1.256112667786311E-2    1.462047702481479E-2   -6.683558754319529E-3    1.483975169309511E-2   -6.218611314182432E-3    2.263730749393087E-1    4.998693788737750E-1
 6.517319525400000E9    -2.272647694855160E-1   -1.226604699702556E-2    1.476571630104001E-2   -6.893283007574436E-3    1.489603852696916E-2   -6.348006698274920E-3    2.273048678040826E-1    4.995501415500329E-1
 6.517331211250000E9    -2.271128389537636E-1   -1.225071643870919E-2    1.481120125596434E-2   -6.866770662577230E-3    1.502696246541416E-2   -6.401324648990089E-3    2.279789793102668E-1    4.992182189652415E-1
 6.517342897100000E9    -2.268952366384429E-1   -1.196388397011038E-2    1.498030046842116E-2   -6.967520941522967E-3    1.498240413738076E-2   -6.509088693328757E-3    2.290911223511065E-1    4.987167341002098E-1
 6.517354582950000E9    -2.267893345731837E-1   -1.196783128854297E-2    1.487709648185445E-2   -7.056385873543711E-3    1.518009278105382E-2   -6.600208286485748E-3    2.298399090296015E-1    4.983571434587148E-1
 6.517366268800000E9    -2.267064115601987E-1   -1.176151499831285E-2    1.495309805430594E-2   -7.171617035062223E-3    1.521613847445254E-2   -6.704407626387349E-3    2.305562180759144E-1    4.980604935933732E-1
 6.517377954650000E9    -2.265023538027169E-1   -1.159640634900328E-2    1.504833720250671E-2   -7.242533530617329E-3    1.529396145371028E-2   -6.721128573407510E-3    2.315116328563347E-1    4.976313835061614E-1
 6.517389640500000E9    -2.264322031661100E-1   -1.145543610846775E-2    1.518470804015216E-2   -7.273737796482457E-3    1.536125406358668E-2   -6.776577114484212E-3    2.324274177362468E-1    4.972298401701190E-1
 6.517401326350000E9    -2.261395628468185E-1   -1.128750646878271E-2    1.532181672502033E-2   -7.395865566294973E-3    1.552503870459307E-2   -6.801185083179647E-3    2.332909348981253E-1    4.968350641443433E-1
 6.517413012200000E9    -2.261617404051482E-1   -1.112236840003348E-2    1.524326370456930E-2   -7.444979894921929E-3    1.551559486925882E-2   -6.924947893664401E-3    2.341217052463950E-1    4.965310917271178E-1
 6.517424698050000E9    -2.259048527632911E-1   -1.087296757370232E-2    1.535792702525614E-2   -7.527481592431951E-3    1.556465456102967E-2   -7.015747796380773E-3    2.349570501822293E-1    4.960076810735579E-1
 6.517436383900000E9    -2.258038386927799E-1   -1.072620300053627E-2    1.562051419499100E-2   -7.672695042663633E-3    1.567069702947941E-2   -7.062123466918105E-3    2.357848462115729E-1    4.955968396706592E-1
 6.517448069750000E9    -2.255855982339227E-1   -1.049268322864198E-2    1.549572418670384E-2   -7.618818198752199E-3    1.569429505140018E-2   -7.136383142593238E-3    2.366847475480718E-1    4.950880072601384E-1
 6.517459755600000E9    -2.255428371273403E-1   -1.046774385752536E-2    1.559009032959383E-2   -7.737055402905614E-3    1.568648465173926E-2   -7.178241331581913E-3    2.375919772002047E-1    4.947493694314781E-1
 6.517471441450000E9    -2.252638988555934E-1   -1.025170857655939E-2    1.570937845777813E-2   -7.805586812348261E-3    1.584010181343752E-2   -7.388904140871398E-3    2.383751824296052E-1    4.944242238492956E-1
 6.517483127300000E9    -2.251798147049089E-1   -1.018335123795889E-2    1.572769865480531E-2   -7.905959480127836E-3    1.599947049074673E-2   -7.490168058202263E-3    2.392828610843892E-1    4.939968620955809E-1
 6.517494813150000E9    -2.250525649466460E-1   -9.957933503265010E-3    1.581923496080972E-2   -7.817697135274426E-3    1.608567454523916E-2   -7.472141471036577E-3    2.400922464504864E-1    4.935582691551932E-1
 6.517506499000000E9    -2.248675661794983E-1   -9.849716315635500E-3    1.594000506410636E-2   -7.889633758327741E-3    1.613572271323201E-2   -7.592462715105035E-3    2.410465128966340E-1    4.931768349255010E-1
 6.517518184850000E9    -2.246558356668069E-1   -9.685634270395640E-3    1.611303421930161E-2   -8.097604672263664E-3    1.614861707203269E-2   -7.634120939666741E-3    2.419463264698617E-1    4.927961227846689E-1
 6.517529870700000E9    -2.245741230650582E-1   -9.614290793324902E-3    1.605776891905790E-2   -8.283840883450643E-3    1.622160181107249E-2   -7.712098349154881E-3    2.427892160852170E-1    4.923455944007079E-1
 6.517541556550000E9    -2.244458079402142E-1   -9.412052802011447E-3    1.612071788022660E-2   -8.329963781854169E-3    1.631451986983817E-2   -7.815384220856708E-3    2.436692718188884E-1    4.919154839880944E-1
 6.517553242400000E9    -2.242213064495991E-1   -9.319696111798895E-3    1.626006706110355E-2   -8.436173697427773E-3    1.639806686192300E-2   -7.839708728344200E-3    2.445607619374464E-1    4.914529217474543E-1
 6.517564928250000E9    -2.240629062988166E-1   -9.112315405882579E-3    1.630896573074809E-2   -8.585590313569855E-3    1.642600442792590E-2   -7.855525491600408E-3    2.454477648012553E-1    4.909379399996539E-1
 6.517576614100000E9    -2.239325738652233E-1   -8.934043127309119E-3    1.639379298556102E-2   -8.600849175295834E-3    1.660292898021815E-2   -7.951642913545045E-3    2.461110787830923E-1    4.907279964784802E-1
 6.517588299950000E9    -2.237956241240650E-1   -8.923478349118491E-3    1.643172505016857E-2   -8.761622979884870E-3    1.670373277263916E-2   -8.097076403826068E-3    2.470973898449061E-1    4.901151949949296E-1
 6.517599985800000E9    -2.235723350524174E-1   -8.722613069597469E-3    1.654668722178086E-2   -8.697449167575056E-3    1.679160810939466E-2   -8.254974827418876E-3    2.479609553538685E-1    4.898049818569926E-1
 6.517611671650000E9    -2.234582568988104E-1   -8.605689730022018E-3    1.663228734068853E-2   -8.847210898125176E-3    1.684933256978447E-2   -8.346131205979013E-3    2.486282511327794E-1    4.893131747231638E-1
 6.517623357500000E9    -2.232422595198195E-1   -8.400456683154594E-3    1.686562331259457E-2   -8.976142561710709E-3    1.693477037952026E-2   -8.413866627148396E-3    2.496860574589219E-1    4.886805234568554E-1
 6.517635043350000E9    -2.230525417935269E-1   -8.231144887818531E-3    1.685072858168452E-2   -9.096255917246037E-3    1.703771078066552E-2   -8.544946822236254E-3    2.505253341773301E-1    4.884146363588642E-1
 6.517646729200000E9    -2.228837439058735E-1   -8.049574415275065E-3    1.692126086346574E-2   -9.101554282763928E-3    1.718347286098326E-2   -8.600085348059528E-3    2.513249290447531E-1    4.878480012483263E-1
 6.517658415050000E9    -2.227238667276170E-1   -8.013712519241498E-3    1.704623432770526E-2   -9.209254194887950E-3    1.727982518583181E-2   -8.682816636666339E-3    2.523135231994589E-1    4.874512734191484E-1
 6.517670100900000E9    -2.225130233908040E-1   -7.962443813423656E-3    1.703787644382243E-2   -9.541393758204633E-3    1.742842955373550E-2   -8.750957982291351E-3    2.532212828936843E-1    4.869798282166716E-1
 6.517681786750000E9    -2.224423548298225E-1   -7.715522848835700E-3    1.708732106835634E-2   -9.506670667944590E-3    1.740426848785919E-2   -8.865849354634569E-3    2.540378214646107E-1    4.865866426539859E-1
 6.517693472600000E9    -2.223081906273977E-1   -7.600463221301414E-3    1.709146768793190E-2   -9.652880483796623E-3    1.751287721798075E-2   -8.999947984360344E-3    2.549575645140073E-1    4.860506723772349E-1
 6.517705158450000E9    -2.219853745488439E-1   -7.515530558269015E-3    1.728642190844139E-2   -9.533082332724116E-3    1.759722688057001E-2   -9.072618606165837E-3    2.556975564964087E-1    4.856921701594034E-1
 6.517716844300000E9    -2.218432377330511E-1   -7.358828425044939E-3    1.751290593941165E-2   -9.700896565243948E-3    1.787294778015628E-2   -9.384832864700595E-3    2.565994739766745E-1    4.853052401667011E-1
 6.517728530150000E9    -2.217527206023061E-1   -7.375135161951711E-3    1.752951099888774E-2   -9.891441581034837E-3    1.781374044040504E-2   -9.231404707807854E-3    2.573858080372141E-1    4.847544193208135E-1
 6.517740216000000E9    -2.213868185343817E-1   -7.247418127673932E-3    1.759318004679115E-2   -1.008803188499726E-2    1.789861005963088E-2   -9.456593145313627E-3    2.583760160056711E-1    4.844511675479816E-1
 6.517751901850000E9    -2.213133394174799E-1   -6.960653942163691E-3    1.763533106010667E-2   -1.004290696446261E-2    1.794207503675132E-2   -9.547180383040874E-3    2.591821221021114E-1    4.837392331414468E-1
 6.517763587700000E9    -2.211672717291220E-1   -6.923113888897561E-3    1.783567419578475E-2   -1.017305116894189E-2    1.818855607025074E-2   -9.554893548381382E-3    2.600612674407057E-1    4.833504641556467E-1
 6.517775273550000E9    -2.208969628654215E-1   -6.810316139703541E-3    1.788263404084861E-2   -1.031542652002788E-2    1.830397026627221E-2   -9.697799124649667E-3    2.608625205213077E-1    4.829315918277590E-1
 6.517786959400000E9    -2.207544149292578E-1   -6.728500127311202E-3    1.794104991058762E-2   -1.039528700378246E-2    1.828130296948762E-2   -9.833741081389040E-3    2.617257009626072E-1    4.824471067618769E-1
 6.517798645250000E9    -2.204907412721459E-1   -6.543447818527149E-3    1.809110785159247E-2   -1.057298327412361E-2    1.841295310138146E-2   -9.904312303018878E-3    2.626675895995514E-1    4.818616029329240E-1
 6.517810331100000E9    -2.203698088920190E-1   -6.565938408168671E-3    1.817493613541851E-2   -1.072381028649863E-2    1.851951500804605E-2   -1.012322388026370E-2    2.634765354050289E-1    4.813017894729288E-1
 6.517822016950000E9    -2.201507547065681E-1   -6.291377074222202E-3    1.840429932798953E-2   -1.073496998190101E-2    1.860451748308492E-2   -1.017594107165779E-2    2.643575648417897E-1    4.810413602216658E-1
 6.517833702800000E9    -2.198987816383706E-1   -6.286150400943720E-3    1.859958383973529E-2   -1.100295005710665E-2    1.888112341909585E-2   -1.032893851949032E-2    2.651903795865924E-1    4.803848220345849E-1
 6.517845388650000E9    -2.198265337913794E-1   -6.237513245388533E-3    1.865119381696483E-2   -1.123228366602920E-2    1.886383605348503E-2   -1.040930584450069E-2    2.661195478005275E-1    4.800123338392998E-1
 6.517857074500000E9    -2.195869275989277E-1   -6.163158569950009E-3    1.869355502151701E-2   -1.110778581446959E-2    1.902880923392654E-2   -1.052448887259223E-2    2.670031179016859E-1    4.793717872877617E-1
 6.517868760350000E9    -2.192112763124094E-1   -6.026808136670546E-3    1.874415933825508E-2   -1.132059908288698E-2    1.913554504173172E-2   -1.073336244261278E-2    2.678493795245844E-1    4.788969138961315E-1
 6.517880446200000E9    -2.191218902387133E-1   -5.909724084306966E-3    1.896960121366499E-2   -1.154430568176612E-2    1.929913125453820E-2   -1.080499680722840E-2    2.688140213814398E-1    4.786319243020681E-1
 6.517892132050000E9    -2.189433891250268E-1   -5.816112764054673E-3    1.903481981825490E-2   -1.155018106518164E-2    1.927210778963316E-2   -1.090669874034441E-2    2.695333150004272E-1    4.780347486557843E-1
 6.517903817900000E9    -2.187992601749989E-1   -5.701137130663090E-3    1.907979340906133E-2   -1.151958178884321E-2    1.944162159508005E-2   -1.103490844560807E-2    2.705266286447654E-1    4.775071497033873E-1
 6.517915503750000E9    -2.184277747640579E-1   -5.652800377152387E-3    1.922098303538313E-2   -1.184548720061409E-2    1.957713403720820E-2   -1.118288167567198E-2    2.713326940167762E-1    4.770056830403221E-1
 6.517927189600000E9    -2.183019609074280E-1   -5.588560816868326E-3    1.941580484634283E-2   -1.193932594282006E-2    1.969166363053563E-2   -1.140419634960527E-2    2.721669269845793E-1    4.765207649273973E-1
 6.517938875450000E9    -2.181051262527196E-1   -5.475610248839861E-3    1.928719975753184E-2   -1.211755763453534E-2    1.989710586125438E-2   -1.160438034161145E-2    2.730782527206265E-1    4.759191096214728E-1
 6.517950561300000E9    -2.176729851903060E-1   -5.415321260641624E-3    1.970094149802858E-2   -1.228396033548027E-2    1.987290466146199E-2   -1.156438443512346E-2    2.740166587884046E-1    4.754465096801339E-1
 6.517962247150000E9    -2.177088168462926E-1   -5.310086182364940E-3    1.965086751421719E-2   -1.236714253076272E-2    2.005835032949593E-2   -1.178043004318639E-2    2.747647160956427E-1    4.747845850003740E-1
 6.517973933000000E9    -2.175163030604763E-1   -5.144171935902656E-3    1.983551941449386E-2   -1.261674058985911E-2    2.023318291096889E-2   -1.190200934900640E-2    2.756929852562177E-1    4.743234028038741E-1
 6.517985618850000E9    -2.172269988799526E-1   -5.177730564226004E-3    1.998663380357757E-2   -1.271131915343761E-2    2.038957269848844E-2   -1.213688771422170E-2    2.767590066535332E-1    4.737787274438048E-1
 6.517997304700000E9    -2.170511219412317E-1   -5.125705345517637E-3    2.004771805319679E-2   -1.281511345128447E-2    2.050215182285147E-2   -1.218372232369498E-2    2.774406727559011E-1    4.732102158550789E-1
 6.518008990550000E9    -2.166893251039299E-1   -5.084305353609241E-3    2.015012221955905E-2   -1.304505361012100E-2    2.067078810190306E-2   -1.239649543633747E-2    2.782890972010812E-1    4.726557259001191E-1
 6.518020676400000E9    -2.164445378148166E-1   -5.036708298478250E-3    2.022684616603025E-2   -1.330487345066116E-2    2.070568572763315E-2   -1.252278199583813E-2    2.792504118513212E-1    4.721828283385725E-1
 6.518032362250000E9    -2.163025117543051E-1   -4.892792361886260E-3    2.046751088843078E-2   -1.343107271603482E-2    2.083903828257910E-2   -1.284362975140877E-2    2.801184330904296E-1    4.718421756980032E-1
 6.518044048100000E9    -2.161153669786750E-1   -4.953770397344407E-3    2.065269867658460E-2   -1.365878346863676E-2    2.091239653832117E-2   -1.282022558225582E-2    2.809814389255152E-1    4.710436383377513E-1
 6.518055733950000E9    -2.157786460633544E-1   -4.751056189464609E-3    2.075289954624103E-2   -1.366342890786248E-2    2.114847540981299E-2   -1.304509765239932E-2    2.819387162642008E-1    4.705230171253971E-1
 6.518067419800000E9    -2.155176784480895E-1   -4.714440134701987E-3    2.082146291091122E-2   -1.388378989097063E-2    2.132664757436975E-2   -1.319960782821865E-2    2.827526056443888E-1    4.698335516341854E-1
 6.518079105650000E9    -2.153416129665402E-1   -4.663939591812510E-3    2.102832714608414E-2   -1.412760207100542E-2    2.140837812252721E-2   -1.344392219663194E-2    2.837918840550991E-1    4.693712307448850E-1
 6.518090791500000E9    -2.150458268699464E-1   -4.748610668647792E-3    2.111680261172421E-2   -1.421186020358846E-2    2.154634712045272E-2   -1.359517393360627E-2    2.846187405376193E-1    4.687607530785619E-1
