#  HZ   S   RI   R     50.00 
! Rohde & Schwarz Vector Network Analyzer 
! Rohde-Schwarz,ZNB20-2Port,1311601062101988,3.16
! Created: UTC 12/23/2023, 3:41:05 AM
! freq[Hz]                re:S11                  im:S11                  re:S21                  im:S21                  re:S12                  im:S12                  re:S22                  im:S22
 6.517034757000000E9    -2.302657036568545E-1   -1.660098624338286E-2    1.332783266712537E-2   -5.421367657749659E-3    1.340652698846049E-2   -4.976110957721992E-3    2.061764148598885E-1    5.081037262865123E-1
 6.517046451125000E9    -2.301815580738270E-1   -1.645965909716865E-2    1.347827665126948E-2   -5.545579884854947E-3    1.341071768369890E-2   -5.006551790592871E-3    2.069311545825710E-1    5.079171752426074E-1
 6.517058145250000E9    -2.300648039891691E-1   -1.626783122425836E-2    1.335708237603460E-2   -5.585080180601907E-3    1.355605942380711E-2   -5.077081445486751E-3    2.080169496926237E-1    5.076766527920823E-1
 6.517069839375000E9    -2.298972708120835E-1   -1.606396136739886E-2    1.358645800671615E-2   -5.574247316681697E-3    1.366336984024773E-2   -5.196081938834609E-3    2.088472935713656E-1    5.072783968929966E-1
 6.517081533500000E9    -2.297377034531244E-1   -1.592017577663172E-2    1.341785086084522E-2   -5.753526449741723E-3    1.360982994462037E-2   -5.192889752542979E-3    2.096837951477398E-1    5.069748111198643E-1
 6.517093227625000E9    -2.296129015237315E-1   -1.575505291230439E-2    1.363066117149097E-2   -5.603618047632873E-3    1.369621802341739E-2   -5.308430313413152E-3    2.105061035850433E-1    5.065989775641401E-1
 6.517104921750000E9    -2.295337625442785E-1   -1.550191811681899E-2    1.367798839302808E-2   -5.857494348140782E-3    1.380350719260658E-2   -5.128681016693866E-3    2.113127341398323E-1    5.062374992314921E-1
 6.517116615875000E9    -2.293829509657942E-1   -1.529063625253672E-2    1.365714044696266E-2   -5.874309050453772E-3    1.385556171193315E-2   -5.417543987191650E-3    2.121599906823201E-1    5.058904456635320E-1
 6.517128310000000E9    -2.292865858132713E-1   -1.519764319041094E-2    1.381311457657052E-2   -5.977709311588483E-3    1.404484524341066E-2   -5.386461475231936E-3    2.131958865044568E-1    5.054842144999715E-1
 6.517140004125000E9    -2.292394784242089E-1   -1.501270533091442E-2    1.385174831646482E-2   -6.003746316688379E-3    1.397745021060739E-2   -5.342280360682360E-3    2.139456123834859E-1    5.050704451929735E-1
 6.517151698250000E9    -2.290613419082115E-1   -1.474073259581061E-2    1.398925195017177E-2   -6.035467819662488E-3    1.403488986430382E-2   -5.567230709357761E-3    2.147722176374420E-1    5.047108736212117E-1
 6.517163392375000E9    -2.288991163260585E-1   -1.453995739479957E-2    1.401974823384162E-2   -6.048962738564605E-3    1.403003271452520E-2   -5.524573574757273E-3    2.156690299004612E-1    5.044475484717676E-1
 6.517175086500000E9    -2.288299537246638E-1   -1.439136997158315E-2    1.401257955416218E-2   -6.154578247000300E-3    1.422978505093479E-2   -5.647377389075137E-3    2.165874624556266E-1    5.040960969283097E-1
 6.517186780625000E9    -2.287706665445301E-1   -1.425876749266153E-2    1.406725383615945E-2   -6.069114487187661E-3    1.408929307924752E-2   -5.729957137951720E-3    2.173839273245175E-1    5.036753659256064E-1
 6.517198474750000E9    -2.285386293229008E-1   -1.403621295103969E-2    1.422564711158675E-2   -6.190442220422332E-3    1.419401891116697E-2   -5.718193453887378E-3    2.181896319822666E-1    5.034976758982891E-1
 6.517210168875000E9    -2.283678193443759E-1   -1.400354212889014E-2    1.422393982011138E-2   -6.325612718355839E-3    1.427909897496874E-2   -5.740979097922753E-3    2.189510144363317E-1    5.031622869525556E-1
 6.517221863000000E9    -2.282375855673938E-1   -1.376893068042164E-2    1.417982102106418E-2   -6.238403714875183E-3    1.434017143412132E-2   -5.820177906783001E-3    2.200816577494405E-1    5.025392684487491E-1
 6.517233557125000E9    -2.281995309765561E-1   -1.356745356456248E-2    1.427857159263895E-2   -6.529155626723203E-3    1.447046596992155E-2   -5.912495602072773E-3    2.209276157005495E-1    5.022778689931463E-1
 6.517245251250000E9    -2.280063299542000E-1   -1.340767904522024E-2    1.435613830135414E-2   -6.457768337166696E-3    1.450339059245006E-2   -5.927638371577142E-3    2.217814136208147E-1    5.019137668880941E-1
 6.517256945375000E9    -2.278567506135974E-1   -1.324349473420711E-2    1.443826948316371E-2   -6.591117040155679E-3    1.465383654960800E-2   -6.113192911233644E-3    2.225482234160140E-1    5.014441805126517E-1
 6.517268639500000E9    -2.277735799580291E-1   -1.297268483701332E-2    1.455893172025846E-2   -6.563306938551710E-3    1.463297081788274E-2   -6.067668734218609E-3    2.235049865338911E-1    5.013600269748018E-1
 6.517280333625000E9    -2.276382486508799E-1   -1.293409687813212E-2    1.455718160979672E-2   -6.613664135563054E-3    1.461344236204685E-2   -6.235089385430145E-3    2.243392082433495E-1    5.006993281374001E-1
 6.517292027750000E9    -2.274521437416732E-1   -1.266295339378549E-2    1.465566748318776E-2   -6.724655689774979E-3    1.482577504701904E-2   -6.169671191595456E-3    2.251692284618222E-1    5.003872055175134E-1
 6.517303721875000E9    -2.273861616152313E-1   -1.269004950043947E-2    1.468078854132075E-2   -6.882553335802637E-3    1.474353938136856E-2   -6.308168945134980E-3    2.259605670943586E-1    5.000885747680944E-1
 6.517315416000000E9    -2.271888097686508E-1   -1.243371131621742E-2    1.476345563900050E-2   -6.941259020956625E-3    1.490539057305071E-2   -6.332842287181564E-3    2.269223932305143E-1    4.996435855864061E-1
 6.517327110125000E9    -2.271151062188956E-1   -1.225520833382243E-2    1.482829952050523E-2   -6.864468597597790E-3    1.502801430406474E-2   -6.468207278717652E-3    2.278038558220582E-1    4.991387456262734E-1
 6.517338804250000E9    -2.269338504000469E-1   -1.207263883069622E-2    1.482370119558858E-2   -6.900161200871765E-3    1.502645735991011E-2   -6.549494045420781E-3    2.286297274061357E-1    4.989764328871694E-1
 6.517350498375000E9    -2.267245261914616E-1   -1.184157688757955E-2    1.504177856562573E-2   -7.080116662911158E-3    1.498545851736584E-2   -6.582420955583112E-3    2.294603354386197E-1    4.984944188084826E-1
 6.517362192500000E9    -2.267470791121331E-1   -1.166633084695423E-2    1.497123529175839E-2   -7.165702832954704E-3    1.524981478775940E-2   -6.609471189107519E-3    2.303460282665384E-1    4.980353683698434E-1
 6.517373886625000E9    -2.265099279330077E-1   -1.158001651190103E-2    1.508665144401487E-2   -7.174796115566628E-3    1.528933537218966E-2   -6.715429318524323E-3    2.312069209746642E-1    4.977089461797498E-1
 6.517385580750000E9    -2.263798326760972E-1   -1.148662125615404E-2    1.516958099410288E-2   -7.125158654246418E-3    1.525843740168705E-2   -6.660451221182266E-3    2.320677005880100E-1    4.972699049922900E-1
 6.517397274875000E9    -2.262058926943578E-1   -1.121188216062310E-2    1.518030706500305E-2   -7.401119113977080E-3    1.540897083593731E-2   -6.829521151619678E-3    2.330376172240892E-1    4.969152816795592E-1
 6.517408969000000E9    -2.261186399298057E-1   -1.109921269059435E-2    1.518233754217271E-2   -7.403597038152135E-3    1.551211792303728E-2   -6.910039737284442E-3    2.336976761382540E-1    4.966658678107310E-1
 6.517420663125000E9    -2.259095782613928E-1   -1.093656009184032E-2    1.529214570495739E-2   -7.506154013943633E-3    1.553975604757592E-2   -6.910866575113419E-3    2.346521575889286E-1    4.960575877397114E-1
 6.517432357250000E9    -2.257689929593715E-1   -1.094357251137446E-2    1.538808900776222E-2   -7.475554704149236E-3    1.566235202899305E-2   -7.011654567065567E-3    2.355376224265309E-1    4.958050073485815E-1
 6.517444051375000E9    -2.256472772425491E-1   -1.071781000028737E-2    1.557244303918559E-2   -7.682954241187216E-3    1.567086861446181E-2   -7.117124624010974E-3    2.364054550287327E-1    4.953460390963177E-1
 6.517455745500000E9    -2.254586156174067E-1   -1.045873039852462E-2    1.565164579677162E-2   -7.793630530043558E-3    1.583514237086677E-2   -7.237686909626370E-3    2.371794108254912E-1    4.950196883887547E-1
 6.517467439625000E9    -2.253745900412704E-1   -1.036502920915389E-2    1.563633626752644E-2   -7.819166639505451E-3    1.577525535381607E-2   -7.229199205714111E-3    2.381077414071470E-1    4.946396261236139E-1
 6.517479133750000E9    -2.251886691097939E-1   -1.017753467848685E-2    1.576821298520042E-2   -7.846052590972704E-3    1.603257251946510E-2   -7.282933825849325E-3    2.389296451376122E-1    4.941299126804044E-1
 6.517490827875000E9    -2.251164027165265E-1   -1.002424520824114E-2    1.585236504392055E-2   -8.057578828247302E-3    1.602351431989939E-2   -7.427305918387979E-3    2.399081592023441E-1    4.936332656039742E-1
 6.517502522000000E9    -2.248562998331158E-1   -9.846634467574117E-3    1.592537451474679E-2   -8.098898480402130E-3    1.612972489054290E-2   -7.516421376083625E-3    2.407083615861642E-1    4.931677162462639E-1
 6.517514216125000E9    -2.247558760899018E-1   -9.824950285899138E-3    1.587161209384835E-2   -8.063479320098311E-3    1.621245823843689E-2   -7.551969539312403E-3    2.416371010254384E-1    4.927013735999244E-1
 6.517525910250000E9    -2.245079312131970E-1   -9.445624461894019E-3    1.607633136364110E-2   -8.293880483073550E-3    1.628380441874709E-2   -7.637545203552595E-3    2.424902002723990E-1    4.924020125229019E-1
 6.517537604375000E9    -2.245139112548639E-1   -9.481398148722892E-3    1.622741513850994E-2   -8.228126959276145E-3    1.638913423256805E-2   -7.717586456085087E-3    2.432357220653373E-1    4.920560299265240E-1
 6.517549298500000E9    -2.243163531756124E-1   -9.339289862993674E-3    1.618605124056583E-2   -8.413292037428364E-3    1.645566430231871E-2   -7.834096836888195E-3    2.442211507523885E-1    4.917237493508123E-1
 6.517560992625000E9    -2.240829567330634E-1   -9.244703848791795E-3    1.628284050871477E-2   -8.664413242005333E-3    1.646261514739509E-2   -7.951468089667471E-3    2.450933401339162E-1    4.911036320962677E-1
 6.517572686750000E9    -2.238797199376367E-1   -9.056411478265849E-3    1.645801730291648E-2   -8.707396647638740E-3    1.669274690813137E-2   -7.902523669436331E-3    2.460440400514493E-1    4.906574495307017E-1
 6.517584380875000E9    -2.237808390122231E-1   -8.934246530551677E-3    1.662543042588656E-2   -8.780199860253380E-3    1.671105637134405E-2   -8.177761416582710E-3    2.467484283419182E-1    4.903819035373622E-1
 6.517596075000000E9    -2.235167663822685E-1   -8.708622331724388E-3    1.664565884647852E-2   -8.647120370562485E-3    1.686477635034887E-2   -8.131481822385695E-3    2.478316320973517E-1    4.898619906616782E-1
 6.517607769125000E9    -2.234341950605108E-1   -8.588119382464378E-3    1.665634151054409E-2   -8.804076350316655E-3    1.683762282503618E-2   -8.259792212594059E-3    2.484423910336363E-1    4.894398318200432E-1
 6.517619463250000E9    -2.233018435623911E-1   -8.435190665274817E-3    1.672765600177217E-2   -9.019680198591033E-3    1.691818510323728E-2   -8.314880829740809E-3    2.495104184066379E-1    4.889922543924044E-1
 6.517631157375000E9    -2.230319512132506E-1   -8.388098054083942E-3    1.679555319752641E-2   -9.084620904018211E-3    1.703488983234547E-2   -8.489145168875903E-3    2.501532080935445E-1    4.884514297578630E-1
 6.517642851500000E9    -2.229243072882577E-1   -8.239241334295560E-3    1.691687269899981E-2   -9.183199189574817E-3    1.715189634325092E-2   -8.502770151826551E-3    2.510984867840458E-1    4.881159488544423E-1
 6.517654545625000E9    -2.227244348208387E-1   -8.066216676912421E-3    1.688172258954187E-2   -9.177762654368067E-3    1.724954221994056E-2   -8.629826433430941E-3    2.519242669174696E-1    4.876743061694896E-1
 6.517666239750000E9    -2.224878084916261E-1   -8.021109055758908E-3    1.721170348155711E-2   -9.168828470205259E-3    1.738685855365034E-2   -8.713565452569258E-3    2.529659839596520E-1    4.871952212971421E-1
 6.517677933875000E9    -2.224388858696378E-1   -7.781569711571346E-3    1.714521521604476E-2   -9.492342142309490E-3    1.747093300385984E-2   -8.941240565934063E-3    2.537970563084476E-1    4.867731124610941E-1
 6.517689628000000E9    -2.222576094280849E-1   -7.651075405868225E-3    1.730732633835052E-2   -9.403325527717880E-3    1.745945452321104E-2   -8.906186185502690E-3    2.545128322540997E-1    4.864086192330138E-1
 6.517701322125000E9    -2.220301930747413E-1   -7.616383566582282E-3    1.737977699438674E-2   -9.655140712904419E-3    1.763868527069343E-2   -9.198257651776672E-3    2.554407181531337E-1    4.858934441738573E-1
 6.517713016250000E9    -2.219131019636655E-1   -7.453938472434542E-3    1.737578519957502E-2   -9.787642095443682E-3    1.769430459430375E-2   -9.094029784184023E-3    2.563287773433509E-1    4.852980026804120E-1
 6.517724710375000E9    -2.216538778225922E-1   -7.389007913704340E-3    1.747289846704974E-2   -9.906854773734085E-3    1.780095516732094E-2   -9.230174320939586E-3    2.572917460214904E-1    4.848661653203556E-1
 6.517736404500000E9    -2.214890194599357E-1   -7.170614918035693E-3    1.760815394797886E-2   -1.004730938121927E-2    1.791462956865869E-2   -9.437380735829889E-3    2.580874903712138E-1    4.844433735491678E-1
 6.517748098625000E9    -2.212059164181009E-1   -7.100001637786983E-3    1.771380649010131E-2   -1.009726839774268E-2    1.796502999210231E-2   -9.526317479570848E-3    2.588302975871813E-1    4.839846411485285E-1
 6.517759792750000E9    -2.210968587635549E-1   -6.988345706967731E-3    1.776655732523200E-2   -1.020051709822629E-2    1.814995628310482E-2   -9.425691775986979E-3    2.596510824598643E-1    4.835693121094108E-1
 6.517771486875000E9    -2.210020436001196E-1   -6.842604844276761E-3    1.802968324262286E-2   -1.032571677897615E-2    1.829117399688060E-2   -9.653558575237817E-3    2.603977255982335E-1    4.829898033707757E-1
 6.517783181000000E9    -2.207751034222127E-1   -6.824668036172536E-3    1.812042292742123E-2   -1.028882739539489E-2    1.836671523725333E-2   -9.839583778343408E-3    2.614324673162124E-1    4.824527032107452E-1
 6.517794875125000E9    -2.205276330575489E-1   -6.521484760331367E-3    1.806641903150957E-2   -1.062074601309094E-2    1.837394896903512E-2   -1.001988843502951E-2    2.623087088701943E-1    4.821455100379357E-1
 6.517806569250000E9    -2.203213163126313E-1   -6.505259403733276E-3    1.829050480012667E-2   -1.062365850934052E-2    1.865820873219672E-2   -1.006912774822715E-2    2.630791089689662E-1    4.816890669538195E-1
 6.517818263375000E9    -2.201928959691074E-1   -6.397597011941824E-3    1.830345441696576E-2   -1.078345978847102E-2    1.863997272890391E-2   -1.014112141284330E-2    2.641399134581423E-1    4.811803792014471E-1
 6.517829957500000E9    -2.199749548451523E-1   -6.304916725944753E-3    1.846196213483795E-2   -1.084758622596394E-2    1.870001097082884E-2   -1.022794359906205E-2    2.651013732082046E-1    4.806069563771225E-1
 6.517841651625000E9    -2.197322022317229E-1   -6.198648050609478E-3    1.851132666731961E-2   -1.107328572015873E-2    1.890608143216849E-2   -1.035455063686461E-2    2.657939048010801E-1    4.801390604794318E-1
 6.517853345750000E9    -2.196722082837939E-1   -6.067611999131485E-3    1.877772183625185E-2   -1.116103453294753E-2    1.894830678241536E-2   -1.058709466719355E-2    2.666569107340844E-1    4.795777137112476E-1
 6.517865039875000E9    -2.193552767473573E-1   -6.038728127935550E-3    1.879209803935081E-2   -1.136143027635803E-2    1.912539044240205E-2   -1.067798192912878E-2    2.675637450439350E-1    4.791950620891330E-1
 6.517876734000000E9    -2.191889783956625E-1   -5.933657413036622E-3    1.884630762284959E-2   -1.137307330502284E-2    1.923019301179197E-2   -1.083791905652015E-2    2.684639665248926E-1    4.785516195061892E-1
 6.517888428125000E9    -2.189596953374468E-1   -5.774194429300789E-3    1.899777057611463E-2   -1.144073482676780E-2    1.935625734174588E-2   -1.088887198317551E-2    2.692529896320338E-1    4.782904764133354E-1
 6.517900122250000E9    -2.187179258280749E-1   -5.773340723789181E-3    1.907182844853173E-2   -1.164645270330137E-2    1.950681504479772E-2   -1.115856814676249E-2    2.700579517297441E-1    4.776283187840408E-1
 6.517911816375000E9    -2.184727349278141E-1   -5.730575534806704E-3    1.918959615778803E-2   -1.191405783726187E-2    1.955126841725116E-2   -1.116663177858760E-2    2.710588910199578E-1    4.770503778125877E-1
 6.517923510500000E9    -2.183257005940975E-1   -5.507762065773469E-3    1.922991904170333E-2   -1.189067788109161E-2    1.977856957106875E-2   -1.132226870869509E-2    2.720536201967084E-1    4.766121630817366E-1
 6.517935204625000E9    -2.180590178706955E-1   -5.481112862737298E-3    1.934687651462413E-2   -1.219876195784306E-2    1.979217099068636E-2   -1.145431456003895E-2    2.727635060013482E-1    4.760639597792140E-1
 6.517946898750000E9    -2.179067983314357E-1   -5.468300991533104E-3    1.949421892992239E-2   -1.220281549262125E-2    1.994189961817675E-2   -1.175519292545166E-2    2.737575264402777E-1    4.755399448424941E-1
 6.517958592875000E9    -2.177126721068369E-1   -5.343324409176491E-3    1.961381400062458E-2   -1.242936487656550E-2    2.017172394687447E-2   -1.175399962534543E-2    2.745907506171068E-1    4.751448037936307E-1
 6.517970287000000E9    -2.173884729053887E-1   -5.298492815556104E-3    1.983425202696151E-2   -1.265182483788453E-2    2.028180460647837E-2   -1.185607260565847E-2    2.755390729368793E-1    4.743587325294067E-1
 6.517981981125000E9    -2.171779666618458E-1   -5.213430433946447E-3    1.995534188497046E-2   -1.269412851342733E-2    2.026279651474337E-2   -1.193488398117120E-2    2.764210889709270E-1    4.739105954348732E-1
 6.517993675250000E9    -2.170837824467653E-1   -5.112150684803749E-3    2.015099463210785E-2   -1.285356821434509E-2    2.051304938713669E-2   -1.216304403428255E-2    2.772912126987725E-1    4.733043810742352E-1
 6.518005369375000E9    -2.168358609559015E-1   -4.986988693089989E-3    2.033794413342469E-2   -1.313973221454144E-2    2.048791750944497E-2   -1.239174660632199E-2    2.781319945552247E-1    4.729666450538458E-1
 6.518017063500000E9    -2.164415125100932E-1   -4.986168523293198E-3    2.039035028927952E-2   -1.314473809321106E-2    2.072311393407105E-2   -1.262216507995679E-2    2.788864184906562E-1    4.722507453445685E-1
 6.518028757625000E9    -2.162911851277628E-1   -4.897639029660911E-3    2.040285460627273E-2   -1.325059371742069E-2    2.083020173298158E-2   -1.278418165586052E-2    2.797563176309276E-1    4.718453247652594E-1
 6.518040451750000E9    -2.159711393892515E-1   -4.896170637898421E-3    2.066246581826350E-2   -1.360080353044025E-2    2.099068430997516E-2   -1.296167743342844E-2    2.806705919997504E-1    4.711720753056903E-1
 6.518052145875000E9    -2.157675074128168E-1   -4.837459428473303E-3    2.052086198511947E-2   -1.374287916733740E-2    2.120200283741875E-2   -1.299948949156367E-2    2.814967092576248E-1    4.706918337682164E-1
 6.518063840000000E9    -2.155956181348742E-1   -4.834579710387752E-3    2.082240178917510E-2   -1.383659755598980E-2    2.122837074433180E-2   -1.327481822502470E-2    2.825025057648398E-1    4.700617784562252E-1
 6.518075534125000E9    -2.152626018648718E-1   -4.753954729512496E-3    2.092054292742017E-2   -1.401312441826056E-2    2.149038245083199E-2   -1.344614955429051E-2    2.832751774034311E-1    4.694282431401675E-1
 6.518087228250000E9    -2.150869837877160E-1   -4.610407400088476E-3    2.111250290972048E-2   -1.425388074402911E-2    2.167538618118776E-2   -1.364375610199869E-2    2.843361671451147E-1    4.689628902097798E-1
