#  HZ   S   RI   R     50.00 
! Rohde & Schwarz Vector Network Analyzer 
! Rohde-Schwarz,ZNB20-2Port,1311601062101988,3.16
! Created: UTC 12/23/2023, 3:41:33 AM
! freq[Hz]                re:S11                  im:S11                  re:S21                  im:S21                  re:S12                  im:S12                  re:S22                  im:S22
 6.517029637000000E9    -2.303134332253005E-1   -1.668447548108305E-2    1.346342854640573E-2   -5.374647850186343E-3    1.337786328616962E-2   -4.997972033214225E-3    2.057191249181821E-1    5.082743123122069E-1
 6.517041339750000E9    -2.302475550750422E-1   -1.650906417993628E-2    1.341441674381389E-2   -5.546795783117885E-3    1.342241657115410E-2   -5.028174954438456E-3    2.066330916380064E-1    5.080111734011065E-1
 6.517053042500000E9    -2.300576475579381E-1   -1.636203991974066E-2    1.327463338604230E-2   -5.423606716722033E-3    1.356000618954249E-2   -5.079619397457361E-3    2.075084442698655E-1    5.077193050185705E-1
 6.517064745250000E9    -2.299420039765619E-1   -1.611773154872840E-2    1.346642792804607E-2   -5.640922131361476E-3    1.352737979021517E-2   -5.078207842946330E-3    2.083840460198501E-1    5.073149524355826E-1
 6.517076448000000E9    -2.298306596477823E-1   -1.590194116311981E-2    1.362863241041300E-2   -5.672113624360520E-3    1.371709170893437E-2   -5.171303631374213E-3    2.091668099604121E-1    5.070929288040964E-1
 6.517088150750000E9    -2.297897896438675E-1   -1.589219092821561E-2    1.358244326655076E-2   -5.693668781974696E-3    1.370092426484936E-2   -5.300953016231221E-3    2.100623219430860E-1    5.066616973777738E-1
 6.517099853500000E9    -2.295762969674948E-1   -1.574041738478568E-2    1.365907955460584E-2   -5.750436081833025E-3    1.383824407286505E-2   -5.239030932240174E-3    2.109576582698195E-1    5.064281513537844E-1
 6.517111556250000E9    -2.294810726221575E-1   -1.547074559482878E-2    1.386913579346901E-2   -5.764360116746061E-3    1.389114809535858E-2   -5.310588687967878E-3    2.118626483229082E-1    5.059903580907135E-1
 6.517123259000000E9    -2.292838682422342E-1   -1.522823178439594E-2    1.377971116422081E-2   -5.788326982642498E-3    1.390055528030023E-2   -5.407572228583298E-3    2.126326009031746E-1    5.056557213714132E-1
 6.517134961750000E9    -2.291643903582006E-1   -1.509675348329727E-2    1.374596785034807E-2   -6.005268179729809E-3    1.398628267341277E-2   -5.461874273290994E-3    2.136392097711727E-1    5.053668746817802E-1
 6.517146664500000E9    -2.291096669186787E-1   -1.491058397031670E-2    1.388911348903066E-2   -5.999230093649290E-3    1.398342171483634E-2   -5.558725621814446E-3    2.143725002913990E-1    5.048675654100455E-1
 6.517158367250000E9    -2.290570683651113E-1   -1.484380995495461E-2    1.386668833934867E-2   -6.141530692278215E-3    1.411247050691400E-2   -5.486865751101182E-3    2.153511387015030E-1    5.047335045794319E-1
 6.517170070000000E9    -2.288976392028986E-1   -1.454160872785750E-2    1.397877066833792E-2   -6.151303037810037E-3    1.416821056932111E-2   -5.575876294131025E-3    2.163778223623284E-1    5.041879371895256E-1
 6.517181772750000E9    -2.286973807784060E-1   -1.446921032393178E-2    1.408730846389955E-2   -6.238546798763549E-3    1.417257107815034E-2   -5.799270374912750E-3    2.170981194917212E-1    5.038717063931877E-1
 6.517193475500000E9    -2.286383296525449E-1   -1.423665354292682E-2    1.405736151261984E-2   -6.256583931324293E-3    1.420366059835865E-2   -5.669509358498322E-3    2.179747468909866E-1    5.035005569462936E-1
 6.517205178250000E9    -2.284526058956234E-1   -1.407388203858683E-2    1.423884608902467E-2   -6.212821397735519E-3    1.426459175810231E-2   -5.789958729248521E-3    2.188001490671701E-1    5.031940240185289E-1
 6.517216881000000E9    -2.283087341872931E-1   -1.387494985939709E-2    1.427840086059767E-2   -6.210957784146453E-3    1.433313219377983E-2   -5.802259461783943E-3    2.196895366032987E-1    5.026851011300895E-1
 6.517228583750000E9    -2.281989958118379E-1   -1.375634382986154E-2    1.428332066124972E-2   -6.441231596896321E-3    1.447567902978281E-2   -5.942709106770385E-3    2.204778922085731E-1    5.024487891880369E-1
 6.517240286500000E9    -2.280865667328877E-1   -1.357418400914276E-2    1.443013778864382E-2   -6.462784349674684E-3    1.454709555854062E-2   -5.963386057916636E-3    2.213211270231878E-1    5.021155680541419E-1
 6.517251989250000E9    -2.279392036080016E-1   -1.350592855065746E-2    1.430434636958631E-2   -6.613359464891537E-3    1.457017294320520E-2   -6.008668804967783E-3    2.220684191576416E-1    5.017832245345346E-1
 6.517263692000000E9    -2.278712915631594E-1   -1.320783862825345E-2    1.453814679511176E-2   -6.618759090160841E-3    1.461729194690239E-2   -6.122473951317410E-3    2.231404262577232E-1    5.012857036798688E-1
 6.517275394750000E9    -2.277289979730114E-1   -1.304878799976382E-2    1.451805859409191E-2   -6.636232219994190E-3    1.470496095708984E-2   -6.184119551750870E-3    2.239232164328829E-1    5.010030306983390E-1
 6.517287097500000E9    -2.275386014751924E-1   -1.287677829023448E-2    1.472766174825779E-2   -6.694417880895468E-3    1.475225729526535E-2   -6.171380094887565E-3    2.247205702653149E-1    5.003558451778545E-1
 6.517298800250000E9    -2.273224539461551E-1   -1.263947380736524E-2    1.469522514718383E-2   -6.761794258809807E-3    1.476491407787602E-2   -6.234139617402052E-3    2.256115471598072E-1    5.001476201239107E-1
 6.517310503000000E9    -2.272852877517912E-1   -1.256456211871801E-2    1.481032372587304E-2   -7.003762619746017E-3    1.503528026650733E-2   -6.278617563215123E-3    2.265643610085592E-1    4.997958361143430E-1
 6.517322205750000E9    -2.271299424723054E-1   -1.241137998764691E-2    1.490805921147453E-2   -7.054110464139525E-3    1.496733983892948E-2   -6.447849422419220E-3    2.275302462020498E-1    4.995145784655186E-1
 6.517333908500000E9    -2.269732255745820E-1   -1.216603116913826E-2    1.486689626281315E-2   -6.964506746744246E-3    1.507330123396568E-2   -6.552730410952621E-3    2.282991474318112E-1    4.988907668136193E-1
 6.517345611250000E9    -2.268039188166733E-1   -1.205848465273896E-2    1.506430740067138E-2   -7.150842633565303E-3    1.508755561606274E-2   -6.651912887500380E-3    2.292240295582176E-1    4.984957033841352E-1
 6.517357314000000E9    -2.266986425323275E-1   -1.174212691482240E-2    1.491909514122372E-2   -7.085494440110510E-3    1.520143426136369E-2   -6.652994441483019E-3    2.300059681307877E-1    4.982421668355961E-1
 6.517369016750000E9    -2.266207945940965E-1   -1.166449361435973E-2    1.507600576901309E-2   -7.306450188821059E-3    1.524422474691483E-2   -6.716172530736752E-3    2.308469899316577E-1    4.979562332957428E-1
 6.517380719500000E9    -2.263215480058122E-1   -1.153321362197831E-2    1.508046480543558E-2   -7.191624045207334E-3    1.531229728331937E-2   -6.832048911501060E-3    2.316537926917387E-1    4.973103655213482E-1
 6.517392422250000E9    -2.264204019081922E-1   -1.138870096143087E-2    1.524080361788145E-2   -7.346813934921372E-3    1.545457134854086E-2   -6.803836113695064E-3    2.325893246201650E-1    4.970644334545313E-1
 6.517404125000000E9    -2.261505467146472E-1   -1.130344619772377E-2    1.527117105972995E-2   -7.467450965272358E-3    1.550559685092649E-2   -6.838779079725140E-3    2.335652061859018E-1    4.966681585517717E-1
 6.517415827750000E9    -2.260028327840728E-1   -1.108950377986436E-2    1.538967566916927E-2   -7.448626448100897E-3    1.554668264500776E-2   -6.938169973558202E-3    2.344168534242223E-1    4.962420289332234E-1
 6.517427530500000E9    -2.258305231897190E-1   -1.097112494964185E-2    1.550263513623116E-2   -7.619480820291701E-3    1.569645513749698E-2   -6.926710986603552E-3    2.351604256834924E-1    4.958481164201187E-1
 6.517439233250000E9    -2.256615160482593E-1   -1.078452519105784E-2    1.562317713345903E-2   -7.747184448860129E-3    1.575290787275173E-2   -7.188701797888847E-3    2.360489484737783E-1    4.954636513190219E-1
 6.517450936000000E9    -2.254639935229350E-1   -1.059556015764773E-2    1.571406109826155E-2   -7.578092886785667E-3    1.585737568847921E-2   -7.204627970452034E-3    2.368956545448511E-1    4.950812164589522E-1
 6.517462638750000E9    -2.254329859297960E-1   -1.046336251647238E-2    1.563406825469979E-2   -7.805112390236077E-3    1.582001893379359E-2   -7.289256479837255E-3    2.377966303529718E-1    4.945427043226686E-1
 6.517474341500000E9    -2.251551762945163E-1   -1.032118178396211E-2    1.577108762723140E-2   -7.941782303382735E-3    1.591378739477920E-2   -7.250276827998780E-3    2.386792769587585E-1    4.943244065583856E-1
 6.517486044250000E9    -2.250187171712454E-1   -1.015447199053717E-2    1.583270310045352E-2   -7.891437595975596E-3    1.610140018834960E-2   -7.411821567257665E-3    2.395118184441453E-1    4.940185296341555E-1
 6.517497747000000E9    -2.249477602382683E-1   -9.908072805188989E-3    1.588692229160300E-2   -8.038438978142555E-3    1.610184149258436E-2   -7.571918516458406E-3    2.404058013983935E-1    4.934732880462540E-1
 6.517509449750000E9    -2.247569234240313E-1   -9.949590920895094E-3    1.601431975934557E-2   -8.098300802538559E-3    1.614960176749515E-2   -7.583161258617045E-3    2.411309102725885E-1    4.930532723434790E-1
 6.517521152500000E9    -2.246120244530566E-1   -9.682128005993221E-3    1.609995403350877E-2   -8.157015287810574E-3    1.619878490129474E-2   -7.661314112095909E-3    2.420628947397850E-1    4.925072323187575E-1
 6.517532855250000E9    -2.243894266507822E-1   -9.574035267162046E-3    1.614797306210694E-2   -8.197158997144313E-3    1.638063447322644E-2   -7.780721650262779E-3    2.428766679262052E-1    4.921399780106850E-1
 6.517544558000000E9    -2.242459616589557E-1   -9.524482412421752E-3    1.622879708862053E-2   -8.275171089014368E-3    1.634672613921037E-2   -7.805716510406187E-3    2.437976289636138E-1    4.915246604739558E-1
 6.517556260750000E9    -2.241285554086902E-1   -9.264480957856487E-3    1.630588277600549E-2   -8.551968463641901E-3    1.653478358146992E-2   -7.803105763945044E-3    2.446073409729228E-1    4.912267203911245E-1
 6.517567963500000E9    -2.238879651609285E-1   -9.159772100620651E-3    1.635240241303168E-2   -8.588159623327976E-3    1.656488895341039E-2   -7.876718887986588E-3    2.454144747100487E-1    4.909957018993371E-1
 6.517579666250000E9    -2.237838209140593E-1   -9.043706851225250E-3    1.650146167866394E-2   -8.697920891267306E-3    1.667016178991671E-2   -8.142926633418731E-3    2.464087204396721E-1    4.903844610063934E-1
 6.517591369000000E9    -2.236168822081027E-1   -8.790431371230889E-3    1.647004317434464E-2   -8.716459017783758E-3    1.683192905548513E-2   -8.155000099904103E-3    2.472425724748291E-1    4.900714836193034E-1
 6.517603071750000E9    -2.235109488513617E-1   -8.759884638886621E-3    1.667332574577526E-2   -8.822297795174959E-3    1.673885998470342E-2   -8.173323838015856E-3    2.482050011751794E-1    4.895451520188754E-1
 6.517614774500000E9    -2.233686753974974E-1   -8.540818036891384E-3    1.674923510705777E-2   -8.879817113837771E-3    1.701158882708474E-2   -8.404535117691212E-3    2.490086670899752E-1    4.891759460047408E-1
 6.517626477250000E9    -2.230231782054328E-1   -8.580160361680052E-3    1.669304840038366E-2   -8.944453145288685E-3    1.713315031851870E-2   -8.404536991905453E-3    2.498410226501320E-1    4.885451385157386E-1
 6.517638180000000E9    -2.229496020891492E-1   -8.334769677757392E-3    1.670409251292986E-2   -9.125531847964207E-3    1.714083667544969E-2   -8.512413289530877E-3    2.507684901819747E-1    4.881765945702159E-1
 6.517649882750000E9    -2.227984897687982E-1   -8.211568586124748E-3    1.683964084056080E-2   -9.187191198213467E-3    1.726090491556858E-2   -8.645173773414996E-3    2.515655658007235E-1    4.876060259413529E-1
 6.517661585500000E9    -2.226237579542043E-1   -8.127963599387722E-3    1.709346873780042E-2   -9.343387378702954E-3    1.736789247267391E-2   -8.743884678593951E-3    2.525346431916913E-1    4.874676261531814E-1
 6.517673288250000E9    -2.225080377511273E-1   -8.022230959224528E-3    1.724174118487091E-2   -9.456040547639715E-3    1.736605797139055E-2   -8.910513959225229E-3    2.534012486079311E-1    4.869030530511650E-1
 6.517684991000000E9    -2.223582976206817E-1   -7.814951373340970E-3    1.724631290279032E-2   -9.562699221460382E-3    1.755612846372948E-2   -8.866048973074598E-3    2.542871430922969E-1    4.865087537364278E-1
 6.517696693750000E9    -2.221132287911087E-1   -7.662525366034724E-3    1.722615371524713E-2   -9.628665980482816E-3    1.759786662843337E-2   -9.051591266004395E-3    2.550888838403826E-1    4.860286779366646E-1
 6.517708396500000E9    -2.218960392499721E-1   -7.585775265780944E-3    1.744872319801647E-2   -9.715568838577410E-3    1.773440953138044E-2   -9.171192002930244E-3    2.560087960663439E-1    4.855119404987701E-1
 6.517720099250000E9    -2.217564336656567E-1   -7.323244078247348E-3    1.757614292526113E-2   -9.862209215730578E-3    1.782021909880756E-2   -9.241440417533837E-3    2.568258998747891E-1    4.850652399068828E-1
 6.517731802000000E9    -2.215361476447175E-1   -7.378247250641619E-3    1.762083591143542E-2   -9.913741087645953E-3    1.786893205997905E-2   -9.237429519418174E-3    2.576105650088036E-1    4.846474000211316E-1
 6.517743504750000E9    -2.212127487901974E-1   -7.250336115958802E-3    1.778080400934810E-2   -1.006122669500863E-2    1.809572847675620E-2   -9.438030058849717E-3    2.585312843620620E-1    4.841258092002249E-1
 6.517755207500000E9    -2.211578409029049E-1   -7.240261115509936E-3    1.789453917851133E-2   -1.017309049956117E-2    1.811726039661703E-2   -9.630012518285947E-3    2.594632699575548E-1    4.836163022279955E-1
 6.517766910250000E9    -2.209983920376949E-1   -6.998317083772952E-3    1.799075048059418E-2   -1.024467759657159E-2    1.832305385962722E-2   -9.617521506254221E-3    2.601820237160249E-1    4.830918678635576E-1
 6.517778613000000E9    -2.208310380066910E-1   -6.814063474105327E-3    1.807307478342967E-2   -1.035842220792415E-2    1.840019191576393E-2   -9.706003998329289E-3    2.610457473179584E-1    4.827200588912469E-1
 6.517790315750000E9    -2.206343926080580E-1   -6.762236429555311E-3    1.820988714432608E-2   -1.056680132335906E-2    1.852025984512773E-2   -9.870726248427757E-3    2.620827545849946E-1    4.822659753777373E-1
 6.517802018500000E9    -2.204113993393201E-1   -6.670319306220286E-3    1.818130940161267E-2   -1.073499071465237E-2    1.850053827804354E-2   -1.002207545448526E-2    2.628511968951928E-1    4.817559449037196E-1
 6.517813721250000E9    -2.201963648525585E-1   -6.590530648691957E-3    1.831190548425364E-2   -1.073869053302156E-2    1.873922380774593E-2   -1.018483892437573E-2    2.636558686508180E-1    4.812857924472753E-1
 6.517825424000000E9    -2.199479777648359E-1   -6.414019907653923E-3    1.851605771137747E-2   -1.075249712502080E-2    1.873123091354552E-2   -1.024789430798397E-2    2.645039189102220E-1    4.807242124465428E-1
 6.517837126750000E9    -2.197712492513768E-1   -6.254538019889819E-3    1.851822931148654E-2   -1.095121371834237E-2    1.885515257130900E-2   -1.040299119598150E-2    2.654679093686501E-1    4.802566505885253E-1
 6.517848829500000E9    -2.196600907412370E-1   -6.238800970373526E-3    1.865379114880729E-2   -1.114337064000745E-2    1.894274111422118E-2   -1.054802314104978E-2    2.664133695961403E-1    4.798591426185751E-1
 6.517860532250000E9    -2.194092410202981E-1   -6.118909845737169E-3    1.870867413737929E-2   -1.127271035710079E-2    1.905301768891188E-2   -1.067194413871507E-2    2.672384336431559E-1    4.793865502133798E-1
 6.517872235000000E9    -2.193298569107597E-1   -6.032793772507390E-3    1.888016927706787E-2   -1.135410131713663E-2    1.917514124520135E-2   -1.072671405071372E-2    2.681165938420432E-1    4.787109420680898E-1
 6.517883937750000E9    -2.191222746820140E-1   -6.036761183375274E-3    1.907963094197052E-2   -1.165129086337371E-2    1.939763033503205E-2   -1.087715103915013E-2    2.690234737922829E-1    4.783158688816770E-1
 6.517895640500000E9    -2.187670917083264E-1   -5.875494160003602E-3    1.910399762745279E-2   -1.159546997429581E-2    1.944773846528319E-2   -1.109738748443637E-2    2.698760963568548E-1    4.777341502320939E-1
 6.517907343250000E9    -2.185473820844789E-1   -5.782983218130817E-3    1.930868790519409E-2   -1.175831838379585E-2    1.960850400975064E-2   -1.117862280941022E-2    2.706782467443238E-1    4.771808447467660E-1
 6.517919046000000E9    -2.183986691262932E-1   -5.716429454641804E-3    1.923536018889781E-2   -1.193844111376160E-2    1.971960215315962E-2   -1.139727401903776E-2    2.716229251742286E-1    4.766808292181167E-1
 6.517930748750000E9    -2.182016254403003E-1   -5.639498649793499E-3    1.936228098983280E-2   -1.204281291608047E-2    1.976445660538639E-2   -1.145547230045432E-2    2.724855316335898E-1    4.760939670341364E-1
 6.517942451500000E9    -2.178969664062997E-1   -5.668818839594071E-3    1.958802008848924E-2   -1.227313408109730E-2    1.997982266487083E-2   -1.165530525127760E-2    2.734874647188233E-1    4.756788618814785E-1
 6.517954154250000E9    -2.177637484285786E-1   -5.445137908603665E-3    1.968422750991910E-2   -1.227733630614154E-2    2.008427336227921E-2   -1.176469632221482E-2    2.742704880838541E-1    4.751623056636328E-1
 6.517965857000000E9    -2.175111800643907E-1   -5.347478561724172E-3    1.982566927435013E-2   -1.248510920658274E-2    2.020055762261549E-2   -1.179558483540259E-2    2.752331381196889E-1    4.745977268953653E-1
 6.517977559750000E9    -2.172161711148115E-1   -5.293630822696945E-3    1.982309021089709E-2   -1.273609359101007E-2    2.028953311215756E-2   -1.210702768759099E-2    2.759710225856437E-1    4.740913183778361E-1
 6.517989262500000E9    -2.170859234548961E-1   -5.227428745418746E-3    2.011165804980004E-2   -1.277770589824069E-2    2.043166506666921E-2   -1.218860500036348E-2    2.768225542940401E-1    4.734647220427993E-1
 6.518000965250000E9    -2.168070054514663E-1   -5.155418600857737E-3    2.000907774599800E-2   -1.296732046898821E-2    2.065567974967587E-2   -1.228786104594533E-2    2.777796876470788E-1    4.729773469706337E-1
 6.518012668000000E9    -2.165771769156873E-1   -5.120508900387966E-3    2.025177109497658E-2   -1.313297254626089E-2    2.072293459884143E-2   -1.254111270358687E-2    2.785139289908176E-1    4.725147042708079E-1
 6.518024370750000E9    -2.163335127281997E-1   -5.071486737210296E-3    2.046030501602597E-2   -1.332917236216380E-2    2.087233057238538E-2   -1.260495578548267E-2    2.796463171974563E-1    4.719553504171115E-1
 6.518036073500000E9    -2.160373620461650E-1   -4.976342227153743E-3    2.053586785907406E-2   -1.349004025491766E-2    2.103232713191209E-2   -1.288403940629921E-2    2.804738891285144E-1    4.713683349724688E-1
 6.518047776250000E9    -2.157581268255662E-1   -5.011089505533833E-3    2.063923301335864E-2   -1.365775386196679E-2    2.118273507655211E-2   -1.300033450000766E-2    2.812910205294611E-1    4.708193184079492E-1
 6.518059479000000E9    -2.157054600498427E-1   -4.944687222086052E-3    2.088506166172349E-2   -1.389886318667456E-2    2.133152839618275E-2   -1.323301760266312E-2    2.822115016481845E-1    4.701206864721375E-1
 6.518071181750000E9    -2.153575645169761E-1   -4.900666846878371E-3    2.098889940351383E-2   -1.407145502076187E-2    2.146700367031903E-2   -1.340613358595033E-2    2.830332027026234E-1    4.696770638233488E-1
 6.518082884500000E9    -2.152429768761269E-1   -4.757141180047188E-3    2.114583609613609E-2   -1.425580426829105E-2    2.160538821310016E-2   -1.362218509939462E-2    2.839062236085464E-1    4.690703801197993E-1
