#  HZ   S   RI   R     50.00 
! Rohde & Schwarz Vector Network Analyzer 
! Rohde-Schwarz,ZNB20-2Port,1311601062101988,3.16
! Created: UTC 12/23/2023, 4:03:11 AM
! freq[Hz]                re:S11                  im:S11                  re:S21                  im:S21                  re:S12                  im:S12                  re:S22                  im:S22
 1.001071144300000E+10  -3.224540128440063E-1    4.059681105507365E-1   -2.574951022375883E-2   -1.364227260726294E-2   -2.398613996955097E-2   -1.433012044244502E-2   -1.375118282455231E-1    5.011965012228349E-1
 1.001072024372500E+10  -3.218890367378127E-1    4.065150316643353E-1   -2.579164215953262E-2   -1.357767189175150E-2   -2.395411547204431E-2   -1.454295696863615E-2   -1.368421322038068E-1    5.014495217285282E-1
 1.001072904445000E+10  -3.211324873864613E-1    4.070774693479852E-1   -2.591678063148656E-2   -1.368541463440827E-2   -2.416236770799801E-2   -1.441098219751959E-2   -1.362616103126727E-1    5.016082317761923E-1
 1.001073784517500E+10  -3.205990237247069E-1    4.077233982827506E-1   -2.602679639618944E-2   -1.359242938306697E-2   -2.426006024434270E-2   -1.451571304584603E-2   -1.357503916559112E-1    5.018031216791623E-1
 1.001074664590000E+10  -3.199949595961518E-1    4.081616667566644E-1   -2.613528448046154E-2   -1.369997499968401E-2   -2.448229089299804E-2   -1.461666144389178E-2   -1.351041446967315E-1    5.017754916747978E-1
 1.001075544662500E+10  -3.190120578124746E-1    4.086834456104738E-1   -2.626094501035290E-2   -1.360667963075631E-2   -2.463052868506537E-2   -1.452283492269311E-2   -1.344915363123157E-1    5.018747885541973E-1
 1.001076424735000E+10  -3.184081299258624E-1    4.092843392236822E-1   -2.642385651499294E-2   -1.366163293025622E-2   -2.473475766434362E-2   -1.454304466116001E-2   -1.338696962308385E-1    5.021586130396005E-1
 1.001077304807500E+10  -3.176934882194735E-1    4.099468457736303E-1   -2.657324830720183E-2   -1.363079156471506E-2   -2.476972626996056E-2   -1.452804451864651E-2   -1.335305336951717E-1    5.022511230815999E-1
 1.001078184880000E+10  -3.168805462799910E-1    4.104863488323642E-1   -2.675360393140192E-2   -1.371025839050978E-2   -2.500090583292210E-2   -1.452629483584318E-2   -1.328010655693427E-1    5.024969423021356E-1
 1.001079064952500E+10  -3.160798169828638E-1    4.109661215490529E-1   -2.672449458002326E-2   -1.374561542990677E-2   -2.515426418778011E-2   -1.450164580270863E-2   -1.322256333530240E-1    5.026604450624376E-1
 1.001079945025000E+10  -3.154018267867956E-1    4.114673917821077E-1   -2.711111888784690E-2   -1.350873175508473E-2   -2.521285236378585E-2   -1.451148240585927E-2   -1.315085046160745E-1    5.028255265863036E-1
 1.001080825097500E+10  -3.146684415044155E-1    4.120384826727325E-1   -2.719790400212834E-2   -1.372023496518133E-2   -2.540527361137272E-2   -1.467877152962447E-2   -1.310608410103099E-1    5.028933196265369E-1
 1.001081705170000E+10  -3.139578265793532E-1    4.126799421281381E-1   -2.720416082645086E-2   -1.364061115709161E-2   -2.539981933751439E-2   -1.472690348110667E-2   -1.304977349235538E-1    5.031857105210947E-1
 1.001082585242500E+10  -3.132237095796886E-1    4.132626054034526E-1   -2.750214769232153E-2   -1.384483671084607E-2   -2.563033514890068E-2   -1.473232553554431E-2   -1.298157529321952E-1    5.033616137813740E-1
 1.001083465315000E+10  -3.124256876524146E-1    4.137997264723756E-1   -2.759156982772744E-2   -1.393635492974923E-2   -2.571230880886340E-2   -1.471023943250114E-2   -1.293187721727898E-1    5.033571221544019E-1
 1.001084345387500E+10  -3.116579342413240E-1    4.142962213539333E-1   -2.770478874826210E-2   -1.378806977644247E-2   -2.586161800615582E-2   -1.464466325054192E-2   -1.285520285828389E-1    5.037705936638133E-1
 1.001085225460000E+10  -3.110528495401188E-1    4.148670659761950E-1   -2.782646351642850E-2   -1.391719996007297E-2   -2.594902745696941E-2   -1.477074646289649E-2   -1.281075235026407E-1    5.037528539248893E-1
 1.001086105532500E+10  -3.101928231197609E-1    4.154148402670261E-1   -2.794593199036010E-2   -1.402846401404617E-2   -2.630509404486942E-2   -1.466215038690782E-2   -1.276288246176692E-1    5.037432331059174E-1
 1.001086985605000E+10  -3.095960040152502E-1    4.159705608940792E-1   -2.807399757501476E-2   -1.396923955738740E-2   -2.635781284425432E-2   -1.480290599704040E-2   -1.269845099582193E-1    5.040755665015192E-1
 1.001087865677500E+10  -3.087350552166735E-1    4.166007694307495E-1   -2.818579477281005E-2   -1.404004357694539E-2   -2.649037420234575E-2   -1.491231668760663E-2   -1.263464505012994E-1    5.042688495701289E-1
 1.001088745750000E+10  -3.078875520396178E-1    4.171330241198073E-1   -2.836122663615190E-2   -1.398952853820872E-2   -2.664719847337913E-2   -1.481455705744996E-2   -1.257465316513039E-1    5.044910078840307E-1
 1.001089625822500E+10  -3.070280828502474E-1    4.177729485571933E-1   -2.872800627167278E-2   -1.399201869463564E-2   -2.676308680438434E-2   -1.501422033559526E-2   -1.250914620704709E-1    5.044059632896096E-1
 1.001090505895000E+10  -3.062640776876503E-1    4.184357279100810E-1   -2.879423342045460E-2   -1.400578712164636E-2   -2.695693631818141E-2   -1.509264141060977E-2   -1.244576155528210E-1    5.046229288496522E-1
 1.001091385967500E+10  -3.056535230189978E-1    4.188937094952434E-1   -2.885438001118559E-2   -1.401411073646689E-2   -2.706569295147531E-2   -1.495248330858334E-2   -1.240229762689025E-1    5.047895814239767E-1
 1.001092266040000E+10  -3.047717819857358E-1    4.194592001836354E-1   -2.912464890948318E-2   -1.397831380882574E-2   -2.722055504380665E-2   -1.513382527229765E-2   -1.233534681877292E-1    5.050476851349320E-1
 1.001093146112500E+10  -3.041111468553166E-1    4.200094404074201E-1   -2.929700654622583E-2   -1.400925368227334E-2   -2.748337745807979E-2   -1.498975600975920E-2   -1.226752050978603E-1    5.051986680015418E-1
 1.001094026185000E+10  -3.033648518309907E-1    4.207152306832385E-1   -2.941405029947246E-2   -1.385534676713374E-2   -2.752972763290050E-2   -1.489855073203601E-2   -1.221419594840208E-1    5.052950950156768E-1
 1.001094906257500E+10  -3.024095526760535E-1    4.211784384837853E-1   -2.965335147806946E-2   -1.408164692011323E-2   -2.782086010651449E-2   -1.502898798365667E-2   -1.215190607821992E-1    5.053678121145034E-1
 1.001095786330000E+10  -3.015365100550645E-1    4.218568307389816E-1   -2.969230375818683E-2   -1.398372818858443E-2   -2.790807795744566E-2   -1.489054620438545E-2   -1.208288637459720E-1    5.055813691398023E-1
 1.001096666402500E+10  -3.008687603371241E-1    4.222830199189280E-1   -2.985487188464968E-2   -1.421357434586429E-2   -2.806462046943689E-2   -1.494350318129570E-2   -1.203704386096340E-1    5.056887643294612E-1
 1.001097546475000E+10  -2.999886864788346E-1    4.228628163465632E-1   -3.006667667393944E-2   -1.415224325803825E-2   -2.813966493819402E-2   -1.506572088300752E-2   -1.197668224925326E-1    5.056658937467852E-1
 1.001098426547500E+10  -2.991036364073674E-1    4.233522780775243E-1   -3.019944477979851E-2   -1.423816085789954E-2   -2.829534990318670E-2   -1.507344808008565E-2   -1.190562969060562E-1    5.059671872401922E-1
 1.001099306620000E+10  -2.983429892901673E-1    4.240102591215094E-1   -3.035831073410210E-2   -1.421863229404356E-2   -2.841854814080782E-2   -1.515158361757145E-2   -1.185183813738756E-1    5.061190403280883E-1
 1.001100186692500E+10  -2.975001821632941E-1    4.246964322091738E-1   -3.050783907644362E-2   -1.433850872577782E-2   -2.866203036272244E-2   -1.519427442864935E-2   -1.179068408829841E-1    5.062820434218821E-1
 1.001101066765000E+10  -2.966720091564534E-1    4.253188610291148E-1   -3.079796558621044E-2   -1.428797291718942E-2   -2.890362331941364E-2   -1.534556259349897E-2   -1.173332767659815E-1    5.064990762190762E-1
 1.001101946837500E+10  -2.956771251342257E-1    4.258252354829529E-1   -3.102325174373340E-2   -1.422428067177383E-2   -2.901428216671548E-2   -1.517458826470340E-2   -1.168192676542913E-1    5.065201470190924E-1
 1.001102826910000E+10  -2.948811019939565E-1    4.263899697582621E-1   -3.111676151349000E-2   -1.419678615519887E-2   -2.912305163892641E-2   -1.520209379609610E-2   -1.160740117061913E-1    5.066138515322384E-1
 1.001103706982500E+10  -2.939682314016245E-1    4.271141620290085E-1   -3.132485079257796E-2   -1.415191262036958E-2   -2.943273786245491E-2   -1.520135262221100E-2   -1.154801453705345E-1    5.067532439733233E-1
 1.001104587055000E+10  -2.931575248738369E-1    4.276797765448330E-1   -3.159341873480914E-2   -1.421573223226578E-2   -2.957457716517588E-2   -1.525560872235008E-2   -1.149685067709069E-1    5.068705238348450E-1
 1.001105467127500E+10  -2.922423780603139E-1    4.283701157546729E-1   -3.180369060125245E-2   -1.424570880990843E-2   -2.971712296323173E-2   -1.533674231543753E-2   -1.141811643277039E-1    5.070437600079334E-1
 1.001106347200000E+10  -2.914964982655647E-1    4.286982210987217E-1   -3.189005751986528E-2   -1.417801874839832E-2   -2.976046769036463E-2   -1.536689097486929E-2   -1.137627612436881E-1    5.071826349180237E-1
 1.001107227272500E+10  -2.906721104882202E-1    4.293647499393345E-1   -3.217583620949403E-2   -1.432385792580484E-2   -3.000717013889781E-2   -1.543112745449949E-2   -1.130152104503495E-1    5.074629310708434E-1
 1.001108107345000E+10  -2.897161362281516E-1    4.299785419520373E-1   -3.235871015081786E-2   -1.430649006686831E-2   -3.022012446024280E-2   -1.538233341084682E-2   -1.125166592918657E-1    5.073975856515693E-1
 1.001108987417500E+10  -2.888685603213365E-1    4.304611563268059E-1   -3.266203998414043E-2   -1.436554518928887E-2   -3.035891799298526E-2   -1.549286218457989E-2   -1.117664795872531E-1    5.077623530278171E-1
 1.001109867490000E+10  -2.878289076312840E-1    4.311087903190909E-1   -3.268433601462242E-2   -1.447998385260894E-2   -3.064813714083793E-2   -1.543027674127094E-2   -1.112816651433708E-1    5.078919823233394E-1
 1.001110747562500E+10  -2.870642970733359E-1    4.318441200703890E-1   -3.279561657001910E-2   -1.458684451118992E-2   -3.089040014855940E-2   -1.535587997010242E-2   -1.105784185204164E-1    5.078360379559758E-1
 1.001111627635000E+10  -2.859526284639413E-1    4.323967551854824E-1   -3.315752331835124E-2   -1.455975222451955E-2   -3.109544074339783E-2   -1.554905080366719E-2   -1.099909976617578E-1    5.080003109311628E-1
 1.001112507707500E+10  -2.850723430173417E-1    4.328259275226468E-1   -3.319370144320982E-2   -1.447095499201844E-2   -3.130915993549704E-2   -1.542853188546749E-2   -1.094014194289849E-1    5.082682482994495E-1
 1.001113387780000E+10  -2.841088669032060E-1    4.336088337279982E-1   -3.343527693290021E-2   -1.441127790796130E-2   -3.169776204129164E-2   -1.544695380564685E-2   -1.087845349647846E-1    5.082088491062313E-1
 1.001114267852500E+10  -2.833988157788116E-1    4.341389010859210E-1   -3.379457700359521E-2   -1.444004806663736E-2   -3.171679203444639E-2   -1.555127747017737E-2   -1.080949782936541E-1    5.083230249659743E-1
 1.001115147925000E+10  -2.822971067748266E-1    4.346434206188938E-1   -3.397912801732124E-2   -1.453374792864058E-2   -3.187618260565091E-2   -1.559041905852351E-2   -1.073851644347285E-1    5.085384663981901E-1
 1.001116027997500E+10  -2.814384890198658E-1    4.353877283057007E-1   -3.431045709532571E-2   -1.450515715295354E-2   -3.204675640700322E-2   -1.568327873240097E-2   -1.068079833427757E-1    5.086335106898594E-1
 1.001116908070000E+10  -2.804257227183494E-1    4.357688228477182E-1   -3.456793093291899E-2   -1.458502982343904E-2   -3.225090553888204E-2   -1.562673807534516E-2   -1.063611678734941E-1    5.087686068199591E-1
 1.001117788142500E+10  -2.794296206508674E-1    4.365551951274650E-1   -3.481662058906629E-2   -1.449221084419643E-2   -3.250772576184386E-2   -1.572809442453465E-2   -1.057940846878992E-1    5.088715818153099E-1
 1.001118668215000E+10  -2.785150370316212E-1    4.370325866867106E-1   -3.474396143098329E-2   -1.437085298671819E-2   -3.271244888136711E-2   -1.571200191722744E-2   -1.050689726514407E-1    5.090060165665115E-1
 1.001119548287500E+10  -2.775777574160524E-1    4.378563757909552E-1   -3.504352125271770E-2   -1.456987299996523E-2   -3.295187979124112E-2   -1.567528524404902E-2   -1.044217610551410E-1    5.091859838621645E-1
 1.001120428360000E+10  -2.764031814901943E-1    4.382541834551268E-1   -3.555051824766967E-2   -1.449272022627386E-2   -3.321550778570691E-2   -1.564598933036365E-2   -1.037328039577556E-1    5.092409440471103E-1
 1.001121308432500E+10  -2.754358565441488E-1    4.388819349475290E-1   -3.571615448681156E-2   -1.449725851549065E-2   -3.347424718411338E-2   -1.576935664669944E-2   -1.030695318378178E-1    5.095211270382024E-1
 1.001122188505000E+10  -2.743955302929033E-1    4.395568602406171E-1   -3.574157612122186E-2   -1.470587497813462E-2   -3.376012410755617E-2   -1.579671502006447E-2   -1.023971832007658E-1    5.096703399594921E-1
 1.001123068577500E+10  -2.734751220272099E-1    4.402199410546142E-1   -3.604504054292188E-2   -1.480328476719159E-2   -3.392592885441742E-2   -1.570748876022002E-2   -1.018244502697007E-1    5.096981445096810E-1
 1.001123948650000E+10  -2.724449319426251E-1    4.407541015543660E-1   -3.630864692065620E-2   -1.472779525567350E-2   -3.421246959499288E-2   -1.577706107876455E-2   -1.013150848068543E-1    5.097169814720649E-1
 1.001124828722500E+10  -2.713228921520967E-1    4.414064042600959E-1   -3.649299729231165E-2   -1.474712933890687E-2   -3.433250551082576E-2   -1.594192087601269E-2   -1.005846970566610E-1    5.098681535598959E-1
 1.001125708795000E+10  -2.702957831929844E-1    4.418978555700300E-1   -3.683587493807141E-2   -1.470694067995975E-2   -3.462708674856558E-2   -1.600217713573694E-2   -1.000483619378778E-1    5.099671744174138E-1
 1.001126588867500E+10  -2.694016200709339E-1    4.425921523922887E-1   -3.709731846741362E-2   -1.467803184615388E-2   -3.483767114004596E-2   -1.590752313763332E-2   -9.942309762544134E-2    5.099888149909824E-1
 1.001127468940000E+10  -2.681494605942679E-1    4.433146787557107E-1   -3.726999142565886E-2   -1.470663597747108E-2   -3.504523581451211E-2   -1.605448980922901E-2   -9.868555051877337E-2    5.102348175805279E-1
 1.001128349012500E+10  -2.671086335024510E-1    4.439346298514849E-1   -3.763653434366809E-2   -1.461492992831823E-2   -3.544093060793687E-2   -1.586135326274263E-2   -9.802446843710631E-2    5.104703138863912E-1
 1.001129229085000E+10  -2.661019931444216E-1    4.444938825353096E-1   -3.778400379622403E-2   -1.467988146713480E-2   -3.563002018925347E-2   -1.606136538947840E-2   -9.749937583613461E-2    5.104201299246964E-1
 1.001130109157500E+10  -2.650178741839863E-1    4.451036098406468E-1   -3.817123321106540E-2   -1.469015787679239E-2   -3.592208619143398E-2   -1.591416653548029E-2   -9.686134167970299E-2    5.104758672937042E-1
 1.001130989230000E+10  -2.638724894354783E-1    4.456391302630277E-1   -3.852023069432273E-2   -1.469977013674564E-2   -3.612096720666740E-2   -1.587773524668881E-2   -9.627762197770773E-2    5.105986554218871E-1
 1.001131869302500E+10  -2.628152133317614E-1    4.462051735524122E-1   -3.873336117451385E-2   -1.468381323212369E-2   -3.650508049659489E-2   -1.602746708298169E-2   -9.546913844294443E-2    5.106859071420208E-1
 1.001132749375000E+10  -2.615371194078458E-1    4.469638587655146E-1   -3.905421751382854E-2   -1.476944169641162E-2   -3.670842572036962E-2   -1.615054213153242E-2   -9.484576741099870E-2    5.108665741841698E-1
 1.001133629447500E+10  -2.602846117320461E-1    4.476142022497433E-1   -3.930590763746335E-2   -1.489079164241322E-2   -3.704737042410649E-2   -1.622535707111751E-2   -9.428852733727754E-2    5.109823097132760E-1
 1.001134509520000E+10  -2.593504229192544E-1    4.481540505455580E-1   -3.961788961146272E-2   -1.470702607192362E-2   -3.720134214182700E-2   -1.617422000852388E-2   -9.368526091839624E-2    5.110646820274801E-1
 1.001135389592500E+10  -2.580281873585746E-1    4.488557241149711E-1   -3.984571033076192E-2   -1.496716457300718E-2   -3.749664918726133E-2   -1.625720010636929E-2   -9.307619837747066E-2    5.111151955538635E-1
 1.001136269665000E+10  -2.568708661223933E-1    4.494174181823308E-1   -4.013554864238159E-2   -1.488472242501918E-2   -3.793457025211399E-2   -1.623339588365288E-2   -9.223174240382513E-2    5.112284563197730E-1
 1.001137149737500E+10  -2.555894921600480E-1    4.501055044754600E-1   -4.045700465227700E-2   -1.493452107016847E-2   -3.816946876526536E-2   -1.618219329284455E-2   -9.167595653274854E-2    5.113854232893191E-1
 1.001138029810000E+10  -2.545999127689690E-1    4.506369648821845E-1   -4.088918269353305E-2   -1.493880889454000E-2   -3.854466028329238E-2   -1.632159850649445E-2   -9.086411442188459E-2    5.114279407978565E-1
 1.001138909882500E+10  -2.533262682891527E-1    4.512205174229689E-1   -4.120618766996089E-2   -1.470836823813503E-2   -3.883194255134680E-2   -1.618947292973583E-2   -9.037757364079795E-2    5.114449467526520E-1
 1.001139789955000E+10  -2.520090023775417E-1    4.520261117424048E-1   -4.148598290780960E-2   -1.492073208616708E-2   -3.908704498871866E-2   -1.630005696968949E-2   -8.961390571771953E-2    5.117056975479025E-1
 1.001140670027500E+10  -2.509332355387491E-1    4.527206288391802E-1   -4.191586441817172E-2   -1.482489063067697E-2   -3.928642354925905E-2   -1.637566886263534E-2   -8.910114809657277E-2    5.117103663836987E-1
 1.001141550100000E+10  -2.495513251620896E-1    4.531557067945731E-1   -4.231037634082951E-2   -1.466453633197318E-2   -3.967628013909694E-2   -1.633537556878002E-2   -8.842787447867653E-2    5.118985426712989E-1
 1.001142430172500E+10  -2.482441795276319E-1    4.538677534941397E-1   -4.247453540286251E-2   -1.457590926888829E-2   -4.008941825096450E-2   -1.646563514982606E-2   -8.761401932139508E-2    5.119849838199375E-1
 1.001143310245000E+10  -2.468331998269233E-1    4.546051686872904E-1   -4.292084711645430E-2   -1.462173014887347E-2   -4.032833726899905E-2   -1.652545527598155E-2   -8.714097728516788E-2    5.119917157252556E-1
 1.001144190317500E+10  -2.456487681110047E-1    4.552031048433903E-1   -4.323193136082966E-2   -1.478974547730063E-2   -4.066122504624792E-2   -1.650350559513118E-2   -8.639254768172515E-2    5.121233489818379E-1
 1.001145070390000E+10  -2.442892142082492E-1    4.558605082430500E-1   -4.357190714625189E-2   -1.476692988702751E-2   -4.094196698688837E-2   -1.640218828792786E-2   -8.566161150849669E-2    5.121802825233998E-1
 1.001145950462500E+10  -2.429303478516441E-1    4.565977677950142E-1   -4.393161612692627E-2   -1.496781324139041E-2   -4.128847521754452E-2   -1.642345030681680E-2   -8.494990823486429E-2    5.122707644721385E-1
 1.001146830535000E+10  -2.417110285079721E-1    4.570999020701231E-1   -4.419734269583596E-2   -1.493006994652638E-2   -4.199541138523018E-2   -1.633777323354222E-2   -8.422928040162768E-2    5.124167758814336E-1
 1.001147710607500E+10  -2.402553294262965E-1    4.577779658601268E-1   -4.465466738040393E-2   -1.491197887730405E-2   -4.216495606240229E-2   -1.639749114378765E-2   -8.352947795273441E-2    5.123720311495490E-1
 1.001148590680000E+10  -2.388454302806249E-1    4.584405991609095E-1   -4.489139538065565E-2   -1.495147031624392E-2   -4.247648857723726E-2   -1.637368155271329E-2   -8.298611997590490E-2    5.124804759499321E-1
 1.001149470752500E+10  -2.374458260186000E-1    4.590757181410206E-1   -4.526181738850956E-2   -1.487870479929029E-2   -4.276293329678128E-2   -1.658985321168213E-2   -8.230115876903947E-2    5.126535805619182E-1
 1.001150350825000E+10  -2.358336879078389E-1    4.597263909074817E-1   -4.575567406422999E-2   -1.495177167243802E-2   -4.326038157788147E-2   -1.670089981469399E-2   -8.170919226532221E-2    5.126310482582161E-1
