#  HZ   S   RI   R     50.00 
! Rohde & Schwarz Vector Network Analyzer 
! Rohde-Schwarz,ZNB20-2Port,1311601062101988,3.16
! Created: UTC 12/23/2023, 4:03:23 AM
! freq[Hz]                re:S11                  im:S11                  re:S21                  im:S21                  re:S12                  im:S12                  re:S22                  im:S22
 1.001074072400000E+10  -3.204390763126790E-1    4.076397927973201E-1   -2.610620200486925E-2   -1.369360029298075E-2   -2.425716097687695E-2   -1.452015336140059E-2   -1.355138219222361E-1    5.017083738706286E-1
 1.001074940992500E+10  -3.197363690761745E-1    4.083787297321704E-1   -2.608314523401823E-2   -1.361351165935256E-2   -2.442548959735046E-2   -1.445777432418571E-2   -1.348894505571865E-1    5.018330047880765E-1
 1.001075809585000E+10  -3.190964271499693E-1    4.088782545199428E-1   -2.627440423188027E-2   -1.371606380498723E-2   -2.448726475002294E-2   -1.455473348081916E-2   -1.343551494333762E-1    5.020356443377547E-1
 1.001076678177500E+10  -3.183671927584545E-1    4.093166433296160E-1   -2.645452730208188E-2   -1.365866255614458E-2   -2.459216214972708E-2   -1.462606971591952E-2   -1.338062215257037E-1    5.022725987436273E-1
 1.001077546770000E+10  -3.176145218469378E-1    4.098185420584613E-1   -2.674848465170772E-2   -1.364100537074480E-2   -2.477588832241634E-2   -1.471003532313076E-2   -1.332009076426725E-1    5.024554571425098E-1
 1.001078415362500E+10  -3.169906803340808E-1    4.105231926819550E-1   -2.674970503303381E-2   -1.364533832454589E-2   -2.499530678514082E-2   -1.453591130357443E-2   -1.326917980194229E-1    5.025519945866413E-1
 1.001079283955000E+10  -3.163207359268493E-1    4.110529146140250E-1   -2.693683247516983E-2   -1.375020713227731E-2   -2.509722909348512E-2   -1.457601461977292E-2   -1.321047149806622E-1    5.026721974507680E-1
 1.001080152547500E+10  -3.154206642906077E-1    4.115849108412259E-1   -2.697681029903787E-2   -1.366574111037732E-2   -2.513466214472773E-2   -1.464287806436245E-2   -1.315937950252844E-1    5.029031390132445E-1
 1.001081021140000E+10  -3.148132235748553E-1    4.121877673381537E-1   -2.717317408559830E-2   -1.363607852400497E-2   -2.537316715320806E-2   -1.479144558706929E-2   -1.308619782242803E-1    5.029097709982664E-1
 1.001081889732500E+10  -3.140863051184681E-1    4.127955533831193E-1   -2.727255073218046E-2   -1.372123653673299E-2   -2.533691378978587E-2   -1.477795961099473E-2   -1.303586584109911E-1    5.031811023698085E-1
 1.001082758325000E+10  -3.132828650119560E-1    4.132678086559212E-1   -2.739437435733367E-2   -1.389441755189129E-2   -2.553542201031981E-2   -1.473758456746544E-2   -1.297757286183297E-1    5.032206008621470E-1
 1.001083626917500E+10  -3.126247408461513E-1    4.137850919022816E-1   -2.752011647495185E-2   -1.381051751318614E-2   -2.560805808472713E-2   -1.468644141305480E-2   -1.292334504359766E-1    5.034485589247226E-1
 1.001084495510000E+10  -3.118673793993875E-1    4.144677407638631E-1   -2.772245702943762E-2   -1.372311157118718E-2   -2.566727605035991E-2   -1.477115187576882E-2   -1.285448539176031E-1    5.034527126572070E-1
 1.001085364102500E+10  -3.112018041800848E-1    4.149483924974162E-1   -2.783855110286006E-2   -1.387703221247867E-2   -2.604891411659130E-2   -1.475032168772628E-2   -1.280233793488471E-1    5.037277056562215E-1
 1.001086232695000E+10  -3.103604253625485E-1    4.154982466117561E-1   -2.798302653610278E-2   -1.397876242167938E-2   -2.616279723005330E-2   -1.463973535228097E-2   -1.274952648948530E-1    5.039094702873703E-1
 1.001087101287500E+10  -3.097580782627097E-1    4.162150757406945E-1   -2.804962759262950E-2   -1.387629058816901E-2   -2.618645843913736E-2   -1.483612550745310E-2   -1.267408773608377E-1    5.041869130011589E-1
 1.001087969880000E+10  -3.089719102317522E-1    4.166487196002865E-1   -2.825483357947035E-2   -1.399664953152868E-2   -2.639716530470186E-2   -1.491989051858154E-2   -1.262406996844281E-1    5.042059889849757E-1
 1.001088838472500E+10  -3.080979549831710E-1    4.171969793410011E-1   -2.840632628512236E-2   -1.396656372395070E-2   -2.651025306739439E-2   -1.493780456178455E-2   -1.256684971855824E-1    5.044784153249310E-1
 1.001089707065000E+10  -3.074337455905250E-1    4.177059797112256E-1   -2.849411796079348E-2   -1.412014622787686E-2   -2.661986170757515E-2   -1.496804783403448E-2   -1.250420167204521E-1    5.045912381542751E-1
 1.001090575657500E+10  -3.065128532233335E-1    4.183808633570059E-1   -2.867377571757096E-2   -1.416230124148146E-2   -2.666179911362948E-2   -1.494196908211047E-2   -1.245121563509467E-1    5.046264653953982E-1
 1.001091444250000E+10  -3.058274684737672E-1    4.189122285343821E-1   -2.883992960157519E-2   -1.411242818162542E-2   -2.698502536323632E-2   -1.505877685418556E-2   -1.238728363002622E-1    5.048773798825915E-1
 1.001092312842500E+10  -3.049810007160961E-1    4.195913907050439E-1   -2.901966722848998E-2   -1.410197967134143E-2   -2.708803235351791E-2   -1.495022608031913E-2   -1.233635526608977E-1    5.049835020245091E-1
 1.001093181435000E+10  -3.042557790846986E-1    4.200992802074807E-1   -2.920505961862397E-2   -1.390581386325409E-2   -2.725890558832357E-2   -1.500715331827348E-2   -1.227979429661181E-1    5.050199898906810E-1
 1.001094050027500E+10  -3.035781798064490E-1    4.207341607928489E-1   -2.933806185879212E-2   -1.393481082130249E-2   -2.753997040815661E-2   -1.498402294236735E-2   -1.220900513774849E-1    5.051885713323153E-1
 1.001094918620000E+10  -3.028955570061135E-1    4.213044237420571E-1   -2.961728269093530E-2   -1.421680111291276E-2   -2.760840569239615E-2   -1.500895407479059E-2   -1.215038712068538E-1    5.053483649400606E-1
 1.001095787212500E+10  -3.018914038968095E-1    4.217554714831147E-1   -2.966133917392923E-2   -1.406701921741557E-2   -2.781909284474045E-2   -1.494694220638772E-2   -1.210729439300898E-1    5.055528847645179E-1
 1.001096655805000E+10  -3.011212180840662E-1    4.222904748262800E-1   -2.988412759641336E-2   -1.399043856422278E-2   -2.804643461747676E-2   -1.497090189145524E-2   -1.203666787160213E-1    5.057277038097341E-1
 1.001097524397500E+10  -3.002596097169548E-1    4.228927132690925E-1   -2.995699426211730E-2   -1.413810580826029E-2   -2.806207278629905E-2   -1.508761807496739E-2   -1.196993372965261E-1    5.057844263378500E-1
 1.001098392990000E+10  -2.994007521279767E-1    4.234051835646244E-1   -3.017335252082877E-2   -1.398373797250731E-2   -2.819852805403560E-2   -1.515155398829509E-2   -1.191308280428511E-1    5.060186093215495E-1
 1.001099261582500E+10  -2.986424931709127E-1    4.240086243086562E-1   -3.039329949248721E-2   -1.414294896760888E-2   -2.844059718009841E-2   -1.513903601677124E-2   -1.186247022508786E-1    5.060868614209283E-1
 1.001100130175000E+10  -2.978707013506711E-1    4.245756503886968E-1   -3.042503337630103E-2   -1.433696031607965E-2   -2.867113949179273E-2   -1.524460009983907E-2   -1.179884515306450E-1    5.063153808976893E-1
 1.001100998767500E+10  -2.970128239945358E-1    4.251347339839452E-1   -3.057455314128266E-2   -1.431850045796196E-2   -2.869657748256225E-2   -1.520163673512101E-2   -1.175315933057693E-1    5.063188878012875E-1
 1.001101867360000E+10  -2.960714529531123E-1    4.258117497007725E-1   -3.076749208030189E-2   -1.435753619306771E-2   -2.893059400912809E-2   -1.529589104519996E-2   -1.167899252083144E-1    5.066501672010264E-1
 1.001102735952500E+10  -2.954467851722591E-1    4.263686033721259E-1   -3.089567900818463E-2   -1.431381508311733E-2   -2.902768069105697E-2   -1.519489677587494E-2   -1.161738693275412E-1    5.065033020209558E-1
 1.001103604545000E+10  -2.944630350300985E-1    4.268285295446096E-1   -3.112872301709763E-2   -1.431414609231258E-2   -2.929343572777831E-2   -1.525623401070319E-2   -1.155783777681200E-1    5.067820386243437E-1
 1.001104473137500E+10  -2.936737577275872E-1    4.276028321475104E-1   -3.143978501547260E-2   -1.413921065843454E-2   -2.935631902138712E-2   -1.519025201772028E-2   -1.149875789351177E-1    5.069343534246274E-1
 1.001105341730000E+10  -2.927926108618908E-1    4.281359933684268E-1   -3.153562362696920E-2   -1.437244798318738E-2   -2.953186263293315E-2   -1.523819247784197E-2   -1.143938727350667E-1    5.069438719245599E-1
 1.001106210322500E+10  -2.919442575612285E-1    4.285507065704989E-1   -3.169481087625761E-2   -1.431859435326002E-2   -2.975965687513149E-2   -1.532576106593153E-2   -1.137846416998712E-1    5.072333259207419E-1
 1.001107078915000E+10  -2.911098321470549E-1    4.291177764380599E-1   -3.196992728612700E-2   -1.423740161042243E-2   -2.992743752265058E-2   -1.541756934081543E-2   -1.132081837127338E-1    5.073542184734832E-1
 1.001107947507500E+10  -2.902329594592554E-1    4.297212751296008E-1   -3.213124767832568E-2   -1.422566609435603E-2   -3.004812541817633E-2   -1.540256083542647E-2   -1.126281872445335E-1    5.072969040516611E-1
 1.001108816100000E+10  -2.894074626262728E-1    4.303954924666157E-1   -3.233992231992975E-2   -1.426716931780814E-2   -3.030036364676496E-2   -1.547291103448025E-2   -1.119730468328269E-1    5.075135929236987E-1
 1.001109684692500E+10  -2.885353415211167E-1    4.310205984818261E-1   -3.252700949721384E-2   -1.421311955104742E-2   -3.039196285698056E-2   -1.543138527244725E-2   -1.114394281232014E-1    5.077292777937791E-1
 1.001110553285000E+10  -2.875362995615566E-1    4.316167231112784E-1   -3.270885306585049E-2   -1.434931200894904E-2   -3.072848644899884E-2   -1.542986734880525E-2   -1.106752692983540E-1    5.079444139002623E-1
 1.001111421877500E+10  -2.865718143057494E-1    4.321540993087059E-1   -3.289775656728288E-2   -1.444911097466401E-2   -3.100642882075822E-2   -1.553960736684397E-2   -1.102815569557988E-1    5.079541449262721E-1
 1.001112290470000E+10  -2.857537165846534E-1    4.328658123459215E-1   -3.309401972487497E-2   -1.454532640523609E-2   -3.113281693820244E-2   -1.544637444542389E-2   -1.095987238501599E-1    5.080999106492888E-1
 1.001113159062500E+10  -2.847533191429841E-1    4.331882160837136E-1   -3.338944891826097E-2   -1.452522708016129E-2   -3.122042758543887E-2   -1.551690032238579E-2   -1.090101560783675E-1    5.082413129026823E-1
 1.001114027655000E+10  -2.837943732374088E-1    4.339397180670244E-1   -3.351895685608491E-2   -1.448525746191993E-2   -3.142186921538719E-2   -1.554712272124290E-2   -1.084165691111027E-1    5.083200532224171E-1
 1.001114896247500E+10  -2.831063820153306E-1    4.343178079750951E-1   -3.369743283529635E-2   -1.464504902308974E-2   -3.163615923876520E-2   -1.561521823817566E-2   -1.078466607656959E-1    5.085222097618187E-1
 1.001115764840000E+10  -2.820966686850165E-1    4.351424763169469E-1   -3.395749969486099E-2   -1.458072160152506E-2   -3.183120073136285E-2   -1.565675813747015E-2   -1.072164771897848E-1    5.086403204426794E-1
 1.001116633432500E+10  -2.812823959738863E-1    4.356507239492127E-1   -3.415404940808699E-2   -1.449458175900496E-2   -3.202383052938908E-2   -1.561095817259743E-2   -1.064263638511080E-1    5.087861953744273E-1
 1.001117502025000E+10  -2.801366842297577E-1    4.363404729231751E-1   -3.438766727199444E-2   -1.452814907765124E-2   -3.232096435798626E-2   -1.557122804865198E-2   -1.059413032778399E-1    5.089015126941431E-1
 1.001118370617500E+10  -2.793371033765650E-1    4.368765343748329E-1   -3.467094431104815E-2   -1.462661856868919E-2   -3.252605960054612E-2   -1.562788274524371E-2   -1.053228820080832E-1    5.089546078973710E-1
 1.001119239210000E+10  -2.782015581520397E-1    4.374970228839080E-1   -3.489216380690593E-2   -1.454457302448525E-2   -3.269255572622747E-2   -1.572775708109350E-2   -1.046672620943014E-1    5.091468744446984E-1
 1.001120107802500E+10  -2.771702118687460E-1    4.380840983272083E-1   -3.515998781344225E-2   -1.453193780181398E-2   -3.293484878709211E-2   -1.576535381269278E-2   -1.041059299951941E-1    5.091338697714246E-1
 1.001120976395000E+10  -2.763018735360884E-1    4.386208817396541E-1   -3.538544210109536E-2   -1.461703740798374E-2   -3.323479705328451E-2   -1.584002613620429E-2   -1.033524021210250E-1    5.092936686939323E-1
 1.001121844987500E+10  -2.753878009496481E-1    4.393386374183058E-1   -3.556150354402152E-2   -1.445872992770131E-2   -3.340045273220042E-2   -1.581323963333432E-2   -1.028842811914722E-1    5.095164003168168E-1
 1.001122713580000E+10  -2.742925151749449E-1    4.398740317216719E-1   -3.574990712253357E-2   -1.453633925116494E-2   -3.356102505934092E-2   -1.599533373000284E-2   -1.021524552572798E-1    5.095494912623045E-1
 1.001123582172500E+10  -2.733542911096979E-1    4.403814053720518E-1   -3.601284327390682E-2   -1.467903540063189E-2   -3.381194848350560E-2   -1.604117056745532E-2   -1.015442537872607E-1    5.096361032127606E-1
 1.001124450765000E+10  -2.723040149420299E-1    4.410305224018861E-1   -3.631819288310447E-2   -1.461281760142332E-2   -3.410118795889155E-2   -1.595469831180895E-2   -1.008902113579488E-1    5.099018544958597E-1
 1.001125319357500E+10  -2.712827483097948E-1    4.416448645797570E-1   -3.641906402983227E-2   -1.479077827478470E-2   -3.417398807060414E-2   -1.598909253797426E-2   -1.002901799525834E-1    5.099427478556774E-1
 1.001126187950000E+10  -2.701876900722340E-1    4.423189369865320E-1   -3.678957332946998E-2   -1.473466886257530E-2   -3.457019267382313E-2   -1.593064890374997E-2   -9.957454880405131E-2    5.100937275133313E-1
 1.001127056542500E+10  -2.691984299303792E-1    4.429231996312030E-1   -3.697960106051490E-2   -1.483968699186086E-2   -3.492902874949085E-2   -1.597974930760922E-2   -9.907191042773179E-2    5.101017904568015E-1
 1.001127925135000E+10  -2.681758155045752E-1    4.434981438280464E-1   -3.718804933038988E-2   -1.481492086090924E-2   -3.515675292159989E-2   -1.586812285140643E-2   -9.845628382045531E-2    5.103468281787957E-1
 1.001128793727500E+10  -2.671188086008522E-1    4.439745663560235E-1   -3.748925673757154E-2   -1.462013838169614E-2   -3.540898138992386E-2   -1.597251182968629E-2   -9.787020670487225E-2    5.105704450812096E-1
 1.001129662320000E+10  -2.659819840605479E-1    4.446356763014270E-1   -3.781314654063818E-2   -1.475061962350199E-2   -3.556834008936943E-2   -1.599160535535294E-2   -9.719608198882287E-2    5.104497149974946E-1
 1.001130530912500E+10  -2.648715155051808E-1    4.453737768634149E-1   -3.814599724403869E-2   -1.474860108702446E-2   -3.579952871613313E-2   -1.605720486197362E-2   -9.651603433149751E-2    5.105481336379650E-1
 1.001131399505000E+10  -2.637901911618272E-1    4.459454313641583E-1   -3.841072160440825E-2   -1.455491744423650E-2   -3.617687699666040E-2   -1.620071940393880E-2   -9.583702052919559E-2    5.106952490633614E-1
 1.001132268097500E+10  -2.626978999392650E-1    4.465611798886049E-1   -3.872389791046910E-2   -1.474544792529506E-2   -3.621715197337355E-2   -1.612862671632702E-2   -9.534857187459173E-2    5.106917611348968E-1
 1.001133136690000E+10  -2.615235043817885E-1    4.470922736930203E-1   -3.903119831850883E-2   -1.467765035591636E-2   -3.660991316151763E-2   -1.622601452272055E-2   -9.461576574684430E-2    5.108160889273947E-1
 1.001134005282500E+10  -2.604728098640620E-1    4.478413713648257E-1   -3.939284905574676E-2   -1.453431410696730E-2   -3.686808706280060E-2   -1.619088140422842E-2   -9.401993326229043E-2    5.109635429110498E-1
 1.001134873875000E+10  -2.594182964018716E-1    4.484459792905743E-1   -3.958642755447066E-2   -1.468457169947750E-2   -3.705318709335437E-2   -1.626106071440386E-2   -9.339091444347121E-2    5.110957823138939E-1
 1.001135742467500E+10  -2.581574988291723E-1    4.489933741767821E-1   -3.982871524261460E-2   -1.473039753699473E-2   -3.735752793788815E-2   -1.627917553220879E-2   -9.285108465468428E-2    5.111172836529433E-1
 1.001136611060000E+10  -2.569137296983621E-1    4.496197484731367E-1   -4.017104006063617E-2   -1.491544362460105E-2   -3.773615779945166E-2   -1.618301218571672E-2   -9.203717479307583E-2    5.111454226295782E-1
 1.001137479652500E+10  -2.558124808936695E-1    4.502061324219549E-1   -4.047554390542953E-2   -1.490198645500066E-2   -3.805642447654837E-2   -1.622183107813373E-2   -9.132432516476316E-2    5.114734557611638E-1
 1.001138348245000E+10  -2.546514014075772E-1    4.509220783461451E-1   -4.077651908580717E-2   -1.488392500794749E-2   -3.843251046423884E-2   -1.631205818426577E-2   -9.083360534981812E-2    5.113758693749191E-1
 1.001139216837500E+10  -2.533819210414007E-1    4.515025156466145E-1   -4.101083561553506E-2   -1.480995519991444E-2   -3.865191114253461E-2   -1.625234234314656E-2   -9.013439813924033E-2    5.116138912447667E-1
 1.001140085430000E+10  -2.523085470893014E-1    4.522268639951672E-1   -4.123106184012255E-2   -1.474096017138920E-2   -3.896687925121209E-2   -1.634232234036749E-2   -8.938197344200215E-2    5.117622593066152E-1
 1.001140954022500E+10  -2.509549436210797E-1    4.529071057846475E-1   -4.164643168660437E-2   -1.482802899488755E-2   -3.920227139741706E-2   -1.634694597251238E-2   -8.884850491228628E-2    5.118617452633413E-1
 1.001141822615000E+10  -2.498405421670003E-1    4.535197550643184E-1   -4.202161553657897E-2   -1.484318668581396E-2   -3.946901411407653E-2   -1.639487076222056E-2   -8.828042452572540E-2    5.120410793432868E-1
 1.001142691207500E+10  -2.483883251535359E-1    4.540668932175302E-1   -4.218740475451165E-2   -1.474888938676795E-2   -3.992046913817826E-2   -1.649444320974210E-2   -8.751470753935282E-2    5.119728584020066E-1
 1.001143559800000E+10  -2.473069206177428E-1    4.546999577253498E-1   -4.281135397220138E-2   -1.477789900142506E-2   -4.017745508297078E-2   -1.646066648469684E-2   -8.677937485708047E-2    5.121136458190753E-1
 1.001144428392500E+10  -2.458169792186646E-1    4.553648071773225E-1   -4.315279517915260E-2   -1.471780783158019E-2   -4.068837799033335E-2   -1.648010833347248E-2   -8.628309518635301E-2    5.121443707184857E-1
 1.001145296985000E+10  -2.446403312252419E-1    4.559865325985637E-1   -4.337410608932520E-2   -1.476839968138806E-2   -4.092364367011412E-2   -1.655713677378711E-2   -8.561786278056813E-2    5.121371998638858E-1
 1.001146165577500E+10  -2.432839066948158E-1    4.565882413244197E-1   -4.375015793504067E-2   -1.478182130070468E-2   -4.116754357991183E-2   -1.636472841231549E-2   -8.493004382267239E-2    5.123123134251479E-1
 1.001147034170000E+10  -2.418590944949485E-1    4.573420443753860E-1   -4.424545645931560E-2   -1.458345425214694E-2   -4.158886372538451E-2   -1.647890112572067E-2   -8.427321159229789E-2    5.125472954521398E-1
 1.001147902762500E+10  -2.407933904327960E-1    4.578884566381847E-1   -4.451723987388949E-2   -1.475492542389301E-2   -4.191492826537764E-2   -1.653783139645852E-2   -8.360934036654097E-2    5.126373321916922E-1
 1.001148771355000E+10  -2.392826381160416E-1    4.585525290048167E-1   -4.494000308313815E-2   -1.496540349253877E-2   -4.231488264528067E-2   -1.661250717254309E-2   -8.284930083069755E-2    5.125225028113696E-1
 1.001149639947500E+10  -2.378404465831025E-1    4.592445731375135E-1   -4.525989951759147E-2   -1.510089431124216E-2   -4.270800354334595E-2   -1.662247868003692E-2   -8.221574119389892E-2    5.125771151779639E-1
 1.001150508540000E+10  -2.365378512785627E-1    4.597762355784688E-1   -4.561010575411765E-2   -1.494571314647260E-2   -4.297232187715510E-2   -1.662104645632970E-2   -8.154809189076952E-2    5.127295698320250E-1
 1.001151377132500E+10  -2.350631610321131E-1    4.604193901101799E-1   -4.603764350295211E-2   -1.488731044217821E-2   -4.338594000366876E-2   -1.667998708767750E-2   -8.095066097584554E-2    5.127812057160333E-1
 1.001152245725000E+10  -2.337204591001035E-1    4.610860035658126E-1   -4.645442822737851E-2   -1.483512826921772E-2   -4.382991322990588E-2   -1.676714982501129E-2   -8.008835383019820E-2    5.128322524022387E-1
