#  HZ   S   RI   R     50.00 
! Rohde & Schwarz Vector Network Analyzer 
! Rohde-Schwarz,ZNB20-2Port,1311601062101988,3.16
! Created: UTC 12/23/2023, 4:04:06 AM
! freq[Hz]                re:S11                  im:S11                  re:S21                  im:S21                  re:S12                  im:S12                  re:S22                  im:S22
 1.001083031900000E+10  -3.140717609007720E-1    4.129931989157198E-1   -2.700329180947499E-2   -1.377852191116817E-2   -2.525687433598740E-2   -1.459783492463332E-2   -1.298481396651385E-1    5.033161328643492E-1
 1.001083868365000E+10  -3.134854773690604E-1    4.136110172281380E-1   -2.726460082839134E-2   -1.373011883146147E-2   -2.540659525348246E-2   -1.467521175502271E-2   -1.292465028181910E-1    5.035305040430760E-1
 1.001084704830000E+10  -3.128500569335043E-1    4.141742815706573E-1   -2.736833689732402E-2   -1.378069342009186E-2   -2.552425379743356E-2   -1.465842929655196E-2   -1.285423223399660E-1    5.036361759977009E-1
 1.001085541295000E+10  -3.120240646460234E-1    4.147170689750463E-1   -2.734069483895420E-2   -1.376780071460528E-2   -2.571337824899382E-2   -1.466952559873079E-2   -1.279874311259929E-1    5.038030248040576E-1
 1.001086377760000E+10  -3.113972864044290E-1    4.152267321881377E-1   -2.765211011849283E-2   -1.379907662525933E-2   -2.569593727893405E-2   -1.480376634129196E-2   -1.275259435533612E-1    5.038499994829877E-1
 1.001087214225000E+10  -3.105848017805961E-1    4.157696116955628E-1   -2.782269404461905E-2   -1.379107050630024E-2   -2.586361230406458E-2   -1.471509481284600E-2   -1.269368093184859E-1    5.042455287327547E-1
 1.001088050690000E+10  -3.099315665427975E-1    4.162204556550713E-1   -2.787008747112043E-2   -1.372066561599030E-2   -2.594684850851934E-2   -1.472796691669643E-2   -1.264445167577158E-1    5.042130047561557E-1
 1.001088887155000E+10  -3.090920195754382E-1    4.167709111737267E-1   -2.803868586945015E-2   -1.391580835085874E-2   -2.608347876592980E-2   -1.473597962665506E-2   -1.258152672897189E-1    5.043986482045644E-1
 1.001089723620000E+10  -3.083876104625642E-1    4.174207157558441E-1   -2.809868799098184E-2   -1.373991146148900E-2   -2.634426965408656E-2   -1.486487516196682E-2   -1.253061108040210E-1    5.046473529959726E-1
 1.001090560085000E+10  -3.076948223915447E-1    4.178527961168336E-1   -2.843054163411727E-2   -1.385541576005037E-2   -2.646492575356235E-2   -1.480159513825565E-2   -1.246023482545548E-1    5.046457249249343E-1
 1.001091396550000E+10  -3.070569597318439E-1    4.185286738908759E-1   -2.833281095025157E-2   -1.396227462851274E-2   -2.647173240354497E-2   -1.485035708016503E-2   -1.241160143266983E-1    5.048936276970240E-1
 1.001092233015000E+10  -3.063802069040366E-1    4.188865971736532E-1   -2.850601604120701E-2   -1.399172976788154E-2   -2.667142635015278E-2   -1.489869864748255E-2   -1.236533114591808E-1    5.048736840420963E-1
 1.001093069480000E+10  -3.055764342569806E-1    4.195589944402446E-1   -2.875111860098543E-2   -1.399512243590495E-2   -2.683134610240204E-2   -1.486802748524185E-2   -1.229995060117804E-1    5.051919367774090E-1
 1.001093905945000E+10  -3.047014915581495E-1    4.200435493198203E-1   -2.884434405371162E-2   -1.403305483457843E-2   -2.698211318964838E-2   -1.486947024414376E-2   -1.223619431311587E-1    5.052617181366033E-1
 1.001094742410000E+10  -3.040560073683256E-1    4.206144744007849E-1   -2.897790415240489E-2   -1.393609735566756E-2   -2.718953133551170E-2   -1.500939461776304E-2   -1.220339095596104E-1    5.053935064273678E-1
 1.001095578875000E+10  -3.032756031089551E-1    4.211956363011157E-1   -2.911379150076276E-2   -1.412457949394206E-2   -2.724124906120659E-2   -1.509845566066435E-2   -1.214987792735854E-1    5.055272415254662E-1
 1.001096415340000E+10  -3.024956478703627E-1    4.215971552356627E-1   -2.932871720211737E-2   -1.398223048510835E-2   -2.727792069008422E-2   -1.503869626802051E-2   -1.207371077441912E-1    5.057140929656171E-1
 1.001097251805000E+10  -3.017311557081945E-1    4.221827083220867E-1   -2.946486001439753E-2   -1.426586561418287E-2   -2.760424463783001E-2   -1.507562436391336E-2   -1.202647722189756E-1    5.059086014438933E-1
 1.001098088270000E+10  -3.010011743622733E-1    4.227941921126047E-1   -2.956663563374769E-2   -1.410074636936011E-2   -2.773749102112679E-2   -1.503429125531151E-2   -1.197491508362384E-1    5.060840071564575E-1
 1.001098924735000E+10  -3.002116779936086E-1    4.233753806940768E-1   -2.980042861662483E-2   -1.420235910016282E-2   -2.792639687164750E-2   -1.512635859908378E-2   -1.189383339032177E-1    5.061652192511654E-1
 1.001099761200000E+10  -2.994540417767996E-1    4.238328876223817E-1   -2.998851806445241E-2   -1.403689418031836E-2   -2.806545019692809E-2   -1.498216934362812E-2   -1.185635898094318E-1    5.062988786137265E-1
 1.001100597665000E+10  -2.986843310752610E-1    4.243750864262283E-1   -2.996555056410346E-2   -1.416960456689489E-2   -2.825374082983378E-2   -1.515374016421625E-2   -1.178870776142085E-1    5.062179839016876E-1
 1.001101434130000E+10  -2.978430543728217E-1    4.250078067249298E-1   -3.041283361176095E-2   -1.410208770007778E-2   -2.836665423585594E-2   -1.491350021722607E-2   -1.173413396115304E-1    5.064951049654429E-1
 1.001102270595000E+10  -2.971179074166240E-1    4.255259822725847E-1   -3.054113639037047E-2   -1.417012222029855E-2   -2.857373607162486E-2   -1.503517010551869E-2   -1.168463054019536E-1    5.066939279028234E-1
 1.001103107060000E+10  -2.963441466692223E-1    4.260769681246236E-1   -3.063000756027501E-2   -1.420254349797999E-2   -2.865712500512464E-2   -1.512914869058191E-2   -1.161167386705484E-1    5.067111553864803E-1
 1.001103943525000E+10  -2.955017192211028E-1    4.266599795468231E-1   -3.079648803042705E-2   -1.409490126674268E-2   -2.892879770999598E-2   -1.518407906886825E-2   -1.154400650603012E-1    5.068742537673879E-1
 1.001104779990000E+10  -2.948404694569014E-1    4.271851042749457E-1   -3.095421688653452E-2   -1.421846986527565E-2   -2.889690828875363E-2   -1.537327351860989E-2   -1.150258306094509E-1    5.070835707877556E-1
 1.001105616455000E+10  -2.937378359754572E-1    4.278046360269615E-1   -3.118776482504215E-2   -1.408159647973866E-2   -2.914394055104130E-2   -1.535404183715974E-2   -1.144310791409189E-1    5.070204033983620E-1
 1.001106452920000E+10  -2.930495029095726E-1    4.283364820038331E-1   -3.143628038070938E-2   -1.425909456980384E-2   -2.919820219694808E-2   -1.545952406367401E-2   -1.139598218151639E-1    5.073388432560896E-1
 1.001107289385000E+10  -2.922469566607634E-1    4.288692563238246E-1   -3.147562861509196E-2   -1.442936334529424E-2   -2.949478772776707E-2   -1.528657443369785E-2   -1.133164288615084E-1    5.074107240755882E-1
 1.001108125850000E+10  -2.913377322959091E-1    4.294689945369475E-1   -3.154266844870699E-2   -1.435757981948774E-2   -2.963692615477577E-2   -1.525661227024211E-2   -1.126882980070935E-1    5.075647542763441E-1
 1.001108962315000E+10  -2.905906633346675E-1    4.299192288114597E-1   -3.179319318474633E-2   -1.433663378684699E-2   -2.984920733921401E-2   -1.546452766223863E-2   -1.122188565665201E-1    5.076759966528369E-1
 1.001109798780000E+10  -2.898441138270527E-1    4.305527706653914E-1   -3.197450735986224E-2   -1.439859365613654E-2   -2.996334630709700E-2   -1.531083102466879E-2   -1.115634855174186E-1    5.077236430251533E-1
 1.001110635245000E+10  -2.889058642498968E-1    4.311206189308497E-1   -3.221153513258513E-2   -1.448673084307458E-2   -3.023236154391170E-2   -1.535157731539572E-2   -1.109698135964122E-1    5.079954687863606E-1
 1.001111471710000E+10  -2.880787434412658E-1    4.317694142029617E-1   -3.234570396564531E-2   -1.444407722619294E-2   -3.031267079438216E-2   -1.538651922999725E-2   -1.104549937834312E-1    5.081427555036744E-1
 1.001112308175000E+10  -2.872104526063942E-1    4.322858272788785E-1   -3.262221863375205E-2   -1.450668394727050E-2   -3.064258273580136E-2   -1.553381164885020E-2   -1.099988217162403E-1    5.080562880042762E-1
 1.001113144640000E+10  -2.863740767958554E-1    4.327777723464938E-1   -3.272994983317766E-2   -1.444643987823658E-2   -3.064569688778697E-2   -1.555946981477163E-2   -1.092367498861928E-1    5.082501697479231E-1
 1.001113981105000E+10  -2.854692021200009E-1    4.334614595254729E-1   -3.304668228405098E-2   -1.439896836751276E-2   -3.079606712151167E-2   -1.566516866818156E-2   -1.085621123853771E-1    5.083596381793184E-1
 1.001114817570000E+10  -2.845737706013719E-1    4.340659320077892E-1   -3.314734256644759E-2   -1.447407893213970E-2   -3.113639563367555E-2   -1.574654710360606E-2   -1.080589666698144E-1    5.085500979675219E-1
 1.001115654035000E+10  -2.835985373237331E-1    4.345108656560195E-1   -3.338360413674670E-2   -1.437477858638516E-2   -3.118566717745302E-2   -1.547583656972906E-2   -1.073562591346745E-1    5.087968439272648E-1
 1.001116490500000E+10  -2.828375831806657E-1    4.349686292933223E-1   -3.372235581042606E-2   -1.438947919968095E-2   -3.147186503136194E-2   -1.569818633584360E-2   -1.067786689299287E-1    5.087752926772425E-1
 1.001117326965000E+10  -2.819117948887704E-1    4.356067601324368E-1   -3.391737425934652E-2   -1.445753347996818E-2   -3.169771953564649E-2   -1.566505178503649E-2   -1.063373065299607E-1    5.089711101506244E-1
 1.001118163430000E+10  -2.810938123342573E-1    4.363325314997213E-1   -3.406965758901072E-2   -1.442745376354394E-2   -3.185200030370502E-2   -1.554443754864574E-2   -1.057109005439587E-1    5.087534630896283E-1
 1.001118999895000E+10  -2.801379998414418E-1    4.369761010428285E-1   -3.419202589570290E-2   -1.446233110694558E-2   -3.202946097415153E-2   -1.571673420676239E-2   -1.050465154293966E-1    5.090815202916960E-1
 1.001119836360000E+10  -2.791467690102075E-1    4.373477818126685E-1   -3.437032302699999E-2   -1.454825505867383E-2   -3.234673451827380E-2   -1.565644623881446E-2   -1.043972786155024E-1    5.093542017077592E-1
 1.001120672825000E+10  -2.782494769730844E-1    4.380330361129324E-1   -3.468828794718723E-2   -1.466584816987868E-2   -3.237176551711551E-2   -1.577506333826272E-2   -1.039327833275442E-1    5.094202887055307E-1
 1.001121509290000E+10  -2.774172970339648E-1    4.385054754819870E-1   -3.485948224552039E-2   -1.460408660001174E-2   -3.264530987324743E-2   -1.575116773615785E-2   -1.034318544189961E-1    5.095016794629700E-1
 1.001122345755000E+10  -2.764489313782943E-1    4.391979968388513E-1   -3.515368336240237E-2   -1.459814222631893E-2   -3.285943680606280E-2   -1.593452336396714E-2   -1.027547535413024E-1    5.095570645440485E-1
 1.001123182220000E+10  -2.755234912029539E-1    4.397006803955675E-1   -3.520315561494259E-2   -1.460606089934187E-2   -3.297651401013983E-2   -1.584509760139002E-2   -1.021850888778445E-1    5.097427877452951E-1
 1.001124018685000E+10  -2.745558446115521E-1    4.402808788431023E-1   -3.551637123257894E-2   -1.459142629433774E-2   -3.330855039580671E-2   -1.583297709500290E-2   -1.015048744955036E-1    5.098458201982760E-1
 1.001124855150000E+10  -2.735468609724767E-1    4.408689209405383E-1   -3.568620384788057E-2   -1.462095383143710E-2   -3.360705529031031E-2   -1.578906140923287E-2   -1.009810796854815E-1    5.099437966508462E-1
 1.001125691615000E+10  -2.725103022738065E-1    4.415599429621654E-1   -3.603666874394577E-2   -1.453872280310266E-2   -3.386971178671626E-2   -1.589207451059227E-2   -1.003623754962601E-1    5.100842154471313E-1
 1.001126528080000E+10  -2.715699878246338E-1    4.420129737236301E-1   -3.624953400028742E-2   -1.460704656929352E-2   -3.407547494993430E-2   -1.582918861997431E-2   -9.982449128497942E-2    5.102346391185359E-1
 1.001127364545000E+10  -2.706152296664966E-1    4.425736051796429E-1   -3.657095209071574E-2   -1.463491328887254E-2   -3.418260566120254E-2   -1.589513452063970E-2   -9.926834446257783E-2    5.101600454563682E-1
 1.001128201010000E+10  -2.696973117148765E-1    4.430855604461380E-1   -3.682305116076454E-2   -1.463975182039948E-2   -3.451271788512730E-2   -1.606512635927476E-2   -9.854339248299161E-2    5.102958514562546E-1
 1.001129037475000E+10  -2.687787092393581E-1    4.436306966007523E-1   -3.700769310308311E-2   -1.455190008945986E-2   -3.468617870273821E-2   -1.606608779224109E-2   -9.798626514734246E-2    5.105770024641746E-1
 1.001129873940000E+10  -2.675778968682337E-1    4.443708322546981E-1   -3.722939921221332E-2   -1.473216152195870E-2   -3.494749383809643E-2   -1.610732562184316E-2   -9.750722811502827E-2    5.105445606290481E-1
 1.001130710405000E+10  -2.666331154049015E-1    4.449658871795871E-1   -3.750868056180476E-2   -1.476986362401905E-2   -3.510837408986513E-2   -1.613459229438880E-2   -9.674646400755064E-2    5.106630457638313E-1
 1.001131546870000E+10  -2.655927189068305E-1    4.455649878144148E-1   -3.777360347881814E-2   -1.478875677797576E-2   -3.538284552523784E-2   -1.614025550591711E-2   -9.602453943965995E-2    5.108231958835341E-1
 1.001132383335000E+10  -2.644964646154408E-1    4.462322261177933E-1   -3.786076082650951E-2   -1.482415050438326E-2   -3.567533964999059E-2   -1.623365271211860E-2   -9.547625135475045E-2    5.109254869456554E-1
 1.001133219800000E+10  -2.635294936114182E-1    4.467292144833389E-1   -3.814352465293533E-2   -1.476782300808053E-2   -3.604886021277996E-2   -1.626034247564596E-2   -9.508289306717237E-2    5.109612034487008E-1
 1.001134056265000E+10  -2.623900301495621E-1    4.473365456668860E-1   -3.831000316230310E-2   -1.475112925253962E-2   -3.617307855500590E-2   -1.597873534922169E-2   -9.415291219111505E-2    5.111697607161199E-1
 1.001134892730000E+10  -2.614444935988585E-1    4.480468467233832E-1   -3.881298403264529E-2   -1.480015875196677E-2   -3.641319544360072E-2   -1.606255565305439E-2   -9.362712691196204E-2    5.111881880384261E-1
 1.001135729195000E+10  -2.603109598859796E-1    4.485276881613196E-1   -3.892528468216960E-2   -1.479604898516245E-2   -3.674359937856340E-2   -1.609008258790085E-2   -9.314647540405196E-2    5.114016131045291E-1
 1.001136565660000E+10  -2.591410264563442E-1    4.490426917358705E-1   -3.937896513148642E-2   -1.488477396088188E-2   -3.697362822249509E-2   -1.617191887469601E-2   -9.256913229787470E-2    5.115068495701834E-1
 1.001137402125000E+10  -2.581236888596001E-1    4.496318137358012E-1   -3.960121330099065E-2   -1.474809178326295E-2   -3.718193758148512E-2   -1.630807106501367E-2   -9.186238219802752E-2    5.114061224595116E-1
 1.001138238590000E+10  -2.570671212626182E-1    4.503072553616080E-1   -3.986455856949713E-2   -1.476259334085167E-2   -3.747217803169141E-2   -1.629927563269974E-2   -9.104734871653229E-2    5.115880195607012E-1
 1.001139075055000E+10  -2.559228164116610E-1    4.509425209530473E-1   -4.012811390176508E-2   -1.483547111550282E-2   -3.775491988161041E-2   -1.641342262468333E-2   -9.061890671746263E-2    5.117773551370097E-1
 1.001139911520000E+10  -2.548906188456063E-1    4.515940493614739E-1   -4.044938085590802E-2   -1.468189263332616E-2   -3.808993769181792E-2   -1.620732847167532E-2   -8.990200775174507E-2    5.117246424593687E-1
 1.001140747985000E+10  -2.535180754544852E-1    4.522482762458893E-1   -4.078987366499674E-2   -1.482633963381708E-2   -3.831360705574197E-2   -1.643003540386065E-2   -8.941971983310724E-2    5.118520655017270E-1
 1.001141584450000E+10  -2.525134843266052E-1    4.528252283749073E-1   -4.093059411698307E-2   -1.479553110661061E-2   -3.864945884964509E-2   -1.631060171870341E-2   -8.864625118650168E-2    5.119206428679622E-1
 1.001142420915000E+10  -2.513912077423168E-1    4.533729710520057E-1   -4.115904348538490E-2   -1.492373304604758E-2   -3.906182282678441E-2   -1.632234450963743E-2   -8.802092653098137E-2    5.119504320707706E-1
 1.001143257380000E+10  -2.501326761841278E-1    4.538865379036889E-1   -4.172646598056990E-2   -1.478379659029059E-2   -3.930318597019659E-2   -1.647597899473600E-2   -8.756362201746805E-2    5.120877275609111E-1
 1.001144093845000E+10  -2.489501286729527E-1    4.546087873150541E-1   -4.187029243996224E-2   -1.506430077483944E-2   -3.954993315640480E-2   -1.642258779736935E-2   -8.683102163722572E-2    5.123405390297004E-1
 1.001144930310000E+10  -2.476811651208197E-1    4.552518677231241E-1   -4.222760568701906E-2   -1.506304516260871E-2   -3.991319253562896E-2   -1.647619047685920E-2   -8.621896132333608E-2    5.122802830640790E-1
 1.001145766775000E+10  -2.465288667424664E-1    4.559508733556010E-1   -4.251495675776109E-2   -1.509663950323885E-2   -4.005381548003469E-2   -1.658381625600866E-2   -8.564309299661498E-2    5.124052609934140E-1
 1.001146603240000E+10  -2.452507796376639E-1    4.564140521685559E-1   -4.289727539458749E-2   -1.495740540441509E-2   -4.039401331625937E-2   -1.657101199081928E-2   -8.484109873345314E-2    5.122619600539811E-1
 1.001147439705000E+10  -2.439124912702122E-1    4.570644267461473E-1   -4.333285482233298E-2   -1.498505413787511E-2   -4.080236608510735E-2   -1.675688634165011E-2   -8.429351885866596E-2    5.123688135839791E-1
 1.001148276170000E+10  -2.428868188550067E-1    4.576355660766898E-1   -4.351225687217645E-2   -1.491897955452343E-2   -4.114022988928951E-2   -1.665289181014520E-2   -8.368850669477085E-2    5.127714919534879E-1
 1.001149112635000E+10  -2.413905534730485E-1    4.582661773196682E-1   -4.395404461888623E-2   -1.499973868159401E-2   -4.132617818088249E-2   -1.650001672835859E-2   -8.292749666602502E-2    5.127274899151470E-1
 1.001149949100000E+10  -2.402278303384318E-1    4.589233003811279E-1   -4.424279984171724E-2   -1.490189496518330E-2   -4.180854280737147E-2   -1.657776148455925E-2   -8.219306791853905E-2    5.129083620662194E-1
 1.001150785565000E+10  -2.389005526120084E-1    4.595832400329194E-1   -4.477547794463896E-2   -1.486839624277478E-2   -4.219999907631761E-2   -1.667970364882491E-2   -8.167368453066272E-2    5.128489407038752E-1
 1.001151622030000E+10  -2.375125296583960E-1    4.601895782456014E-1   -4.511773589854879E-2   -1.477300903295352E-2   -4.238615230478927E-2   -1.659598928270359E-2   -8.113311731538261E-2    5.129896224025363E-1
 1.001152458495000E+10  -2.362948980835784E-1    4.606150223945688E-1   -4.548545512623407E-2   -1.477730820062199E-2   -4.289741331585067E-2   -1.658795524721999E-2   -8.051779352850370E-2    5.130344460209110E-1
 1.001153294960000E+10  -2.348391237775582E-1    4.614548776414747E-1   -4.587323148283326E-2   -1.486825166187528E-2   -4.311425621742920E-2   -1.674763273672951E-2   -7.970170397778191E-2    5.132535284607775E-1
 1.001154131425000E+10  -2.335193963859626E-1    4.619721412884486E-1   -4.614183599619313E-2   -1.478331327085068E-2   -4.353828256126425E-2   -1.677535157961979E-2   -7.924670860308120E-2    5.130686846474884E-1
 1.001154967890000E+10  -2.321928801306380E-1    4.627374308120712E-1   -4.654071014580729E-2   -1.490465863724969E-2   -4.382242585683732E-2   -1.676019177710041E-2   -7.852322890923048E-2    5.132256076339992E-1
 1.001155804355000E+10  -2.307420503963015E-1    4.632556347914326E-1   -4.694086478679308E-2   -1.509099135373004E-2   -4.429303882821147E-2   -1.679607160978817E-2   -7.781316097296881E-2    5.132759045984688E-1
 1.001156640820000E+10  -2.292443938120317E-1    4.638673589225225E-1   -4.737142700976824E-2   -1.496969064761379E-2   -4.467706422575376E-2   -1.677396314502741E-2   -7.714342758161358E-2    5.133637659745028E-1
 1.001157477285000E+10  -2.277026107689859E-1    4.646640589847829E-1   -4.779412323479751E-2   -1.504567594353405E-2   -4.506303205782214E-2   -1.677568597847856E-2   -7.644297772462083E-2    5.135438615316491E-1
 1.001158313750000E+10  -2.264064581265596E-1    4.652755406082914E-1   -4.824699364302113E-2   -1.500601585145024E-2   -4.547866815848542E-2   -1.677383821970682E-2   -7.576733417474556E-2    5.134499506123799E-1
