#  HZ   S   RI   R     50.00 
! Rohde & Schwarz Vector Network Analyzer 
! Rohde-Schwarz,ZNB20-2Port,1311601062101988,3.16
! Created: UTC 12/23/2023, 3:39:23 AM
! freq[Hz]                re:S11                  im:S11                  re:S21                  im:S21                  re:S12                  im:S12                  re:S22                  im:S22
 1.001029732300000E+10  -3.474027314842170E-1    3.833747194367697E-1   -2.218883819800137E-2   -1.332335175727406E-2   -2.069260625121286E-2   -1.392123400062355E-2   -1.628190888021737E-1    4.930665743291138E-1
 1.001030743957500E+10  -3.466711307676721E-1    3.838614807991132E-1   -2.236112525526890E-2   -1.327656671941949E-2   -2.074869806840091E-2   -1.398828238367833E-2   -1.621382330348476E-1    4.932170475714169E-1
 1.001031755615000E+10  -3.459315174080855E-1    3.845020147889918E-1   -2.245087371083619E-2   -1.337979978988228E-2   -2.088312310656316E-2   -1.390651532206493E-2   -1.614136693163757E-1    4.934665529189950E-1
 1.001032767272500E+10  -3.453359449047634E-1    3.851753980745118E-1   -2.258135261722625E-2   -1.325516838473893E-2   -2.105925852685958E-2   -1.386405948174040E-2   -1.608589766361713E-1    4.937639334741473E-1
 1.001033778930000E+10  -3.445484509606284E-1    3.857875205607879E-1   -2.273382040389160E-2   -1.333869366981116E-2   -2.117236186842900E-2   -1.400291385126550E-2   -1.602116649874064E-1    4.940012409200875E-1
 1.001034790587500E+10  -3.437607702050264E-1    3.864176006524649E-1   -2.286814530804481E-2   -1.341802132958775E-2   -2.123373462374398E-2   -1.410643417186877E-2   -1.597418772316992E-1    4.943535972841452E-1
 1.001035802245000E+10  -3.431957811544575E-1    3.871465026277991E-1   -2.293700082328818E-2   -1.337899297903558E-2   -2.126753793440586E-2   -1.401893394670145E-2   -1.589200604459245E-1    4.944189732945208E-1
 1.001036813902500E+10  -3.424600419552816E-1    3.878711234561719E-1   -2.307571875656600E-2   -1.335548498089777E-2   -2.134010317119779E-2   -1.410660212709536E-2   -1.583359862242654E-1    4.946193168223091E-1
 1.001037825560000E+10  -3.417601151810934E-1    3.882915881172884E-1   -2.318086064801261E-2   -1.343663702386518E-2   -2.160808552283693E-2   -1.410198629046729E-2   -1.576155171998666E-1    4.947686148366154E-1
 1.001038837217500E+10  -3.410899640477551E-1    3.888906521465239E-1   -2.334907882420019E-2   -1.342160574376833E-2   -2.161473124218978E-2   -1.404064748565625E-2   -1.570077311276713E-1    4.950454210425973E-1
 1.001039848875000E+10  -3.403117914962092E-1    3.897383960479863E-1   -2.342005962524188E-2   -1.348650648780179E-2   -2.175667833656590E-2   -1.417729844065057E-2   -1.563230985723421E-1    4.952877083973649E-1
 1.001040860532500E+10  -3.394774920893503E-1    3.901581885706756E-1   -2.349610149443227E-2   -1.341444648100372E-2   -2.179666066236525E-2   -1.416940515746947E-2   -1.556026103582174E-1    4.956404907215593E-1
 1.001041872190000E+10  -3.386740562205871E-1    3.910169067602483E-1   -2.360514478731475E-2   -1.347384366134599E-2   -2.205083913275924E-2   -1.413444667380885E-2   -1.549754272767487E-1    4.957200949573599E-1
 1.001042883847500E+10  -3.381334736899811E-1    3.915382933250016E-1   -2.375490647490218E-2   -1.349995166435546E-2   -2.226266720971782E-2   -1.407709220299592E-2   -1.543461469347660E-1    4.959665683954810E-1
 1.001043895505000E+10  -3.374966453376570E-1    3.921683118551233E-1   -2.389214999841671E-2   -1.354138934020263E-2   -2.240455337063841E-2   -1.422432780161944E-2   -1.537458838632179E-1    4.959962220080464E-1
 1.001044907162500E+10  -3.365551346639149E-1    3.927650416125116E-1   -2.403801197722200E-2   -1.364518721050602E-2   -2.254965192579422E-2   -1.423018204014148E-2   -1.530331271401240E-1    4.964671619933226E-1
 1.001045918820000E+10  -3.359862629632657E-1    3.934314264307334E-1   -2.403828614253331E-2   -1.376193503270839E-2   -2.261134975198234E-2   -1.426695396053963E-2   -1.524442916442557E-1    4.964928573450126E-1
 1.001046930477500E+10  -3.351465630800932E-1    3.940252749027923E-1   -2.428484446282201E-2   -1.367395438289105E-2   -2.262422711598763E-2   -1.437471934747914E-2   -1.517409396380464E-1    4.967659043966157E-1
 1.001047942135000E+10  -3.343920209896961E-1    3.947765110271161E-1   -2.442777760410023E-2   -1.364821498586799E-2   -2.281198528733907E-2   -1.443826580651335E-2   -1.509015456709090E-1    4.969738063011457E-1
 1.001048953792500E+10  -3.334953320998300E-1    3.953968207838195E-1   -2.449158928739058E-2   -1.373464440702777E-2   -2.295484001174540E-2   -1.431491568642237E-2   -1.504478489054222E-1    4.970696627083453E-1
 1.001049965450000E+10  -3.329391384790820E-1    3.961203768583875E-1   -2.460425994195914E-2   -1.360548180600998E-2   -2.294819719936626E-2   -1.442053722524287E-2   -1.497768579609192E-1    4.973639541913579E-1
 1.001050977107500E+10  -3.321473833241620E-1    3.966465060290394E-1   -2.478679615900720E-2   -1.372157714065740E-2   -2.323297851003179E-2   -1.430910097546410E-2   -1.490972149777748E-1    4.977364755352899E-1
 1.001051988765000E+10  -3.313189297337029E-1    3.973056999027482E-1   -2.489280856030402E-2   -1.367218257208928E-2   -2.327315785174042E-2   -1.438094450986265E-2   -1.484559335922392E-1    4.977959799040394E-1
 1.001053000422500E+10  -3.305349150595773E-1    3.978491386278725E-1   -2.511197931935427E-2   -1.364616751129748E-2   -2.349193502459281E-2   -1.427235471639805E-2   -1.477746571281136E-1    4.979755415603136E-1
 1.001054012080000E+10  -3.297809310726036E-1    3.987130712074393E-1   -2.525053731842628E-2   -1.374888816747104E-2   -2.363129469196141E-2   -1.436041119724178E-2   -1.469947320329933E-1    4.982094926173898E-1
 1.001055023737500E+10  -3.290143335175008E-1    3.991085986057630E-1   -2.538868712507974E-2   -1.366481047371464E-2   -2.357371310599635E-2   -1.436269438264142E-2   -1.464398010476747E-1    4.983330155380560E-1
 1.001056035395000E+10  -3.282137892191698E-1    3.998986342306446E-1   -2.559273785311866E-2   -1.371822143434023E-2   -2.380643592632131E-2   -1.443194840427234E-2   -1.457296405265553E-1    4.986295679754403E-1
 1.001057047052500E+10  -3.273650759753581E-1    4.003929429151623E-1   -2.567887357258778E-2   -1.380424293851919E-2   -2.404678168283859E-2   -1.445720296062414E-2   -1.451699912299681E-1    4.987192881313353E-1
 1.001058058710000E+10  -3.265651573802832E-1    4.012125248566349E-1   -2.576763507083049E-2   -1.381275139399201E-2   -2.412803722566863E-2   -1.460749310408367E-2   -1.444993072727407E-1    4.989979729064216E-1
 1.001059070367500E+10  -3.257235559670622E-1    4.018179300249764E-1   -2.592159080511248E-2   -1.382918244581180E-2   -2.410199528661936E-2   -1.458315219796050E-2   -1.437272430196186E-1    4.990697136209092E-1
 1.001060082025000E+10  -3.250916217845802E-1    4.023574953712635E-1   -2.611603763512477E-2   -1.398317239585744E-2   -2.442719073352493E-2   -1.456398582160206E-2   -1.431456895186872E-1    4.995346295214850E-1
 1.001061093682500E+10  -3.242447646008744E-1    4.029673711080071E-1   -2.613958157863787E-2   -1.392378641935017E-2   -2.465531624505530E-2   -1.468264255296430E-2   -1.424380087238391E-1    4.994603742803150E-1
 1.001062105340000E+10  -3.233432308545501E-1    4.036971342078602E-1   -2.623494510365376E-2   -1.401630638474765E-2   -2.481803418858215E-2   -1.464252702963870E-2   -1.418750416572258E-1    4.998208656505729E-1
 1.001063116997500E+10  -3.226124358457063E-1    4.043267758380188E-1   -2.653914518950304E-2   -1.405941553551684E-2   -2.485521829653974E-2   -1.449558751364977E-2   -1.409934959724351E-1    4.998151364022477E-1
 1.001064128655000E+10  -3.217569283427521E-1    4.049815368370179E-1   -2.671349523438044E-2   -1.394954996750744E-2   -2.518919261927396E-2   -1.454147552196706E-2   -1.404569364247788E-1    5.001096158625402E-1
 1.001065140312500E+10  -3.208939044829596E-1    4.056792910670871E-1   -2.680377753049989E-2   -1.384964154351957E-2   -2.527500919338451E-2   -1.468798725121087E-2   -1.398173596693046E-1    5.003272025018344E-1
 1.001066151970000E+10  -3.200634544116927E-1    4.062395162691903E-1   -2.700812634365216E-2   -1.396409315101675E-2   -2.536146363493881E-2   -1.473081955335308E-2   -1.391427564157656E-1    5.004261849478446E-1
 1.001067163627500E+10  -3.192586094187154E-1    4.070319013901924E-1   -2.719005845677868E-2   -1.385662279533263E-2   -2.545953493261782E-2   -1.464969488874209E-2   -1.384834192290652E-1    5.007932420363587E-1
 1.001068175285000E+10  -3.184527168500277E-1    4.076221406038822E-1   -2.744482464474716E-2   -1.398645867027123E-2   -2.558972408938753E-2   -1.478839282268266E-2   -1.378486515543131E-1    5.008377069688922E-1
 1.001069186942500E+10  -3.175906128214470E-1    4.083338277685413E-1   -2.755999343771494E-2   -1.384324943712841E-2   -2.590495990762545E-2   -1.484589534333174E-2   -1.371878542579108E-1    5.011823687607269E-1
 1.001070198600000E+10  -3.166860286103031E-1    4.089456839705494E-1   -2.774964390147776E-2   -1.397282347021002E-2   -2.600126853802598E-2   -1.471938213705262E-2   -1.362717108572957E-1    5.011044756919502E-1
 1.001071210257500E+10  -3.157997539704793E-1    4.096437505576888E-1   -2.793390583226938E-2   -1.386738641374039E-2   -2.604932050427033E-2   -1.477634904088907E-2   -1.356351867414739E-1    5.013868200387559E-1
 1.001072221915000E+10  -3.150118792957834E-1    4.102779137361380E-1   -2.812028831733928E-2   -1.402579086067482E-2   -2.625208942705805E-2   -1.483020773553533E-2   -1.350662181709395E-1    5.017195070103406E-1
 1.001073233572500E+10  -3.140622288590831E-1    4.108570921903703E-1   -2.828510969610405E-2   -1.409454915330201E-2   -2.650303715289039E-2   -1.486222267826607E-2   -1.343210310251813E-1    5.018287966308742E-1
 1.001074245230000E+10  -3.131808126684980E-1    4.114258959589268E-1   -2.836966406135599E-2   -1.416994631341370E-2   -2.673023819743031E-2   -1.483584950408520E-2   -1.336573339539827E-1    5.020692924557438E-1
 1.001075256887500E+10  -3.123289103788805E-1    4.123217812652605E-1   -2.852026832167750E-2   -1.417602501698030E-2   -2.674117253590976E-2   -1.485135119354065E-2   -1.331445918654175E-1    5.021531956377364E-1
 1.001076268545000E+10  -3.113700870874571E-1    4.128012131574297E-1   -2.881095342019825E-2   -1.411936973587059E-2   -2.703840857893442E-2   -1.503407203877770E-2   -1.324410956961978E-1    5.023440631457964E-1
 1.001077280202500E+10  -3.105473667093754E-1    4.133766413741503E-1   -2.902610346925092E-2   -1.426777334456168E-2   -2.715157754733687E-2   -1.494751142594316E-2   -1.316986584306284E-1    5.024765356227964E-1
 1.001078291860000E+10  -3.096721689215254E-1    4.142265401162853E-1   -2.916333499563773E-2   -1.405764989498156E-2   -2.734880637450350E-2   -1.498123130449136E-2   -1.309531590897081E-1    5.027007258557690E-1
 1.001079303517500E+10  -3.087202687040256E-1    4.148608116456269E-1   -2.947408501578192E-2   -1.424823706945888E-2   -2.756541486941187E-2   -1.505775679231523E-2   -1.304387897743875E-1    5.028904803876767E-1
 1.001080315175000E+10  -3.077258160356839E-1    4.154730363982541E-1   -2.950226865801309E-2   -1.415851885502886E-2   -2.759227830864963E-2   -1.501239634690991E-2   -1.295107849379515E-1    5.031139416837553E-1
 1.001081326832500E+10  -3.067349777413225E-1    4.161820106037804E-1   -2.982576477567921E-2   -1.420073586982781E-2   -2.790926902560747E-2   -1.490718780763756E-2   -1.287563896641932E-1    5.032837450206609E-1
 1.001082338490000E+10  -3.060361244387642E-1    4.168174972828234E-1   -2.995164269960734E-2   -1.412828478121245E-2   -2.796964394709892E-2   -1.502018143101653E-2   -1.282700495815091E-1    5.034116031289017E-1
 1.001083350147500E+10  -3.049441600402235E-1    4.174422266802046E-1   -3.012179926743763E-2   -1.416953439353996E-2   -2.828658609641169E-2   -1.513033892040943E-2   -1.275959405065469E-1    5.036279385083912E-1
 1.001084361805000E+10  -3.040598606279501E-1    4.181448898807291E-1   -3.030721042516974E-2   -1.416406627231869E-2   -2.858254267851450E-2   -1.512951899616765E-2   -1.268937614964648E-1    5.038092115728398E-1
 1.001085373462500E+10  -3.031107748503385E-1    4.188105910812386E-1   -3.068313314790323E-2   -1.419430670443179E-2   -2.870614451292008E-2   -1.517421307721295E-2   -1.261714037362208E-1    5.040184541195704E-1
 1.001086385120000E+10  -3.020654864959326E-1    4.193995748989603E-1   -3.082654053681027E-2   -1.417194077865580E-2   -2.891781300726930E-2   -1.535004801703949E-2   -1.254375939613620E-1    5.040351625711158E-1
 1.001087396777500E+10  -3.010573723846982E-1    4.201672978561492E-1   -3.089918911794563E-2   -1.428088267245377E-2   -2.901937015829930E-2   -1.523871924340936E-2   -1.248247281912255E-1    5.043047656539695E-1
 1.001088408435000E+10  -3.001903260946958E-1    4.207636287666231E-1   -3.111729929201463E-2   -1.431813721431476E-2   -2.921659673859909E-2   -1.531532017937722E-2   -1.240751705482513E-1    5.045396522311975E-1
 1.001089420092500E+10  -2.991456159571213E-1    4.215036852386529E-1   -3.130816345600247E-2   -1.441542517916513E-2   -2.938254856622622E-2   -1.519333784234301E-2   -1.233671372527712E-1    5.045887662377725E-1
 1.001090431750000E+10  -2.982034870615745E-1    4.222458742637364E-1   -3.162205069298547E-2   -1.443495336440914E-2   -2.960996700631354E-2   -1.524928016819534E-2   -1.226710424285076E-1    5.047615695241066E-1
 1.001091443407500E+10  -2.972420785034318E-1    4.227322126692675E-1   -3.176676944680042E-2   -1.436577506389782E-2   -2.995760248294688E-2   -1.525548014931094E-2   -1.220310689969213E-1    5.049927688111084E-1
 1.001092455065000E+10  -2.961628201389442E-1    4.235143810947423E-1   -3.192082492399169E-2   -1.428297159396859E-2   -3.023559861051947E-2   -1.519646084281730E-2   -1.214129893282788E-1    5.050929965994827E-1
 1.001093466722500E+10  -2.952347796200692E-1    4.241314235583923E-1   -3.226532618299270E-2   -1.446055829887163E-2   -3.016564835790019E-2   -1.524277435002425E-2   -1.205786597903192E-1    5.053621130632331E-1
 1.001094478380000E+10  -2.941108589166829E-1    4.248618354436670E-1   -3.247146748680295E-2   -1.430364163744988E-2   -3.056106925455117E-2   -1.522415455311867E-2   -1.199059318080008E-1    5.053944612557568E-1
 1.001095490037500E+10  -2.931165092372724E-1    4.253678822711680E-1   -3.276132076515144E-2   -1.440237246686288E-2   -3.071335368187061E-2   -1.535087760127283E-2   -1.191927287449348E-1    5.056141850992427E-1
 1.001096501695000E+10  -2.919904561465737E-1    4.262075894224950E-1   -3.301593458577445E-2   -1.426168382963060E-2   -3.109175012528244E-2   -1.540243882586309E-2   -1.184461176431858E-1    5.057740079416310E-1
 1.001097513352500E+10  -2.909894457526270E-1    4.268780900644473E-1   -3.333047303568549E-2   -1.427137296492206E-2   -3.122305107671079E-2   -1.539178834841596E-2   -1.178891019128460E-1    5.059425366812272E-1
 1.001098525010000E+10  -2.898046516475893E-1    4.275072709480419E-1   -3.344613653550044E-2   -1.419805707243319E-2   -3.155932738263238E-2   -1.551089703864648E-2   -1.171504935831960E-1    5.061274422699635E-1
 1.001099536667500E+10  -2.887769265924438E-1    4.282142030156635E-1   -3.386119648381881E-2   -1.434095804455181E-2   -3.168784991768242E-2   -1.549239105456139E-2   -1.164884973316040E-1    5.062430422728871E-1
 1.001100548325000E+10  -2.876682238449322E-1    4.288945987997104E-1   -3.425114875835716E-2   -1.448921714346671E-2   -3.205046881747345E-2   -1.549901448127267E-2   -1.155516492856512E-1    5.064047704015803E-1
 1.001101559982500E+10  -2.867150365061692E-1    4.294656440174225E-1   -3.422139513605171E-2   -1.442399502603936E-2   -3.226684910739434E-2   -1.548541724677101E-2   -1.149537296016664E-1    5.063850288266367E-1
 1.001102571640000E+10  -2.854958504647823E-1    4.302513807628092E-1   -3.452925721747965E-2   -1.445146355275984E-2   -3.252238074517088E-2   -1.548052254843331E-2   -1.142618602131276E-1    5.066537845515555E-1
 1.001103583297500E+10  -2.843589782939569E-1    4.310124243125996E-1   -3.477092707586296E-2   -1.465942836902747E-2   -3.288716653858356E-2   -1.558753359732475E-2   -1.134526541784073E-1    5.067778722188515E-1
 1.001104594955000E+10  -2.831342397440396E-1    4.316069578487589E-1   -3.504569756765331E-2   -1.437214593457703E-2   -3.303880577840346E-2   -1.563005100946865E-2   -1.128645721030979E-1    5.070152979523064E-1
 1.001105606612500E+10  -2.821705917617952E-1    4.322607679690557E-1   -3.527846360154156E-2   -1.452994155748874E-2   -3.315834586827884E-2   -1.567150952123584E-2   -1.120966624354404E-1    5.071817199907731E-1
 1.001106618270000E+10  -2.810020159293988E-1    4.330454979725469E-1   -3.557449588192788E-2   -1.452208994808225E-2   -3.345422662102289E-2   -1.579548547027871E-2   -1.113406733739174E-1    5.072476792491959E-1
 1.001107629927500E+10  -2.798664661373850E-1    4.336096367357767E-1   -3.582668968302363E-2   -1.453209946104425E-2   -3.368784830780893E-2   -1.572638140907000E-2   -1.106787658788098E-1    5.074244234671428E-1
 1.001108641585000E+10  -2.785646768470350E-1    4.343311529033186E-1   -3.605161595534314E-2   -1.455047601180380E-2   -3.404437307388831E-2   -1.567654698572784E-2   -1.098328016802328E-1    5.074670966206741E-1
 1.001109653242500E+10  -2.775262813729237E-1    4.350493276193646E-1   -3.634864981948663E-2   -1.456337822283076E-2   -3.437604908245515E-2   -1.568833781012181E-2   -1.091384100054492E-1    5.077803051426992E-1
 1.001110664900000E+10  -2.762885655730513E-1    4.357300348986428E-1   -3.667814341951924E-2   -1.452317723548781E-2   -3.461285477153785E-2   -1.578062362990988E-2   -1.085739467906100E-1    5.079449081137153E-1
 1.001111676557500E+10  -2.749320772231242E-1    4.365372791692877E-1   -3.703727096046416E-2   -1.451483279470336E-2   -3.480318946791163E-2   -1.578478507141781E-2   -1.078425869065120E-1    5.079280785640619E-1
 1.001112688215000E+10  -2.737967626381261E-1    4.371656905788027E-1   -3.740387679022995E-2   -1.450422072566000E-2   -3.514886485636378E-2   -1.571610485528159E-2   -1.070059372494277E-1    5.081991656524056E-1
 1.001113699872500E+10  -2.724411123454353E-1    4.379299859006219E-1   -3.771191595005887E-2   -1.450903110246978E-2   -3.549192066707483E-2   -1.576153380402314E-2   -1.063251606729958E-1    5.081911698639917E-1
 1.001114711530000E+10  -2.713327474858145E-1    4.386129587533023E-1   -3.787499074109302E-2   -1.454036666857405E-2   -3.581352322748109E-2   -1.581884215470683E-2   -1.056087614727973E-1    5.083711260956721E-1
 1.001115723187500E+10  -2.699704925277093E-1    4.392679246571817E-1   -3.828413633015234E-2   -1.445136255480219E-2   -3.614243257751747E-2   -1.586726503016314E-2   -1.048234164244478E-1    5.085763254425618E-1
 1.001116734845000E+10  -2.686164073508980E-1    4.398495018897226E-1   -3.859637137597428E-2   -1.451847901483978E-2   -3.636453355461228E-2   -1.592755568699024E-2   -1.040291862773182E-1    5.088269610006934E-1
 1.001117746502500E+10  -2.673336748622489E-1    4.407175272782957E-1   -3.881621850931473E-2   -1.468323680948554E-2   -3.663787197005672E-2   -1.583776593839219E-2   -1.034742776194803E-1    5.087407862076407E-1
 1.001118758160000E+10  -2.660789752167731E-1    4.415009192217945E-1   -3.924681384210419E-2   -1.464193250867909E-2   -3.708591773025101E-2   -1.584391505148606E-2   -1.026964519504151E-1    5.089098338194895E-1
 1.001119769817500E+10  -2.647222339556733E-1    4.419771173431259E-1   -3.960057164540322E-2   -1.469863280819864E-2   -3.742121174689586E-2   -1.590698137550765E-2   -1.018427152662319E-1    5.090740293319449E-1
 1.001120781475000E+10  -2.634094516503837E-1    4.427196945694082E-1   -3.989947733464758E-2   -1.456165495681066E-2   -3.766970558728863E-2   -1.600316857880346E-2   -1.011724533025866E-1    5.091469693778158E-1
