#  HZ   S   RI   R     50.00 
! Rohde & Schwarz Vector Network Analyzer 
! Rohde-Schwarz,ZNB20-2Port,1311601062101988,3.16
! Created: UTC 12/23/2023, 3:41:06 AM
! freq[Hz]                re:S11                  im:S11                  re:S21                  im:S21                  re:S12                  im:S12                  re:S22                  im:S22
 1.001010682700000E+10  -3.588931889077402E-1    3.717923430594799E-1   -2.077663965752800E-2   -1.314328113168381E-2   -1.908200057219735E-2   -1.363724149407966E-2   -1.748068224375480E-1    4.885642436023221E-1
 1.001011766487500E+10  -3.581205724673093E-1    3.723551945020630E-1   -2.076454238657357E-2   -1.322667021358545E-2   -1.942616268714419E-2   -1.364336288551035E-2   -1.741453077642545E-1    4.888935202056106E-1
 1.001012850275000E+10  -3.574302077141197E-1    3.731422230942532E-1   -2.093326713227420E-2   -1.316363504093444E-2   -1.942402878251549E-2   -1.367682597345352E-2   -1.733727669990952E-1    4.890528779767160E-1
 1.001013934062500E+10  -3.566433007278051E-1    3.737828293517098E-1   -2.109554398921653E-2   -1.313426620026904E-2   -1.964178314753171E-2   -1.374617523801645E-2   -1.726986331119018E-1    4.894120575598822E-1
 1.001015017850000E+10  -3.562198386985581E-1    3.744305915478141E-1   -2.104632683604597E-2   -1.318825336625547E-2   -1.953842479390917E-2   -1.383163878652123E-2   -1.721144949317717E-1    4.896399741699871E-1
 1.001016101637500E+10  -3.553953115599515E-1    3.751454268479243E-1   -2.128632927470486E-2   -1.316056188322650E-2   -1.981668603702610E-2   -1.367751419802723E-2   -1.713655083787931E-1    4.899778359098208E-1
 1.001017185425000E+10  -3.546983405440378E-1    3.757883931670357E-1   -2.117803002570622E-2   -1.320991054110597E-2   -1.987005920639353E-2   -1.384836682059608E-2   -1.706400114180760E-1    4.901813600953230E-1
 1.001018269212500E+10  -3.537648673327133E-1    3.764566063146049E-1   -2.139716558303912E-2   -1.325046444419231E-2   -2.002992221258132E-2   -1.372992068307198E-2   -1.700274380089580E-1    4.903863606916861E-1
 1.001019353000000E+10  -3.532957739905364E-1    3.770924418165011E-1   -2.164190800766513E-2   -1.326611405219614E-2   -2.011959722069692E-2   -1.387144815153286E-2   -1.693263598436778E-1    4.906534448177245E-1
 1.001020436787500E+10  -3.525546976126252E-1    3.778009102171890E-1   -2.170583260891707E-2   -1.316303018532852E-2   -2.015812072562457E-2   -1.371831272580164E-2   -1.688406699533243E-1    4.907880500797586E-1
 1.001021520575000E+10  -3.517931196730079E-1    3.783793014820989E-1   -2.167104805450835E-2   -1.318647516299697E-2   -2.024571498055116E-2   -1.399120494389023E-2   -1.679333131894061E-1    4.911326964067690E-1
 1.001022604362500E+10  -3.509340782633857E-1    3.790354894077403E-1   -2.177616969777697E-2   -1.339691819691762E-2   -2.028317437596813E-2   -1.386528680848355E-2   -1.672786794613882E-1    4.913207429945254E-1
 1.001023688150000E+10  -3.504566338031594E-1    3.797847368974079E-1   -2.205661808101948E-2   -1.332350357989177E-2   -2.040155207161044E-2   -1.394016468394456E-2   -1.665596358136247E-1    4.918538633219080E-1
 1.001024771937500E+10  -3.496987666643614E-1    3.804920559013836E-1   -2.210673828249965E-2   -1.336744293656950E-2   -2.053982879523456E-2   -1.410063858491654E-2   -1.660729975139165E-1    4.919292106821960E-1
 1.001025855725000E+10  -3.488492090604132E-1    3.811674382652384E-1   -2.220881095273766E-2   -1.329387745933914E-2   -2.068070766691647E-2   -1.401062323608945E-2   -1.651644868314479E-1    4.921296700313861E-1
 1.001026939512500E+10  -3.479926890102810E-1    3.818208220595125E-1   -2.237587057539325E-2   -1.354650531702033E-2   -2.089206508421623E-2   -1.378323145516057E-2   -1.644066224858853E-1    4.923703833168935E-1
 1.001028023300000E+10  -3.472994594217708E-1    3.824753544545991E-1   -2.236140416325652E-2   -1.352530947701603E-2   -2.108177505954368E-2   -1.396690332623339E-2   -1.637619795492421E-1    4.925387453764405E-1
 1.001029107087500E+10  -3.466584395976514E-1    3.831407429926672E-1   -2.252887120979325E-2   -1.354231484457996E-2   -2.111316159359915E-2   -1.394870197542220E-2   -1.631535398049661E-1    4.928640445936994E-1
 1.001030190875000E+10  -3.459266792783563E-1    3.839519433771358E-1   -2.273928809594703E-2   -1.345057165346814E-2   -2.122624544543674E-2   -1.415872502926583E-2   -1.624538142275542E-1    4.930488751030561E-1
 1.001031274662500E+10  -3.452015794164458E-1    3.845446149291391E-1   -2.287031247839211E-2   -1.362628464829823E-2   -2.141573629696970E-2   -1.407482966728166E-2   -1.618006328419363E-1    4.933595177400641E-1
 1.001032358450000E+10  -3.443658285697282E-1    3.851547661005472E-1   -2.298479921033036E-2   -1.347221008871761E-2   -2.136890834575621E-2   -1.410624640492394E-2   -1.610390435072817E-1    4.935820573778109E-1
 1.001033442237500E+10  -3.434875217816859E-1    3.859537159296856E-1   -2.304523084619858E-2   -1.355776165194129E-2   -2.154997764844597E-2   -1.411510943281541E-2   -1.603020962726654E-1    4.937939897718127E-1
 1.001034526025000E+10  -3.429189347325184E-1    3.866157497868728E-1   -2.313035652333039E-2   -1.363103783217937E-2   -2.172773533710034E-2   -1.419686777065643E-2   -1.596735084597639E-1    4.939290716943257E-1
 1.001035609812500E+10  -3.420216216905522E-1    3.873174729213332E-1   -2.348271009879602E-2   -1.347737954870622E-2   -2.173734730831264E-2   -1.420692994828910E-2   -1.590152939670429E-1    4.942339601112748E-1
 1.001036693600000E+10  -3.412702207386323E-1    3.879163966019670E-1   -2.336579660732591E-2   -1.348577651085667E-2   -2.204587705620858E-2   -1.424264349837073E-2   -1.582237981932030E-1    4.945270461465078E-1
 1.001037777387500E+10  -3.403270017761867E-1    3.886905623282618E-1   -2.359224174982492E-2   -1.359424558270255E-2   -2.200152781763046E-2   -1.418517288419160E-2   -1.576114723361447E-1    4.948541807647185E-1
 1.001038861175000E+10  -3.397275071041689E-1    3.893491450472255E-1   -2.373796768325184E-2   -1.368747926889315E-2   -2.223924524028156E-2   -1.414708202395740E-2   -1.567826072710541E-1    4.950059048539255E-1
 1.001039944962500E+10  -3.389502453789756E-1    3.900625310729214E-1   -2.395433684644192E-2   -1.355499464515916E-2   -2.239263804302737E-2   -1.422574618074744E-2   -1.560775450092698E-1    4.951262524355852E-1
 1.001041028750000E+10  -3.381339982235607E-1    3.907034016695765E-1   -2.406098427131315E-2   -1.367405779066542E-2   -2.254021984272225E-2   -1.402668268157117E-2   -1.554560791282796E-1    4.954388986229489E-1
 1.001042112537500E+10  -3.372345515886280E-1    3.913973735130628E-1   -2.420249641735114E-2   -1.362433206742152E-2   -2.265576166515468E-2   -1.431689796608086E-2   -1.547743384027271E-1    4.957166907470520E-1
 1.001043196325000E+10  -3.365043240572242E-1    3.919550592254286E-1   -2.428738399989154E-2   -1.361067326539760E-2   -2.263642664547004E-2   -1.432290792236556E-2   -1.542071049975450E-1    4.959983605495242E-1
 1.001044280112500E+10  -3.357299540995012E-1    3.928369190657091E-1   -2.446763714772068E-2   -1.385042277595517E-2   -2.289355155458042E-2   -1.427113829539990E-2   -1.533446161217325E-1    4.961160585590552E-1
 1.001045363900000E+10  -3.348842416598021E-1    3.934330157775681E-1   -2.465827971725425E-2   -1.384925227196217E-2   -2.296579079786919E-2   -1.446992176674983E-2   -1.527288231711178E-1    4.964971216981655E-1
 1.001046447687500E+10  -3.341242261643032E-1    3.940269256241526E-1   -2.471329153341333E-2   -1.373483491405907E-2   -2.313291767549188E-2   -1.435034152941814E-2   -1.519387081598388E-1    4.965102677897991E-1
 1.001047531475000E+10  -3.333356200079178E-1    3.946372079467747E-1   -2.499690276844085E-2   -1.374823200935674E-2   -2.327312040776073E-2   -1.437445304167077E-2   -1.513172273597885E-1    4.967084937507685E-1
 1.001048615262500E+10  -3.324787256291977E-1    3.954791583571431E-1   -2.502387999674484E-2   -1.371351425751942E-2   -2.351480994457964E-2   -1.449693472217371E-2   -1.505139340015037E-1    4.969718426113034E-1
 1.001049699050000E+10  -3.315691733318759E-1    3.960873203851372E-1   -2.523883737564154E-2   -1.372581177444474E-2   -2.367975478664867E-2   -1.440530413247899E-2   -1.498476430813512E-1    4.971688778602879E-1
 1.001050782837500E+10  -3.308867517230845E-1    3.968074210638702E-1   -2.537388943230090E-2   -1.379498283186032E-2   -2.377843670920218E-2   -1.438276996117792E-2   -1.492534525499530E-1    4.973824844972438E-1
 1.001051866625000E+10  -3.300978986715921E-1    3.975723031482890E-1   -2.563875500411304E-2   -1.368597900913745E-2   -2.398165177545540E-2   -1.435602799288319E-2   -1.484978623596320E-1    4.975313193085708E-1
 1.001052950412500E+10  -3.292060544118025E-1    3.981226388260927E-1   -2.577284998724346E-2   -1.369997173630106E-2   -2.403931369009575E-2   -1.451953521815328E-2   -1.477327403788021E-1    4.977879372104698E-1
 1.001054034200000E+10  -3.282154132429737E-1    3.990001136940647E-1   -2.586603039311841E-2   -1.376790867518658E-2   -2.432486678419863E-2   -1.443138563295177E-2   -1.470891937324673E-1    4.981090122574083E-1
 1.001055117987500E+10  -3.275606278837041E-1    3.995672926248935E-1   -2.601126792136959E-2   -1.382544849119886E-2   -2.419417872745246E-2   -1.449067729260413E-2   -1.463569642921931E-1    4.982260087129626E-1
 1.001056201775000E+10  -3.265929591546802E-1    4.003001747125367E-1   -2.622506754439869E-2   -1.385316162714255E-2   -2.454583832045185E-2   -1.455019319393068E-2   -1.456764688333443E-1    4.985630091386963E-1
 1.001057285562500E+10  -3.257265161583687E-1    4.011598001062102E-1   -2.632257176988310E-2   -1.389143064254933E-2   -2.469480666054132E-2   -1.455467489998115E-2   -1.448407238672108E-1    4.986793759052989E-1
 1.001058369350000E+10  -3.246509451767298E-1    4.015140733327330E-1   -2.644526101467380E-2   -1.385973834332978E-2   -2.478647829633977E-2   -1.449465415406718E-2   -1.442379222936169E-1    4.989253887946675E-1
 1.001059453137500E+10  -3.239110337065599E-1    4.023951772299666E-1   -2.664998144951291E-2   -1.394674705697433E-2   -2.487293226943969E-2   -1.459599895399622E-2   -1.434297708290805E-1    4.990335229290058E-1
 1.001060536925000E+10  -3.230150258066401E-1    4.030091956704535E-1   -2.686463742433036E-2   -1.402105017149372E-2   -2.524205824222672E-2   -1.460746347586633E-2   -1.427433882779181E-1    4.993121203342161E-1
 1.001061620712500E+10  -3.221083691128861E-1    4.038619439147252E-1   -2.690698452888012E-2   -1.398776576814029E-2   -2.533570457943559E-2   -1.449539796330754E-2   -1.419381860304819E-1    4.995793072677564E-1
 1.001062704500000E+10  -3.210792300416964E-1    4.044824531941925E-1   -2.718801068820969E-2   -1.395996171554480E-2   -2.563618653446773E-2   -1.456682847386783E-2   -1.413763825425695E-1    4.998103224377677E-1
 1.001063788287500E+10  -3.203280156877764E-1    4.050924375199448E-1   -2.725878000040315E-2   -1.392810219490919E-2   -2.561813232561543E-2   -1.467036351630719E-2   -1.407539999237181E-1    4.999416921745690E-1
 1.001064872075000E+10  -3.194584997439943E-1    4.059039233352635E-1   -2.756831439233365E-2   -1.393948025847371E-2   -2.588471246813136E-2   -1.482999753016818E-2   -1.399427939841582E-1    5.002198130606494E-1
 1.001065955862500E+10  -3.185503601022548E-1    4.065715196009021E-1   -2.776511509909617E-2   -1.399140881545536E-2   -2.592611817827594E-2   -1.482189690915931E-2   -1.389908895318830E-1    5.003903522971886E-1
 1.001067039650000E+10  -3.176581937824123E-1    4.074232355912797E-1   -2.792046745679106E-2   -1.392331517671198E-2   -2.616696555490456E-2   -1.487949601872986E-2   -1.383147711162745E-1    5.005308672628195E-1
 1.001068123437500E+10  -3.166417083182186E-1    4.080132251712770E-1   -2.814705491749136E-2   -1.395378859015571E-2   -2.634080938325246E-2   -1.476829993619524E-2   -1.377167471160690E-1    5.008677229441708E-1
 1.001069207225000E+10  -3.156604678511152E-1    4.086108782486609E-1   -2.843091572957939E-2   -1.391706583907244E-2   -2.653056101729976E-2   -1.486163887626017E-2   -1.369612833259044E-1    5.010382203671941E-1
 1.001070291012500E+10  -3.147447961643640E-1    4.093818612958151E-1   -2.846022772832146E-2   -1.390771114604861E-2   -2.679647227065573E-2   -1.466845053388672E-2   -1.362066393730031E-1    5.010429447378340E-1
 1.001071374800000E+10  -3.137722093810628E-1    4.100346014074943E-1   -2.878050747619999E-2   -1.406735329456577E-2   -2.696605229990559E-2   -1.479445864212910E-2   -1.354848497830654E-1    5.012328086802258E-1
 1.001072458587500E+10  -3.129156137145881E-1    4.108436225479057E-1   -2.898755315387850E-2   -1.400900713840240E-2   -2.720594298138419E-2   -1.479494602131736E-2   -1.347339145699725E-1    5.014660186665677E-1
 1.001073542375000E+10  -3.117873248789891E-1    4.114289675586886E-1   -2.914289570909704E-2   -1.415483709075297E-2   -2.731514533024607E-2   -1.489970769566293E-2   -1.340961461842241E-1    5.018270263598781E-1
 1.001074626162500E+10  -3.110334008436104E-1    4.120590258056363E-1   -2.924931797296194E-2   -1.417496502073652E-2   -2.751753630322732E-2   -1.489796155886565E-2   -1.332958287858814E-1    5.019706607600564E-1
 1.001075709950000E+10  -3.099812348118158E-1    4.128212862225722E-1   -2.948656473247402E-2   -1.418024749437972E-2   -2.771685009485167E-2   -1.496039914995545E-2   -1.325631297483943E-1    5.022006759464690E-1
 1.001076793737500E+10  -3.088752484658963E-1    4.133949205760119E-1   -2.974114996304619E-2   -1.417402413781167E-2   -2.783540088597987E-2   -1.497077787215550E-2   -1.318898599627885E-1    5.023522058925342E-1
 1.001077877525000E+10  -3.080330228890465E-1    4.143121435341396E-1   -2.996383155997812E-2   -1.417796831181811E-2   -2.814876541496575E-2   -1.503152629459409E-2   -1.312653833869442E-1    5.025131386574265E-1
 1.001078961312500E+10  -3.068721354195527E-1    4.149448894750288E-1   -3.013586285732051E-2   -1.413357520705802E-2   -2.821458489430595E-2   -1.499844187509264E-2   -1.303790371399213E-1    5.027696520398299E-1
 1.001080045100000E+10  -3.058502180333851E-1    4.157087729903171E-1   -3.043614734737649E-2   -1.409463718512585E-2   -2.850006330897798E-2   -1.499668853533265E-2   -1.297075934827653E-1    5.028581584979944E-1
 1.001081128887500E+10  -3.049616292731030E-1    4.162761048645842E-1   -3.070703688358545E-2   -1.411218555277131E-2   -2.878066062216040E-2   -1.490961789823345E-2   -1.288208306405926E-1    5.031325271567415E-1
 1.001082212675000E+10  -3.038436188917242E-1    4.170468272224003E-1   -3.078674514106974E-2   -1.403969267248924E-2   -2.893846686263309E-2   -1.504612114157709E-2   -1.281181544073855E-1    5.033661589705846E-1
 1.001083296462500E+10  -3.027974196497884E-1    4.177869424992018E-1   -3.091009314750890E-2   -1.420104748605805E-2   -2.920655520631255E-2   -1.506984238919361E-2   -1.274071820394566E-1    5.034553501949521E-1
 1.001084380250000E+10  -3.017217249976344E-1    4.186172183742836E-1   -3.131739455643442E-2   -1.412187970509890E-2   -2.936089114252090E-2   -1.510963097474407E-2   -1.267467491058789E-1    5.035861668393669E-1
 1.001085464037500E+10  -3.006867325575656E-1    4.191581118147031E-1   -3.161696928615802E-2   -1.419060154851864E-2   -2.951653208407154E-2   -1.519478490006595E-2   -1.259967239413451E-1    5.038194151295582E-1
 1.001086547825000E+10  -2.996669663025232E-1    4.198506365904132E-1   -3.178008199018882E-2   -1.421908544916916E-2   -2.973678922697089E-2   -1.511529741203479E-2   -1.251914767248747E-1    5.039977228226573E-1
 1.001087631612500E+10  -2.984790218470015E-1    4.206602674898752E-1   -3.196779807450096E-2   -1.414124111253860E-2   -3.000323425107190E-2   -1.512829939938415E-2   -1.245376498012404E-1    5.040382354689421E-1
 1.001088715400000E+10  -2.974726608115812E-1    4.213636343964456E-1   -3.228502045138672E-2   -1.428848294781735E-2   -3.037328652854236E-2   -1.527258777067056E-2   -1.236438966811066E-1    5.043625837148134E-1
 1.001089799187500E+10  -2.963860090994497E-1    4.221343895462779E-1   -3.239844416353549E-2   -1.439529845012353E-2   -3.044573427397970E-2   -1.530500718460864E-2   -1.230819135138487E-1    5.045195858511872E-1
 1.001090882975000E+10  -2.952281692054643E-1    4.227629411073380E-1   -3.273045054981354E-2   -1.437092149269225E-2   -3.067973708210964E-2   -1.516227564868557E-2   -1.221783325725719E-1    5.047378405029401E-1
 1.001091966762500E+10  -2.942335416214126E-1    4.233887807523796E-1   -3.300098362956416E-2   -1.431592965213640E-2   -3.108781991839576E-2   -1.520013241838249E-2   -1.213969800574055E-1    5.047432566484161E-1
 1.001093050550000E+10  -2.930194361297457E-1    4.242652390148143E-1   -3.327141063808624E-2   -1.432811071553523E-2   -3.139619817595776E-2   -1.532237813274712E-2   -1.206864071662013E-1    5.049882455671250E-1
 1.001094134337500E+10  -2.917124696273384E-1    4.250169281973274E-1   -3.334663200505407E-2   -1.435789075595946E-2   -3.156961219988101E-2   -1.526389859541651E-2   -1.200034098380377E-1    5.052090716334763E-1
 1.001095218125000E+10  -2.905220879137366E-1    4.255626749076306E-1   -3.377229152150101E-2   -1.426474709715110E-2   -3.177989769107434E-2   -1.529575663038961E-2   -1.189954707954712E-1    5.053584283120369E-1
 1.001096301912500E+10  -2.895281233092342E-1    4.265350031375829E-1   -3.401010616533071E-2   -1.433592751458455E-2   -3.198166829080203E-2   -1.530151773458618E-2   -1.183790239971135E-1    5.055189360103873E-1
 1.001097385700000E+10  -2.883450231078692E-1    4.270186377253080E-1   -3.438056079578148E-2   -1.430383172661289E-2   -3.220247945889723E-2   -1.548744843193432E-2   -1.176333777800061E-1    5.058811241517039E-1
 1.001098469487500E+10  -2.873077081101103E-1    4.278188438802092E-1   -3.464214163910589E-2   -1.427558519897417E-2   -3.260339128879727E-2   -1.554835462835349E-2   -1.168921057598686E-1    5.056929395770666E-1
 1.001099553275000E+10  -2.858873237359700E-1    4.286749314332968E-1   -3.485540663459093E-2   -1.432112460809189E-2   -3.278884667329630E-2   -1.558453718767023E-2   -1.160850880452599E-1    5.059609342038274E-1
 1.001100637062500E+10  -2.847698776497187E-1    4.292196493964989E-1   -3.529718926198895E-2   -1.416132137078244E-2   -3.312196526601988E-2   -1.537159083227354E-2   -1.154880415443981E-1    5.060579734789661E-1
 1.001101720850000E+10  -2.835565351260224E-1    4.300082668793611E-1   -3.544850093119373E-2   -1.433723394289770E-2   -3.336563302780818E-2   -1.547765095747594E-2   -1.144775722665925E-1    5.063452420685158E-1
 1.001102804637500E+10  -2.822821596135333E-1    4.308377660989943E-1   -3.582302388008108E-2   -1.430740694978703E-2   -3.369812985569306E-2   -1.554710349061505E-2   -1.137319854940882E-1    5.065485876907175E-1
 1.001103888425000E+10  -2.810777297517264E-1    4.312329989069503E-1   -3.611720295179712E-2   -1.446607903604777E-2   -3.392473448445690E-2   -1.544037442551782E-2   -1.130283072722950E-1    5.066943478502600E-1
 1.001104972212500E+10  -2.798904253620385E-1    4.321830193861382E-1   -3.640776600433919E-2   -1.456626750279777E-2   -3.433033897931676E-2   -1.544446093730811E-2   -1.122544566102378E-1    5.069143474762167E-1
 1.001106056000000E+10  -2.785357389313685E-1    4.330939548729668E-1   -3.670566576122646E-2   -1.449679911138101E-2   -3.453218247994704E-2   -1.555578435931033E-2   -1.114816337266867E-1    5.070479574710698E-1
 1.001107139787500E+10  -2.770465243605580E-1    4.336709934768067E-1   -3.694050439481261E-2   -1.447132397163184E-2   -3.489086055035830E-2   -1.546337496421074E-2   -1.107021634271088E-1    5.072947750364127E-1
 1.001108223575000E+10  -2.757665987339877E-1    4.345947196354644E-1   -3.725287565521617E-2   -1.451091181928238E-2   -3.519138638443523E-2   -1.558128186545498E-2   -1.099955814852226E-1    5.072538906350401E-1
