#  HZ   S   RI   R     50.00 
! Rohde & Schwarz Vector Network Analyzer 
! Rohde-Schwarz,ZNB20-2Port,1311601062101988,3.16
! Created: UTC 12/23/2023, 3:43:00 AM
! freq[Hz]                re:S11                  im:S11                  re:S21                  im:S21                  re:S12                  im:S12                  re:S22                  im:S22
 1.000991417800000E+10  -3.699184198083864E-1    3.600583307047971E-1   -1.930698205839563E-2   -1.296543216550619E-2   -1.785899186946692E-2   -1.351136859363790E-2   -1.867222241591860E-1    4.840134995221335E-1
 1.000992574362500E+10  -3.689288333744881E-1    3.608026040326373E-1   -1.945702971796300E-2   -1.314649166560362E-2   -1.802292322250226E-2   -1.341714651334262E-2   -1.859483669055316E-1    4.842618701240787E-1
 1.000993730925000E+10  -3.683716533048792E-1    3.614194438489655E-1   -1.961182219815217E-2   -1.292421348939783E-2   -1.810735394792913E-2   -1.347221926283388E-2   -1.852151319336040E-1    4.844076656943145E-1
 1.000994887487500E+10  -3.676707223493996E-1    3.622603085211830E-1   -1.958827604590013E-2   -1.311330975038111E-2   -1.821276025725788E-2   -1.360874302263553E-2   -1.845065813108141E-1    4.846728062785781E-1
 1.000996044050000E+10  -3.670153262335139E-1    3.628608608276112E-1   -1.967464371433852E-2   -1.304278877012642E-2   -1.836821540832378E-2   -1.350215545392670E-2   -1.839964940927629E-1    4.849557454236919E-1
 1.000997200612500E+10  -3.663426893663433E-1    3.635269454240682E-1   -1.975916960321192E-2   -1.300090383028609E-2   -1.850686523245842E-2   -1.353964796164036E-2   -1.830415041413516E-1    4.852389246605760E-1
 1.000998357175000E+10  -3.655581361240372E-1    3.643831771119879E-1   -1.990684600235000E-2   -1.307784786752503E-2   -1.859220388206513E-2   -1.361032176375041E-2   -1.824028091894916E-1    4.856436289295601E-1
 1.000999513737500E+10  -3.647651699484112E-1    3.651265843793418E-1   -2.007079062971328E-2   -1.302428847833399E-2   -1.852297573039591E-2   -1.349019370177431E-2   -1.816172132357028E-1    4.859785162769406E-1
 1.001000670300000E+10  -3.640530972017052E-1    3.657735996013017E-1   -2.010477621840537E-2   -1.297219573083361E-2   -1.863914208552353E-2   -1.361245511419745E-2   -1.809656478267803E-1    4.861149475764381E-1
 1.001001826862500E+10  -3.634410726471746E-1    3.664449828422550E-1   -2.029940003467891E-2   -1.310324393929710E-2   -1.874734904149081E-2   -1.371004666156557E-2   -1.801926711716057E-1    4.864368678251115E-1
 1.001002983425000E+10  -3.627699523999598E-1    3.671726067851341E-1   -2.042645251442087E-2   -1.313203669664425E-2   -1.897641158706176E-2   -1.363414279335745E-2   -1.795936314305569E-1    4.868954164506822E-1
 1.001004139987500E+10  -3.620984931164416E-1    3.679516380502534E-1   -2.041271381837531E-2   -1.302227484717483E-2   -1.909064899361275E-2   -1.374823147644670E-2   -1.788774602845655E-1    4.868818127089845E-1
 1.001005296550000E+10  -3.611693910337792E-1    3.685302261768853E-1   -2.045444315513600E-2   -1.305793833382778E-2   -1.924627838595488E-2   -1.365045674940563E-2   -1.781027465244875E-1    4.873926493133806E-1
 1.001006453112500E+10  -3.605479141011446E-1    3.693261920493410E-1   -2.065879061846877E-2   -1.306330414381484E-2   -1.918477147409962E-2   -1.363419511979713E-2   -1.772668423104031E-1    4.874737538482453E-1
 1.001007609675000E+10  -3.597901583637220E-1    3.700910489609102E-1   -2.070235388411535E-2   -1.336502725430059E-2   -1.938394790320169E-2   -1.353227055390774E-2   -1.766947748480755E-1    4.878691882460785E-1
 1.001008766237500E+10  -3.590825581351403E-1    3.708232336734430E-1   -2.081365449613421E-2   -1.323463424627453E-2   -1.958988178255485E-2   -1.382907847950023E-2   -1.758708163885892E-1    4.879656579258826E-1
 1.001009922800000E+10  -3.582497481629634E-1    3.714882522992669E-1   -2.093840829885033E-2   -1.330093127091306E-2   -1.962170781549403E-2   -1.382549653670570E-2   -1.750777636506020E-1    4.883180971325990E-1
 1.001011079362500E+10  -3.576475174184518E-1    3.720021407048333E-1   -2.101386524625308E-2   -1.334195598701768E-2   -1.967005069538416E-2   -1.376115596090649E-2   -1.744456433262287E-1    4.886837860897752E-1
 1.001012235925000E+10  -3.568203770510657E-1    3.728900349580068E-1   -2.121587339000684E-2   -1.334893818100046E-2   -1.979288448231501E-2   -1.381844387394547E-2   -1.735532464587628E-1    4.889407434914760E-1
 1.001013392487500E+10  -3.560086950492704E-1    3.736334449512576E-1   -2.128412777666111E-2   -1.325305502826635E-2   -1.983770904725769E-2   -1.386381749614008E-2   -1.728463771483748E-1    4.891508342926289E-1
 1.001014549050000E+10  -3.550947875255153E-1    3.744775811619526E-1   -2.150068331410382E-2   -1.331817857689768E-2   -2.007868786020027E-2   -1.386346890334568E-2   -1.722927796010535E-1    4.894822729651265E-1
 1.001015705612500E+10  -3.545820286294868E-1    3.751122413967937E-1   -2.161494613594238E-2   -1.327659694909496E-2   -2.019425570435704E-2   -1.379619012238286E-2   -1.714586602228364E-1    4.897233492863053E-1
 1.001016862175000E+10  -3.538155239749377E-1    3.758435713260127E-1   -2.174205705691178E-2   -1.320641726303880E-2   -2.024892363143276E-2   -1.381833407037053E-2   -1.709022094232073E-1    4.899517667384826E-1
 1.001018018737500E+10  -3.529517900137736E-1    3.765075263424065E-1   -2.182489849436760E-2   -1.333262615928653E-2   -2.041429744730845E-2   -1.390928173158351E-2   -1.700625192857109E-1    4.903152873556612E-1
 1.001019175300000E+10  -3.524207014123231E-1    3.773603563306098E-1   -2.191420124936518E-2   -1.336314128074961E-2   -2.054915986323968E-2   -1.387594630010087E-2   -1.693672159039687E-1    4.905417406837062E-1
 1.001020331862500E+10  -3.514664996564060E-1    3.780443510915341E-1   -2.205189405458641E-2   -1.341020675801273E-2   -2.079540572992546E-2   -1.385366549182661E-2   -1.684678747640884E-1    4.907361178846961E-1
 1.001021488425000E+10  -3.507676081299442E-1    3.787126562264151E-1   -2.212718554573543E-2   -1.338469440041206E-2   -2.064001951062751E-2   -1.399322738547683E-2   -1.677896343034659E-1    4.909393191214469E-1
 1.001022644987500E+10  -3.499175362573631E-1    3.794850537046977E-1   -2.237895713544311E-2   -1.352165774587019E-2   -2.085898249850624E-2   -1.405730188391839E-2   -1.673129150013503E-1    4.914505138428282E-1
 1.001023801550000E+10  -3.491422130559058E-1    3.802796433945307E-1   -2.241687203587877E-2   -1.355264734427866E-2   -2.104090941170061E-2   -1.401998241806747E-2   -1.663805723991071E-1    4.915512011166405E-1
 1.001024958112500E+10  -3.482842224786465E-1    3.808781594107197E-1   -2.274794958097586E-2   -1.346555573714128E-2   -2.122163308414758E-2   -1.407746086972207E-2   -1.657135758902042E-1    4.918637947402555E-1
 1.001026114675000E+10  -3.474627671887014E-1    3.813968707188482E-1   -2.271459793302818E-2   -1.357388842255554E-2   -2.117972069693344E-2   -1.408728836930949E-2   -1.650037641749638E-1    4.919711700714478E-1
 1.001027271237500E+10  -3.467463965772788E-1    3.823288732378153E-1   -2.269664933749490E-2   -1.349705205014607E-2   -2.141108994647392E-2   -1.406647374344744E-2   -1.642477786454268E-1    4.924061092554561E-1
 1.001028427800000E+10  -3.459237024407070E-1    3.829803050802647E-1   -2.305622947176034E-2   -1.343535457954085E-2   -2.155501628803330E-2   -1.398254439320337E-2   -1.634174031955735E-1    4.926104074490932E-1
 1.001029584362500E+10  -3.450919441984620E-1    3.837753495069731E-1   -2.316095753349848E-2   -1.355054834320628E-2   -2.163733187639744E-2   -1.396945126208310E-2   -1.626681947026388E-1    4.929442390602899E-1
 1.001030740925000E+10  -3.441733316707236E-1    3.845491828631815E-1   -2.340808320048228E-2   -1.352240052709510E-2   -2.175479728143601E-2   -1.415539279558853E-2   -1.620303489461929E-1    4.932529406170442E-1
 1.001031897487500E+10  -3.433757533287690E-1    3.852203161736842E-1   -2.339573270724956E-2   -1.344057224457607E-2   -2.206098394540747E-2   -1.417612747174457E-2   -1.612693452759805E-1    4.932819789522585E-1
 1.001033054050000E+10  -3.426341247229714E-1    3.858809891450936E-1   -2.354176522974284E-2   -1.344808382484885E-2   -2.205132682713505E-2   -1.414895661652781E-2   -1.604756178960564E-1    4.935988131281616E-1
 1.001034210612500E+10  -3.418806513801331E-1    3.866993958841186E-1   -2.369044660830728E-2   -1.354941954866935E-2   -2.217872394762612E-2   -1.418268825708609E-2   -1.597335723332644E-1    4.939452264295501E-1
 1.001035367175000E+10  -3.410567997859709E-1    3.873699947068837E-1   -2.400670979933624E-2   -1.356048153181023E-2   -2.229239137867266E-2   -1.420511120645905E-2   -1.590151440040701E-1    4.942284692294583E-1
 1.001036523737500E+10  -3.401206951937601E-1    3.880950468099936E-1   -2.406744697232149E-2   -1.358465687170307E-2   -2.231755221794524E-2   -1.424082858067089E-2   -1.583365268425418E-1    4.945191928164455E-1
 1.001037680300000E+10  -3.393155689495252E-1    3.888394044840056E-1   -2.409188561285120E-2   -1.378661299380900E-2   -2.270920602851679E-2   -1.435435681714776E-2   -1.574771553118997E-1    4.947322068331245E-1
 1.001038836862500E+10  -3.385310069982609E-1    3.895102596466617E-1   -2.435110031813333E-2   -1.356673972741523E-2   -2.278513530038039E-2   -1.408529931762997E-2   -1.567992324810704E-1    4.947235330686773E-1
 1.001039993425000E+10  -3.376711371051638E-1    3.903946569695649E-1   -2.439551748178199E-2   -1.374847515899667E-2   -2.276502086941184E-2   -1.427255753110784E-2   -1.560790896047348E-1    4.950123950114069E-1
 1.001041149987500E+10  -3.368266181385330E-1    3.910700186680847E-1   -2.459516964008248E-2   -1.387983342371922E-2   -2.311342445109378E-2   -1.433330123048036E-2   -1.553220466271035E-1    4.953532530968839E-1
 1.001042306550000E+10  -3.358135459247523E-1    3.917260488525500E-1   -2.472023166386411E-2   -1.383540068037409E-2   -2.335622859475370E-2   -1.433820327776606E-2   -1.544247190883341E-1    4.956958188307227E-1
 1.001043463112500E+10  -3.349741309220787E-1    3.924687488366575E-1   -2.494923093386130E-2   -1.370670515024593E-2   -2.325916077342557E-2   -1.429822542613158E-2   -1.536870961291835E-1    4.959323764749599E-1
 1.001044619675000E+10  -3.341969894383801E-1    3.933145691125915E-1   -2.524110458462462E-2   -1.376503569246799E-2   -2.347685654352228E-2   -1.446448765931338E-2   -1.530835780671596E-1    4.960990011995869E-1
 1.001045776237500E+10  -3.331104479466564E-1    3.940586041912938E-1   -2.530969291394801E-2   -1.373536963891293E-2   -2.359165043198630E-2   -1.442125465550690E-2   -1.522773794270128E-1    4.963897664909434E-1
 1.001046932800000E+10  -3.324047087720214E-1    3.946266297199579E-1   -2.551159379542287E-2   -1.373040222016548E-2   -2.373873844540735E-2   -1.445421500583406E-2   -1.516242601174262E-1    4.965465087442007E-1
 1.001048089362500E+10  -3.314042202360793E-1    3.954460619064594E-1   -2.556930766694387E-2   -1.370249058577932E-2   -2.395208506635722E-2   -1.444250374052238E-2   -1.507721765218761E-1    4.968278499273569E-1
 1.001049245925000E+10  -3.304612805669143E-1    3.960338680119603E-1   -2.589205794118018E-2   -1.368173492586834E-2   -2.412319032539297E-2   -1.436123445142779E-2   -1.499121995541601E-1    4.968404113308089E-1
 1.001050402487500E+10  -3.297136096334343E-1    3.968543243042584E-1   -2.604761468804965E-2   -1.387002740687431E-2   -2.418350501958853E-2   -1.446174011631252E-2   -1.492210255865561E-1    4.971872843295443E-1
 1.001051559050000E+10  -3.287437454121722E-1    3.975526341165434E-1   -2.633045779117761E-2   -1.386238640100010E-2   -2.446992870043684E-2   -1.441688724591420E-2   -1.484354470241350E-1    4.975410824307677E-1
 1.001052715612500E+10  -3.277641929875179E-1    3.983639116319725E-1   -2.636717082515357E-2   -1.382778535500649E-2   -2.481381887065702E-2   -1.446602450837286E-2   -1.477172440594987E-1    4.976488700827112E-1
 1.001053872175000E+10  -3.268492772007553E-1    3.991024400445619E-1   -2.650982811905357E-2   -1.389779966630337E-2   -2.494322337243221E-2   -1.451530805690384E-2   -1.469397534630289E-1    4.979680869574277E-1
 1.001055028737500E+10  -3.259769251803215E-1    3.999087764043101E-1   -2.652800999142359E-2   -1.397502615234758E-2   -2.493941285860070E-2   -1.456271219756338E-2   -1.462843719014416E-1    4.981659715948403E-1
 1.001056185300000E+10  -3.248924608027057E-1    4.006878531211878E-1   -2.672432268642512E-2   -1.402929044887077E-2   -2.510504049257080E-2   -1.465099203219556E-2   -1.455678327246430E-1    4.983789715399829E-1
 1.001057341862500E+10  -3.240642014420182E-1    4.013605743610176E-1   -2.705656519201256E-2   -1.389146961502484E-2   -2.535247947514193E-2   -1.469793420963256E-2   -1.446378477126934E-1    4.986584001342254E-1
 1.001058498425000E+10  -3.230660830208589E-1    4.020447318541017E-1   -2.719483976163837E-2   -1.395216230082725E-2   -2.547628130045806E-2   -1.471023605717349E-2   -1.438272255702508E-1    4.987026360354123E-1
 1.001059654987500E+10  -3.222316824492739E-1    4.027297831944618E-1   -2.740711311266139E-2   -1.385088802166125E-2   -2.576516110873662E-2   -1.467880294290042E-2   -1.432052264506544E-1    4.990185371592534E-1
 1.001060811550000E+10  -3.211971239894042E-1    4.035361783915895E-1   -2.766185693271494E-2   -1.384903853974401E-2   -2.583069447461150E-2   -1.478063214727920E-2   -1.422978221388184E-1    4.992445448325076E-1
 1.001061968112500E+10  -3.202464823249001E-1    4.042356955769096E-1   -2.790422629720074E-2   -1.376274981263216E-2   -2.611330208740290E-2   -1.471697937171227E-2   -1.415941035089307E-1    4.995609562470923E-1
 1.001063124675000E+10  -3.192486388026144E-1    4.050619114379831E-1   -2.804270592929171E-2   -1.406292796747476E-2   -2.620536920656762E-2   -1.463910632610840E-2   -1.408119883365991E-1    4.996449049105252E-1
 1.001064281237500E+10  -3.182258125701642E-1    4.057396079376053E-1   -2.818366687491587E-2   -1.395902374188012E-2   -2.651430894639696E-2   -1.475543060902399E-2   -1.401143814650455E-1    4.998665991797814E-1
 1.001065437800000E+10  -3.171817136907089E-1    4.064734549216602E-1   -2.836751263864219E-2   -1.394866308099683E-2   -2.675371829135325E-2   -1.473681777054770E-2   -1.393063874250017E-1    5.001025233615949E-1
 1.001066594362500E+10  -3.162604975510792E-1    4.073094398891463E-1   -2.869117238005468E-2   -1.395496216648298E-2   -2.682538656368304E-2   -1.484304580842027E-2   -1.385782044968187E-1    5.003430815030677E-1
 1.001067750925000E+10  -3.150775099604207E-1    4.080280475947883E-1   -2.890430572226626E-2   -1.392910465207704E-2   -2.706621000249688E-2   -1.484967195020236E-2   -1.376946387908329E-1    5.005527599969165E-1
 1.001068907487500E+10  -3.141691651300136E-1    4.087846808322969E-1   -2.903013128201649E-2   -1.390315392102376E-2   -2.730465904316902E-2   -1.502544404681828E-2   -1.368957646082027E-1    5.007433098470396E-1
 1.001070064050000E+10  -3.130964638664139E-1    4.094194260846636E-1   -2.927807365688530E-2   -1.403469098531095E-2   -2.741473403127637E-2   -1.492501702656924E-2   -1.362927318234147E-1    5.010206585232224E-1
 1.001071220612500E+10  -3.118830326910317E-1    4.102282194418992E-1   -2.935952795065437E-2   -1.409809102855529E-2   -2.769062053623035E-2   -1.478510463631444E-2   -1.354609509933117E-1    5.011620978925958E-1
 1.001072377175000E+10  -3.110032459975716E-1    4.110065293800123E-1   -2.960754558680913E-2   -1.431148352522029E-2   -2.793663101526219E-2   -1.485253609225335E-2   -1.345655631802773E-1    5.014393411025445E-1
 1.001073533737500E+10  -3.097909732964538E-1    4.117306188375906E-1   -2.975284147773061E-2   -1.410661946249870E-2   -2.807845831364478E-2   -1.488413295056143E-2   -1.337802211159035E-1    5.017232674856632E-1
 1.001074690300000E+10  -3.088454176377957E-1    4.123829391414855E-1   -3.011608119834058E-2   -1.406407950512052E-2   -2.833659024886771E-2   -1.483135142125541E-2   -1.330334275530357E-1    5.018802071294695E-1
 1.001075846862500E+10  -3.077833016368294E-1    4.131856538920188E-1   -3.045093798871142E-2   -1.411565490582515E-2   -2.865417395687682E-2   -1.504211855700683E-2   -1.323144586186644E-1    5.020295010559376E-1
 1.001077003425000E+10  -3.065791329531513E-1    4.139242991967643E-1   -3.073467202368517E-2   -1.405940446541240E-2   -2.860244654200772E-2   -1.509626306253786E-2   -1.314205085809836E-1    5.022020463018495E-1
 1.001078159987500E+10  -3.054498022597674E-1    4.147885320155794E-1   -3.100140853147867E-2   -1.407843011348414E-2   -2.893696214345403E-2   -1.510703034387523E-2   -1.306698413729694E-1    5.023884230652669E-1
 1.001079316550000E+10  -3.043837516334006E-1    4.154637754196792E-1   -3.113197414455092E-2   -1.395541932512418E-2   -2.917403988648112E-2   -1.514008726510541E-2   -1.299205881106069E-1    5.025043315648396E-1
 1.001080473112500E+10  -3.034394629247575E-1    4.163854194973226E-1   -3.141380429913614E-2   -1.405002766745335E-2   -2.950248988951548E-2   -1.511214335580279E-2   -1.290882999086144E-1    5.028107422010593E-1
 1.001081629675000E+10  -3.021073541079613E-1    4.170123769155358E-1   -3.167658155031793E-2   -1.401365679647704E-2   -2.976134970464680E-2   -1.511653128183252E-2   -1.283206562679202E-1    5.030470273767019E-1
 1.001082786237500E+10  -3.009282700650799E-1    4.178091902272169E-1   -3.192922174143055E-2   -1.402458255822053E-2   -2.995242787198985E-2   -1.522900086641665E-2   -1.275037957868730E-1    5.032890141082716E-1
 1.001083942800000E+10  -2.998997532182544E-1    4.183938564797940E-1   -3.215480448738207E-2   -1.411061493959248E-2   -3.029200345097368E-2   -1.518615104965518E-2   -1.265829788198979E-1    5.032719800850078E-1
 1.001085099362500E+10  -2.985856175485153E-1    4.193430296765783E-1   -3.240798916121253E-2   -1.413620412713863E-2   -3.048516833364743E-2   -1.506950774541641E-2   -1.259944249815882E-1    5.035652019327912E-1
 1.001086255925000E+10  -2.974096759084876E-1    4.199411534833827E-1   -3.267619584932897E-2   -1.427425299378865E-2   -3.067147863876729E-2   -1.513791872381664E-2   -1.252073913887634E-1    5.037638166902337E-1
 1.001087412487500E+10  -2.961649901116558E-1    4.208162127342750E-1   -3.286032702013327E-2   -1.427367678310567E-2   -3.086858184005236E-2   -1.513282286579351E-2   -1.242822087424007E-1    5.039392747090145E-1
 1.001088569050000E+10  -2.951306861643735E-1    4.215075962480069E-1   -3.312346742295212E-2   -1.433003571605082E-2   -3.119908425576907E-2   -1.519872056225714E-2   -1.234243597402667E-1    5.042497511850434E-1
 1.001089725612500E+10  -2.939149039736574E-1    4.223801314858411E-1   -3.342084871238907E-2   -1.426034587499632E-2   -3.147174518397450E-2   -1.522674477827869E-2   -1.226797474435280E-1    5.042973231484617E-1
 1.001090882175000E+10  -2.927571646522091E-1    4.230925683358518E-1   -3.375489643059422E-2   -1.421331709420682E-2   -3.182886654345751E-2   -1.524797423017752E-2   -1.219055269474371E-1    5.045168313971281E-1
 1.001092038737500E+10  -2.914404485863056E-1    4.239755507166511E-1   -3.392437623270625E-2   -1.421416566684358E-2   -3.204756553586421E-2   -1.531340621563903E-2   -1.209990441765323E-1    5.047511107482804E-1
 1.001093195300000E+10  -2.901263571918709E-1    4.246248256059624E-1   -3.442744580303360E-2   -1.416920815850126E-2   -3.237597996762333E-2   -1.531108046795562E-2   -1.202413411478609E-1    5.049118918815264E-1
 1.001094351862500E+10  -2.888797447631119E-1    4.253029548611449E-1   -3.479002573874030E-2   -1.417833724997794E-2   -3.257287563476316E-2   -1.534978642196455E-2   -1.193577783651262E-1    5.051078847527384E-1
 1.001095508425000E+10  -2.876302947593007E-1    4.261697521284149E-1   -3.496744716240897E-2   -1.416986472059389E-2   -3.295192470224636E-2   -1.528305271645292E-2   -1.186169225488077E-1    5.051453325678192E-1
