#  HZ   S   RI   R     50.00 
! Rohde & Schwarz Vector Network Analyzer 
! Rohde-Schwarz,ZNB20-2Port,1311601062101988,3.16
! Created: UTC 12/23/2023, 3:44:34 AM
! freq[Hz]                re:S11                  im:S11                  re:S21                  im:S21                  re:S12                  im:S12                  re:S22                  im:S22
 1.000977115000000E+10  -3.774143777219808E-1    3.513436969437485E-1   -1.835731582549302E-2   -1.287523788071857E-2   -1.702631096301412E-2   -1.340138970497413E-2   -1.954117688330580E-1    4.801483552249138E-1
 1.000978324950000E+10  -3.767288409314895E-1    3.521223388324000E-1   -1.849124441035558E-2   -1.278333833138017E-2   -1.711112031276367E-2   -1.337053540812685E-2   -1.946130718361817E-1    4.805285245026232E-1
 1.000979534900000E+10  -3.761363241092623E-1    3.528577903097683E-1   -1.855541715297460E-2   -1.274695915325393E-2   -1.718698662356184E-2   -1.336369664415409E-2   -1.939201334445152E-1    4.806885133520051E-1
 1.000980744850000E+10  -3.753830008105091E-1    3.535276256377369E-1   -1.862698165041449E-2   -1.282335053694215E-2   -1.737107780032899E-2   -1.338289561378852E-2   -1.931002561711703E-1    4.811854731824406E-1
 1.000981954800000E+10  -3.746916463417068E-1    3.542724351937701E-1   -1.871794182238994E-2   -1.298272649274557E-2   -1.736182725319588E-2   -1.335072022319797E-2   -1.925118091607732E-1    4.813218942928976E-1
 1.000983164750000E+10  -3.741321349402326E-1    3.550864441377627E-1   -1.889140561351777E-2   -1.297726111819510E-2   -1.751042345813330E-2   -1.340912337589792E-2   -1.916695229885262E-1    4.816308953491825E-1
 1.000984374700000E+10  -3.733841836732348E-1    3.558179433565884E-1   -1.890768969580035E-2   -1.295943744147588E-2   -1.763620346010487E-2   -1.337385483134683E-2   -1.910527422141057E-1    4.819895601464240E-1
 1.000985584650000E+10  -3.724647166141230E-1    3.565352991918205E-1   -1.890361996524073E-2   -1.294258700322943E-2   -1.777614020200900E-2   -1.349893115085635E-2   -1.900503209094253E-1    4.823243133037390E-1
 1.000986794600000E+10  -3.718624670036870E-1    3.571788711309113E-1   -1.916514578444389E-2   -1.283269350245083E-2   -1.787841954563871E-2   -1.333361948602409E-2   -1.895029148834808E-1    4.827057824501537E-1
 1.000988004550000E+10  -3.711232450111991E-1    3.580939001795040E-1   -1.920740321620036E-2   -1.301569913317386E-2   -1.792477366380998E-2   -1.339151845974270E-2   -1.886934236973680E-1    4.830151970901821E-1
 1.000989214500000E+10  -3.704349997645555E-1    3.586838329656715E-1   -1.933778677589367E-2   -1.316979210763260E-2   -1.807312884062128E-2   -1.353405052680215E-2   -1.879300171082792E-1    4.833560138919340E-1
 1.000990424450000E+10  -3.697216059111278E-1    3.596072126552244E-1   -1.948613644514002E-2   -1.302823768920334E-2   -1.810341063299938E-2   -1.344989633239365E-2   -1.872970571484845E-1    4.837392429577211E-1
 1.000991634400000E+10  -3.690023324821028E-1    3.602321804864439E-1   -1.953072693007568E-2   -1.297018534073904E-2   -1.817507039718867E-2   -1.351311230336203E-2   -1.864925149102754E-1    4.840201954847960E-1
 1.000992844350000E+10  -3.682768259754804E-1    3.610743384391633E-1   -1.969971343531766E-2   -1.312724919722709E-2   -1.831293916146888E-2   -1.350595045404589E-2   -1.856740339474382E-1    4.841650382468285E-1
 1.000994054300000E+10  -3.674738803216908E-1    3.617184084156756E-1   -1.962563730323243E-2   -1.312774358668719E-2   -1.841657057137189E-2   -1.355698625599857E-2   -1.848905657985360E-1    4.846303524471182E-1
 1.000995264250000E+10  -3.668404418952276E-1    3.625368798174219E-1   -1.993033110485666E-2   -1.307456699945268E-2   -1.845722967312346E-2   -1.357583801091738E-2   -1.842422654694220E-1    4.848418871336236E-1
 1.000996474200000E+10  -3.659485138910151E-1    3.633642801748457E-1   -2.009385125386183E-2   -1.315330492583979E-2   -1.860949038167422E-2   -1.364297303366184E-2   -1.834038635198976E-1    4.851360074521192E-1
 1.000997684150000E+10  -3.653366811974713E-1    3.641294012444067E-1   -2.001501759644077E-2   -1.318396123776475E-2   -1.874352125475747E-2   -1.361433738767124E-2   -1.827571372343866E-1    4.852676461101141E-1
 1.000998894100000E+10  -3.645822744255724E-1    3.648024081431054E-1   -2.020457067822209E-2   -1.319134890820644E-2   -1.891526336758635E-2   -1.364451665086506E-2   -1.820059423455692E-1    4.857041956344147E-1
 1.001000104050000E+10  -3.638151569046233E-1    3.655906682213092E-1   -2.034939349102066E-2   -1.325360486412368E-2   -1.894404108498871E-2   -1.362268451578408E-2   -1.811945062659123E-1    4.858898692095451E-1
 1.001001314000000E+10  -3.630208799602120E-1    3.664110881973179E-1   -2.045047271387998E-2   -1.328622676537824E-2   -1.904855295172995E-2   -1.366373151267544E-2   -1.802559000350828E-1    4.863106771343381E-1
 1.001002523950000E+10  -3.623267142100972E-1    3.670654705288222E-1   -2.052316416472239E-2   -1.320775015510012E-2   -1.930555680924614E-2   -1.374285893642672E-2   -1.796863401649531E-1    4.865214741076196E-1
 1.001003733900000E+10  -3.616612575723447E-1    3.676739889269901E-1   -2.058985145989920E-2   -1.318203203428037E-2   -1.926216246144426E-2   -1.369136509078741E-2   -1.789614952167002E-1    4.868229901342676E-1
 1.001004943850000E+10  -3.609176508929802E-1    3.685018567327020E-1   -2.082786532749546E-2   -1.320606200959325E-2   -1.942767241342256E-2   -1.378411390763514E-2   -1.782433833884607E-1    4.870928122207608E-1
 1.001006153800000E+10  -3.601001868128825E-1    3.693379154455635E-1   -2.087556677207575E-2   -1.321487218661695E-2   -1.953973558473896E-2   -1.368626558055122E-2   -1.774862083800418E-1    4.873791928594914E-1
 1.001007363750000E+10  -3.591158825813016E-1    3.700010947527062E-1   -2.096267725128916E-2   -1.329085854176858E-2   -1.968030304169553E-2   -1.387227310144325E-2   -1.767349177209199E-1    4.877327658869715E-1
 1.001008573700000E+10  -3.586022698738346E-1    3.709800972196393E-1   -2.115613810039805E-2   -1.318998363598914E-2   -1.981933382372224E-2   -1.381051209577366E-2   -1.759903964628949E-1    4.879191811381504E-1
 1.001009783650000E+10  -3.577494737430379E-1    3.716672058182386E-1   -2.127469894501820E-2   -1.331090418060658E-2   -1.989691462920439E-2   -1.381188885228338E-2   -1.751699489757911E-1    4.883858466445262E-1
 1.001010993600000E+10  -3.569240883283773E-1    3.723428739357426E-1   -2.150868878796470E-2   -1.326979204106567E-2   -2.005220535783400E-2   -1.381401910213215E-2   -1.743404329641366E-1    4.884422886005746E-1
 1.001012203550000E+10  -3.560356174634517E-1    3.731663759060574E-1   -2.148104930664979E-2   -1.328524469658732E-2   -2.005221510067435E-2   -1.380292674683054E-2   -1.736635107531079E-1    4.889193806263972E-1
 1.001013413500000E+10  -3.553540533462776E-1    3.738901848042992E-1   -2.176997916679890E-2   -1.345750326354320E-2   -2.025045585143242E-2   -1.397490814354945E-2   -1.729891528422512E-1    4.891886192265611E-1
 1.001014623450000E+10  -3.544844350229794E-1    3.747273611468245E-1   -2.160993509766234E-2   -1.348370390610243E-2   -2.050924626655013E-2   -1.380188074889701E-2   -1.720923982356892E-1    4.894468822131844E-1
 1.001015833400000E+10  -3.537723980442911E-1    3.752545079614782E-1   -2.188540671022005E-2   -1.347407109572209E-2   -2.058075022563128E-2   -1.388246494987016E-2   -1.711851954845437E-1    4.897213828192012E-1
 1.001017043350000E+10  -3.528861886440164E-1    3.760930611863165E-1   -2.195112635374711E-2   -1.342446522199736E-2   -2.061951952136024E-2   -1.396652910571354E-2   -1.705632262716217E-1    4.899743230147826E-1
 1.001018253300000E+10  -3.521281958802541E-1    3.768205149545434E-1   -2.219274176179706E-2   -1.341833055090659E-2   -2.074172572698081E-2   -1.392008593605968E-2   -1.698517436814692E-1    4.902054996781597E-1
 1.001019463250000E+10  -3.513456614268983E-1    3.776050589985287E-1   -2.235380145949746E-2   -1.336940901530354E-2   -2.093812209608776E-2   -1.393463407833221E-2   -1.690933221636237E-1    4.905662253841996E-1
 1.001020673200000E+10  -3.504944559051048E-1    3.783847962303497E-1   -2.244276481491330E-2   -1.342237619030354E-2   -2.109957141685831E-2   -1.398016893065825E-2   -1.682841684296764E-1    4.908236920748776E-1
 1.001021883150000E+10  -3.495700747432595E-1    3.791417166957822E-1   -2.253049171002866E-2   -1.343990600870953E-2   -2.110306431128025E-2   -1.399738860981662E-2   -1.674848531963563E-1    4.910544220370063E-1
 1.001023093100000E+10  -3.488550302807507E-1    3.798470030191952E-1   -2.287305147766821E-2   -1.332406089924398E-2   -2.132709568490768E-2   -1.389374048778888E-2   -1.668730591456171E-1    4.912851489431003E-1
 1.001024303050000E+10  -3.479210827483087E-1    3.806707232252021E-1   -2.281485211081429E-2   -1.343787985158237E-2   -2.140598702051377E-2   -1.405964261574076E-2   -1.659453564818001E-1    4.915623199290907E-1
 1.001025513000000E+10  -3.470605027127093E-1    3.814952000323967E-1   -2.315874972650288E-2   -1.351367567996759E-2   -2.161043384610955E-2   -1.403133828610700E-2   -1.653149029001161E-1    4.919538765827242E-1
 1.001026722950000E+10  -3.463390363405504E-1    3.822095770891940E-1   -2.320445248562522E-2   -1.344154691182096E-2   -2.158343751411059E-2   -1.421531187473686E-2   -1.644411644625069E-1    4.922628762721726E-1
 1.001027932900000E+10  -3.453244033345950E-1    3.829548220789576E-1   -2.342262470043404E-2   -1.338399628919105E-2   -2.179703509531015E-2   -1.419880545360767E-2   -1.636312490765157E-1    4.923908693019308E-1
 1.001029142850000E+10  -3.446043019378996E-1    3.837649112387659E-1   -2.350236803333130E-2   -1.357165598154064E-2   -2.191690213879342E-2   -1.417353700900673E-2   -1.628598676369000E-1    4.927691700700939E-1
 1.001030352800000E+10  -3.436336803455056E-1    3.844669774936386E-1   -2.364857127369459E-2   -1.345837705826610E-2   -2.220392108317922E-2   -1.407155542492262E-2   -1.620655378011482E-1    4.928735031611731E-1
 1.001031562750000E+10  -3.428911921350375E-1    3.851591422769176E-1   -2.372261066032868E-2   -1.365192969835461E-2   -2.228455536477560E-2   -1.419348900386089E-2   -1.613535293093376E-1    4.931989273954622E-1
 1.001032772700000E+10  -3.419303334612573E-1    3.859787077767551E-1   -2.389512141410990E-2   -1.371493871604520E-2   -2.243073163906278E-2   -1.416391850002362E-2   -1.606147446371590E-1    4.935973155775754E-1
 1.001033982650000E+10  -3.411132695332978E-1    3.868503456330416E-1   -2.400744837144908E-2   -1.363184550501572E-2   -2.256031420801904E-2   -1.416469105286050E-2   -1.597936991389220E-1    4.938363201671003E-1
 1.001035192600000E+10  -3.402113542339932E-1    3.876358522310444E-1   -2.423286205306479E-2   -1.363168496335672E-2   -2.269051943839349E-2   -1.427107880267543E-2   -1.589840750720835E-1    4.940623533552039E-1
 1.001036402550000E+10  -3.392967276283680E-1    3.883217704613915E-1   -2.441577022260763E-2   -1.378486836920670E-2   -2.282140197290574E-2   -1.435388938176776E-2   -1.582466494160953E-1    4.942523740648552E-1
 1.001037612500000E+10  -3.384132973560421E-1    3.889939988026098E-1   -2.465881260910221E-2   -1.374935515641248E-2   -2.303996889938387E-2   -1.412745987177897E-2   -1.574244350153389E-1    4.945799524982701E-1
 1.001038822450000E+10  -3.375377783665070E-1    3.899203144769428E-1   -2.483779378026744E-2   -1.369284257514691E-2   -2.318152962330510E-2   -1.436923910273334E-2   -1.567423973383196E-1    4.949568099438378E-1
 1.001040032400000E+10  -3.364763566874585E-1    3.905877880576121E-1   -2.497277955983793E-2   -1.358852946888348E-2   -2.336072275199250E-2   -1.433438006187830E-2   -1.559041090624793E-1    4.950613553178321E-1
 1.001041242350000E+10  -3.355496288900526E-1    3.913016798187051E-1   -2.510499530788096E-2   -1.361501828870635E-2   -2.349509452394546E-2   -1.442390434029365E-2   -1.550990098760116E-1    4.953220060635428E-1
 1.001042452300000E+10  -3.347489326052527E-1    3.921247176272335E-1   -2.529475264693078E-2   -1.365748564999326E-2   -2.364280047753149E-2   -1.433006436278926E-2   -1.541704054002528E-1    4.954618547569194E-1
 1.001043662250000E+10  -3.337905254518451E-1    3.926808861596791E-1   -2.547727018536272E-2   -1.366371088024938E-2   -2.382152838900904E-2   -1.439304585045896E-2   -1.534833621236142E-1    4.956141617021827E-1
 1.001044872200000E+10  -3.328675558227341E-1    3.937272415318179E-1   -2.565483446588779E-2   -1.377909802300080E-2   -2.400368663753564E-2   -1.445857669086886E-2   -1.526247816103424E-1    4.960197184401424E-1
 1.001046082150000E+10  -3.318916524244455E-1    3.942472496808602E-1   -2.573666253003613E-2   -1.369843032058553E-2   -2.421688850851390E-2   -1.439595158705305E-2   -1.518524078572573E-1    4.962272044235052E-1
 1.001047292100000E+10  -3.309298528018681E-1    3.951368160768186E-1   -2.585811480730436E-2   -1.385117072501861E-2   -2.430964622578111E-2   -1.448346600287749E-2   -1.511121476729584E-1    4.964744919824580E-1
 1.001048502050000E+10  -3.300803529300766E-1    3.958964007622532E-1   -2.609751225673787E-2   -1.384211588559674E-2   -2.453691881041768E-2   -1.447300127371018E-2   -1.502431852135405E-1    4.967814980090251E-1
 1.001049712000000E+10  -3.291191159993291E-1    3.965348008054568E-1   -2.624322040213023E-2   -1.397898716857897E-2   -2.464113319456895E-2   -1.454068073394451E-2   -1.495701453519794E-1    4.970482880720131E-1
 1.001050921950000E+10  -3.280752425068578E-1    3.975016280086885E-1   -2.643761599181611E-2   -1.393252613048551E-2   -2.484061960539598E-2   -1.461799470859230E-2   -1.487586586053599E-1    4.972227454843128E-1
 1.001052131900000E+10  -3.270941542448818E-1    3.981647969974947E-1   -2.682718645651919E-2   -1.392866788066077E-2   -2.496306735636476E-2   -1.449613428504041E-2   -1.479109472697007E-1    4.974354778822609E-1
 1.001053341850000E+10  -3.260428686003819E-1    3.989599420332540E-1   -2.705930878614502E-2   -1.378119709431654E-2   -2.531437869686640E-2   -1.448950299784535E-2   -1.471479775144127E-1    4.976725046912548E-1
 1.001054551800000E+10  -3.251073474261093E-1    3.998692115425855E-1   -2.703979627294911E-2   -1.386611369697473E-2   -2.537110511714026E-2   -1.452434590077818E-2   -1.463562047243183E-1    4.979088210506410E-1
 1.001055761750000E+10  -3.240680191395612E-1    4.005169469316123E-1   -2.740099864867798E-2   -1.377736778175723E-2   -2.565343238616096E-2   -1.463477933030767E-2   -1.456653531232335E-1    4.983295812517072E-1
 1.001056971700000E+10  -3.231045429972370E-1    4.014307582870962E-1   -2.748032735199619E-2   -1.385006587201051E-2   -2.575654253606132E-2   -1.457022711575166E-2   -1.447440791674779E-1    4.984298655527602E-1
 1.001058181650000E+10  -3.221374867899187E-1    4.021343456024599E-1   -2.780810183255869E-2   -1.381180052089454E-2   -2.603387199933867E-2   -1.462073205164245E-2   -1.440173804136504E-1    4.987287421028608E-1
 1.001059391600000E+10  -3.209630928894535E-1    4.028744703681980E-1   -2.794701948095957E-2   -1.391300551497740E-2   -2.617801836338213E-2   -1.471471737816845E-2   -1.430838341321731E-1    4.987928628869699E-1
 1.001060601550000E+10  -3.199770257896155E-1    4.036277631606988E-1   -2.812129669655797E-2   -1.387846203728264E-2   -2.643336841068163E-2   -1.480713999238167E-2   -1.421474144042494E-1    4.990662427421501E-1
 1.001061811500000E+10  -3.190328148873365E-1    4.044480431280327E-1   -2.830169082420349E-2   -1.392859838793341E-2   -2.656628194555320E-2   -1.481848551780707E-2   -1.414747920178952E-1    4.994382345879512E-1
 1.001063021450000E+10  -3.179822202264890E-1    4.050827878319417E-1   -2.859441617554197E-2   -1.404293133156758E-2   -2.677929928862192E-2   -1.479765459957180E-2   -1.406544869735158E-1    4.995265863649863E-1
 1.001064231400000E+10  -3.167558880999721E-1    4.059840195060387E-1   -2.883014337614856E-2   -1.411151123074585E-2   -2.694193414488022E-2   -1.468781775163317E-2   -1.399001867148812E-1    4.998751316933671E-1
 1.001065441350000E+10  -3.156375932835043E-1    4.068036207177851E-1   -2.895036432992447E-2   -1.411721034301162E-2   -2.729568426420113E-2   -1.478313692518117E-2   -1.390779906545655E-1    5.000368331405263E-1
 1.001066651300000E+10  -3.146281147146837E-1    4.075098424824432E-1   -2.930729291622277E-2   -1.402755308458533E-2   -2.743887956529438E-2   -1.480070134529654E-2   -1.382563652697962E-1    5.002243370718588E-1
 1.001067861250000E+10  -3.135587739426563E-1    4.084772334613386E-1   -2.936524484697676E-2   -1.408310301570549E-2   -2.774773756038498E-2   -1.486589807334904E-2   -1.374155312868277E-1    5.005358043978895E-1
 1.001069071200000E+10  -3.124821908720503E-1    4.091264502274738E-1   -2.975996582344946E-2   -1.401898524320975E-2   -2.792064468225196E-2   -1.470443965265086E-2   -1.367085622252069E-1    5.007485873866123E-1
 1.001070281150000E+10  -3.112592419322176E-1    4.098541955620552E-1   -3.000635400628166E-2   -1.402642401578914E-2   -2.807256977744021E-2   -1.495188056851265E-2   -1.357656961987937E-1    5.008122296847456E-1
 1.001071491100000E+10  -3.100611108075636E-1    4.105459432354378E-1   -3.025064168425895E-2   -1.399114888122592E-2   -2.831033995836145E-2   -1.490417328293438E-2   -1.349757060096691E-1    5.011890959135632E-1
 1.001072701050000E+10  -3.093146505516323E-1    4.114668973800827E-1   -3.051209962249642E-2   -1.421283156712980E-2   -2.866104217919779E-2   -1.497267756713235E-2   -1.341413826716597E-1    5.014875111308692E-1
 1.001073911000000E+10  -3.079271765880988E-1    4.122013929503052E-1   -3.075736774306437E-2   -1.397784038142370E-2   -2.884587528879435E-2   -1.502486834370948E-2   -1.333713164556435E-1    5.017114163594957E-1
 1.001075120950000E+10  -3.068018406626564E-1    4.130668076132444E-1   -3.095217874609905E-2   -1.414656438228327E-2   -2.908545652757493E-2   -1.496978922680795E-2   -1.324587485130578E-1    5.018208853220946E-1
 1.001076330900000E+10  -3.056623650305210E-1    4.137760595982803E-1   -3.117527305188069E-2   -1.411971914085226E-2   -2.934118360388753E-2   -1.499883159276374E-2   -1.316308090108564E-1    5.021548720823148E-1
 1.001077540850000E+10  -3.043963029554187E-1    4.144553503761926E-1   -3.145227123365731E-2   -1.409868379348920E-2   -2.954953666757055E-2   -1.497293652417760E-2   -1.308184863891269E-1    5.021468286836644E-1
 1.001078750800000E+10  -3.031393899715921E-1    4.153931954762892E-1   -3.166409359984287E-2   -1.398457963397749E-2   -2.986117492726412E-2   -1.497833180601816E-2   -1.299270345559884E-1    5.023433653736047E-1
 1.001079960750000E+10  -3.020008809201469E-1    4.161369868415021E-1   -3.202162431694259E-2   -1.412810501159289E-2   -3.008996530593819E-2   -1.502683561621430E-2   -1.292281249081970E-1    5.025615191101327E-1
 1.001081170700000E+10  -3.006986814656262E-1    4.169185201009562E-1   -3.230980148380387E-2   -1.402193649206409E-2   -3.041696019749888E-2   -1.504058241848121E-2   -1.284365638090378E-1    5.027092515060758E-1
 1.001082380650000E+10  -2.995929976738790E-1    4.176881086676885E-1   -3.254228695493448E-2   -1.418078428785837E-2   -3.071880209877094E-2   -1.503730808654996E-2   -1.276470490985336E-1    5.030014256309281E-1
 1.001083590600000E+10  -2.982631851393400E-1    4.185328612476182E-1   -3.271034267287717E-2   -1.423454707775884E-2   -3.087619535733995E-2   -1.495431971530691E-2   -1.267583813300250E-1    5.032425858387878E-1
 1.001084800550000E+10  -2.969958868576595E-1    4.193736239441943E-1   -3.304249046367054E-2   -1.414566694632445E-2   -3.121307187173522E-2   -1.500609874879311E-2   -1.257986004997772E-1    5.033260838080050E-1
 1.001086010500000E+10  -2.957792212485155E-1    4.201392765738483E-1   -3.357282097865884E-2   -1.408467511141758E-2   -3.152272749913441E-2   -1.513473442440023E-2   -1.250731254525649E-1    5.035453617567992E-1
