#  HZ   S   RI   R     50.00 
! Rohde & Schwarz Vector Network Analyzer 
! Rohde-Schwarz,ZNB20-2Port,1311601062101988,3.16
! Created: UTC 12/23/2023, 3:48:45 AM
! freq[Hz]                re:S11                  im:S11                  re:S21                  im:S21                  re:S12                  im:S12                  re:S22                  im:S22
 7.836897434000000E9     5.645749914216670E-1    4.234738928325676E-2    1.122889875767856E-3    3.762951322789170E-3    1.159505195895395E-3    3.737142278018954E-3    4.704727017389795E-1   -2.638861229723340E-1
 7.836931050125000E9     5.646450400449883E-1    4.031138786386434E-2    1.196634022408970E-3    3.759857215376406E-3    1.197839870879109E-3    3.697129029623308E-3    4.693769006804978E-1   -2.660342920694251E-1
 7.836964666250000E9     5.649292317761827E-1    3.797515388678327E-2    1.191224656380020E-3    3.764679254667547E-3    1.242205723007156E-3    3.693553125173235E-3    4.680992764376209E-1   -2.680377789096898E-1
 7.836998282375000E9     5.650479722324209E-1    3.601983549464802E-2    1.193584498922191E-3    3.767654160169453E-3    1.236888933160515E-3    3.722247329826087E-3    4.670863212602178E-1   -2.700717912674110E-1
 7.837031898500000E9     5.651029927354849E-1    3.352294455353835E-2    1.203296288104486E-3    3.748519326942395E-3    1.253056151859193E-3    3.719527531370628E-3    4.658732751053540E-1   -2.722562906355858E-1
 7.837065514625000E9     5.653094755883107E-1    3.131813526218057E-2    1.254270484564572E-3    3.784446668977446E-3    1.258825601905461E-3    3.686380648197992E-3    4.647124574604833E-1   -2.740649964170777E-1
 7.837099130750000E9     5.654972885168137E-1    2.892374703262496E-2    1.255531599651650E-3    3.758889714241124E-3    1.266605869494881E-3    3.705157850812312E-3    4.634267090517781E-1   -2.760894496663050E-1
 7.837132746875000E9     5.657016912022661E-1    2.683497939149677E-2    1.271640579633719E-3    3.775440111841771E-3    1.300902167245821E-3    3.716364040314591E-3    4.623329145911002E-1   -2.784183999596445E-1
 7.837166363000000E9     5.655805313980311E-1    2.455059385926836E-2    1.309207370104511E-3    3.751382979526543E-3    1.338969696855145E-3    3.716573235644791E-3    4.609194276442049E-1   -2.803167322506455E-1
 7.837199979125000E9     5.658584341074828E-1    2.243133440113766E-2    1.323871659780829E-3    3.790930040713525E-3    1.328065691957621E-3    3.693058579445287E-3    4.598188304636159E-1   -2.823782907402213E-1
 7.837233595250000E9     5.659748016103805E-1    2.019962721949359E-2    1.344368221630281E-3    3.767298476549105E-3    1.371072145846585E-3    3.703955223349617E-3    4.587263210185711E-1   -2.842914055291051E-1
 7.837267211375000E9     5.660042816217037E-1    1.809870633711911E-2    1.343601966252238E-3    3.772568003203614E-3    1.357064919930829E-3    3.688777555035692E-3    4.574297137948695E-1   -2.863118827746929E-1
 7.837300827500000E9     5.661487650092996E-1    1.565446778484220E-2    1.371313854968037E-3    3.753158127878125E-3    1.383229987583155E-3    3.686035495844049E-3    4.562132718395995E-1   -2.883212802382433E-1
 7.837334443625000E9     5.662925935625687E-1    1.358211777886946E-2    1.424002179912319E-3    3.758558836044295E-3    1.468409691770883E-3    3.650374630292763E-3    4.548463468142138E-1   -2.903150405695722E-1
 7.837368059750000E9     5.661351850798059E-1    1.136829284543834E-2    1.403747786832871E-3    3.760987187279405E-3    1.437867160530863E-3    3.723433484539384E-3    4.536900006946429E-1   -2.923143986441762E-1
 7.837401675875000E9     5.662606083385788E-1    9.104240425614288E-3    1.436245229961186E-3    3.759314748468369E-3    1.453834434532909E-3    3.676307641706749E-3    4.523998511506935E-1   -2.943222334821534E-1
 7.837435292000000E9     5.663324857113529E-1    6.895720151216517E-3    1.451480628882280E-3    3.746602316785978E-3    1.450270810951312E-3    3.672298725104649E-3    4.510665911145120E-1   -2.961863731497952E-1
 7.837468908125000E9     5.663371418411317E-1    4.571204084026612E-3    1.466458150186971E-3    3.744412115039935E-3    1.475332479586648E-3    3.676271915006424E-3    4.498022642176735E-1   -2.982093277934325E-1
 7.837502524250000E9     5.663980688821560E-1    2.338019764883507E-3    1.510856149492768E-3    3.767691187873001E-3    1.509938203451222E-3    3.705659324022502E-3    4.483576638977328E-1   -3.002658039205048E-1
 7.837536140375000E9     5.664629220847247E-1    1.338275801397024E-4    1.517569826847634E-3    3.745626871850418E-3    1.523013572516485E-3    3.700103451987070E-3    4.472578270013584E-1   -3.021509027016005E-1
 7.837569756500000E9     5.665930681983148E-1   -2.059010768602515E-3    1.556500095506984E-3    3.732605088720971E-3    1.516175670134577E-3    3.683152773491784E-3    4.459066587307501E-1   -3.040951175034020E-1
 7.837603372625000E9     5.664732485555415E-1   -4.445480337739462E-3    1.550748596698393E-3    3.738297511435268E-3    1.580335929642591E-3    3.674915178734669E-3    4.446366506337199E-1   -3.059721524581835E-1
 7.837636988750000E9     5.665170892196966E-1   -6.617507262376477E-3    1.569594142543824E-3    3.749889017686739E-3    1.579454766756004E-3    3.661445143461186E-3    4.432814165141734E-1   -3.078994110102922E-1
 7.837670604875000E9     5.663425310155915E-1   -8.819904959767774E-3    1.582775226623783E-3    3.743827958598756E-3    1.584028644297771E-3    3.666577865973712E-3    4.419930122760827E-1   -3.099183444839801E-1
 7.837704221000000E9     5.663528853601600E-1   -1.105106421448730E-2    1.627087848557103E-3    3.758319933430400E-3    1.601324956695203E-3    3.682168365286395E-3    4.406024546793604E-1   -3.119867985022270E-1
 7.837737837125000E9     5.664873422271185E-1   -1.317046039623457E-2    1.628366278415438E-3    3.763956536140167E-3    1.646654753153671E-3    3.680304522565308E-3    4.392256610772710E-1   -3.136222160738161E-1
 7.837771453250000E9     5.662529746841174E-1   -1.551337536646261E-2    1.675460933261260E-3    3.749405866963573E-3    1.666505380907947E-3    3.668808456762800E-3    4.378234313091147E-1   -3.156664343657168E-1
 7.837805069375000E9     5.662269082920114E-1   -1.775382576685254E-2    1.660860270086033E-3    3.738161663525938E-3    1.691460783573886E-3    3.661655569905167E-3    4.364281822054971E-1   -3.178352900846604E-1
 7.837838685500000E9     5.660983228984088E-1   -2.004225699044341E-2    1.686160390097059E-3    3.722834564797662E-3    1.643487646040064E-3    3.677468378459354E-3    4.350466088687375E-1   -3.195531796846949E-1
 7.837872301625000E9     5.661844304873572E-1   -2.220562352072104E-2    1.711216882617871E-3    3.733025642986809E-3    1.683992341943203E-3    3.664945513878738E-3    4.337200652199555E-1   -3.214559204809221E-1
 7.837905917750000E9     5.660803796989521E-1   -2.455875048054103E-2    1.730489246372568E-3    3.737267518532469E-3    1.745431685616488E-3    3.676042344202427E-3    4.322645663682847E-1   -3.234620398887686E-1
 7.837939533875000E9     5.658359306592557E-1   -2.662182981781503E-2    1.742251891906593E-3    3.733770830152393E-3    1.739749472722489E-3    3.647713020622311E-3    4.310350883842196E-1   -3.253473258080615E-1
 7.837973150000000E9     5.659520765906602E-1   -2.898451765535497E-2    1.779797321217897E-3    3.732094589891460E-3    1.763529994766166E-3    3.704931826956576E-3    4.295872956369405E-1   -3.270921757148869E-1
 7.838006766125000E9     5.658763248149032E-1   -3.110279265398265E-2    1.799371022111407E-3    3.738917828148556E-3    1.769338706913484E-3    3.679506729267756E-3    4.280469386512064E-1   -3.291658405847055E-1
 7.838040382250000E9     5.656695823482037E-1   -3.349184317963330E-2    1.785455579414911E-3    3.728737008895095E-3    1.828325213784637E-3    3.663888052190175E-3    4.265772493699277E-1   -3.308643803272184E-1
 7.838073998375000E9     5.654152197340302E-1   -3.569372297500835E-2    1.829997488248153E-3    3.740345666325936E-3    1.800362081485854E-3    3.667125937769100E-3    4.252184970084058E-1   -3.328605674841719E-1
 7.838107614500000E9     5.653824483893889E-1   -3.797496555440939E-2    1.877583157266907E-3    3.738388762052423E-3    1.878414147395502E-3    3.642377100783838E-3    4.237098918793398E-1   -3.345759975629077E-1
 7.838141230625000E9     5.652316915856614E-1   -4.018448190450884E-2    1.886456633298406E-3    3.728314157615433E-3    1.886683558640170E-3    3.647251195400567E-3    4.222740505785435E-1   -3.364401577926703E-1
 7.838174846750000E9     5.650548624396917E-1   -4.247093798252609E-2    1.912286330688542E-3    3.700008005925974E-3    1.909801820934964E-3    3.664706512116466E-3    4.208080051290261E-1   -3.384778699045154E-1
 7.838208462875000E9     5.649423765259943E-1   -4.471934168946854E-2    1.916471072926642E-3    3.732686324450730E-3    1.917354102518596E-3    3.657946458461093E-3    4.193824900247310E-1   -3.402554592149523E-1
 7.838242079000000E9     5.649544611109140E-1   -4.685073614330589E-2    1.956336525133719E-3    3.708116217156349E-3    1.914476348768491E-3    3.658297839342818E-3    4.179470936081952E-1   -3.419597309863924E-1
 7.838275695125000E9     5.644849080501855E-1   -4.915848649631667E-2    1.981222778319503E-3    3.715544886590612E-3    1.951902016200336E-3    3.664062769438673E-3    4.163803231047383E-1   -3.438323186155821E-1
 7.838309311250000E9     5.644929597237991E-1   -5.132443703793214E-2    1.986222690903543E-3    3.719256715355961E-3    2.015416251864544E-3    3.679548735318313E-3    4.147657636903800E-1   -3.456736539741230E-1
 7.838342927375000E9     5.642558335796291E-1   -5.350740900068540E-2    2.012406584288157E-3    3.725297018868666E-3    1.981043229592413E-3    3.658730967222417E-3    4.133358065035980E-1   -3.475460409419185E-1
 7.838376543500000E9     5.640195339884488E-1   -5.579661095346645E-2    2.014296963716451E-3    3.718237830833426E-3    2.015202298674076E-3    3.637910891380632E-3    4.117794515457935E-1   -3.492735395558947E-1
 7.838410159625000E9     5.638509580381098E-1   -5.800570475950648E-2    2.044435303121920E-3    3.712539733957008E-3    2.029528742891614E-3    3.702717479846627E-3    4.101883938924253E-1   -3.510842246017992E-1
 7.838443775750000E9     5.635269573063183E-1   -6.029688395535468E-2    2.069781621031894E-3    3.706023528244191E-3    2.078196170657611E-3    3.672111911643982E-3    4.088276038538712E-1   -3.528097733070127E-1
 7.838477391875000E9     5.633943728256987E-1   -6.249565712884406E-2    2.105922081733558E-3    3.703942991498821E-3    2.095596098807186E-3    3.646848974260682E-3    4.074074119612424E-1   -3.545146939260894E-1
 7.838511008000000E9     5.631395331693888E-1   -6.476503816143035E-2    2.119825984805799E-3    3.713679535310880E-3    2.087195215240177E-3    3.626068547922878E-3    4.057677897820807E-1   -3.564293735880683E-1
 7.838544624125000E9     5.628677729663849E-1   -6.691299255573877E-2    2.139482787101734E-3    3.712269174143296E-3    2.119925918030912E-3    3.636606789570452E-3    4.041818469990879E-1   -3.582607645252205E-1
 7.838578240250000E9     5.625241896150346E-1   -6.920079788427395E-2    2.160049247747732E-3    3.705215966875964E-3    2.130741519357395E-3    3.627926611322008E-3    4.025654084815045E-1   -3.600235595167606E-1
 7.838611856375000E9     5.622381479137942E-1   -7.152633225171512E-2    2.180318899095926E-3    3.718418254389605E-3    2.159110420714003E-3    3.675783887848233E-3    4.010804867012280E-1   -3.617386902117776E-1
 7.838645472500000E9     5.620021324782792E-1   -7.372358775284903E-2    2.193052088831313E-3    3.702397608085039E-3    2.210515709983319E-3    3.630569063623351E-3    3.993550656827328E-1   -3.635112967432413E-1
 7.838679088625000E9     5.617098893570146E-1   -7.581415882970392E-2    2.246087216139178E-3    3.685880246050486E-3    2.199665033040808E-3    3.640888821927701E-3    3.979172827396065E-1   -3.652901824370958E-1
 7.838712704750000E9     5.615086031637007E-1   -7.810663427933345E-2    2.246685587296720E-3    3.709041937756426E-3    2.200457235915441E-3    3.648031926260113E-3    3.964105866592435E-1   -3.670845909499820E-1
 7.838746320875000E9     5.611518885516745E-1   -8.023468737049527E-2    2.275185887410791E-3    3.681152646528608E-3    2.225138242054884E-3    3.674203738575926E-3    3.946152380308325E-1   -3.686088335254646E-1
 7.838779937000000E9     5.607121359884206E-1   -8.262874629345257E-2    2.298068285411918E-3    3.697283073071496E-3    2.293508628194975E-3    3.610924126804855E-3    3.931933818456124E-1   -3.705137333400280E-1
 7.838813553125000E9     5.604515241990494E-1   -8.476106010957352E-2    2.307644429662653E-3    3.714433957242273E-3    2.333722252506768E-3    3.668183477522039E-3    3.916098255991290E-1   -3.721843997828258E-1
 7.838847169250000E9     5.600543665548682E-1   -8.705630409246991E-2    2.347212196545271E-3    3.669854694108821E-3    2.303988798505924E-3    3.641104967983457E-3    3.897566326995807E-1   -3.739796065578275E-1
 7.838880785375000E9     5.597992209487659E-1   -8.915272551455000E-2    2.354548390505861E-3    3.699370821168065E-3    2.330219257648827E-3    3.692084628618777E-3    3.881257183505569E-1   -3.756002873543487E-1
 7.838914401500000E9     5.594062979920231E-1   -9.135547771452852E-2    2.378054307175922E-3    3.686768629486404E-3    2.358329505884235E-3    3.656836051841195E-3    3.866351358660274E-1   -3.773742195411524E-1
 7.838948017625000E9     5.590441394318620E-1   -9.375965323399085E-2    2.405538608331584E-3    3.662724298525681E-3    2.387556918089374E-3    3.623686604715627E-3    3.848867797076614E-1   -3.789235735557640E-1
 7.838981633750000E9     5.586410712075033E-1   -9.580290300379475E-2    2.417017436344708E-3    3.677464988498952E-3    2.408406650690097E-3    3.639853841002579E-3    3.833345231914232E-1   -3.807220447629955E-1
 7.839015249875000E9     5.582188481072679E-1   -9.795707605979777E-2    2.447167475034737E-3    3.675554969207705E-3    2.423735840240389E-3    3.653953574453341E-3    3.817508988531567E-1   -3.823541706927319E-1
 7.839048866000000E9     5.578598724576588E-1   -1.003896755507069E-1    2.459177482542315E-3    3.679521019562903E-3    2.436902049014715E-3    3.612801858170994E-3    3.800779562459705E-1   -3.839507769508248E-1
 7.839082482125000E9     5.574292885145610E-1   -1.025775446594897E-1    2.521001830322067E-3    3.675742176085748E-3    2.474916919764629E-3    3.638062137002306E-3    3.782924634647113E-1   -3.856778356191917E-1
 7.839116098250000E9     5.571087601555171E-1   -1.046580613878639E-1    2.540550671559444E-3    3.678842137738760E-3    2.503377657004457E-3    3.603303919486362E-3    3.766957758071788E-1   -3.873166045152013E-1
 7.839149714375000E9     5.566286875039445E-1   -1.070110388814413E-1    2.540027459580870E-3    3.691959157917721E-3    2.509136821358907E-3    3.605492314288917E-3    3.750070343461163E-1   -3.889570133373717E-1
 7.839183330500000E9     5.562699662358060E-1   -1.092069188411032E-1    2.587500371859427E-3    3.656865789604434E-3    2.563928481575742E-3    3.609514250350445E-3    3.732679838236999E-1   -3.905103623842042E-1
 7.839216946625000E9     5.557112246271050E-1   -1.114230868916479E-1    2.605546387294495E-3    3.656030687634567E-3    2.535649797610982E-3    3.629615309084804E-3    3.716656259081185E-1   -3.921591152724451E-1
 7.839250562750000E9     5.554433291490847E-1   -1.135809413841041E-1    2.635045664052479E-3    3.659494769852530E-3    2.614362743527342E-3    3.615718565256728E-3    3.698771489236587E-1   -3.938153200432277E-1
 7.839284178875000E9     5.550257171661895E-1   -1.159081388393360E-1    2.646927738072253E-3    3.638742735148090E-3    2.616903869783162E-3    3.618482962726582E-3    3.682338425140200E-1   -3.955793355245215E-1
 7.839317795000000E9     5.544082033700909E-1   -1.180860911593141E-1    2.694727756614233E-3    3.668631772570837E-3    2.639156733580956E-3    3.621275855669867E-3    3.664625344432333E-1   -3.971990204325189E-1
 7.839351411125000E9     5.539908451043128E-1   -1.202712630474703E-1    2.712861781515862E-3    3.626593322907663E-3    2.659843466449837E-3    3.603754873522102E-3    3.646232280210248E-1   -3.986821401960282E-1
 7.839385027250000E9     5.533737832069151E-1   -1.226038549105248E-1    2.731847823546417E-3    3.645503842511767E-3    2.705897306545971E-3    3.631433771539480E-3    3.628859452156905E-1   -4.003579192936731E-1
 7.839418643375000E9     5.528316036120442E-1   -1.246558350868515E-1    2.771261483266008E-3    3.638307103958926E-3    2.759812478833702E-3    3.623779193269414E-3    3.613371341269336E-1   -4.019823172053825E-1
 7.839452259500000E9     5.525858852914275E-1   -1.269048142516107E-1    2.788829685734205E-3    3.652295266614348E-3    2.735628553238644E-3    3.620271140880147E-3    3.596029353191345E-1   -4.033997824447026E-1
 7.839485875625000E9     5.518712259299173E-1   -1.290255986793522E-1    2.838165978697144E-3    3.622711506417959E-3    2.764246244052077E-3    3.589382189361778E-3    3.576966855805589E-1   -4.051272806202524E-1
 7.839519491750000E9     5.513010908029475E-1   -1.311649403543568E-1    2.831422817306145E-3    3.632308297849911E-3    2.784286574016028E-3    3.612840590529735E-3    3.559782621660833E-1   -4.065672325263291E-1
 7.839553107875000E9     5.510515275147426E-1   -1.333839347070601E-1    2.850020109560115E-3    3.619840732046453E-3    2.801033570015643E-3    3.613314488720961E-3    3.541409968621423E-1   -4.081307794340294E-1
 7.839586724000000E9     5.504407728425726E-1   -1.355666735623204E-1    2.893584891657346E-3    3.652916124020872E-3    2.841305346485315E-3    3.628484875787330E-3    3.524803251413223E-1   -4.098225557922426E-1
 7.839620340125000E9     5.498548703867708E-1   -1.378809194575643E-1    2.930097187679049E-3    3.636687154425230E-3    2.864009471155492E-3    3.617195424502905E-3    3.505748622419652E-1   -4.112907420882014E-1
 7.839653956250000E9     5.491773679341314E-1   -1.401105242284668E-1    2.921240028474033E-3    3.634934463779576E-3    2.874421164127394E-3    3.589592427344258E-3    3.487582849680522E-1   -4.128001090034841E-1
 7.839687572375000E9     5.485574053795235E-1   -1.421635623968733E-1    2.956286524318662E-3    3.646661177639045E-3    2.892273425004849E-3    3.573096524839973E-3    3.472130354748020E-1   -4.143633752864733E-1
 7.839721188500000E9     5.482354720031337E-1   -1.444232204700521E-1    2.999128692226018E-3    3.630499859131754E-3    2.982818133458710E-3    3.581748779592725E-3    3.452655363412783E-1   -4.159997615542819E-1
 7.839754804625000E9     5.474147199434027E-1   -1.466020735941138E-1    3.036968151343118E-3    3.618240773232963E-3    3.008947866042430E-3    3.572087910375861E-3    3.434305418803406E-1   -4.173526561044185E-1
 7.839788420750000E9     5.468970266145452E-1   -1.487844627812907E-1    3.087727122002102E-3    3.626501794713516E-3    3.028487025564458E-3    3.595129214208233E-3    3.415493255049012E-1   -4.188603945367746E-1
 7.839822036875000E9     5.462561865212731E-1   -1.509149695815216E-1    3.073649166756035E-3    3.622847278002883E-3    3.067727118739282E-3    3.598884071273823E-3    3.398364455760097E-1   -4.203393055324554E-1
 7.839855653000000E9     5.457548727544848E-1   -1.530933544260586E-1    3.131407876537069E-3    3.618722449214019E-3    3.062494450346736E-3    3.600243943722765E-3    3.380449616883567E-1   -4.217961070907769E-1
 7.839889269125000E9     5.450614025186529E-1   -1.553189732646726E-1    3.125880661679448E-3    3.594961486639570E-3    3.115058811488291E-3    3.575563704428714E-3    3.361146475620255E-1   -4.233930476546359E-1
 7.839922885250000E9     5.444159277084337E-1   -1.574864304055796E-1    3.191423602988114E-3    3.630845459140045E-3    3.108721164131880E-3    3.547972657530179E-3    3.341981214682507E-1   -4.247484462953264E-1
