#  HZ   S   RI   R     50.00 
! Rohde & Schwarz Vector Network Analyzer 
! Rohde-Schwarz,ZNB20-2Port,1311601062101988,3.16
! Created: UTC 12/23/2023, 3:36:11 AM
! freq[Hz]                re:S11                  im:S11                  re:S21                  im:S21                  re:S12                  im:S12                  re:S22                  im:S22
 7.837865356000000E9     5.661664131013577E-1   -2.285324718165682E-2    1.669484093972260E-3    3.688950739821505E-3    1.641258208627587E-3    3.641747651186830E-3    4.339547819648472E-1   -3.213678466801059E-1
 7.837895382125000E9     5.662843151396749E-1   -2.494476929413312E-2    1.679941226670343E-3    3.704982979683496E-3    1.677489223343587E-3    3.639155292786331E-3    4.326982584731258E-1   -3.230937387062094E-1
 7.837925408250000E9     5.661259457497089E-1   -2.673403181847687E-2    1.722557387477441E-3    3.704216014383646E-3    1.700925819180567E-3    3.636433000805377E-3    4.312564009938678E-1   -3.249457921072170E-1
 7.837955434375000E9     5.660254444851323E-1   -2.883987656914058E-2    1.726026826688078E-3    3.690975846368130E-3    1.729934141480069E-3    3.630098367533159E-3    4.300534654104500E-1   -3.264231945396934E-1
 7.837985460500000E9     5.660328408491226E-1   -3.095663732611664E-2    1.757589044052303E-3    3.689773285828192E-3    1.759420961810837E-3    3.631659403656035E-3    4.287704196397162E-1   -3.281988406020434E-1
 7.838015486625000E9     5.659192560660822E-1   -3.281503642045663E-2    1.775878594193816E-3    3.676985822217623E-3    1.760658490231678E-3    3.632185648791058E-3    4.276190004141508E-1   -3.298443389627012E-1
 7.838045512750000E9     5.656504982364680E-1   -3.481013411996265E-2    1.765964251933929E-3    3.689112037197264E-3    1.763427152385000E-3    3.626910138355040E-3    4.264847124988835E-1   -3.314596381654519E-1
 7.838075538875000E9     5.656495310547655E-1   -3.683616513444547E-2    1.811157215784977E-3    3.688464692393117E-3    1.785767140433962E-3    3.594273406203882E-3    4.250720647238581E-1   -3.332295388918642E-1
 7.838105565000000E9     5.655699933099574E-1   -3.869727746877307E-2    1.821347225885829E-3    3.683936018673946E-3    1.815038184822391E-3    3.639634204361946E-3    4.238745624444482E-1   -3.349905542902203E-1
 7.838135591125000E9     5.655055338120876E-1   -4.078777977393828E-2    1.798328876646306E-3    3.687321033877170E-3    1.851448719098683E-3    3.640330342407200E-3    4.224983518669612E-1   -3.364610685899871E-1
 7.838165617250000E9     5.652214096795480E-1   -4.287765329056493E-2    1.862047160283343E-3    3.700365347070743E-3    1.877451125621365E-3    3.649919629291783E-3    4.211550974842087E-1   -3.382054562842003E-1
 7.838195643375000E9     5.651451762723978E-1   -4.478923327485148E-2    1.891354671301285E-3    3.679340924870887E-3    1.885489683098604E-3    3.621210710543550E-3    4.198265055300255E-1   -3.399047548103760E-1
 7.838225669500000E9     5.650577969848738E-1   -4.679936298616377E-2    1.897463795046346E-3    3.698397140223625E-3    1.887731358823929E-3    3.599507600942897E-3    4.185176817779724E-1   -3.414584059635985E-1
 7.838255695625000E9     5.647590265593918E-1   -4.864071642657273E-2    1.910411941413726E-3    3.701838262517377E-3    1.913667580801265E-3    3.647206552064000E-3    4.173054682218880E-1   -3.430890308066160E-1
 7.838285721750000E9     5.646194775869868E-1   -5.077153718261641E-2    1.925975458514639E-3    3.684428311420673E-3    1.907273324663662E-3    3.629204768676030E-3    4.158703074757030E-1   -3.448753581627050E-1
 7.838315747875000E9     5.645123676797976E-1   -5.261654608561504E-2    1.923942254846518E-3    3.717865461008069E-3    1.960054025494041E-3    3.614742928031035E-3    4.145371786541655E-1   -3.463099867356782E-1
 7.838345774000000E9     5.643637691133652E-1   -5.472037044453304E-2    1.954480873557094E-3    3.679441189931720E-3    1.967607812641131E-3    3.612362582502111E-3    4.133310270293731E-1   -3.481244772256282E-1
 7.838375800125000E9     5.640319594901210E-1   -5.681826148597991E-2    2.002191262275405E-3    3.644070400866757E-3    1.975667533608773E-3    3.591691452452148E-3    4.117528031513107E-1   -3.497259331987511E-1
 7.838405826250000E9     5.638883728822831E-1   -5.874015715556152E-2    1.991099716923217E-3    3.702665762961218E-3    1.978455025674287E-3    3.565120844851292E-3    4.104906501146159E-1   -3.512293487940867E-1
 7.838435852375000E9     5.637704493113366E-1   -6.074440214275578E-2    2.001190311766089E-3    3.661359029101958E-3    1.989543869093207E-3    3.605713888322580E-3    4.092073522183812E-1   -3.527636716487597E-1
 7.838465878500000E9     5.635696772127059E-1   -6.264206523022078E-2    2.030444032940302E-3    3.665200875133902E-3    2.027582639948228E-3    3.613376333880966E-3    4.077287887609477E-1   -3.543736353940838E-1
 7.838495904625000E9     5.633660174155750E-1   -6.473619687608237E-2    2.044183195226500E-3    3.657419441903910E-3    2.045641628741980E-3    3.565286171999197E-3    4.065065401450680E-1   -3.560366408168502E-1
 7.838525930750000E9     5.630900177945333E-1   -6.680624247564955E-2    2.075502625097984E-3    3.634556841530153E-3    2.057457227122966E-3    3.615594852326295E-3    4.050610564978059E-1   -3.576781356635989E-1
 7.838555956875000E9     5.628322671473489E-1   -6.874826822461452E-2    2.106919532399669E-3    3.675728295079688E-3    2.056486422139828E-3    3.595860614435962E-3    4.036321830858501E-1   -3.592198187101985E-1
 7.838585983000000E9     5.626188437831796E-1   -7.065465655523337E-2    2.130707083463780E-3    3.679159341721860E-3    2.090981944806336E-3    3.611925604939770E-3    4.021652064736740E-1   -3.606789023924250E-1
 7.838616009125000E9     5.625014345959534E-1   -7.272284355823655E-2    2.126797588045633E-3    3.656437622286600E-3    2.150169252175590E-3    3.632832026990614E-3    4.008738620867137E-1   -3.623537298338906E-1
 7.838646035250000E9     5.621729893215016E-1   -7.453908922074587E-2    2.154954179999108E-3    3.669302694253187E-3    2.145309780457970E-3    3.603841986078880E-3    3.994392637771694E-1   -3.638507748711031E-1
 7.838676061375000E9     5.620088232008700E-1   -7.663734265336623E-2    2.160353280794689E-3    3.651866938839662E-3    2.135200724423173E-3    3.595987022358308E-3    3.979704178174908E-1   -3.654029075408692E-1
 7.838706087500000E9     5.614355737545861E-1   -7.857100827037233E-2    2.212204004804352E-3    3.643333605174965E-3    2.161821329202259E-3    3.602532180558866E-3    3.965801214367125E-1   -3.670511977954678E-1
 7.838736113625000E9     5.613023092187562E-1   -8.060801979548800E-2    2.203592744478329E-3    3.647631439270355E-3    2.199589521270453E-3    3.631169046312076E-3    3.951894619940984E-1   -3.685549457053229E-1
 7.838766139750000E9     5.610891990324703E-1   -8.253783637209711E-2    2.260775327563502E-3    3.654547724371596E-3    2.220614725489129E-3    3.594932433340661E-3    3.937251573456568E-1   -3.701043519945441E-1
 7.838796165875000E9     5.607859256620965E-1   -8.456246937136255E-2    2.243280339515815E-3    3.637907976922484E-3    2.213431806239869E-3    3.591772205896658E-3    3.922133067916841E-1   -3.715646859212406E-1
 7.838826192000000E9     5.605432895483883E-1   -8.650428055569669E-2    2.273828925697739E-3    3.658597935743121E-3    2.241092935532733E-3    3.568442772537884E-3    3.908656357986848E-1   -3.731227909940729E-1
 7.838856218125000E9     5.600887751128292E-1   -8.860195472461369E-2    2.286685325161724E-3    3.647997005736376E-3    2.264501479440314E-3    3.612807839016462E-3    3.893765824107702E-1   -3.746511430659406E-1
 7.838886244250000E9     5.598792175052946E-1   -9.051793073470507E-2    2.328265004683629E-3    3.650822761675623E-3    2.275135437883033E-3    3.599603831238946E-3    3.878900823027608E-1   -3.762286798109531E-1
 7.838916270375000E9     5.595298636716727E-1   -9.246558903136071E-2    2.335230537375623E-3    3.651270037323769E-3    2.282340129427218E-3    3.603526953034277E-3    3.864893527708890E-1   -3.777716211662597E-1
 7.838946296500000E9     5.592818151284825E-1   -9.447616131625290E-2    2.363372237888208E-3    3.614375770237407E-3    2.301515612708788E-3    3.606225540793523E-3    3.850663117744791E-1   -3.790500788086574E-1
 7.838976322625000E9     5.588835087436764E-1   -9.646078694770606E-2    2.363059684100161E-3    3.647334921733835E-3    2.344291469954120E-3    3.582436990117812E-3    3.835589774822871E-1   -3.806902878987956E-1
 7.839006348750000E9     5.585550315166548E-1   -9.849272348194572E-2    2.382341366218839E-3    3.634347473446930E-3    2.367270924438165E-3    3.573090964030786E-3    3.821061208036595E-1   -3.822062665078738E-1
 7.839036374875000E9     5.581523708771302E-1   -1.005530471104110E-1    2.387541371005098E-3    3.622510707615087E-3    2.386516714309909E-3    3.611771327269308E-3    3.806032471926142E-1   -3.836226049356593E-1
 7.839066401000000E9     5.579176819633149E-1   -1.023824264728986E-1    2.417155863624722E-3    3.629527631607351E-3    2.376031923033856E-3    3.575388986518309E-3    3.792077108651100E-1   -3.853087925890411E-1
 7.839096427125000E9     5.574629391853095E-1   -1.044016830325595E-1    2.451335776139059E-3    3.631867356587934E-3    2.445099734364917E-3    3.598737321233412E-3    3.775674237286849E-1   -3.867055760685179E-1
 7.839126453250000E9     5.571075861162293E-1   -1.064433899877639E-1    2.479269791217766E-3    3.624294544759270E-3    2.451539082754520E-3    3.561676537625411E-3    3.761546023760217E-1   -3.883218346370016E-1
 7.839156479375000E9     5.566755929956330E-1   -1.084155273940527E-1    2.478991704569615E-3    3.625412227303294E-3    2.454793955242009E-3    3.571134529679284E-3    3.745294556598700E-1   -3.896865234105900E-1
 7.839186505500000E9     5.562640414055763E-1   -1.103496189202449E-1    2.488171073611606E-3    3.605368534403091E-3    2.470459674475821E-3    3.568745010479802E-3    3.730037716048547E-1   -3.911140871156029E-1
 7.839216531625000E9     5.559629837319454E-1   -1.122649993613067E-1    2.533429400303849E-3    3.609850101297649E-3    2.514319143374162E-3    3.582028031998483E-3    3.715612113895041E-1   -3.926138044795652E-1
 7.839246557750000E9     5.554975130674281E-1   -1.143828505816207E-1    2.569651508173631E-3    3.616114581522836E-3    2.519112768973102E-3    3.579222200689965E-3    3.699590310181935E-1   -3.940041421243019E-1
 7.839276583875000E9     5.552660267264856E-1   -1.162040650536264E-1    2.574652784057246E-3    3.609396442542254E-3    2.563871211883466E-3    3.583514740032029E-3    3.685595140533651E-1   -3.955320528661105E-1
 7.839306610000000E9     5.546868418923387E-1   -1.181486897910139E-1    2.618572188685043E-3    3.616184101646630E-3    2.560563109941422E-3    3.566108763413092E-3    3.670350889373047E-1   -3.969486710042247E-1
 7.839336636125000E9     5.542569805820142E-1   -1.201753321349276E-1    2.624300475346643E-3    3.607271301544837E-3    2.598229686223649E-3    3.550936847306826E-3    3.654304263535872E-1   -3.984518234484092E-1
 7.839366662250000E9     5.538710990535843E-1   -1.220985357878877E-1    2.647130988397080E-3    3.604354084964837E-3    2.606466255551305E-3    3.548703773591437E-3    3.638537641778934E-1   -3.997849799844684E-1
 7.839396688375000E9     5.534573369647422E-1   -1.240537557736375E-1    2.666957058438356E-3    3.600841537235062E-3    2.640348294319991E-3    3.553941128556728E-3    3.623783186454448E-1   -4.013016814350637E-1
 7.839426714500000E9     5.530084736544161E-1   -1.260257782940072E-1    2.696783988480967E-3    3.605224790143080E-3    2.642881366537268E-3    3.560342176914983E-3    3.607851142190262E-1   -4.025339801426248E-1
 7.839456740625000E9     5.526165623783128E-1   -1.278855889184004E-1    2.699649772938082E-3    3.600677846656586E-3    2.637667455824169E-3    3.541325763795319E-3    3.590614040347301E-1   -4.041549537137104E-1
 7.839486766750000E9     5.521690469926461E-1   -1.299882289406199E-1    2.738973518344476E-3    3.606988620831828E-3    2.711479627592789E-3    3.562236312675646E-3    3.576386880606335E-1   -4.055360857510763E-1
 7.839516792875000E9     5.515405681355834E-1   -1.318867035918179E-1    2.760926820890008E-3    3.613078916665634E-3    2.736147482017277E-3    3.561856496265250E-3    3.559751369826034E-1   -4.068807735367490E-1
 7.839546819000000E9     5.512049467945960E-1   -1.340065553425702E-1    2.772582844796103E-3    3.580465475257037E-3    2.750965385205494E-3    3.568260730013390E-3    3.546270752079908E-1   -4.081892613871374E-1
 7.839576845125000E9     5.505362115883858E-1   -1.357745037483732E-1    2.808473415040399E-3    3.587845983404967E-3    2.745272123261255E-3    3.540639537440366E-3    3.528123327898883E-1   -4.095948093575034E-1
 7.839606871250000E9     5.502023163604338E-1   -1.378561045055624E-1    2.820954834533325E-3    3.574785523059262E-3    2.786136862049167E-3    3.563424943509131E-3    3.512529937795884E-1   -4.110411353389533E-1
 7.839636897375000E9     5.496989870878524E-1   -1.398966041697285E-1    2.851869880412440E-3    3.568831265596412E-3    2.795344359595624E-3    3.542976218636961E-3    3.496583287568624E-1   -4.124388013010281E-1
 7.839666923500000E9     5.492017643789919E-1   -1.416833166306008E-1    2.888523471822134E-3    3.577499783654986E-3    2.851134821166678E-3    3.566755534206055E-3    3.481902786941607E-1   -4.137647434463831E-1
 7.839696949625000E9     5.486890764208009E-1   -1.436324009387891E-1    2.856411435778084E-3    3.603430856932403E-3    2.843723341172250E-3    3.539821789164101E-3    3.464636290748895E-1   -4.150781704977930E-1
 7.839726975750000E9     5.482396209841643E-1   -1.456168182584285E-1    2.926671441968456E-3    3.568564016582093E-3    2.884009786825911E-3    3.511190978416523E-3    3.448106943825047E-1   -4.165982877748281E-1
 7.839757001875000E9     5.476142926082678E-1   -1.476133943881870E-1    2.933398557726952E-3    3.578348881354982E-3    2.863791456861949E-3    3.528625794774345E-3    3.431956890595938E-1   -4.177561853236109E-1
 7.839787028000000E9     5.472499564401245E-1   -1.496824269210693E-1    2.961382678576014E-3    3.583459218831203E-3    2.902495206349397E-3    3.526783906532030E-3    3.415874593932518E-1   -4.190722157847123E-1
 7.839817054125000E9     5.465460047742879E-1   -1.513766653441143E-1    3.008586475437594E-3    3.573459361465227E-3    2.939478298677982E-3    3.509822906044572E-3    3.399528724409164E-1   -4.204069241387545E-1
 7.839847080250000E9     5.459520082199901E-1   -1.533755057338945E-1    3.007147892052776E-3    3.577055318956383E-3    2.958670932638400E-3    3.540996462593426E-3    3.382111538547035E-1   -4.218953228493553E-1
 7.839877106375000E9     5.454173955904215E-1   -1.554588701841481E-1    3.040891297523624E-3    3.573030276759520E-3    2.998181084775038E-3    3.514243497991795E-3    3.367878809622262E-1   -4.231410936488459E-1
 7.839907132500000E9     5.448814134539826E-1   -1.573522244986386E-1    3.081397241316336E-3    3.546821451534995E-3    3.026967656143734E-3    3.543578751063736E-3    3.349677661615414E-1   -4.244747881832804E-1
 7.839937158625000E9     5.443331871302935E-1   -1.592180770228144E-1    3.092905521018256E-3    3.555114417025379E-3    3.044903021453601E-3    3.524554962020543E-3    3.333568159056488E-1   -4.257797918071522E-1
 7.839967184750000E9     5.437622549922408E-1   -1.612301878777310E-1    3.099579792808637E-3    3.565633995516788E-3    3.071586774234566E-3    3.516116036482005E-3    3.317207259930260E-1   -4.269814691924763E-1
 7.839997210875000E9     5.432005099760815E-1   -1.632145478320474E-1    3.116421356275846E-3    3.531121527605187E-3    3.080780271512180E-3    3.504980419320314E-3    3.300190278016666E-1   -4.283881532208886E-1
 7.840027237000000E9     5.426213711269487E-1   -1.651111846772235E-1    3.169419834616903E-3    3.537590640054641E-3    3.110758332879538E-3    3.553837040497900E-3    3.284155397397072E-1   -4.295364331199167E-1
 7.840057263125000E9     5.419367822683022E-1   -1.670425032286159E-1    3.187134901098566E-3    3.553982406396243E-3    3.148713089764139E-3    3.555550331331664E-3    3.266738557588748E-1   -4.310642289026576E-1
 7.840087289250000E9     5.414265552006104E-1   -1.689916379602442E-1    3.218738020879672E-3    3.544670804057854E-3    3.165520049041220E-3    3.512487710293185E-3    3.250616731225266E-1   -4.322432135984708E-1
 7.840117315375000E9     5.407239499370027E-1   -1.709444335213467E-1    3.219090474277257E-3    3.534882134123344E-3    3.183228729908477E-3    3.520203187130519E-3    3.234536560831453E-1   -4.334400246283178E-1
 7.840147341500000E9     5.401994359425427E-1   -1.728183678520868E-1    3.271156532651836E-3    3.562824016891088E-3    3.211235982013975E-3    3.542202855195521E-3    3.218200872689311E-1   -4.349203187051577E-1
 7.840177367625000E9     5.395082873896475E-1   -1.747784071562253E-1    3.303352566445285E-3    3.540062920592542E-3    3.228332115080655E-3    3.528612048821272E-3    3.199591837750108E-1   -4.360189727117847E-1
 7.840207393750000E9     5.388745654337722E-1   -1.766257446757133E-1    3.315788783408570E-3    3.504623139787409E-3    3.282700056898541E-3    3.517475672114634E-3    3.182981118346053E-1   -4.373672133460459E-1
 7.840237419875000E9     5.382606391645608E-1   -1.785694857231918E-1    3.345231188610057E-3    3.549550714385958E-3    3.305191626680308E-3    3.519266447542851E-3    3.166893702843553E-1   -4.385164070033916E-1
 7.840267446000000E9     5.376005019046508E-1   -1.805935495451965E-1    3.415121307128667E-3    3.528088226616696E-3    3.331899376640905E-3    3.501099922580191E-3    3.149342437171476E-1   -4.397605170166312E-1
 7.840297472125000E9     5.369689713628103E-1   -1.825145204477614E-1    3.390826362699118E-3    3.543340168582701E-3    3.324697844547436E-3    3.500327347052533E-3    3.131322368150168E-1   -4.410209992001787E-1
 7.840327498250000E9     5.363544278791322E-1   -1.843519098924140E-1    3.441423158390507E-3    3.524116116933934E-3    3.362634198600230E-3    3.520484440675238E-3    3.115158744200370E-1   -4.421415924367218E-1
 7.840357524375000E9     5.355945277416846E-1   -1.863664985958841E-1    3.459992558222344E-3    3.538799038214511E-3    3.426259368880909E-3    3.481188240692188E-3    3.097105866620335E-1   -4.434071764601150E-1
 7.840387550500000E9     5.348547042907520E-1   -1.881335040591603E-1    3.488771960252695E-3    3.517461224114828E-3    3.420555760924863E-3    3.484665673362117E-3    3.081383084963126E-1   -4.447836762514842E-1
 7.840417576625000E9     5.341930583501242E-1   -1.902021629868244E-1    3.532687651362644E-3    3.502246712378131E-3    3.471538649107024E-3    3.474226068105011E-3    3.063368737128258E-1   -4.458425683571323E-1
 7.840447602750000E9     5.336161297504062E-1   -1.922537186093398E-1    3.566581315303884E-3    3.501754527071747E-3    3.508827211804898E-3    3.493593606748963E-3    3.047088017286342E-1   -4.471174366452016E-1
 7.840477628875000E9     5.328311061989547E-1   -1.939448228585112E-1    3.566451355512437E-3    3.503137109831273E-3    3.547435261788383E-3    3.515232167906242E-3    3.028997879560707E-1   -4.482397845241372E-1
 7.840507655000000E9     5.321163379962406E-1   -1.958511571034207E-1    3.611597176482615E-3    3.514438637475290E-3    3.559274638897398E-3    3.455142140003775E-3    3.011879846439215E-1   -4.493509406001870E-1
 7.840537681125000E9     5.313247301053137E-1   -1.977700034122044E-1    3.649457947185084E-3    3.519972038931789E-3    3.585047024034592E-3    3.470398408355596E-3    2.992788725781031E-1   -4.506236585709801E-1
 7.840567707250000E9     5.307628763935536E-1   -1.996644814591405E-1    3.679583880214441E-3    3.505446641786469E-3    3.589813695475936E-3    3.479201037978896E-3    2.977002627730968E-1   -4.518510899378161E-1
