#  HZ   S   RI   R     50.00 
! Rohde & Schwarz Vector Network Analyzer 
! Rohde-Schwarz,ZNB20-2Port,1311601062101988,3.16
! Created: UTC 12/23/2023, 3:55:39 AM
! freq[Hz]                re:S11                  im:S11                  re:S21                  im:S21                  re:S12                  im:S12                  re:S22                  im:S22
 7.837125558000000E9     5.654894010134240E-1    2.757646941312029E-2    1.260257930033605E-3    3.745229196297657E-3    1.303111763671371E-3    3.686036332085596E-3    4.628128595639489E-1   -2.776697787457718E-1
 7.837158487200000E9     5.656545305233471E-1    2.547650435595126E-2    1.296020356880230E-3    3.748306885076918E-3    1.290658842265840E-3    3.730345895539238E-3    4.615450155415616E-1   -2.794858831804642E-1
 7.837191416400000E9     5.658024115925400E-1    2.334601132376471E-2    1.326561618656646E-3    3.757561451413827E-3    1.292740939556470E-3    3.688342358423925E-3    4.603830946300863E-1   -2.813832765882516E-1
 7.837224345600000E9     5.659908259808749E-1    2.111233088331790E-2    1.322037919382678E-3    3.734790056857314E-3    1.343120402357743E-3    3.684779659418466E-3    4.592194711721252E-1   -2.834380422481950E-1
 7.837257274800000E9     5.659468484674581E-1    1.886354492353769E-2    1.360681214356994E-3    3.749185337855127E-3    1.357473446452935E-3    3.700090299038263E-3    4.579752605398507E-1   -2.854650747217089E-1
 7.837290204000000E9     5.661319786283262E-1    1.673749692621450E-2    1.387087879079220E-3    3.754813635380978E-3    1.381629155227475E-3    3.706809260967958E-3    4.569679669644051E-1   -2.873896276420499E-1
 7.837323133200000E9     5.662265825220534E-1    1.453651097475722E-2    1.375555266060339E-3    3.766142740116124E-3    1.390690873078069E-3    3.704954450333269E-3    4.555288380143270E-1   -2.894020874049245E-1
 7.837356062400000E9     5.663330065079903E-1    1.248200424185129E-2    1.397286180885248E-3    3.755613058275315E-3    1.415540103366883E-3    3.670270700335500E-3    4.543147769680200E-1   -2.913268884830504E-1
 7.837388991600000E9     5.663185669257748E-1    1.034084040099219E-2    1.410337095996475E-3    3.751874283440956E-3    1.439520568947442E-3    3.638048920875016E-3    4.530727657177097E-1   -2.932653988562772E-1
 7.837421920800000E9     5.662907296640232E-1    7.997341895877218E-3    1.420293434277449E-3    3.728032623598702E-3    1.472654608752730E-3    3.715660623565587E-3    4.517536245248062E-1   -2.951811573544336E-1
 7.837454850000000E9     5.664581401466020E-1    5.817592880433754E-3    1.458004565072581E-3    3.752115849863603E-3    1.447837953867397E-3    3.702575945829704E-3    4.505757786299576E-1   -2.971276974020295E-1
 7.837487779200000E9     5.663432412686304E-1    3.615659716275768E-3    1.455855896768140E-3    3.726641736181975E-3    1.509419782583768E-3    3.679072214390446E-3    4.492333199692352E-1   -2.989902751025200E-1
 7.837520708400000E9     5.664307745676843E-1    1.408071497527372E-3    1.487425064981965E-3    3.757287131669969E-3    1.485367778229804E-3    3.652896482913106E-3    4.480161755021911E-1   -3.009605852768359E-1
 7.837553637600000E9     5.663852632898732E-1   -7.125529145929746E-4    1.489199377695340E-3    3.755287629792115E-3    1.532507672476297E-3    3.689724493671857E-3    4.466306392226367E-1   -3.031041964096597E-1
 7.837586566800000E9     5.664889310965895E-1   -2.953355274431288E-3    1.553116302902812E-3    3.754388105465194E-3    1.548065607205848E-3    3.699192521288832E-3    4.453440710913740E-1   -3.048075718339198E-1
 7.837619496000000E9     5.664402623710357E-1   -4.990103114517139E-3    1.536067091209383E-3    3.732873340852261E-3    1.553995758892361E-3    3.693603844835619E-3    4.442075857990926E-1   -3.066250536747090E-1
 7.837652425200000E9     5.665897124792995E-1   -7.368383551178680E-3    1.543838925826287E-3    3.744749862421830E-3    1.604370004553782E-3    3.686336281543945E-3    4.427857148780427E-1   -3.085884541583269E-1
 7.837685354400000E9     5.664077150167711E-1   -9.659510186952177E-3    1.593490539987923E-3    3.744575024285274E-3    1.631905542710782E-3    3.675906804722567E-3    4.415051540281831E-1   -3.105277491458683E-1
 7.837718283600000E9     5.664720481530742E-1   -1.174605573354169E-2    1.598002560894133E-3    3.745008516095403E-3    1.636458376725973E-3    3.662550955496580E-3    4.403342461242979E-1   -3.124768911852507E-1
 7.837751212800000E9     5.664901482051911E-1   -1.377132451032586E-2    1.618511501883865E-3    3.728446459368259E-3    1.615807337763026E-3    3.640211941934844E-3    4.388530588580496E-1   -3.143695882590514E-1
 7.837784142000000E9     5.664985986976478E-1   -1.601022973563357E-2    1.663535157192643E-3    3.741563156916686E-3    1.656660014972471E-3    3.615919216045251E-3    4.374422556885308E-1   -3.161914531877439E-1
 7.837817071200000E9     5.662765513780396E-1   -1.821703517224308E-2    1.668935159069734E-3    3.738307151371439E-3    1.689197286764327E-3    3.633336728674026E-3    4.362731660259814E-1   -3.181656471701742E-1
 7.837850000400000E9     5.662302253585819E-1   -2.041491721751434E-2    1.683974996790405E-3    3.734895236636030E-3    1.676421148123671E-3    3.673537449767622E-3    4.348984316835063E-1   -3.198774046704078E-1
 7.837882929600000E9     5.661507275833212E-1   -2.274718091548215E-2    1.704775961392713E-3    3.743661336390484E-3    1.689813161982655E-3    3.674860021267511E-3    4.334074647155743E-1   -3.217162308865359E-1
 7.837915858800000E9     5.661700358763234E-1   -2.479469208768382E-2    1.737629097734845E-3    3.727170039408812E-3    1.701161109145980E-3    3.680333057183534E-3    4.320135060707989E-1   -3.237452968516570E-1
 7.837948788000000E9     5.660250318517649E-1   -2.700126641182840E-2    1.758471720390745E-3    3.724520626076566E-3    1.751131176761128E-3    3.657493124890064E-3    4.305776517754268E-1   -3.254374781124845E-1
 7.837981717200000E9     5.658691008288097E-1   -2.917570333842802E-2    1.764634835409936E-3    3.742140238940577E-3    1.776253707877204E-3    3.647696305671864E-3    4.293946160683966E-1   -3.273674546593043E-1
 7.838014646400000E9     5.658558704835440E-1   -3.144751440690963E-2    1.784067336375254E-3    3.716834461154834E-3    1.788906298785232E-3    3.648558212918547E-3    4.279916839843157E-1   -3.291485386733576E-1
 7.838047575600000E9     5.656871912544250E-1   -3.357366082071570E-2    1.807842281945880E-3    3.735522492343390E-3    1.792016175864731E-3    3.687399635451826E-3    4.265867665799262E-1   -3.310791206389362E-1
 7.838080504800000E9     5.655163433337290E-1   -3.596997377195977E-2    1.835329847076920E-3    3.689603221089643E-3    1.839214454145449E-3    3.674633470808135E-3    4.251146860804818E-1   -3.327930693504380E-1
 7.838113434000000E9     5.655534466804636E-1   -3.791287672694660E-2    1.863286370602818E-3    3.720815378860385E-3    1.829217891786957E-3    3.640437507381384E-3    4.236417550230101E-1   -3.345739301593134E-1
 7.838146363200000E9     5.653088375585097E-1   -4.010385760802646E-2    1.845972001372221E-3    3.719722569867680E-3    1.866168610237226E-3    3.659030309210547E-3    4.223520457615598E-1   -3.364958917791817E-1
 7.838179292400000E9     5.650929823258234E-1   -4.234330366757839E-2    1.876349939290648E-3    3.725522379834469E-3    1.858125179537008E-3    3.658390117190262E-3    4.209970539228596E-1   -3.384466046752961E-1
 7.838212221600000E9     5.649490649149717E-1   -4.460926719194187E-2    1.902921449104770E-3    3.721779941299445E-3    1.908610946224107E-3    3.631562018634393E-3    4.195132461730920E-1   -3.400588180716522E-1
 7.838245150800000E9     5.648156787496152E-1   -4.677016658683629E-2    1.925377903888883E-3    3.702430373240675E-3    1.920257979674268E-3    3.656843729189794E-3    4.180479807634645E-1   -3.419718835875963E-1
 7.838278080000000E9     5.646065399847622E-1   -4.895769853959769E-2    1.979975422034359E-3    3.732115700043598E-3    1.930919369093900E-3    3.636810276881023E-3    4.165475750230378E-1   -3.436943207007976E-1
 7.838311009200000E9     5.644664473724127E-1   -5.111440891794037E-2    1.961004513522008E-3    3.714000897324649E-3    1.979229702449226E-3    3.661075371105801E-3    4.149998781105573E-1   -3.454973020959704E-1
 7.838343938400000E9     5.642327393348080E-1   -5.324184681078247E-2    1.987381929038746E-3    3.702246418793939E-3    1.983129544162641E-3    3.664688886022379E-3    4.135318030429995E-1   -3.472173900554882E-1
 7.838376867600000E9     5.640695047205047E-1   -5.549680086723404E-2    2.001539601535476E-3    3.714909445020240E-3    2.025649482418704E-3    3.648917805708135E-3    4.120582518774882E-1   -3.488257202791063E-1
 7.838409796800000E9     5.640173079733813E-1   -5.756694372935501E-2    2.026985039455241E-3    3.716779986269824E-3    2.033586787149573E-3    3.630687143614717E-3    4.106351321186865E-1   -3.507712902594088E-1
 7.838442726000000E9     5.636374021853716E-1   -5.999273239000967E-2    2.048145557019991E-3    3.696445283473317E-3    2.009866642557298E-3    3.649717265031779E-3    4.090344981036674E-1   -3.526134132942100E-1
 7.838475655200000E9     5.634041113037566E-1   -6.202500652126732E-2    2.069761624328528E-3    3.704362121996457E-3    2.043071195408785E-3    3.628892422764561E-3    4.076269530632118E-1   -3.544142488905400E-1
 7.838508584400000E9     5.631707238929531E-1   -6.419805543927716E-2    2.097206112758127E-3    3.684595864910656E-3    2.069500964953363E-3    3.645478762331000E-3    4.061819630292390E-1   -3.560351188784905E-1
 7.838541513600000E9     5.629043768305396E-1   -6.642554366272706E-2    2.125031526810914E-3    3.684328640066163E-3    2.079121078117187E-3    3.633372869191866E-3    4.045150517913688E-1   -3.577472612710274E-1
 7.838574442800000E9     5.625613835214528E-1   -6.859704389664602E-2    2.119314746574874E-3    3.694815689491385E-3    2.140468555938733E-3    3.662365085608540E-3    4.030123009058069E-1   -3.594793056078883E-1
 7.838607372000000E9     5.624777388480300E-1   -7.076135885339241E-2    2.188557491409433E-3    3.677614042642927E-3    2.141431533445732E-3    3.640655764686979E-3    4.015542302190569E-1   -3.612104111484354E-1
 7.838640301200000E9     5.621104015197766E-1   -7.303791904361813E-2    2.184864705360764E-3    3.669225449200157E-3    2.159466303166881E-3    3.662329636412307E-3    3.999888954347183E-1   -3.628753747694785E-1
 7.838673230400000E9     5.619623117759914E-1   -7.506517722811865E-2    2.190532080891529E-3    3.680265780586895E-3    2.170727433781924E-3    3.650848065048182E-3    3.985766102048564E-1   -3.646065636357471E-1
 7.838706159600000E9     5.615864758006425E-1   -7.734131996825452E-2    2.203860858406947E-3    3.704989561731277E-3    2.183901542342323E-3    3.614550753570080E-3    3.968518077279816E-1   -3.664612695381904E-1
 7.838739088800000E9     5.612983322247199E-1   -7.968586541439698E-2    2.256031690659769E-3    3.686799534463671E-3    2.213121351267971E-3    3.637070259019467E-3    3.953457180112810E-1   -3.680752790024917E-1
 7.838772018000000E9     5.610949485293537E-1   -8.178714658158122E-2    2.261873860224828E-3    3.699591897760933E-3    2.218642007077559E-3    3.637528278493870E-3    3.937052247663318E-1   -3.698138985097771E-1
 7.838804947200000E9     5.606620225571731E-1   -8.379616969241442E-2    2.291655686629099E-3    3.688943889744778E-3    2.259926161092815E-3    3.619244355676117E-3    3.920464780793979E-1   -3.715250483773646E-1
 7.838837876400000E9     5.603960039183974E-1   -8.591611425387542E-2    2.314308032380793E-3    3.695330164712638E-3    2.296504082264769E-3    3.643113008537240E-3    3.905787671161742E-1   -3.731076162249367E-1
 7.838870805600000E9     5.600890783624466E-1   -8.826798784019477E-2    2.330173466001705E-3    3.672625699884548E-3    2.304516298770127E-3    3.648408706575746E-3    3.891507135146963E-1   -3.748126196397087E-1
 7.838903734800000E9     5.596576040091472E-1   -9.039206779239999E-2    2.354172591885870E-3    3.669781172986147E-3    2.301027387849500E-3    3.626546811136056E-3    3.874226578738264E-1   -3.764475906926428E-1
 7.838936664000000E9     5.593003933971421E-1   -9.267185347254532E-2    2.384659071700669E-3    3.673148193749481E-3    2.333379221766495E-3    3.620027185807145E-3    3.858089574694969E-1   -3.782833174872154E-1
 7.838969593200000E9     5.590411593661487E-1   -9.480876374913617E-2    2.400827206192475E-3    3.661398434387231E-3    2.396946305355423E-3    3.620145877964718E-3    3.843001177099216E-1   -3.797441796184502E-1
 7.839002522400000E9     5.585733870810752E-1   -9.688957589789612E-2    2.437746124755452E-3    3.662754512653694E-3    2.398144709709032E-3    3.608795857363877E-3    3.826802858577638E-1   -3.814009751430269E-1
 7.839035451600000E9     5.582205288171901E-1   -9.916694055924535E-2    2.444838556270626E-3    3.644065788812263E-3    2.434445199389642E-3    3.620204593504772E-3    3.810079194666027E-1   -3.832196837981940E-1
 7.839068380800000E9     5.578268807609219E-1   -1.012493382034927E-1    2.472680470543642E-3    3.669224013739981E-3    2.480180812446091E-3    3.593716061974176E-3    3.794318886715442E-1   -3.846883045738761E-1
 7.839101310000000E9     5.573723690813850E-1   -1.032019395472357E-1    2.472239992588534E-3    3.652470093413304E-3    2.482336987112382E-3    3.619873533264504E-3    3.775963365612235E-1   -3.863939167331075E-1
 7.839134239200000E9     5.570188178715774E-1   -1.056882777941390E-1    2.511691915197274E-3    3.689873927388128E-3    2.516537271435896E-3    3.606117859515431E-3    3.759771030933619E-1   -3.879719812439013E-1
 7.839167168400000E9     5.566171148454667E-1   -1.078083342465034E-1    2.545850011819301E-3    3.655076652447851E-3    2.515130560436674E-3    3.587422383123524E-3    3.744517167516234E-1   -3.896006315360594E-1
 7.839200097600000E9     5.561616640605415E-1   -1.098700327193667E-1    2.562527184326277E-3    3.659281475546979E-3    2.549969769785402E-3    3.585188980633182E-3    3.725909197319532E-1   -3.912469617057833E-1
 7.839233026800000E9     5.557142856053888E-1   -1.122788364508722E-1    2.599404433429986E-3    3.660823292953511E-3    2.573452173361217E-3    3.582432264226332E-3    3.711329218944462E-1   -3.929156752533975E-1
 7.839265956000000E9     5.553493686760845E-1   -1.143368754236217E-1    2.600788368127466E-3    3.634158589030348E-3    2.588876556687184E-3    3.619658442769051E-3    3.695146092424332E-1   -3.943970891160821E-1
 7.839298885200000E9     5.547712775277844E-1   -1.164831140643693E-1    2.668902864166689E-3    3.640164216593425E-3    2.601707929309944E-3    3.584852326629415E-3    3.676579425178289E-1   -3.959882128276492E-1
 7.839331814400000E9     5.541931199677227E-1   -1.185962192360305E-1    2.686336430202357E-3    3.650603691279481E-3    2.633397499640357E-3    3.627583659918086E-3    3.659886079769181E-1   -3.974842430963462E-1
 7.839364743600000E9     5.538945072631833E-1   -1.207748285614199E-1    2.681511524661279E-3    3.630595423895221E-3    2.655222694119970E-3    3.610449003903866E-3    3.644246504532369E-1   -3.991013816158819E-1
 7.839397672800000E9     5.534907119800889E-1   -1.228556054434793E-1    2.702248098648856E-3    3.657122670044735E-3    2.656135852225934E-3    3.589857610014121E-3    3.627057738230667E-1   -4.007786878964212E-1
 7.839430602000000E9     5.531222296851915E-1   -1.250152280168380E-1    2.769981327787521E-3    3.666715644843475E-3    2.714520611692747E-3    3.579494997063211E-3    3.609690068661532E-1   -4.021837835810797E-1
 7.839463531200000E9     5.524855195796263E-1   -1.273020108658368E-1    2.776632782995467E-3    3.610938060589361E-3    2.711907718351019E-3    3.566734591313360E-3    3.592919665405583E-1   -4.038731417589367E-1
 7.839496460400000E9     5.518160784219477E-1   -1.293433319059752E-1    2.797346289685212E-3    3.651675170065970E-3    2.740223864961778E-3    3.624858765757425E-3    3.575258650152114E-1   -4.053589652865691E-1
 7.839529389600000E9     5.514183258088364E-1   -1.315405388077162E-1    2.814926661184290E-3    3.610151745322745E-3    2.772141185706203E-3    3.566982274731727E-3    3.557674061159127E-1   -4.069711575554137E-1
 7.839562318800000E9     5.508342102583323E-1   -1.336492119172818E-1    2.862108003732761E-3    3.626591528490200E-3    2.814881608945715E-3    3.561125272186519E-3    3.540492993680078E-1   -4.085221296891436E-1
 7.839595248000000E9     5.504956859766347E-1   -1.357441780619172E-1    2.853588948973639E-3    3.635608186082706E-3    2.865066462125544E-3    3.573894191591633E-3    3.522763696755761E-1   -4.099644184404910E-1
 7.839628177200000E9     5.498782414330354E-1   -1.379348316317733E-1    2.911640834278300E-3    3.606344898714967E-3    2.840347546204964E-3    3.557612773079226E-3    3.504716811597708E-1   -4.114764288302596E-1
 7.839661106400000E9     5.492491792821868E-1   -1.402562841619676E-1    2.938097630304294E-3    3.621819468685043E-3    2.890836019077317E-3    3.555452071771145E-3    3.487798557897446E-1   -4.128360980950700E-1
 7.839694035600000E9     5.487506020483101E-1   -1.422336165353402E-1    2.895807155539578E-3    3.611864071377659E-3    2.929910718336911E-3    3.566165992165050E-3    3.468996057383321E-1   -4.144491359681173E-1
 7.839726964800000E9     5.481826964747195E-1   -1.443735384998511E-1    2.967411223248898E-3    3.614755865182871E-3    2.944071966989431E-3    3.621000351404664E-3    3.452761204597491E-1   -4.159659449274955E-1
 7.839759894000000E9     5.477445010415618E-1   -1.466007955587470E-1    3.013641429423836E-3    3.621104933547196E-3    2.949738468521943E-3    3.563873194609586E-3    3.435137131584096E-1   -4.173878183824173E-1
 7.839792823200000E9     5.470254843238177E-1   -1.487545400522395E-1    3.010056089187307E-3    3.613154014147505E-3    2.969773649607653E-3    3.573613035043355E-3    3.415645691731073E-1   -4.188549333659222E-1
 7.839825752400000E9     5.463461343781438E-1   -1.509574433571653E-1    3.058151000950875E-3    3.586841948481289E-3    3.011473787151526E-3    3.544195575131115E-3    3.398347887486546E-1   -4.203386552095358E-1
 7.839858681600000E9     5.458077512102320E-1   -1.530413946337472E-1    3.057538327841117E-3    3.569251991627266E-3    3.055063297040547E-3    3.546775023382813E-3    3.380884633943820E-1   -4.217981291417249E-1
 7.839891610800000E9     5.451911476264927E-1   -1.551701264930430E-1    3.132876130612619E-3    3.607819932093825E-3    3.079751126396605E-3    3.534919032936273E-3    3.361681190113354E-1   -4.231892287498120E-1
 7.839924540000000E9     5.445625373913723E-1   -1.572721534535696E-1    3.190122011666097E-3    3.570368175544591E-3    3.100279553337017E-3    3.548417736620096E-3    3.345204476069709E-1   -4.247551665716514E-1
 7.839957469200000E9     5.439816436048380E-1   -1.593528336741820E-1    3.168106858502378E-3    3.594216042651401E-3    3.131261550225805E-3    3.563440832443728E-3    3.326668332385251E-1   -4.261703049303013E-1
 7.839990398400000E9     5.433060800381330E-1   -1.615653014372602E-1    3.204254546554248E-3    3.577389506157555E-3    3.166339330913748E-3    3.552694794491600E-3    3.309421569854855E-1   -4.275486235075822E-1
 7.840023327600000E9     5.426538030877244E-1   -1.635807470508090E-1    3.253075857964640E-3    3.586201178475170E-3    3.199128923485849E-3    3.558428960799765E-3    3.290666308346690E-1   -4.290039954344410E-1
 7.840056256800000E9     5.420951171323667E-1   -1.657511697636913E-1    3.264608225566331E-3    3.602524740598996E-3    3.225248799162823E-3    3.546201562943620E-3    3.271535400301054E-1   -4.304292246621177E-1
 7.840089186000000E9     5.414091593975187E-1   -1.679017906136359E-1    3.309692574070808E-3    3.571440670482336E-3    3.237541203682510E-3    3.552589951532769E-3    3.254434748102525E-1   -4.318410410935173E-1
