#  HZ   S   RI   R     50.00 
! Rohde & Schwarz Vector Network Analyzer 
! Rohde-Schwarz,ZNB20-2Port,1311601062101988,3.16
! Created: UTC 12/23/2023, 3:56:11 AM
! freq[Hz]                re:S11                  im:S11                  re:S21                  im:S21                  re:S12                  im:S12                  re:S22                  im:S22
 7.837260548000000E9     5.660125669287154E-1    1.869937988129138E-2    1.322217975489221E-3    3.758330323243823E-3    1.353555797955307E-3    3.677782129938635E-3    4.578273869361646E-1   -2.856231833873542E-1
 7.837292836600000E9     5.661170739734865E-1    1.660694594982881E-2    1.350689455485392E-3    3.747045370235122E-3    1.386466087267931E-3    3.679433059876325E-3    4.565298412625712E-1   -2.875311921627683E-1
 7.837325125200000E9     5.661695885348933E-1    1.438137634422101E-2    1.364435625343887E-3    3.749293805417650E-3    1.399879743428069E-3    3.673414499660261E-3    4.554734125544407E-1   -2.893104708785704E-1
 7.837357413800000E9     5.662257633350026E-1    1.231691892891093E-2    1.411815343605435E-3    3.756498379893129E-3    1.403757684736992E-3    3.666178226175922E-3    4.541973721472410E-1   -2.913180029397323E-1
 7.837389702400000E9     5.663878897630426E-1    1.019867366068236E-2    1.417911039575628E-3    3.762558677180326E-3    1.444063549949222E-3    3.704358462930059E-3    4.530021339366326E-1   -2.931716496038863E-1
 7.837421991000000E9     5.663286167184185E-1    7.978197915085212E-3    1.406373268021842E-3    3.741617383270523E-3    1.432887464456568E-3    3.645946871976875E-3    4.518583634614400E-1   -2.952329613352399E-1
 7.837454279600000E9     5.663992964641911E-1    5.837626785041777E-3    1.460386077045397E-3    3.737995971152249E-3    1.492219063089551E-3    3.651486223846165E-3    4.505488693063525E-1   -2.969826910388172E-1
 7.837486568200000E9     5.663477203780484E-1    3.713678366070611E-3    1.491014640780759E-3    3.744770673487231E-3    1.501130353575582E-3    3.674773639727681E-3    4.492459335754920E-1   -2.989891215023606E-1
 7.837518856800000E9     5.664965187069647E-1    1.470725652278173E-3    1.473521234223792E-3    3.741125922596423E-3    1.516164313614081E-3    3.699920406813116E-3    4.480508781745084E-1   -3.008744009476028E-1
 7.837551145400000E9     5.664858146846556E-1   -5.901535698883949E-4    1.514440434000642E-3    3.748601556028514E-3    1.521611722355270E-3    3.677903956208587E-3    4.467952535070078E-1   -3.027984450956865E-1
 7.837583434000000E9     5.665453870868862E-1   -2.668095171172920E-3    1.548529306094969E-3    3.761184664265359E-3    1.545420731756721E-3    3.684871753142986E-3    4.456738762213641E-1   -3.046638777790321E-1
 7.837615722600000E9     5.664805529723984E-1   -4.912390294128745E-3    1.559160379274186E-3    3.750744556637693E-3    1.573661269326057E-3    3.662623220747700E-3    4.443068888879592E-1   -3.064965065035216E-1
 7.837648011200000E9     5.665907349107093E-1   -6.916218619800938E-3    1.563488017242760E-3    3.759414776802868E-3    1.550042398620804E-3    3.683351691120478E-3    4.431370121635622E-1   -3.084195382506894E-1
 7.837680299800000E9     5.664154453123276E-1   -9.124331128844181E-3    1.574002055020097E-3    3.742174435979186E-3    1.591524738128356E-3    3.674694180227922E-3    4.417837637678036E-1   -3.102978973571843E-1
 7.837712588400000E9     5.664426347775617E-1   -1.131759295865582E-2    1.618373570929964E-3    3.733391520860012E-3    1.617577966974175E-3    3.671667120856433E-3    4.403923538156952E-1   -3.121284004540494E-1
 7.837744877000000E9     5.664146014791883E-1   -1.344673281940305E-2    1.619461382035372E-3    3.715860635446932E-3    1.614532034753254E-3    3.630781157924995E-3    4.391969113211655E-1   -3.140175415779742E-1
 7.837777165600000E9     5.664207692884137E-1   -1.561623048981672E-2    1.637300076723669E-3    3.719032226992659E-3    1.648391054998250E-3    3.667397999908545E-3    4.379506866271001E-1   -3.158000718128584E-1
 7.837809454200000E9     5.664428346755658E-1   -1.785693131420074E-2    1.655680972203128E-3    3.720911056812552E-3    1.667190915359088E-3    3.655245630756535E-3    4.363872756857969E-1   -3.174775908794509E-1
 7.837841742800000E9     5.662811724704131E-1   -1.985177492503344E-2    1.675852209664501E-3    3.737214673736076E-3    1.679662230345732E-3    3.645148662587655E-3    4.351443543451417E-1   -3.194936867506632E-1
 7.837874031400000E9     5.661398471789247E-1   -2.211717540413400E-2    1.698441251747854E-3    3.719043980237908E-3    1.708241498076502E-3    3.665671916788322E-3    4.338613856450497E-1   -3.211610125782345E-1
 7.837906320000000E9     5.660949423368955E-1   -2.420727558717509E-2    1.722114433066249E-3    3.743139469699311E-3    1.749510871444702E-3    3.664366378940992E-3    4.324288774771591E-1   -3.231428678380418E-1
 7.837938608600000E9     5.660420053546724E-1   -2.643906574941009E-2    1.733969244897952E-3    3.715829923772977E-3    1.751817707488112E-3    3.647956633084747E-3    4.310766448333578E-1   -3.249496043307947E-1
 7.837970897200000E9     5.659028706375789E-1   -2.849336076991955E-2    1.753757190669101E-3    3.716627918681488E-3    1.764993644410246E-3    3.675179376175897E-3    4.296945687078185E-1   -3.266835760010473E-1
 7.838003185800000E9     5.658349777709526E-1   -3.067200880130798E-2    1.750094884074492E-3    3.715436286837437E-3    1.761595964038425E-3    3.675291600264424E-3    4.285602439098046E-1   -3.285884635824771E-1
 7.838035474400000E9     5.656498519078643E-1   -3.281417383723752E-2    1.830282027956711E-3    3.747359549133506E-3    1.782157305079425E-3    3.652980495136620E-3    4.271533851247801E-1   -3.302370451579357E-1
 7.838067763000000E9     5.656651850905231E-1   -3.504869464499629E-2    1.803842640097474E-3    3.729277280823517E-3    1.816504189457843E-3    3.672638524462160E-3    4.256166703544281E-1   -3.321647771871888E-1
 7.838100051600000E9     5.653672571568659E-1   -3.709276015430053E-2    1.812884052975278E-3    3.714932969074707E-3    1.815962340193202E-3    3.673289175969623E-3    4.243162672165180E-1   -3.339904673356033E-1
 7.838132340200000E9     5.654520924772115E-1   -3.919170527999270E-2    1.853698032851463E-3    3.715109974795723E-3    1.846158881056668E-3    3.625850336259683E-3    4.229714855637202E-1   -3.358616608595159E-1
 7.838164628800000E9     5.651565109362737E-1   -4.140225451442966E-2    1.870352379751069E-3    3.718454614316151E-3    1.859028570939878E-3    3.670015051053867E-3    4.214508026584495E-1   -3.374552401949525E-1
 7.838196917400000E9     5.650856110935795E-1   -4.354838002000248E-2    1.897931459234917E-3    3.700668875435905E-3    1.889169751346744E-3    3.641968021404488E-3    4.200164073236428E-1   -3.391451489476471E-1
 7.838229206000000E9     5.649655823079874E-1   -4.562581235731871E-2    1.922685152941307E-3    3.695665885751768E-3    1.915301348576782E-3    3.653199309686161E-3    4.186606644472423E-1   -3.410039735031780E-1
 7.838261494600000E9     5.646420479115913E-1   -4.780189139692623E-2    1.939511987498759E-3    3.696629444947878E-3    1.919284778069337E-3    3.659352664749448E-3    4.172264438718769E-1   -3.428431070022400E-1
 7.838293783200000E9     5.645734533298855E-1   -5.005414542193737E-2    1.961737741480070E-3    3.706806958727495E-3    1.937405729335653E-3    3.626060027814345E-3    4.159143969713158E-1   -3.446060040176965E-1
 7.838326071800000E9     5.643540056524626E-1   -5.216997246056072E-2    1.972507702054119E-3    3.693918907066255E-3    1.937750465331376E-3    3.642822189890574E-3    4.143079308989476E-1   -3.462065666654366E-1
 7.838358360400000E9     5.641437731048422E-1   -5.422754340623048E-2    1.999435817115384E-3    3.713970223276789E-3    1.996507089919413E-3    3.657735668731975E-3    4.128706053024314E-1   -3.479801611804122E-1
 7.838390649000000E9     5.639787098881365E-1   -5.639964058732956E-2    2.037576049819347E-3    3.692438817401611E-3    2.015891710844379E-3    3.657005028339944E-3    4.114478013986069E-1   -3.498548208064131E-1
 7.838422937600000E9     5.638843062325879E-1   -5.848143166276358E-2    2.038994673094456E-3    3.704435589549124E-3    2.032213388660179E-3    3.671133192393942E-3    4.100017206411584E-1   -3.514835259178581E-1
 7.838455226200000E9     5.636673129007874E-1   -6.060424871406427E-2    2.056294708168770E-3    3.697484607166160E-3    2.061568667318692E-3    3.649416632479857E-3    4.083966713372862E-1   -3.531516285061779E-1
 7.838487514800000E9     5.634307440369035E-1   -6.283568069049464E-2    2.103709009527684E-3    3.697370618971483E-3    2.077912636576397E-3    3.625532509257442E-3    4.071201766009052E-1   -3.549520719163040E-1
 7.838519803400000E9     5.630781924000695E-1   -6.501671257544656E-2    2.114731891929945E-3    3.704646286573038E-3    2.092634321325179E-3    3.638941695077492E-3    4.055594042786019E-1   -3.567352450913759E-1
 7.838552092000000E9     5.627603066957150E-1   -6.709520616146437E-2    2.130455434061954E-3    3.686738255628901E-3    2.098389728999130E-3    3.629912999105233E-3    4.042241590271843E-1   -3.583346772843655E-1
 7.838584380600000E9     5.626861916731744E-1   -6.907094967010258E-2    2.141897659787991E-3    3.661336849945355E-3    2.133603132907026E-3    3.657363326296459E-3    4.026042205225002E-1   -3.599709192517557E-1
 7.838616669200000E9     5.622827909801860E-1   -7.138938286883527E-2    2.177464109271263E-3    3.679628861954210E-3    2.129425755274501E-3    3.641691920638724E-3    4.010801046584838E-1   -3.616673340857311E-1
 7.838648957800000E9     5.619890282052776E-1   -7.349493899469221E-2    2.198007438414375E-3    3.692487558001676E-3    2.146573944052440E-3    3.607918711313818E-3    3.996510062308584E-1   -3.633122279022210E-1
 7.838681246400000E9     5.616993283376578E-1   -7.564057500301317E-2    2.208906381667436E-3    3.693393531484561E-3    2.157513276715186E-3    3.636778242857884E-3    3.981388329375545E-1   -3.651744809268212E-1
 7.838713535000000E9     5.615038371520652E-1   -7.777854769509578E-2    2.234759366283927E-3    3.671634513333209E-3    2.225844567729372E-3    3.633241281244043E-3    3.965668898567711E-1   -3.667783568137555E-1
 7.838745823600000E9     5.613262664133079E-1   -8.004775060683478E-2    2.266609676335735E-3    3.678796038889429E-3    2.196554695093278E-3    3.654949933188478E-3    3.950019961200169E-1   -3.684339756447347E-1
 7.838778112200000E9     5.609609672578530E-1   -8.212901386987520E-2    2.291319021731561E-3    3.680133702340481E-3    2.241094896497056E-3    3.642256634819024E-3    3.934718316614443E-1   -3.700320496907185E-1
 7.838810400800000E9     5.605692677019516E-1   -8.430562467449652E-2    2.267201443141896E-3    3.682513428668328E-3    2.263197380110370E-3    3.617507896672550E-3    3.919859865628478E-1   -3.717179147669490E-1
 7.838842689400000E9     5.603300411704485E-1   -8.644087228136428E-2    2.311081854385405E-3    3.663728063789192E-3    2.283883209827189E-3    3.587330702600742E-3    3.904459158044897E-1   -3.734850784979145E-1
 7.838874978000000E9     5.599792774876713E-1   -8.836706669333766E-2    2.329755872181572E-3    3.669254728399694E-3    2.326564748358257E-3    3.640570919353339E-3    3.889228023218286E-1   -3.750284688967786E-1
 7.838907266600000E9     5.596080795561315E-1   -9.060720431128551E-2    2.349653403842148E-3    3.681286621841432E-3    2.311688649282525E-3    3.600507375524015E-3    3.873191679427441E-1   -3.767095364308984E-1
 7.838939555200000E9     5.592446960636059E-1   -9.271107878087413E-2    2.374179869348635E-3    3.685805602282003E-3    2.380881247173120E-3    3.628095773891840E-3    3.856873605039888E-1   -3.783574106621403E-1
 7.838971843800000E9     5.588874505335073E-1   -9.483172048134503E-2    2.419389652950364E-3    3.685745868906627E-3    2.403276243254576E-3    3.633128203521593E-3    3.841928062603289E-1   -3.799956843543660E-1
 7.839004132400000E9     5.585399276258014E-1   -9.708325044916309E-2    2.416433971346186E-3    3.657684807537696E-3    2.398232875737581E-3    3.634407722336138E-3    3.826651471593959E-1   -3.814796566233781E-1
 7.839036421000000E9     5.580675698587544E-1   -9.917631950250722E-2    2.450460402037503E-3    3.652121228402456E-3    2.415520635140202E-3    3.610572469789190E-3    3.808520773637852E-1   -3.831132156215858E-1
 7.839068709600000E9     5.577701806421899E-1   -1.012605528074310E-1    2.482786299527439E-3    3.637951954669556E-3    2.458435816430460E-3    3.638854552191785E-3    3.793774959750968E-1   -3.847963115907956E-1
 7.839100998200000E9     5.573992775987248E-1   -1.032637560576997E-1    2.483901729197817E-3    3.635640977720744E-3    2.464195900260069E-3    3.607156388677854E-3    3.777123428193612E-1   -3.862961363712328E-1
 7.839133286800000E9     5.570134289220046E-1   -1.056529285128767E-1    2.511713292482516E-3    3.652110217550011E-3    2.511235411048676E-3    3.625196446177373E-3    3.761492000356340E-1   -3.878839141195768E-1
 7.839165575400000E9     5.566684871034164E-1   -1.075899536250281E-1    2.528639638626881E-3    3.644133033955800E-3    2.490494983306908E-3    3.592468614417205E-3    3.743728785756982E-1   -3.895024468835546E-1
 7.839197864000000E9     5.561261654189628E-1   -1.097340465527725E-1    2.563812873987318E-3    3.642609124208353E-3    2.514327869341765E-3    3.619635943392944E-3    3.728196868358454E-1   -3.910707558465449E-1
 7.839230152600000E9     5.557446862891865E-1   -1.119937120659731E-1    2.572317243571385E-3    3.642924651454034E-3    2.531424042423333E-3    3.591581103231738E-3    3.712746951338816E-1   -3.926831223659091E-1
 7.839262441200000E9     5.554321739357461E-1   -1.138760471423164E-1    2.648063685334103E-3    3.646692929807903E-3    2.595963772356984E-3    3.608877320270534E-3    3.695953914957288E-1   -3.942040838426538E-1
 7.839294729800000E9     5.550804010094544E-1   -1.160120267750622E-1    2.631123146836599E-3    3.626574115320808E-3    2.592669069846235E-3    3.592264981272294E-3    3.677834457692220E-1   -3.958277206435711E-1
 7.839327018400000E9     5.546026284794695E-1   -1.182637873048328E-1    2.645056390615144E-3    3.643692222324110E-3    2.626050312601196E-3    3.602375216433217E-3    3.663957788577697E-1   -3.973592181799055E-1
 7.839359307000000E9     5.540125864141262E-1   -1.204077229562784E-1    2.674487963429692E-3    3.645497221484646E-3    2.651115165618910E-3    3.593997910404707E-3    3.646107619810892E-1   -3.988791495939334E-1
 7.839391595600000E9     5.534767836622499E-1   -1.225048258239902E-1    2.721861390561744E-3    3.644157237527940E-3    2.668397065822327E-3    3.582867451938733E-3    3.628358001972685E-1   -4.003479295747648E-1
 7.839423884200000E9     5.530747664973433E-1   -1.245937812499887E-1    2.747553137528392E-3    3.648087326265630E-3    2.704623451016745E-3    3.597714452749995E-3    3.613551127984083E-1   -4.018843775861183E-1
 7.839456172800000E9     5.525970917261324E-1   -1.268465830046383E-1    2.749792353430540E-3    3.648344584479754E-3    2.730342606790447E-3    3.560162226746519E-3    3.596923155855006E-1   -4.034583135389904E-1
 7.839488461400000E9     5.521606206845325E-1   -1.287935178866113E-1    2.777881388606678E-3    3.638635121811660E-3    2.753190527375551E-3    3.594615911519251E-3    3.579160511934381E-1   -4.049508749007738E-1
 7.839520750000000E9     5.515502723021335E-1   -1.309917171988086E-1    2.834118262624133E-3    3.628689928790423E-3    2.758392801543237E-3    3.591884910321051E-3    3.561579931407801E-1   -4.065001921449118E-1
 7.839553038600000E9     5.510454544362746E-1   -1.330113905679429E-1    2.837109504708663E-3    3.613776394310245E-3    2.788677756332855E-3    3.587440910320980E-3    3.544918144159763E-1   -4.079464924498722E-1
 7.839585327200000E9     5.505361768037417E-1   -1.351621708933138E-1    2.847235151250848E-3    3.619209024736897E-3    2.817725337104861E-3    3.597713342623962E-3    3.528732795105191E-1   -4.095399119939940E-1
 7.839617615800000E9     5.501128745851461E-1   -1.372675645883951E-1    2.865260430085702E-3    3.609118198464386E-3    2.817769570262264E-3    3.578579424588820E-3    3.511438595880769E-1   -4.109845434458352E-1
 7.839649904400000E9     5.496003520505430E-1   -1.393311193984246E-1    2.919486427780793E-3    3.607754425043266E-3    2.893677380453902E-3    3.556138236942199E-3    3.494185948590353E-1   -4.123458219239684E-1
 7.839682193000000E9     5.489064085731929E-1   -1.414714143266161E-1    2.935164779676996E-3    3.609235981577094E-3    2.917287521317765E-3    3.559882682205640E-3    3.476543661407674E-1   -4.139268259134039E-1
 7.839714481600000E9     5.484033429082026E-1   -1.435860155164132E-1    2.950830697042050E-3    3.604264536463477E-3    2.903868786937676E-3    3.582949952601381E-3    3.460134767800483E-1   -4.154362447006851E-1
 7.839746770200000E9     5.479417976888538E-1   -1.458684620844218E-1    2.990077461853357E-3    3.601582118807396E-3    2.952625173636210E-3    3.588114944257179E-3    3.441564809252525E-1   -4.169221061173728E-1
 7.839779058800000E9     5.474238354241177E-1   -1.477527013469060E-1    3.000115333601497E-3    3.602622871258335E-3    2.971845093430148E-3    3.551384879138967E-3    3.424912775556304E-1   -4.182078550715728E-1
 7.839811347400000E9     5.467748024919522E-1   -1.498734228858945E-1    3.041224792711317E-3    3.603443680995046E-3    3.005883402912007E-3    3.570789446739698E-3    3.407232058723723E-1   -4.196820329545100E-1
 7.839843636000000E9     5.461325202275770E-1   -1.520195952969179E-1    3.071464751214695E-3    3.612979371260579E-3    3.032802928451147E-3    3.546213925826951E-3    3.390100831104093E-1   -4.211087402364028E-1
 7.839875924600000E9     5.455606845466145E-1   -1.540982065425361E-1    3.099778806645475E-3    3.561017445585337E-3    3.031282059599259E-3    3.569951541764687E-3    3.372903706494428E-1   -4.225292461660760E-1
 7.839908213200000E9     5.449440173542687E-1   -1.561069425959624E-1    3.143486522561402E-3    3.588244238565112E-3    3.067968733004799E-3    3.590075115469930E-3    3.354016772403222E-1   -4.238350241411297E-1
 7.839940501800000E9     5.442914691478391E-1   -1.582691443684662E-1    3.165212474221149E-3    3.596734915287119E-3    3.096684827600159E-3    3.575292316564297E-3    3.335741494890289E-1   -4.253581739149435E-1
 7.839972790400000E9     5.437567783091725E-1   -1.602706196377893E-1    3.191208194538205E-3    3.580660391124790E-3    3.146145994947180E-3    3.555660914869794E-3    3.318531269726863E-1   -4.268671221650129E-1
 7.840005079000000E9     5.431470933342557E-1   -1.624320373123589E-1    3.209332857168729E-3    3.604369080721166E-3    3.170859013141790E-3    3.543202403851371E-3    3.300409239557200E-1   -4.281071012107238E-1
 7.840037367600000E9     5.424426885155194E-1   -1.645443691620343E-1    3.249524931601205E-3    3.612685976897853E-3    3.195187403429529E-3    3.542002632322438E-3    3.283086498593598E-1   -4.294811367273674E-1
 7.840069656200000E9     5.418340602485230E-1   -1.666243406214280E-1    3.298129024252946E-3    3.588868151925627E-3    3.225832387166788E-3    3.559347018607112E-3    3.265157124136220E-1   -4.309341519947957E-1
 7.840101944800000E9     5.411604103250491E-1   -1.685852638932010E-1    3.312027833100974E-3    3.593051131080442E-3    3.272860586898704E-3    3.550714159435055E-3    3.245817780999838E-1   -4.321994643655122E-1
 7.840134233400000E9     5.404677141893515E-1   -1.707420661545530E-1    3.328425175969831E-3    3.582590616454269E-3    3.277164163375874E-3    3.544697184555179E-3    3.229997580575250E-1   -4.337217532089793E-1
 7.840166522000000E9     5.399245224918364E-1   -1.729127163549438E-1    3.339728732505385E-3    3.595771059845980E-3    3.327941625133065E-3    3.539545157470450E-3    3.210495038165408E-1   -4.351084954130445E-1
