#  HZ   S   RI   R     50.00 
! Rohde & Schwarz Vector Network Analyzer 
! Rohde-Schwarz,ZNB20-2Port,1311601062101988,3.16
! Created: UTC 12/23/2023, 3:58:34 AM
! freq[Hz]                re:S11                  im:S11                  re:S21                  im:S21                  re:S12                  im:S12                  re:S22                  im:S22
 7.837302792000000E9     5.660677720409740E-1    1.583781010005301E-2    1.370612166181101E-3    3.754736946073428E-3    1.372830322896597E-3    3.680800293623028E-3    4.564200455907846E-1   -2.879237752960991E-1
 7.837335151425000E9     5.661824455111216E-1    1.373585125040439E-2    1.400306928797447E-3    3.724335410225863E-3    1.371668672662189E-3    3.663453777969844E-3    4.551224134305993E-1   -2.898882431642038E-1
 7.837367510850000E9     5.663940329463377E-1    1.172162537298618E-2    1.375893388306656E-3    3.741419127609752E-3    1.418515416347782E-3    3.677778064575336E-3    4.539212650453076E-1   -2.919400795763097E-1
 7.837399870275000E9     5.663627242595894E-1    9.543601600927647E-3    1.406449001363439E-3    3.740553019138919E-3    1.446010061386498E-3    3.685123271063104E-3    4.527016503084957E-1   -2.938415824954934E-1
 7.837432229700000E9     5.663274906454069E-1    7.297612537018344E-3    1.424586846443864E-3    3.751227997529787E-3    1.439789553500007E-3    3.688648573597275E-3    4.514924171063840E-1   -2.957640932686061E-1
 7.837464589125000E9     5.664142800898045E-1    5.270964283293398E-3    1.444662234934532E-3    3.728990072771843E-3    1.446233720716731E-3    3.677835113421712E-3    4.502341742792014E-1   -2.975943164667513E-1
 7.837496948550000E9     5.665401988094273E-1    3.167267271667098E-3    1.468670027021723E-3    3.738525263434429E-3    1.491968515236333E-3    3.651375942235283E-3    4.490356924926290E-1   -2.994163481645131E-1
 7.837529307975000E9     5.664448021780867E-1    1.048619242775417E-3    1.470441364443991E-3    3.725212228091971E-3    1.508977469149035E-3    3.629490860970380E-3    4.477259122972634E-1   -3.012501349995895E-1
 7.837561667400000E9     5.665957757433790E-1   -1.261247569469498E-3    1.502091864049160E-3    3.729729025929604E-3    1.537608626190173E-3    3.661359922837683E-3    4.464914553629659E-1   -3.032711620828064E-1
 7.837594026825000E9     5.664630184676166E-1   -3.355535551940085E-3    1.512087996082912E-3    3.740611657718353E-3    1.554509638455366E-3    3.668999838086239E-3    4.453157013091964E-1   -3.050691666243004E-1
 7.837626386250000E9     5.663913027322136E-1   -5.441233656931361E-3    1.535812052981889E-3    3.741132338189135E-3    1.566494590357320E-3    3.649671501984850E-3    4.438685864795133E-1   -3.070078735782121E-1
 7.837658745675000E9     5.665011196995474E-1   -7.599466399702243E-3    1.573146071817735E-3    3.714477935161858E-3    1.582519002310051E-3    3.678909471969488E-3    4.426904302112424E-1   -3.088651659384696E-1
 7.837691105100000E9     5.664789602900860E-1   -9.839395447441704E-3    1.596246269127658E-3    3.716435440227564E-3    1.599632574556158E-3    3.648600765963091E-3    4.413441433408302E-1   -3.108333661054488E-1
 7.837723464525000E9     5.665307394909483E-1   -1.205296037533489E-2    1.600805558437658E-3    3.737835678261681E-3    1.597476731135781E-3    3.644632645666184E-3    4.401435636227111E-1   -3.125561767644445E-1
 7.837755823950000E9     5.664075783179207E-1   -1.421804225043658E-2    1.626223999188477E-3    3.702846503748661E-3    1.618274539155733E-3    3.661617281910565E-3    4.387793500326579E-1   -3.145254696458706E-1
 7.837788183375000E9     5.662958849817152E-1   -1.636231961091877E-2    1.667205081875884E-3    3.697176387626516E-3    1.657066581979191E-3    3.649923218782213E-3    4.375941148134761E-1   -3.162970558033926E-1
 7.837820542800000E9     5.661099578586716E-1   -1.840117235276294E-2    1.629660936491546E-3    3.730304294132123E-3    1.685912632595375E-3    3.669473055853029E-3    4.361478648127480E-1   -3.181965046355356E-1
 7.837852902225000E9     5.662143497550630E-1   -2.070204871270680E-2    1.677598967746357E-3    3.729731150993909E-3    1.661625074429802E-3    3.645704231604866E-3    4.348436137119863E-1   -3.199980246833108E-1
 7.837885261650000E9     5.661738617020714E-1   -2.279438789919359E-2    1.683327829963807E-3    3.707368078637150E-3    1.694282240744509E-3    3.675386520973992E-3    4.336585369406440E-1   -3.219377762082106E-1
 7.837917621075000E9     5.661548641069543E-1   -2.494335512651997E-2    1.718860377714872E-3    3.704211401907452E-3    1.759484289252804E-3    3.667605394773576E-3    4.321826906938541E-1   -3.235898341314721E-1
 7.837949980500000E9     5.660968157106667E-1   -2.701548296177810E-2    1.718079659268296E-3    3.715381290043793E-3    1.782149894751956E-3    3.662251724117929E-3    4.308641985648548E-1   -3.254429403783696E-1
 7.837982339925000E9     5.659221504482229E-1   -2.908874253801194E-2    1.732815916573925E-3    3.734827035080007E-3    1.715747305651062E-3    3.690131210388665E-3    4.293876333093364E-1   -3.270952991634196E-1
 7.838014699350000E9     5.658605568713345E-1   -3.139878473717034E-2    1.768054423496273E-3    3.717207448154994E-3    1.799631982567596E-3    3.629491910196892E-3    4.280457689885806E-1   -3.290094515143593E-1
 7.838047058775000E9     5.657606132178881E-1   -3.346122115732553E-2    1.773667315895485E-3    3.722591707358446E-3    1.789673847397188E-3    3.626398905171481E-3    4.267498133058482E-1   -3.309448322977712E-1
 7.838079418200000E9     5.654657852780073E-1   -3.570825448106889E-2    1.808116199748185E-3    3.717318236148767E-3    1.822530281431624E-3    3.645580022041289E-3    4.253198889829665E-1   -3.327322293059433E-1
 7.838111777625000E9     5.653850874647351E-1   -3.794005770393887E-2    1.814695959788914E-3    3.712530088248588E-3    1.809135268813181E-3    3.615033200005172E-3    4.239320837589403E-1   -3.343150970338142E-1
 7.838144137050000E9     5.653228151321563E-1   -4.005821722826916E-2    1.850519524071392E-3    3.689552918274222E-3    1.876516199120519E-3    3.657266334380171E-3    4.225449852091070E-1   -3.362587668196323E-1
 7.838176496475000E9     5.652206191045743E-1   -4.212107905038205E-2    1.862617729161134E-3    3.710114987773882E-3    1.879659778596304E-3    3.664455715053868E-3    4.209815281097996E-1   -3.380038401631799E-1
 7.838208855900000E9     5.650512039205887E-1   -4.422017827974835E-2    1.881200051944837E-3    3.698690038205345E-3    1.889747849737678E-3    3.643130001982352E-3    4.196366326447193E-1   -3.397941008493542E-1
 7.838241215325000E9     5.649535245414679E-1   -4.636176098591892E-2    1.919945676526460E-3    3.693646646001699E-3    1.918423999220026E-3    3.665591668756415E-3    4.181038357310617E-1   -3.416396542034839E-1
 7.838273574750000E9     5.647594410149394E-1   -4.856499168952914E-2    1.959141735773466E-3    3.680728008165618E-3    1.904087058113744E-3    3.625920758308723E-3    4.168419620275681E-1   -3.433063875107526E-1
 7.838305934175000E9     5.644575983597957E-1   -5.062066229016961E-2    1.967415260103315E-3    3.675008974541002E-3    1.955905636207684E-3    3.619657353852032E-3    4.154299451352600E-1   -3.450233703987324E-1
 7.838338293600000E9     5.642863875283639E-1   -5.281688796394259E-2    1.962562715057329E-3    3.680667388605465E-3    1.974733888533398E-3    3.642612765857852E-3    4.140456750744010E-1   -3.468657678415518E-1
 7.838370653025000E9     5.641656910886090E-1   -5.498733013229502E-2    1.968473200487672E-3    3.687250000310038E-3    2.008052309151522E-3    3.626695961366807E-3    4.125162404167624E-1   -3.485771917234752E-1
 7.838403012450000E9     5.639314486627405E-1   -5.722462221556356E-2    1.999107656772525E-3    3.707652388423416E-3    1.997110660303166E-3    3.620514283238612E-3    4.109536572512507E-1   -3.503355478949987E-1
 7.838435371875000E9     5.637392500477878E-1   -5.930929201933992E-2    2.057975172009608E-3    3.697104870808226E-3    2.040998778157501E-3    3.603235938310093E-3    4.096893673299481E-1   -3.520629514353182E-1
 7.838467731300000E9     5.634002411796782E-1   -6.138021946970255E-2    2.035502227673196E-3    3.693449259144193E-3    2.051619961879060E-3    3.625628640146295E-3    4.082157878931656E-1   -3.537690666546792E-1
 7.838500090725000E9     5.633167297494269E-1   -6.356920014730430E-2    2.088234620306714E-3    3.726301747156733E-3    2.098975992500302E-3    3.625536753489145E-3    4.066950871005069E-1   -3.555707082552853E-1
 7.838532450150000E9     5.631206186706221E-1   -6.569659902151868E-2    2.098838035135160E-3    3.684822279479718E-3    2.087067444629680E-3    3.637373117914005E-3    4.050790898096630E-1   -3.572443683245974E-1
 7.838564809575000E9     5.626684178769153E-1   -6.782971328219026E-2    2.113276525889032E-3    3.670846286143106E-3    2.075724182074350E-3    3.612066252572987E-3    4.037730549354671E-1   -3.589840504343219E-1
 7.838597169000000E9     5.626076813991431E-1   -7.013984157431544E-2    2.126732961391850E-3    3.685012810078463E-3    2.107914000073757E-3    3.604587744547160E-3    4.022978237402280E-1   -3.606563663341240E-1
 7.838629528425000E9     5.622910117535794E-1   -7.215839094654025E-2    2.156403079432843E-3    3.676742125083812E-3    2.146421156586692E-3    3.607564529493569E-3    4.005948602280193E-1   -3.622717206416843E-1
 7.838661887850000E9     5.620263749048382E-1   -7.433128065792906E-2    2.177001699972148E-3    3.708226305147392E-3    2.139900723731134E-3    3.614313308085593E-3    3.991347902434350E-1   -3.638351200971086E-1
 7.838694247275000E9     5.617783892886850E-1   -7.648632750674296E-2    2.202640362264733E-3    3.683478225749543E-3    2.173049672365644E-3    3.618907730770974E-3    3.976076611416138E-1   -3.655467297681995E-1
 7.838726606700000E9     5.614279287631382E-1   -7.867805708915605E-2    2.225851718151854E-3    3.643595339092784E-3    2.184208170949063E-3    3.635634326268397E-3    3.960522669557653E-1   -3.672086835321042E-1
 7.838758966125000E9     5.611149980468876E-1   -8.070814758730503E-2    2.242782093146998E-3    3.670555127862705E-3    2.209725921280572E-3    3.613009072385648E-3    3.944636767209475E-1   -3.691377245609986E-1
 7.838791325550000E9     5.607311927972182E-1   -8.300088327689568E-2    2.269036995512830E-3    3.664489250962699E-3    2.228167492194833E-3    3.659775870639940E-3    3.930138336721160E-1   -3.706799704208047E-1
 7.838823684975000E9     5.605077906937344E-1   -8.499256958323807E-2    2.288820779655071E-3    3.644432936831074E-3    2.255698638483234E-3    3.617729678292856E-3    3.913832991170630E-1   -3.724039449533157E-1
 7.838856044400000E9     5.601404283836954E-1   -8.730598112634362E-2    2.298782547780172E-3    3.669494253994666E-3    2.286020244952120E-3    3.595810724829627E-3    3.898575000348390E-1   -3.740762167122992E-1
 7.838888403825000E9     5.597670800940816E-1   -8.930646626770593E-2    2.328113900196526E-3    3.653689467218807E-3    2.329087656623346E-3    3.594409243941976E-3    3.883520701108928E-1   -3.755855095937211E-1
 7.838920763250000E9     5.595100025981639E-1   -9.151578211257783E-2    2.336927567947188E-3    3.663137475593781E-3    2.342037861628438E-3    3.600894897589568E-3    3.868568555561805E-1   -3.772420699046218E-1
 7.838953122675000E9     5.591171518280301E-1   -9.357012339494783E-2    2.346107641748742E-3    3.666562605642249E-3    2.354748615943492E-3    3.600135357440918E-3    3.852432679263420E-1   -3.789013394200124E-1
 7.838985482100000E9     5.588592902061617E-1   -9.585377100508700E-2    2.406622691393401E-3    3.673263032526401E-3    2.391040708876977E-3    3.611724306502153E-3    3.834946039836498E-1   -3.806048747068363E-1
 7.839017841525000E9     5.585104096821887E-1   -9.778147959731903E-2    2.402703929596032E-3    3.674641465697626E-3    2.397940751484460E-3    3.614583577939093E-3    3.818270050750400E-1   -3.821339122785121E-1
 7.839050200950000E9     5.580682135319502E-1   -9.997695151478198E-2    2.429222088759511E-3    3.657734269860644E-3    2.414046442870996E-3    3.595644909093509E-3    3.803318118806687E-1   -3.837366455519674E-1
 7.839082560375000E9     5.577438814261620E-1   -1.021677914960890E-1    2.425722914817643E-3    3.660170984477591E-3    2.393425333119131E-3    3.603437279468131E-3    3.787512002839530E-1   -3.853687529053043E-1
 7.839114919800000E9     5.570902045429235E-1   -1.042830746625353E-1    2.489769152580388E-3    3.662677174907280E-3    2.466073235166811E-3    3.609805023678395E-3    3.771761854489930E-1   -3.869931756316641E-1
 7.839147279225000E9     5.570292616308237E-1   -1.063286753186108E-1    2.508027786946173E-3    3.620340794754784E-3    2.474180392473755E-3    3.595400888897000E-3    3.754878175193064E-1   -3.885554620662325E-1
 7.839179638650000E9     5.564197010551279E-1   -1.083449095710528E-1    2.527959995499925E-3    3.640404641012406E-3    2.515110669045479E-3    3.576138101969366E-3    3.740172163950541E-1   -3.902837759739526E-1
 7.839211998075000E9     5.560755219332545E-1   -1.106852363163170E-1    2.554345364992429E-3    3.652080092896764E-3    2.540944262085223E-3    3.572440899505626E-3    3.722580967264726E-1   -3.917537491331537E-1
 7.839244357500000E9     5.556362341069847E-1   -1.128264482672698E-1    2.594548007613057E-3    3.647826706563935E-3    2.552602730706325E-3    3.602609759099649E-3    3.705628500072888E-1   -3.933532640788694E-1
 7.839276716925000E9     5.551683665773001E-1   -1.149296152915471E-1    2.600277352786705E-3    3.627637964867958E-3    2.568706238243070E-3    3.566630852290334E-3    3.690150540932156E-1   -3.949107238626331E-1
 7.839309076350000E9     5.546824177120777E-1   -1.169634149555998E-1    2.621812373523269E-3    3.594788405007843E-3    2.600259398831178E-3    3.582612389988172E-3    3.672516937819943E-1   -3.963037728753052E-1
 7.839341435775000E9     5.543155499578870E-1   -1.191758271725014E-1    2.671481249046731E-3    3.636716477120383E-3    2.636731231420093E-3    3.566356356858956E-3    3.656355693474341E-1   -3.979121057014355E-1
 7.839373795200000E9     5.537955165871291E-1   -1.211901653806857E-1    2.676562713505731E-3    3.615027835084021E-3    2.628380062782014E-3    3.570598029099000E-3    3.639119775063402E-1   -3.994426386904490E-1
 7.839406154625000E9     5.534050382248922E-1   -1.233908260503702E-1    2.688252967779131E-3    3.603150661100982E-3    2.672833761253040E-3    3.593469158810812E-3    3.624425168659680E-1   -4.009522306496343E-1
 7.839438514050000E9     5.528348952506811E-1   -1.253789500899877E-1    2.725951780650015E-3    3.637145066522047E-3    2.702467406662354E-3    3.569006057813767E-3    3.605731960585224E-1   -4.025162169469595E-1
 7.839470873475000E9     5.523810948830603E-1   -1.276831642547903E-1    2.737864664615057E-3    3.621894573505851E-3    2.712673520370492E-3    3.585761108516457E-3    3.590076404914775E-1   -4.041369402469628E-1
 7.839503232900000E9     5.519472228802874E-1   -1.297053491478504E-1    2.761680836199925E-3    3.605007123408852E-3    2.705061717076895E-3    3.582924270263576E-3    3.572967876763748E-1   -4.055054714728629E-1
 7.839535592325000E9     5.513848226848935E-1   -1.317800454755840E-1    2.794672590173195E-3    3.613449840929186E-3    2.735442082666449E-3    3.570674724588694E-3    3.556839585075777E-1   -4.070079657462779E-1
 7.839567951750000E9     5.509036377634315E-1   -1.338735526782689E-1    2.805593244434676E-3    3.589826879241915E-3    2.785853914488187E-3    3.578958136094516E-3    3.537969710440090E-1   -4.086954441958324E-1
 7.839600311175000E9     5.505442015569039E-1   -1.359537877583819E-1    2.876770018183815E-3    3.614105752445466E-3    2.801441062459656E-3    3.565185500270335E-3    3.520732133216385E-1   -4.099920629879295E-1
 7.839632670600000E9     5.500598927499464E-1   -1.382086200940004E-1    2.868882251093395E-3    3.590023288639499E-3    2.839265846945981E-3    3.546931360003043E-3    3.504174035652238E-1   -4.115986060165061E-1
 7.839665030025000E9     5.491860929037113E-1   -1.402770925644636E-1    2.914750311490526E-3    3.599184936890264E-3    2.826181790137585E-3    3.558570839385392E-3    3.488300997550279E-1   -4.129807468550523E-1
 7.839697389450000E9     5.486399382644560E-1   -1.424226229529815E-1    2.930360778748288E-3    3.599521270820422E-3    2.881162328881518E-3    3.567966562735406E-3    3.469016187353828E-1   -4.145686343357812E-1
 7.839729748875000E9     5.481488080715187E-1   -1.444712224407243E-1    2.948076001822693E-3    3.595051277597352E-3    2.903282398040333E-3    3.572800055006712E-3    3.452551276314322E-1   -4.159585937772923E-1
 7.839762108300000E9     5.476815936797675E-1   -1.466610802447361E-1    2.968806599333052E-3    3.593587830494297E-3    2.943372213086856E-3    3.556839807999143E-3    3.434455938047815E-1   -4.174073944132919E-1
 7.839794467725000E9     5.470790568805179E-1   -1.486479033726776E-1    2.988391837947174E-3    3.596662695480785E-3    2.931165730684364E-3    3.558135966990407E-3    3.417594855308844E-1   -4.189118832203945E-1
 7.839826827150000E9     5.464538197492707E-1   -1.507863246548733E-1    3.035607368530466E-3    3.562646179537115E-3    3.000437359865674E-3    3.559813881932120E-3    3.399889986712549E-1   -4.202380541631954E-1
 7.839859186575000E9     5.458926327432477E-1   -1.529344959958942E-1    3.065591920364628E-3    3.587010005091662E-3    3.011131819975179E-3    3.535090409478977E-3    3.382373440906032E-1   -4.217038552407515E-1
 7.839891546000000E9     5.454142982937418E-1   -1.549246971417080E-1    3.073401062440135E-3    3.578260040536582E-3    3.032527459537956E-3    3.550858322095157E-3    3.363546906732627E-1   -4.231988645029134E-1
 7.839923905425000E9     5.447551302615664E-1   -1.571507839399884E-1    3.095195960164370E-3    3.574385435603463E-3    3.049999205250949E-3    3.554661497059475E-3    3.348368647155991E-1   -4.245089740403230E-1
 7.839956264850000E9     5.441300005436652E-1   -1.591627048209011E-1    3.158056625399151E-3    3.568830031230213E-3    3.090521046775679E-3    3.548179115170423E-3    3.329301008885067E-1   -4.259522105623181E-1
 7.839988624275000E9     5.434963214153463E-1   -1.613144919763898E-1    3.179698244899430E-3    3.586169467868661E-3    3.109796747812832E-3    3.560234887720089E-3    3.310923040336089E-1   -4.273747170188352E-1
 7.840020983700000E9     5.427500476538658E-1   -1.633985064271702E-1    3.185594306205632E-3    3.558012980214266E-3    3.117595126187043E-3    3.544454938657579E-3    3.292672744211098E-1   -4.287640272890457E-1
 7.840053343125000E9     5.422752690890900E-1   -1.655695459594661E-1    3.221474274700561E-3    3.541399769171274E-3    3.162563575608022E-3    3.543909696913233E-3    3.275427111586484E-1   -4.301400624338413E-1
 7.840085702550000E9     5.415395896029520E-1   -1.674968321586794E-1    3.269991223349141E-3    3.548877990920091E-3    3.212024715561849E-3    3.540564478746672E-3    3.256056473240316E-1   -4.316050960633021E-1
 7.840118061975000E9     5.409283691306558E-1   -1.696015362748370E-1    3.297130615671459E-3    3.581252493121776E-3    3.234218545189914E-3    3.513071024010370E-3    3.238078080536764E-1   -4.329186798792534E-1
 7.840150421400000E9     5.401991702522598E-1   -1.717418932266070E-1    3.288903530461566E-3    3.543628798389231E-3    3.267903942695233E-3    3.543419208524638E-3    3.223334483548454E-1   -4.342585171916199E-1
 7.840182780825000E9     5.394570965680983E-1   -1.738491669982840E-1    3.353832623825764E-3    3.564643197841582E-3    3.309054575683442E-3    3.549406187220939E-3    3.203954191849501E-1   -4.355274334684522E-1
 7.840215140250000E9     5.388700167630136E-1   -1.759061375447259E-1    3.363718128289261E-3    3.568371871476505E-3    3.346169521570614E-3    3.526721508076886E-3    3.184892040824494E-1   -4.370335677485387E-1
