#  HZ   S   RI   R     50.00 
! Rohde & Schwarz Vector Network Analyzer 
! Rohde-Schwarz,ZNB20-2Port,1311601062101988,3.16
! Created: UTC 12/23/2023, 4:01:46 AM
! freq[Hz]                re:S11                  im:S11                  re:S21                  im:S21                  re:S12                  im:S12                  re:S22                  im:S22
 7.837575993000000E9     5.664911418074375E-1   -2.472471883779856E-3    1.506996327810476E-3    3.706646683280502E-3    1.495600484290986E-3    3.647042777232903E-3    4.459950390996960E-1   -3.041932502843999E-1
 7.837607435500000E9     5.664282853319323E-1   -4.514914253048436E-3    1.509355381069715E-3    3.727428484022635E-3    1.521737123472331E-3    3.656452106767613E-3    4.446557754529947E-1   -3.058370119257580E-1
 7.837638878000000E9     5.664775636978039E-1   -6.493119406522150E-3    1.532704664387839E-3    3.715718520972663E-3    1.551478365324402E-3    3.663728607849827E-3    4.433639144452626E-1   -3.077659346459515E-1
 7.837670320500000E9     5.663826465726698E-1   -8.609775797881801E-3    1.555277219524572E-3    3.710483221015626E-3    1.568121168328476E-3    3.626316369367340E-3    4.422149876997444E-1   -3.094655872786943E-1
 7.837701763000000E9     5.665714858735441E-1   -1.061986860807425E-2    1.585119860804755E-3    3.722046369573800E-3    1.578673835560302E-3    3.623705613603732E-3    4.410775915601637E-1   -3.112727299182100E-1
 7.837733205500000E9     5.663476219636248E-1   -1.291738481516806E-2    1.591402869447737E-3    3.732741423508463E-3    1.618464364118438E-3    3.655731916701199E-3    4.397969226108666E-1   -3.131205957178615E-1
 7.837764648000000E9     5.664478291252185E-1   -1.484540293398985E-2    1.612558218626961E-3    3.709949934232293E-3    1.616951551985342E-3    3.651685970194428E-3    4.385214915778323E-1   -3.148591632051426E-1
 7.837796090500000E9     5.662756043065691E-1   -1.701228631661571E-2    1.627456482399009E-3    3.709529001947318E-3    1.623339904014736E-3    3.625470337828372E-3    4.371466865946878E-1   -3.166002987034635E-1
 7.837827533000000E9     5.663313126339165E-1   -1.909049182667938E-2    1.672394676314687E-3    3.726541953898792E-3    1.652835324974710E-3    3.632379858896628E-3    4.360311717815188E-1   -3.184831128525354E-1
 7.837858975500000E9     5.661715900024534E-1   -2.117764088981407E-2    1.660771456545098E-3    3.706572652883527E-3    1.665226310879279E-3    3.648936085275590E-3    4.346564201436068E-1   -3.202794779799475E-1
 7.837890418000000E9     5.661972057008571E-1   -2.321274343433730E-2    1.700489361690593E-3    3.700040245990698E-3    1.684651650994528E-3    3.635385267795113E-3    4.334995035263589E-1   -3.221043061036972E-1
 7.837921860500000E9     5.660679258240965E-1   -2.540894409636961E-2    1.695300289353720E-3    3.746544858991479E-3    1.689697193426982E-3    3.636731856417533E-3    4.320787530943948E-1   -3.238547034344454E-1
 7.837953303000000E9     5.660246771815701E-1   -2.727331727910163E-2    1.728679007633948E-3    3.683165413872608E-3    1.788020879763304E-3    3.608615824837901E-3    4.307169974118224E-1   -3.254926606380928E-1
 7.837984745500000E9     5.658821694812610E-1   -2.952623737350970E-2    1.752330836398032E-3    3.709246012633638E-3    1.766537809883849E-3    3.670482096114603E-3    4.292170823391822E-1   -3.273484715923722E-1
 7.838016188000000E9     5.659777943877193E-1   -3.166919875454983E-2    1.752797897893943E-3    3.701242370095551E-3    1.767975956353817E-3    3.641004464245632E-3    4.280664903559954E-1   -3.289805856703106E-1
 7.838047630500000E9     5.656640276332877E-1   -3.362240083365157E-2    1.771064436082671E-3    3.723952756642921E-3    1.809192245815291E-3    3.630542086631263E-3    4.267123486254535E-1   -3.308319656275630E-1
 7.838079073000000E9     5.655941764458281E-1   -3.573945934992982E-2    1.777957927656067E-3    3.702722735074679E-3    1.799474641778196E-3    3.619979749230642E-3    4.252814694779661E-1   -3.327361185697326E-1
 7.838110515500000E9     5.655718262896687E-1   -3.777175878949476E-2    1.832709961003419E-3    3.690185575992998E-3    1.799577175748023E-3    3.618238986227635E-3    4.239470114151272E-1   -3.342883498751870E-1
 7.838141958000000E9     5.654218530963431E-1   -4.000506408024938E-2    1.822098587068683E-3    3.682943489472198E-3    1.839133349820814E-3    3.631910118092552E-3    4.226412763685936E-1   -3.360060908838386E-1
 7.838173400500000E9     5.652655702831408E-1   -4.209184118130783E-2    1.856240223465295E-3    3.681511387819533E-3    1.832850077547222E-3    3.597865472565614E-3    4.212217823249220E-1   -3.377958061234590E-1
 7.838204843000000E9     5.650105238077767E-1   -4.410520117354824E-2    1.878622115368546E-3    3.701670370462975E-3    1.877699624949651E-3    3.639156044317491E-3    4.197514682916031E-1   -3.396276793184888E-1
 7.838236285500000E9     5.649192882024698E-1   -4.626622611139977E-2    1.904751773907929E-3    3.685906476838174E-3    1.898834284966091E-3    3.624125621801856E-3    4.186407852646445E-1   -3.412628863359750E-1
 7.838267728000000E9     5.648355419185075E-1   -4.829848996955475E-2    1.926130247736348E-3    3.691363321862117E-3    1.931663318664786E-3    3.610328456484018E-3    4.170233984085420E-1   -3.429736586238322E-1
 7.838299170500000E9     5.645255279306562E-1   -5.040731411408033E-2    1.922383252520257E-3    3.671670482112386E-3    1.929591910926345E-3    3.605235636191522E-3    4.157008693959194E-1   -3.448562021994842E-1
 7.838330613000000E9     5.642441417117249E-1   -5.257870475715154E-2    1.962365042804756E-3    3.674388446364944E-3    1.952599516210201E-3    3.644999819270618E-3    4.143975890400524E-1   -3.464508548765715E-1
 7.838362055500000E9     5.641298643871223E-1   -5.462703212902473E-2    1.990518455242046E-3    3.652537046161997E-3    1.961946939795751E-3    3.605499344367344E-3    4.128749893309814E-1   -3.480305249936279E-1
 7.838393498000000E9     5.640958163761995E-1   -5.655981836961486E-2    2.002931189088907E-3    3.680221966664832E-3    1.972052016267271E-3    3.637887421345732E-3    4.114546362566689E-1   -3.497521765575736E-1
 7.838424940500000E9     5.636982462941917E-1   -5.882230114584797E-2    2.014483430765392E-3    3.677299459443275E-3    1.969479675430858E-3    3.629571107782448E-3    4.100781812032918E-1   -3.515070663312246E-1
 7.838456383000000E9     5.635314912019372E-1   -6.068090004701692E-2    2.017405129748840E-3    3.671843481741079E-3    1.998337826367623E-3    3.627042372069252E-3    4.087663168061565E-1   -3.531879981337112E-1
 7.838487825500000E9     5.633750242230395E-1   -6.294679993497004E-2    2.056358566604112E-3    3.646970147107319E-3    2.054904705220912E-3    3.619114390453188E-3    4.072266157079437E-1   -3.547394656856466E-1
 7.838519268000000E9     5.631253759975933E-1   -6.491498643915425E-2    2.072101538836984E-3    3.670491090532026E-3    2.065581614232168E-3    3.616454556095119E-3    4.057626860530206E-1   -3.565727791948574E-1
 7.838550710500000E9     5.628362339146065E-1   -6.703745647315537E-2    2.076672068571852E-3    3.664774704638211E-3    2.076167851104098E-3    3.612790233290226E-3    4.043454624992728E-1   -3.580955429139261E-1
 7.838582153000000E9     5.625842426201783E-1   -6.920727247317836E-2    2.103394894902692E-3    3.636524625233721E-3    2.143676847596128E-3    3.606638867578241E-3    4.028438715600424E-1   -3.597921249047907E-1
 7.838613595500000E9     5.623957959134996E-1   -7.121299867330404E-2    2.119255697387933E-3    3.673431571662271E-3    2.108298917334769E-3    3.593405163289852E-3    4.014242482846321E-1   -3.613686708320030E-1
 7.838645038000000E9     5.621474807959190E-1   -7.337910972189741E-2    2.144742101075740E-3    3.655611327015175E-3    2.104613182916471E-3    3.598190404378983E-3    3.999313816797949E-1   -3.631118668179079E-1
 7.838676480500000E9     5.617491123930158E-1   -7.540410123471228E-2    2.171938773475319E-3    3.649986317278355E-3    2.161970801399327E-3    3.632673017038361E-3    3.986370146140353E-1   -3.646739305133759E-1
 7.838707923000000E9     5.616593663430229E-1   -7.741400172840530E-2    2.210005507671016E-3    3.636769291639943E-3    2.158802944259412E-3    3.619649748348491E-3    3.970106432806810E-1   -3.663705288755973E-1
 7.838739365500000E9     5.612060442210682E-1   -7.958563262586173E-2    2.198551333570831E-3    3.680215610632011E-3    2.185826507133537E-3    3.619415450650254E-3    3.954908006653582E-1   -3.678327843298992E-1
 7.838770808000000E9     5.610121476760740E-1   -8.166090813092568E-2    2.250610904089212E-3    3.686573831620472E-3    2.167022961641556E-3    3.613693426006368E-3    3.939595074444416E-1   -3.696829483264327E-1
 7.838802250500000E9     5.607236544228911E-1   -8.376977326490169E-2    2.254970068817360E-3    3.634029797634890E-3    2.246832093417414E-3    3.592256675729869E-3    3.924995357182300E-1   -3.712521274686150E-1
 7.838833693000000E9     5.602742309479395E-1   -8.584317946845645E-2    2.264376675829083E-3    3.648740866785021E-3    2.234252321438390E-3    3.610441217001698E-3    3.910065193060527E-1   -3.728000327246839E-1
 7.838865135500000E9     5.600255657605705E-1   -8.797517205013643E-2    2.263040660859975E-3    3.674411953116035E-3    2.268893578984384E-3    3.597942294007605E-3    3.894111811983202E-1   -3.745351615032398E-1
 7.838896578000000E9     5.597671431731146E-1   -8.989289165762424E-2    2.313156502414732E-3    3.629968384138477E-3    2.306530579342847E-3    3.583458911102541E-3    3.878646417889672E-1   -3.759290624802090E-1
 7.838928020500000E9     5.593385338726899E-1   -9.199278464908835E-2    2.326406145668395E-3    3.654260222613191E-3    2.294144212422064E-3    3.564984876287086E-3    3.865138611436590E-1   -3.776024681757755E-1
 7.838959463000000E9     5.590977788295334E-1   -9.417826875317693E-2    2.347315779171450E-3    3.647988885461428E-3    2.369966986134965E-3    3.614943309117740E-3    3.848677552254054E-1   -3.791946580800297E-1
 7.838990905500000E9     5.585871527119656E-1   -9.605634270510742E-2    2.363901939517989E-3    3.649587730447451E-3    2.372298739741851E-3    3.567974922687718E-3    3.833671518594199E-1   -3.806229584845078E-1
 7.839022348000000E9     5.583683035328303E-1   -9.826756822369991E-2    2.378876732868951E-3    3.629747441461019E-3    2.384784677019286E-3    3.570459222053832E-3    3.818532542041012E-1   -3.822852463756335E-1
 7.839053790500000E9     5.578953076673641E-1   -1.004105738484956E-1    2.402573029749739E-3    3.627577082566136E-3    2.372649721830041E-3    3.598783063893279E-3    3.802925075823571E-1   -3.838637415929939E-1
 7.839085233000000E9     5.576014504767202E-1   -1.023655823820068E-1    2.453149777815735E-3    3.629876060145663E-3    2.406292456022190E-3    3.554668367277517E-3    3.786226632242164E-1   -3.852867197180718E-1
 7.839116675500000E9     5.572600351014267E-1   -1.044217804930578E-1    2.486324485768969E-3    3.617039695915759E-3    2.437222157587987E-3    3.565934217432072E-3    3.769665957418682E-1   -3.870006023768424E-1
 7.839148118000000E9     5.568500157796209E-1   -1.066337353429203E-1    2.496632358869225E-3    3.616891473635986E-3    2.470602287478728E-3    3.586016367207413E-3    3.755787453202850E-1   -3.885694875085529E-1
 7.839179560500000E9     5.564202992774098E-1   -1.086147163760929E-1    2.495382116005700E-3    3.627593336159263E-3    2.452196021835210E-3    3.592016511480404E-3    3.740164248156899E-1   -3.900977542947850E-1
 7.839211003000000E9     5.562269436049687E-1   -1.106656527070919E-1    2.543307288371907E-3    3.621371906583452E-3    2.491265214450734E-3    3.578767156988177E-3    3.723861982927847E-1   -3.914720000212573E-1
 7.839242445500000E9     5.555749996658010E-1   -1.127918053216776E-1    2.576634041321856E-3    3.632878435952132E-3    2.532839163647368E-3    3.588174789510117E-3    3.707990064540440E-1   -3.930790132753820E-1
 7.839273888000000E9     5.552462561481278E-1   -1.148285664516403E-1    2.576272269661165E-3    3.628674403204542E-3    2.545294616374494E-3    3.593172117880574E-3    3.692429784005877E-1   -3.946390214830473E-1
 7.839305330500000E9     5.548067994984237E-1   -1.168329755999217E-1    2.583931178309335E-3    3.619973628258254E-3    2.579079859106095E-3    3.567678706566022E-3    3.676323026318678E-1   -3.963196237620739E-1
 7.839336773000000E9     5.544555395642229E-1   -1.189340823245578E-1    2.621129395361676E-3    3.607469758250327E-3    2.604346675951584E-3    3.546350982959882E-3    3.660005506900343E-1   -3.976930029407537E-1
 7.839368215500000E9     5.540188850199199E-1   -1.209654974406816E-1    2.641084853283148E-3    3.601876156464228E-3    2.645207973177084E-3    3.548655478472097E-3    3.642075166439884E-1   -3.992147259228540E-1
 7.839399658000000E9     5.534565298926235E-1   -1.229978403727112E-1    2.647988065449819E-3    3.636628274937061E-3    2.626224077300339E-3    3.569171021925103E-3    3.627966914459447E-1   -4.006331940666552E-1
 7.839431100500000E9     5.530521596390817E-1   -1.251226318145007E-1    2.707155629376288E-3    3.604087312749744E-3    2.691211665550834E-3    3.589289640124864E-3    3.611469018995203E-1   -4.022002389068814E-1
 7.839462543000000E9     5.525413750924264E-1   -1.270583050319747E-1    2.709340343882581E-3    3.605011668987518E-3    2.684882831951103E-3    3.589036751568806E-3    3.594816859301421E-1   -4.036000640946656E-1
 7.839493985500000E9     5.522215693290038E-1   -1.292157749465965E-1    2.732543048597596E-3    3.614925645722852E-3    2.675419718761190E-3    3.570774547774079E-3    3.577622796377273E-1   -4.050460831432258E-1
 7.839525428000000E9     5.515554191358399E-1   -1.313386797454309E-1    2.736772347170501E-3    3.592836958955473E-3    2.727475341157443E-3    3.539524396915312E-3    3.561850407662140E-1   -4.066196183399407E-1
 7.839556870500000E9     5.510301446577591E-1   -1.332910818443228E-1    2.786237062025864E-3    3.611420476707692E-3    2.746266705021670E-3    3.558784315549280E-3    3.544994727689752E-1   -4.079945465218077E-1
 7.839588313000000E9     5.505909306414256E-1   -1.352787099526820E-1    2.831415079609943E-3    3.572837052390870E-3    2.745664568768387E-3    3.546382408703138E-3    3.527654292104219E-1   -4.095127094153847E-1
 7.839619755500000E9     5.501327932527400E-1   -1.374906244480852E-1    2.838647361542255E-3    3.556019248179659E-3    2.801763692966953E-3    3.533174099116970E-3    3.511650008572038E-1   -4.109664746705289E-1
 7.839651198000000E9     5.495345829207464E-1   -1.394903739241990E-1    2.850084469290007E-3    3.585028252879310E-3    2.830098415278803E-3    3.533694811152593E-3    3.496132719777167E-1   -4.123604279368666E-1
 7.839682640500000E9     5.490676709737232E-1   -1.415051024774920E-1    2.879487595552691E-3    3.597462046663266E-3    2.861864325991787E-3    3.526232165082140E-3    3.479780915456192E-1   -4.138708800903503E-1
 7.839714083000000E9     5.485360705908499E-1   -1.436422273569810E-1    2.911252600205214E-3    3.582428118949171E-3    2.864187757761684E-3    3.590790417952784E-3    3.461457292730609E-1   -4.151726778258691E-1
 7.839745525500000E9     5.479436911581033E-1   -1.456452210447968E-1    2.933007775999352E-3    3.565837256732746E-3    2.916136344399175E-3    3.513718994714421E-3    3.444422841616978E-1   -4.166762310491881E-1
 7.839776968000000E9     5.474571075167369E-1   -1.476399443381311E-1    2.944218062289587E-3    3.581801499538254E-3    2.941328095506837E-3    3.541101914571662E-3    3.426811275098043E-1   -4.181462486684440E-1
 7.839808410500000E9     5.467476999908829E-1   -1.496991564372755E-1    2.961342333154619E-3    3.549248270234578E-3    2.926850306695853E-3    3.571727674282237E-3    3.409334387918361E-1   -4.192942565879662E-1
 7.839839853000000E9     5.463128007171172E-1   -1.516018440079171E-1    3.010680090176827E-3    3.560759273559393E-3    2.957650473751177E-3    3.506398694028721E-3    3.393225819838085E-1   -4.208420309712675E-1
 7.839871295500000E9     5.455721116584614E-1   -1.536882701974320E-1    3.002643488531490E-3    3.553160757953101E-3    2.980505787775976E-3    3.516505940366740E-3    3.378269667891299E-1   -4.221467233538082E-1
 7.839902738000000E9     5.450510663395892E-1   -1.559205593458312E-1    3.043990564529351E-3    3.544754932941290E-3    3.003963640774341E-3    3.527031853963918E-3    3.358940329718647E-1   -4.235974241573255E-1
 7.839934180500000E9     5.445124809795088E-1   -1.577947256694926E-1    3.080358568515051E-3    3.578672046016214E-3    3.018657207392991E-3    3.511745801283460E-3    3.341238161287409E-1   -4.251129424347964E-1
 7.839965623000000E9     5.438540417963140E-1   -1.599052459237632E-1    3.108238039033031E-3    3.552161977127581E-3    3.070458295467937E-3    3.523439339171015E-3    3.324274751381341E-1   -4.265733298369761E-1
 7.839997065500000E9     5.432797999082399E-1   -1.619648375903587E-1    3.136820402567811E-3    3.535117048690187E-3    3.062989324013895E-3    3.503624915732770E-3    3.307688106223223E-1   -4.276899665657103E-1
 7.840028508000000E9     5.426531681021154E-1   -1.638146228813319E-1    3.174693765622902E-3    3.568192482230025E-3    3.121990480559001E-3    3.486161529977892E-3    3.290716782981169E-1   -4.288736563067813E-1
 7.840059950500000E9     5.421354359943915E-1   -1.659489765171452E-1    3.158149304845900E-3    3.559662679852460E-3    3.122937162975474E-3    3.512179231629226E-3    3.272549660728047E-1   -4.304097659839011E-1
 7.840091393000000E9     5.414729336832993E-1   -1.680695769397411E-1    3.214478246364156E-3    3.528307285262364E-3    3.172597868575168E-3    3.531246388824931E-3    3.255075530797061E-1   -4.317506992551718E-1
 7.840122835500000E9     5.408528963919012E-1   -1.700358853894021E-1    3.243890186677921E-3    3.554444045190675E-3    3.217319012800958E-3    3.505662459057066E-3    3.237248007847898E-1   -4.331473816684309E-1
 7.840154278000000E9     5.401795434601513E-1   -1.721456314443556E-1    3.287296556207054E-3    3.548338566490686E-3    3.212588999757134E-3    3.518856056532562E-3    3.221137694021717E-1   -4.344353558198286E-1
 7.840185720500000E9     5.395408610663546E-1   -1.740422310453564E-1    3.302869042095042E-3    3.522028432790929E-3    3.237142665455518E-3    3.525509070319087E-3    3.202012394038928E-1   -4.358343178293999E-1
 7.840217163000000E9     5.389355446654787E-1   -1.759950491868451E-1    3.322654347255937E-3    3.533669491651319E-3    3.298267265336045E-3    3.517689016419758E-3    3.183857203746076E-1   -4.371685247926238E-1
 7.840248605500000E9     5.381814379640523E-1   -1.780380512247113E-1    3.384962846825294E-3    3.518401212884969E-3    3.328794877933499E-3    3.489240576764418E-3    3.167055227252555E-1   -4.382742188781201E-1
 7.840280048000000E9     5.375590100798268E-1   -1.800882194817540E-1    3.371196902304372E-3    3.522584542586503E-3    3.347080088037015E-3    3.497869464763735E-3    3.149009204980692E-1   -4.396505556072892E-1
 7.840311490500000E9     5.367341378240756E-1   -1.821414405262255E-1    3.438616630347585E-3    3.517284839157062E-3    3.344735735942315E-3    3.472187602481029E-3    3.132056620960232E-1   -4.409684684252268E-1
 7.840342933000000E9     5.360823910808712E-1   -1.841386668884391E-1    3.459019451933920E-3    3.523366445090092E-3    3.391627775971474E-3    3.474910358989266E-3    3.112022779602135E-1   -4.421873398575055E-1
 7.840374375500000E9     5.354809708426097E-1   -1.861826527456822E-1    3.491704280989097E-3    3.508825692119548E-3    3.399916602345508E-3    3.466251787549086E-3    3.095607008868492E-1   -4.436385826498543E-1
 7.840405818000000E9     5.347197862273845E-1   -1.883130165818360E-1    3.504899229808406E-3    3.529332395010526E-3    3.459171908677101E-3    3.520407906360236E-3    3.077825888411655E-1   -4.448296859878237E-1
