#  HZ   S   RI   R     50.00 
! Rohde & Schwarz Vector Network Analyzer 
! Rohde-Schwarz,ZNB20-2Port,1311601062101988,3.16
! Created: UTC 12/23/2023, 3:37:34 AM
! freq[Hz]                re:S11                  im:S11                  re:S21                  im:S21                  re:S12                  im:S12                  re:S22                  im:S22
 7.837709568000000E9     5.665394514080823E-1   -1.247281473849611E-2    1.573109210994252E-3    3.726949720053609E-3    1.597771509113323E-3    3.678349241895986E-3    4.403934401544918E-1   -3.122676832417587E-1
 7.837740236625000E9     5.664652043561498E-1   -1.442555049471101E-2    1.612268386932398E-3    3.714531211656851E-3    1.613837931793337E-3    3.674006406420077E-3    4.391920804861615E-1   -3.141464565124831E-1
 7.837770905250000E9     5.665247318589341E-1   -1.647145461191855E-2    1.636770909878781E-3    3.700317541274786E-3    1.637335118428786E-3    3.644900619776133E-3    4.379632781815014E-1   -3.159665742924986E-1
 7.837801573875000E9     5.663653681083601E-1   -1.843560620338305E-2    1.635841540580371E-3    3.698924585406219E-3    1.646431759350845E-3    3.670462922424666E-3    4.366762925336752E-1   -3.176038704732967E-1
 7.837832242500000E9     5.664525135145271E-1   -2.048181187921838E-2    1.658891820908674E-3    3.734983345171528E-3    1.649612410274832E-3    3.662588335940771E-3    4.353034327726255E-1   -3.195722667366180E-1
 7.837862911125000E9     5.663052544689088E-1   -2.270991098528016E-2    1.663469094516945E-3    3.719727124141549E-3    1.655364297328279E-3    3.644184559622315E-3    4.340962085990466E-1   -3.211668328112397E-1
 7.837893579750000E9     5.661636060898712E-1   -2.459690504701990E-2    1.687701090868206E-3    3.719617952794063E-3    1.721388257785176E-3    3.617889355677619E-3    4.329734245976147E-1   -3.229237105266087E-1
 7.837924248375000E9     5.663811314244565E-1   -2.651855566886147E-2    1.713435264909368E-3    3.708052998342152E-3    1.731583830018121E-3    3.658475401586349E-3    4.316286345071723E-1   -3.246378642629830E-1
 7.837954917000000E9     5.660056211984545E-1   -2.867293509159548E-2    1.730021055509996E-3    3.712999341470234E-3    1.726848478245282E-3    3.659035665850716E-3    4.302842687828882E-1   -3.263446223464905E-1
 7.837985585625000E9     5.661455721195532E-1   -3.076374977512511E-2    1.744685082404578E-3    3.712777620600626E-3    1.765668675682582E-3    3.624766008248222E-3    4.289342906864048E-1   -3.281229395303342E-1
 7.838016254250000E9     5.659499013742501E-1   -3.268635646238819E-2    1.778121146501796E-3    3.711384567875130E-3    1.792430829611585E-3    3.638411103617593E-3    4.276757693094061E-1   -3.297831233171342E-1
 7.838046922875000E9     5.659026080597620E-1   -3.469075636580725E-2    1.788107002122007E-3    3.679665367256623E-3    1.807874181197559E-3    3.648191916975501E-3    4.263742858706510E-1   -3.315020469242013E-1
 7.838077591500000E9     5.656042669199298E-1   -3.678738087275587E-2    1.790220956882521E-3    3.670058850227852E-3    1.771035801284504E-3    3.636004865515617E-3    4.250766466214561E-1   -3.330533542208073E-1
 7.838108260125000E9     5.655553615424534E-1   -3.887956099184013E-2    1.849159042664060E-3    3.707142988088926E-3    1.812076575078898E-3    3.617322908758408E-3    4.237419172821107E-1   -3.349645149358612E-1
 7.838138928750000E9     5.653968901769652E-1   -4.083213842897015E-2    1.830215789349262E-3    3.696434780203654E-3    1.842386644489856E-3    3.638181101126686E-3    4.222771081775713E-1   -3.366317485521746E-1
 7.838169597375000E9     5.652276596180029E-1   -4.295995817120615E-2    1.844842156639050E-3    3.717848518390771E-3    1.850071808159831E-3    3.624552830991178E-3    4.211103175467784E-1   -3.383167438163551E-1
 7.838200266000000E9     5.650263087057971E-1   -4.491181185363975E-2    1.882775867042622E-3    3.654791792415346E-3    1.874750314835874E-3    3.615714835446991E-3    4.197764793267982E-1   -3.400285753569787E-1
 7.838230934625000E9     5.648718851777834E-1   -4.701691046699009E-2    1.886509625029413E-3    3.696697875453226E-3    1.875254164848285E-3    3.654666845697906E-3    4.183757644521503E-1   -3.415173553107411E-1
 7.838261603250000E9     5.648021356457628E-1   -4.899710836871519E-2    1.883841047923766E-3    3.687896988123228E-3    1.899848321381909E-3    3.607897632317000E-3    4.170961666562287E-1   -3.434202812710663E-1
 7.838292271875000E9     5.645554253833155E-1   -5.110048736900685E-2    1.961176557081086E-3    3.685920036289325E-3    1.910378582075921E-3    3.646714053451980E-3    4.155755558280744E-1   -3.448648364329748E-1
 7.838322940500000E9     5.644263237696585E-1   -5.306798595321481E-2    1.962746722633859E-3    3.706958310559530E-3    1.926589277750170E-3    3.630097927318103E-3    4.144217345838180E-1   -3.465434884750375E-1
 7.838353609125000E9     5.641435656440302E-1   -5.528034374599211E-2    2.005469485267495E-3    3.655860003782174E-3    1.967126967794804E-3    3.603800855783916E-3    4.129497383219904E-1   -3.482862881602427E-1
 7.838384277750000E9     5.639927859153011E-1   -5.707910132583628E-2    2.001356700327297E-3    3.670496027708858E-3    2.005846097512062E-3    3.618294882510479E-3    4.114602446119088E-1   -3.501676704938546E-1
 7.838414946375000E9     5.639070889176787E-1   -5.913878706584321E-2    2.024126526199555E-3    3.695765147830790E-3    1.997852831397120E-3    3.607014250614324E-3    4.102020838443025E-1   -3.516306827222727E-1
 7.838445615000000E9     5.636795125711909E-1   -6.114493352948063E-2    2.041868339055819E-3    3.695142864586592E-3    2.041901583150204E-3    3.624681068842187E-3    4.086881708375068E-1   -3.532584085197092E-1
 7.838476283625000E9     5.634812591789062E-1   -6.327200215693184E-2    2.050501936880192E-3    3.666952778700495E-3    2.045748099034777E-3    3.626799352497725E-3    4.074573272574980E-1   -3.548246175962509E-1
 7.838506952250000E9     5.632022194743070E-1   -6.528107852749596E-2    2.069970495051212E-3    3.660288790670291E-3    2.067926987919010E-3    3.600761313330435E-3    4.058951900305843E-1   -3.563816792774542E-1
 7.838537620875000E9     5.629467777541435E-1   -6.740391721459174E-2    2.093102339542624E-3    3.650241210611300E-3    2.069979230774255E-3    3.587075874104183E-3    4.046707234303266E-1   -3.580117127900419E-1
 7.838568289500000E9     5.627474155953937E-1   -6.932926928875353E-2    2.103803990398715E-3    3.660049913001462E-3    2.083125615449264E-3    3.638007225108767E-3    4.031036178100511E-1   -3.597304172674143E-1
 7.838598958125000E9     5.625524008787083E-1   -7.127429364842527E-2    2.122188808715035E-3    3.683840375509984E-3    2.107744425037124E-3    3.616316572630902E-3    4.016347763076669E-1   -3.612069746971170E-1
 7.838629626750000E9     5.622301585927680E-1   -7.351117404385067E-2    2.156761863008248E-3    3.650196125397029E-3    2.132338131941475E-3    3.619632717213883E-3    4.004064111583977E-1   -3.628587291547489E-1
 7.838660295375000E9     5.619278528311746E-1   -7.543433669967178E-2    2.161075914601482E-3    3.678416609521178E-3    2.148037086988913E-3    3.603396184252520E-3    3.989456199963345E-1   -3.644926849153739E-1
 7.838690964000000E9     5.616065893111132E-1   -7.758911371853519E-2    2.189871666483710E-3    3.646788400606108E-3    2.216097519987113E-3    3.595190839356836E-3    3.974871124807930E-1   -3.662239056596623E-1
 7.838721632625000E9     5.614769737544130E-1   -7.961298819089062E-2    2.217227412059947E-3    3.665000448661323E-3    2.220587700545915E-3    3.579183103338611E-3    3.959233375415145E-1   -3.676816510915746E-1
 7.838752301250000E9     5.611838597877516E-1   -8.146407107071101E-2    2.219374894196958E-3    3.665917636551959E-3    2.190752992775125E-3    3.619263029300367E-3    3.945727323191822E-1   -3.692217602828157E-1
 7.838782969875000E9     5.608771571589856E-1   -8.351316127666261E-2    2.215857959262173E-3    3.636233836266539E-3    2.210631185058410E-3    3.608391770304996E-3    3.930478928501651E-1   -3.708017661239014E-1
 7.838813638500000E9     5.604454455585831E-1   -8.567157824316796E-2    2.286963282541086E-3    3.644085078333890E-3    2.268726485222217E-3    3.600709710090699E-3    3.914053316467900E-1   -3.724328547375548E-1
 7.838844307125000E9     5.601399558741957E-1   -8.767935475820150E-2    2.269593585748182E-3    3.671186275924357E-3    2.266138399629783E-3    3.570161003173810E-3    3.901659872477886E-1   -3.739739421623041E-1
 7.838874975750000E9     5.599630805835413E-1   -8.970375495825642E-2    2.304848105667847E-3    3.623986120629461E-3    2.301092599832108E-3    3.600908270030677E-3    3.885871176983058E-1   -3.755813374996569E-1
 7.838905644375000E9     5.596166820147106E-1   -9.154162373010422E-2    2.311399869264466E-3    3.645628811153059E-3    2.301243026803106E-3    3.577175440496753E-3    3.870333843730838E-1   -3.772059463612137E-1
 7.838936313000000E9     5.593500970087520E-1   -9.362963318156772E-2    2.362025761121384E-3    3.647641804158525E-3    2.348427803912497E-3    3.616141161152448E-3    3.856596216407079E-1   -3.786326815200642E-1
 7.838966981625000E9     5.589637895933858E-1   -9.572335889607807E-2    2.389554845383680E-3    3.655679459376628E-3    2.376815702963259E-3    3.582704670086325E-3    3.840055165406425E-1   -3.801379802896701E-1
 7.838997650250000E9     5.586322523627384E-1   -9.779910385477271E-2    2.372429685168433E-3    3.648208156794149E-3    2.347459417765712E-3    3.596242635306966E-3    3.826975951817158E-1   -3.817117303420549E-1
 7.839028318875000E9     5.582168144215279E-1   -9.987752474551488E-2    2.413929816734554E-3    3.631967371226964E-3    2.391386232447049E-3    3.573517637096024E-3    3.811600177580748E-1   -3.833177455453662E-1
 7.839058987500000E9     5.579121397483516E-1   -1.017670690311721E-1    2.424107796673726E-3    3.629979565463685E-3    2.406726631329589E-3    3.588214690102637E-3    3.794695578228640E-1   -3.846561826296248E-1
 7.839089656125000E9     5.574990641186461E-1   -1.037907022634020E-1    2.457989752784547E-3    3.623370146807769E-3    2.419893859290061E-3    3.571818887939673E-3    3.780037373443189E-1   -3.861639837081537E-1
 7.839120324750000E9     5.571537452758006E-1   -1.059684673195511E-1    2.465637928266274E-3    3.626924748994036E-3    2.461500214376877E-3    3.563999013918342E-3    3.764095431832077E-1   -3.877883402986639E-1
 7.839150993375000E9     5.568364986193678E-1   -1.077355511858739E-1    2.502275188843201E-3    3.625266985715561E-3    2.479274342744176E-3    3.595644979930745E-3    3.749877214862440E-1   -3.894054951333940E-1
 7.839181662000000E9     5.565150314359046E-1   -1.099590250131079E-1    2.523975266993495E-3    3.617901096563484E-3    2.492575806659544E-3    3.587050773719952E-3    3.734544800694143E-1   -3.907308074816102E-1
 7.839212330625000E9     5.558863055096013E-1   -1.118282498881402E-1    2.530736615347872E-3    3.623673076149595E-3    2.513452907738268E-3    3.580139409813981E-3    3.718622578035713E-1   -3.922376985621484E-1
 7.839242999250000E9     5.555011755089537E-1   -1.139189050894685E-1    2.546822506527897E-3    3.596032506118695E-3    2.535645572625675E-3    3.590043272359919E-3    3.702857272983383E-1   -3.937791597144247E-1
 7.839273667875000E9     5.551013550913145E-1   -1.159170245684009E-1    2.590726188227871E-3    3.592110504636114E-3    2.580715991445336E-3    3.549688054174124E-3    3.687682540236982E-1   -3.952341057887894E-1
 7.839304336500000E9     5.546927450935771E-1   -1.179781798129015E-1    2.620531839452749E-3    3.601355285327611E-3    2.558731285950224E-3    3.567430812101342E-3    3.670997208442568E-1   -3.967848457588860E-1
 7.839335005125000E9     5.542662235509906E-1   -1.199815893909442E-1    2.597983657885756E-3    3.612911311637772E-3    2.601869743539732E-3    3.580973011172190E-3    3.656990737954418E-1   -3.981213546227033E-1
 7.839365673750000E9     5.537636776583114E-1   -1.219533771921109E-1    2.643359394034013E-3    3.593039324147963E-3    2.629490965037456E-3    3.573901749773727E-3    3.640013052070575E-1   -3.994974807484885E-1
 7.839396342375000E9     5.533620212197635E-1   -1.239544962792761E-1    2.674455413613168E-3    3.603604318460902E-3    2.625435835154059E-3    3.574616910517216E-3    3.624903643074748E-1   -4.011211959452533E-1
 7.839427011000000E9     5.529400035378836E-1   -1.259985331744833E-1    2.700798817220964E-3    3.600492088645769E-3    2.688041206189751E-3    3.564709147796035E-3    3.607678809443065E-1   -4.024849713015387E-1
 7.839457679625000E9     5.524365984598704E-1   -1.278989098285662E-1    2.702740080009869E-3    3.601410036709300E-3    2.691298687929240E-3    3.530516280284602E-3    3.592304534671742E-1   -4.039441683788646E-1
 7.839488348250000E9     5.520368547202421E-1   -1.300003058346014E-1    2.722802272380787E-3    3.587436610361186E-3    2.701088181775525E-3    3.562213582747221E-3    3.576350724419604E-1   -4.054000462192684E-1
 7.839519016875000E9     5.516384072733758E-1   -1.319824242130280E-1    2.768010388507241E-3    3.590054176639047E-3    2.753073546449822E-3    3.545712465721635E-3    3.560996715563666E-1   -4.068491770935751E-1
 7.839549685500000E9     5.510638975498334E-1   -1.340109896139914E-1    2.776578122742030E-3    3.612068513155887E-3    2.716544266484642E-3    3.543865906125474E-3    3.543931869059801E-1   -4.081880289388367E-1
 7.839580354125000E9     5.506757311623662E-1   -1.360920846593090E-1    2.807889616135765E-3    3.586571554157914E-3    2.782528646294320E-3    3.519869601758543E-3    3.529733524832881E-1   -4.097008257237684E-1
 7.839611022750000E9     5.500038048360001E-1   -1.378282825157455E-1    2.854868338532655E-3    3.598910600396587E-3    2.780732306585264E-3    3.553357074909866E-3    3.509681378392731E-1   -4.110598047955631E-1
 7.839641691375000E9     5.495052771780696E-1   -1.399651877303779E-1    2.854591624949537E-3    3.591047624460880E-3    2.828625299044837E-3    3.540596858862861E-3    3.495488281716661E-1   -4.125462711719071E-1
 7.839672360000000E9     5.489715737723466E-1   -1.420623892622777E-1    2.871222550671597E-3    3.574603558735040E-3    2.814192158132478E-3    3.532463924513014E-3    3.478962502734672E-1   -4.138389821179598E-1
 7.839703028625000E9     5.485301602716841E-1   -1.439321986767658E-1    2.898581761959888E-3    3.603122262976409E-3    2.856126467138649E-3    3.550801776663801E-3    3.462764181073818E-1   -4.153919355612545E-1
 7.839733697250000E9     5.481638751630262E-1   -1.459762391280895E-1    2.908232345038545E-3    3.566825081501634E-3    2.892367054326048E-3    3.536005724070071E-3    3.446916294374207E-1   -4.166433304852579E-1
 7.839764365875000E9     5.475419114738064E-1   -1.479696805715107E-1    2.941458929425256E-3    3.587711526829978E-3    2.898826618657281E-3    3.523198479054060E-3    3.430604878424407E-1   -4.180306664079343E-1
 7.839795034500000E9     5.470652418659997E-1   -1.500031225470888E-1    2.963930712115001E-3    3.571346807001898E-3    2.927454330426399E-3    3.523686869490920E-3    3.411367017476777E-1   -4.192942716183276E-1
 7.839825703125000E9     5.463676635190612E-1   -1.519851052279233E-1    3.012232415321732E-3    3.570114287831807E-3    2.968484403532459E-3    3.563007894642251E-3    3.395793795779864E-1   -4.207849783313042E-1
 7.839856371750000E9     5.457674218274595E-1   -1.538364491338325E-1    2.993402919918431E-3    3.572323459510077E-3    2.961833593210200E-3    3.522043092028066E-3    3.379191549198736E-1   -4.221188116355704E-1
 7.839887040375000E9     5.452475399787948E-1   -1.558024648886847E-1    3.078839203785199E-3    3.572443502436596E-3    3.027849537567911E-3    3.537825958908957E-3    3.362037417517386E-1   -4.234494715258529E-1
 7.839917709000000E9     5.445998961047094E-1   -1.578923009268235E-1    3.081780224937696E-3    3.530269296373566E-3    3.022147897843185E-3    3.535615684455811E-3    3.346173759932128E-1   -4.247754550392158E-1
 7.839948377625000E9     5.440298218479280E-1   -1.598913307746551E-1    3.116913241182242E-3    3.584495236806536E-3    3.092493367061878E-3    3.547776344536948E-3    3.329985773692627E-1   -4.260010213284357E-1
 7.839979046250000E9     5.435270543812043E-1   -1.618339980433602E-1    3.125824869333646E-3    3.560683283666208E-3    3.079959630015106E-3    3.538600514610692E-3    3.311871279565812E-1   -4.273389251347247E-1
 7.840009714875000E9     5.429761865523421E-1   -1.639192629276892E-1    3.169132043200517E-3    3.568224903358055E-3    3.100095432155389E-3    3.528549880495690E-3    3.294428535054214E-1   -4.286772823839768E-1
 7.840040383500000E9     5.422834162579657E-1   -1.658591097566840E-1    3.188784209332267E-3    3.551815062842523E-3    3.133159954209353E-3    3.538570218422768E-3    3.279277605415457E-1   -4.301543093704117E-1
 7.840071052125000E9     5.415937846403945E-1   -1.678054351252835E-1    3.230362718194132E-3    3.555471587936879E-3    3.191072786675870E-3    3.509318359241836E-3    3.261669162284238E-1   -4.314944370866597E-1
 7.840101720750000E9     5.411106926415868E-1   -1.698735873189609E-1    3.243703534639447E-3    3.560549284963425E-3    3.167589700009112E-3    3.534581618173219E-3    3.243956660913852E-1   -4.327643985994356E-1
 7.840132389375000E9     5.404985533873390E-1   -1.717905094035988E-1    3.250342519343599E-3    3.516000156347973E-3    3.197138795087698E-3    3.487725156915062E-3    3.226501636414889E-1   -4.340336199832222E-1
 7.840163058000000E9     5.398506332145881E-1   -1.737344448747352E-1    3.283985960510316E-3    3.547763459208613E-3    3.228625901195544E-3    3.531477330741236E-3    3.209235311213480E-1   -4.354026265576478E-1
 7.840193726625000E9     5.390996410050278E-1   -1.755965982955031E-1    3.305041021861965E-3    3.528346374202972E-3    3.275378530281929E-3    3.523984755026265E-3    3.193597920427618E-1   -4.366003535006814E-1
 7.840224395250000E9     5.384836608502240E-1   -1.777402736745195E-1    3.348383590444241E-3    3.534109155085882E-3    3.270786527382319E-3    3.530449965352650E-3    3.174144671683063E-1   -4.378838895357658E-1
 7.840255063875000E9     5.379190893367188E-1   -1.797293814437172E-1    3.393066899778282E-3    3.513401038139241E-3    3.329971889326831E-3    3.520584052103494E-3    3.157657693852494E-1   -4.391885506257783E-1
 7.840285732500000E9     5.371450105322397E-1   -1.816895672420923E-1    3.398874445110404E-3    3.539465055577643E-3    3.342655376186149E-3    3.525118586188282E-3    3.140331589355477E-1   -4.402746000142606E-1
 7.840316401125000E9     5.365308162789159E-1   -1.834699047028875E-1    3.438276499135059E-3    3.532689693243871E-3    3.374303780532347E-3    3.512919435222342E-3    3.124037988669843E-1   -4.417577979647931E-1
 7.840347069750000E9     5.358558596608830E-1   -1.855333330271964E-1    3.476175945242668E-3    3.531795679263932E-3    3.419580219696106E-3    3.516363387012462E-3    3.104607212679371E-1   -4.429652135728455E-1
 7.840377738375000E9     5.350398108874829E-1   -1.874481562890668E-1    3.481341931413010E-3    3.511555757387189E-3    3.462696747006280E-3    3.508965358759146E-3    3.087044338137741E-1   -4.441491887054148E-1
 7.840408407000000E9     5.344084561270394E-1   -1.893210315434548E-1    3.503114799464430E-3    3.512804787627903E-3    3.507865376969120E-3    3.479517671397416E-3    3.069776336496723E-1   -4.454453219724502E-1
 7.840439075625000E9     5.334900332008694E-1   -1.914113856307074E-1    3.561634340837984E-3    3.524644754928848E-3    3.479895585545126E-3    3.502579156237492E-3    3.051696996795790E-1   -4.465754321767826E-1
 7.840469744250000E9     5.330172156995178E-1   -1.932876447584864E-1    3.581902793653684E-3    3.501052500918872E-3    3.494816391843228E-3    3.485823294199405E-3    3.035224366938333E-1   -4.478673435534946E-1
