#  HZ   S   RI   R     50.00 
! Rohde & Schwarz Vector Network Analyzer 
! Rohde-Schwarz,ZNB20-2Port,1311601062101988,3.16
! Created: UTC 12/23/2023, 3:40:17 AM
! freq[Hz]                re:S11                  im:S11                  re:S21                  im:S21                  re:S12                  im:S12                  re:S22                  im:S22
 7.837403766000000E9     5.663481443565702E-1    8.179544911243664E-3    1.431913316887236E-3    3.742983721291249E-3    1.437181363673818E-3    3.656086199558948E-3    4.524049267962966E-1   -2.944801271496783E-1
 7.837435685125000E9     5.666115463762890E-1    6.161430682991116E-3    1.440180574525363E-3    3.716948074094537E-3    1.449189061982710E-3    3.679191854554515E-3    4.511605717285463E-1   -2.963883411890503E-1
 7.837467604250000E9     5.666076036475863E-1    3.881331027189213E-3    1.469846392870172E-3    3.730046888010796E-3    1.469121870415158E-3    3.672111336063119E-3    4.498899116084702E-1   -2.982334582783360E-1
 7.837499523375000E9     5.665522161242565E-1    1.853130482022474E-3    1.483202833853815E-3    3.716458864989241E-3    1.517318197793603E-3    3.658970057611697E-3    4.486459534941755E-1   -3.001897839065919E-1
 7.837531442500000E9     5.665517169084464E-1   -1.896079123180004E-4    1.500614792250308E-3    3.722008487650471E-3    1.509962809399178E-3    3.666407415888612E-3    4.474337108578123E-1   -3.020806195572560E-1
 7.837563361625000E9     5.666460502919867E-1   -2.381380762406367E-3    1.487531794865459E-3    3.715461568921737E-3    1.537896038484720E-3    3.667462158442917E-3    4.462491053005058E-1   -3.037875780759480E-1
 7.837595280750000E9     5.666487539472080E-1   -4.490194527901790E-3    1.556965042382672E-3    3.739835288959128E-3    1.528147521205570E-3    3.663350588328920E-3    4.451295838125444E-1   -3.058416990452149E-1
 7.837627199875000E9     5.666742963054524E-1   -6.734508672473907E-3    1.533299115114500E-3    3.750070018760147E-3    1.561865805168423E-3    3.647852639657350E-3    4.436955511958699E-1   -3.074522735893528E-1
 7.837659119000000E9     5.664687694862253E-1   -8.799147544977742E-3    1.557142099284303E-3    3.720020101646953E-3    1.595231562336101E-3    3.667350579358995E-3    4.424654104201609E-1   -3.094082698697269E-1
 7.837691038125000E9     5.664571981497821E-1   -1.086670085950925E-2    1.581984847228834E-3    3.712678093589070E-3    1.605978825834235E-3    3.659295858591390E-3    4.410158397825914E-1   -3.113751426713884E-1
 7.837722957250000E9     5.666933565959589E-1   -1.297720805470782E-2    1.580464049125547E-3    3.732592730241671E-3    1.634566898484181E-3    3.690545912713963E-3    4.398194493002381E-1   -3.131148665521679E-1
 7.837754876375000E9     5.664973960885062E-1   -1.505297040826945E-2    1.612767337810099E-3    3.702979709696352E-3    1.670257645062796E-3    3.650827530468622E-3    4.385889082106024E-1   -3.149409583883426E-1
 7.837786795500000E9     5.665237594005905E-1   -1.731609567858128E-2    1.646633262757000E-3    3.718821582377301E-3    1.693638282660422E-3    3.692630086404186E-3    4.372305681661481E-1   -3.166870254610032E-1
 7.837818714625000E9     5.664418517569660E-1   -1.940538428985248E-2    1.673585114566689E-3    3.712804873125555E-3    1.643734669009106E-3    3.648194564522827E-3    4.360063052506066E-1   -3.185607768507501E-1
 7.837850633750000E9     5.663428955194960E-1   -2.150396891799631E-2    1.676328473816890E-3    3.724393734268808E-3    1.671537134294740E-3    3.638275073745276E-3    4.345758606710144E-1   -3.202470982829805E-1
 7.837882552875000E9     5.663229640282049E-1   -2.375881951921687E-2    1.679162377241767E-3    3.716284365248706E-3    1.688197310839044E-3    3.652169011803005E-3    4.332939257618346E-1   -3.220595460025384E-1
 7.837914472000000E9     5.661825676758450E-1   -2.575843046253931E-2    1.710718517960351E-3    3.715935048319441E-3    1.727735920886157E-3    3.637139171775496E-3    4.321234469713355E-1   -3.239985746659110E-1
 7.837946391125000E9     5.661648974785520E-1   -2.781276225742627E-2    1.729622984644889E-3    3.723605049313463E-3    1.743970931349016E-3    3.648237700882575E-3    4.307220125356733E-1   -3.255767671598047E-1
 7.837978310250000E9     5.659348434799440E-1   -2.991258289788295E-2    1.777881045175036E-3    3.691831841912745E-3    1.751054323549149E-3    3.628774869186640E-3    4.292191335232231E-1   -3.275068966883457E-1
 7.838010229375000E9     5.658760835788127E-1   -3.212193304915537E-2    1.794190312876746E-3    3.688573874462635E-3    1.774062349382755E-3    3.657376342696157E-3    4.280782929203860E-1   -3.293137324844606E-1
 7.838042148500000E9     5.657352576095291E-1   -3.415439674536781E-2    1.801137676039736E-3    3.717616581093893E-3    1.802009791323418E-3    3.648753944254437E-3    4.267389060592925E-1   -3.311310399951853E-1
 7.838074067625000E9     5.655229639739373E-1   -3.624997203958576E-2    1.806802473246906E-3    3.705199142424971E-3    1.812540509469428E-3    3.646672971076616E-3    4.252477949857952E-1   -3.328871146921824E-1
 7.838105986750000E9     5.655578907905046E-1   -3.856994289260896E-2    1.809222423895959E-3    3.710530990919183E-3    1.838693451741475E-3    3.655066969122919E-3    4.238496888120197E-1   -3.346843605139417E-1
 7.838137905875000E9     5.654984297993642E-1   -4.075270394194738E-2    1.852888495318432E-3    3.714886515836580E-3    1.847118305490020E-3    3.637432911852305E-3    4.225795250190355E-1   -3.365350258469894E-1
 7.838169825000000E9     5.651596431303961E-1   -4.266568704861319E-2    1.866870991629232E-3    3.689537026159739E-3    1.899163410618064E-3    3.680074665502503E-3    4.211867833082041E-1   -3.380503067288774E-1
 7.838201744125000E9     5.650667520740398E-1   -4.485924591597992E-2    1.862274964917220E-3    3.703111499417329E-3    1.863251995976877E-3    3.609584695001367E-3    4.196365620115866E-1   -3.399370316655400E-1
 7.838233663250000E9     5.648388979701744E-1   -4.712942936146657E-2    1.904712823132182E-3    3.719286158874783E-3    1.897892547185632E-3    3.628351855972140E-3    4.183823955174195E-1   -3.416858995702647E-1
 7.838265582375000E9     5.647010116100262E-1   -4.909593726637065E-2    1.916708374030376E-3    3.723870606359347E-3    1.938995303499088E-3    3.634052671043388E-3    4.169931882778852E-1   -3.433154180059274E-1
 7.838297501500000E9     5.644883659474246E-1   -5.109820051608405E-2    1.946617647157481E-3    3.699965118837113E-3    1.931953349168640E-3    3.628011094258894E-3    4.154531869863822E-1   -3.452105137558962E-1
 7.838329420625000E9     5.643795777466637E-1   -5.335614269586827E-2    1.968865957721571E-3    3.696115496662108E-3    1.966001125334555E-3    3.636072931456397E-3    4.141571625966965E-1   -3.468703378133398E-1
 7.838361339750000E9     5.642069189122818E-1   -5.544851465809337E-2    1.986882712807908E-3    3.705433425254431E-3    1.995981244090333E-3    3.623164261854157E-3    4.126531993930336E-1   -3.486861570706848E-1
 7.838393258875000E9     5.639662607075454E-1   -5.754639411058724E-2    2.008596789754282E-3    3.680888405973508E-3    1.993261387800102E-3    3.631100524435871E-3    4.112032939379997E-1   -3.502812501620168E-1
 7.838425178000000E9     5.638826255605266E-1   -5.974549207502908E-2    2.034059294201284E-3    3.683682228802582E-3    2.028050977248523E-3    3.624977266351468E-3    4.096918823848123E-1   -3.519550739998251E-1
 7.838457097125000E9     5.635935792902583E-1   -6.177340497853760E-2    2.059652314558499E-3    3.693457745217213E-3    2.036420897329834E-3    3.644310774761207E-3    4.082770417430593E-1   -3.537345166212149E-1
 7.838489016250000E9     5.633301930401544E-1   -6.387760616041677E-2    2.075225473480346E-3    3.653207777105767E-3    2.078560171431446E-3    3.642353333833821E-3    4.069355057744267E-1   -3.553532187982019E-1
 7.838520935375000E9     5.630597319496434E-1   -6.599974757271532E-2    2.100626657359473E-3    3.680467724538643E-3    2.069513087872445E-3    3.676242003682879E-3    4.052410581980749E-1   -3.570410375318496E-1
 7.838552854500000E9     5.629473933121476E-1   -6.802815612515918E-2    2.121442199213309E-3    3.679729594244448E-3    2.113571826841174E-3    3.624109653132068E-3    4.037867442870420E-1   -3.588319396159622E-1
 7.838584773625000E9     5.627164674229773E-1   -7.015726807019142E-2    2.138362820218628E-3    3.671347339477712E-3    2.119312539668949E-3    3.640811576286142E-3    4.024860467208702E-1   -3.604428023256527E-1
 7.838616692750000E9     5.623421414115581E-1   -7.244752965272787E-2    2.131004207315823E-3    3.674563531785022E-3    2.094016107706765E-3    3.659275777254619E-3    4.009435234978833E-1   -3.621615387847822E-1
 7.838648611875000E9     5.620406688276888E-1   -7.442343120724501E-2    2.167070612559428E-3    3.675123269113923E-3    2.154703333561323E-3    3.597222631094022E-3    3.994865294137128E-1   -3.638457782229739E-1
 7.838680531000000E9     5.618714312947870E-1   -7.665325664048259E-2    2.204947146129703E-3    3.679013955112610E-3    2.172324166089729E-3    3.630184754877928E-3    3.979782375912994E-1   -3.653967928447493E-1
 7.838712450125000E9     5.615587789676292E-1   -7.857887716324591E-2    2.224396114280814E-3    3.660105374399473E-3    2.175351181518174E-3    3.633192830763772E-3    3.965053817384461E-1   -3.670369247375442E-1
 7.838744369250000E9     5.613259716999046E-1   -8.078766173136077E-2    2.231247130327648E-3    3.681043132141517E-3    2.188509097084360E-3    3.625038508143002E-3    3.949085642121149E-1   -3.687497940763837E-1
 7.838776288375000E9     5.608958782583217E-1   -8.304746079472479E-2    2.270113121383025E-3    3.670447226562216E-3    2.253477744132634E-3    3.617584527300842E-3    3.933850420808462E-1   -3.703814515681844E-1
 7.838808207500000E9     5.605550491348339E-1   -8.495527876365830E-2    2.285051749705495E-3    3.658668421426442E-3    2.265615933553968E-3    3.628595268486440E-3    3.918245992519219E-1   -3.721267805933002E-1
 7.838840126625000E9     5.602929694373630E-1   -8.728032593401362E-2    2.291235335341919E-3    3.645677438163659E-3    2.264789315462956E-3    3.611215660538018E-3    3.903478331997270E-1   -3.736147783727781E-1
 7.838872045750000E9     5.600745768566998E-1   -8.921674741874842E-2    2.310364813131789E-3    3.659072482225991E-3    2.297318119478618E-3    3.603786249553235E-3    3.888568429227120E-1   -3.752235496424335E-1
 7.838903964875000E9     5.595605142059698E-1   -9.146781218289163E-2    2.323449008605930E-3    3.670265743165734E-3    2.330308449470353E-3    3.597798516043837E-3    3.873137158671601E-1   -3.768516056801718E-1
 7.838935884000000E9     5.592861556706957E-1   -9.364732633023383E-2    2.336398361844881E-3    3.638222058758872E-3    2.333623708408718E-3    3.588025112340158E-3    3.856959143122914E-1   -3.783654091347751E-1
 7.838967803125000E9     5.590308725915276E-1   -9.544946496443267E-2    2.392626165414663E-3    3.643554983617052E-3    2.383904386350206E-3    3.570351697456897E-3    3.841073632298651E-1   -3.801353311890071E-1
 7.838999722250000E9     5.586461783966489E-1   -9.756604054697733E-2    2.405287116722785E-3    3.656090571971573E-3    2.333933040426400E-3    3.596795948081774E-3    3.825515328789150E-1   -3.817418898823863E-1
 7.839031641375000E9     5.581735666126675E-1   -9.974515239974452E-2    2.434548001009030E-3    3.633375873804533E-3    2.401009032641666E-3    3.583344430751710E-3    3.811764223219899E-1   -3.833359511079392E-1
 7.839063560500000E9     5.577577980947471E-1   -1.019608022278074E-1    2.462829732410088E-3    3.633270113555128E-3    2.447414686342192E-3    3.612142799126482E-3    3.793747510338897E-1   -3.848047750800986E-1
 7.839095479625000E9     5.574089921816916E-1   -1.040083731839588E-1    2.448155070743272E-3    3.672463976849888E-3    2.427936776740900E-3    3.571771865909076E-3    3.778803545414920E-1   -3.865221139041907E-1
 7.839127398750000E9     5.569771163044924E-1   -1.062038605611579E-1    2.487119957892232E-3    3.638265236963614E-3    2.480631688987477E-3    3.609252618069818E-3    3.762183404632308E-1   -3.878980338097976E-1
 7.839159317875000E9     5.566296242792074E-1   -1.082633411131911E-1    2.518583924204233E-3    3.630095905001465E-3    2.503260858125071E-3    3.590968236845299E-3    3.745341853248049E-1   -3.895462523390257E-1
 7.839191237000000E9     5.561318031999234E-1   -1.103826253422448E-1    2.549581668376366E-3    3.632764842946695E-3    2.509956442091055E-3    3.595485391958914E-3    3.731115561419358E-1   -3.912381946097078E-1
 7.839223156125000E9     5.557785421911156E-1   -1.124953958806874E-1    2.571841219765705E-3    3.632752817665600E-3    2.529539336849949E-3    3.608469232958930E-3    3.713997169300967E-1   -3.926430917709206E-1
 7.839255075250000E9     5.553190824969945E-1   -1.144873141352732E-1    2.579878775935825E-3    3.620838245004486E-3    2.579472677248961E-3    3.552012594379348E-3    3.696817020667193E-1   -3.944317424881482E-1
 7.839286994375000E9     5.549554452318319E-1   -1.166728186060531E-1    2.629789944688170E-3    3.625926029184789E-3    2.569426287461857E-3    3.568568049962428E-3    3.681373132286426E-1   -3.958306456791816E-1
 7.839318913500000E9     5.546517975800620E-1   -1.185674518950185E-1    2.633556011688096E-3    3.621212105236189E-3    2.620575626121241E-3    3.578020947692481E-3    3.664596075245699E-1   -3.972452885052098E-1
 7.839350832625000E9     5.541047444819340E-1   -1.207508711257054E-1    2.652978895266651E-3    3.621728159831608E-3    2.609047470509483E-3    3.572639877971570E-3    3.649445630447780E-1   -3.988680730855976E-1
 7.839382751750000E9     5.535369797092210E-1   -1.228576977775942E-1    2.681589907126018E-3    3.629859795452751E-3    2.663765302855831E-3    3.548570259766666E-3    3.632824522918152E-1   -4.002455875968431E-1
 7.839414670875000E9     5.531000908494359E-1   -1.248180984304059E-1    2.704196742060849E-3    3.622104629594169E-3    2.678884529655708E-3    3.585878179166700E-3    3.615159951918423E-1   -4.019100038545804E-1
 7.839446590000000E9     5.527186592980434E-1   -1.271101405475616E-1    2.727684315571563E-3    3.610562067930751E-3    2.719929680981414E-3    3.555141995524013E-3    3.597395695861803E-1   -4.035366632897048E-1
 7.839478509125000E9     5.521339350494606E-1   -1.290853087148021E-1    2.759376643561984E-3    3.603484790927151E-3    2.707953006698744E-3    3.574089434243772E-3    3.582290700959548E-1   -4.049680204311413E-1
 7.839510428250000E9     5.516516787582157E-1   -1.312432775477625E-1    2.749090180842653E-3    3.605680298377636E-3    2.709776042241201E-3    3.570008760654429E-3    3.564773967057751E-1   -4.062425165401962E-1
 7.839542347375000E9     5.511431101557183E-1   -1.331691746842497E-1    2.808295513603638E-3    3.650780116892120E-3    2.777628325880403E-3    3.545743253782365E-3    3.548714739052454E-1   -4.078395784979332E-1
 7.839574266500000E9     5.506973277035904E-1   -1.354176959445576E-1    2.802652982956600E-3    3.607344696969364E-3    2.804763371201963E-3    3.546645859817678E-3    3.532026170805810E-1   -4.094508494732562E-1
 7.839606185625000E9     5.502407966134708E-1   -1.375693665228826E-1    2.855460658596621E-3    3.597514620822900E-3    2.803913132127828E-3    3.571961398447080E-3    3.514694642034456E-1   -4.109118086325084E-1
 7.839638104750000E9     5.496491261105401E-1   -1.395437157791361E-1    2.877238822792443E-3    3.597618725157700E-3    2.836446413842648E-3    3.560949808964544E-3    3.498445124240113E-1   -4.122161259425463E-1
 7.839670023875000E9     5.491109300706114E-1   -1.417764590918210E-1    2.892211167865370E-3    3.592688797830465E-3    2.882468738697099E-3    3.557920258735520E-3    3.481144299879902E-1   -4.137303078427334E-1
 7.839701943000000E9     5.486445259078125E-1   -1.436599532705921E-1    2.920548457315366E-3    3.601127580097991E-3    2.866561043363922E-3    3.542466636993081E-3    3.461778458252928E-1   -4.151516976583278E-1
 7.839733862125000E9     5.479245991188094E-1   -1.457007689343806E-1    2.996245209916202E-3    3.584615169010148E-3    2.912878677254701E-3    3.550684200168651E-3    3.445398557937119E-1   -4.166487845621050E-1
 7.839765781250000E9     5.475852222803771E-1   -1.478607969830328E-1    2.973623940371466E-3    3.583726322564656E-3    2.917025979447812E-3    3.567223058975744E-3    3.428393750536890E-1   -4.181757038250686E-1
 7.839797700375000E9     5.469434720649692E-1   -1.501497013664070E-1    2.996507629946462E-3    3.564423748805409E-3    2.970458548551109E-3    3.524347527315359E-3    3.412611364940859E-1   -4.194396626656400E-1
 7.839829619500000E9     5.461684871392094E-1   -1.520643535605876E-1    3.022976724496839E-3    3.583950376904178E-3    2.999390295788168E-3    3.572932825839964E-3    3.394205606513350E-1   -4.209345201098007E-1
 7.839861538625000E9     5.457356738762568E-1   -1.540200094395033E-1    3.080969163840821E-3    3.569486289163141E-3    3.027733588506624E-3    3.525974275975135E-3    3.378304522620748E-1   -4.221730793189125E-1
 7.839893457750000E9     5.451148905370742E-1   -1.561456013544021E-1    3.058894765407762E-3    3.558820169540240E-3    3.038754699390287E-3    3.560296494316436E-3    3.360058332154747E-1   -4.236446379265322E-1
 7.839925376875000E9     5.444951586629888E-1   -1.583425717924662E-1    3.130490881520338E-3    3.579272501375881E-3    3.076621777581157E-3    3.528304729548426E-3    3.342824192215799E-1   -4.249917428344219E-1
 7.839957296000000E9     5.438810757791617E-1   -1.602201696291048E-1    3.146088598520217E-3    3.581328467764275E-3    3.068501995030498E-3    3.569603343319509E-3    3.325151203642143E-1   -4.264182073551152E-1
 7.839989215125000E9     5.432341537252628E-1   -1.623689054453382E-1    3.158084860498132E-3    3.562233900440236E-3    3.120228314393216E-3    3.545290127722955E-3    3.307054766688307E-1   -4.278099541205437E-1
 7.840021134250000E9     5.426550310982693E-1   -1.644323042231979E-1    3.185197802078773E-3    3.577043870113442E-3    3.153169591946154E-3    3.540442778890178E-3    3.290027517726916E-1   -4.290727191027848E-1
 7.840053053375000E9     5.420543806316525E-1   -1.664815701382070E-1    3.221783777164066E-3    3.554067580829353E-3    3.186754729816585E-3    3.571988671949800E-3    3.271045469585970E-1   -4.305713856912199E-1
 7.840084972500000E9     5.414599249060846E-1   -1.684621290919818E-1    3.232025557160539E-3    3.545711682028310E-3    3.189621230007192E-3    3.546817135345847E-3    3.252194543566239E-1   -4.318749881932411E-1
 7.840116891625000E9     5.407224230569510E-1   -1.705008975481682E-1    3.287568883106312E-3    3.561724826596087E-3    3.235014708553413E-3    3.508941125863204E-3    3.236796294212730E-1   -4.334265818247208E-1
 7.840148810750000E9     5.400511764015824E-1   -1.727079541407421E-1    3.269323901717082E-3    3.537744283571846E-3    3.260826328445460E-3    3.521030494136610E-3    3.219082769101152E-1   -4.345515118745596E-1
 7.840180729875000E9     5.394728313168192E-1   -1.748100010633296E-1    3.350610291425373E-3    3.555084409653812E-3    3.290598417892380E-3    3.497794607274625E-3    3.199864978106849E-1   -4.360016095763737E-1
 7.840212649000000E9     5.386421884824977E-1   -1.767043665029880E-1    3.366402736812562E-3    3.561782654382474E-3    3.338751634092598E-3    3.502415743113988E-3    3.184586858333256E-1   -4.374444147231951E-1
 7.840244568125000E9     5.380561459518025E-1   -1.788443741228938E-1    3.395425102268590E-3    3.558001508753768E-3    3.341047990892576E-3    3.521042358233264E-3    3.164189552976947E-1   -4.385884618684552E-1
 7.840276487250000E9     5.373098735942453E-1   -1.808401270373975E-1    3.445513632980517E-3    3.525469754439123E-3    3.375914947233194E-3    3.526867245467235E-3    3.148133466523781E-1   -4.399019916159058E-1
