#  HZ   S   RI   R     50.00 
! Rohde & Schwarz Vector Network Analyzer 
! Rohde-Schwarz,ZNB20-2Port,1311601062101988,3.16
! Created: UTC 3/21/2024, 12:54:47 AM
! freq[Hz]                re:S11                  im:S11                  re:S21                  im:S21                  re:S12                  im:S12                  re:S22                  im:S22
 1.004757829600000E+10  -3.414625141335190E-1   -3.082041105604775E-1    1.984283920936104E-4   -4.546044293790697E-4    2.233827866713332E-4   -4.530939734369177E-4   -4.612093602264720E-1   -1.230127432756297E-1
 1.004758368157500E+10  -3.418473587520628E-1   -3.079179555982962E-1    1.953163228163986E-4   -4.654209628695677E-4    2.436784197168856E-4   -4.371782875083616E-4   -4.612566956965405E-1   -1.225718885372408E-1
 1.004758906715000E+10  -3.419178588775371E-1   -3.075862649863469E-1    2.026765835282880E-4   -4.453128746815602E-4    2.298711684071851E-4   -4.427669021047144E-4   -4.612300900494779E-1   -1.223079103080940E-1
 1.004759445272500E+10  -3.422053167731346E-1   -3.075359037303558E-1    2.291821169724624E-4   -4.460365640186088E-4    2.260213297324409E-4   -4.422685853582264E-4   -4.614797206006502E-1   -1.219053955123703E-1
 1.004759983830000E+10  -3.426089568902969E-1   -3.070680703990170E-1    1.888100657865827E-4   -4.669057413089656E-4    2.420311585552118E-4   -4.245180453407556E-4   -4.615242351825590E-1   -1.214209618180354E-1
 1.004760522387500E+10  -3.427094065416781E-1   -3.068761752939445E-1    1.764769974481964E-4   -4.169531581864291E-4    2.407467086457471E-4   -4.286737771850500E-4   -4.616148271889988E-1   -1.210054558926766E-1
 1.004761060945000E+10  -3.429576955711552E-1   -3.065359863501174E-1    2.046741309509703E-4   -4.440712498420462E-4    2.315160910853082E-4   -4.245032003438311E-4   -4.617790761635411E-1   -1.206361872723364E-1
 1.004761599502500E+10  -3.429943665722511E-1   -3.062317195421557E-1    1.976914007417002E-4   -4.520748078554258E-4    2.144851114670197E-4   -4.337486035106761E-4   -4.617812013557973E-1   -1.200232213039693E-1
 1.004762138060000E+10  -3.434919063443057E-1   -3.060772251002525E-1    1.925391172193967E-4   -4.330586188309527E-4    2.226006707213318E-4   -4.244997345251679E-4   -4.619254164761049E-1   -1.198696804321365E-1
 1.004762676617500E+10  -3.435292623918831E-1   -3.058036426707411E-1    1.856972503992737E-4   -4.250123338680646E-4    2.083341624659787E-4   -4.134835650655686E-4   -4.620119749585068E-1   -1.195238221982274E-1
 1.004763215175000E+10  -3.438620730548392E-1   -3.053968366965839E-1    1.873823858799388E-4   -4.160480965187728E-4    2.074622684869086E-4   -4.129000210021765E-4   -4.621023086380150E-1   -1.190698829153652E-1
 1.004763753732500E+10  -3.440607029542324E-1   -3.051556293408534E-1    1.717378429997745E-4   -3.794150676724831E-4    2.375729978251205E-4   -4.133051533419967E-4   -4.621342111626683E-1   -1.187125296143552E-1
 1.004764292290000E+10  -3.442985732766761E-1   -3.049597857262295E-1    1.611811994287005E-4   -3.791216651573724E-4    2.223192470641352E-4   -3.964750223037676E-4   -4.621786933997985E-1   -1.182418977722942E-1
 1.004764830847500E+10  -3.446523546327298E-1   -3.046328002294625E-1    1.765087123330227E-4   -4.149624547217446E-4    2.393499633631368E-4   -3.865705762957957E-4   -4.623623941074105E-1   -1.178573843415883E-1
 1.004765369405000E+10  -3.447900544244035E-1   -3.043766744864356E-1    1.942508966828979E-4   -3.836166063279219E-4    2.157130695224067E-4   -3.927234374070567E-4   -4.623114723402066E-1   -1.175247726027661E-1
 1.004765907962500E+10  -3.450228135644849E-1   -3.040222183050333E-1    1.775522948702135E-4   -3.747213436946835E-4    2.052310164662925E-4   -3.652387485925792E-4   -4.623948461256074E-1   -1.169738417492387E-1
 1.004766446520000E+10  -3.453062175732614E-1   -3.038059941853741E-1    1.786898593511448E-4   -3.769822761076664E-4    2.092438885767390E-4   -3.954748371250222E-4   -4.625292317964437E-1   -1.167297359839754E-1
 1.004766985077500E+10  -3.453313731132557E-1   -3.034773161444915E-1    1.812197117726630E-4   -3.595206369694057E-4    2.374957689023129E-4   -3.709545735942189E-4   -4.626037485781309E-1   -1.164241057398824E-1
 1.004767523635000E+10  -3.455757669352410E-1   -3.031607416258124E-1    1.836323306776209E-4   -3.695226839282463E-4    2.138719451366962E-4   -3.436838313688115E-4   -4.626170625007806E-1   -1.159034178535169E-1
 1.004768062192500E+10  -3.459145601176250E-1   -3.030214212309693E-1    1.877776090235258E-4   -3.685564774898534E-4    2.187598473311509E-4   -3.455570448607554E-4   -4.627417224242649E-1   -1.155057121680043E-1
 1.004768600750000E+10  -3.461368438818170E-1   -3.025720094111298E-1    1.663420241144891E-4   -3.833406405522482E-4    2.371395336500520E-4   -3.501225275301994E-4   -4.629562420283743E-1   -1.151094252866832E-1
 1.004769139307500E+10  -3.463845903435005E-1   -3.023570448839475E-1    1.858557226782421E-4   -3.552595313969366E-4    1.806087821567541E-4   -3.707223885468052E-4   -4.628859125105432E-1   -1.147651479689787E-1
 1.004769677865000E+10  -3.465396903415566E-1   -3.021057465712022E-1    1.752490473412832E-4   -3.473423230579154E-4    1.883135339841171E-4   -3.259088036252171E-4   -4.631642294323982E-1   -1.143015758075493E-1
 1.004770216422500E+10  -3.468560989386569E-1   -3.018739601694532E-1    1.552546567448987E-4   -3.512249007057011E-4    1.882208487541698E-4   -3.455811811650425E-4   -4.630377348883052E-1   -1.138263334668688E-1
 1.004770754980000E+10  -3.469878885708698E-1   -3.017142761748470E-1    1.782180941185663E-4   -3.154627651697883E-4    1.703662225282031E-4   -3.475255619188918E-4   -4.632489935233206E-1   -1.134484074631068E-1
 1.004771293537500E+10  -3.472106317127094E-1   -3.011701203518976E-1    1.619318906227908E-4   -3.432445951704728E-4    1.909857492268066E-4   -3.158053578191335E-4   -4.631416926338900E-1   -1.131477200299070E-1
 1.004771832095000E+10  -3.475211419469270E-1   -3.008881790819097E-1    1.951352010234537E-4   -3.276175943457860E-4    2.222814749086582E-4   -3.484930595309736E-4   -4.631986560939226E-1   -1.126835836406254E-1
 1.004772370652500E+10  -3.477227231695550E-1   -3.006751372522426E-1    1.650214353588279E-4   -3.135399389523939E-4    1.898142201055986E-4   -3.409347756838569E-4   -4.634609864961277E-1   -1.123953858741713E-1
 1.004772909210000E+10  -3.479280075134145E-1   -3.005460029017728E-1    1.570716570184788E-4   -3.068305652848079E-4    2.245154044816296E-4   -3.118904342054613E-4   -4.634599045770702E-1   -1.119686689543197E-1
 1.004773447767500E+10  -3.481902370231836E-1   -3.001019757286668E-1    1.601068206728228E-4   -3.299614733002119E-4    2.007670494389337E-4   -3.075490721866580E-4   -4.635604294676744E-1   -1.113464259762528E-1
 1.004773986325000E+10  -3.484055042238329E-1   -2.999010546597790E-1    1.781754247031079E-4   -3.151482262117835E-4    2.214733062795761E-4   -3.100646853687168E-4   -4.636238906803525E-1   -1.111446838292078E-1
 1.004774524882500E+10  -3.486361865453907E-1   -2.996488822518704E-1    1.832931650733201E-4   -2.905068057657113E-4    1.670255738261829E-4   -2.580490546548855E-4   -4.636800401604868E-1   -1.106344492669589E-1
 1.004775063440000E+10  -3.487629728976370E-1   -2.993844463335962E-1    1.786699896560835E-4   -2.864443598400363E-4    1.786345422960215E-4   -2.787953999684907E-4   -4.637105914379163E-1   -1.103995854082486E-1
 1.004775601997500E+10  -3.491467390408703E-1   -2.991072858906887E-1    1.182032760658375E-4   -2.833300172605489E-4    1.868343587729942E-4   -2.978654963813824E-4   -4.638910957096475E-1   -1.097385449996020E-1
 1.004776140555000E+10  -3.493361300931878E-1   -2.987642637952156E-1    1.724377380643486E-4   -2.935440699775351E-4    1.861944331014125E-4   -2.662346370418312E-4   -4.639159244038493E-1   -1.094432635958451E-1
 1.004776679112500E+10  -3.494654610562983E-1   -2.984539893123757E-1    1.764168077062722E-4   -2.636931313336038E-4    1.694253648903213E-4   -2.896144446711768E-4   -4.639373249506945E-1   -1.089723436305160E-1
 1.004777217670000E+10  -3.497135600131242E-1   -2.982402771506438E-1    1.563499996446679E-4   -2.557285565239225E-4    1.843853847205784E-4   -2.682593031696850E-4   -4.641490687419453E-1   -1.086739439129076E-1
 1.004777756227500E+10  -3.500784956958592E-1   -2.979146642863408E-1    1.606218011320636E-4   -2.845187957901649E-4    1.633334452669102E-4   -2.385392852551604E-4   -4.641474394052222E-1   -1.081394005672037E-1
 1.004778294785000E+10  -3.503043299689286E-1   -2.976820108853531E-1    1.374354062646213E-4   -2.741912553949437E-4    1.826851836752311E-4   -2.408124981371438E-4   -4.640105165291599E-1   -1.078244388649965E-1
 1.004778833342500E+10  -3.504053172645017E-1   -2.973366508946695E-1    1.649949045142030E-4   -2.437309430505035E-4    1.711722129344991E-4   -2.175772683616875E-4   -4.643609991108779E-1   -1.074341310958390E-1
 1.004779371900000E+10  -3.507229140490199E-1   -2.971265732723507E-1    1.708913832389829E-4   -2.174170463136593E-4    1.545194190239669E-4   -2.411791415442682E-4   -4.642829059020697E-1   -1.069582640323569E-1
 1.004779910457500E+10  -3.509692668560422E-1   -2.966623271950622E-1    1.593489769745497E-4   -2.327349502066938E-4    1.546055055421414E-4   -2.459367869885930E-4   -4.645357194059904E-1   -1.065513614787087E-1
 1.004780449015000E+10  -3.509459135389036E-1   -2.965752686042762E-1    1.292784786653919E-4   -2.254206545861693E-4    1.780594244551437E-4   -2.270090404077264E-4   -4.643630385214301E-1   -1.062852571769121E-1
 1.004780987572500E+10  -3.513630215444142E-1   -2.960845409315180E-1    1.604032480284384E-4   -2.045929113160377E-4    1.602646038843301E-4   -2.356379452848223E-4   -4.645919283307162E-1   -1.056409556738814E-1
 1.004781526130000E+10  -3.515296504989923E-1   -2.959092822022466E-1    1.715303681624287E-4   -2.229411818630745E-4    1.914298989174509E-4   -2.198461231361266E-4   -4.645870781421817E-1   -1.053960924608228E-1
 1.004782064687500E+10  -3.516473142166683E-1   -2.956530439829453E-1    1.623301834111910E-4   -2.260099665953577E-4    1.675664737297128E-4   -1.921213705764691E-4   -4.645961648529353E-1   -1.049393289123137E-1
 1.004782603245000E+10  -3.519859614152280E-1   -2.953825302063442E-1    1.631639068380163E-4   -1.956569240426563E-4    1.900648293690694E-4   -1.950607288945596E-4   -4.647193990567504E-1   -1.045460866152524E-1
 1.004783141802500E+10  -3.521242187338016E-1   -2.950668951025093E-1    1.231916798475388E-4   -1.962197507478561E-4    2.084948659037045E-4   -1.660457080672542E-4   -4.647370085727575E-1   -1.039409866010116E-1
 1.004783680360000E+10  -3.523956137850737E-1   -2.948266389756907E-1    1.506345227581924E-4   -2.064531240979310E-4    1.671987168577277E-4   -1.493957299743352E-4   -4.648826067536371E-1   -1.036049156296826E-1
 1.004784218917500E+10  -3.525741242263295E-1   -2.943483521301664E-1    1.529740728363534E-4   -1.711582988394384E-4    1.862670754570379E-4   -1.938583633213216E-4   -4.649914508219520E-1   -1.032603179171883E-1
 1.004784757475000E+10  -3.529490239277506E-1   -2.942114448901670E-1    1.481980502167664E-4   -1.707745872075294E-4    1.632200220211382E-4   -1.546570277020168E-4   -4.649708653049022E-1   -1.027375932848858E-1
 1.004785296032500E+10  -3.530827086682570E-1   -2.938736069189504E-1    1.587127059607531E-4   -1.531536009293458E-4    1.667647475707929E-4   -1.758191277498078E-4   -4.650244431322477E-1   -1.025156731271300E-1
 1.004785834590000E+10  -3.532243856123249E-1   -2.935094722923866E-1    1.474213289445606E-4   -1.493571493585178E-4    1.582106084009562E-4   -1.660026102336808E-4   -4.651406876835311E-1   -1.018667090621616E-1
 1.004786373147500E+10  -3.534610543256986E-1   -2.932871124310185E-1    1.612925737013759E-4   -1.557403185145863E-4    1.482015418309391E-4   -1.618226374151440E-4   -4.651544321699454E-1   -1.014575377225170E-1
 1.004786911705000E+10  -3.537300090430387E-1   -2.929966282883461E-1    1.415883498817156E-4   -1.441872524476226E-4    1.354331460963410E-4   -1.203077497998345E-4   -4.651286577523393E-1   -1.010395358205143E-1
 1.004787450262500E+10  -3.540134817618541E-1   -2.926998206736935E-1    1.314083659500831E-4   -1.430505766199957E-4    1.792011641531421E-4   -1.307818502635069E-4   -4.652312176952292E-1   -1.005954714415745E-1
 1.004787988820000E+10  -3.542488748821272E-1   -2.925481215739393E-1    1.244151223638987E-4   -1.251063856147862E-4    1.213518799314007E-4   -1.245243383963771E-4   -4.653938032438150E-1   -1.002169621539175E-1
 1.004788527377500E+10  -3.544833380270950E-1   -2.921921118903798E-1    1.488637138750852E-4   -6.951020804401819E-5    1.393340595663478E-4   -8.890205320139615E-5   -4.654540653927897E-1   -9.994743021733983E-2
 1.004789065935000E+10  -3.545063073744443E-1   -2.920205241057666E-1    1.602280626734492E-4   -1.239113936090879E-4    1.261576176548429E-4   -1.213556083227971E-4   -4.654342830230498E-1   -9.928853865323325E-2
 1.004789604492500E+10  -3.548297974755911E-1   -2.916226533578217E-1    1.643099178210415E-4   -1.061157009442801E-4    1.489456459227195E-4   -9.330580662887310E-5   -4.654624731250305E-1   -9.894398280879819E-2
 1.004790143050000E+10  -3.549735730691922E-1   -2.913195644148392E-1    1.480135753720575E-4   -6.993233976265012E-5    1.474168586163817E-4   -8.103386515151184E-5   -4.656719368266838E-1   -9.839762725061101E-2
 1.004790681607500E+10  -3.551913794084013E-1   -2.911214291219784E-1    1.367198566796691E-4   -9.061867426758142E-5    1.562928357107257E-4   -6.359873868002078E-5   -4.656686123821084E-1   -9.805155580535074E-2
 1.004791220165000E+10  -3.554388517557780E-1   -2.908001564219012E-1    1.146540718686848E-4   -6.279043672440073E-5    1.532030880183253E-4   -7.572616429518675E-5   -4.657571177673887E-1   -9.765153369724573E-2
 1.004791758722500E+10  -3.556427871510368E-1   -2.905756358875644E-1    1.511206616227527E-4   -5.297267391452987E-5    1.454024188215125E-4   -7.569092719992571E-5   -4.658465915267906E-1   -9.732148660294948E-2
 1.004792297280000E+10  -3.560004582063854E-1   -2.902414881302181E-1    1.580422144234544E-4   -6.781893845124961E-5    1.415179134230422E-4   -1.632410679872235E-5   -4.657428758025745E-1   -9.672749447004290E-2
 1.004792835837500E+10  -3.560716345665962E-1   -2.898560297579408E-1    1.450279863524166E-4   -4.460528750676806E-5    1.396565618208345E-4   -3.011224022763381E-5   -4.658143087096076E-1   -9.628741327867965E-2
 1.004793374395000E+10  -3.562686332925403E-1   -2.897092907061599E-1    1.359952296708107E-4   -1.837905498774713E-5    1.257299157121834E-4   -1.642951620744725E-5   -4.660098469951053E-1   -9.590910154217415E-2
 1.004793912952500E+10  -3.566390312946158E-1   -2.893745355172666E-1    1.498919376601196E-4   -2.465746278181549E-5    1.364109402115789E-4   -5.414505090235395E-5   -4.659106842642045E-1   -9.537293764092329E-2
 1.004794451510000E+10  -3.568317526729696E-1   -2.890883451985656E-1    1.575406953350577E-4   -5.165357566610750E-6    1.198563424990975E-4   -1.259902472330379E-5   -4.660084240870407E-1   -9.490966356941175E-2
 1.004794990067500E+10  -3.570868378475804E-1   -2.889147082114823E-1    1.439449957153398E-4   -5.821802738756518E-6    1.389253442560906E-4   -1.441727587795657E-5   -4.661500472358781E-1   -9.440872990348734E-2
 1.004795528625000E+10  -3.572464572474553E-1   -2.886043946171112E-1    1.565808889151004E-4    4.466928465908726E-6    1.350056688244769E-4    3.833251704141475E-5   -4.659614716708295E-1   -9.399882488390843E-2
 1.004796067182500E+10  -3.574396565401571E-1   -2.883104822758036E-1    1.411324044809016E-4    4.181476549509652E-5    1.460434820423883E-4    2.368891789423341E-5   -4.661612116541689E-1   -9.372542566860013E-2
 1.004796605740000E+10  -3.577728852482750E-1   -2.879167899802946E-1    1.643064014688115E-4    5.427012817267102E-5    9.728272547997679E-5    3.770395201180089E-5   -4.661387411851502E-1   -9.310348517604694E-2
 1.004797144297500E+10  -3.578737232977585E-1   -2.875833051740312E-1    1.416741512925889E-4    1.832304277350490E-5    1.534306794158292E-4    7.362928359696946E-5   -4.662799332991922E-1   -9.267291472144766E-2
 1.004797682855000E+10  -3.580307676194376E-1   -2.873546509454786E-1    1.235989153872026E-4    4.179682692137169E-5    1.249667819318655E-4    6.824154138181020E-5   -4.662996657926766E-1   -9.221724893994698E-2
 1.004798221412500E+10  -3.583232791659494E-1   -2.871363749494970E-1    1.712809926077728E-4    3.673036394673195E-5    1.175524325613747E-4    8.030725475337298E-5   -4.664399722274295E-1   -9.188220955344902E-2
 1.004798759970000E+10  -3.585514431785832E-1   -2.867587822259174E-1    1.255149092564007E-4    8.746988583513956E-5    1.357492973168684E-4    6.514517344905838E-5   -4.664980449263071E-1   -9.141268375639698E-2
 1.004799298527500E+10  -3.586216537772458E-1   -2.866141708646147E-1    1.428158285141911E-4    7.091089983672150E-5    1.464881876656826E-4    9.427327188770077E-5   -4.664629928083308E-1   -9.085180284592830E-2
 1.004799837085000E+10  -3.588965539134514E-1   -2.861764685508545E-1    1.264482078180807E-4    1.014557612122610E-4    1.183379300436224E-4    1.043168922799398E-4   -4.665531820770330E-1   -9.045348447437616E-2
 1.004800375642500E+10  -3.592521807257042E-1   -2.859629703633673E-1    1.323870349068689E-4    1.033441712600437E-4    1.404152517147438E-4    1.273728499155273E-4   -4.665097451406192E-1   -9.001374968005005E-2
 1.004800914200000E+10  -3.594098394450277E-1   -2.856002871223119E-1    1.428889996031216E-4    1.311917016536008E-4    1.647218377896119E-4    1.291818161267793E-4   -4.666360806465866E-1   -8.949465192590535E-2
 1.004801452757500E+10  -3.594250961189209E-1   -2.855470033826761E-1    1.467835369812769E-4    1.373588513304897E-4    1.092656161652365E-4    1.471183145543562E-4   -4.665537653182929E-1   -8.898441567050362E-2
 1.004801991315000E+10  -3.598997233837954E-1   -2.850606154041731E-1    1.368751067137568E-4    1.449227127544379E-4    1.605120347933013E-4    1.721007644243123E-4   -4.666275194776935E-1   -8.852634246051529E-2
 1.004802529872500E+10  -3.600343528397373E-1   -2.848921435469901E-1    1.315540346472317E-4    1.886496160494127E-4    1.347190368242182E-4    1.798533936577711E-4   -4.665402719116112E-1   -8.816639100180436E-2
 1.004803068430000E+10  -3.601970410385646E-1   -2.845756971652281E-1    1.385004895344321E-4    1.844334351477860E-4    1.224445649585146E-4    1.997996985535089E-4   -4.666904705430885E-1   -8.768891286398538E-2
 1.004803606987500E+10  -3.604710559907507E-1   -2.841237820380249E-1    1.386953997461322E-4    1.725607411408057E-4    1.332044745096255E-4    1.879022082433754E-4   -4.668126688571195E-1   -8.715969107701442E-2
 1.004804145545000E+10  -3.607261163055854E-1   -2.838679082452391E-1    1.332856982223818E-4    2.171810336829318E-4    1.308062518768858E-4    1.816995888776132E-4   -4.667045594364328E-1   -8.676636598395973E-2
 1.004804684102500E+10  -3.608905501802365E-1   -2.835958294783948E-1    1.515896694388720E-4    2.067886265949449E-4    1.206967058742776E-4    2.210969694982973E-4   -4.668679536548186E-1   -8.627849818349438E-2
 1.004805222660000E+10  -3.611287285037912E-1   -2.833968320072537E-1    1.389277071554472E-4    2.351760233696416E-4    1.236299974087959E-4    2.292615921967628E-4   -4.667792436487603E-1   -8.570829598759584E-2
 1.004805761217500E+10  -3.613719626061250E-1   -2.830381480792160E-1    1.434366202817253E-4    2.486961959359542E-4    1.250134488117061E-4    2.336436190449829E-4   -4.670056349806274E-1   -8.506009432466757E-2
 1.004806299775000E+10  -3.615039861349871E-1   -2.828098307601145E-1    1.512540509605985E-4    2.640618468847173E-4    1.349360361856903E-4    2.962536533846860E-4   -4.669095603486191E-1   -8.462993830729275E-2
