#  HZ   S   RI   R     50.00 
! Rohde & Schwarz Vector Network Analyzer 
! Rohde-Schwarz,ZNB20-2Port,1311601062101988,3.16
! Created: UTC 3/21/2024, 12:55:39 AM
! freq[Hz]                re:S11                  im:S11                  re:S21                  im:S21                  re:S12                  im:S12                  re:S22                  im:S22
 1.004745960500000E+10  -3.358154592965855E-1   -3.144652495436676E-1    2.565266210473768E-4   -5.348637463744136E-4    2.688021026163718E-4   -5.385240360612758E-4   -4.594339019424165E-1   -1.325575176510529E-1
 1.004746570495000E+10  -3.361129288779555E-1   -3.142626803503872E-1    2.342270252716437E-4   -5.525425052744963E-4    2.650651889222422E-4   -5.465799174301518E-4   -4.593783290706839E-1   -1.321789569788252E-1
 1.004747180490000E+10  -3.364047833608542E-1   -3.140580103689376E-1    2.274596953099512E-4   -5.481231119192795E-4    2.561483079715771E-4   -5.246874683373532E-4   -4.595910537665100E-1   -1.315825551181581E-1
 1.004747790485000E+10  -3.366124523083761E-1   -3.135781963469799E-1    2.330689495811710E-4   -5.248846972958463E-4    2.802599703986613E-4   -5.359621779594151E-4   -4.596345862031864E-1   -1.312051545527836E-1
 1.004748400480000E+10  -3.368618548916605E-1   -3.133171468005830E-1    2.232292774697148E-4   -5.129109546366403E-4    2.828605732417133E-4   -5.308473903491948E-4   -4.599070165230444E-1   -1.307699223159359E-1
 1.004749010475000E+10  -3.371547717770867E-1   -3.129903156225283E-1    2.399606528937244E-4   -5.528016245332820E-4    2.493180459167952E-4   -5.264495587556791E-4   -4.597853822198945E-1   -1.303570478790177E-1
 1.004749620470000E+10  -3.373444143823395E-1   -3.127865886556661E-1    2.116999353381826E-4   -5.285203312078223E-4    2.443870841719464E-4   -5.657877661257990E-4   -4.599704698320132E-1   -1.299828367819821E-1
 1.004750230465000E+10  -3.376951786441521E-1   -3.124616291680673E-1    2.361609123969318E-4   -5.175785326013398E-4    2.676248055936507E-4   -5.020916759215927E-4   -4.600827365507859E-1   -1.295048445880900E-1
 1.004750840460000E+10  -3.379876817474620E-1   -3.122215920622963E-1    2.362711170738432E-4   -5.137908922862221E-4    2.536857294129655E-4   -4.912042053452341E-4   -4.601536694294163E-1   -1.290700756314868E-1
 1.004751450455000E+10  -3.382978938473308E-1   -3.118496305745154E-1    2.221521528754577E-4   -5.186411694781556E-4    2.295171447147624E-4   -5.045080646895780E-4   -4.602788881040207E-1   -1.286024568567209E-1
 1.004752060450000E+10  -3.386331942815749E-1   -3.115719994689984E-1    2.378351948948951E-4   -5.102932656056095E-4    2.555455933373670E-4   -4.948219391902735E-4   -4.603339721143203E-1   -1.281716271236455E-1
 1.004752670445000E+10  -3.388312819281092E-1   -3.111817935529048E-1    2.044475164907632E-4   -5.062176627282928E-4    2.550367758487282E-4   -5.068748745337909E-4   -4.605504529944490E-1   -1.278690123637492E-1
 1.004753280440000E+10  -3.390870208801121E-1   -3.108459985800414E-1    1.870093163034586E-4   -4.999919406355745E-4    2.616096655140228E-4   -4.870407609885576E-4   -4.605893896508530E-1   -1.274044617677661E-1
 1.004753890435000E+10  -3.394200666578108E-1   -3.105049307984549E-1    1.997309186367431E-4   -5.018425237384094E-4    2.519830114212694E-4   -4.927921594176135E-4   -4.606841257365388E-1   -1.270039298696428E-1
 1.004754500430000E+10  -3.393873809771296E-1   -3.102288646872486E-1    2.199233845082912E-4   -4.787023106841610E-4    2.519016198213725E-4   -5.046188352772848E-4   -4.607365123344269E-1   -1.264912458021944E-1
 1.004755110425000E+10  -3.398770484627295E-1   -3.099292157392476E-1    2.196396500664956E-4   -4.364144222012892E-4    2.623824316739097E-4   -4.884432859374538E-4   -4.610314838508048E-1   -1.261552967593813E-1
 1.004755720420000E+10  -3.400710745535457E-1   -3.096484540016120E-1    2.141480965153301E-4   -4.920758409122651E-4    2.598395678959731E-4   -4.992947013231851E-4   -4.609514763323271E-1   -1.257975947176196E-1
 1.004756330415000E+10  -3.404307657568878E-1   -3.093079004040461E-1    2.107068055241044E-4   -4.602386777008423E-4    2.391644638518409E-4   -4.619079898350234E-4   -4.610869444519661E-1   -1.251655793401998E-1
 1.004756940410000E+10  -3.405992836958253E-1   -3.090531121892706E-1    2.137451614909026E-4   -4.590308413640278E-4    2.262694540950971E-4   -4.649747214829479E-4   -4.613236322702176E-1   -1.248018439002934E-1
 1.004757550405000E+10  -3.408715081214531E-1   -3.088437738472650E-1    1.996834595921235E-4   -4.560103992775546E-4    2.212565367926443E-4   -4.584286703222855E-4   -4.612850813718741E-1   -1.244154457626161E-1
 1.004758160400000E+10  -3.411292394110694E-1   -3.084408217588402E-1    2.202592925103142E-4   -4.648161507080710E-4    2.331079829845616E-4   -4.784791411740404E-4   -4.614383177827499E-1   -1.240608282205240E-1
 1.004758770395000E+10  -3.414820420580004E-1   -3.080494111102908E-1    2.064829599353605E-4   -4.335829420022798E-4    2.472714317991931E-4   -4.639725203400136E-4   -4.613932948157927E-1   -1.234268940582545E-1
 1.004759380390000E+10  -3.416710962504317E-1   -3.078052624274227E-1    1.806983974913571E-4   -4.546182196796024E-4    2.291914011737816E-4   -4.512877008169920E-4   -4.615226684175908E-1   -1.230121207251742E-1
 1.004759990385000E+10  -3.419761724488144E-1   -3.074382960561230E-1    1.820338922023737E-4   -4.576709229544410E-4    2.249127863737010E-4   -4.306009692142685E-4   -4.617158263752953E-1   -1.225994935627686E-1
 1.004760600380000E+10  -3.422084472584852E-1   -3.071712828078716E-1    1.833810952427291E-4   -4.479136436959295E-4    2.259990203139246E-4   -4.680016640874154E-4   -4.618303266379308E-1   -1.221011563102210E-1
 1.004761210375000E+10  -3.424512679907555E-1   -3.068262924011823E-1    2.184677903856507E-4   -4.503085101533331E-4    2.541125332507602E-4   -4.273799698855118E-4   -4.618757665200349E-1   -1.216667186678241E-1
 1.004761820370000E+10  -3.427909836992008E-1   -3.064962929529066E-1    1.885489298395034E-4   -4.381186363474128E-4    2.180329618638664E-4   -4.204212455741487E-4   -4.619638626246863E-1   -1.213295592004810E-1
 1.004762430365000E+10  -3.429204293652356E-1   -3.062981499111441E-1    1.643354153738032E-4   -4.272630053850355E-4    2.349861402520658E-4   -4.161661615307495E-4   -4.620162036274832E-1   -1.208247480930565E-1
 1.004763040360000E+10  -3.432095124030263E-1   -3.057336563984964E-1    1.933696255771584E-4   -4.142868053795329E-4    2.334166981590963E-4   -4.227925438108043E-4   -4.620909966330363E-1   -1.204057670495391E-1
 1.004763650355000E+10  -3.434970614393197E-1   -3.056074756472018E-1    2.056683339369077E-4   -4.158135843301537E-4    2.206123972194711E-4   -4.089799444194762E-4   -4.622998784850680E-1   -1.198813258154242E-1
 1.004764260350000E+10  -3.438428847388246E-1   -3.052477825999552E-1    2.047844487962454E-4   -4.139197587896557E-4    2.365187742549730E-4   -4.013523417860175E-4   -4.622360105297036E-1   -1.194393983955172E-1
 1.004764870345000E+10  -3.441004814425419E-1   -3.049451232891336E-1    2.207019526017576E-4   -4.281568962443913E-4    2.646922188301065E-4   -3.979745404853918E-4   -4.624266620783045E-1   -1.189585541050542E-1
 1.004765480340000E+10  -3.442866561951748E-1   -3.047258197875558E-1    2.145501858174558E-4   -4.132597725912053E-4    1.934215236479060E-4   -3.858766124637900E-4   -4.626246300092622E-1   -1.185907167157660E-1
 1.004766090335000E+10  -3.445100621144654E-1   -3.043262121388560E-1    2.090209376482147E-4   -4.050189648015169E-4    2.211725985905837E-4   -3.882673961105982E-4   -4.626540580748450E-1   -1.182784299886626E-1
 1.004766700330000E+10  -3.448237959321749E-1   -3.039117378501608E-1    2.086397014677856E-4   -3.731668895452977E-4    2.100001760866221E-4   -3.805666717589420E-4   -4.627241829480777E-1   -1.177582206436336E-1
 1.004767310325000E+10  -3.451414215921962E-1   -3.038006270110856E-1    1.901187184470651E-4   -4.318932324793273E-4    2.283634507596342E-4   -3.808138951349219E-4   -4.626714695291688E-1   -1.172074142353953E-1
 1.004767920320000E+10  -3.453375309521339E-1   -3.033940860161607E-1    1.850073722053257E-4   -3.741652999053021E-4    2.285004608985002E-4   -3.792300469644939E-4   -4.630452084553787E-1   -1.169324031904734E-1
 1.004768530315000E+10  -3.455438163065614E-1   -3.029563729184515E-1    1.821694979046854E-4   -3.561906389999544E-4    2.269349307249635E-4   -3.730026770575870E-4   -4.629958411037607E-1   -1.165996235848766E-1
 1.004769140310000E+10  -3.458607692971306E-1   -3.028600219274381E-1    2.098681040721216E-4   -3.638246398474778E-4    2.088954588129116E-4   -3.696306658959569E-4   -4.630863871231089E-1   -1.160063042652602E-1
 1.004769750305000E+10  -3.460633671195015E-1   -3.025422930520971E-1    1.858986388893334E-4   -3.681846626055225E-4    1.869566182803011E-4   -3.413032069554564E-4   -4.631615276378308E-1   -1.155855957356932E-1
 1.004770360300000E+10  -3.463168702533383E-1   -3.021919342362989E-1    1.757002893280077E-4   -3.539487167643290E-4    2.015969707371957E-4   -3.225896604757499E-4   -4.633156492297082E-1   -1.149614896880496E-1
 1.004770970295000E+10  -3.466492265185960E-1   -3.018375966181924E-1    2.053202835300766E-4   -3.657143133621745E-4    1.917493165950447E-4   -3.301600373929919E-4   -4.632898134629215E-1   -1.146742034672548E-1
 1.004771580290000E+10  -3.469395758309283E-1   -3.015488829790675E-1    2.166788170620035E-4   -3.240962724710504E-4    2.019919042413701E-4   -3.645531073835268E-4   -4.633488998028636E-1   -1.142955548790268E-1
 1.004772190285000E+10  -3.471226901566702E-1   -3.012276324545940E-1    1.982521543415485E-4   -3.237590529389396E-4    1.974322158747802E-4   -3.094915406355564E-4   -4.634699805780761E-1   -1.136919778258733E-1
 1.004772800280000E+10  -3.473757406785093E-1   -3.009859813812530E-1    2.193230610963733E-4   -3.137891474922306E-4    2.217755039173824E-4   -3.239051008885336E-4   -4.637361381400470E-1   -1.133353466941411E-1
 1.004773410275000E+10  -3.476918786259210E-1   -3.006206192930996E-1    1.743738230210053E-4   -3.142177164225083E-4    2.145389587911879E-4   -3.102643893551730E-4   -4.637482415286253E-1   -1.128238771970130E-1
 1.004774020270000E+10  -3.478690922042881E-1   -3.002630011838875E-1    2.152995327836924E-4   -3.172603142342714E-4    1.782440136306903E-4   -2.832897011814891E-4   -4.637200646614452E-1   -1.123953349002288E-1
 1.004774630265000E+10  -3.480887404617962E-1   -2.999826724232472E-1    1.790852593411921E-4   -3.066615090308944E-4    1.927549245558013E-4   -2.961042904997909E-4   -4.640179877908725E-1   -1.119721788755815E-1
 1.004775240260000E+10  -3.483810770890778E-1   -2.997196665038239E-1    1.676746262195060E-4   -2.945632222887651E-4    1.910267370940714E-4   -2.759980590282816E-4   -4.638258716825669E-1   -1.113957738729401E-1
 1.004775850255000E+10  -3.485710136463144E-1   -2.993172761053023E-1    2.083802816863823E-4   -2.890770671468350E-4    2.034393416158426E-4   -2.946942816100798E-4   -4.640248236887582E-1   -1.109750954652657E-1
 1.004776460250000E+10  -3.488829548593715E-1   -2.990984746674741E-1    1.701808176984272E-4   -3.026479648488518E-4    1.757365542245570E-4   -3.015843781022228E-4   -4.640215545712599E-1   -1.105701154049491E-1
 1.004777070245000E+10  -3.492336054948603E-1   -2.987079402977597E-1    1.952692081604535E-4   -2.919471890436662E-4    2.068532357908761E-4   -2.787015628463716E-4   -4.640134749145815E-1   -1.100463040768101E-1
 1.004777680240000E+10  -3.494232311468354E-1   -2.984007258335310E-1    1.849340015504551E-4   -2.967796990314076E-4    2.293041312046883E-4   -2.706345579556769E-4   -4.641653075853068E-1   -1.097422734931857E-1
 1.004778290235000E+10  -3.497161880733928E-1   -2.980042298180906E-1    1.742192729335328E-4   -2.834314063190923E-4    2.040252966852727E-4   -2.743239219163914E-4   -4.643385300038603E-1   -1.093240693026103E-1
 1.004778900230000E+10  -3.499482952522758E-1   -2.977009591543049E-1    1.807631184139673E-4   -2.894038966933132E-4    1.653007607196269E-4   -2.684470093451455E-4   -4.643786487206503E-1   -1.087948448841972E-1
 1.004779510225000E+10  -3.501030556353056E-1   -2.973323076433750E-1    1.963140381968489E-4   -2.680738168955714E-4    2.042093390593939E-4   -2.436550877860054E-4   -4.645305649067878E-1   -1.081352316373275E-1
 1.004780120220000E+10  -3.503818580087991E-1   -2.971713342886078E-1    1.821125728031792E-4   -2.526041315488856E-4    2.245922945631483E-4   -2.515975146500021E-4   -4.644937559453938E-1   -1.078600748526701E-1
 1.004780730215000E+10  -3.506042273859315E-1   -2.966936984205760E-1    1.783600024002581E-4   -2.395747227181334E-4    1.960574854387594E-4   -2.532230441074499E-4   -4.646446469303660E-1   -1.073122055915417E-1
 1.004781340210000E+10  -3.509505289578673E-1   -2.963229607971233E-1    1.690699547233368E-4   -2.337805418312276E-4    1.868738298085057E-4   -2.381077634978068E-4   -4.646741775749944E-1   -1.067501911015544E-1
 1.004781950205000E+10  -3.512010202578059E-1   -2.960659218216452E-1    1.645314441583973E-4   -2.204399115578364E-4    1.646234178055629E-4   -2.503245508446922E-4   -4.646571752559823E-1   -1.062838905795103E-1
 1.004782560200000E+10  -3.514293343586792E-1   -2.957574748624353E-1    1.641513745124606E-4   -2.164551801203354E-4    1.725422064334848E-4   -2.123674952914842E-4   -4.648818318552481E-1   -1.058362854582166E-1
 1.004783170195000E+10  -3.516653384310673E-1   -2.953087487449726E-1    1.457554118859907E-4   -2.334183693496787E-4    1.801204259007225E-4   -1.644130685487256E-4   -4.647944439164785E-1   -1.054099014286089E-1
 1.004783780190000E+10  -3.519932319970980E-1   -2.952063682922287E-1    1.677668805222716E-4   -1.975008391489657E-4    1.885796463168131E-4   -2.055273743995502E-4   -4.648846362875289E-1   -1.048971948174606E-1
 1.004784390185000E+10  -3.522537450090988E-1   -2.947469367263082E-1    1.693467975445336E-4   -2.113809745157045E-4    1.535333822470409E-4   -1.720607902514870E-4   -4.650428007626528E-1   -1.043277707007950E-1
 1.004785000180000E+10  -3.523911517406369E-1   -2.944328388484659E-1    1.277086490429893E-4   -1.917079061739222E-4    1.698013160414915E-4   -1.668051393375812E-4   -4.650860983182651E-1   -1.039100047569239E-1
 1.004785610175000E+10  -3.526860144592082E-1   -2.941380791671945E-1    1.573836088124964E-4   -1.897999545123990E-4    2.055277959636156E-4   -1.803458771318629E-4   -4.652007422759630E-1   -1.033080339211955E-1
 1.004786220170000E+10  -3.528339301594660E-1   -2.939378587607275E-1    1.536278638546003E-4   -1.725676266965300E-4    1.789748275949993E-4   -1.479034963549856E-4   -4.651494116803087E-1   -1.030105043045173E-1
 1.004786830165000E+10  -3.532047643085177E-1   -2.935115784093068E-1    1.454861991265916E-4   -1.321179629180789E-4    1.761697350326512E-4   -1.411791902846757E-4   -4.652801546375241E-1   -1.025339709402093E-1
 1.004787440160000E+10  -3.534630747093372E-1   -2.931300258099602E-1    1.798855714432437E-4   -1.443957411520024E-4    1.823950844502862E-4   -1.366067412296797E-4   -4.653237166043994E-1   -1.020126140111395E-1
 1.004788050155000E+10  -3.536164571911105E-1   -2.928921458194214E-1    1.732513463675465E-4   -1.459706513221609E-4    1.780257090164157E-4   -1.274223996637803E-4   -4.654654786327292E-1   -1.015835465401863E-1
 1.004788660150000E+10  -3.539268522276968E-1   -2.926536540310427E-1    1.924178681160922E-4   -1.199158568758664E-4    1.734556502721111E-4   -1.495084768798849E-4   -4.654405204362296E-1   -1.011001200411976E-1
 1.004789270145000E+10  -3.542247241973614E-1   -2.921317502966342E-1    1.794273071033902E-4   -9.510774076715291E-5    1.754085235423947E-4   -1.183238427688470E-4   -4.655816073942761E-1   -1.005064295419167E-1
 1.004789880140000E+10  -3.544445058335127E-1   -2.919106112868423E-1    1.630212832720900E-4   -1.036671908289202E-4    1.763416625619792E-4   -8.313912685217367E-5   -4.656088931021274E-1   -1.001488553596056E-1
 1.004790490135000E+10  -3.545800016974719E-1   -2.916185378372428E-1    1.700362528169438E-4   -1.085214472027182E-4    1.781413443176431E-4   -1.029847763948715E-4   -4.656636382342953E-1   -9.955220443121740E-2
 1.004791100130000E+10  -3.549440976105987E-1   -2.913729942107612E-1    1.651411681630103E-4   -8.157524856863099E-5    1.680216505068418E-4   -6.452420525386528E-5   -4.658897204496794E-1   -9.909146877446086E-2
 1.004791710125000E+10  -3.551273751960407E-1   -2.909263402948553E-1    1.795623381808643E-4   -6.710585267539735E-5    1.743872703300669E-4   -9.045386761789767E-5   -4.658118197657812E-1   -9.860138638586013E-2
 1.004792320120000E+10  -3.553528232427058E-1   -2.907155785941674E-1    1.298893620914256E-4   -4.546046440389078E-5    1.913786335438575E-4   -5.931308621714712E-5   -4.658830793212453E-1   -9.816547719545678E-2
 1.004792930115000E+10  -3.556866550948808E-1   -2.903985844373052E-1    1.423608226527679E-4   -6.552574071866472E-5    1.698663161955055E-4   -4.054427005034423E-5   -4.659801414383698E-1   -9.760450465618951E-2
 1.004793540110000E+10  -3.558761213400687E-1   -2.899937081700462E-1    1.413712289744610E-4   -3.067986633605352E-5    1.796629756120977E-4   -3.255582131339857E-5   -4.660430073071702E-1   -9.722418935647259E-2
 1.004794150105000E+10  -3.561108378283424E-1   -2.898060295521855E-1    1.357420292912400E-4   -5.406755592692490E-5    1.432745666230997E-4   -1.730595104911370E-5   -4.661623258793337E-1   -9.654393757087018E-2
 1.004794760100000E+10  -3.563573780103797E-1   -2.892718533738997E-1    1.206692487331293E-4   -4.363292502899834E-5    1.672158416866588E-4   -9.433842838808602E-6   -4.662481416830927E-1   -9.622850711841108E-2
 1.004795370095000E+10  -3.566205078891896E-1   -2.889803082216881E-1    1.548324731086025E-4   -3.497381090054516E-5    1.938416870842102E-4   -2.513615491139069E-5   -4.663227247657990E-1   -9.559140054248327E-2
 1.004795980090000E+10  -3.569691062452696E-1   -2.887336230029913E-1    1.606463376279616E-4   -2.857881485286984E-5    1.664849588977833E-4    1.762630314549603E-6   -4.662029195185891E-1   -9.509032666543159E-2
 1.004796590085000E+10  -3.571441278113470E-1   -2.884666095849051E-1    1.419871708458596E-4   -9.141037382430933E-6    1.667730365406246E-4    1.376401840383806E-5   -4.660715070366740E-1   -9.467337629119163E-2
 1.004797200080000E+10  -3.574628466224905E-1   -2.879887027087284E-1    1.597123143885920E-4   -1.792438985847633E-5    1.618394890953849E-4    1.708224230854208E-5   -4.663806289618209E-1   -9.416045187537078E-2
 1.004797810075000E+10  -3.576623654570170E-1   -2.876986692154015E-1    1.478163910669495E-4    4.418090187997701E-5    2.004785682472148E-4    4.476348749860348E-5   -4.664727210749610E-1   -9.366419296914344E-2
 1.004798420070000E+10  -3.578868573645054E-1   -2.873646080648490E-1    1.639678596493351E-4    1.614191577015369E-5    1.692316452251657E-4    6.138232961389450E-5   -4.664829416427761E-1   -9.298323088135871E-2
 1.004799030065000E+10  -3.581916371980581E-1   -2.871160751380665E-1    1.598071285308317E-4    1.003507033550254E-4    1.568702259288493E-4    5.903381535767663E-5   -4.666362934521163E-1   -9.258502681517983E-2
 1.004799640060000E+10  -3.581929501784457E-1   -2.868659508576752E-1    1.362656063173879E-4    6.961240075669562E-5    1.568527343955925E-4    7.468288244309483E-5   -4.665335877047097E-1   -9.215036829636759E-2
 1.004800250055000E+10  -3.585972678350276E-1   -2.864148282781132E-1    1.667483957298253E-4    9.051109825606091E-5    1.650686236378083E-4    1.227459102398515E-4   -4.666373705404461E-1   -9.157840342644905E-2
 1.004800860050000E+10  -3.588977160832655E-1   -2.860323110598413E-1    1.426780484041064E-4    9.358729277298927E-5    1.396830210990396E-4    9.572269415177727E-5   -4.665166625238977E-1   -9.104147831202504E-2
