#  HZ   S   RI   R     50.00 
! Rohde & Schwarz Vector Network Analyzer 
! Rohde-Schwarz,ZNB20-2Port,1311601062101988,3.16
! Created: UTC 3/21/2024, 12:55:56 AM
! freq[Hz]                re:S11                  im:S11                  re:S21                  im:S21                  re:S12                  im:S12                  re:S22                  im:S22
 1.004742736800000E+10  -3.342442325744923E-1   -3.162849189193634E-1    2.293401278377520E-4   -5.310250128175764E-4    3.106210262365047E-4   -5.620475422279628E-4   -4.589569372545987E-1   -1.351649477136442E-1
 1.004743366445000E+10  -3.346403940018970E-1   -3.160276560169648E-1    2.558069095715170E-4   -5.530609943104558E-4    2.814289381888935E-4   -5.562193666189473E-4   -4.590214605402589E-1   -1.347097864004819E-1
 1.004743996090000E+10  -3.348936369376248E-1   -3.156110693763286E-1    2.484905731505228E-4   -5.518090049646917E-4    2.737480415237807E-4   -5.640079390571079E-4   -4.591668989823107E-1   -1.343801382999924E-1
 1.004744625735000E+10  -3.350694937357856E-1   -3.154069791597742E-1    2.504134323136845E-4   -5.550530273030357E-4    2.991112232751169E-4   -5.522696310856140E-4   -4.591560023465486E-1   -1.338958485608558E-1
 1.004745255380000E+10  -3.354121986694146E-1   -3.151412895361660E-1    2.274203965024588E-4   -5.371531501254356E-4    2.497961331273564E-4   -5.310508221774898E-4   -4.593040750838632E-1   -1.334460691580525E-1
 1.004745885025000E+10  -3.356587667668909E-1   -3.147274511837190E-1    2.284950299588268E-4   -5.363402065733342E-4    2.861174835939126E-4   -5.282623475017809E-4   -4.593981198648492E-1   -1.330074543949601E-1
 1.004746514670000E+10  -3.359394889392057E-1   -3.143730663277637E-1    2.370564379047815E-4   -5.336622368337247E-4    2.729919168669596E-4   -5.676930660489446E-4   -4.593704863434897E-1   -1.325724532039663E-1
 1.004747144315000E+10  -3.362049494548628E-1   -3.140821411874183E-1    2.283301045704890E-4   -5.293944625214335E-4    2.661667993233072E-4   -5.374667716471048E-4   -4.594891178333599E-1   -1.318549859524038E-1
 1.004747773960000E+10  -3.365151355452188E-1   -3.137341384698704E-1    2.270819912783940E-4   -5.574113029667839E-4    2.647778206300706E-4   -5.226378859109600E-4   -4.596815665830117E-1   -1.316346541577564E-1
 1.004748403605000E+10  -3.367716465673742E-1   -3.133791167598033E-1    2.174878672588012E-4   -5.359219785181060E-4    2.703565029098544E-4   -5.073492001153570E-4   -4.598095773908534E-1   -1.313016396917132E-1
 1.004749033250000E+10  -3.369489968618585E-1   -3.131373209426312E-1    2.043887419155613E-4   -5.343685891164648E-4    2.754118158844109E-4   -5.138566801698997E-4   -4.598483781410089E-1   -1.307455545708137E-1
 1.004749662895000E+10  -3.373154714102696E-1   -3.128664520069176E-1    2.473145129252876E-4   -5.046523480213515E-4    2.604575476343496E-4   -4.876630775079723E-4   -4.600481969703590E-1   -1.303383282587679E-1
 1.004750292540000E+10  -3.375548349249829E-1   -3.125943489626102E-1    2.539952586896177E-4   -5.191449934563121E-4    2.545810204571075E-4   -5.126235063789923E-4   -4.601172694826938E-1   -1.300164512747155E-1
 1.004750922185000E+10  -3.378555399297800E-1   -3.120456093229663E-1    2.390232527930907E-4   -5.508138753023794E-4    2.666027951846315E-4   -4.781578774799636E-4   -4.602723981950741E-1   -1.294688404626739E-1
 1.004751551830000E+10  -3.381559616823309E-1   -3.119298925095642E-1    2.221505953587599E-4   -5.410022520125072E-4    2.836299184911931E-4   -5.251647199803729E-4   -4.603514249234967E-1   -1.290280876734416E-1
 1.004752181475000E+10  -3.383653386023644E-1   -3.116080242854462E-1    2.255254656433304E-4   -5.072423535057518E-4    2.492169546744493E-4   -5.096100327948421E-4   -4.604056742861928E-1   -1.286524313014806E-1
 1.004752811120000E+10  -3.386794358597466E-1   -3.111957911092543E-1    2.305289633460525E-4   -5.274166392626574E-4    2.449769274011228E-4   -4.869439865116390E-4   -4.605025962725753E-1   -1.281524567799120E-1
 1.004753440765000E+10  -3.389551837454145E-1   -3.108939488524509E-1    2.212265217948621E-4   -4.896643455015232E-4    2.380148920532245E-4   -4.877878288830430E-4   -4.607042125735419E-1   -1.276314209683594E-1
 1.004754070410000E+10  -3.392222835506294E-1   -3.105813296770775E-1    2.010429020410692E-4   -4.997161494449193E-4    2.493728622306439E-4   -4.958389449684052E-4   -4.608348362912795E-1   -1.271564531550774E-1
 1.004754700055000E+10  -3.394272761924356E-1   -3.102572482521294E-1    2.328828183921667E-4   -4.993052179152020E-4    2.560005849375146E-4   -4.818312643981670E-4   -4.608333939962105E-1   -1.267896868495213E-1
 1.004755329700000E+10  -3.397021422887855E-1   -3.099392479848159E-1    1.929602514339896E-4   -5.011286549690503E-4    2.534597974505462E-4   -4.738942539384262E-4   -4.608545014271030E-1   -1.262675857743973E-1
 1.004755959345000E+10  -3.401390458088082E-1   -3.096375183591477E-1    2.319587872603113E-4   -4.716790170396545E-4    2.736206414699235E-4   -4.702822514859712E-4   -4.610905514943838E-1   -1.259244931526075E-1
 1.004756588990000E+10  -3.403708352799117E-1   -3.093359320476105E-1    2.067919535179446E-4   -4.603909631188972E-4    2.664245095313222E-4   -4.892147322565418E-4   -4.611805531078982E-1   -1.254221969206587E-1
 1.004757218635000E+10  -3.406581428916908E-1   -3.090277054503167E-1    2.219535849308547E-4   -4.989879846439172E-4    2.300120933612257E-4   -4.821589200062282E-4   -4.612554507776030E-1   -1.249986467677675E-1
 1.004757848280000E+10  -3.409963547779609E-1   -3.087004272951387E-1    2.457699143578818E-4   -4.438138514313540E-4    2.665404244935326E-4   -4.410807113975724E-4   -4.613903579231260E-1   -1.246389735996775E-1
 1.004758477925000E+10  -3.411404615538772E-1   -3.083013707681564E-1    2.172999664965888E-4   -4.734252326043107E-4    2.383982159343129E-4   -4.641211062554896E-4   -4.614430735950831E-1   -1.241415981236933E-1
 1.004759107570000E+10  -3.413404947798340E-1   -3.079496130362497E-1    2.039848004080103E-4   -4.486845212223154E-4    2.294551012150676E-4   -4.682759556793034E-4   -4.614777247687838E-1   -1.237843221958312E-1
 1.004759737215000E+10  -3.417429449382254E-1   -3.077861180341260E-1    1.912402790448883E-4   -4.501241449804966E-4    2.508698960773361E-4   -4.593892021103470E-4   -4.614351976947309E-1   -1.231689924649003E-1
 1.004760366860000E+10  -3.420550615989953E-1   -3.074367275521938E-1    2.203321244620211E-4   -4.411444489978852E-4    2.506169969578451E-4   -4.549623428611524E-4   -4.617882916325689E-1   -1.227306871812990E-1
 1.004760996505000E+10  -3.421289090282021E-1   -3.071020167239396E-1    2.178343347806619E-4   -4.457305202524808E-4    2.459944041767775E-4   -4.289066710029308E-4   -4.618648018451949E-1   -1.224426795474356E-1
 1.004761626150000E+10  -3.424489572012203E-1   -3.067621551200486E-1    2.089475218696060E-4   -4.147746861636877E-4    2.223451516721294E-4   -4.491019608508650E-4   -4.621529325577344E-1   -1.218001964073557E-1
 1.004762255795000E+10  -3.427914912975402E-1   -3.064661899675823E-1    1.799237571990222E-4   -4.504402993957309E-4    2.283307826847631E-4   -4.170658638576069E-4   -4.620279629082673E-1   -1.215132736700713E-1
 1.004762885440000E+10  -3.431028668005943E-1   -3.060570570322685E-1    2.243233939966438E-4   -4.412360643831388E-4    2.175390208130943E-4   -4.273282692129347E-4   -4.621513730055462E-1   -1.209268522953536E-1
 1.004763515085000E+10  -3.432782032878021E-1   -3.058031361980833E-1    2.320941425739182E-4   -3.985513815977888E-4    2.307494828899415E-4   -4.132943961006100E-4   -4.622785946450924E-1   -1.204612424982966E-1
 1.004764144730000E+10  -3.436445683872058E-1   -3.054630660308386E-1    1.968371765936359E-4   -4.213620010930287E-4    2.237805326054382E-4   -4.228513456661715E-4   -4.624478643384421E-1   -1.200754807478253E-1
 1.004764774375000E+10  -3.439818498508771E-1   -3.051180556877267E-1    1.908992926800589E-4   -4.049669147358559E-4    2.301426240333359E-4   -3.852171299516550E-4   -4.626358698152435E-1   -1.195241652425565E-1
 1.004765404020000E+10  -3.440250521495667E-1   -3.048653012202293E-1    1.944786260899534E-4   -3.797386590661127E-4    2.428788679196762E-4   -4.063924736031459E-4   -4.624613500733308E-1   -1.191408708622003E-1
 1.004766033665000E+10  -3.444370390513169E-1   -3.044690054404727E-1    1.861034272313514E-4   -3.950048228832098E-4    2.286460765349170E-4   -3.905246281075679E-4   -4.626867184982579E-1   -1.186890194225879E-1
 1.004766663310000E+10  -3.447201051216562E-1   -3.041859374126879E-1    2.030306281505722E-4   -3.946852462394349E-4    2.271616593562233E-4   -3.845434659947932E-4   -4.627046153806139E-1   -1.181486282531408E-1
 1.004767292955000E+10  -3.449354226293407E-1   -3.038309902599933E-1    1.960033193746027E-4   -4.083479860926640E-4    2.295772208738792E-4   -4.149843219099010E-4   -4.629157258772776E-1   -1.176633411864407E-1
 1.004767922600000E+10  -3.450993809666676E-1   -3.035486495687219E-1    2.020275528977966E-4   -3.625766135463743E-4    2.056997157774988E-4   -3.685317321063368E-4   -4.629909488965092E-1   -1.171955633618429E-1
 1.004768552245000E+10  -3.454162685013003E-1   -3.032317240672301E-1    1.779755498701845E-4   -3.668745699379728E-4    2.371234612233612E-4   -3.764238407591523E-4   -4.630785219613108E-1   -1.168726053632712E-1
 1.004769181890000E+10  -3.456641078711333E-1   -3.028570814256750E-1    1.794001607271265E-4   -3.664622869230973E-4    2.094007434667997E-4   -3.577130780446920E-4   -4.631093923305692E-1   -1.164638879531924E-1
 1.004769811535000E+10  -3.459847408176262E-1   -3.026785009024435E-1    1.948602544485644E-4   -3.857556449347457E-4    2.117913869021683E-4   -3.657954254797444E-4   -4.632961301965805E-1   -1.159402428771845E-1
 1.004770441180000E+10  -3.462685394594511E-1   -3.022118878304272E-1    1.976730298397017E-4   -3.710474382146513E-4    2.326364443182019E-4   -3.226541721504090E-4   -4.632706811624865E-1   -1.154390218363990E-1
 1.004771070825000E+10  -3.464169054212964E-1   -3.019902914793040E-1    1.860209521688363E-4   -3.732466026808484E-4    2.104486019656003E-4   -3.723329257446444E-4   -4.633805066075447E-1   -1.148940523139244E-1
 1.004771700470000E+10  -3.468060679024218E-1   -3.015578116042682E-1    1.761080162241697E-4   -3.565910657773918E-4    2.229967526206598E-4   -3.679524514243613E-4   -4.636257341652096E-1   -1.145583014209032E-1
 1.004772330115000E+10  -3.470273201989373E-1   -3.013421550926052E-1    1.710100090689929E-4   -3.559851643181502E-4    2.020495093797550E-4   -3.196556850009888E-4   -4.635987923056523E-1   -1.140151382689869E-1
 1.004772959760000E+10  -3.471982624227837E-1   -3.009648148347861E-1    1.620297310494602E-4   -3.238797614595410E-4    2.287602497139649E-4   -3.258195631922634E-4   -4.636000693020093E-1   -1.135963713701496E-1
 1.004773589405000E+10  -3.475977110368884E-1   -3.006622284672625E-1    2.124845691656752E-4   -3.181804441978181E-4    2.337149011230228E-4   -3.205534441783277E-4   -4.638010526395952E-1   -1.131395775867876E-1
 1.004774219050000E+10  -3.477862149024905E-1   -3.002623912037770E-1    1.849213651331323E-4   -3.238927700883236E-4    1.956347514046893E-4   -3.060876635626479E-4   -4.636351053429384E-1   -1.125554144871311E-1
 1.004774848695000E+10  -3.480826294869975E-1   -2.999677427188883E-1    1.587789346319322E-4   -2.973618509983130E-4    2.361200889436093E-4   -2.993338636483802E-4   -4.639422180420927E-1   -1.121885137457626E-1
 1.004775478340000E+10  -3.483221348087781E-1   -2.996973114248834E-1    2.161868222901450E-4   -2.963769338453996E-4    2.215379536666351E-4   -2.993605041716856E-4   -4.640599808110511E-1   -1.117472626067308E-1
 1.004776107985000E+10  -3.485591970155821E-1   -2.992937691169123E-1    1.813253922034351E-4   -3.009362531353190E-4    1.809421456669188E-4   -2.768161020058972E-4   -4.639754492736284E-1   -1.111658404073616E-1
 1.004776737630000E+10  -3.489063884598465E-1   -2.989298186984708E-1    1.813883216237091E-4   -2.914753556414423E-4    2.041597241064490E-4   -2.960749460808931E-4   -4.641159602387292E-1   -1.107121149120943E-1
 1.004777367275000E+10  -3.493067995375216E-1   -2.986170189043787E-1    1.638643211768526E-4   -3.132473845410933E-4    2.139062613023190E-4   -2.657126675044809E-4   -4.642795001876531E-1   -1.103209213530885E-1
 1.004777996920000E+10  -3.493099329816770E-1   -2.983949877045203E-1    1.999270286941275E-4   -2.721267992675934E-4    2.127690308390410E-4   -2.860249272123481E-4   -4.642633399672823E-1   -1.097614350552516E-1
 1.004778626565000E+10  -3.497645622725991E-1   -2.979480081562317E-1    1.863838920153221E-4   -2.612609842314061E-4    2.105922161973396E-4   -2.711705219881928E-4   -4.644362897439807E-1   -1.093519905919903E-1
 1.004779256210000E+10  -3.498957572527643E-1   -2.976273784473509E-1    1.882498724588650E-4   -2.537159616710591E-4    1.964439385309376E-4   -2.604740564724993E-4   -4.644657684390263E-1   -1.088140266492391E-1
 1.004779885855000E+10  -3.503771540395665E-1   -2.972802789061406E-1    1.498881726116737E-4   -2.560544215522546E-4    1.886948764039760E-4   -2.274503498091405E-4   -4.645820036208320E-1   -1.084007574755858E-1
 1.004780515500000E+10  -3.504400088603193E-1   -2.970362387508249E-1    1.696915929898948E-4   -2.525753848068483E-4    1.939868009839674E-4   -2.614092742571215E-4   -4.645877823029373E-1   -1.077963286384465E-1
 1.004781145145000E+10  -3.507448837679096E-1   -2.966063690331807E-1    1.708681871293153E-4   -2.238131764090840E-4    2.065759361286989E-4   -2.501479175363175E-4   -4.647593844713465E-1   -1.073057087967993E-1
 1.004781774790000E+10  -3.509810742731047E-1   -2.963486081728712E-1    1.796084162049282E-4   -2.204608353869611E-4    1.937067041526558E-4   -2.109501264256317E-4   -4.648974864767723E-1   -1.068012746088293E-1
 1.004782404435000E+10  -3.511626557242208E-1   -2.959200793398559E-1    1.743056236245601E-4   -2.302228835766971E-4    2.012548506420464E-4   -2.008056979206767E-4   -4.648348022577674E-1   -1.064334565125775E-1
 1.004783034080000E+10  -3.514656157196687E-1   -2.956878128652841E-1    1.635232554396170E-4   -2.109383701805420E-4    1.877343304619867E-4   -2.102582022043721E-4   -4.649403509295445E-1   -1.058938922581366E-1
 1.004783663725000E+10  -3.517671804762091E-1   -2.953442971100171E-1    1.619246039913522E-4   -2.213002570023591E-4    1.691112037256082E-4   -2.199005226802943E-4   -4.649728213199827E-1   -1.055241188598377E-1
 1.004784293370000E+10  -3.520469058837747E-1   -2.949165370856158E-1    1.923129829482076E-4   -1.930206153915641E-4    1.880434616233077E-4   -1.965794800201584E-4   -4.650887747649165E-1   -1.048932899128497E-1
 1.004784923015000E+10  -3.522524222239658E-1   -2.945565972278709E-1    1.888980562426494E-4   -1.931347474830257E-4    2.087510555485794E-4   -1.743547211039009E-4   -4.651951910638844E-1   -1.045829787478441E-1
 1.004785552660000E+10  -3.526995935373120E-1   -2.944123858589395E-1    1.513982256304463E-4   -1.982190881820856E-4    1.926479097370383E-4   -1.748391703345822E-4   -4.652524773055305E-1   -1.039255491147088E-1
 1.004786182305000E+10  -3.527103901417601E-1   -2.938936315421687E-1    1.692102353052737E-4   -1.383984420509975E-4    2.068729079385221E-4   -1.332390907998110E-4   -4.653328551372803E-1   -1.035298421132987E-1
 1.004786811950000E+10  -3.530417734024909E-1   -2.936407178838821E-1    1.759369652132833E-4   -1.862273107436910E-4    1.852462241759349E-4   -1.648756565273004E-4   -4.653634632011131E-1   -1.029230856434491E-1
 1.004787441595000E+10  -3.533262482545176E-1   -2.933656486068856E-1    1.735115336368284E-4   -1.422935871237365E-4    1.625084540981272E-4   -1.336923986976414E-4   -4.654284849568670E-1   -1.025338338688544E-1
 1.004788071240000E+10  -3.534106718863216E-1   -2.929656716423020E-1    1.882906322825790E-4   -1.511141379032969E-4    1.868795069229362E-4   -1.338118926682268E-4   -4.654358272838320E-1   -1.020260333677462E-1
 1.004788700885000E+10  -3.539701176681173E-1   -2.928193629002473E-1    1.437080522242129E-4   -1.398817887656315E-4    1.951927470027719E-4   -1.283638837539428E-4   -4.655549277480922E-1   -1.013624766642995E-1
 1.004789330530000E+10  -3.540474949232592E-1   -2.923495162267975E-1    1.621094823490297E-4   -1.210890574095642E-4    1.454946450963597E-4   -1.403511008763701E-4   -4.655537801986385E-1   -1.010182673466640E-1
 1.004789960175000E+10  -3.542175572591600E-1   -2.920004929404510E-1    1.839413843436732E-4   -1.367605288417785E-4    1.656219957236935E-4   -1.056770802526605E-4   -4.656916008956865E-1   -1.004584324481521E-1
 1.004790589820000E+10  -3.545604617978331E-1   -2.916961672272393E-1    1.467412200341724E-4   -9.861609881653614E-5    1.789270809236378E-4   -1.267427290371792E-4   -4.658239251624383E-1   -9.993384845691815E-2
 1.004791219465000E+10  -3.548040292070845E-1   -2.913651594852236E-1    1.826747812704588E-4   -8.810156666810002E-5    1.441788857000383E-4   -7.068909104662304E-5   -4.658238605597627E-1   -9.942104613339452E-2
 1.004791849110000E+10  -3.550783781938347E-1   -2.909994273608491E-1    1.516909193955677E-4   -7.052164270122778E-5    1.652140742366494E-4   -9.691818565063540E-5   -4.659189343040827E-1   -9.888552300226425E-2
 1.004792478755000E+10  -3.553086161228486E-1   -2.907276593378749E-1    1.591139731377115E-4   -9.320802735772650E-5    2.033349250337120E-4   -5.784661417450216E-5   -4.660519205528097E-1   -9.859047961295271E-2
 1.004793108400000E+10  -3.556143950732594E-1   -2.904284036413403E-1    1.580681543092876E-4   -6.411231033036434E-5    1.844769115105719E-4   -6.493259067254607E-5   -4.661012533468650E-1   -9.805127005094350E-2
 1.004793738045000E+10  -3.558082829169897E-1   -2.900847542356074E-1    1.427441014521315E-4   -4.900154971760920E-5    1.851373885415028E-4   -5.041419276954344E-5   -4.661393038405237E-1   -9.751047816597176E-2
 1.004794367690000E+10  -3.560912601489311E-1   -2.897553726606059E-1    1.953384972643532E-4   -8.525864795386349E-5    1.646488930163264E-4   -5.072227456241139E-5   -4.661500792661771E-1   -9.694856153120732E-2
 1.004794997335000E+10  -3.564075052702573E-1   -2.893907791985855E-1    1.534686512095462E-4   -2.593927911506743E-5    1.466310147736258E-4   -2.952098641447201E-5   -4.661569050524353E-1   -9.640317677697918E-2
 1.004795626980000E+10  -3.566251309008622E-1   -2.890239887424419E-1    1.834501912697475E-4   -3.305556823956613E-5    1.798796126179426E-4    3.265699614287580E-6   -4.662759811135693E-1   -9.589146792436588E-2
 1.004796256625000E+10  -3.568592682003962E-1   -2.886718333962094E-1    1.549673992484789E-4   -1.730849736628520E-5    1.844909228341309E-4   -4.457425845477263E-6   -4.663805327641595E-1   -9.541766381358348E-2
 1.004796886270000E+10  -3.572021239673013E-1   -2.883714208915143E-1    1.954004003906586E-4    1.649478574906830E-5    1.343091420729118E-4   -1.724769473330579E-5   -4.665010163878510E-1   -9.480012522816826E-2
 1.004797515915000E+10  -3.573878495933619E-1   -2.880170291864325E-1    1.806436242003531E-4    7.528828319011522E-6    1.799423867100978E-4    1.730549151845046E-5   -4.664313628886626E-1   -9.438818342660442E-2
 1.004798145560000E+10  -3.576548250999094E-1   -2.877225122174864E-1    1.924441511091205E-4    2.948929580961832E-5    1.737763232097014E-4    6.224414953881249E-5   -4.664582880670902E-1   -9.378373874432715E-2
 1.004798775205000E+10  -3.578226832867741E-1   -2.875078031890399E-1    1.902564131463025E-4    4.355397137677820E-5    1.959903979304811E-4    5.209598988497250E-5   -4.665204546851782E-1   -9.315337272142121E-2
 1.004799404850000E+10  -3.581783272009680E-1   -2.870625671182881E-1    1.577422988726478E-4    5.973185710224409E-5    1.552839502325948E-4    5.126550601420991E-5   -4.664520000503948E-1   -9.275284268044827E-2
