#  HZ   S   RI   R     50.00 
! Rohde & Schwarz Vector Network Analyzer 
! Rohde-Schwarz,ZNB20-2Port,1311601062101988,3.16
! Created: UTC 3/21/2024, 12:56:45 AM
! freq[Hz]                re:S11                  im:S11                  re:S21                  im:S21                  re:S12                  im:S12                  re:S22                  im:S22
 1.004732928500000E+10  -3.293817411619083E-1   -3.215028182736747E-1    2.767303646771802E-4   -6.253576350723342E-4    3.286891550735244E-4   -6.106694297638130E-4   -4.568534666957224E-1   -1.429951543616930E-1
 1.004733617350000E+10  -3.296506166348945E-1   -3.210245940301648E-1    2.734101385794674E-4   -6.260472974412468E-4    3.166237678643502E-4   -5.892143542603741E-4   -4.570663565777664E-1   -1.425751660670723E-1
 1.004734306200000E+10  -3.300555017522533E-1   -3.208141098472721E-1    2.531044239950313E-4   -6.245110205559349E-4    3.030268270079364E-4   -6.011188375821840E-4   -4.571135690031076E-1   -1.420816810008207E-1
 1.004734995050000E+10  -3.303135923378004E-1   -3.204884301654757E-1    2.874634281389019E-4   -6.248754563971609E-4    3.367402680961786E-4   -6.201749584755480E-4   -4.573813020363116E-1   -1.416059341387787E-1
 1.004735683900000E+10  -3.305249620696934E-1   -3.200687200099901E-1    2.610179980969110E-4   -6.393513246478945E-4    2.887729987834414E-4   -6.103149021894008E-4   -4.574755059945534E-1   -1.413492407912073E-1
 1.004736372750000E+10  -3.308601373773982E-1   -3.198883737895861E-1    2.785576244730003E-4   -6.044111626283544E-4    3.307438376914633E-4   -5.761818917436813E-4   -4.575718280578697E-1   -1.407531566980894E-1
 1.004737061600000E+10  -3.311843858893656E-1   -3.195766729726336E-1    2.408098916822734E-4   -6.190690476299385E-4    2.938606717160076E-4   -5.774497009237749E-4   -4.575869131775394E-1   -1.401481681514553E-1
 1.004737750450000E+10  -3.314039424921120E-1   -3.190730488223319E-1    2.735623611934070E-4   -5.869179401334776E-4    3.302275992646632E-4   -5.875469667801027E-4   -4.577723995129218E-1   -1.397530643875530E-1
 1.004738439300000E+10  -3.317944012458137E-1   -3.188314374044502E-1    2.411718388555930E-4   -6.042772322700704E-4    3.160928174804145E-4   -6.017305422420256E-4   -4.579479323057574E-1   -1.391622214951105E-1
 1.004739128150000E+10  -3.321457589186463E-1   -3.184378482094237E-1    2.516329526857885E-4   -5.986896802764123E-4    2.840500564330813E-4   -5.642221978679935E-4   -4.581569213523430E-1   -1.388170544477950E-1
 1.004739817000000E+10  -3.324158557393551E-1   -3.180931156909317E-1    2.627090056610856E-4   -5.833355682310891E-4    2.982460024578525E-4   -5.802409573075727E-4   -4.582488537110756E-1   -1.383052049139969E-1
 1.004740505850000E+10  -3.327582068205429E-1   -3.177036988871254E-1    2.236256415109914E-4   -5.892629375591837E-4    3.104193088382101E-4   -6.090409468348649E-4   -4.584283758623711E-1   -1.378620996078780E-1
 1.004741194700000E+10  -3.330938445671920E-1   -3.173569848234548E-1    2.452190424569659E-4   -5.935104012979865E-4    2.955521371428504E-4   -5.461551046593685E-4   -4.584235630342850E-1   -1.374610744851538E-1
 1.004741883550000E+10  -3.333866778096510E-1   -3.171037213386224E-1    2.318206579430430E-4   -5.739586124166831E-4    3.188416322070789E-4   -5.732845524451520E-4   -4.585836112693418E-1   -1.368473484639969E-1
 1.004742572400000E+10  -3.335776809425633E-1   -3.167471487561557E-1    2.644898794391231E-4   -5.630133201015396E-4    2.899180324072545E-4   -5.795939756864058E-4   -4.587633762223895E-1   -1.365104482887160E-1
 1.004743261250000E+10  -3.340108981366937E-1   -3.164075295812435E-1    2.558714222017274E-4   -5.480592344483163E-4    2.968355643211425E-4   -5.533302180664873E-4   -4.587964548675310E-1   -1.359602519766898E-1
 1.004743950100000E+10  -3.342506404764637E-1   -3.160207538733846E-1    2.269825685531893E-4   -5.959173391520517E-4    2.793269481561879E-4   -5.748139256905914E-4   -4.589803674189011E-1   -1.353627120908719E-1
 1.004744638950000E+10  -3.345794505109242E-1   -3.156875884298077E-1    2.578473646400159E-4   -5.650372556558088E-4    2.787959558670899E-4   -5.634774584276455E-4   -4.590956435539179E-1   -1.350461986636373E-1
 1.004745327800000E+10  -3.348422714316487E-1   -3.153088364473304E-1    2.191205332701987E-4   -5.523067985207636E-4    3.141564657242654E-4   -5.340364236001069E-4   -4.591709700312028E-1   -1.345574116334884E-1
 1.004746016650000E+10  -3.351822343030778E-1   -3.150265809848444E-1    2.676317962214179E-4   -5.704379243773955E-4    2.555815169591861E-4   -5.464051932378103E-4   -4.592569713495511E-1   -1.340261113157585E-1
 1.004746705500000E+10  -3.354228784870191E-1   -3.147179086020386E-1    2.596782798666519E-4   -5.532502014358032E-4    2.888457424425074E-4   -5.379680133366993E-4   -4.593622619052044E-1   -1.334569087199302E-1
 1.004747394350000E+10  -3.356403888656770E-1   -3.142323569625742E-1    2.410080844126586E-4   -5.428936943144240E-4    2.845177866101534E-4   -5.062690307786241E-4   -4.594688182761351E-1   -1.330829870791483E-1
 1.004748083200000E+10  -3.360159845303503E-1   -3.140192201027571E-1    2.302511457084409E-4   -5.629160694217139E-4    3.002826178293614E-4   -5.452988956443160E-4   -4.596675004233435E-1   -1.324359479798967E-1
 1.004748772050000E+10  -3.365002000704845E-1   -3.136941309475785E-1    2.072544158585477E-4   -5.351161561904358E-4    2.809133181091743E-4   -5.499164423261060E-4   -4.598498997306219E-1   -1.322403208566566E-1
 1.004749460900000E+10  -3.368052189850466E-1   -3.132252148702639E-1    2.214786458277286E-4   -5.238459030022217E-4    2.743921418603124E-4   -5.389411289501083E-4   -4.599506023930611E-1   -1.316855245687904E-1
 1.004750149750000E+10  -3.370340578214727E-1   -3.129206097533294E-1    2.478464569464200E-4   -5.086898914777933E-4    2.711292927561407E-4   -4.982990400652465E-4   -4.600583486210268E-1   -1.312516009514763E-1
 1.004750838600000E+10  -3.373572764698947E-1   -3.125973956398639E-1    2.415669407591665E-4   -5.250912299709180E-4    2.741925675929417E-4   -5.101651691773275E-4   -4.600555407852627E-1   -1.307264666509921E-1
 1.004751527450000E+10  -3.376289514354845E-1   -3.122036514752822E-1    2.313331849463134E-4   -5.139744466287111E-4    2.735501482808014E-4   -5.236500108072072E-4   -4.602644196880540E-1   -1.301524199281291E-1
 1.004752216300000E+10  -3.378622818650229E-1   -3.119253093121082E-1    2.277630260479651E-4   -5.109222256034960E-4    2.738422379768566E-4   -4.888739768184756E-4   -4.603259524284970E-1   -1.297153104470659E-1
 1.004752905150000E+10  -3.381102400950160E-1   -3.115033500067769E-1    2.272898399687623E-4   -4.973253811148526E-4    2.594494089956119E-4   -5.212870806617596E-4   -4.604814235925159E-1   -1.292357912347465E-1
 1.004753594000000E+10  -3.384265375610392E-1   -3.110807467467372E-1    2.269900544586084E-4   -4.906793457519099E-4    2.735162531233891E-4   -4.705275125955186E-4   -4.605273008131444E-1   -1.285708512621340E-1
 1.004754282850000E+10  -3.387443434386349E-1   -3.108395180019886E-1    2.269781493442898E-4   -4.991289972661280E-4    2.899024122461756E-4   -5.021826827743020E-4   -4.606434093162804E-1   -1.281990240745212E-1
 1.004754971700000E+10  -3.391045090030125E-1   -3.104577819666733E-1    2.176016169728466E-4   -4.905527440638870E-4    2.777866262847458E-4   -4.737619533274140E-4   -4.608268365404760E-1   -1.276798228908799E-1
 1.004755660550000E+10  -3.393710787026049E-1   -3.101801297538128E-1    2.365798464089251E-4   -4.872070573971695E-4    2.600595602346446E-4   -4.833096815810851E-4   -4.608819952521819E-1   -1.272970930757947E-1
 1.004756349400000E+10  -3.396875992847374E-1   -3.097873636053917E-1    2.524154768478325E-4   -4.741090502312967E-4    2.342638350028642E-4   -4.956894696533380E-4   -4.610648454719873E-1   -1.267735812806924E-1
 1.004757038250000E+10  -3.399277071942737E-1   -3.094917362531991E-1    2.249578597164779E-4   -4.873400903391549E-4    2.501304529709989E-4   -4.616263965576115E-4   -4.611943939737670E-1   -1.263868555797713E-1
 1.004757727100000E+10  -3.402189548970659E-1   -3.090876162371967E-1    2.233874829871278E-4   -4.686313641928042E-4    2.465904791101594E-4   -4.774206406185395E-4   -4.613612881675461E-1   -1.257534356096398E-1
 1.004758415950000E+10  -3.404849841178568E-1   -3.087668817737594E-1    2.295857896806180E-4   -4.607356318211338E-4    2.391387488098775E-4   -4.296095197188040E-4   -4.613324154249377E-1   -1.253885444614529E-1
 1.004759104800000E+10  -3.409442041910316E-1   -3.084986748709430E-1    2.266734555834727E-4   -4.729135988882861E-4    2.429576979059859E-4   -4.543982427606168E-4   -4.614473028388137E-1   -1.249852433712070E-1
 1.004759793650000E+10  -3.412260678548566E-1   -3.080432172089042E-1    2.159606595746500E-4   -4.421603552328552E-4    2.660089283801873E-4   -4.504348629033937E-4   -4.616645849924277E-1   -1.242962773644124E-1
 1.004760482500000E+10  -3.415550115826335E-1   -3.077215234180277E-1    2.080612452379516E-4   -4.660040173834724E-4    2.542127324208896E-4   -4.736086789342561E-4   -4.615792180698129E-1   -1.238413869166557E-1
 1.004761171350000E+10  -3.417766702913480E-1   -3.074532567231454E-1    2.260288037072348E-4   -4.520143440308536E-4    2.658038052371300E-4   -4.464694912368726E-4   -4.618484908562894E-1   -1.234230143463435E-1
 1.004761860200000E+10  -3.419674240285236E-1   -3.071057063072212E-1    2.617669276051790E-4   -4.644205373288463E-4    2.501782180168426E-4   -4.498485896778397E-4   -4.620412932402313E-1   -1.228827607637593E-1
 1.004762549050000E+10  -3.423172009472445E-1   -3.067003027109899E-1    2.031518869918924E-4   -4.246543831606788E-4    2.300322848077248E-4   -4.554562788972214E-4   -4.619230976471324E-1   -1.224756569939865E-1
 1.004763237900000E+10  -3.426246086932436E-1   -3.063837375706637E-1    1.947383204679054E-4   -4.444886150519900E-4    2.785337439479836E-4   -4.593122917291266E-4   -4.620552241924957E-1   -1.220538425103546E-1
 1.004763926750000E+10  -3.429368605982666E-1   -3.060713958175462E-1    2.177822263189391E-4   -4.150964474541034E-4    2.399371909621922E-4   -4.085455191981226E-4   -4.622637158126061E-1   -1.212645015642880E-1
 1.004764615600000E+10  -3.431846159702265E-1   -3.055061425850105E-1    1.930846061322137E-4   -4.357257492747804E-4    2.586125568935956E-4   -4.182318558190717E-4   -4.622589241497276E-1   -1.209505724532014E-1
 1.004765304450000E+10  -3.435007062421660E-1   -3.053066588540614E-1    2.154710933205402E-4   -3.967558997925543E-4    2.494370740695511E-4   -4.074282950713720E-4   -4.625388440993189E-1   -1.203401774167611E-1
 1.004765993300000E+10  -3.438583812530996E-1   -3.048365109613884E-1    1.834972221945974E-4   -3.971701838851516E-4    2.391183991676786E-4   -4.010436655126826E-4   -4.624588420136920E-1   -1.198400178002017E-1
 1.004766682150000E+10  -3.441729988098606E-1   -3.044595800772223E-1    2.051971893132125E-4   -4.002361034342119E-4    2.372706178648497E-4   -4.010736156848027E-4   -4.626768515778865E-1   -1.194378700682900E-1
 1.004767371000000E+10  -3.444335049351566E-1   -3.043012589611475E-1    2.237557077511383E-4   -4.212111113112530E-4    2.345454250999906E-4   -3.831681121289859E-4   -4.628267550671993E-1   -1.189545310999156E-1
 1.004768059850000E+10  -3.446947588510167E-1   -3.038192547919706E-1    2.004346441865054E-4   -4.076757332971913E-4    2.363298928490791E-4   -3.934018530094460E-4   -4.627405995967389E-1   -1.184793242015729E-1
 1.004768748700000E+10  -3.450140699167900E-1   -3.033867778271302E-1    2.101904052093405E-4   -3.998429681065835E-4    2.251705267327697E-4   -3.707910093898864E-4   -4.629666577235136E-1   -1.179697737575357E-1
 1.004769437550000E+10  -3.453276794530915E-1   -3.031969056953623E-1    2.041910755403838E-4   -3.861556086510410E-4    2.334040848948230E-4   -3.864291661849830E-4   -4.630844193992048E-1   -1.174602067562790E-1
 1.004770126400000E+10  -3.456889038100122E-1   -3.028556969786140E-1    1.885153309967720E-4   -3.626599095831328E-4    2.261948243854181E-4   -3.445572433254162E-4   -4.631307615942985E-1   -1.169100349198439E-1
 1.004770815250000E+10  -3.458714817745293E-1   -3.025070944549726E-1    2.024222645554872E-4   -3.676718171855465E-4    2.166130775783922E-4   -3.592852090159645E-4   -4.632409277255318E-1   -1.164241867640239E-1
 1.004771504100000E+10  -3.461584666450554E-1   -3.020675531253810E-1    2.015392606594000E-4   -3.735792022504885E-4    2.380474898214071E-4   -3.331321515398549E-4   -4.633238678791392E-1   -1.159370196286301E-1
 1.004772192950000E+10  -3.464228409504704E-1   -3.016354670460513E-1    1.847003659928311E-4   -3.796276820488270E-4    2.216250081973492E-4   -3.404150193088658E-4   -4.634937328257288E-1   -1.153284595101697E-1
 1.004772881800000E+10  -3.468441347014214E-1   -3.013822922112089E-1    1.863035296303095E-4   -3.585986443229425E-4    2.325434100230625E-4   -3.254230581763690E-4   -4.635193732692967E-1   -1.148484662274670E-1
 1.004773570650000E+10  -3.470431739662231E-1   -3.011505658868440E-1    2.032022104785404E-4   -3.374749233584932E-4    2.274122641814811E-4   -3.292142645542144E-4   -4.636625505286535E-1   -1.144474229713644E-1
 1.004774259500000E+10  -3.473740859961180E-1   -3.006134834325326E-1    1.991949814083758E-4   -3.305270445695359E-4    2.311786152386532E-4   -3.420978187237450E-4   -4.636169960515431E-1   -1.140165972881337E-1
 1.004774948350000E+10  -3.475508857044178E-1   -3.002897775710979E-1    1.949177004807015E-4   -3.400446816992433E-4    2.164723973589680E-4   -3.262623589424189E-4   -4.638775697473879E-1   -1.133126250025162E-1
 1.004775637200000E+10  -3.478981167638474E-1   -2.998345704405935E-1    1.944915539413121E-4   -3.153243893385962E-4    1.991861407411799E-4   -2.976103022650646E-4   -4.638415008793787E-1   -1.127915129801511E-1
 1.004776326050000E+10  -3.481105878735383E-1   -2.995874669708901E-1    1.907784571048049E-4   -2.853934486733661E-4    2.518493791268039E-4   -2.885436536237935E-4   -4.640484774907984E-1   -1.122457928925303E-1
 1.004777014900000E+10  -3.483745206668653E-1   -2.991765154900410E-1    1.866964459881100E-4   -3.230899185695733E-4    2.073580866355398E-4   -3.031800635330769E-4   -4.640706309686580E-1   -1.117327879311949E-1
 1.004777703750000E+10  -3.486575084556779E-1   -2.988348597523791E-1    1.844588819843150E-4   -3.035903749395459E-4    2.340225358529260E-4   -2.947955613186418E-4   -4.640854216276273E-1   -1.112955276966003E-1
 1.004778392600000E+10  -3.489546001458474E-1   -2.985864589741339E-1    1.727630612014073E-4   -3.078101327909265E-4    2.173199575085234E-4   -2.693958278449164E-4   -4.643128865879836E-1   -1.106517507609063E-1
 1.004779081450000E+10  -3.493272875750281E-1   -2.981555279551411E-1    2.074379035495789E-4   -2.625976137376049E-4    2.041299821211700E-4   -2.647708937551891E-4   -4.641401923261820E-1   -1.101548560449595E-1
 1.004779770300000E+10  -3.495576747039875E-1   -2.979092764853921E-1    1.641091299441154E-4   -2.871880518001858E-4    2.214564349767475E-4   -2.675336623197632E-4   -4.643010613865647E-1   -1.096413070410390E-1
 1.004780459150000E+10  -3.498023481478761E-1   -2.974193059295015E-1    1.768771215021497E-4   -2.774540730920160E-4    2.249409817410741E-4   -2.585977374845268E-4   -4.644657545946366E-1   -1.091910949855642E-1
 1.004781148000000E+10  -3.501499699366506E-1   -2.970248117160684E-1    1.927018310939308E-4   -2.366733270102760E-4    2.022028663848538E-4   -2.380113535888043E-4   -4.645364123687910E-1   -1.085002058070129E-1
 1.004781836850000E+10  -3.503833549236264E-1   -2.966776245592150E-1    1.936033790092126E-4   -2.404717648635636E-4    1.876022512522112E-4   -2.404713725400286E-4   -4.645339913800896E-1   -1.081116304140052E-1
 1.004782525700000E+10  -3.508232799528744E-1   -2.962848378359829E-1    1.799595611116235E-4   -2.670260084340052E-4    2.090073124326459E-4   -2.443688659229716E-4   -4.648492578063764E-1   -1.075715588083748E-1
 1.004783214550000E+10  -3.510039941420663E-1   -2.958909864807105E-1    1.743672140779794E-4   -2.525512373641417E-4    2.101423481887046E-4   -2.364296073592941E-4   -4.648497845848685E-1   -1.071694934659412E-1
 1.004783903400000E+10  -3.513252508456625E-1   -2.956773684547100E-1    2.041050991367084E-4   -2.352130680935523E-4    2.025476591834920E-4   -2.160413506050650E-4   -4.650321463493600E-1   -1.066255539708363E-1
 1.004784592250000E+10  -3.517079405609097E-1   -2.953720657368152E-1    1.950694856552115E-4   -2.174377655934379E-4    1.879568212019586E-4   -1.846249098888313E-4   -4.649480156907179E-1   -1.059694726148698E-1
 1.004785281100000E+10  -3.519411064592826E-1   -2.947898654643645E-1    1.910456379424051E-4   -2.160597604795685E-4    1.943292543851928E-4   -1.681111598458992E-4   -4.651843504709418E-1   -1.054950519621595E-1
 1.004785969950000E+10  -3.522409042437908E-1   -2.945722701197802E-1    2.233877716704255E-4   -1.932320503391055E-4    2.034960280510162E-4   -1.855623474483551E-4   -4.652079986198945E-1   -1.050565865675406E-1
 1.004786658800000E+10  -3.524249920501565E-1   -2.940942344047954E-1    1.842310844210261E-4   -1.761461009267767E-4    1.934132146353629E-4   -1.511951921965438E-4   -4.652780505615761E-1   -1.043992663120329E-1
 1.004787347650000E+10  -3.527587397753550E-1   -2.937832217356461E-1    1.883574878220372E-4   -1.748135473138098E-4    1.908013372946289E-4   -1.447116975264148E-4   -4.652990874120774E-1   -1.039290814536784E-1
 1.004788036500000E+10  -3.530260460552818E-1   -2.933288496758026E-1    2.003346661945411E-4   -1.581174033116895E-4    1.820972340466079E-4   -1.588234453341766E-4   -4.655054787032624E-1   -1.032109864633936E-1
 1.004788725350000E+10  -3.532297864316213E-1   -2.930791946897745E-1    1.987356132233374E-4   -1.633452485922064E-4    2.072899733403403E-4   -1.614706523035463E-4   -4.655333794953919E-1   -1.028041247528828E-1
 1.004789414200000E+10  -3.534598172358164E-1   -2.926747793706898E-1    1.857023322610444E-4   -1.420297866423278E-4    2.321870579345032E-4   -1.191693325127283E-4   -4.655820424156547E-1   -1.021658053441125E-1
 1.004790103050000E+10  -3.538206652336059E-1   -2.922726742646435E-1    1.850265723174357E-4   -9.158173729169944E-5    2.101742707092499E-4   -1.386835700403971E-4   -4.656127896271064E-1   -1.017847131311253E-1
 1.004790791900000E+10  -3.541537031294383E-1   -2.918966860063990E-1    1.900513110587953E-4   -1.287861287936313E-4    1.889529046065126E-4   -1.239304273717218E-4   -4.656750741164912E-1   -1.011027639591289E-1
 1.004791480750000E+10  -3.544053324710712E-1   -2.917440278374312E-1    1.843724344002405E-4   -8.886002880615059E-5    1.664760950162459E-4   -1.169007037502572E-4   -4.659273699675993E-1   -1.004624308777861E-1
 1.004792169600000E+10  -3.547093881017048E-1   -2.912721827267977E-1    2.019023796098677E-4   -1.246359002153258E-4    1.979459514135559E-4   -6.962588086418480E-5   -4.658030226434721E-1   -1.000626423443764E-1
 1.004792858450000E+10  -3.549834019967160E-1   -2.907403612988974E-1    1.626958860288835E-4   -7.217168002377134E-5    2.047910005635852E-4   -9.209051022556379E-5   -4.658126579002053E-1   -9.953236032386610E-2
 1.004793547300000E+10  -3.553393009117909E-1   -2.905304056333242E-1    1.788523101155684E-4   -7.570546553688670E-5    1.983563394937362E-4   -6.427973563795445E-5   -4.660953818481467E-1   -9.900460961694357E-2
 1.004794236150000E+10  -3.554622175722814E-1   -2.901204160486297E-1    1.771615114163404E-4   -8.659167033815510E-5    2.007964211233027E-4   -7.907125043755634E-5   -4.661078231463648E-1   -9.836946974404265E-2
 1.004794925000000E+10  -3.558286373985970E-1   -2.898107554717163E-1    2.115187751266841E-4   -7.425167880183343E-5    2.126756133946167E-4   -3.905158993609015E-5   -4.660526989729309E-1   -9.787894201475704E-2
