#  HZ   S   RI   R     50.00 
! Rohde & Schwarz Vector Network Analyzer 
! Rohde-Schwarz,ZNB20-2Port,1311601062101988,3.16
! Created: UTC 3/21/2024, 12:57:02 AM
! freq[Hz]                re:S11                  im:S11                  re:S21                  im:S21                  re:S12                  im:S12                  re:S22                  im:S22
 1.004730485500000E+10  -3.281259954108482E-1   -3.227270785999053E-1    2.797151935460974E-4   -6.386568056317044E-4    3.285231398254119E-4   -6.224618775036307E-4   -4.562961761217177E-1   -1.449339163482794E-1
 1.004731189555000E+10  -3.284311094505192E-1   -3.224620827777194E-1    2.586015739284366E-4   -6.421309145442316E-4    3.449004215278977E-4   -6.127136745883368E-4   -4.564978373832205E-1   -1.446140364169152E-1
 1.004731893610000E+10  -3.287745199377111E-1   -3.222152971887990E-1    2.545147579806564E-4   -6.171015314826174E-4    3.191464917854618E-4   -6.176601346129563E-4   -4.566777501460215E-1   -1.442502626449732E-1
 1.004732597665000E+10  -3.290027797653250E-1   -3.219081618976858E-1    2.802053360786964E-4   -6.194203035520239E-4    2.841677112682661E-4   -6.030842629869238E-4   -4.566650394511451E-1   -1.436048535431737E-1
 1.004733301720000E+10  -3.293827119877351E-1   -3.215054366864483E-1    2.834762657724237E-4   -6.096625517524611E-4    3.337561113012880E-4   -5.986469666736848E-4   -4.569145932020900E-1   -1.432087548107921E-1
 1.004734005775000E+10  -3.297138632298741E-1   -3.210217095765178E-1    2.466166001887250E-4   -6.097432719152343E-4    2.928005730425179E-4   -6.324216702014999E-4   -4.569487191574499E-1   -1.427074371025941E-1
 1.004734709830000E+10  -3.299686943744505E-1   -3.209256143377848E-1    2.419204514262435E-4   -5.970272994074865E-4    3.142057933190990E-4   -5.946778361324834E-4   -4.571879561970216E-1   -1.421602513540979E-1
 1.004735413885000E+10  -3.303584810062326E-1   -3.204541096214096E-1    2.499299731454799E-4   -6.161937822181803E-4    3.189414246364798E-4   -5.946294669031449E-4   -4.573469108322497E-1   -1.417390278124447E-1
 1.004736117940000E+10  -3.306634220616801E-1   -3.201802580797930E-1    2.761537259649138E-4   -6.155777810915347E-4    3.092663342569270E-4   -6.245930129903832E-4   -4.573480742895811E-1   -1.412094484019922E-1
 1.004736821995000E+10  -3.310335440387942E-1   -3.195565755535000E-1    2.635126715599271E-4   -5.905771966278396E-4    2.851522469092635E-4   -5.709772292796106E-4   -4.575045902844836E-1   -1.407143495578836E-1
 1.004737526050000E+10  -3.312625428284049E-1   -3.194097832944086E-1    2.748833906853353E-4   -5.613634253269796E-4    2.819561750289343E-4   -5.928378646246884E-4   -4.575748814405172E-1   -1.402603777145752E-1
 1.004738230105000E+10  -3.314576647025678E-1   -3.190856772608746E-1    2.767637067433036E-4   -6.038827940823195E-4    2.997907818182675E-4   -5.949341702105549E-4   -4.578597734421070E-1   -1.397481078244528E-1
 1.004738934160000E+10  -3.318311644834741E-1   -3.185007233249144E-1    2.889572467156681E-4   -5.805327310493733E-4    3.157906530327555E-4   -5.784912816618910E-4   -4.579384983783120E-1   -1.393382459288290E-1
 1.004739638215000E+10  -3.321169510748612E-1   -3.182563835889263E-1    2.645211126803549E-4   -5.729812436373598E-4    2.745303677369235E-4   -5.849758699723379E-4   -4.579558615149164E-1   -1.387274462839707E-1
 1.004740342270000E+10  -3.325809706142930E-1   -3.180191410352197E-1    2.354952376538671E-4   -5.852290713512186E-4    2.801454668947388E-4   -5.720134840864905E-4   -4.582695121709896E-1   -1.384072311298085E-1
 1.004741046325000E+10  -3.327662640455119E-1   -3.175610671209275E-1    2.707416597998284E-4   -5.754909575117408E-4    2.831578841958814E-4   -5.826514218485038E-4   -4.582864444125169E-1   -1.379300054854537E-1
 1.004741750380000E+10  -3.331353793521508E-1   -3.172773206125420E-1    2.481266373536524E-4   -5.746299625131970E-4    2.623028190370321E-4   -5.683606352242687E-4   -4.584085704058928E-1   -1.375267219145908E-1
 1.004742454435000E+10  -3.333070516299612E-1   -3.169490945425902E-1    2.489106779121322E-4   -5.426008851244507E-4    2.652921930541372E-4   -5.470415987088943E-4   -4.585572959820458E-1   -1.370092517433121E-1
 1.004743158490000E+10  -3.337544275972659E-1   -3.165302008854138E-1    2.642695672057625E-4   -5.834586832343889E-4    2.759599762150158E-4   -5.595918209366968E-4   -4.587557722661545E-1   -1.364151348789165E-1
 1.004743862545000E+10  -3.340052035098886E-1   -3.162355811235545E-1    2.329952791600253E-4   -5.894603101866212E-4    2.595157793161731E-4   -5.439319317783303E-4   -4.588818278653689E-1   -1.359435315250630E-1
 1.004744566600000E+10  -3.342592911062681E-1   -3.158618526138969E-1    2.201569132850951E-4   -5.551160142004376E-4    3.006933295421741E-4   -5.526033056893219E-4   -4.589915742631618E-1   -1.355413768303932E-1
 1.004745270655000E+10  -3.347435550709942E-1   -3.154570639104461E-1    2.315852373798826E-4   -5.511646347372114E-4    2.861804396464900E-4   -5.530117893037059E-4   -4.591072122723739E-1   -1.350308945043599E-1
 1.004745974710000E+10  -3.350169123240452E-1   -3.151508630213946E-1    2.485181000152680E-4   -5.601610469947341E-4    2.824542041431137E-4   -5.528409089512390E-4   -4.591886487728389E-1   -1.346072542703671E-1
 1.004746678765000E+10  -3.353036497606234E-1   -3.149035631914410E-1    2.597188511213215E-4   -5.309144006746839E-4    2.917613687410227E-4   -5.248004336042478E-4   -4.592685173748409E-1   -1.341025674144602E-1
 1.004747382820000E+10  -3.356619803734267E-1   -3.143233052287875E-1    2.351395569451522E-4   -5.532176216682708E-4    2.972839025434149E-4   -5.230928761721117E-4   -4.594387678317648E-1   -1.334104842491688E-1
 1.004748086875000E+10  -3.360175526942207E-1   -3.140448993690577E-1    2.393039460365177E-4   -5.352729107119640E-4    2.962257088191679E-4   -5.371026157335884E-4   -4.595395788519870E-1   -1.329452234517365E-1
 1.004748790930000E+10  -3.362345210879523E-1   -3.136461659827007E-1    2.405399794608142E-4   -5.490691021813176E-4    2.834648647563332E-4   -5.196314638761469E-4   -4.597465092614274E-1   -1.325483692971862E-1
 1.004749494985000E+10  -3.366386391173268E-1   -3.133512873472659E-1    2.276200716806421E-4   -5.321063097414346E-4    3.016323306073604E-4   -5.130249301559486E-4   -4.598303315294478E-1   -1.318701583405276E-1
 1.004750199040000E+10  -3.367624703410294E-1   -3.129878228715626E-1    2.583255462609465E-4   -5.270951022462866E-4    2.837014045102267E-4   -5.409388559446664E-4   -4.599767468728395E-1   -1.316650014330842E-1
 1.004750903095000E+10  -3.371731328512943E-1   -3.126791661773259E-1    2.296301378955804E-4   -5.345446727357801E-4    2.540325029463985E-4   -5.180011051356846E-4   -4.598730071072071E-1   -1.310740654527878E-1
 1.004751607150000E+10  -3.373625797437388E-1   -3.123641150085125E-1    2.117542475577358E-4   -5.126610127742485E-4    2.538103195621712E-4   -4.996509061727638E-4   -4.601454565762721E-1   -1.307649008600147E-1
 1.004752311205000E+10  -3.378086028480275E-1   -3.120477055382386E-1    2.344842728390424E-4   -5.098366539173215E-4    2.736675203770353E-4   -5.077980583813156E-4   -4.602752507335039E-1   -1.299897437011089E-1
 1.004753015260000E+10  -3.379842419714981E-1   -3.117062694024367E-1    2.207274781476427E-4   -5.262204689103897E-4    2.631303000762985E-4   -4.998623484374252E-4   -4.602384122574358E-1   -1.296016320384467E-1
 1.004753719315000E+10  -3.382809708947654E-1   -3.112863800156069E-1    2.396233020938682E-4   -4.820714351366668E-4    2.490664182570486E-4   -4.995622467508454E-4   -4.606123071454643E-1   -1.291765158210224E-1
 1.004754423370000E+10  -3.386516195905134E-1   -3.108790657337788E-1    2.064964272144054E-4   -4.895770777970242E-4    2.660630866347785E-4   -5.015911546268851E-4   -4.605349972747423E-1   -1.284761002938599E-1
 1.004755127425000E+10  -3.389713229658869E-1   -3.105619236655458E-1    2.372437031454118E-4   -5.007981529721169E-4    2.619821999840480E-4   -4.799089290433449E-4   -4.608224272903121E-1   -1.281019377104982E-1
 1.004755831480000E+10  -3.392598092477099E-1   -3.102124766661696E-1    2.338584505621720E-4   -5.055986723810767E-4    2.700732667088185E-4   -4.703507674482941E-4   -4.609112548239793E-1   -1.275547426004558E-1
 1.004756535535000E+10  -3.396093201351392E-1   -3.099392637600304E-1    2.456763038155112E-4   -4.746570268128772E-4    2.554060282542023E-4   -4.722936693110363E-4   -4.610562102404959E-1   -1.270424131846450E-1
 1.004757239590000E+10  -3.399469566454181E-1   -3.095038788391535E-1    2.227254919369693E-4   -4.873019220644243E-4    2.464028828664391E-4   -4.870811464368320E-4   -4.610955443706334E-1   -1.267050715623479E-1
 1.004757943645000E+10  -3.401310837537411E-1   -3.092399461066238E-1    2.303501860233256E-4   -4.937748601495699E-4    2.517854123503396E-4   -4.711693755401771E-4   -4.611416992880316E-1   -1.261800578787525E-1
 1.004758647700000E+10  -3.405116124092262E-1   -3.088421505012918E-1    2.326507843879228E-4   -4.776347759287628E-4    2.432105909881019E-4   -4.837840407332801E-4   -4.612143663337415E-1   -1.255457850299107E-1
 1.004759351755000E+10  -3.408129251052123E-1   -3.083889157047416E-1    2.413431089199872E-4   -4.810977526739919E-4    2.695132640018965E-4   -4.616945433317884E-4   -4.614540224172619E-1   -1.251873803145209E-1
 1.004760055810000E+10  -3.411537957349998E-1   -3.081332095238153E-1    2.008894340460056E-4   -4.586484115931213E-4    2.990599123637178E-4   -4.461383364743649E-4   -4.614743547444189E-1   -1.246483265881572E-1
 1.004760759865000E+10  -3.413944461410139E-1   -3.076788577583802E-1    2.357903230842594E-4   -4.519952516331255E-4    2.416532348300941E-4   -4.623299606184847E-4   -4.615448690795307E-1   -1.241231173627451E-1
 1.004761463920000E+10  -3.417714426128307E-1   -3.072986194551498E-1    2.389053912513645E-4   -4.414842736529290E-4    2.842471149391275E-4   -4.235799077766140E-4   -4.617222953110149E-1   -1.235208780064298E-1
 1.004762167975000E+10  -3.420226819551067E-1   -3.069197809644363E-1    2.016043952872889E-4   -4.488866476034735E-4    2.572434918361278E-4   -4.141568449515306E-4   -4.619033835589681E-1   -1.230856843168648E-1
 1.004762872030000E+10  -3.423339306837540E-1   -3.066526856630705E-1    2.335259345465637E-4   -4.308478090265507E-4    2.509780123687392E-4   -4.165642980883643E-4   -4.619998624646337E-1   -1.225330812831800E-1
 1.004763576085000E+10  -3.426824564878671E-1   -3.063005935010548E-1    2.397236594322019E-4   -4.261775366979543E-4    2.416566116066303E-4   -4.397997457998776E-4   -4.620872866894991E-1   -1.221340408771416E-1
 1.004764280140000E+10  -3.428780539725245E-1   -3.059183297328168E-1    2.142516996068118E-4   -4.217760123525955E-4    2.549619602901532E-4   -4.420313988319787E-4   -4.622300536104952E-1   -1.216225215338595E-1
 1.004764984195000E+10  -3.432579579243920E-1   -3.056984905750943E-1    2.293573595565112E-4   -4.377441541985679E-4    2.308698578493888E-4   -4.283119855956774E-4   -4.622606689662002E-1   -1.209893711669862E-1
 1.004765688250000E+10  -3.436061897568043E-1   -3.052646790760608E-1    2.030254563596730E-4   -4.120762792963326E-4    2.371842323291526E-4   -3.881302014239273E-4   -4.624153984623536E-1   -1.205941645743545E-1
 1.004766392305000E+10  -3.438419301540499E-1   -3.050504970493946E-1    2.031679582502001E-4   -4.035787460684323E-4    2.517044992195534E-4   -3.896169611048033E-4   -4.625863967965004E-1   -1.201133128870621E-1
 1.004767096360000E+10  -3.441784309093385E-1   -3.045920952252397E-1    1.986701041146022E-4   -3.930853936326435E-4    2.542347281468653E-4   -3.577212181325852E-4   -4.624201338783350E-1   -1.195559031166586E-1
 1.004767800415000E+10  -3.444102637677957E-1   -3.041227452018769E-1    1.997406718639162E-4   -3.916476282794340E-4    2.136170481441165E-4   -4.048813984207764E-4   -4.626290684298683E-1   -1.190576286054206E-1
 1.004768504470000E+10  -3.446460440176870E-1   -3.037941425373783E-1    2.055091841585128E-4   -4.001857319898341E-4    2.493288729299722E-4   -3.940760790850422E-4   -4.627857330974601E-1   -1.185574811793005E-1
 1.004769208525000E+10  -3.449605621123781E-1   -3.034152688556979E-1    2.074463605670815E-4   -3.881978694189590E-4    2.568867035966519E-4   -3.937743996896447E-4   -4.629658775904302E-1   -1.178480860268607E-1
 1.004769912580000E+10  -3.453082130175320E-1   -3.030322872213410E-1    1.808699669113551E-4   -3.710764027066888E-4    2.479960880015903E-4   -3.914302473262621E-4   -4.630838086335211E-1   -1.174350791697336E-1
 1.004770616635000E+10  -3.456556057704888E-1   -3.026995184760827E-1    1.833694759814170E-4   -3.792057188019768E-4    2.527046461516467E-4   -3.646121455873884E-4   -4.629898813040604E-1   -1.169879289897556E-1
 1.004771320690000E+10  -3.459043939154062E-1   -3.023661101041583E-1    2.242654547562372E-4   -3.814350032741836E-4    2.459087966944792E-4   -3.721455761830160E-4   -4.630990995077078E-1   -1.163721832400088E-1
 1.004772024745000E+10  -3.462277565708561E-1   -3.019538416260837E-1    2.131551004854911E-4   -3.487819855677875E-4    2.284662736005553E-4   -3.398993235380278E-4   -4.632847583220204E-1   -1.160040434768924E-1
 1.004772728800000E+10  -3.466220825258423E-1   -3.017190707284498E-1    2.131674648244800E-4   -3.197670056966244E-4    2.176759318283265E-4   -3.342290455996789E-4   -4.633588933163686E-1   -1.155392339121489E-1
 1.004773432855000E+10  -3.469010230564784E-1   -3.012120639378117E-1    2.086927307888490E-4   -3.447521585594194E-4    2.288885181757442E-4   -3.237870679351260E-4   -4.636645537606619E-1   -1.149368694684953E-1
 1.004774136910000E+10  -3.471359927535723E-1   -3.008991494914802E-1    2.129533442120519E-4   -3.671564544693463E-4    2.238791093872940E-4   -3.225489651784830E-4   -4.637441932771137E-1   -1.143519984237501E-1
 1.004774840965000E+10  -3.473004809431260E-1   -3.005419368588074E-1    2.016372738931877E-4   -3.302491820354645E-4    2.419430854347984E-4   -3.302650333614647E-4   -4.635919353275942E-1   -1.137787856181576E-1
 1.004775545020000E+10  -3.476415481088775E-1   -3.001646364720836E-1    1.856080699697409E-4   -3.314203300958257E-4    2.244868332902275E-4   -3.046605537888908E-4   -4.638166022595628E-1   -1.132680228491529E-1
 1.004776249075000E+10  -3.479607829741101E-1   -2.998267274865579E-1    1.947629880491124E-4   -3.069326241039811E-4    2.296759664123810E-4   -3.069757634779394E-4   -4.638348063695391E-1   -1.127885184181023E-1
 1.004776953130000E+10  -3.482837886884973E-1   -2.994533113118615E-1    1.896708829288637E-4   -3.134235543060029E-4    2.196764571565676E-4   -2.960860270598168E-4   -4.640492033280981E-1   -1.123999486878922E-1
 1.004777657185000E+10  -3.485762286016207E-1   -2.991539825264622E-1    2.001000569703017E-4   -3.046397766784909E-4    2.228279097783961E-4   -2.660720777894966E-4   -4.640075995513013E-1   -1.116891816076747E-1
 1.004778361240000E+10  -3.487413889782624E-1   -2.987042839905081E-1    1.856629816363661E-4   -3.094198172618517E-4    2.201040879079718E-4   -2.682608555901048E-4   -4.642486985651582E-1   -1.113076538352939E-1
 1.004779065295000E+10  -3.490303303945617E-1   -2.982783269262269E-1    1.910789568567097E-4   -2.835480230449655E-4    2.087142992740795E-4   -2.883076808633967E-4   -4.643251727577078E-1   -1.107127373070941E-1
 1.004779769350000E+10  -3.494479373271976E-1   -2.980863649518181E-1    2.268299088647124E-4   -2.786997310566908E-4    2.031789319039316E-4   -2.777309568006629E-4   -4.643897785100040E-1   -1.101837253823653E-1
 1.004780473405000E+10  -3.496658900612471E-1   -2.975987495840614E-1    1.767870819274425E-4   -2.767249215994322E-4    1.986950272275319E-4   -2.709206190396989E-4   -4.645397033784525E-1   -1.097434928951771E-1
 1.004781177460000E+10  -3.499423020232186E-1   -2.970601515211522E-1    1.844419495533290E-4   -2.755036008893646E-4    2.165585073045307E-4   -2.407248469008183E-4   -4.644797619221508E-1   -1.090697661711063E-1
 1.004781881515000E+10  -3.503293179595027E-1   -2.967397812628579E-1    1.974922279123206E-4   -2.556223059435811E-4    2.176284463401133E-4   -2.229434305346283E-4   -4.645694962116781E-1   -1.085639311601045E-1
 1.004782585570000E+10  -3.505821809820986E-1   -2.964877379133547E-1    1.995225241067750E-4   -2.350495726013248E-4    2.132888740265744E-4   -2.521088709975195E-4   -4.648012599931448E-1   -1.080271703719637E-1
 1.004783289625000E+10  -3.508983524885478E-1   -2.960397594928464E-1    2.289033313734038E-4   -2.304353438513160E-4    1.919812565884549E-4   -2.466849507273350E-4   -4.647874958769375E-1   -1.074393784823622E-1
 1.004783993680000E+10  -3.512606277933402E-1   -2.956939084020253E-1    1.904028878232893E-4   -2.327428191760317E-4    2.053691698015574E-4   -2.091006094196240E-4   -4.647787351719097E-1   -1.068243135018293E-1
 1.004784697735000E+10  -3.514193278790038E-1   -2.952631726237892E-1    2.124098412978775E-4   -2.229151128843521E-4    2.164993768361221E-4   -2.034951478841905E-4   -4.649964864168917E-1   -1.063656883028015E-1
 1.004785401790000E+10  -3.517108979593641E-1   -2.949390829846462E-1    1.732313886126779E-4   -2.279444550588963E-4    1.814794811719013E-4   -1.865014113215251E-4   -4.649931299577236E-1   -1.056518368440979E-1
 1.004786105845000E+10  -3.520688121766628E-1   -2.945682174230458E-1    2.247029632220613E-4   -2.280047299476266E-4    2.242793826886757E-4   -1.797639723010839E-4   -4.650658996419711E-1   -1.053406190232279E-1
 1.004786809900000E+10  -3.522908087099098E-1   -2.942274641068411E-1    1.760764491418637E-4   -1.907733864964665E-4    2.157093401741033E-4   -1.810444790464739E-4   -4.652507707822018E-1   -1.048598811925806E-1
 1.004787513955000E+10  -3.525342219743613E-1   -2.939172905795829E-1    2.017789040395186E-4   -2.026290101918555E-4    2.032605136470097E-4   -1.307650097733871E-4   -4.653556272041139E-1   -1.041326280693986E-1
 1.004788218010000E+10  -3.529433558419991E-1   -2.935163908648712E-1    1.846988529352819E-4   -1.779217470838319E-4    2.219035591216762E-4   -1.492459513466592E-4   -4.653779458234094E-1   -1.035803842843812E-1
 1.004788922065000E+10  -3.532360772832324E-1   -2.931775801748561E-1    1.991834240891536E-4   -1.629786515461873E-4    2.235537496670330E-4   -1.443715724745436E-4   -4.654618234565577E-1   -1.030369081731294E-1
 1.004789626120000E+10  -3.534306361065124E-1   -2.927776018300705E-1    2.098283918355624E-4   -1.484084025932411E-4    2.269582065671392E-4   -1.528043498220583E-4   -4.655242789279993E-1   -1.025252900605514E-1
 1.004790330175000E+10  -3.537900379072224E-1   -2.923104088842423E-1    1.662836091607858E-4   -1.527416845896655E-4    2.139390837388053E-4   -1.388503067695546E-4   -4.657008805587144E-1   -1.019678488751297E-1
 1.004791034230000E+10  -3.539058402058927E-1   -2.921007925091998E-1    2.290568398603435E-4   -1.296105971207112E-4    2.202283420058205E-4   -1.189188622148060E-4   -4.656239212690036E-1   -1.014692335883850E-1
 1.004791738285000E+10  -3.543199137364592E-1   -2.917639869284784E-1    1.866426153278335E-4   -1.236387659854147E-4    1.882142925854133E-4   -8.487680846016945E-5   -4.656930519568417E-1   -1.008692634406365E-1
 1.004792442340000E+10  -3.547340831523755E-1   -2.914032091353242E-1    1.893758956484563E-4   -9.187841354091620E-5    1.816191711606285E-4   -7.562569151763766E-5   -4.657859874864727E-1   -1.003509940272281E-1
 1.004793146395000E+10  -3.549575815463041E-1   -2.908190341301810E-1    2.257100620094101E-4   -6.917078568848967E-5    1.941902806457535E-4   -7.875193828223707E-5   -4.657781502221132E-1   -9.977571688120333E-2
 1.004793850450000E+10  -3.552732721005258E-1   -2.905738635935707E-1    2.165951192680168E-4   -8.889399108145547E-5    1.773804639231404E-4   -6.749450100098946E-5   -4.659417338886142E-1   -9.928367566451807E-2
