#  HZ   S   RI   R     50.00 
! Rohde & Schwarz Vector Network Analyzer 
! Rohde-Schwarz,ZNB20-2Port,1311601062101988,3.16
! Created: UTC 3/21/2024, 12:57:22 AM
! freq[Hz]                re:S11                  im:S11                  re:S21                  im:S21                  re:S12                  im:S12                  re:S22                  im:S22
 1.004726808500000E+10  -3.261355802602448E-1   -3.247014819206671E-1    2.681953523660583E-4   -6.409344756980595E-4    3.257569184141222E-4   -6.473659356487802E-4   -4.554852777634214E-1   -1.481592107567821E-1
 1.004727535187500E+10  -3.266306297570052E-1   -3.244456107586756E-1    2.745911237638782E-4   -6.385687946568558E-4    3.390824670332589E-4   -6.315206000520899E-4   -4.557285914874775E-1   -1.475701579342070E-1
 1.004728261875000E+10  -3.269569655753103E-1   -3.240060987087551E-1    2.692571078479486E-4   -6.483272959107056E-4    3.279672893599218E-4   -6.158123470690666E-4   -4.557290508395114E-1   -1.469274382092743E-1
 1.004728988562500E+10  -3.271613508307002E-1   -3.237528618418548E-1    2.764567436002072E-4   -6.664521648174849E-4    3.453689881174925E-4   -6.088888274105954E-4   -4.557651901102581E-1   -1.465067299407098E-1
 1.004729715250000E+10  -3.275115070075776E-1   -3.234293141072894E-1    2.691477232444013E-4   -6.542852431482240E-4    3.154406450647336E-4   -6.144303757007350E-4   -4.560483351850299E-1   -1.461607343039051E-1
 1.004730441937500E+10  -3.279554361201585E-1   -3.230600411003148E-1    2.683449786614539E-4   -6.434128567149351E-4    3.001190562431207E-4   -6.381723908500929E-4   -4.562455236505415E-1   -1.455528026713599E-1
 1.004731168625000E+10  -3.282297114297493E-1   -3.227239353872304E-1    2.650562162096930E-4   -6.356443565907164E-4    3.521565445211528E-4   -6.029308958352155E-4   -4.563363850799024E-1   -1.452100600683989E-1
 1.004731895312500E+10  -3.285840737905152E-1   -3.222296561344000E-1    2.613256130010643E-4   -6.384795191929831E-4    3.172168814308291E-4   -5.973876756242228E-4   -4.565403778586811E-1   -1.444985496569822E-1
 1.004732622000000E+10  -3.288109109119537E-1   -3.219328355557164E-1    2.603013436154188E-4   -6.402747352652694E-4    3.088312938967370E-4   -6.297216929164540E-4   -4.566447839008241E-1   -1.440521792134266E-1
 1.004733348687500E+10  -3.292202476481501E-1   -3.215154725328195E-1    2.963795216131915E-4   -6.293842802921108E-4    3.004139427835910E-4   -5.928090328567226E-4   -4.566025502573204E-1   -1.437095243583880E-1
 1.004734075375000E+10  -3.295008470455060E-1   -3.211406041655883E-1    2.497720229687028E-4   -6.358017095127030E-4    3.054780666579163E-4   -5.830178557937323E-4   -4.570011674969022E-1   -1.433029303506908E-1
 1.004734802062500E+10  -3.296662587654589E-1   -3.208692663626334E-1    2.503612973513021E-4   -6.190532223573170E-4    3.212921320974792E-4   -6.041302356268387E-4   -4.571002984090216E-1   -1.426386837729403E-1
 1.004735528750000E+10  -3.301298012339504E-1   -3.204454306986858E-1    2.835254861495057E-4   -6.007538843422965E-4    3.112726581476681E-4   -6.120483743564851E-4   -4.571364931520527E-1   -1.420761283237897E-1
 1.004736255437500E+10  -3.304090979198784E-1   -3.201316236167312E-1    2.605989037347830E-4   -6.209520123648090E-4    3.037354769397779E-4   -6.226879712974245E-4   -4.572457163212932E-1   -1.416434783255612E-1
 1.004736982125000E+10  -3.307438342674143E-1   -3.197769829031922E-1    2.564398416033769E-4   -5.923953961792940E-4    2.927064520546973E-4   -6.193724347751925E-4   -4.574481452195037E-1   -1.411822083242734E-1
 1.004737708812500E+10  -3.311071456766014E-1   -3.194304454319513E-1    2.773806464092961E-4   -5.991977419394953E-4    3.277123421316686E-4   -6.042860192464932E-4   -4.576658239389323E-1   -1.406084484820987E-1
 1.004738435500000E+10  -3.314851521429506E-1   -3.190289878010166E-1    2.760595013946642E-4   -6.011106086210053E-4    3.037305963705486E-4   -6.056901164793193E-4   -4.578269771528411E-1   -1.402382173663684E-1
 1.004739162187500E+10  -3.318953764526934E-1   -3.186243738184987E-1    2.630784600068449E-4   -6.054967065260850E-4    3.138836860040310E-4   -5.802749251890702E-4   -4.578448633579298E-1   -1.395361178417090E-1
 1.004739888875000E+10  -3.321025177110269E-1   -3.182390992983400E-1    2.356755688518056E-4   -5.947605441302832E-4    2.901962352051458E-4   -6.031142658564272E-4   -4.579628234511740E-1   -1.390834964279115E-1
 1.004740615562500E+10  -3.324719828718362E-1   -3.180023209716920E-1    2.532728974629312E-4   -5.903100848861688E-4    2.874789159315843E-4   -5.622799074099856E-4   -4.581447069339291E-1   -1.385676216293349E-1
 1.004741342250000E+10  -3.327240725671845E-1   -3.176756663887981E-1    2.574701577268341E-4   -5.846985620680091E-4    3.022484176660889E-4   -5.760683875599072E-4   -4.582174884264680E-1   -1.380707115202070E-1
 1.004742068937500E+10  -3.331030962572994E-1   -3.172070070706947E-1    2.590580261899450E-4   -5.760737776099505E-4    2.799497652771457E-4   -5.676376290814800E-4   -4.584290836740764E-1   -1.375638875644686E-1
 1.004742795625000E+10  -3.333927776072889E-1   -3.169291944774202E-1    2.542220292800752E-4   -5.559210569301322E-4    2.917457797134452E-4   -5.654371723779379E-4   -4.584699803622607E-1   -1.372361242209426E-1
 1.004743522312500E+10  -3.337653629894302E-1   -3.165255985992338E-1    2.404250207909808E-4   -5.701678966527620E-4    3.109434714646618E-4   -5.560346399109980E-4   -4.586470940332150E-1   -1.365362154609804E-1
 1.004744249000000E+10  -3.339795425488552E-1   -3.161528267456148E-1    2.668222033482692E-4   -5.507025958638048E-4    2.898288556670809E-4   -5.615937026201153E-4   -4.587233256001533E-1   -1.361627919484003E-1
 1.004744975687500E+10  -3.343601640543663E-1   -3.157096383886238E-1    2.329770563661635E-4   -5.864441794413260E-4    2.855791818009591E-4   -5.255014934120841E-4   -4.588989811496952E-1   -1.357121855433151E-1
 1.004745702375000E+10  -3.346385120629836E-1   -3.154329875042010E-1    2.257461839509399E-4   -5.718449115169610E-4    3.263229331749960E-4   -5.402497792695049E-4   -4.589458380480050E-1   -1.352516071612219E-1
 1.004746429062500E+10  -3.349263448323235E-1   -3.149190219857439E-1    2.538119054573229E-4   -5.473590869778730E-4    3.046229569313174E-4   -5.175208440078271E-4   -4.591508654144023E-1   -1.345664330398494E-1
 1.004747155750000E+10  -3.352949803464674E-1   -3.146811059037503E-1    2.510757377141505E-4   -5.618688513648653E-4    2.708948153253941E-4   -5.365613054243669E-4   -4.593319852718358E-1   -1.342121574669625E-1
 1.004747882437500E+10  -3.357782095469891E-1   -3.143535420584090E-1    2.340241320027485E-4   -5.657083812222937E-4    3.081301395793035E-4   -5.280930123645932E-4   -4.594379785829784E-1   -1.335402171814709E-1
 1.004748609125000E+10  -3.359578267820645E-1   -3.140182032088438E-1    2.474871071548073E-4   -5.507640420324798E-4    2.955881143340767E-4   -5.239721193348501E-4   -4.595657263875971E-1   -1.331078456556723E-1
 1.004749335812500E+10  -3.363315754977341E-1   -3.135952418954037E-1    2.244214511060158E-4   -5.268114197498594E-4    2.802943702509602E-4   -5.286811525174212E-4   -4.596443776613529E-1   -1.326347793871650E-1
 1.004750062500000E+10  -3.365618123128864E-1   -3.131711736639819E-1    2.214809585039091E-4   -5.266442880131725E-4    2.832240545260761E-4   -5.061003132864306E-4   -4.598070762364715E-1   -1.322237948011169E-1
 1.004750789187500E+10  -3.368828580360562E-1   -3.128760134302307E-1    2.538521354694972E-4   -5.246198543397438E-4    2.844635854425661E-4   -5.148226280798703E-4   -4.600257331023925E-1   -1.317027952595274E-1
 1.004751515875000E+10  -3.371568532610918E-1   -3.124026235184243E-1    2.576299822355934E-4   -5.175599444482357E-4    2.543802428343072E-4   -5.094456036186309E-4   -4.600588988769569E-1   -1.310553704547775E-1
 1.004752242562500E+10  -3.376215996909408E-1   -3.122537377738595E-1    2.254980662374255E-4   -5.188481013322099E-4    2.741265214866142E-4   -5.105960279156177E-4   -4.602156245929503E-1   -1.305976507023521E-1
 1.004752969250000E+10  -3.377664110100714E-1   -3.118215917124885E-1    2.530975698039134E-4   -5.147055825332678E-4    2.410558294232360E-4   -5.004544029979420E-4   -4.602681290234401E-1   -1.300431365681286E-1
 1.004753695937500E+10  -3.381196147654654E-1   -3.113712555869999E-1    2.516198292036037E-4   -5.166453941741198E-4    2.780998247633777E-4   -4.903795080602705E-4   -4.603637011453214E-1   -1.294601297563825E-1
 1.004754422625000E+10  -3.384343805961224E-1   -3.110597834942330E-1    2.187433535544496E-4   -4.825172645843702E-4    2.625553157649572E-4   -5.085574433316058E-4   -4.606199857992110E-1   -1.291135996470979E-1
 1.004755149312500E+10  -3.388176553617228E-1   -3.106729393276069E-1    2.360990045838760E-4   -4.850742020028457E-4    2.674196458764360E-4   -4.908954326194238E-4   -4.605640445990029E-1   -1.285283588915436E-1
 1.004755876000000E+10  -3.389805538875144E-1   -3.103163038338530E-1    2.525067297259250E-4   -5.069611704579826E-4    2.789733390052380E-4   -4.809396649942106E-4   -4.608378428805091E-1   -1.281540425090245E-1
 1.004756602687500E+10  -3.394061900137526E-1   -3.099995225327964E-1    2.288465685806068E-4   -4.919786623328973E-4    2.473668755939255E-4   -4.892038110020575E-4   -4.608815389591006E-1   -1.275932291191316E-1
 1.004757329375000E+10  -3.396597760515327E-1   -3.096721557416322E-1    1.942680740107890E-4   -5.216653206945302E-4    2.942370137345928E-4   -4.494569893288573E-4   -4.609179912242616E-1   -1.271034628916171E-1
 1.004758056062500E+10  -3.400765934347844E-1   -3.090855938358094E-1    2.251760209401015E-4   -4.831068049468579E-4    2.484026181850673E-4   -4.492144423520430E-4   -4.610861175226595E-1   -1.265035580167015E-1
 1.004758782750000E+10  -3.404268910807182E-1   -3.089974298567490E-1    2.568086517343309E-4   -4.874405562231810E-4    2.545848508681621E-4   -4.548482398115004E-4   -4.611546154649357E-1   -1.260628352514654E-1
 1.004759509437500E+10  -3.405868503630278E-1   -3.085929354286905E-1    2.466622600827336E-4   -4.681893791245535E-4    2.383265399028349E-4   -4.773670904569100E-4   -4.613067478243168E-1   -1.255808596979560E-1
 1.004760236125000E+10  -3.410598458401495E-1   -3.080753496265988E-1    1.983285638898409E-4   -4.386305576473710E-4    2.601136179296757E-4   -4.489579056406666E-4   -4.614271697000504E-1   -1.248413381918351E-1
 1.004760962812500E+10  -3.413056156480817E-1   -3.078892832917141E-1    2.146483491818426E-4   -4.819237423894245E-4    2.773138739567931E-4   -4.546882564187428E-4   -4.616328216276397E-1   -1.244754583495577E-1
 1.004761689500000E+10  -3.416343937355877E-1   -3.073416188346508E-1    2.215778834945282E-4   -4.453606566382330E-4    2.624893815562168E-4   -4.430442970387152E-4   -4.616848951295535E-1   -1.238733826513154E-1
 1.004762416187500E+10  -3.420311489014127E-1   -3.068574654815379E-1    2.278033951527485E-4   -4.318083236945409E-4    2.542380529939937E-4   -4.454144225060858E-4   -4.618307347132745E-1   -1.233689307387501E-1
 1.004763142875000E+10  -3.422116714096003E-1   -3.066651614220433E-1    2.239672384105259E-4   -4.875867414403921E-4    2.326901270117989E-4   -4.363282530565238E-4   -4.618901398652486E-1   -1.229647503022991E-1
 1.004763869562500E+10  -3.425572687865260E-1   -3.062706733519616E-1    2.127516085542603E-4   -4.079737626143232E-4    2.370621956838780E-4   -4.312030832107206E-4   -4.620085317025673E-1   -1.225472814607768E-1
 1.004764596250000E+10  -3.429225656837689E-1   -3.058730582756786E-1    2.258290757567348E-4   -4.270989491083785E-4    2.481152482059919E-4   -4.163854494470750E-4   -4.621966057578734E-1   -1.217629031677668E-1
 1.004765322937500E+10  -3.431649514131470E-1   -3.055992130876704E-1    2.168214582553200E-4   -4.499021553624210E-4    2.442668075294509E-4   -4.123090399338047E-4   -4.621692989941787E-1   -1.214761849154850E-1
 1.004766049625000E+10  -3.434508879335935E-1   -3.051570831442130E-1    2.219201781383409E-4   -4.101888930443243E-4    2.533104153313415E-4   -3.919471663173469E-4   -4.623981097008593E-1   -1.207005105733614E-1
 1.004766776312500E+10  -3.437826675297711E-1   -3.049345336873703E-1    2.154125516830972E-4   -3.924976991825964E-4    2.369336523487489E-4   -3.834560521606903E-4   -4.624284630510497E-1   -1.203993507904605E-1
 1.004767503000000E+10  -3.441298175893499E-1   -3.044857798781272E-1    2.280998554072353E-4   -3.901922921111889E-4    2.431302899115209E-4   -4.070331669692133E-4   -4.625096533785004E-1   -1.197965346526407E-1
 1.004768229687500E+10  -3.443525382608617E-1   -3.040817411935218E-1    2.344579194296651E-4   -3.683536302647320E-4    2.258469962968054E-4   -4.018285557859689E-4   -4.627407601587095E-1   -1.191803410145045E-1
 1.004768956375000E+10  -3.447146162864698E-1   -3.037807891831926E-1    2.045181905830921E-4   -4.201308615219839E-4    2.133455384270697E-4   -4.057382557921927E-4   -4.627441894620998E-1   -1.187360315270432E-1
 1.004769683062500E+10  -3.448960520421136E-1   -3.032876959380683E-1    2.012856481351848E-4   -3.742550446400077E-4    2.330128438176617E-4   -3.801677820287349E-4   -4.629527492615367E-1   -1.181803403750662E-1
 1.004770409750000E+10  -3.453887005384524E-1   -3.031171991065610E-1    1.883486177319464E-4   -3.937857897783750E-4    2.356721137534701E-4   -3.662622886367173E-4   -4.630104175349526E-1   -1.175008301166452E-1
 1.004771136437500E+10  -3.456468432343653E-1   -3.025743648101724E-1    1.992327144419995E-4   -3.836771997988385E-4    2.252188779466304E-4   -3.628308750964186E-4   -4.631255991565398E-1   -1.170262096504182E-1
 1.004771863125000E+10  -3.459644542777920E-1   -3.022551031038809E-1    2.211750926117290E-4   -3.482884148305725E-4    2.482178251497307E-4   -3.572645467525709E-4   -4.631196450230989E-1   -1.164704101008385E-1
 1.004772589812500E+10  -3.462379566335722E-1   -3.018792647433382E-1    1.868973929539054E-4   -3.529630505988293E-4    2.521636322823929E-4   -3.762237012454151E-4   -4.632911479232524E-1   -1.159792400681612E-1
 1.004773316500000E+10  -3.465692316928856E-1   -3.013836205678058E-1    2.053604048822878E-4   -3.452105953343556E-4    2.398861443643983E-4   -3.479257452515281E-4   -4.632666425747216E-1   -1.155812183510990E-1
 1.004774043187500E+10  -3.468840340681290E-1   -3.010030307256844E-1    2.184456856523048E-4   -3.418670562989061E-4    2.561832372427977E-4   -3.489330783792299E-4   -4.634297644250563E-1   -1.149735885290783E-1
 1.004774769875000E+10  -3.471565247682759E-1   -3.007481282607450E-1    2.014536274866009E-4   -3.156411635752085E-4    2.219073991079121E-4   -3.416060200185589E-4   -4.636361333745311E-1   -1.144442658226427E-1
 1.004775496562500E+10  -3.474175117616599E-1   -3.003659065873844E-1    2.163181479592597E-4   -3.002523669068495E-4    2.319728904875256E-4   -3.022419130434492E-4   -4.636544677687987E-1   -1.138833140468863E-1
 1.004776223250000E+10  -3.476896239461493E-1   -2.999995382060479E-1    2.046209516829585E-4   -3.336866784445919E-4    2.035164546851995E-4   -2.934763629735148E-4   -4.638413024808886E-1   -1.134012992444152E-1
 1.004776949937500E+10  -3.480988980692772E-1   -2.996411583466283E-1    2.072489785394751E-4   -3.197588005351065E-4    2.204508600116413E-4   -2.833226035068907E-4   -4.638112272325676E-1   -1.127771460830173E-1
 1.004777676625000E+10  -3.485153714665532E-1   -2.992013695752028E-1    2.050855990265592E-4   -3.212370679244635E-4    2.466468959985440E-4   -2.791249012093566E-4   -4.640358264697808E-1   -1.122336445615890E-1
 1.004778403312500E+10  -3.487666367292061E-1   -2.989199064106882E-1    2.054446861581965E-4   -2.861341041984724E-4    2.148903312277544E-4   -2.949579724735686E-4   -4.641263289825311E-1   -1.116845551825520E-1
 1.004779130000000E+10  -3.489339704482307E-1   -2.985659458371241E-1    1.886455167907850E-4   -2.661855036858926E-4    2.226418246665023E-4   -2.979343000982163E-4   -4.641067438432206E-1   -1.110606639294084E-1
 1.004779856687500E+10  -3.493098234949447E-1   -2.980792303691010E-1    1.829202534998941E-4   -2.794081822698457E-4    2.197838945901340E-4   -2.769560134387270E-4   -4.642078605001838E-1   -1.105141094210697E-1
 1.004780583375000E+10  -3.494478809284202E-1   -2.977258930609932E-1    1.985134632753151E-4   -2.771340951952517E-4    2.274074327425464E-4   -2.799434436546631E-4   -4.643569210064535E-1   -1.101855437211933E-1
 1.004781310062500E+10  -3.498601673456381E-1   -2.972434306721687E-1    2.166356619421788E-4   -2.732825029194861E-4    1.997357269078492E-4   -2.306834155025668E-4   -4.643394023785127E-1   -1.095471393329744E-1
 1.004782036750000E+10  -3.501244739434462E-1   -2.968203114224793E-1    1.840179374605184E-4   -2.724077473931151E-4    2.305061436489642E-4   -2.534789365290213E-4   -4.644745275322282E-1   -1.090388109336560E-1
 1.004782763437500E+10  -3.505879817291168E-1   -2.966696378171684E-1    2.019522780390982E-4   -2.411708352700800E-4    2.235820724066890E-4   -2.284533343485092E-4   -4.646641579883599E-1   -1.084091976071994E-1
 1.004783490125000E+10  -3.507489574414634E-1   -2.961063379465620E-1    1.991252019821087E-4   -2.391453567832048E-4    2.075122276147252E-4   -2.360748547757244E-4   -4.647197545149541E-1   -1.077425426435528E-1
 1.004784216812500E+10  -3.509986258988945E-1   -2.958239485279691E-1    1.935225415196314E-4   -2.419102783677604E-4    2.258322253388403E-4   -2.140724279766426E-4   -4.647560675676668E-1   -1.072331238204661E-1
 1.004784943500000E+10  -3.513808950590229E-1   -2.954213522703793E-1    2.084539773887893E-4   -2.270404269922816E-4    2.174865824275218E-4   -2.493235491979473E-4   -4.649173610957488E-1   -1.066238318664797E-1
 1.004785670187500E+10  -3.516521065749913E-1   -2.949966187866480E-1    1.930844451763680E-4   -2.150307244299064E-4    2.207919346791406E-4   -1.988354904563105E-4   -4.647866388171437E-1   -1.060031064945156E-1
 1.004786396875000E+10  -3.519656959665323E-1   -2.946705640598785E-1    1.915547083701115E-4   -2.079888962258860E-4    2.141532043258902E-4   -1.914251789419471E-4   -4.649569934358264E-1   -1.056035693809733E-1
 1.004787123562500E+10  -3.522395254978848E-1   -2.942407861023859E-1    2.161948154235262E-4   -1.621353321039181E-4    2.132154147667798E-4   -1.835763248563912E-4   -4.651483834379905E-1   -1.050535331561843E-1
 1.004787850250000E+10  -3.526089479358956E-1   -2.939799952152324E-1    1.917113183280494E-4   -1.884105436100587E-4    1.921977125504632E-4   -1.364165011316569E-4   -4.651771963167462E-1   -1.044847867871771E-1
 1.004788576937500E+10  -3.528170142268424E-1   -2.935581673303251E-1    2.065552962176577E-4   -1.605703515711861E-4    2.149132825260568E-4   -1.618475249788610E-4   -4.652895213327670E-1   -1.039501636921989E-1
 1.004789303625000E+10  -3.531750908339383E-1   -2.930757617965981E-1    1.768397000988297E-4   -1.517269033040955E-4    2.325161080169810E-4   -1.321882261778743E-4   -4.653016952620470E-1   -1.031968457985794E-1
 1.004790030312500E+10  -3.535254064341743E-1   -2.927160564277203E-1    1.999714862335186E-4   -1.505824965173425E-4    2.244997957114964E-4   -1.351254788314213E-4   -4.654684797541414E-1   -1.028043966556055E-1
 1.004790757000000E+10  -3.536885424639270E-1   -2.924433050945627E-1    2.138457112673281E-4   -1.254120491295978E-4    2.094703390078367E-4   -1.637849124837659E-4   -4.654668233677859E-1   -1.020788338024824E-1
 1.004791483687500E+10  -3.541018521925645E-1   -2.919026323066312E-1    1.942106758669257E-4   -1.308245120751881E-4    1.517796062316666E-4   -9.173109048731682E-5   -4.656863688877214E-1   -1.016542162122621E-1
 1.004792210375000E+10  -3.544150748734049E-1   -2.915553839827641E-1    1.661722605431017E-4   -1.184168178540071E-4    1.997923463677363E-4   -8.441166418793745E-5   -4.656959721124732E-1   -1.010687408417509E-1
