#  HZ   S   RI   R     50.00 
! Rohde & Schwarz Vector Network Analyzer 
! Rohde-Schwarz,ZNB20-2Port,1311601062101988,3.16
! Created: UTC 3/21/2024, 12:58:13 AM
! freq[Hz]                re:S11                  im:S11                  re:S21                  im:S21                  re:S12                  im:S12                  re:S22                  im:S22
 1.004714958300000E+10  -3.202911634192165E-1   -3.307278354710578E-1    3.114720015311525E-4   -6.756929677436833E-4    3.517448588853460E-4   -6.789774586083674E-4   -4.527242328936646E-1   -1.570210644623118E-1
 1.004715755370000E+10  -3.205712324166462E-1   -3.304503082432533E-1    2.971661942309045E-4   -6.968636730967533E-4    3.564731009444221E-4   -6.972110730075817E-4   -4.528234175050870E-1   -1.565759092030460E-1
 1.004716552440000E+10  -3.210311376110166E-1   -3.298907257859852E-1    2.909514833351237E-4   -7.096928510793865E-4    3.636452339114507E-4   -6.247049723520547E-4   -4.531243597808140E-1   -1.559632763869147E-1
 1.004717349510000E+10  -3.214643415956219E-1   -3.296013690098629E-1    3.146739393491461E-4   -6.747143069650666E-4    3.594774415214464E-4   -6.837528452006081E-4   -4.533796079811137E-1   -1.555375543123220E-1
 1.004718146580000E+10  -3.216559749528521E-1   -3.293266650191717E-1    2.963403406360274E-4   -6.970228987313522E-4    3.531265438473612E-4   -6.768633234283133E-4   -4.533951154182460E-1   -1.549722095601780E-1
 1.004718943650000E+10  -3.221406111233419E-1   -3.289161229662825E-1    3.008773418733824E-4   -6.527591701714353E-4    3.621416984958339E-4   -6.697795330512390E-4   -4.535708231368749E-1   -1.544114495063629E-1
 1.004719740720000E+10  -3.224725643558651E-1   -3.283710563200432E-1    2.809599776842946E-4   -6.788357769643525E-4    3.512837454989352E-4   -6.614656331239842E-4   -4.536747643422567E-1   -1.539349436248951E-1
 1.004720537790000E+10  -3.228495827186745E-1   -3.281631437167514E-1    3.071161347919673E-4   -6.838807076435152E-4    3.377641983066877E-4   -6.704368742911575E-4   -4.537975188462741E-1   -1.533276936593586E-1
 1.004721334860000E+10  -3.231349744636463E-1   -3.277418787427492E-1    3.165310311871108E-4   -6.821797184660021E-4    3.589897133340363E-4   -6.268462307422609E-4   -4.541642039033468E-1   -1.528144066615633E-1
 1.004722131930000E+10  -3.235224706784020E-1   -3.271944596228988E-1    2.967911302578378E-4   -6.863605607731340E-4    3.606909551469367E-4   -6.599192674705259E-4   -4.541573270188017E-1   -1.521809351079222E-1
 1.004722929000000E+10  -3.239054936772118E-1   -3.268763793319313E-1    2.787932179467576E-4   -6.806775137547317E-4    3.292545633840003E-4   -6.588896669399876E-4   -4.543215354820985E-1   -1.518796244498272E-1
 1.004723726070000E+10  -3.243067371651537E-1   -3.263857210965723E-1    2.729635725462897E-4   -6.561006079617721E-4    3.333428109460783E-4   -6.465007338589624E-4   -4.545838186358452E-1   -1.512008615809660E-1
 1.004724523140000E+10  -3.248086802825479E-1   -3.261324998574407E-1    2.906928321985004E-4   -6.439494105950439E-4    3.265504792557886E-4   -6.797505268238719E-4   -4.546532722255026E-1   -1.508017318602656E-1
 1.004725320210000E+10  -3.250159133061422E-1   -3.258000070375253E-1    2.865233659826017E-4   -6.879355931851143E-4    3.353617073466716E-4   -6.557115192391764E-4   -4.549397113422659E-1   -1.501482686069419E-1
 1.004726117280000E+10  -3.254012435930418E-1   -3.253275833092037E-1    3.036905030949234E-4   -6.730760067729491E-4    3.313391622208526E-4   -6.394116929254312E-4   -4.550694084863536E-1   -1.494792752349837E-1
 1.004726914350000E+10  -3.257358725782299E-1   -3.250756811912680E-1    2.657337329879689E-4   -6.371101023652099E-4    3.599739967562699E-4   -6.560530960737211E-4   -4.552032341734449E-1   -1.490498297320673E-1
 1.004727711420000E+10  -3.262067735352844E-1   -3.245466208170532E-1    2.869685907107106E-4   -6.335710762080241E-4    3.228910226544835E-4   -6.232742922769669E-4   -4.552420969322224E-1   -1.484887592064200E-1
 1.004728508490000E+10  -3.264650071472374E-1   -3.242286338763591E-1    2.968187650773083E-4   -6.264010610210028E-4    3.519212934461142E-4   -6.271417137965069E-4   -4.555201673312993E-1   -1.479834118227039E-1
 1.004729305560000E+10  -3.267900522618484E-1   -3.239263034941381E-1    2.648520720892248E-4   -6.393712235146686E-4    3.084747996711351E-4   -6.329817421566310E-4   -4.557661156656147E-1   -1.474963253109763E-1
 1.004730102630000E+10  -3.272840882338399E-1   -3.234175381870372E-1    2.926848698061677E-4   -6.107483094283621E-4    3.648098678845363E-4   -6.335968088976447E-4   -4.559426868546795E-1   -1.470046202647586E-1
 1.004730899700000E+10  -3.275882466331690E-1   -3.230878734397140E-1    2.855271057717625E-4   -6.257222895097435E-4    3.475575421831474E-4   -6.182278831566615E-4   -4.561187278693969E-1   -1.464804542728212E-1
 1.004731696770000E+10  -3.279251718051142E-1   -3.226077300967628E-1    2.878114551387815E-4   -6.302187302252660E-4    3.300226909515481E-4   -5.919653127303245E-4   -4.560882882083154E-1   -1.458045041022840E-1
 1.004732493840000E+10  -3.283640228884066E-1   -3.221067006699938E-1    2.893221855860283E-4   -6.417445156165092E-4    2.948994370249970E-4   -6.044364860943859E-4   -4.562600203957771E-1   -1.453596038989919E-1
 1.004733290910000E+10  -3.286414783337255E-1   -3.218494692635259E-1    2.723836199157569E-4   -6.246784321545504E-4    3.421734569055908E-4   -6.035076856980654E-4   -4.562922368551434E-1   -1.448127560745082E-1
 1.004734087980000E+10  -3.290865770568806E-1   -3.215533764016613E-1    2.952829585571127E-4   -6.207294606793100E-4    3.058884698409660E-4   -6.064928305939913E-4   -4.565606250690286E-1   -1.443655701182321E-1
 1.004734885050000E+10  -3.294391972056955E-1   -3.212313234618792E-1    2.453830200844636E-4   -6.126598133053320E-4    3.081147102113933E-4   -6.404407498126002E-4   -4.566610923056734E-1   -1.438060134455215E-1
 1.004735682120000E+10  -3.297256013336926E-1   -3.207412436729168E-1    2.756166500762885E-4   -5.992920067877954E-4    3.358283793660695E-4   -6.141830169703501E-4   -4.568359756112658E-1   -1.432174354161476E-1
 1.004736479190000E+10  -3.300802670170314E-1   -3.203588785518082E-1    2.907065464495780E-4   -6.184303575169560E-4    3.127878713139396E-4   -6.107237102412894E-4   -4.569984758820005E-1   -1.427104993678148E-1
 1.004737276260000E+10  -3.304548053926806E-1   -3.198298483341435E-1    2.918989166172264E-4   -5.953517980895911E-4    3.062145487204537E-4   -6.083766273285197E-4   -4.572589050520151E-1   -1.421075508495317E-1
 1.004738073330000E+10  -3.307720815562896E-1   -3.195857203796029E-1    2.669832233182150E-4   -5.721160022179309E-4    3.444885253133368E-4   -6.039110593134677E-4   -4.574014648206359E-1   -1.413779324147429E-1
 1.004738870400000E+10  -3.312458591307431E-1   -3.191634603983874E-1    2.702603195625569E-4   -6.136012961297371E-4    3.267523828501457E-4   -5.515307656241724E-4   -4.574711844897122E-1   -1.409716442308659E-1
 1.004739667470000E+10  -3.315434063401738E-1   -3.187312956867960E-1    2.709917768013973E-4   -5.525120800779230E-4    3.178264015430288E-4   -5.660629850074498E-4   -4.577213806349595E-1   -1.404255381250102E-1
 1.004740464540000E+10  -3.318151473453016E-1   -3.183569372923037E-1    2.892092442304699E-4   -5.944298056131192E-4    3.019137621879558E-4   -5.782424846890220E-4   -4.578696501221372E-1   -1.398955856786604E-1
 1.004741261610000E+10  -3.323362943599555E-1   -3.180084312075365E-1    2.631556729313210E-4   -5.915078212671916E-4    3.159750483485624E-4   -5.851915531415229E-4   -4.579483040780994E-1   -1.392731748683225E-1
 1.004742058680000E+10  -3.326180034270442E-1   -3.176285394118986E-1    2.715962597354513E-4   -5.929043741188729E-4    3.078189842288010E-4   -5.765485207359286E-4   -4.580723012262520E-1   -1.387699324067255E-1
 1.004742855750000E+10  -3.329171961824051E-1   -3.173731529318714E-1    2.416529756450266E-4   -5.642023299818281E-4    2.906481187211494E-4   -5.672452171971423E-4   -4.581915451990941E-1   -1.381907940474583E-1
 1.004743652820000E+10  -3.333085919369707E-1   -3.168193934443818E-1    2.764556853712021E-4   -5.783452937887650E-4    2.826092314367565E-4   -5.673735425726828E-4   -4.583705419298081E-1   -1.378305723966393E-1
 1.004744449890000E+10  -3.335797046069172E-1   -3.164621500335227E-1    2.503365455077720E-4   -5.867276215266338E-4    2.963154489854797E-4   -5.706747186756884E-4   -4.584139072386147E-1   -1.371361969742030E-1
 1.004745246960000E+10  -3.340644836904023E-1   -3.160651515571328E-1    2.475927846290369E-4   -5.841035162178018E-4    3.118640023574886E-4   -5.604336116128616E-4   -4.585641990757902E-1   -1.366146446605756E-1
 1.004746044030000E+10  -3.343336576874051E-1   -3.155926907321346E-1    2.620957554690017E-4   -5.672733179498936E-4    2.778724587849880E-4   -5.568006272291483E-4   -4.587056100279924E-1   -1.360598496484111E-1
 1.004746841100000E+10  -3.347021918343877E-1   -3.152541233167339E-1    2.251161169603374E-4   -5.196844358954158E-4    2.817548500160382E-4   -5.663627657656675E-4   -4.589549180880311E-1   -1.355533446526191E-1
 1.004747638170000E+10  -3.350386888704194E-1   -3.147600582310729E-1    2.592791623182327E-4   -5.338991178261067E-4    3.082136970601337E-4   -5.616117203935586E-4   -4.589795391537964E-1   -1.349467272951311E-1
 1.004748435240000E+10  -3.354259966151376E-1   -3.144824695928008E-1    2.595562714001257E-4   -5.570660590726892E-4    2.743835197957118E-4   -5.300133813915006E-4   -4.592319018536317E-1   -1.345565950313835E-1
 1.004749232310000E+10  -3.356670800938408E-1   -3.140895047366041E-1    2.727113580325573E-4   -5.437091321039424E-4    3.005272258724090E-4   -5.168531912645995E-4   -4.592973806813116E-1   -1.339176604046897E-1
 1.004750029380000E+10  -3.360732852390871E-1   -3.135398324199483E-1    2.337972989131638E-4   -5.256223328923731E-4    2.900049418438377E-4   -5.228683468320462E-4   -4.594598672504802E-1   -1.333636228352020E-1
 1.004750826450000E+10  -3.363528825359830E-1   -3.132713686446991E-1    2.428338961281925E-4   -5.401621323236093E-4    2.786277301611696E-4   -5.254526536391256E-4   -4.595513083671590E-1   -1.327713038478215E-1
 1.004751623520000E+10  -3.367796031436661E-1   -3.128559074140155E-1    2.573702378217916E-4   -4.998714067057375E-4    2.776103446384823E-4   -4.981668780313745E-4   -4.596683442705948E-1   -1.322112300594825E-1
 1.004752420590000E+10  -3.370411814651683E-1   -3.124100883987860E-1    2.573814043967104E-4   -5.117948482173962E-4    2.825328007917611E-4   -5.202613765305715E-4   -4.597642857126062E-1   -1.316924642175746E-1
 1.004753217660000E+10  -3.374115030651610E-1   -3.119637582079238E-1    2.416171428642680E-4   -5.410177266581222E-4    2.827898347299813E-4   -5.209888854045507E-4   -4.599482219068968E-1   -1.310371582849783E-1
 1.004754014730000E+10  -3.378000761240205E-1   -3.115323314186907E-1    2.665374825765848E-4   -4.982988711182862E-4    2.551009861855286E-4   -4.904829596322898E-4   -4.600353372477901E-1   -1.305380767454460E-1
 1.004754811800000E+10  -3.382386090370481E-1   -3.112498798161580E-1    2.483172570736701E-4   -5.238170618224986E-4    2.712708486410326E-4   -4.589106599831468E-4   -4.602157242837731E-1   -1.299975812145596E-1
 1.004755608870000E+10  -3.385493266575285E-1   -3.108736378935641E-1    2.408670330665896E-4   -4.998229567500794E-4    2.910060028204085E-4   -4.896726793373324E-4   -4.603766493838243E-1   -1.293351656382471E-1
 1.004756405940000E+10  -3.388622191507649E-1   -3.104815293850190E-1    2.311481110811961E-4   -4.983802353541256E-4    2.865735147721571E-4   -4.933066477216571E-4   -4.605249195866465E-1   -1.288355771868229E-1
 1.004757203010000E+10  -3.392023076285213E-1   -3.100594546750221E-1    2.442105126467287E-4   -4.897642689472988E-4    2.882845774430834E-4   -5.027918833048138E-4   -4.605098861548057E-1   -1.283449243790028E-1
 1.004758000080000E+10  -3.395589133593805E-1   -3.096222998564053E-1    2.248082215446430E-4   -4.991143957919184E-4    2.870689034099047E-4   -4.934998364454614E-4   -4.608273164683103E-1   -1.277412037123432E-1
 1.004758797150000E+10  -3.399987261767616E-1   -3.092809942640492E-1    2.104496608564077E-4   -4.649017081195413E-4    2.779126051586400E-4   -4.503899945458148E-4   -4.608096090009574E-1   -1.272771707832851E-1
 1.004759594220000E+10  -3.402174276395114E-1   -3.088480176961766E-1    2.473304119950164E-4   -4.633508699271939E-4    2.553551589816733E-4   -4.739087939425463E-4   -4.610030326136434E-1   -1.266252734311812E-1
 1.004760391290000E+10  -3.406313579690221E-1   -3.083516347150443E-1    2.504203750610876E-4   -4.647263733990998E-4    2.597113863033200E-4   -4.682151706591654E-4   -4.610999125717357E-1   -1.260661299121327E-1
 1.004761188360000E+10  -3.409653306703010E-1   -3.080605769530824E-1    2.397003050559351E-4   -4.693896870736811E-4    2.703283276472753E-4   -4.339798803998195E-4   -4.612605770147530E-1   -1.253587904891471E-1
 1.004761985430000E+10  -3.412243716283104E-1   -3.075673481394927E-1    2.443162292326822E-4   -4.663266460764435E-4    2.790470418990957E-4   -4.531675252749342E-4   -4.613201294488535E-1   -1.248970675970709E-1
 1.004762782500000E+10  -3.416345593651082E-1   -3.072015998436816E-1    2.434820283305669E-4   -4.346129243136012E-4    2.733580255304995E-4   -4.153380869018272E-4   -4.615276186512753E-1   -1.243888111827268E-1
 1.004763579570000E+10  -3.419386467630502E-1   -3.067833853829966E-1    2.278522115690436E-4   -4.433320891359405E-4    2.747098474336927E-4   -4.288625905306272E-4   -4.617363097369849E-1   -1.238172445469478E-1
 1.004764376640000E+10  -3.423735909919771E-1   -3.064585231558458E-1    2.186985618538066E-4   -4.411363043626831E-4    2.882359693845953E-4   -4.020614841219373E-4   -4.617954014329966E-1   -1.232442865668415E-1
 1.004765173710000E+10  -3.426201278595903E-1   -3.060892741627951E-1    2.360591393187117E-4   -4.535925617059217E-4    2.402565539225524E-4   -4.406422745100747E-4   -4.620008307365080E-1   -1.226586868968895E-1
 1.004765970780000E+10  -3.429612407237110E-1   -3.057093444296433E-1    2.223186381924839E-4   -4.479175683171552E-4    2.766261422209052E-4   -4.321802472839440E-4   -4.620838778290638E-1   -1.220975822706106E-1
 1.004766767850000E+10  -3.433417728000961E-1   -3.052213449690546E-1    2.236848055524989E-4   -4.064789915942584E-4    2.490376711485230E-4   -4.124908231856844E-4   -4.621082644521926E-1   -1.215028500034436E-1
 1.004767564920000E+10  -3.436279468808953E-1   -3.048093398087939E-1    2.338134548709657E-4   -4.010814699676660E-4    2.599062365762348E-4   -3.953136389048114E-4   -4.622234651041976E-1   -1.209756494611912E-1
 1.004768361990000E+10  -3.439397595015563E-1   -3.042608040237061E-1    1.916634501363247E-4   -4.291993633247406E-4    2.620417720658378E-4   -4.059815312978472E-4   -4.623590834351451E-1   -1.204626329981853E-1
 1.004769159060000E+10  -3.442471321715306E-1   -3.040182085978809E-1    2.109243183648364E-4   -4.197184309007863E-4    2.613355626770840E-4   -3.919063815299967E-4   -4.624878036994590E-1   -1.197715796624681E-1
 1.004769956130000E+10  -3.445971685832499E-1   -3.035560809322522E-1    2.376646399180841E-4   -3.910030240530372E-4    2.191888965754365E-4   -3.648755331251773E-4   -4.625969943143478E-1   -1.190862648843048E-1
 1.004770753200000E+10  -3.449304893208783E-1   -3.032247489028941E-1    2.247908328941452E-4   -3.953609394505475E-4    2.425274493452484E-4   -4.049292762082274E-4   -4.627070819968149E-1   -1.185580600174814E-1
 1.004771550270000E+10  -3.452286260277603E-1   -3.027358843865989E-1    2.238939787694563E-4   -3.919576256025569E-4    2.477084113427501E-4   -3.753768438792586E-4   -4.628908028983101E-1   -1.179884540024330E-1
 1.004772347340000E+10  -3.456271109104475E-1   -3.023508635450389E-1    1.912957128249885E-4   -3.650175770501306E-4    2.517854111420272E-4   -3.669160713208163E-4   -4.629781613099301E-1   -1.173835235327848E-1
 1.004773144410000E+10  -3.459488993860185E-1   -3.019567389261926E-1    1.995890852753236E-4   -3.551315339729999E-4    2.784821174066408E-4   -3.675103123039193E-4   -4.630624113980372E-1   -1.168092938852976E-1
 1.004773941480000E+10  -3.462764702536482E-1   -3.015820616942711E-1    2.057239612349746E-4   -3.603375723443950E-4    2.483028313652365E-4   -3.590470133257938E-4   -4.631075896387101E-1   -1.163017153435506E-1
 1.004774738550000E+10  -3.466594731025128E-1   -3.011139459350010E-1    2.083946987592758E-4   -3.588778094881434E-4    2.536469045724589E-4   -3.546823064456561E-4   -4.633330454022800E-1   -1.157191411258671E-1
 1.004775535620000E+10  -3.471197916226028E-1   -3.007437523258757E-1    2.277399400631088E-4   -3.317096533797916E-4    2.574545458648490E-4   -3.536230801453322E-4   -4.633245060450653E-1   -1.150892315969798E-1
 1.004776332690000E+10  -3.473028315398549E-1   -3.002844279597917E-1    2.258494630630509E-4   -3.538411861856954E-4    2.345724997014864E-4   -3.116440780689673E-4   -4.635188108139296E-1   -1.146212654002200E-1
 1.004777129760000E+10  -3.476783814973385E-1   -2.998267413155494E-1    2.222193044436019E-4   -3.053655166793326E-4    2.353378212626158E-4   -3.250726758808901E-4   -4.635113263089175E-1   -1.138671236885939E-1
 1.004777926830000E+10  -3.479111224089436E-1   -2.995085387304369E-1    2.227717951572173E-4   -3.126046840398157E-4    2.428954542629567E-4   -2.998348918745180E-4   -4.636812140106093E-1   -1.132024317293855E-1
 1.004778723900000E+10  -3.484851911692345E-1   -2.991603768702323E-1    2.417426453803708E-4   -3.116675784838408E-4    2.308724406452538E-4   -3.152326713152974E-4   -4.637055995852663E-1   -1.126542622748024E-1
 1.004779520970000E+10  -3.486621343242254E-1   -2.986625780455133E-1    2.422563588543699E-4   -3.101943686856727E-4    2.363085625312783E-4   -2.930672080815046E-4   -4.638570960434401E-1   -1.121414665597079E-1
 1.004780318040000E+10  -3.488959961876925E-1   -2.982117903317907E-1    1.944115768427790E-4   -2.779240153739815E-4    2.360900180468807E-4   -2.755811744498875E-4   -4.639705301962815E-1   -1.116193936869672E-1
 1.004781115110000E+10  -3.492043100891362E-1   -2.978026400260138E-1    2.096188835131408E-4   -2.745268202088401E-4    2.243334864416203E-4   -2.563726876975122E-4   -4.640508971149975E-1   -1.109891480823166E-1
 1.004781912180000E+10  -3.495966944385129E-1   -2.973542430907972E-1    2.153550489844341E-4   -2.761424510485403E-4    2.192827347339108E-4   -2.742333626600092E-4   -4.640609720324988E-1   -1.101704662007271E-1
 1.004782709250000E+10  -3.499187881218379E-1   -2.969113932289908E-1    2.217399201819985E-4   -2.357943977413301E-4    2.282436814810550E-4   -2.398600091454278E-4   -4.641589403317472E-1   -1.096466893740120E-1
 1.004783506320000E+10  -3.502432566254202E-1   -2.966024022090910E-1    2.303970800039885E-4   -2.620435347004877E-4    2.142531994632632E-4   -2.430863691271898E-4   -4.643260751625766E-1   -1.089653259717096E-1
 1.004784303390000E+10  -3.505512118008597E-1   -2.960965124582883E-1    1.949988581776342E-4   -2.419390610859878E-4    2.105899336611199E-4   -2.141648631896595E-4   -4.644314121109468E-1   -1.083932807114132E-1
 1.004785100460000E+10  -3.510519884820975E-1   -2.955804319459583E-1    2.140875001013759E-4   -2.493586903453083E-4    2.334944241868277E-4   -2.274867329239584E-4   -4.647027610590783E-1   -1.077521435890574E-1
 1.004785897530000E+10  -3.512988995504925E-1   -2.952449870149872E-1    1.994887810957252E-4   -2.237205818988166E-4    1.996417790945561E-4   -2.209559665578636E-4   -4.646584910003069E-1   -1.072432460124626E-1
 1.004786694600000E+10  -3.516861290588210E-1   -2.948629496846094E-1    1.955795451860395E-4   -2.023907302998780E-4    2.291413973991324E-4   -2.022789017147290E-4   -4.647797171485885E-1   -1.066360169822044E-1
