#  HZ   S   RI   R     50.00 
! Rohde & Schwarz Vector Network Analyzer 
! Rohde-Schwarz,ZNB20-2Port,1311601062101988,3.16
! Created: UTC 3/21/2024, 12:58:16 AM
! freq[Hz]                re:S11                  im:S11                  re:S21                  im:S21                  re:S12                  im:S12                  re:S22                  im:S22
 1.004716416400000E+10  -3.210043266274649E-1   -3.300086666454687E-1    3.187725605691343E-4   -6.717736384111930E-4    3.675835848453068E-4   -6.636157001946375E-4   -4.529976923109550E-1   -1.561763459196655E-1
 1.004717205865000E+10  -3.213728300997243E-1   -3.296305145671225E-1    3.025133686463003E-4   -6.910168423859120E-4    3.876483854470756E-4   -7.021596335628909E-4   -4.532497399084812E-1   -1.556246310839965E-1
 1.004717995330000E+10  -3.216109327132896E-1   -3.293746676730822E-1    2.873504864926414E-4   -6.894899729232431E-4    3.382791335783881E-4   -6.872056797072612E-4   -4.533479271200584E-1   -1.550781047381085E-1
 1.004718784795000E+10  -3.219901318162472E-1   -3.289925671801093E-1    3.052460402101417E-4   -7.141991046878928E-4    3.421311447889270E-4   -6.805649639198153E-4   -4.535898907234157E-1   -1.545019388687622E-1
 1.004719574260000E+10  -3.224960162342581E-1   -3.284667521728593E-1    3.024055033509892E-4   -6.931588711280127E-4    3.626926446804181E-4   -6.573878215686713E-4   -4.537117226554209E-1   -1.542310428879041E-1
 1.004720363725000E+10  -3.227898538881522E-1   -3.282308539427160E-1    3.141901096314971E-4   -6.987962292579514E-4    3.562750161839711E-4   -6.483796711531508E-4   -4.538147222187613E-1   -1.535591001655963E-1
 1.004721153190000E+10  -3.231307137559284E-1   -3.278769782013966E-1    2.883239677625994E-4   -6.646181334584240E-4    3.554425543665284E-4   -6.642775249283817E-4   -4.538172607167381E-1   -1.530553282916875E-1
 1.004721942655000E+10  -3.234175505430651E-1   -3.275045206869823E-1    3.081630695504530E-4   -6.362917265541975E-4    3.516838003937488E-4   -6.630792055405014E-4   -4.541640897779539E-1   -1.524578964299131E-1
 1.004722732120000E+10  -3.237466152195052E-1   -3.269957655602981E-1    2.938143893944778E-4   -6.544722486599288E-4    3.742707966656375E-4   -6.593458535625100E-4   -4.544520773726446E-1   -1.519651128142002E-1
 1.004723521585000E+10  -3.242275719776897E-1   -3.267031415415356E-1    2.715396560658281E-4   -6.561476734718404E-4    3.524508098235196E-4   -6.632178672109345E-4   -4.545354925531437E-1   -1.514046876002776E-1
 1.004724311050000E+10  -3.245536052835007E-1   -3.263701476729973E-1    2.543342146114115E-4   -6.572212135998193E-4    3.444726153092930E-4   -6.647750832590243E-4   -4.545261866777767E-1   -1.509696650376979E-1
 1.004725100515000E+10  -3.249730486133913E-1   -3.259307628940840E-1    2.745401957959057E-4   -6.508624927141087E-4    3.187571749543228E-4   -6.397230830691795E-4   -4.549184243931386E-1   -1.504405288410697E-1
 1.004725889980000E+10  -3.253106034160558E-1   -3.255638644589285E-1    3.204618544261833E-4   -6.552621986198513E-4    3.261241598509752E-4   -6.222399259349357E-4   -4.550285085333385E-1   -1.497938357607082E-1
 1.004726679445000E+10  -3.256380671406605E-1   -3.252477385306721E-1    3.003932961160469E-4   -6.596200710149998E-4    3.489632108130170E-4   -6.357403459054107E-4   -4.550378173567026E-1   -1.493232724155832E-1
 1.004727468910000E+10  -3.259981378998628E-1   -3.247406014445988E-1    3.014997624175940E-4   -6.494638510707791E-4    2.999153437064380E-4   -6.272851141723287E-4   -4.553079716952604E-1   -1.487659782138385E-1
 1.004728258375000E+10  -3.265136543803122E-1   -3.244978429547947E-1    3.044072903303617E-4   -6.567869420648820E-4    3.315467087788352E-4   -6.169766393871210E-4   -4.554148237001350E-1   -1.482746625878632E-1
 1.004729047840000E+10  -3.267199397875414E-1   -3.240100805535153E-1    2.552940468482785E-4   -6.423330648998172E-4    3.074034424111685E-4   -6.321361813066612E-4   -4.556888488584990E-1   -1.476254033688568E-1
 1.004729837305000E+10  -3.271077060335786E-1   -3.236607130757096E-1    2.549340578053551E-4   -6.548510968458742E-4    3.104719018151405E-4   -6.200444471656586E-4   -4.555730908806510E-1   -1.472190077759730E-1
 1.004730626770000E+10  -3.273794814235225E-1   -3.233324060705121E-1    3.032675060372206E-4   -6.555245211478236E-4    3.406025510009687E-4   -6.177123057603301E-4   -4.558972319754442E-1   -1.466199205423719E-1
 1.004731416235000E+10  -3.278537712710902E-1   -3.227808626996037E-1    2.838047161805010E-4   -6.396466289995546E-4    3.122737229792727E-4   -6.148881007641219E-4   -4.561246668032647E-1   -1.460996435184243E-1
 1.004732205700000E+10  -3.281548216266333E-1   -3.224873345689843E-1    2.891672844944034E-4   -6.408321827273496E-4    2.983388292948247E-4   -6.082894028041399E-4   -4.561831200084541E-1   -1.456090064129328E-1
 1.004732995165000E+10  -3.286000526306714E-1   -3.220985072146261E-1    2.782654580443873E-4   -6.089618794003628E-4    3.493030885435838E-4   -6.275960483627822E-4   -4.561799523944740E-1   -1.449598999672024E-1
 1.004733784630000E+10  -3.288670108704065E-1   -3.216011759917615E-1    2.805746924675636E-4   -6.311239196593559E-4    3.249195807659260E-4   -5.977212546433320E-4   -4.564303891017572E-1   -1.445487857996254E-1
 1.004734574095000E+10  -3.292460324912511E-1   -3.212995072092584E-1    2.759739090894532E-4   -6.224828574819203E-4    2.924471270161417E-4   -6.001414297527635E-4   -4.566634619717582E-1   -1.441070761074096E-1
 1.004735363560000E+10  -3.295100103211658E-1   -3.209954393906794E-1    2.750692430481200E-4   -6.147053228507848E-4    2.931481580798161E-4   -6.232007150809328E-4   -4.567816117342920E-1   -1.435309803598678E-1
 1.004736153025000E+10  -3.298865881263751E-1   -3.205567493630568E-1    2.809980226032704E-4   -5.957965363966164E-4    3.158560768010635E-4   -6.094579314483261E-4   -4.568354336157207E-1   -1.429385379844504E-1
 1.004736942490000E+10  -3.302704546316512E-1   -3.201391540243166E-1    2.783010634155682E-4   -6.110659389226531E-4    3.214705733733142E-4   -5.995806540757986E-4   -4.570169882372545E-1   -1.424252872038288E-1
 1.004737731955000E+10  -3.306239064618725E-1   -3.197663213641135E-1    2.609204159676354E-4   -5.960151812822745E-4    3.233523752055974E-4   -6.031776988002753E-4   -4.571651681804398E-1   -1.419153942994541E-1
 1.004738521420000E+10  -3.310019755006841E-1   -3.194764125968343E-1    2.869487613895629E-4   -5.796064048776645E-4    3.239238722788308E-4   -6.070315851627397E-4   -4.574854161346663E-1   -1.412390950957078E-1
 1.004739310885000E+10  -3.312719583515285E-1   -3.190094418123182E-1    2.353566777770355E-4   -6.110951863439348E-4    3.213325531107411E-4   -5.719326753260888E-4   -4.574895201037325E-1   -1.407835067403167E-1
 1.004740100350000E+10  -3.317795094274629E-1   -3.185572374985878E-1    2.559614161297441E-4   -6.219302239149098E-4    3.269069105266691E-4   -5.433632748899504E-4   -4.576414256651465E-1   -1.403386833119391E-1
 1.004740889815000E+10  -3.320544102220363E-1   -3.181942535259040E-1    2.500891004377838E-4   -6.060824414960070E-4    3.023631599587696E-4   -5.677430854464624E-4   -4.578565651500326E-1   -1.397366138174951E-1
 1.004741679280000E+10  -3.323986929170846E-1   -3.177155295089124E-1    2.407882017281685E-4   -5.472991250502193E-4    3.231377339878972E-4   -5.859043379900030E-4   -4.578456678370778E-1   -1.391966738442557E-1
 1.004742468745000E+10  -3.326306875620124E-1   -3.172914835398117E-1    2.582338530301802E-4   -5.796063498208844E-4    2.951283640135326E-4   -5.560144130615771E-4   -4.582330808935409E-1   -1.387350230955385E-1
 1.004743258210000E+10  -3.330630235154716E-1   -3.170363689589865E-1    2.759221959826200E-4   -5.737793405745180E-4    3.078826645394860E-4   -5.777375561421532E-4   -4.582626936333765E-1   -1.380164293757443E-1
 1.004744047675000E+10  -3.332965600330254E-1   -3.165277206545440E-1    2.583831952199919E-4   -5.827670474344327E-4    3.035571097340303E-4   -5.539586556409290E-4   -4.583153220737757E-1   -1.374926127719659E-1
 1.004744837140000E+10  -3.337787106566850E-1   -3.163048471028414E-1    2.698891492947063E-4   -5.443484303106527E-4    3.045931970857986E-4   -5.451394531484168E-4   -4.583846755349089E-1   -1.368108048907519E-1
 1.004745626605000E+10  -3.341268314799742E-1   -3.158473575315650E-1    2.723235954931710E-4   -5.722078774272428E-4    3.056623979151476E-4   -5.510960971459219E-4   -4.586005524464680E-1   -1.365335488771531E-1
 1.004746416070000E+10  -3.345674453205250E-1   -3.153540094065465E-1    2.467750744480733E-4   -5.573086400517167E-4    3.039119119856816E-4   -5.383799484431536E-4   -4.586324220965500E-1   -1.358815342308045E-1
 1.004747205535000E+10  -3.348786298890265E-1   -3.150439549333428E-1    2.631487719690067E-4   -5.411657235632905E-4    3.108279540879277E-4   -5.362651949844555E-4   -4.588646647389467E-1   -1.353260350666557E-1
 1.004747995000000E+10  -3.351441676052084E-1   -3.145823803538471E-1    2.578562480465209E-4   -5.617239815657110E-4    3.088325748141961E-4   -5.231642645910800E-4   -4.590740262185786E-1   -1.348661479240262E-1
 1.004748784465000E+10  -3.355041038079388E-1   -3.142937809868899E-1    2.526126456182446E-4   -5.326931341453975E-4    2.849907324911027E-4   -5.205642847314042E-4   -4.593050419392805E-1   -1.341700001256765E-1
 1.004749573930000E+10  -3.358437452433874E-1   -3.138544393244418E-1    2.551236341550121E-4   -5.443615010980498E-4    2.714459211899403E-4   -5.255000198303970E-4   -4.592512649241126E-1   -1.336963457555405E-1
 1.004750363395000E+10  -3.361072749644111E-1   -3.133935937178208E-1    2.630748843717784E-4   -5.217109717620201E-4    2.769279009932781E-4   -4.997222365907609E-4   -4.595133645951737E-1   -1.330738950149823E-1
 1.004751152860000E+10  -3.365001973054629E-1   -3.130197379764736E-1    2.398027971899478E-4   -5.160348820770498E-4    2.557776713977427E-4   -5.067559825971279E-4   -4.595827208250829E-1   -1.326645992624960E-1
 1.004751942325000E+10  -3.368766217500408E-1   -3.126617082827856E-1    2.327262854308614E-4   -5.103406953212632E-4    2.865556319330351E-4   -5.357546501256335E-4   -4.597402058675277E-1   -1.320938518605871E-1
 1.004752731790000E+10  -3.370935144782830E-1   -3.122871765663011E-1    2.488343085912694E-4   -5.141795378034134E-4    2.774919846959233E-4   -5.051330304584436E-4   -4.599257199068859E-1   -1.315755408440213E-1
 1.004753521255000E+10  -3.375590009181930E-1   -3.118983660079427E-1    2.431902236898070E-4   -5.148632056905538E-4    2.937338091417198E-4   -4.929557096797784E-4   -4.600988525330887E-1   -1.310500667345459E-1
 1.004754310720000E+10  -3.380048465299693E-1   -3.116092002352406E-1    2.284660821574808E-4   -5.196777773045212E-4    2.937132957844411E-4   -5.152469405968330E-4   -4.601158894459308E-1   -1.304696151730548E-1
 1.004755100185000E+10  -3.382563495023865E-1   -3.110539108856556E-1    2.524378030354268E-4   -4.956340520276421E-4    2.600383352862414E-4   -5.127310051453297E-4   -4.601785265097461E-1   -1.298356854345953E-1
 1.004755889650000E+10  -3.385063899525852E-1   -3.107090072288060E-1    2.120770140197195E-4   -4.827325091744409E-4    2.926242230474878E-4   -5.019702806945422E-4   -4.603458988503172E-1   -1.293627206616989E-1
 1.004756679115000E+10  -3.389057040649712E-1   -3.102151030063383E-1    2.385394487882454E-4   -5.021236630016119E-4    2.730517074487535E-4   -4.870227645165510E-4   -4.604747024548985E-1   -1.286784515168123E-1
 1.004757468580000E+10  -3.392883303653477E-1   -3.099297114820498E-1    2.369895824709553E-4   -4.827233337640116E-4    2.760561407186639E-4   -4.429781418063884E-4   -4.607120563380295E-1   -1.281925293063987E-1
 1.004758258045000E+10  -3.395543243945910E-1   -3.095421475076514E-1    2.396098212924460E-4   -4.847743603059443E-4    2.683955886027084E-4   -4.555630825163506E-4   -4.608700081106160E-1   -1.274329931719675E-1
 1.004759047510000E+10  -3.399779310793365E-1   -3.091908457394872E-1    2.503395948174707E-4   -4.749012599336207E-4    2.698541191917631E-4   -4.715588967477312E-4   -4.609383266732728E-1   -1.271276876465832E-1
 1.004759836975000E+10  -3.403818442704323E-1   -3.087683220422065E-1    2.239420226819654E-4   -4.989426347739054E-4    2.809098586195023E-4   -4.618861650088807E-4   -4.609220482218881E-1   -1.266040765894256E-1
 1.004760626440000E+10  -3.405990071709307E-1   -3.082920530771700E-1    2.405884007030477E-4   -4.661429235149335E-4    2.867652749589820E-4   -4.507548636881106E-4   -4.611382515931736E-1   -1.258041269588814E-1
 1.004761415905000E+10  -3.409230026898432E-1   -3.079843550504322E-1    1.958778170828113E-4   -4.540071495674531E-4    2.330904797281617E-4   -4.379690810561113E-4   -4.612282681112392E-1   -1.253453796639434E-1
 1.004762205370000E+10  -3.413956349445252E-1   -3.075621681580830E-1    2.281636008229871E-4   -4.529025764703108E-4    2.372050156618989E-4   -4.503264707951556E-4   -4.612719038470340E-1   -1.248018125951369E-1
 1.004762994835000E+10  -3.417213047683030E-1   -3.070478149718304E-1    2.053682193926192E-4   -4.326029477648999E-4    2.752840580797043E-4   -4.271515223907436E-4   -4.615489204762498E-1   -1.244118800573493E-1
 1.004763784300000E+10  -3.419566652832429E-1   -3.069240386978739E-1    2.199796286387611E-4   -4.369037255423791E-4    2.816023374341676E-4   -4.249425333528953E-4   -4.615913131673913E-1   -1.238567422688919E-1
 1.004764573765000E+10  -3.422704647351077E-1   -3.063578157299031E-1    2.276709003602331E-4   -4.267198403089931E-4    2.824624510573875E-4   -4.236326192585370E-4   -4.617133439362616E-1   -1.232515282427067E-1
 1.004765363230000E+10  -3.426478053272846E-1   -3.059465438342987E-1    2.230854445181678E-4   -4.474282751544957E-4    2.544350220100081E-4   -4.351625174307851E-4   -4.619400311792876E-1   -1.226545183736031E-1
 1.004766152695000E+10  -3.430329067912810E-1   -3.054994634244618E-1    2.128478172872428E-4   -4.216030686723750E-4    2.760214845164087E-4   -4.119822186085483E-4   -4.619803564529906E-1   -1.218415683947183E-1
 1.004766942160000E+10  -3.433906557125357E-1   -3.050967915641592E-1    2.286238821285228E-4   -3.982873219530364E-4    2.626914798701858E-4   -4.108858719809641E-4   -4.620758388501202E-1   -1.215260271379139E-1
 1.004767731625000E+10  -3.437714141266753E-1   -3.046740326089598E-1    2.108012624978244E-4   -4.105929784265973E-4    2.383576802837827E-4   -4.025567218888342E-4   -4.621433436219701E-1   -1.209417170243912E-1
 1.004768521090000E+10  -3.439680159536198E-1   -3.043464624775226E-1    2.377277201676144E-4   -4.061748885928836E-4    2.582336351471622E-4   -3.869022152810778E-4   -4.623373153671588E-1   -1.202612282470432E-1
 1.004769310555000E+10  -3.442834180303561E-1   -3.039865498108135E-1    2.130330813138328E-4   -4.068575219673063E-4    2.252809475920114E-4   -3.940621978362551E-4   -4.624539059778787E-1   -1.198258255325821E-1
 1.004770100020000E+10  -3.447997245010764E-1   -3.035864925927148E-1    2.358381043856682E-4   -3.854285622083665E-4    2.773574710593053E-4   -4.162073771279412E-4   -4.626597055580897E-1   -1.191350197517039E-1
 1.004770889485000E+10  -3.450226220412130E-1   -3.030711528870553E-1    2.121903636479296E-4   -3.647503084462351E-4    2.403289255601555E-4   -3.714169775448866E-4   -4.626153459471481E-1   -1.185381104917487E-1
 1.004771678950000E+10  -3.455232758717021E-1   -3.027478338278135E-1    2.403032727035127E-4   -3.749833559481355E-4    2.363734227321995E-4   -3.600611262281465E-4   -4.627871965087864E-1   -1.179839878089202E-1
 1.004772468415000E+10  -3.458144628669024E-1   -3.023598492151269E-1    2.227012631070918E-4   -3.756573623225467E-4    2.370772526589414E-4   -3.609013725745287E-4   -4.628760619293641E-1   -1.174575554406869E-1
 1.004773257880000E+10  -3.459829068497209E-1   -3.019712981434794E-1    1.904582367317477E-4   -3.556826579687823E-4    2.377537120113445E-4   -3.534284025816815E-4   -4.631128397013363E-1   -1.167291317517801E-1
 1.004774047345000E+10  -3.464670637156925E-1   -3.014612679061940E-1    2.460648730571527E-4   -3.691240411505085E-4    2.423715785699943E-4   -3.733074661696721E-4   -4.631851552604573E-1   -1.162904877199955E-1
 1.004774836810000E+10  -3.466033503269315E-1   -3.011956164241524E-1    2.230927760026766E-4   -3.520516919703594E-4    2.520403839929670E-4   -3.402583710465818E-4   -4.632516982860216E-1   -1.158290331221875E-1
 1.004775626275000E+10  -3.470601574772787E-1   -3.006822426040894E-1    2.004869123858857E-4   -3.247361691791821E-4    2.144992992358083E-4   -3.292052441933372E-4   -4.633494307651106E-1   -1.150233350657676E-1
 1.004776415740000E+10  -3.473946348484347E-1   -3.002325826076996E-1    2.109123368197358E-4   -3.233544744103218E-4    2.624259449295249E-4   -3.264851147271752E-4   -4.633860879864080E-1   -1.144375217474213E-1
 1.004777205205000E+10  -3.475804044292413E-1   -2.998266123475820E-1    2.086617488904210E-4   -3.217629467322883E-4    2.319230632368877E-4   -3.467214793505110E-4   -4.634700256445913E-1   -1.138953967543646E-1
 1.004777994670000E+10  -3.480076300978001E-1   -2.994157545850163E-1    2.269067586182258E-4   -2.917541410742252E-4    2.355835879932444E-4   -3.014089203745743E-4   -4.636287147388907E-1   -1.132257954497621E-1
 1.004778784135000E+10  -3.482197484582069E-1   -2.990994497533542E-1    2.089217721471947E-4   -2.934813268595052E-4    2.277741282346212E-4   -2.992555627062607E-4   -4.638462445898560E-1   -1.127569447019458E-1
 1.004779573600000E+10  -3.485835065368261E-1   -2.985859586884054E-1    1.855172309296750E-4   -3.096279616345663E-4    2.455958567367047E-4   -2.898240033643129E-4   -4.639819569547969E-1   -1.121205550658992E-1
 1.004780363065000E+10  -3.489324386137465E-1   -2.981401360536672E-1    2.053047216400629E-4   -2.923678809179637E-4    2.224098334329191E-4   -2.821639915826014E-4   -4.639474610894243E-1   -1.116565022331436E-1
 1.004781152530000E+10  -3.493481807344209E-1   -2.977579313881011E-1    2.081286542336731E-4   -2.856070585897216E-4    2.409772972100576E-4   -2.689066615031390E-4   -4.641870683601839E-1   -1.109687975866814E-1
 1.004781941995000E+10  -3.496365660892969E-1   -2.973900979472156E-1    2.090290958845932E-4   -2.467125056111413E-4    2.186326437981548E-4   -2.411494722193571E-4   -4.640554175679475E-1   -1.103410088486756E-1
 1.004782731460000E+10  -3.499285729757118E-1   -2.969480329750689E-1    2.289489134515052E-4   -2.602631528684386E-4    2.223326088791981E-4   -2.418985354720267E-4   -4.642144995253553E-1   -1.097243117119444E-1
 1.004783520925000E+10  -3.502323608613719E-1   -2.966585222726995E-1    2.054661915080418E-4   -2.622553476863425E-4    2.314184626190115E-4   -2.269960337244943E-4   -4.644389701229356E-1   -1.091086043865884E-1
 1.004784310390000E+10  -3.506370704405578E-1   -2.961476036679579E-1    2.281515914924282E-4   -2.437712167256902E-4    2.379882927688731E-4   -2.443382137574186E-4   -4.643123444016304E-1   -1.084083285874294E-1
 1.004785099855000E+10  -3.510419043950928E-1   -2.956561554530538E-1    2.166661291426776E-4   -2.243708998194720E-4    2.312708654204614E-4   -2.584352486770908E-4   -4.646161993212122E-1   -1.079536836038269E-1
 1.004785889320000E+10  -3.512236871336982E-1   -2.953656598540595E-1    2.317167875332311E-4   -2.157581675244652E-4    2.090935562393315E-4   -2.312679831571991E-4   -4.646359649253379E-1   -1.072768101225190E-1
 1.004786678785000E+10  -3.515479629290775E-1   -2.948309437231793E-1    2.059856030183863E-4   -2.043905593015739E-4    2.222217212324224E-4   -1.897368013162445E-4   -4.647273562771132E-1   -1.066868956718645E-1
 1.004787468250000E+10  -3.519343836095912E-1   -2.944386848666209E-1    2.202512074157892E-4   -1.979821217258568E-4    2.287218889681062E-4   -1.756671727025140E-4   -4.648196025912230E-1   -1.061373665077068E-1
