#  HZ   S   RI   R     50.00 
! Rohde & Schwarz Vector Network Analyzer 
! Rohde-Schwarz,ZNB20-2Port,1311601062101988,3.16
! Created: UTC 3/21/2024, 12:58:39 AM
! freq[Hz]                re:S11                  im:S11                  re:S21                  im:S21                  re:S12                  im:S12                  re:S22                  im:S22
 1.004710307400000E+10  -3.179596261302160E-1   -3.331051267834166E-1    3.290891975261708E-4   -7.049368057546658E-4    3.976228804910715E-4   -6.941650177799299E-4   -4.514277625141426E-1   -1.606344678552515E-1
 1.004711132187500E+10  -3.183448146121173E-1   -3.327351806314522E-1    3.194627545053928E-4   -7.032002918583528E-4    3.821451223488575E-4   -6.849183603575979E-4   -4.517885968189799E-1   -1.600313370075258E-1
 1.004711956975000E+10  -3.185796390216587E-1   -3.323797750541562E-1    3.013986421400859E-4   -7.246948657189257E-4    3.549952180862534E-4   -6.893051768396833E-4   -4.518156960406778E-1   -1.595182126973283E-1
 1.004712781762500E+10  -3.190459367851992E-1   -3.320156334939685E-1    3.051682606016011E-4   -6.830342684143234E-4    3.569518693372601E-4   -6.806259666976429E-4   -4.520583668699156E-1   -1.590255718224139E-1
 1.004713606550000E+10  -3.194007592665489E-1   -3.315266965728386E-1    3.122913744124581E-4   -6.830815678241288E-4    3.689752601121939E-4   -6.656897237234557E-4   -4.522189696712787E-1   -1.586241061155336E-1
 1.004714431337500E+10  -3.197897890700860E-1   -3.310269702733734E-1    2.974767077923867E-4   -6.940801886411563E-4    3.616620569686532E-4   -6.651303539551430E-4   -4.525048068551248E-1   -1.579204305715091E-1
 1.004715256125000E+10  -3.202080804243128E-1   -3.307171504986509E-1    3.179413817621192E-4   -7.003537669967040E-4    3.562789359550364E-4   -6.508528100348408E-4   -4.525672484717218E-1   -1.575016032674842E-1
 1.004716080912500E+10  -3.205887619321643E-1   -3.301816136033704E-1    2.952151260756568E-4   -6.995348252938865E-4    3.498703822960343E-4   -6.804306846804640E-4   -4.527665085666114E-1   -1.568722519195806E-1
 1.004716905700000E+10  -3.209785683450738E-1   -3.300075257516161E-1    3.127479610204124E-4   -6.939526048279878E-4    3.659390087136106E-4   -6.900759464434524E-4   -4.528964773787398E-1   -1.562707234830938E-1
 1.004717730487500E+10  -3.213905553267183E-1   -3.294746530614833E-1    3.314025633662504E-4   -6.868151264390391E-4    3.741370303620749E-4   -6.897133047500006E-4   -4.531199588278663E-1   -1.558489391816616E-1
 1.004718555275000E+10  -3.216858532339814E-1   -3.290687458000773E-1    3.201788459791083E-4   -7.039845325986086E-4    3.422865897304524E-4   -6.649130141089915E-4   -4.531729772790932E-1   -1.552880695052907E-1
 1.004719380062500E+10  -3.220888843548528E-1   -3.288313877758961E-1    2.994484478129255E-4   -6.788541810645855E-4    3.521003583231839E-4   -6.813846124333603E-4   -4.534236425827420E-1   -1.546709477517504E-1
 1.004720204850000E+10  -3.225315959055833E-1   -3.283280489117487E-1    3.156644175337813E-4   -6.571773313238171E-4    3.512613321448769E-4   -6.574155824807251E-4   -4.533468798697277E-1   -1.541386336864538E-1
 1.004721029637500E+10  -3.227200690431201E-1   -3.280415743284092E-1    3.119972083035701E-4   -6.931712724581000E-4    3.463608108234221E-4   -6.714819531456902E-4   -4.538484718793449E-1   -1.535221275941321E-1
 1.004721854425000E+10  -3.231632448104577E-1   -3.274340221409471E-1    3.048526042512068E-4   -6.613968913529309E-4    3.472475938047624E-4   -6.690657483233074E-4   -4.538508126855368E-1   -1.530441229880325E-1
 1.004722679212500E+10  -3.236255845668881E-1   -3.272374179173930E-1    2.992826134526979E-4   -6.356913082348622E-4    3.363510724406859E-4   -6.503192376808066E-4   -4.541446899975290E-1   -1.525653274100972E-1
 1.004723504000000E+10  -3.240874878123509E-1   -3.265782519375477E-1    3.153591295883340E-4   -6.725293595516549E-4    3.620514375639596E-4   -6.867358651865114E-4   -4.542504983180411E-1   -1.519595134044868E-1
 1.004724328787500E+10  -3.244107856546725E-1   -3.265807766749307E-1    2.704574835690903E-4   -6.646792034861650E-4    3.594806990435570E-4   -6.707367306406564E-4   -4.543729444132566E-1   -1.512970485299963E-1
 1.004725153575000E+10  -3.247228943492051E-1   -3.259241676642922E-1    3.131687092177299E-4   -6.517927674759745E-4    3.134216203667042E-4   -6.469022803409043E-4   -4.545904820279169E-1   -1.508827095059672E-1
 1.004725978362500E+10  -3.250099777388643E-1   -3.255244658269670E-1    2.814034803256728E-4   -6.390328993509480E-4    3.352487723945372E-4   -6.350496812301591E-4   -4.547885794127544E-1   -1.503078821466079E-1
 1.004726803150000E+10  -3.254674341484979E-1   -3.251692631021378E-1    2.733259513735595E-4   -6.496617346707126E-4    3.555490966816312E-4   -6.431229447042051E-4   -4.549161851165064E-1   -1.498652081407346E-1
 1.004727627937500E+10  -3.257966564549324E-1   -3.247417055066786E-1    2.685552771996823E-4   -6.454081715863487E-4    3.331144074134960E-4   -6.602950338454712E-4   -4.550317875251096E-1   -1.492503792292849E-1
 1.004728452725000E+10  -3.262264015756711E-1   -3.245164976520938E-1    2.970067346282043E-4   -6.426683284464001E-4    3.439704329123117E-4   -6.624342027100006E-4   -4.551434429986969E-1   -1.485971309210591E-1
 1.004729277512500E+10  -3.266032121647657E-1   -3.240003379744716E-1    2.930376936654446E-4   -6.486077758312366E-4    3.470026857819828E-4   -6.148098710328746E-4   -4.554788365747486E-1   -1.480343520809095E-1
 1.004730102300000E+10  -3.269607665842091E-1   -3.235612148716273E-1    2.928641663121899E-4   -6.358452571643254E-4    3.184628769117437E-4   -6.313675022866345E-4   -4.555378854979658E-1   -1.474847970135604E-1
 1.004730927087500E+10  -3.274281104574637E-1   -3.232052982337290E-1    2.793499653481484E-4   -6.132979969791532E-4    3.478269264810093E-4   -6.079175391977351E-4   -4.555568074606504E-1   -1.471540351933788E-1
 1.004731751875000E+10  -3.276973458633258E-1   -3.227756869118043E-1    3.027263691240820E-4   -6.363114039351092E-4    3.201736839653646E-4   -6.155566790510580E-4   -4.558621858841210E-1   -1.463639534280061E-1
 1.004732576662500E+10  -3.281256719822696E-1   -3.223839013331418E-1    2.819854433375883E-4   -6.341686695396161E-4    3.181554045261288E-4   -6.450731571753485E-4   -4.559915130694492E-1   -1.458249819108452E-1
 1.004733401450000E+10  -3.284421208829194E-1   -3.219051281596321E-1    2.801333515508612E-4   -6.196698441224769E-4    3.137780651352895E-4   -6.359422301491280E-4   -4.562104187378017E-1   -1.452232191313991E-1
 1.004734226237500E+10  -3.288157050961532E-1   -3.216238348667562E-1    2.736410029725584E-4   -6.084848558508278E-4    3.287049336446180E-4   -5.897987538764104E-4   -4.563855993481404E-1   -1.447603296346261E-1
 1.004735051025000E+10  -3.292146662202770E-1   -3.211089157470045E-1    2.807749711864735E-4   -6.069728496980416E-4    3.347816953609182E-4   -6.134066101495941E-4   -4.565217073527238E-1   -1.440702860282154E-1
 1.004735875812500E+10  -3.294823167855426E-1   -3.206992228097600E-1    2.647443866882109E-4   -6.101779376720503E-4    3.380183714366306E-4   -6.247422998041119E-4   -4.566572847874424E-1   -1.436552196074208E-1
 1.004736700600000E+10  -3.298675860491992E-1   -3.203758570662638E-1    2.679789834205633E-4   -6.102163359925040E-4    3.096608788698585E-4   -5.996649813373328E-4   -4.567587538816048E-1   -1.429691161058560E-1
 1.004737525387500E+10  -3.303325911501437E-1   -3.199761635927335E-1    2.874323293851343E-4   -6.039858213608165E-4    3.259745704182814E-4   -6.152238529816687E-4   -4.569926546514266E-1   -1.425611974246897E-1
 1.004738350175000E+10  -3.306889771922113E-1   -3.196016815700107E-1    2.532588919727908E-4   -5.983365153638388E-4    3.371258205337383E-4   -5.898329332093548E-4   -4.570547712578682E-1   -1.419626947557422E-1
 1.004739174962500E+10  -3.311260512814105E-1   -3.191208518002523E-1    2.951809986360926E-4   -5.984604504354574E-4    2.870222263362017E-4   -5.924615148739580E-4   -4.572842198712462E-1   -1.413520629565739E-1
 1.004739999750000E+10  -3.313920146503667E-1   -3.187684496520954E-1    2.690301318402274E-4   -5.579425987434029E-4    3.233709353075319E-4   -5.833503127619979E-4   -4.573911468039515E-1   -1.409272816998604E-1
 1.004740824537500E+10  -3.318753292029166E-1   -3.183214996183673E-1    2.824123058231158E-4   -5.858212727755259E-4    3.110968749761516E-4   -5.824966509802421E-4   -4.576133121041284E-1   -1.403194597636797E-1
 1.004741649325000E+10  -3.322647567406519E-1   -3.178335063560556E-1    2.686967131633149E-4   -5.885295337194812E-4    3.010428601015392E-4   -5.842126639605635E-4   -4.577237139906065E-1   -1.397166101358860E-1
 1.004742474112500E+10  -3.324754862576857E-1   -3.176066213174219E-1    2.745082252456103E-4   -5.586600696960278E-4    3.031733374344346E-4   -5.857476116522827E-4   -4.578123175660970E-1   -1.390708872970000E-1
 1.004743298900000E+10  -3.329472773105679E-1   -3.169857502450967E-1    2.403765185688831E-4   -5.969441336769839E-4    3.040444273676850E-4   -5.558772963725806E-4   -4.580039021099373E-1   -1.383678292427675E-1
 1.004744123687500E+10  -3.332731552082940E-1   -3.166616983547735E-1    2.482713949941475E-4   -5.884755990560318E-4    3.085598756344625E-4   -5.561554041024516E-4   -4.580606421316973E-1   -1.380023599315312E-1
 1.004744948475000E+10  -3.335924321859021E-1   -3.162707498103937E-1    2.511845987324249E-4   -5.743101769885798E-4    3.089612147026343E-4   -5.497383024233060E-4   -4.583422235430467E-1   -1.374912919001964E-1
 1.004745773262500E+10  -3.339281349168253E-1   -3.159000219147176E-1    2.938618952943011E-4   -5.567041499115818E-4    2.895013912393933E-4   -5.583981111237354E-4   -4.584085695271845E-1   -1.369350631884592E-1
 1.004746598050000E+10  -3.344178075332606E-1   -3.154753090544913E-1    2.453530374005549E-4   -5.672762281270448E-4    3.154039513446542E-4   -5.338631267489719E-4   -4.586071255080169E-1   -1.362814256869604E-1
 1.004747422837500E+10  -3.347414389249189E-1   -3.150972317380129E-1    2.791505543426735E-4   -5.786122663947778E-4    3.078314137265548E-4   -5.524204255731600E-4   -4.587985778067691E-1   -1.358088797421149E-1
 1.004748247625000E+10  -3.351134896158995E-1   -3.145172099620820E-1    2.549782649437902E-4   -5.754950987113181E-4    3.083709736738594E-4   -5.330322802464352E-4   -4.589327674954240E-1   -1.351949711932133E-1
 1.004749072412500E+10  -3.354154810422101E-1   -3.141214887165473E-1    2.395259720136553E-4   -5.445162758699319E-4    3.221583720524569E-4   -5.557211118028156E-4   -4.590043010387211E-1   -1.345144546861136E-1
 1.004749897200000E+10  -3.357728927734478E-1   -3.138242610850047E-1    2.621260965410818E-4   -5.600549548401650E-4    3.116840100256127E-4   -5.368481185840672E-4   -4.591714843774662E-1   -1.340885932694807E-1
 1.004750721987500E+10  -3.362172054227439E-1   -3.134367821056628E-1    2.334260327527197E-4   -5.259603664350980E-4    2.798969856237205E-4   -5.385394599875146E-4   -4.592366810457926E-1   -1.335682685691539E-1
 1.004751546775000E+10  -3.365763946969354E-1   -3.130731652555828E-1    2.439571208902632E-4   -5.426175281947290E-4    2.888692991041570E-4   -5.273719792687067E-4   -4.593813734936498E-1   -1.329080548158562E-1
 1.004752371562500E+10  -3.368472380107070E-1   -3.125404043063277E-1    2.468843196670768E-4   -4.957736477819443E-4    3.259692534693321E-4   -5.145992560607406E-4   -4.596567638059393E-1   -1.321539870700200E-1
 1.004753196350000E+10  -3.373824664287209E-1   -3.121393610085253E-1    2.545992822730316E-4   -5.099906501178857E-4    2.653992341041029E-4   -5.127535643124417E-4   -4.597379247996120E-1   -1.316481372504831E-1
 1.004754021137500E+10  -3.375174146373889E-1   -3.117663977236255E-1    2.622231942125080E-4   -5.301539172313661E-4    2.638285136730932E-4   -4.809128589010396E-4   -4.599877059183626E-1   -1.311572228907271E-1
 1.004754845925000E+10  -3.379574700446640E-1   -3.112495348133630E-1    2.468946233023498E-4   -5.307994132703421E-4    2.837234518033983E-4   -5.146103238806043E-4   -4.600066937085632E-1   -1.305460204403083E-1
 1.004755670712500E+10  -3.384527277363582E-1   -3.109556568343133E-1    2.311862263549144E-4   -4.957972841708912E-4    2.824164759801762E-4   -4.769827640655851E-4   -4.601173589177625E-1   -1.299813631817898E-1
 1.004756495500000E+10  -3.387637822298836E-1   -3.105458529005552E-1    2.539655569118616E-4   -5.046899689424790E-4    2.928715370209971E-4   -4.808005396680031E-4   -4.603375796125577E-1   -1.294313976793933E-1
 1.004757320287500E+10  -3.390611077298458E-1   -3.101140825672013E-1    2.232495103161105E-4   -4.756626746383203E-4    2.870247452019021E-4   -4.757116590756802E-4   -4.604569777069101E-1   -1.287594463089768E-1
 1.004758145075000E+10  -3.394080715099487E-1   -3.097638588397152E-1    2.742142386482841E-4   -4.755663511727071E-4    2.807450336985456E-4   -4.865594747694685E-4   -4.605204317543068E-1   -1.282305037567625E-1
 1.004758969862500E+10  -3.396343540098799E-1   -3.092843281091758E-1    2.315769662612469E-4   -4.705172079680017E-4    2.662578044229752E-4   -4.610186443270730E-4   -4.605944627098957E-1   -1.276798579623965E-1
 1.004759794650000E+10  -3.401205829248237E-1   -3.088038444886499E-1    2.196998678116631E-4   -4.786336654443293E-4    2.805626716156205E-4   -4.469055436358006E-4   -4.607929924591051E-1   -1.270100666947153E-1
 1.004760619437500E+10  -3.405563838327221E-1   -3.084318922786392E-1    2.510405289214401E-4   -5.001843386659837E-4    2.542054089713946E-4   -4.601273189848418E-4   -4.609172150438209E-1   -1.265269386592876E-1
 1.004761444225000E+10  -3.407800661114087E-1   -3.081174121651880E-1    2.356800534080035E-4   -4.598087789629060E-4    2.927516731698164E-4   -4.668402834893167E-4   -4.610886994213438E-1   -1.258993644475425E-1
 1.004762269012500E+10  -3.411446763523258E-1   -3.075384422918819E-1    2.321793145049514E-4   -4.404846521501979E-4    2.866038134565952E-4   -4.208606479199103E-4   -4.611629565597369E-1   -1.252309646836452E-1
 1.004763093800000E+10  -3.415236991489072E-1   -3.072210625970331E-1    2.180482924172460E-4   -4.549557525607034E-4    2.815085167031515E-4   -4.316390295006528E-4   -4.612414585813720E-1   -1.247147025429781E-1
 1.004763918587500E+10  -3.420087123573011E-1   -3.066851507387704E-1    2.299527501191067E-4   -4.354754425341169E-4    2.758316394022840E-4   -4.339472399624999E-4   -4.614716192343464E-1   -1.241775627634853E-1
 1.004764743375000E+10  -3.421290703830568E-1   -3.063521502245511E-1    2.211359571781172E-4   -4.644385598550215E-4    2.873002724623183E-4   -4.438234204031803E-4   -4.615128620916282E-1   -1.235969905774486E-1
 1.004765568162500E+10  -3.426623509562061E-1   -3.060136249313403E-1    2.401175741813211E-4   -4.629293285182125E-4    2.656317664325566E-4   -4.287346925710377E-4   -4.616921351991635E-1   -1.230274294211534E-1
 1.004766392950000E+10  -3.430394907509474E-1   -3.054213030198517E-1    2.321770105096052E-4   -4.341541231489908E-4    2.565843841733518E-4   -4.167485594556238E-4   -4.618542766811566E-1   -1.223377597764417E-1
 1.004767217737500E+10  -3.433164886991518E-1   -3.051905983095611E-1    2.313556485782622E-4   -4.218949595750975E-4    2.525841637244113E-4   -4.074610714982697E-4   -4.619315800970158E-1   -1.218216519500776E-1
 1.004768042525000E+10  -3.436153472793221E-1   -3.047208000975072E-1    2.127546108356876E-4   -4.133447320659325E-4    2.501674040692466E-4   -4.284311025663957E-4   -4.619537270487222E-1   -1.212331977892628E-1
 1.004768867312500E+10  -3.439753474180636E-1   -3.042537770206002E-1    2.410969322843587E-4   -4.095939967614605E-4    2.764116170127565E-4   -3.906716994015616E-4   -4.622882958278295E-1   -1.205845787488010E-1
 1.004769692100000E+10  -3.442641819811909E-1   -3.037173928750858E-1    2.359746678993664E-4   -3.923465035239166E-4    2.591513110400649E-4   -3.808530678399011E-4   -4.622864721661123E-1   -1.199650671705517E-1
 1.004770516887500E+10  -3.447452610970828E-1   -3.033733540276972E-1    2.573123458106476E-4   -3.746815059460824E-4    2.537931812393123E-4   -3.985487752446376E-4   -4.625342963868719E-1   -1.194925893102672E-1
 1.004771341675000E+10  -3.450775501346464E-1   -3.030958371147316E-1    2.462558200268165E-4   -3.721217368249184E-4    2.468194822116097E-4   -3.902590258515396E-4   -4.625325608553882E-1   -1.188569145071682E-1
 1.004772166462500E+10  -3.453930996965262E-1   -3.025728138482321E-1    2.364517862039405E-4   -3.621090984725114E-4    2.584725908087262E-4   -3.837792103608999E-4   -4.626054143185632E-1   -1.182292313316198E-1
 1.004772991250000E+10  -3.457992129905034E-1   -3.022988146946280E-1    2.156922871264823E-4   -3.603412451090979E-4    2.549281565357213E-4   -3.567270910990480E-4   -4.627857894947833E-1   -1.177255092931324E-1
 1.004773816037500E+10  -3.459640741023303E-1   -3.017422205522721E-1    2.471661795430251E-4   -3.494250346352765E-4    2.413000020832373E-4   -3.686571963869596E-4   -4.630673738661024E-1   -1.169544812289558E-1
 1.004774640825000E+10  -3.464921206214955E-1   -3.012613225397078E-1    2.205587376487089E-4   -3.361532836113681E-4    2.592215133306150E-4   -3.281090597532276E-4   -4.629670636452323E-1   -1.165439847186960E-1
 1.004775465612500E+10  -3.467044263095141E-1   -3.008975733543028E-1    2.216475849146231E-4   -3.132333477723339E-4    2.362865638812375E-4   -3.273472260919862E-4   -4.629639435856032E-1   -1.156759406861400E-1
 1.004776290400000E+10  -3.471014139568452E-1   -3.005315253877224E-1    2.226562504038711E-4   -3.315809531224793E-4    2.414240485531967E-4   -3.049783141680155E-4   -4.631731740573365E-1   -1.151261090585852E-1
 1.004777115187500E+10  -3.475014206852841E-1   -3.000262673217396E-1    2.311427233449937E-4   -3.231283763437488E-4    2.471928108513866E-4   -3.089952644696334E-4   -4.633830133956583E-1   -1.145863625948677E-1
 1.004777939975000E+10  -3.478212841983488E-1   -2.996579771857934E-1    2.214729014416727E-4   -3.279938467795912E-4    2.537608534227669E-4   -3.179640435979428E-4   -4.635418332174877E-1   -1.137948934653712E-1
 1.004778764762500E+10  -3.481756677825619E-1   -2.992334131201376E-1    2.003846954416331E-4   -3.087186298851503E-4    2.120780947098619E-4   -2.985815929190457E-4   -4.634596476424487E-1   -1.132765649724227E-1
 1.004779589550000E+10  -3.484367997039302E-1   -2.987407785430822E-1    2.271741843753698E-4   -3.188048479015555E-4    2.443931135806027E-4   -3.161322608676056E-4   -4.636034399243955E-1   -1.127378170038678E-1
 1.004780414337500E+10  -3.487829570576896E-1   -2.983233276595668E-1    2.408703769309108E-4   -2.828950105486597E-4    2.596393488137172E-4   -2.784102680324251E-4   -4.637741249208230E-1   -1.122274864966086E-1
 1.004781239125000E+10  -3.491017414372165E-1   -2.978668855249946E-1    2.070788046866672E-4   -3.071807453901311E-4    2.326153907005797E-4   -2.559432736046607E-4   -4.639325492160382E-1   -1.115134907324057E-1
 1.004782063912500E+10  -3.495304031599668E-1   -2.973666067641225E-1    2.154222152079582E-4   -2.813333510182383E-4    2.299901385849451E-4   -2.495708906023252E-4   -4.639459451324841E-1   -1.108952222524884E-1
 1.004782888700000E+10  -3.497780455271300E-1   -2.969628311238650E-1    2.291826399420809E-4   -2.711988889465344E-4    2.389176671948119E-4   -2.401332897862016E-4   -4.641016867777757E-1   -1.101091034328830E-1
 1.004783713487500E+10  -3.502161902143711E-1   -2.964865538896235E-1    1.915239740887500E-4   -2.629002265103194E-4    2.157518672398229E-4   -2.445726879171446E-4   -4.641843898255035E-1   -1.095503618867592E-1
 1.004784538275000E+10  -3.505134500421797E-1   -2.961290965809936E-1    2.277978656925036E-4   -2.254583900855231E-4    2.440858317316899E-4   -2.418420546374071E-4   -4.642588253016007E-1   -1.089522575474525E-1
