#  HZ   S   RI   R     50.00 
! Rohde & Schwarz Vector Network Analyzer 
! Rohde-Schwarz,ZNB20-2Port,1311601062101988,3.16
! Created: UTC 3/21/2024, 1:00:20 AM
! freq[Hz]                re:S11                  im:S11                  re:S21                  im:S21                  re:S12                  im:S12                  re:S22                  im:S22
 1.004690662900000E+10  -3.076871596711153E-1   -3.428677633962081E-1    3.622368995046815E-4   -7.698861340553235E-4    4.122280213594998E-4   -7.588692576888133E-4   -4.460815634326142E-1   -1.758046442192942E-1
 1.004691605022500E+10  -3.080618215331834E-1   -3.423180680679412E-1    3.433730551644112E-4   -7.407827383692525E-4    4.111993300760144E-4   -7.422686281309633E-4   -4.464713296728161E-1   -1.750785242778204E-1
 1.004692547145000E+10  -3.085809040791783E-1   -3.419609586947639E-1    3.591075703724738E-4   -7.554273494843093E-4    4.062763242949712E-4   -7.332363751123267E-4   -4.467276461438646E-1   -1.744802783085432E-1
 1.004693489267500E+10  -3.089815704604585E-1   -3.415542554739022E-1    3.615928794614557E-4   -7.630493913421263E-4    4.100306548375147E-4   -7.568221936042564E-4   -4.467575538466990E-1   -1.739361252841361E-1
 1.004694431390000E+10  -3.093625008154132E-1   -3.410533351059355E-1    3.557134098732474E-4   -7.533448949714053E-4    4.310622645095856E-4   -7.297458256629572E-4   -4.469494357957391E-1   -1.732246714634593E-1
 1.004695373512500E+10  -3.098520895399535E-1   -3.406938996563190E-1    3.778347167576236E-4   -7.473326035987916E-4    4.199410124457850E-4   -7.367064325079404E-4   -4.471482686593656E-1   -1.727576998269547E-1
 1.004696315635000E+10  -3.103227991181404E-1   -3.402658767612651E-1    3.697826784197110E-4   -7.548574517108077E-4    4.241361438460855E-4   -7.261145442569214E-4   -4.475272068089610E-1   -1.723505736952891E-1
 1.004697257757500E+10  -3.107452517097751E-1   -3.397843553940119E-1    3.842976256320660E-4   -7.525602661111177E-4    4.175850200835078E-4   -7.311301840615941E-4   -4.476183961402841E-1   -1.715123457590378E-1
 1.004698199880000E+10  -3.112303599207609E-1   -3.394162097157000E-1    3.544961399361885E-4   -7.437664681724327E-4    4.297703995049712E-4   -7.412005775138549E-4   -4.479215935367277E-1   -1.708827213791660E-1
 1.004699142002500E+10  -3.116744490344688E-1   -3.389462619426167E-1    3.694364516325799E-4   -7.428480720231954E-4    4.477491407285543E-4   -7.460615112680306E-4   -4.481030650070223E-1   -1.701878580527885E-1
 1.004700084125000E+10  -3.120768181534591E-1   -3.384457782967568E-1    3.256258422511530E-4   -7.319003271765290E-4    4.048049268699377E-4   -7.275439692590369E-4   -4.483405904274304E-1   -1.696907508797795E-1
 1.004701026247500E+10  -3.125204248920747E-1   -3.379497669605112E-1    3.412326575009713E-4   -7.533724076976714E-4    4.120423305883260E-4   -7.421923117187991E-4   -4.483663840784108E-1   -1.690495423362960E-1
 1.004701968370000E+10  -3.131215358834954E-1   -3.376088275219567E-1    3.427890831954174E-4   -7.163110380231500E-4    4.011390684503578E-4   -7.221547035397277E-4   -4.486957689502445E-1   -1.684473062451715E-1
 1.004702910492500E+10  -3.135377511867491E-1   -3.371765924483232E-1    3.639870800169779E-4   -7.095937999704982E-4    3.938582340239138E-4   -7.248598257184273E-4   -4.488429292917936E-1   -1.679286010427387E-1
 1.004703852615000E+10  -3.139560629090733E-1   -3.367021954223766E-1    3.345811152025012E-4   -7.070215578875006E-4    3.850190438221589E-4   -7.277454503241123E-4   -4.491608276840054E-1   -1.671374919202457E-1
 1.004704794737500E+10  -3.143480413855885E-1   -3.363230046956871E-1    3.177614005620949E-4   -7.299096788529971E-4    3.907609497637239E-4   -7.168445862493745E-4   -4.492898658495397E-1   -1.668246234361952E-1
 1.004705736860000E+10  -3.147097906372930E-1   -3.357758217439263E-1    3.311592235284295E-4   -7.278629430943094E-4    3.873494721257745E-4   -6.915992002307479E-4   -4.496102390632783E-1   -1.661292847079668E-1
 1.004706678982500E+10  -3.152114776402614E-1   -3.353140483163501E-1    3.331334406986490E-4   -7.443016586781367E-4    3.881298530069580E-4   -7.003514351528902E-4   -4.498335442177658E-1   -1.655299490225861E-1
 1.004707621105000E+10  -3.156334719451199E-1   -3.350035536984013E-1    3.257868297136390E-4   -7.169096650625751E-4    3.716806295052973E-4   -6.912862453281464E-4   -4.498946922044789E-1   -1.648334063454699E-1
 1.004708563227500E+10  -3.161473814509651E-1   -3.345289347903965E-1    3.325767936683827E-4   -7.341812843631595E-4    3.845365861423287E-4   -7.090303498693478E-4   -4.500567971288092E-1   -1.643709136736326E-1
 1.004709505350000E+10  -3.166563250354488E-1   -3.341025791852202E-1    3.041545443189126E-4   -7.213213698429773E-4    4.042481581508768E-4   -6.956139925159022E-4   -4.502627752896015E-1   -1.635208635682592E-1
 1.004710447472500E+10  -3.170289516015561E-1   -3.336295884515346E-1    3.366738933965873E-4   -6.898959893970078E-4    3.768860535264133E-4   -6.921923492193687E-4   -4.506216735186424E-1   -1.629642015734352E-1
 1.004711389595000E+10  -3.173676796110468E-1   -3.331848067870268E-1    3.286637965105401E-4   -7.207179764364263E-4    3.976030689602514E-4   -6.942839841039544E-4   -4.507449952648047E-1   -1.625387661361592E-1
 1.004712331717500E+10  -3.178076440739726E-1   -3.327475166323362E-1    3.327108553397023E-4   -7.105547794622681E-4    3.903857457766652E-4   -6.865466391593328E-4   -4.509329787418273E-1   -1.618131797918388E-1
 1.004713273840000E+10  -3.183049899898929E-1   -3.322813249754902E-1    3.318231318248280E-4   -7.053390346385973E-4    3.760873650312326E-4   -7.022823655123099E-4   -4.510198165260472E-1   -1.612501816842313E-1
 1.004714215962500E+10  -3.188252920594227E-1   -3.318506401220383E-1    3.040300301317535E-4   -7.321639819603879E-4    3.706496888904486E-4   -6.935243045716998E-4   -4.513868850454786E-1   -1.605516024110889E-1
 1.004715158085000E+10  -3.191184188911359E-1   -3.313150229812561E-1    3.151411426428861E-4   -6.861111429112037E-4    3.663903051773245E-4   -6.660805198561738E-4   -4.514493034919775E-1   -1.598876802653694E-1
 1.004716100207500E+10  -3.196507075044351E-1   -3.309117087777162E-1    3.357959124922608E-4   -6.822633387349884E-4    3.838263908482038E-4   -6.753095533107891E-4   -4.517520475705826E-1   -1.592461608578090E-1
 1.004717042330000E+10  -3.200357642568902E-1   -3.303907371531168E-1    3.235514398977821E-4   -6.902485822849442E-4    3.828529923128475E-4   -6.962611462472407E-4   -4.518674399593456E-1   -1.586663409637055E-1
 1.004717984452500E+10  -3.204842633927284E-1   -3.300464960015808E-1    3.206358295740725E-4   -6.845039697312583E-4    3.641065352611006E-4   -6.770042056189057E-4   -4.522629901160243E-1   -1.579213405969146E-1
 1.004718926575000E+10  -3.209467664128193E-1   -3.296082430480644E-1    3.139130410670177E-4   -6.482000279037173E-4    3.854003092335997E-4   -6.529150021258198E-4   -4.522795536212768E-1   -1.573213164004745E-1
 1.004719868697500E+10  -3.212148090995497E-1   -3.289945549135561E-1    3.183990108651264E-4   -6.907062427057595E-4    3.427706311448728E-4   -6.669687058745847E-4   -4.524708167113715E-1   -1.566971685974590E-1
 1.004720810820000E+10  -3.219258896929414E-1   -3.286901123129091E-1    2.967252177106134E-4   -6.805834399603781E-4    3.636816944163792E-4   -6.892029008971070E-4   -4.526590993866055E-1   -1.561635438819778E-1
 1.004721752942500E+10  -3.223130551656600E-1   -3.281838190531412E-1    3.193068243595026E-4   -6.788508195829745E-4    3.449922824845656E-4   -6.561550855542425E-4   -4.530055588588842E-1   -1.556409503020380E-1
 1.004722695065000E+10  -3.226819232501753E-1   -3.277152224458474E-1    2.971824569332363E-4   -6.714314172494582E-4    3.738821114458547E-4   -6.541752917758309E-4   -4.532089405254259E-1   -1.549906442224649E-1
 1.004723637187500E+10  -3.231828000180748E-1   -3.273042234732396E-1    3.072437460855987E-4   -6.492854092348286E-4    3.656794446944818E-4   -6.557537156359904E-4   -4.534499193870827E-1   -1.542134996765302E-1
 1.004724579310000E+10  -3.234867804810929E-1   -3.268291432027734E-1    2.924590490717687E-4   -6.827557153374382E-4    3.544189066043961E-4   -6.384902744574826E-4   -4.535761088082785E-1   -1.538079807416345E-1
 1.004725521432500E+10  -3.240210317264577E-1   -3.262872704617484E-1    3.113037859053456E-4   -6.464232573197756E-4    3.416399842300990E-4   -6.499163963527253E-4   -4.535543749075853E-1   -1.529898927450726E-1
 1.004726463555000E+10  -3.243718900351671E-1   -3.260297344001259E-1    3.203255857739489E-4   -6.553390924515855E-4    3.359340234786351E-4   -6.512396490975510E-4   -4.537229337823807E-1   -1.524172694379911E-1
 1.004727405677500E+10  -3.248326372586691E-1   -3.255585342138523E-1    3.151589876857558E-4   -6.581935660556946E-4    3.487139508003227E-4   -6.341652480291599E-4   -4.541118268840432E-1   -1.518255720491263E-1
 1.004728347800000E+10  -3.252157688013810E-1   -3.250421767273144E-1    2.846522686357199E-4   -6.343898076810754E-4    3.490392561131032E-4   -6.296958209809959E-4   -4.542785092940170E-1   -1.511808235433981E-1
 1.004729289922500E+10  -3.257139511682338E-1   -3.245501857021370E-1    3.255793601084047E-4   -6.330346220278906E-4    3.444022741501824E-4   -6.656327508126131E-4   -4.545548951390326E-1   -1.506461351024003E-1
 1.004730232045000E+10  -3.261238948805674E-1   -3.241871258055756E-1    2.824397478287250E-4   -6.538408043765684E-4    3.277587244694842E-4   -6.342652844565117E-4   -4.546985104442424E-1   -1.498580172931148E-1
 1.004731174167500E+10  -3.265480561836925E-1   -3.237001079327634E-1    3.106716701477386E-4   -6.749173482887923E-4    3.474826512075819E-4   -6.513203187438561E-4   -4.547835685810162E-1   -1.493185643837399E-1
 1.004732116290000E+10  -3.268485673221581E-1   -3.232817426208709E-1    3.108901133095172E-4   -6.344203954861133E-4    3.476169873256198E-4   -6.377646555811071E-4   -4.550263133980771E-1   -1.486714537051084E-1
 1.004733058412500E+10  -3.273990075042144E-1   -3.227618771694560E-1    3.027062645255196E-4   -6.459510999325542E-4    3.141244617866459E-4   -6.172942738230450E-4   -4.552422649929876E-1   -1.479293062071368E-1
 1.004734000535000E+10  -3.277276759511980E-1   -3.223589168348919E-1    3.137369007131505E-4   -6.091166024929011E-4    3.363173557624497E-4   -6.110586748777789E-4   -4.553199362277296E-1   -1.474340380864997E-1
 1.004734942657500E+10  -3.282882248023460E-1   -3.218358236877926E-1    2.851300950575843E-4   -6.123849829926006E-4    3.239348854585216E-4   -6.153045118890957E-4   -4.553588635512468E-1   -1.467880368976173E-1
 1.004735884780000E+10  -3.285796169809190E-1   -3.213164252992521E-1    2.711555710126221E-4   -6.175525096732458E-4    3.629767413966707E-4   -6.114267685072667E-4   -4.555157628616324E-1   -1.461099599215068E-1
 1.004736826902500E+10  -3.291054907991841E-1   -3.209450853541337E-1    2.958881559504138E-4   -6.140299370066136E-4    3.266363833500278E-4   -5.904653223049584E-4   -4.558819383945859E-1   -1.454592070122681E-1
 1.004737769025000E+10  -3.294734792367025E-1   -3.203276221944462E-1    2.969826233804580E-4   -6.098879989305135E-4    3.444908185596860E-4   -5.886263186352933E-4   -4.560149518973919E-1   -1.446926220102224E-1
 1.004738711147500E+10  -3.299639333126511E-1   -3.199292793771769E-1    3.026219410650307E-4   -5.986583682766245E-4    3.457098061282759E-4   -5.940074957822769E-4   -4.562753448699691E-1   -1.442648195065334E-1
 1.004739653270000E+10  -3.303736231082954E-1   -3.195977273314174E-1    2.781779376273751E-4   -6.088146972679081E-4    3.323859167276746E-4   -6.051306941283436E-4   -4.563353412048257E-1   -1.434274210391012E-1
 1.004740595392500E+10  -3.306988928578228E-1   -3.190391804106377E-1    2.865995282817210E-4   -5.913268957175512E-4    2.761734172751201E-4   -5.947406610999405E-4   -4.565362020998556E-1   -1.428713877550304E-1
 1.004741537515000E+10  -3.310889653393091E-1   -3.185711523019458E-1    2.666167744764326E-4   -6.235738335829268E-4    3.232308536774638E-4   -5.719011313537777E-4   -4.568290073945384E-1   -1.422763497782248E-1
 1.004742479637500E+10  -3.315882159023693E-1   -3.182372555948442E-1    2.744497344690122E-4   -5.952406704249181E-4    3.420084006602503E-4   -5.852350539868582E-4   -4.569685481372555E-1   -1.417003150276624E-1
 1.004743421760000E+10  -3.319450920979282E-1   -3.177509599628111E-1    2.823038239005559E-4   -5.948800416692563E-4    3.467894981769884E-4   -5.666714201220015E-4   -4.571201616693023E-1   -1.410818798451861E-1
 1.004744363882500E+10  -3.324657824219126E-1   -3.172705968394843E-1    2.785856384680350E-4   -5.827704976151509E-4    3.017603409518738E-4   -5.849685846283094E-4   -4.572346775094345E-1   -1.404014239823559E-1
 1.004745306005000E+10  -3.329266972757225E-1   -3.166658238020895E-1    2.725221092892918E-4   -5.760870095985306E-4    2.976216210739288E-4   -5.446420218939822E-4   -4.573957875654809E-1   -1.396021841173366E-1
 1.004746248127500E+10  -3.331315571103125E-1   -3.162883622501654E-1    2.918441021410751E-4   -5.714153809863035E-4    3.243894125785017E-4   -5.652835858498548E-4   -4.576153170383199E-1   -1.390926376929159E-1
 1.004747190250000E+10  -3.337657639949106E-1   -3.158563736820165E-1    2.806484469871028E-4   -5.812219942619040E-4    3.144231219023134E-4   -5.513063150508497E-4   -4.578306083622489E-1   -1.385185563766874E-1
 1.004748132372500E+10  -3.339500587930683E-1   -3.152394532243261E-1    2.798599158790893E-4   -5.452038937592082E-4    3.207118218118982E-4   -5.596483184785459E-4   -4.579770433592679E-1   -1.376872340612669E-1
 1.004749074495000E+10  -3.344989750140673E-1   -3.148677292473948E-1    2.816777552309586E-4   -5.546329222272425E-4    3.026402808856103E-4   -5.137265530659043E-4   -4.580227933069544E-1   -1.370082501904812E-1
 1.004750016617500E+10  -3.348944496391628E-1   -3.144873911461992E-1    2.590471666797810E-4   -5.503864339134575E-4    2.931311882487240E-4   -5.482993465840267E-4   -4.582801481474698E-1   -1.364956047199822E-1
 1.004750958740000E+10  -3.352664429283131E-1   -3.140457841404318E-1    2.855893773294210E-4   -5.403420057674989E-4    3.083856337335426E-4   -5.485873629911979E-4   -4.583758535277710E-1   -1.357962588240106E-1
 1.004751900862500E+10  -3.357657882835544E-1   -3.134540645836857E-1    2.591447316889916E-4   -5.299753982410686E-4    2.976399885737466E-4   -5.468387052495740E-4   -4.585077101997846E-1   -1.350719433417342E-1
 1.004752842985000E+10  -3.362515742875308E-1   -3.130605396214720E-1    2.578219020050906E-4   -5.249478476423518E-4    3.178302085898481E-4   -5.258100035565100E-4   -4.586581513240406E-1   -1.345778566356114E-1
 1.004753785107500E+10  -3.365816819306951E-1   -3.126114705160016E-1    2.463129062985297E-4   -5.260792305816358E-4    3.150310149486228E-4   -5.354715067395947E-4   -4.588300500871716E-1   -1.337508624380327E-1
 1.004754727230000E+10  -3.370266733376259E-1   -3.120303914608526E-1    2.490005964035385E-4   -5.341232290463775E-4    2.954161252118581E-4   -4.867554978404681E-4   -4.590015786426516E-1   -1.331145774404080E-1
 1.004755669352500E+10  -3.374821085984336E-1   -3.116507427772470E-1    2.503174510809273E-4   -5.275530680818316E-4    3.106789602207943E-4   -5.034034714824386E-4   -4.591271593965315E-1   -1.326335671253484E-1
 1.004756611475000E+10  -3.377115571762323E-1   -3.111059834481825E-1    2.627098837394151E-4   -5.053457511226251E-4    3.063783313275342E-4   -5.018222906651659E-4   -4.593176731092686E-1   -1.319520579288777E-1
 1.004757553597500E+10  -3.379975617792079E-1   -3.106962948694342E-1    2.602644213529160E-4   -5.294014993853774E-4    2.917225282942267E-4   -5.155209096220329E-4   -4.596305261317888E-1   -1.313199728469031E-1
 1.004758495720000E+10  -3.385613550087262E-1   -3.102547946408307E-1    2.622835243067469E-4   -4.684196083744766E-4    2.816957417396887E-4   -4.697604539197220E-4   -4.595575903387994E-1   -1.307113384011305E-1
 1.004759437842500E+10  -3.389438624846552E-1   -3.096258140632398E-1    2.400315541306638E-4   -4.976928502167682E-4    3.081920114015464E-4   -4.783847822509103E-4   -4.599449625375800E-1   -1.298709861367947E-1
 1.004760379965000E+10  -3.394010981088958E-1   -3.093024498112939E-1    2.686720630213971E-4   -4.834916964729059E-4    3.006822311601223E-4   -4.623149992977289E-4   -4.599116213272168E-1   -1.292033128049010E-1
 1.004761322087500E+10  -3.397945147874891E-1   -3.087237900116314E-1    2.724334394868896E-4   -4.434400421536291E-4    3.068728127512242E-4   -4.561450661506514E-4   -4.600854411024698E-1   -1.285502856449667E-1
 1.004762264210000E+10  -3.401571403999323E-1   -3.083676329356110E-1    2.255790808183955E-4   -4.833847194760069E-4    2.921626024061882E-4   -4.259018380849424E-4   -4.602966662266935E-1   -1.279271555245858E-1
 1.004763206332500E+10  -3.406424735544836E-1   -3.079146703703631E-1    2.400427099274689E-4   -4.899257326212365E-4    2.853808662424799E-4   -4.657605689591808E-4   -4.604518244621419E-1   -1.271065217662353E-1
 1.004764148455000E+10  -3.410219572845626E-1   -3.072807642257339E-1    2.369582133084896E-4   -4.466804962283860E-4    2.811173061241919E-4   -4.328270813249329E-4   -4.606787267124286E-1   -1.265788030709605E-1
 1.004765090577500E+10  -3.414279755019942E-1   -3.069204209759533E-1    2.617042521181050E-4   -4.339112726085387E-4    2.715862612182287E-4   -4.495691579415071E-4   -4.606176522783214E-1   -1.258272120366505E-1
 1.004766032700000E+10  -3.418743052688702E-1   -3.065459510800679E-1    2.348804718477845E-4   -4.631162342393914E-4    2.696142031468609E-4   -4.337946148279081E-4   -4.609585369730368E-1   -1.253042780510824E-1
 1.004766974822500E+10  -3.423010543183954E-1   -3.059217415474784E-1    2.268098178560847E-4   -4.364037855186169E-4    2.843349215734866E-4   -4.141765925684299E-4   -4.609256314965648E-1   -1.246347681408696E-1
 1.004767916945000E+10  -3.425467629882384E-1   -3.054887098684164E-1    2.505368021764568E-4   -4.223796384460142E-4    2.571977496678516E-4   -4.139368360609809E-4   -4.612974320309473E-1   -1.238858218391737E-1
 1.004768859067500E+10  -3.430101450967758E-1   -3.049424207115359E-1    2.461873535099418E-4   -4.161998725680227E-4    2.983663231057486E-4   -4.103368104460970E-4   -4.612750735140835E-1   -1.231252046549006E-1
 1.004769801190000E+10  -3.434837601408900E-1   -3.045456808739592E-1    2.567716230560633E-4   -4.128771098818373E-4    2.713517365297289E-4   -4.042937713085259E-4   -4.614966035976648E-1   -1.225929335689583E-1
 1.004770743312500E+10  -3.438291275817734E-1   -3.040758761898511E-1    2.270282198218280E-4   -3.883166194911278E-4    2.721149316993130E-4   -4.020091099792279E-4   -4.615344626572824E-1   -1.219106520641506E-1
 1.004771685435000E+10  -3.442169043362888E-1   -3.035954475317085E-1    2.275452465461260E-4   -4.100920205204644E-4    2.678863206518606E-4   -3.685748118271544E-4   -4.616749742194660E-1   -1.211878739104038E-1
 1.004772627557500E+10  -3.446526500617827E-1   -3.030715632553321E-1    2.206525196746847E-4   -3.906742095564424E-4    2.806190516772772E-4   -3.910012625672401E-4   -4.618498884279622E-1   -1.206108201899006E-1
 1.004773569680000E+10  -3.450757077622186E-1   -3.026724717415914E-1    2.470271181337978E-4   -3.835838051516991E-4    2.768667818665254E-4   -3.703768859890668E-4   -4.620671074701884E-1   -1.197257422521397E-1
 1.004774511802500E+10  -3.454159145101543E-1   -3.021226533652233E-1    2.445578993530155E-4   -3.643625988559635E-4    2.920985813719039E-4   -3.753051251434709E-4   -4.620739781560208E-1   -1.192149789292715E-1
 1.004775453925000E+10  -3.458182545172614E-1   -3.016094438496916E-1    2.651687402212132E-4   -3.616578965150722E-4    2.743960025651550E-4   -3.699691514090044E-4   -4.621778439239947E-1   -1.183992414479338E-1
