#  HZ   S   RI   R     50.00 
! Rohde & Schwarz Vector Network Analyzer 
! Rohde-Schwarz,ZNB20-2Port,1311601062101988,3.16
! Created: UTC 3/21/2024, 1:01:14 AM
! freq[Hz]                re:S11                  im:S11                  re:S21                  im:S21                  re:S12                  im:S12                  re:S22                  im:S22
 1.004680783300000E+10  -3.024313208111102E-1   -3.476955354282831E-1    4.018123601110060E-4   -7.885533416115435E-4    4.335402450880871E-4   -7.729018137493155E-4   -4.430469242814131E-1   -1.832299451264018E-1
 1.004681785500000E+10  -3.029345964704317E-1   -3.472280899149821E-1    3.703362148664714E-4   -7.630845255399385E-4    4.545242283692577E-4   -7.419119311520365E-4   -4.433440578375000E-1   -1.825029706274525E-1
 1.004682787700000E+10  -3.034094944320856E-1   -3.467993068982143E-1    3.749471562745620E-4   -7.656896204637267E-4    4.447383538176348E-4   -7.677299242821326E-4   -4.436395553108068E-1   -1.819227693582846E-1
 1.004683789900000E+10  -3.038671750359949E-1   -3.462625385746630E-1    3.882930224996508E-4   -7.876829877071142E-4    4.534458298244027E-4   -7.623517103164938E-4   -4.438926959985888E-1   -1.812431385589858E-1
 1.004684792100000E+10  -3.042905969221333E-1   -3.459590379595054E-1    3.747697666607235E-4   -7.677473450080057E-4    4.294891102464626E-4   -7.785881509769171E-4   -4.440860875824569E-1   -1.805913625959466E-1
 1.004685794300000E+10  -3.046441850516710E-1   -3.454371106736879E-1    3.686926324111795E-4   -7.713551902603551E-4    4.325279459417889E-4   -7.879953568615972E-4   -4.443529627208592E-1   -1.800203373718358E-1
 1.004686796500000E+10  -3.052610527756772E-1   -3.448003275706086E-1    3.675732193475706E-4   -7.629631952309941E-4    4.469749216400225E-4   -7.465409128936246E-4   -4.444741600791052E-1   -1.793690346754497E-1
 1.004687798700000E+10  -3.057208986476971E-1   -3.445518322321442E-1    3.778828113824592E-4   -7.696174083081690E-4    4.347316236257737E-4   -7.555051254920359E-4   -4.448735944795095E-1   -1.786648182769840E-1
 1.004688800900000E+10  -3.061843258448304E-1   -3.441308285688475E-1    3.867422858151141E-4   -7.553546866856617E-4    4.158403335519907E-4   -7.541534311737156E-4   -4.451017389358131E-1   -1.781380821955821E-1
 1.004689803100000E+10  -3.066383203976911E-1   -3.435831357726507E-1    3.712178909936856E-4   -7.717936293483801E-4    4.037084245798620E-4   -7.412372677447509E-4   -4.452592005299860E-1   -1.773513556207056E-1
 1.004690805300000E+10  -3.071603175554387E-1   -3.430121852101357E-1    3.503516111827409E-4   -7.364719613456164E-4    3.933448328709832E-4   -7.402420877243229E-4   -4.454821235456602E-1   -1.769463480889741E-1
 1.004691807500000E+10  -3.076295811854424E-1   -3.426442707193818E-1    3.688242891983499E-4   -7.848889263083847E-4    4.129703570236369E-4   -7.360958537853112E-4   -4.458322585130157E-1   -1.761998876352320E-1
 1.004692809700000E+10  -3.082505654775704E-1   -3.421628210731602E-1    3.616077528709405E-4   -7.400512710587852E-4    4.245654420087435E-4   -7.306630219006548E-4   -4.459504618706294E-1   -1.755922019066578E-1
 1.004693811900000E+10  -3.086552644328366E-1   -3.416353540358240E-1    3.733575811764001E-4   -7.687720757293537E-4    4.594151643413408E-4   -7.472195872679198E-4   -4.463184892060238E-1   -1.748865400736535E-1
 1.004694814100000E+10  -3.090059885029131E-1   -3.412949696805444E-1    3.625664705569035E-4   -7.366839340012279E-4    4.367059056580521E-4   -7.269529151556561E-4   -4.464784687228419E-1   -1.742396473247051E-1
 1.004695816300000E+10  -3.096176968535134E-1   -3.407798255971214E-1    3.357438910906077E-4   -7.653628337173280E-4    4.070454017016769E-4   -7.545186258007276E-4   -4.467209819972637E-1   -1.736478311645651E-1
 1.004696818500000E+10  -3.100855451909178E-1   -3.402854571732352E-1    3.797896254361633E-4   -7.341998834289936E-4    4.145706787398589E-4   -7.576756591485957E-4   -4.467983546732430E-1   -1.729726275095409E-1
 1.004697820700000E+10  -3.104304790793567E-1   -3.397846666057233E-1    3.669264593833890E-4   -7.467343839496292E-4    4.179182444153296E-4   -6.991550027643828E-4   -4.470698607198803E-1   -1.724833757443265E-1
 1.004698822900000E+10  -3.110857188700809E-1   -3.395163173039683E-1    3.713110121493460E-4   -7.358457020471119E-4    4.281520921468629E-4   -7.272577343769404E-4   -4.472235680067274E-1   -1.716687986016761E-1
 1.004699825100000E+10  -3.115363871740526E-1   -3.389395593949530E-1    3.370869424117240E-4   -7.485003344750877E-4    4.189497176691699E-4   -7.189031840155563E-4   -4.475869398796937E-1   -1.710314111772003E-1
 1.004700827300000E+10  -3.120013939567022E-1   -3.385687638726837E-1    3.475713094856171E-4   -7.210029107991350E-4    4.112224072663929E-4   -7.206983370614392E-4   -4.478565368002075E-1   -1.703304740737991E-1
 1.004701829500000E+10  -3.124946767533901E-1   -3.379791466430117E-1    3.429734973444515E-4   -7.304827775798263E-4    3.969878489887308E-4   -7.286786638787450E-4   -4.481430613939827E-1   -1.697684716377229E-1
 1.004702831700000E+10  -3.128520172147636E-1   -3.374449697212650E-1    3.489729315151919E-4   -7.394295887482360E-4    4.122671322215017E-4   -7.138468678479654E-4   -4.481844685430488E-1   -1.692389823887012E-1
 1.004703833900000E+10  -3.134320121950838E-1   -3.371634498350281E-1    3.167023751980759E-4   -7.075144610967727E-4    4.288964082660001E-4   -7.080515697478554E-4   -4.483637185179606E-1   -1.684467139069964E-1
 1.004704836100000E+10  -3.137977397353438E-1   -3.366595955012545E-1    3.371709346443689E-4   -7.138508851184404E-4    3.835181426577956E-4   -7.198944631050876E-4   -4.486720408216927E-1   -1.678986202118104E-1
 1.004705838300000E+10  -3.143146185318271E-1   -3.361632664006939E-1    3.095526674118926E-4   -7.214707921206878E-4    3.966938831416706E-4   -7.073716406808447E-4   -4.489453622292806E-1   -1.671621617271249E-1
 1.004706840500000E+10  -3.147817656702921E-1   -3.355610953038259E-1    3.294488102945196E-4   -7.442763594297364E-4    4.191270905363107E-4   -7.248191486602710E-4   -4.491317320969636E-1   -1.664724977150037E-1
 1.004707842700000E+10  -3.151907738371333E-1   -3.351645449205357E-1    3.419281894829482E-4   -7.350256726701775E-4    3.805295431299608E-4   -6.910537839784301E-4   -4.492288073914137E-1   -1.659292083595530E-1
 1.004708844900000E+10  -3.155373170010880E-1   -3.346405629281414E-1    3.565206978593337E-4   -7.105591726510551E-4    4.086955627088191E-4   -7.122994824365992E-4   -4.495340650764414E-1   -1.652971239612027E-1
 1.004709847100000E+10  -3.161593882496381E-1   -3.343239577644039E-1    3.394194528610585E-4   -7.437901930830577E-4    4.347448095952751E-4   -6.987726594459095E-4   -4.498435213651877E-1   -1.645614027470424E-1
 1.004710849300000E+10  -3.166750697927478E-1   -3.338450222285299E-1    3.674424505981811E-4   -6.648836093848193E-4    4.031643435423533E-4   -6.859295032264972E-4   -4.500159305744644E-1   -1.639670785704415E-1
 1.004711851500000E+10  -3.172470495206084E-1   -3.332771995937107E-1    3.622250667172804E-4   -7.003399421584353E-4    3.854020009337608E-4   -6.932093877673518E-4   -4.501178687653026E-1   -1.633359239134241E-1
 1.004712853700000E+10  -3.177085794647689E-1   -3.328536402711500E-1    3.308780076557710E-4   -6.826667153508127E-4    3.801042965909927E-4   -6.596687991439244E-4   -4.503519086245457E-1   -1.626455142854419E-1
 1.004713855900000E+10  -3.181589728539563E-1   -3.323793562101515E-1    3.371016840575736E-4   -7.054345402461266E-4    3.822222706179846E-4   -7.000444012768260E-4   -4.508113599463618E-1   -1.619566229164746E-1
 1.004714858100000E+10  -3.184926873460727E-1   -3.317357283253460E-1    3.453569908489865E-4   -6.888928531966488E-4    3.722525773788609E-4   -7.094811625851391E-4   -4.509566202247637E-1   -1.613517710623968E-1
 1.004715860300000E+10  -3.190579114876406E-1   -3.313278949003669E-1    3.195280168964947E-4   -6.935756460591150E-4    3.998770045083981E-4   -6.573187952980195E-4   -4.511262209712776E-1   -1.606091928690491E-1
 1.004716862500000E+10  -3.194241753262420E-1   -3.309056212065725E-1    3.179191469419131E-4   -6.919273943843976E-4    3.893778521961519E-4   -6.984706363764967E-4   -4.513132961194621E-1   -1.600513693719519E-1
 1.004717864700000E+10  -3.199444342174591E-1   -3.304567474883455E-1    3.413061256848962E-4   -6.767683007800608E-4    3.354903093698804E-4   -6.787015215006686E-4   -4.516235892646936E-1   -1.591748083222132E-1
 1.004718866900000E+10  -3.204887464667471E-1   -3.299345143917791E-1    3.307077102576135E-4   -6.883065067736251E-4    3.864350276195876E-4   -6.537482246253109E-4   -4.517442097539444E-1   -1.586397560511543E-1
 1.004719869100000E+10  -3.207564093034735E-1   -3.295916835805695E-1    3.328056892421433E-4   -6.772092973049634E-4    3.724475171564853E-4   -6.864062220570554E-4   -4.518655031066383E-1   -1.579359529275090E-1
 1.004720871300000E+10  -3.212707585579236E-1   -3.291384155233635E-1    3.213452453114805E-4   -6.775172894959863E-4    3.902720503366173E-4   -6.406988380960874E-4   -4.520630506086195E-1   -1.574674364021433E-1
 1.004721873500000E+10  -3.217863295721880E-1   -3.285156263154472E-1    3.141206315261625E-4   -6.767110876854589E-4    3.441275088517240E-4   -6.380939548899795E-4   -4.523163953651876E-1   -1.567085517394350E-1
 1.004722875700000E+10  -3.222701165881636E-1   -3.280417759284066E-1    2.950132294245280E-4   -6.891351654508482E-4    3.834551698844169E-4   -6.775669200119694E-4   -4.525830470683159E-1   -1.560380158083027E-1
 1.004723877900000E+10  -3.227256813147384E-1   -3.274856987496052E-1    3.120978360623918E-4   -6.541427357317929E-4    3.671390117458445E-4   -6.543715046315138E-4   -4.526488544219716E-1   -1.553680988975922E-1
 1.004724880100000E+10  -3.231190542792748E-1   -3.271666549431561E-1    3.023777276490365E-4   -6.834230113103926E-4    3.647854057336513E-4   -6.652499934943619E-4   -4.529164533931226E-1   -1.546001655660709E-1
 1.004725882300000E+10  -3.235677667658401E-1   -3.266085797757440E-1    2.943685099845673E-4   -6.458073076425524E-4    3.841947183046301E-4   -6.314011439624174E-4   -4.532517944538578E-1   -1.539382616841015E-1
 1.004726884500000E+10  -3.240421125031376E-1   -3.262228748389046E-1    3.131582736709351E-4   -6.592283295948776E-4    3.759276586954644E-4   -6.263497990008401E-4   -4.534394414117806E-1   -1.533859612432715E-1
 1.004727886700000E+10  -3.244615498162463E-1   -3.256112339809585E-1    3.103209453903235E-4   -6.629245630920875E-4    3.564186022992625E-4   -6.606802645614332E-4   -4.535759070216032E-1   -1.528279248793216E-1
 1.004728888900000E+10  -3.250309270604502E-1   -3.250782138100839E-1    3.022460991455941E-4   -6.627348677425876E-4    3.434088116275312E-4   -6.417064633835505E-4   -4.537843272758796E-1   -1.520121330590448E-1
 1.004729891100000E+10  -3.252331778693096E-1   -3.246494179148617E-1    3.035938568659072E-4   -6.638338618411297E-4    3.576826600845761E-4   -6.080288737850059E-4   -4.539338776782275E-1   -1.512293640114793E-1
 1.004730893300000E+10  -3.259291337702407E-1   -3.242144852066869E-1    3.202316560274585E-4   -6.651712208783158E-4    3.555756957946376E-4   -6.599126078840338E-4   -4.540177499541939E-1   -1.506062908185643E-1
 1.004731895500000E+10  -3.262915439932961E-1   -3.237828202082338E-1    2.660631184638398E-4   -6.351974168652865E-4    3.673196382287039E-4   -6.593001525934534E-4   -4.543992996780122E-1   -1.500337913154141E-1
 1.004732897700000E+10  -3.269072667526988E-1   -3.231901563542919E-1    2.944105946397543E-4   -6.458694630857829E-4    3.509882885958257E-4   -6.316262834626904E-4   -4.545884174793046E-1   -1.491871211300161E-1
 1.004733899900000E+10  -3.273397162892216E-1   -3.227734842544726E-1    2.983399423702228E-4   -6.248475317593966E-4    3.494146736789928E-4   -6.236690205761546E-4   -4.547026757197925E-1   -1.487415729363471E-1
 1.004734902100000E+10  -3.276328342216962E-1   -3.222911044679591E-1    2.795470908694073E-4   -6.297736033426893E-4    3.590106261431259E-4   -6.193994869270457E-4   -4.548590686522540E-1   -1.480914624771456E-1
 1.004735904300000E+10  -3.281180961477749E-1   -3.218097494646791E-1    3.062040853536159E-4   -6.406185717291193E-4    3.392548156879203E-4   -5.863393022336377E-4   -4.550074504231139E-1   -1.474010942983028E-1
 1.004736906500000E+10  -3.286775381305068E-1   -3.212968435038812E-1    2.884286918681536E-4   -6.295209131866009E-4    3.353467880371584E-4   -6.101016671490005E-4   -4.552042903764105E-1   -1.466461691177880E-1
 1.004737908700000E+10  -3.289564866488721E-1   -3.208062252575382E-1    3.056183275267304E-4   -6.182020952534917E-4    3.705469824799123E-4   -5.904816672243670E-4   -4.554328931588482E-1   -1.460039865564653E-1
 1.004738910900000E+10  -3.294280047641746E-1   -3.202302574004701E-1    3.117154435057993E-4   -5.855578453408210E-4    3.231675828124923E-4   -6.180234440766092E-4   -4.556727900336730E-1   -1.453670370346916E-1
 1.004739913100000E+10  -3.299649461763907E-1   -3.198199180221963E-1    2.827677933813599E-4   -6.179925826866747E-4    3.501023747873724E-4   -5.946471895830658E-4   -4.558400133213391E-1   -1.445389171514674E-1
 1.004740915300000E+10  -3.302258426417868E-1   -3.193354569131213E-1    2.692346018707571E-4   -5.902373209372836E-4    3.206843630501493E-4   -5.888247038161987E-4   -4.560622827424674E-1   -1.439576775637668E-1
 1.004741917500000E+10  -3.308045227162378E-1   -3.188821124021662E-1    2.906836287852934E-4   -5.771949081176562E-4    3.297709732331713E-4   -5.874069282540986E-4   -4.562879358909202E-1   -1.432853025802477E-1
 1.004742919700000E+10  -3.312449714757758E-1   -3.182430370122961E-1    2.886808621176856E-4   -6.121180706181137E-4    3.308519208584383E-4   -6.020251103571571E-4   -4.562381936915861E-1   -1.425719915942847E-1
 1.004743921900000E+10  -3.315640725913896E-1   -3.177452089283344E-1    2.473645719472623E-4   -5.996105331594334E-4    3.291018403077655E-4   -5.606789985226003E-4   -4.564567261973662E-1   -1.418897024543662E-1
 1.004744924100000E+10  -3.320956229673696E-1   -3.173885571980413E-1    2.655835132944566E-4   -5.699461036849329E-4    3.348061919239280E-4   -5.937322393015969E-4   -4.569176512619122E-1   -1.410497921733833E-1
 1.004745926300000E+10  -3.326551657434381E-1   -3.168862009794599E-1    2.718484601199579E-4   -5.646219979184661E-4    3.506454237394705E-4   -5.929914799371358E-4   -4.570418248826492E-1   -1.404792465545420E-1
 1.004746928500000E+10  -3.330521099887897E-1   -3.164531132363436E-1    2.581510921274246E-4   -5.532108083203199E-4    3.376559088356451E-4   -5.664350968605563E-4   -4.570459907795405E-1   -1.399235834426771E-1
 1.004747930700000E+10  -3.333982996422454E-1   -3.159107104797350E-1    2.802749308254416E-4   -5.895968082392564E-4    3.166613876942996E-4   -5.469805058967215E-4   -4.574465365659108E-1   -1.390647469877656E-1
 1.004748932900000E+10  -3.338723433533869E-1   -3.152780231046870E-1    2.686747912697445E-4   -5.568946639003623E-4    3.355636491631480E-4   -5.360858508980107E-4   -4.574173145589920E-1   -1.384809482985494E-1
 1.004749935100000E+10  -3.343624624417868E-1   -3.148808083951833E-1    2.710788374277136E-4   -5.525517904828085E-4    3.167799598141244E-4   -5.703379137120625E-4   -4.576524044542483E-1   -1.377420961375678E-1
 1.004750937300000E+10  -3.347935338990775E-1   -3.143066051459600E-1    2.764157316850784E-4   -5.216814759890588E-4    3.117244140725205E-4   -5.112514002609087E-4   -4.579353871466687E-1   -1.370209714892387E-1
 1.004751939500000E+10  -3.352011399415739E-1   -3.139683754731608E-1    2.854945233601354E-4   -5.241841937318573E-4    3.110736099206567E-4   -5.098943364352658E-4   -4.580512812094399E-1   -1.364070318330849E-1
 1.004752941700000E+10  -3.355741177139912E-1   -3.134461034611842E-1    2.783515426592355E-4   -5.376653184212497E-4    3.042701414352432E-4   -5.090330537938857E-4   -4.580384169608073E-1   -1.357532438958571E-1
 1.004753943900000E+10  -3.360893305369697E-1   -3.128126895785622E-1    2.665407035862595E-4   -5.212094317511121E-4    3.225390271178378E-4   -5.180232881685147E-4   -4.584335112993495E-1   -1.349847336492481E-1
 1.004754946100000E+10  -3.364611332149430E-1   -3.123028801168550E-1    2.726614675240048E-4   -5.119905957562249E-4    3.065435995527443E-4   -5.093159216840412E-4   -4.584861632530374E-1   -1.342660041909259E-1
 1.004755948300000E+10  -3.369097333865516E-1   -3.117987651753402E-1    2.689798555620573E-4   -5.206249573532558E-4    2.939383307397674E-4   -5.024406878335775E-4   -4.587322896166898E-1   -1.335490323338860E-1
 1.004756950500000E+10  -3.374473107389280E-1   -3.114790143564676E-1    2.417091425868129E-4   -5.205978022217436E-4    3.085337779530312E-4   -5.063917710964269E-4   -4.587895851420705E-1   -1.329361270996786E-1
 1.004757952700000E+10  -3.378879376356815E-1   -3.108708838070835E-1    2.473339506640177E-4   -4.936586924568612E-4    3.067869349968201E-4   -4.809558695071709E-4   -4.590015631392967E-1   -1.322572716604740E-1
 1.004758954900000E+10  -3.383229635187224E-1   -3.103481556679047E-1    2.847568061566295E-4   -4.961059772704167E-4    2.788535281009006E-4   -4.872930605895822E-4   -4.592860643833347E-1   -1.315159429291733E-1
 1.004759957100000E+10  -3.386394234649889E-1   -3.098407043088984E-1    2.544389592200917E-4   -5.020800900923713E-4    3.028532064568991E-4   -4.614768271592607E-4   -4.593095159676066E-1   -1.307226570326065E-1
 1.004760959300000E+10  -3.390638164205103E-1   -3.094450759493750E-1    2.568161916771216E-4   -4.908040397268226E-4    3.147911418418763E-4   -4.532892270273783E-4   -4.595418807978636E-1   -1.302209601811669E-1
 1.004761961500000E+10  -3.396246647581943E-1   -3.089844913578277E-1    2.872152667186316E-4   -4.757863329015507E-4    3.011340404641847E-4   -4.723677922966807E-4   -4.597143996705725E-1   -1.293118865681755E-1
 1.004762963700000E+10  -3.400360764682157E-1   -3.084512008702913E-1    2.620656325411001E-4   -4.525169777175889E-4    3.108259192692103E-4   -4.134195185807650E-4   -4.598283771893522E-1   -1.285839133384060E-1
 1.004763965900000E+10  -3.403802962779668E-1   -3.077749330488939E-1    2.479592716750446E-4   -4.681643951267328E-4    3.023026057366969E-4   -4.496147488796843E-4   -4.599547166958713E-1   -1.279019532423564E-1
 1.004764968100000E+10  -3.409376617646820E-1   -3.072471985164222E-1    2.419371144425113E-4   -4.364886612156376E-4    2.891347168449101E-4   -4.626395296414437E-4   -4.602512890179148E-1   -1.272819995149480E-1
 1.004765970300000E+10  -3.413433104791057E-1   -3.068139099479931E-1    2.525786125407484E-4   -4.304051088963895E-4    2.846270802848076E-4   -4.314702422891133E-4   -4.601834611645268E-1   -1.266110668410755E-1
 1.004766972500000E+10  -3.417308999861852E-1   -3.062979475502741E-1    2.761946954849160E-4   -4.538525482165629E-4    3.043104348943301E-4   -4.508346933960395E-4   -4.605007516986050E-1   -1.257855533513927E-1
 1.004767974700000E+10  -3.421470303520774E-1   -3.058807334815455E-1    2.745238306242125E-4   -4.263541268707465E-4    2.730905634254125E-4   -4.416001822876342E-4   -4.606464770489896E-1   -1.251946096432155E-1
 1.004768976900000E+10  -3.425843712671875E-1   -3.053454326775962E-1    2.583533513068048E-4   -4.198913021604992E-4    2.879668024883280E-4   -4.160395394496034E-4   -4.608699341937348E-1   -1.244765339716935E-1
 1.004769979100000E+10  -3.430791606935903E-1   -3.048561875859678E-1    2.701981127901164E-4   -4.334625163345311E-4    3.152204978607775E-4   -4.064138665372016E-4   -4.609696727563959E-1   -1.236131858363112E-1
 1.004770981300000E+10  -3.434929255861879E-1   -3.042643273915601E-1    2.462775192382101E-4   -4.138890423070346E-4    2.785199701127882E-4   -3.833033660867439E-4   -4.609617715567210E-1   -1.229130601434720E-1
