#  HZ   S   RI   R     50.00 
! Rohde & Schwarz Vector Network Analyzer 
! Rohde-Schwarz,ZNB20-2Port,1311601062101988,3.16
! Created: UTC 3/21/2024, 1:01:47 AM
! freq[Hz]                re:S11                  im:S11                  re:S21                  im:S21                  re:S12                  im:S12                  re:S22                  im:S22
 1.004676211600000E+10  -2.997988974042582E-1   -3.499250703752331E-1    3.811943916702711E-4   -7.770929300703071E-4    4.345679979222469E-4   -7.574543152428529E-4   -4.417267757968178E-1   -1.866741995970999E-1
 1.004677240652500E+10  -3.003431226032577E-1   -3.495585918897181E-1    4.083211270706828E-4   -7.396160196513126E-4    4.444022139072705E-4   -7.825664178076007E-4   -4.418709057295039E-1   -1.859853917135103E-1
 1.004678269705000E+10  -3.008670940660006E-1   -3.489454337741080E-1    3.993273670689898E-4   -7.596060904651711E-4    4.650036050321729E-4   -7.621394159870709E-4   -4.422281286255602E-1   -1.851273837970270E-1
 1.004679298757500E+10  -3.013760408558558E-1   -3.484473959998825E-1    3.848728459313569E-4   -7.740544525268121E-4    4.816128267286445E-4   -7.912273357891475E-4   -4.424981944549050E-1   -1.847225926026975E-1
 1.004680327810000E+10  -3.018289625547728E-1   -3.480802127872322E-1    3.967697585895453E-4   -7.787180779846165E-4    4.399148070851218E-4   -7.579495708280244E-4   -4.427166027503939E-1   -1.840516513718837E-1
 1.004681356862500E+10  -3.023685352739560E-1   -3.475422686635261E-1    3.723497168819769E-4   -7.898018146683853E-4    4.178023399557250E-4   -7.596942557043991E-4   -4.430192566634706E-1   -1.833602452282795E-1
 1.004682385915000E+10  -3.028624192180875E-1   -3.471210864853991E-1    3.722491896242985E-4   -7.899913554784882E-4    4.777000961408475E-4   -7.736694602119916E-4   -4.432876973069867E-1   -1.827342812670197E-1
 1.004683414967500E+10  -3.033517021530778E-1   -3.465773551388348E-1    4.080021681929824E-4   -7.467357937752585E-4    4.609785464573629E-4   -7.585724435539597E-4   -4.435310781434679E-1   -1.820048048155254E-1
 1.004684444020000E+10  -3.038767919475481E-1   -3.461156903319672E-1    3.709894372541291E-4   -7.555917428846113E-4    4.215041833551852E-4   -7.703821700572057E-4   -4.437374672706341E-1   -1.813356508330321E-1
 1.004685473072500E+10  -3.043141696924388E-1   -3.457148413807621E-1    3.894836030203120E-4   -7.660774053313425E-4    4.468701071921547E-4   -7.371970111730233E-4   -4.439346399069944E-1   -1.806812729051193E-1
 1.004686502125000E+10  -3.047605544194853E-1   -3.451566049675830E-1    3.961358416010237E-4   -7.561085132990424E-4    4.441663618523258E-4   -7.269817521563829E-4   -4.442687942423931E-1   -1.799656538002402E-1
 1.004687531177500E+10  -3.054794175352569E-1   -3.446830408922387E-1    3.730441199091131E-4   -7.601382670349543E-4    4.414956636707028E-4   -7.574059388050209E-4   -4.444202288823615E-1   -1.795259077082145E-1
 1.004688560230000E+10  -3.057557648321302E-1   -3.441153289970591E-1    3.694687728236237E-4   -7.744192247305814E-4    4.525726040491577E-4   -7.340886082087311E-4   -4.446219942592813E-1   -1.787780710072178E-1
 1.004689589282500E+10  -3.064815780650930E-1   -3.437638801567899E-1    3.923490972347911E-4   -7.646017218207158E-4    4.406084609328112E-4   -7.488322272575114E-4   -4.448817459223155E-1   -1.779366785612083E-1
 1.004690618335000E+10  -3.069247803948266E-1   -3.433493996322169E-1    3.693304445307115E-4   -7.714986977638996E-4    4.302919606333959E-4   -7.739315930137255E-4   -4.451116437761878E-1   -1.775209587875732E-1
 1.004691647387500E+10  -3.073419592699582E-1   -3.428956672134847E-1    3.694661409035685E-4   -7.836304074662182E-4    4.190185376833989E-4   -7.416853107151940E-4   -4.455589736544420E-1   -1.768276704131474E-1
 1.004692676440000E+10  -3.078308423960149E-1   -3.423621767491988E-1    3.925609769853747E-4   -7.484070470341307E-4    4.555906304926156E-4   -7.348952577853758E-4   -4.457330971481701E-1   -1.762297645247415E-1
 1.004693705492500E+10  -3.083687143737208E-1   -3.419466228430351E-1    3.896451693975902E-4   -7.360341284674973E-4    4.173956025509492E-4   -7.207935807254424E-4   -4.458885731452361E-1   -1.755850015915439E-1
 1.004694734545000E+10  -3.087707555241113E-1   -3.414427116620487E-1    3.602927983893579E-4   -7.456499477331022E-4    4.328658835701697E-4   -7.370606388793239E-4   -4.461455854398546E-1   -1.748316877373780E-1
 1.004695763597500E+10  -3.094055259821404E-1   -3.410269062221706E-1    3.547176141423610E-4   -7.586191926066937E-4    4.245661662478609E-4   -7.252266953807888E-4   -4.462899369475484E-1   -1.741495891754034E-1
 1.004696792650000E+10  -3.097436828353586E-1   -3.404231731226894E-1    3.492620112931127E-4   -7.444514435081403E-4    3.941260439713692E-4   -7.513172442574177E-4   -4.467018589814227E-1   -1.735549284886029E-1
 1.004697821702500E+10  -3.103153855862468E-1   -3.400040844943359E-1    3.702976904208121E-4   -7.434418698617013E-4    4.416735943640711E-4   -7.239470237610994E-4   -4.467776213481538E-1   -1.729043471990326E-1
 1.004698850755000E+10  -3.106215646592447E-1   -3.395357688274394E-1    3.305746267100356E-4   -7.237763983982160E-4    4.202209787604185E-4   -7.392080212721640E-4   -4.471792049628951E-1   -1.721338107598785E-1
 1.004699879807500E+10  -3.111828003099075E-1   -3.391363879304028E-1    3.305853857766480E-4   -7.452288454609466E-4    3.871314782504418E-4   -7.201701539393627E-4   -4.472243237673517E-1   -1.715653970780168E-1
 1.004700908860000E+10  -3.118926968704456E-1   -3.385439666801431E-1    3.335302894044100E-4   -7.303877305396289E-4    3.932675044950908E-4   -7.402232297734143E-4   -4.474830998681041E-1   -1.707352132075550E-1
 1.004701937912500E+10  -3.122568636088490E-1   -3.380764408300360E-1    3.963632499836086E-4   -7.196957412754812E-4    4.024726670354084E-4   -6.967215490039078E-4   -4.477166432221689E-1   -1.701473030820868E-1
 1.004702966965000E+10  -3.127136014812879E-1   -3.375698668624521E-1    3.370680094327271E-4   -7.352513131769823E-4    4.362136724313409E-4   -7.216709020069569E-4   -4.480365205111053E-1   -1.695119183810661E-1
 1.004703996017500E+10  -3.131868293365675E-1   -3.371226126555039E-1    3.683506136358699E-4   -7.230709012012585E-4    4.076028692763683E-4   -7.090964540574515E-4   -4.484567385249026E-1   -1.689397875534336E-1
 1.004705025070000E+10  -3.136425294142792E-1   -3.366629172495115E-1    3.366218536499666E-4   -7.168434362653856E-4    3.911940643496398E-4   -7.428379828410499E-4   -4.485104077098250E-1   -1.683316069573095E-1
 1.004706054122500E+10  -3.142294589284851E-1   -3.361029549585599E-1    3.413233622420360E-4   -7.117775532105577E-4    3.767939008644754E-4   -7.027690276800980E-4   -4.486515357465156E-1   -1.676433138072322E-1
 1.004707083175000E+10  -3.147148049225551E-1   -3.358220413851987E-1    3.356819498289194E-4   -7.199217684666925E-4    3.762462007805968E-4   -6.978126466658458E-4   -4.489759227068930E-1   -1.669097208308175E-1
 1.004708112227500E+10  -3.150081940938311E-1   -3.352780000445135E-1    3.297256860432238E-4   -6.910746995185115E-4    3.812018320384985E-4   -7.049933965658687E-4   -4.490191482389125E-1   -1.662122808802620E-1
 1.004709141280000E+10  -3.155390798191291E-1   -3.346966452401760E-1    3.446821508317879E-4   -7.143914691232061E-4    4.088375117421684E-4   -7.114344207683804E-4   -4.494193979592558E-1   -1.655571936535090E-1
 1.004710170332500E+10  -3.160767959063919E-1   -3.343133597864851E-1    3.448973412992992E-4   -7.281211492102474E-4    3.946814415955128E-4   -6.753142473469136E-4   -4.496244273402574E-1   -1.646939186512419E-1
 1.004711199385000E+10  -3.164765338560679E-1   -3.337569340709772E-1    3.447197566666038E-4   -7.138477282091829E-4    4.015651204229453E-4   -7.072563171629414E-4   -4.498037597812065E-1   -1.641525716969715E-1
 1.004712228437500E+10  -3.170021856011150E-1   -3.332574278364890E-1    3.224914378981903E-4   -6.813744195431529E-4    3.987024344468696E-4   -6.797477930134179E-4   -4.500871457890129E-1   -1.636282494392750E-1
 1.004713257490000E+10  -3.174824412111458E-1   -3.328302430567847E-1    3.456246366396951E-4   -6.953647151958579E-4    3.941092644800255E-4   -7.097761635651222E-4   -4.501565657158629E-1   -1.628774783884181E-1
 1.004714286542500E+10  -3.179864166069536E-1   -3.324599580522497E-1    3.437529220998943E-4   -7.003319194840333E-4    3.881180167591242E-4   -6.604169393465387E-4   -4.504928984521587E-1   -1.621449333925646E-1
 1.004715315595000E+10  -3.186105890329755E-1   -3.317637993620429E-1    3.321898762513289E-4   -7.281252796944461E-4    3.735620877926978E-4   -7.174238417606308E-4   -4.505856813177035E-1   -1.614779978735081E-1
 1.004716344647500E+10  -3.190266138477784E-1   -3.313316598706665E-1    3.174960521051377E-4   -6.896943727574992E-4    4.065366197071204E-4   -6.730696619485870E-4   -4.506461440911486E-1   -1.608598024089021E-1
 1.004717373700000E+10  -3.195030431841496E-1   -3.307800234424241E-1    3.406561947169592E-4   -6.879129370428421E-4    4.004007297176622E-4   -7.003109396235189E-4   -4.510845002879353E-1   -1.603260500916275E-1
 1.004718402752500E+10  -3.199390513766277E-1   -3.303254587912525E-1    3.445642437474912E-4   -6.739256564544691E-4    3.639635165489936E-4   -6.777751038813169E-4   -4.512886242072190E-1   -1.594747623237117E-1
 1.004719431805000E+10  -3.203536844540300E-1   -3.298561516939850E-1    3.176860643993300E-4   -6.748478243581693E-4    3.816464733662229E-4   -6.634835708134333E-4   -4.516519849930789E-1   -1.587899871031110E-1
 1.004720460857500E+10  -3.209096252811166E-1   -3.293480718761402E-1    3.107796156462237E-4   -7.007147035631692E-4    3.729028873188212E-4   -6.662078684882283E-4   -4.516769609776458E-1   -1.581572015074524E-1
 1.004721489910000E+10  -3.213433616508444E-1   -3.288280036559271E-1    3.352104704108725E-4   -6.718760706494815E-4    3.877331537954358E-4   -6.640381227439273E-4   -4.518508244075716E-1   -1.575870213493672E-1
 1.004722518962500E+10  -3.217927949020182E-1   -3.284367627091423E-1    3.097262682344127E-4   -6.722855396535642E-4    3.532951335126449E-4   -6.489102409425777E-4   -4.521456630738854E-1   -1.566456357821839E-1
 1.004723548015000E+10  -3.222752985358161E-1   -3.279704466477631E-1    3.215666502858046E-4   -6.820718212676529E-4    3.729765033988589E-4   -6.869863324955569E-4   -4.524343301346205E-1   -1.560928245619823E-1
 1.004724577067500E+10  -3.227333546526436E-1   -3.273461086185964E-1    3.015948366193418E-4   -6.704196297308553E-4    3.913767121601778E-4   -6.543108629702705E-4   -4.525175777129995E-1   -1.553660885578754E-1
 1.004725606120000E+10  -3.231582718511014E-1   -3.269234929704440E-1    3.211911066049674E-4   -6.615992618509238E-4    3.977109169040571E-4   -6.599103346402764E-4   -4.528130611344630E-1   -1.547086593723712E-1
 1.004726635172500E+10  -3.236634863066932E-1   -3.263693298881216E-1    3.304889136599629E-4   -6.538237131077198E-4    3.612015729541290E-4   -6.464930665973141E-4   -4.530273235528562E-1   -1.539038232508179E-1
 1.004727664225000E+10  -3.243142025742074E-1   -3.259893487898030E-1    3.059197089925802E-4   -6.516372411371678E-4    3.413950300440680E-4   -6.250713450396067E-4   -4.530910233926650E-1   -1.533317196744723E-1
 1.004728693277500E+10  -3.247075898800575E-1   -3.254761944891037E-1    2.923470418779738E-4   -6.467335030748370E-4    3.519435760110267E-4   -6.207609971199044E-4   -4.533118748375145E-1   -1.525831105144457E-1
 1.004729722330000E+10  -3.251717002476044E-1   -3.250285034648102E-1    3.002241839403344E-4   -6.427814700917773E-4    3.681701825172877E-4   -6.293254682799781E-4   -4.536336058747963E-1   -1.519374143339342E-1
 1.004730751382500E+10  -3.257015890175458E-1   -3.243300173137912E-1    3.174913147208624E-4   -6.409015354485230E-4    3.539806575870537E-4   -6.546196549231197E-4   -4.538354330950847E-1   -1.512677821898843E-1
 1.004731780435000E+10  -3.261037431849194E-1   -3.239454208720636E-1    2.910223349702457E-4   -6.329895997379905E-4    3.602036412740567E-4   -6.152523037411493E-4   -4.540157024929055E-1   -1.505455897625027E-1
 1.004732809487500E+10  -3.263273362199809E-1   -3.234580433193321E-1    3.158291060510124E-4   -6.493102163315366E-4    3.534167474559819E-4   -6.091234993964104E-4   -4.542139370413513E-1   -1.499992618635813E-1
 1.004733838540000E+10  -3.270145112821687E-1   -3.229836297430984E-1    3.288478405335972E-4   -6.102407396964599E-4    3.483089189754023E-4   -6.111822742664272E-4   -4.544643980054304E-1   -1.492503827599096E-1
 1.004734867592500E+10  -3.274027353903969E-1   -3.223760265578421E-1    3.067842620908788E-4   -6.195291376758533E-4    3.524590166278679E-4   -6.193912545020608E-4   -4.546347998242513E-1   -1.485213807793783E-1
 1.004735896645000E+10  -3.278986998246495E-1   -3.219587151226813E-1    3.041284971975766E-4   -6.323664334721159E-4    3.548818864625052E-4   -6.049455172959909E-4   -4.548451620109287E-1   -1.477410392707866E-1
 1.004736925697500E+10  -3.283734185571877E-1   -3.213527559692876E-1    3.099156022175337E-4   -5.914368168981124E-4    3.332596468128250E-4   -6.168029303939932E-4   -4.549256573707303E-1   -1.472072769252030E-1
 1.004737954750000E+10  -3.287733238771357E-1   -3.209452408671130E-1    2.789841580917047E-4   -5.961623641829206E-4    3.095382207072682E-4   -6.055593238325305E-4   -4.552937777357683E-1   -1.465021511462015E-1
 1.004738983802500E+10  -3.293109617715206E-1   -3.203684428676959E-1    2.720834929500727E-4   -6.098758792752865E-4    3.417340400662518E-4   -5.905001926017048E-4   -4.553934990218522E-1   -1.457556854606143E-1
 1.004740012855000E+10  -3.297725716702563E-1   -3.199819460546384E-1    2.792365049610902E-4   -6.029584112044534E-4    3.180835737437927E-4   -6.022483512608968E-4   -4.556179181587598E-1   -1.450524243422778E-1
 1.004741041907500E+10  -3.301196427338508E-1   -3.193922233891985E-1    2.979179391280986E-4   -6.377215642664178E-4    3.548403005519285E-4   -5.990164039092758E-4   -4.558103228964065E-1   -1.442787812437066E-1
 1.004742070960000E+10  -3.305991536068494E-1   -3.188739602404296E-1    2.659490048253754E-4   -5.619817718728068E-4    3.273975966841067E-4   -5.940124581651097E-4   -4.560878959406467E-1   -1.436886336880723E-1
 1.004743100012500E+10  -3.311670837628467E-1   -3.184221791736368E-1    2.761092576619432E-4   -5.943312864632974E-4    3.400189088424786E-4   -5.940764233153842E-4   -4.561159947298766E-1   -1.429210103224589E-1
 1.004744129065000E+10  -3.314272758785644E-1   -3.178530333407490E-1    2.950425751484859E-4   -5.787044663671943E-4    3.310179304007969E-4   -5.781606823056551E-4   -4.563607946787101E-1   -1.422844798864567E-1
 1.004745158117500E+10  -3.319210047403238E-1   -3.173831612126087E-1    2.755734666656186E-4   -5.588682553713386E-4    3.156907918202784E-4   -5.782301049624163E-4   -4.565697524485535E-1   -1.415725268993869E-1
 1.004746187170000E+10  -3.324917252085979E-1   -3.169351769533376E-1    2.960963608022474E-4   -5.499570155149829E-4    3.356614842004253E-4   -5.500282389809128E-4   -4.567916070896998E-1   -1.410233798686760E-1
 1.004747216222500E+10  -3.328468865393889E-1   -3.163496490791823E-1    2.882780361566446E-4   -5.432572070128947E-4    3.269382157491431E-4   -5.663328125322073E-4   -4.567550910361683E-1   -1.400115895702475E-1
 1.004748245275000E+10  -3.334055128121082E-1   -3.158891277692678E-1    2.505806091035451E-4   -5.529223300672741E-4    3.154835384463716E-4   -5.545000093764818E-4   -4.571144067345898E-1   -1.395035103784538E-1
 1.004749274327500E+10  -3.336074876548122E-1   -3.154869433684607E-1    2.659399447816804E-4   -5.588364974700341E-4    3.199970402540689E-4   -5.563333870970592E-4   -4.571308849542018E-1   -1.386390988585494E-1
 1.004750303380000E+10  -3.342322211397643E-1   -3.148638257406100E-1    2.930185888674604E-4   -5.365990119868976E-4    3.329015412501904E-4   -5.640710181212168E-4   -4.575163239218242E-1   -1.382004892869870E-1
 1.004751332432500E+10  -3.346191025661664E-1   -3.144304881574759E-1    2.754277300428210E-4   -5.620138291279265E-4    3.286022408657134E-4   -5.450693031485413E-4   -4.575117524162868E-1   -1.372499492597143E-1
 1.004752361485000E+10  -3.351095805703186E-1   -3.139189010255312E-1    2.683549498349246E-4   -5.632088954059797E-4    3.383795409913077E-4   -5.178179943677453E-4   -4.578396566556592E-1   -1.367093835299021E-1
 1.004753390537500E+10  -3.356503306334045E-1   -3.133096602374964E-1    2.831810515889589E-4   -5.263362928576459E-4    3.297148429934740E-4   -5.544023287111385E-4   -4.580119428815957E-1   -1.360021361096141E-1
 1.004754419590000E+10  -3.361184538815154E-1   -3.130062277304000E-1    2.708884174816492E-4   -5.355438027654156E-4    3.123539136264526E-4   -5.472382113019432E-4   -4.582569820331698E-1   -1.353431733302177E-1
 1.004755448642500E+10  -3.364016485879446E-1   -3.122671355135236E-1    2.723567247808595E-4   -5.334551136956605E-4    3.228906617228553E-4   -5.201184152175984E-4   -4.582660609547080E-1   -1.344758709202034E-1
 1.004756477695000E+10  -3.369894729656694E-1   -3.117881627315575E-1    2.725933216145226E-4   -5.082915470020405E-4    3.198844775075089E-4   -4.729768455485412E-4   -4.584783509349019E-1   -1.337483322686417E-1
 1.004757506747500E+10  -3.373121287952613E-1   -3.113047976622313E-1    2.678388801065383E-4   -5.097895841759235E-4    3.182566663945819E-4   -5.359176229439108E-4   -4.588133162745510E-1   -1.330859419587702E-1
 1.004758535800000E+10  -3.377863451868650E-1   -3.107762157876036E-1    2.722707636545602E-4   -5.096700637725422E-4    3.340047026782113E-4   -4.982860761815940E-4   -4.588092574724747E-1   -1.323806342374104E-1
 1.004759564852500E+10  -3.383385156618335E-1   -3.102534157150686E-1    2.620162040442906E-4   -4.690184382628095E-4    3.057282202508864E-4   -4.872940773937506E-4   -4.590251379954937E-1   -1.317580355380856E-1
 1.004760593905000E+10  -3.386735301602349E-1   -3.097144495316860E-1    2.961359769379048E-4   -4.975922019288605E-4    3.089457506272591E-4   -4.684614743445715E-4   -4.590695041786433E-1   -1.309057240841046E-1
 1.004761622957500E+10  -3.390247082092750E-1   -3.092567156723031E-1    2.899940302914631E-4   -4.937037737121892E-4    3.221445602530514E-4   -4.610549737360075E-4   -4.594800884445166E-1   -1.301624317687042E-1
 1.004762652010000E+10  -3.395535161151936E-1   -3.087324875876510E-1    2.697880683294111E-4   -4.549595206125491E-4    3.121731429815200E-4   -4.595918945394665E-4   -4.594545859899268E-1   -1.295602659415452E-1
 1.004763681062500E+10  -3.400927452282845E-1   -3.082563544668944E-1    2.860184910019025E-4   -4.734757116770731E-4    3.048591549267435E-4   -4.465227336623364E-4   -4.597233253463623E-1   -1.286843841545407E-1
 1.004764710115000E+10  -3.405037385643097E-1   -3.076561299257018E-1    2.321360222467888E-4   -4.588487871995969E-4    2.928907618743228E-4   -4.552190461698161E-4   -4.597922020604373E-1   -1.278584956303093E-1
 1.004765739167500E+10  -3.409063924772616E-1   -3.072240714075380E-1    2.749714487018832E-4   -4.773951984110117E-4    2.751649064525626E-4   -4.542486462741662E-4   -4.599350810246120E-1   -1.272401387983267E-1
 1.004766768220000E+10  -3.414462306230620E-1   -3.066336145400466E-1    2.686492721963991E-4   -4.366965724757628E-4    2.889674879629019E-4   -4.510531330480153E-4   -4.601445721906884E-1   -1.265747849682607E-1
 1.004767797272500E+10  -3.418999403815079E-1   -3.061386651552568E-1    2.816986151303333E-4   -4.497551779606700E-4    2.938751750074899E-4   -4.002450556261336E-4   -4.601946619884102E-1   -1.257396011315406E-1
 1.004768826325000E+10  -3.421954146740289E-1   -3.055616804507288E-1    2.540099765877137E-4   -4.390456411277723E-4    3.028451618278499E-4   -4.188818637812812E-4   -4.605065409483904E-1   -1.249056687966576E-1
