#  HZ   S   RI   R     50.00 
! Rohde & Schwarz Vector Network Analyzer 
! Rohde-Schwarz,ZNB20-2Port,1311601062101988,3.16
! Created: UTC 3/21/2024, 1:02:36 AM
! freq[Hz]                re:S11                  im:S11                  re:S21                  im:S21                  re:S12                  im:S12                  re:S22                  im:S22
 1.004666041900000E+10  -2.944337230614840E-1   -3.545462179481883E-1    4.198204699402017E-4   -7.756238439353412E-4    4.898925056277653E-4   -7.980373740272667E-4   -4.386420741470257E-1   -1.938402161572704E-1
 1.004667130480000E+10  -2.949693024121139E-1   -3.542139025777623E-1    4.310764803348396E-4   -7.877044592237068E-4    4.789220907300950E-4   -8.011338402664573E-4   -4.387475025882931E-1   -1.930264330645300E-1
 1.004668219060000E+10  -2.954943869067310E-1   -3.536307848694074E-1    3.846391600309957E-4   -7.975836738641580E-4    4.921165823763271E-4   -7.827782897881431E-4   -4.392490025359630E-1   -1.924107963331652E-1
 1.004669307640000E+10  -2.960929894012097E-1   -3.531927830082339E-1    3.768433954863168E-4   -8.172651935528254E-4    4.961039534990659E-4   -7.842601807832956E-4   -4.394479792601942E-1   -1.917980308578434E-1
 1.004670396220000E+10  -2.965315464062676E-1   -3.526524534132633E-1    3.919179733881702E-4   -7.985128488504405E-4    4.679173772762451E-4   -7.882242421918628E-4   -4.396412876025106E-1   -1.910644286381035E-1
 1.004671484800000E+10  -2.970905094098332E-1   -3.521589221872102E-1    3.695761847325361E-4   -8.124263387276693E-4    4.601953311136085E-4   -7.789337105357287E-4   -4.400675881753921E-1   -1.903630679609166E-1
 1.004672573380000E+10  -2.976805686239958E-1   -3.516151790230868E-1    3.749005513881937E-4   -8.082632430167970E-4    4.501401501817835E-4   -7.718675122174770E-4   -4.401387861259846E-1   -1.896762033398770E-1
 1.004673661960000E+10  -2.981506967059387E-1   -3.511332710743346E-1    3.960821930800792E-4   -7.776682173785889E-4    4.609065256601992E-4   -8.011306958167974E-4   -4.405914620169510E-1   -1.889597082815391E-1
 1.004674750540000E+10  -2.987270704427190E-1   -3.506977582865501E-1    4.210454555641794E-4   -7.992989073428795E-4    4.477233564448118E-4   -7.602636036503683E-4   -4.408801676181337E-1   -1.883078888038980E-1
 1.004675839120000E+10  -2.992459768229376E-1   -3.502793879140141E-1    4.081850042791341E-4   -7.970469712422831E-4    4.758884735269290E-4   -7.600967133178912E-4   -4.410709405200928E-1   -1.875884268518127E-1
 1.004676927700000E+10  -2.998049523075226E-1   -3.497189927941630E-1    3.785789685524437E-4   -7.983178456755696E-4    4.313125515553159E-4   -7.694747858488544E-4   -4.413684859971558E-1   -1.868824624876250E-1
 1.004678016280000E+10  -3.002013107660500E-1   -3.493387292436209E-1    3.894162493444099E-4   -7.503710663303047E-4    4.667947096611366E-4   -7.686030967625065E-4   -4.415062747586734E-1   -1.863838100049668E-1
 1.004679104860000E+10  -3.008618823565113E-1   -3.487568473430945E-1    4.046319638624421E-4   -7.876190158786389E-4    4.476070981471006E-4   -7.700178352859501E-4   -4.418182023298213E-1   -1.854612438191869E-1
 1.004680193440000E+10  -3.013275855584114E-1   -3.482144047772107E-1    4.176992155763758E-4   -7.936561817403155E-4    4.656095406344289E-4   -7.752982508823874E-4   -4.421232901612719E-1   -1.849378337992159E-1
 1.004681282020000E+10  -3.018252965712630E-1   -3.478123434206558E-1    3.780875956645042E-4   -7.878980552062954E-4    4.192549411753528E-4   -7.388342257471118E-4   -4.423459594164535E-1   -1.842129346728903E-1
 1.004682370600000E+10  -3.023697594565468E-1   -3.472058927138175E-1    3.804517180491712E-4   -7.522077581338464E-4    4.429803596120528E-4   -7.544853367435813E-4   -4.428185445488501E-1   -1.835996518330305E-1
 1.004683459180000E+10  -3.029945081412562E-1   -3.467620159299340E-1    3.701449027893294E-4   -7.768478273094940E-4    4.432312905342991E-4   -7.473805469019108E-4   -4.430063848091788E-1   -1.828519113863959E-1
 1.004684547760000E+10  -3.033987875141483E-1   -3.462714918123293E-1    3.864425341326846E-4   -7.337438027117790E-4    4.558725638414362E-4   -7.656499673011795E-4   -4.431831452075735E-1   -1.822558504456226E-1
 1.004685636340000E+10  -3.039356004592966E-1   -3.458144182326078E-1    3.657029645028016E-4   -7.616410405337857E-4    4.438639528215856E-4   -7.519208587948393E-4   -4.432830041302049E-1   -1.813492317985788E-1
 1.004686724920000E+10  -3.044732327490611E-1   -3.453422300446212E-1    3.931954262780078E-4   -7.718701951783277E-4    4.565787323182800E-4   -7.640025515410862E-4   -4.437915167383230E-1   -1.808430807394420E-1
 1.004687813500000E+10  -3.052168415953802E-1   -3.447007844166892E-1    3.619765204023043E-4   -7.554199132900417E-4    4.282059157373258E-4   -7.476194416375498E-4   -4.440070400033437E-1   -1.799731274465845E-1
 1.004688902080000E+10  -3.055902430443563E-1   -3.443143844922327E-1    3.686597824701194E-4   -7.476576647775792E-4    4.178890157197854E-4   -7.603075643614591E-4   -4.440396735837172E-1   -1.793513357495786E-1
 1.004689990660000E+10  -3.060414745341205E-1   -3.438103498369721E-1    3.679892862264837E-4   -7.518576861282318E-4    4.563934619212804E-4   -7.464447352113631E-4   -4.443961361265646E-1   -1.788101016465113E-1
 1.004691079240000E+10  -3.066183801961809E-1   -3.433033451918555E-1    3.900675967262920E-4   -7.670266676756178E-4    4.076036393444319E-4   -7.465653445067923E-4   -4.446001656933579E-1   -1.779164473190880E-1
 1.004692167820000E+10  -3.072221455505374E-1   -3.426872665436945E-1    3.924685562201472E-4   -7.600277073118314E-4    4.141814561781728E-4   -7.380947823648084E-4   -4.450528169407944E-1   -1.772592823041831E-1
 1.004693256400000E+10  -3.076346042491184E-1   -3.420961247154090E-1    3.618127260375852E-4   -7.267930631566787E-4    4.163000589139012E-4   -7.298764506985531E-4   -4.451719326516704E-1   -1.767151204026423E-1
 1.004694344980000E+10  -3.082088305762382E-1   -3.418709620627247E-1    3.580738577747986E-4   -7.667599288526057E-4    4.092688887247873E-4   -7.500895601563356E-4   -4.455243053681111E-1   -1.758890175248924E-1
 1.004695433560000E+10  -3.086744367785637E-1   -3.413327950704462E-1    3.450141254953535E-4   -7.361666416847215E-4    3.904623287321564E-4   -7.450248142028448E-4   -4.456756917211597E-1   -1.752473684969956E-1
 1.004696522140000E+10  -3.092845899235937E-1   -3.407963175514808E-1    3.445793493250867E-4   -7.548763396814007E-4    4.276385176261167E-4   -7.274487158724554E-4   -4.460894195211419E-1   -1.744261667159974E-1
 1.004697610720000E+10  -3.097526814072023E-1   -3.403528261813105E-1    3.516005571239862E-4   -7.231540141008860E-4    4.341206419702794E-4   -7.304882639333714E-4   -4.462108949348964E-1   -1.738127715142508E-1
 1.004698699300000E+10  -3.103848092681458E-1   -3.397566888273781E-1    3.548215811608389E-4   -7.527964539722144E-4    4.351368745077307E-4   -7.199130847303814E-4   -4.465926198285381E-1   -1.731580420307702E-1
 1.004699787880000E+10  -3.106281178170878E-1   -3.393186614061111E-1    3.539949907851097E-4   -7.534303204041109E-4    4.091145493795126E-4   -7.242240154791874E-4   -4.466681088908999E-1   -1.723723086111410E-1
 1.004700876460000E+10  -3.113119933906380E-1   -3.387978965293499E-1    3.728052023694439E-4   -7.170701798423632E-4    4.008483353133065E-4   -7.190307833746230E-4   -4.470094614703525E-1   -1.716719004161128E-1
 1.004701965040000E+10  -3.118520661184029E-1   -3.383046699325923E-1    3.302965580485611E-4   -7.259513245882800E-4    4.195408336692278E-4   -7.230298671032451E-4   -4.473306802544189E-1   -1.710527363862815E-1
 1.004703053620000E+10  -3.123075007222460E-1   -3.378427974798792E-1    3.645909903385068E-4   -7.210520439089069E-4    3.929569776064280E-4   -7.157780382620677E-4   -4.474382545340382E-1   -1.703645466652823E-1
 1.004704142200000E+10  -3.127779483654644E-1   -3.372244516485667E-1    3.728337045214153E-4   -7.165296156914869E-4    4.144964483112649E-4   -7.285456918330248E-4   -4.477469349196906E-1   -1.696836023345364E-1
 1.004705230780000E+10  -3.133788529216150E-1   -3.369182925733230E-1    3.604081716204882E-4   -7.183673674465646E-4    4.009433552863086E-4   -7.128937395077145E-4   -4.478978464920283E-1   -1.688543328836830E-1
 1.004706319360000E+10  -3.138487364923066E-1   -3.362740363357678E-1    3.407683860396738E-4   -7.088444449053434E-4    4.005441939858765E-4   -7.311162539453507E-4   -4.481566090666177E-1   -1.681660795923242E-1
 1.004707407940000E+10  -3.143832916258484E-1   -3.357740495538762E-1    3.670489723535893E-4   -7.075395405426567E-4    4.105247785330375E-4   -6.845163654520328E-4   -4.483559675396388E-1   -1.676517024997246E-1
 1.004708496520000E+10  -3.148539295318490E-1   -3.352982528736558E-1    3.296862911284960E-4   -7.161684970532603E-4    3.797608062523511E-4   -6.788032317725245E-4   -4.486159955051605E-1   -1.668476741932699E-1
 1.004709585100000E+10  -3.155129614117346E-1   -3.347462163052284E-1    3.407930882924289E-4   -7.273602621221212E-4    3.956685629015073E-4   -6.787121412777525E-4   -4.488826141201614E-1   -1.660679959416443E-1
 1.004710673680000E+10  -3.158821415292680E-1   -3.343614448415321E-1    3.557758207302221E-4   -6.976187544767340E-4    4.055194553113100E-4   -6.875619462622801E-4   -4.492149626749732E-1   -1.651492106640662E-1
 1.004711762260000E+10  -3.165427367453453E-1   -3.337010722560254E-1    3.556949642779825E-4   -6.958990851272222E-4    3.832846325502945E-4   -6.977769554520616E-4   -4.494119151181237E-1   -1.645989137084437E-1
 1.004712850840000E+10  -3.170699823766802E-1   -3.332894185515620E-1    3.498383817286627E-4   -7.148126972058657E-4    4.060841050085663E-4   -7.036647943303042E-4   -4.496750748733293E-1   -1.639325139991348E-1
 1.004713939420000E+10  -3.174484706726137E-1   -3.327361368469347E-1    3.345264528632401E-4   -6.809274472108467E-4    3.904165249703800E-4   -6.695129128319020E-4   -4.498336100301468E-1   -1.632484882512368E-1
 1.004715028000000E+10  -3.180889110361387E-1   -3.321359224373682E-1    3.568368417017804E-4   -7.171337949672249E-4    3.963157517548175E-4   -6.658880355457516E-4   -4.500730643498263E-1   -1.624585753117502E-1
 1.004716116580000E+10  -3.183749031687486E-1   -3.315937881944870E-1    3.432929891109699E-4   -7.101450316722035E-4    3.939419477709488E-4   -6.768082884820813E-4   -4.504444382920407E-1   -1.615892923753298E-1
 1.004717205160000E+10  -3.189759950329457E-1   -3.312025886772191E-1    3.148525187833283E-4   -7.017769163006587E-4    3.596573804148592E-4   -6.860128471991048E-4   -4.505955700190863E-1   -1.611558601008227E-1
 1.004718293740000E+10  -3.194655641892172E-1   -3.305715335836495E-1    3.173056921580166E-4   -6.975273390961986E-4    3.908448203807903E-4   -6.705829904716205E-4   -4.507949437020152E-1   -1.601780358032715E-1
 1.004719382320000E+10  -3.200330506546674E-1   -3.301495522566933E-1    3.483463326798318E-4   -7.010785204282129E-4    3.772819652901436E-4   -6.881975882190707E-4   -4.510403511620449E-1   -1.597823934014320E-1
 1.004720470900000E+10  -3.205225072167265E-1   -3.295022968410149E-1    3.362683861157954E-4   -6.716524225545030E-4    3.888609246990963E-4   -6.512783232156588E-4   -4.512161681117742E-1   -1.590067991454641E-1
 1.004721559480000E+10  -3.209914865786383E-1   -3.291148688426001E-1    3.365560796749187E-4   -6.829907472800959E-4    4.061394269511636E-4   -6.696932183919035E-4   -4.514307707443022E-1   -1.582688540274406E-1
 1.004722648060000E+10  -3.214764632437027E-1   -3.285365888877521E-1    3.331452781278451E-4   -6.642918836966929E-4    3.716866650815113E-4   -6.702972224708585E-4   -4.516366272718189E-1   -1.574926431224590E-1
 1.004723736640000E+10  -3.219402033791768E-1   -3.279698957727675E-1    3.376311837630162E-4   -6.457171840268874E-4    3.803469365596743E-4   -6.616297304825134E-4   -4.519386662735482E-1   -1.566628231504046E-1
 1.004724825220000E+10  -3.225875000860498E-1   -3.274000504809123E-1    3.323772421550670E-4   -6.588324220643920E-4    3.815472687930913E-4   -6.604765368550198E-4   -4.520748121735758E-1   -1.560439511836952E-1
 1.004725913800000E+10  -3.229409494938570E-1   -3.270069135960075E-1    3.211864949046865E-4   -6.485877539886946E-4    3.732816714961165E-4   -6.618066162051833E-4   -4.523321164906526E-1   -1.553060162874875E-1
 1.004727002380000E+10  -3.234884740059749E-1   -3.265266687064747E-1    3.134300827221480E-4   -6.687726521775654E-4    3.463917872195638E-4   -6.460377384035284E-4   -4.526006079632017E-1   -1.546550518548105E-1
 1.004728090960000E+10  -3.239310979428821E-1   -3.259294923919273E-1    3.250378728116171E-4   -6.573196181030039E-4    3.707199753087712E-4   -6.641930061410542E-4   -4.529144245601135E-1   -1.538783649785350E-1
 1.004729179540000E+10  -3.245516463154381E-1   -3.254832813276295E-1    2.887343566211723E-4   -6.482268012536597E-4    3.863073059250250E-4   -6.330148626843638E-4   -4.530742130601255E-1   -1.531808262472983E-1
 1.004730268120000E+10  -3.250873957396455E-1   -3.249382396510644E-1    3.308358585932953E-4   -6.417331150415609E-4    3.622475389467744E-4   -6.460526188460824E-4   -4.533614133302473E-1   -1.524199835407575E-1
 1.004731356700000E+10  -3.255231011311941E-1   -3.244991360078969E-1    3.338969735604925E-4   -6.386697999646653E-4    3.372778116789206E-4   -6.225553222636017E-4   -4.534135238404728E-1   -1.515346024742388E-1
 1.004732445280000E+10  -3.257630833507275E-1   -3.238750045928934E-1    3.112582763289877E-4   -6.359731617523765E-4    3.302983901379701E-4   -6.205625866353282E-4   -4.537133930078229E-1   -1.509408663032101E-1
 1.004733533860000E+10  -3.264022804581382E-1   -3.233226800377904E-1    3.267304455767178E-4   -6.403208625891125E-4    3.707297623498506E-4   -6.310353248444397E-4   -4.539569327287818E-1   -1.502504259598109E-1
 1.004734622440000E+10  -3.269669430895680E-1   -3.227951595973563E-1    3.096581179441144E-4   -6.468045073102349E-4    3.586215737446755E-4   -6.305606804906855E-4   -4.539535918768928E-1   -1.496065846347588E-1
 1.004735711020000E+10  -3.274910973236891E-1   -3.223017344734195E-1    3.075511288943929E-4   -6.070350637096625E-4    3.530340171704389E-4   -5.913217005992390E-4   -4.543674585769379E-1   -1.487339559636910E-1
 1.004736799600000E+10  -3.278963217378365E-1   -3.217839175680898E-1    3.079669056143912E-4   -6.551375288584413E-4    3.403919744244100E-4   -6.147655225258629E-4   -4.544433550475940E-1   -1.480797765746748E-1
 1.004737888180000E+10  -3.283211872429382E-1   -3.212832155755969E-1    3.107350354967321E-4   -6.264159513337681E-4    3.637409216128412E-4   -6.223609737447245E-4   -4.547093451573453E-1   -1.473320659190200E-1
 1.004738976760000E+10  -3.289419501143471E-1   -3.206189970701347E-1    2.850433774426918E-4   -6.273005361070314E-4    3.265584923720806E-4   -5.969276090822620E-4   -4.549246191516101E-1   -1.465405822135418E-1
 1.004740065340000E+10  -3.293725603311337E-1   -3.201230222824538E-1    3.035038150401256E-4   -6.503583878113980E-4    3.249708193949348E-4   -6.067044760078862E-4   -4.549505761348950E-1   -1.457999183186209E-1
 1.004741153920000E+10  -3.299396168364995E-1   -3.195469141077749E-1    2.951984221217004E-4   -6.163865055002682E-4    3.442000074267231E-4   -5.797868503399968E-4   -4.551811670312359E-1   -1.452665582880163E-1
 1.004742242500000E+10  -3.304669628593366E-1   -3.190521433777227E-1    2.903496442273228E-4   -6.096446375677071E-4    3.366624894209596E-4   -5.834856981686395E-4   -4.555070777058079E-1   -1.444214125571648E-1
 1.004743331080000E+10  -3.308794632975307E-1   -3.186287992894711E-1    2.996999882753631E-4   -5.869921220296295E-4    3.489607304506421E-4   -5.784325484329159E-4   -4.556936137574822E-1   -1.435717314415556E-1
 1.004744419660000E+10  -3.312975256138631E-1   -3.179978389127521E-1    2.688479195888718E-4   -5.844842814122640E-4    3.688109445596314E-4   -5.821106459517242E-4   -4.561242740861076E-1   -1.429153419176263E-1
 1.004745508240000E+10  -3.318373376820477E-1   -3.175044155894941E-1    3.070800643735998E-4   -5.705406981865474E-4    3.390200892124071E-4   -5.833122968799068E-4   -4.562021916310681E-1   -1.421857551973597E-1
 1.004746596820000E+10  -3.323245754741030E-1   -3.169903891287303E-1    2.920237883803373E-4   -5.806533452692448E-4    3.337254209386262E-4   -5.489609633164475E-4   -4.562054412020239E-1   -1.414981820547190E-1
 1.004747685400000E+10  -3.327888946101197E-1   -3.163672245008734E-1    2.722039881835262E-4   -5.548235972166978E-4    3.296929405141932E-4   -5.690623254394125E-4   -4.565544974368601E-1   -1.406978878966200E-1
 1.004748773980000E+10  -3.332175129072967E-1   -3.158163396053463E-1    2.731273816034516E-4   -5.668685293103457E-4    3.152206562184860E-4   -5.675961614128955E-4   -4.567178348877918E-1   -1.399032117872745E-1
 1.004749862560000E+10  -3.337811131961021E-1   -3.152778733538447E-1    2.881779315002797E-4   -5.463498540241526E-4    3.062291185646541E-4   -5.772018202783442E-4   -4.568912887611167E-1   -1.391020174457126E-1
 1.004750951140000E+10  -3.342144132139421E-1   -3.147639827822742E-1    2.831075080214264E-4   -5.528690206901999E-4    3.324537470782812E-4   -5.386327710770949E-4   -4.570948339901374E-1   -1.384941567046743E-1
 1.004752039720000E+10  -3.346312846986506E-1   -3.141951694403706E-1    2.894355850505294E-4   -5.368613529351669E-4    2.987491368257384E-4   -5.259905116561501E-4   -4.571815029798633E-1   -1.377525619713084E-1
 1.004753128300000E+10  -3.350826452646406E-1   -3.137423219737235E-1    2.539456255336140E-4   -5.594955768243753E-4    3.053993866187946E-4   -5.322281235113295E-4   -4.574601541854189E-1   -1.369198156354335E-1
 1.004754216880000E+10  -3.357580104352254E-1   -3.131134873579650E-1    2.638264183849071E-4   -5.269514933590374E-4    3.104802614426792E-4   -5.411323797322737E-4   -4.575599067503927E-1   -1.361187731876743E-1
 1.004755305460000E+10  -3.360934988644923E-1   -3.126067993023397E-1    2.504187975879529E-4   -5.445143981668395E-4    3.048134396562810E-4   -5.320854999072382E-4   -4.578426993471540E-1   -1.353932968827094E-1
 1.004756394040000E+10  -3.365547566100827E-1   -3.120752509886355E-1    2.882799923135156E-4   -5.155433033145561E-4    3.159536218912833E-4   -5.057766467073138E-4   -4.581282323309964E-1   -1.348474774831906E-1
 1.004757482620000E+10  -3.368452944592919E-1   -3.116226089261269E-1    2.842312161888557E-4   -5.278298530402426E-4    2.878711511738641E-4   -4.994210363259562E-4   -4.582104187847703E-1   -1.341096131968915E-1
 1.004758571200000E+10  -3.373827279910675E-1   -3.109590725064560E-1    3.009619080440675E-4   -4.917104316179417E-4    3.185305134075798E-4   -5.137638134346817E-4   -4.583631194879578E-1   -1.330682422902937E-1
 1.004759659780000E+10  -3.379446444129452E-1   -3.104247628495538E-1    2.442161152973452E-4   -4.992488701841059E-4    3.121268325199480E-4   -4.876571398868508E-4   -4.586496666036561E-1   -1.324172220368993E-1
 1.004760748360000E+10  -3.384255859240819E-1   -3.098365015840109E-1    2.838610688591940E-4   -5.035347507751170E-4    3.332864293648286E-4   -5.051925429199689E-4   -4.588497694102525E-1   -1.315756898902110E-1
 1.004761836940000E+10  -3.388491711618170E-1   -3.092331258545056E-1    2.680624683926396E-4   -4.851673797317750E-4    2.962366972445069E-4   -4.819021160313111E-4   -4.589236100945008E-1   -1.308730533758695E-1
 1.004762925520000E+10  -3.393194064516786E-1   -3.087215960382777E-1    2.868484363315855E-4   -4.837903798750311E-4    3.057130867057277E-4   -4.753256447351069E-4   -4.590202225550711E-1   -1.301499267901567E-1
 1.004764014100000E+10  -3.398737275281865E-1   -3.082768962519733E-1    3.041280452776690E-4   -4.721658331290047E-4    3.277979463943888E-4   -4.885816456021173E-4   -4.591218228701767E-1   -1.293287069270162E-1
