#  HZ   S   RI   R     50.00 
! Rohde & Schwarz Vector Network Analyzer 
! Rohde-Schwarz,ZNB20-2Port,1311601062101988,3.16
! Created: UTC 3/21/2024, 1:03:01 AM
! freq[Hz]                re:S11                  im:S11                  re:S21                  im:S21                  re:S12                  im:S12                  re:S22                  im:S22
 1.004657553500000E+10  -2.899903613300623E-1   -3.584075605404999E-1    4.529217093526802E-4   -8.027851848551477E-4    5.043025111691287E-4   -8.031710784563052E-4   -4.359800865026178E-1   -1.995352460829536E-1
 1.004658689850000E+10  -2.906537163726843E-1   -3.579058777623693E-1    4.201220094400897E-4   -7.983994262914186E-4    5.042249035723447E-4   -7.852829028166097E-4   -4.365258325272026E-1   -1.988277442216514E-1
 1.004659826200000E+10  -2.910883352192327E-1   -3.574954875229451E-1    4.245440381442496E-4   -8.217437757234547E-4    4.876027486370474E-4   -8.060599868268734E-4   -4.366286544157654E-1   -1.983464592260263E-1
 1.004660962550000E+10  -2.917246305482244E-1   -3.569094418687330E-1    4.134965268469690E-4   -8.101280599205898E-4    4.796820799134666E-4   -7.987373629896909E-4   -4.368824641911953E-1   -1.974020236869014E-1
 1.004662098900000E+10  -2.922352957906638E-1   -3.563623425850161E-1    4.067056181624449E-4   -8.032810103240529E-4    4.532661674901952E-4   -7.943570215944282E-4   -4.373335068682099E-1   -1.967507640807047E-1
 1.004663235250000E+10  -2.927931219523265E-1   -3.559483929306447E-1    4.095853092709860E-4   -7.849234719003316E-4    4.938542845493306E-4   -7.913848451812076E-4   -4.375013861012023E-1   -1.959207957181980E-1
 1.004664371600000E+10  -2.933410442475691E-1   -3.555295117531647E-1    4.111389719291071E-4   -8.089740647926251E-4    4.803018394364040E-4   -7.929260033555504E-4   -4.380033957436873E-1   -1.954428045688816E-1
 1.004665507950000E+10  -2.937872726813000E-1   -3.549290140395421E-1    3.815251500834717E-4   -7.985771925382207E-4    4.678482284190935E-4   -7.713136474579208E-4   -4.382077097480864E-1   -1.946980284429676E-1
 1.004666644300000E+10  -2.944626826159982E-1   -3.544517072055678E-1    3.993898128776764E-4   -8.248434705850185E-4    4.627088796685410E-4   -7.792504629276712E-4   -4.385341090946911E-1   -1.940331828110657E-1
 1.004667780650000E+10  -2.950817646274986E-1   -3.539284409008930E-1    4.371408208388616E-4   -8.003674352960346E-4    4.931179777951654E-4   -7.630413634397288E-4   -4.388226306026654E-1   -1.932166449412403E-1
 1.004668917000000E+10  -2.957206210253172E-1   -3.533505598624554E-1    4.199846906670135E-4   -7.967959167938623E-4    4.835132487328373E-4   -7.747294380728623E-4   -4.389417648680909E-1   -1.924969947888256E-1
 1.004670053350000E+10  -2.961587599546033E-1   -3.528851140012781E-1    4.464806338767528E-4   -7.869088288014414E-4    5.070781682947035E-4   -7.860075713483627E-4   -4.394128677328755E-1   -1.917613161185307E-1
 1.004671189700000E+10  -2.967465938589360E-1   -3.523077840059485E-1    4.266456530752060E-4   -8.106341325252106E-4    4.565493965652738E-4   -7.729399034960763E-4   -4.396846455511180E-1   -1.911682540070933E-1
 1.004672326050000E+10  -2.972956147276580E-1   -3.518471345639919E-1    4.239673645441953E-4   -7.725791978842239E-4    4.687515382157477E-4   -7.593046549348754E-4   -4.399983643796073E-1   -1.903346954079595E-1
 1.004673462400000E+10  -2.978588728652344E-1   -3.513588860417782E-1    3.994923115349933E-4   -7.897994112832551E-4    4.597996814406358E-4   -7.839261248228077E-4   -4.401921018469085E-1   -1.895741855846984E-1
 1.004674598750000E+10  -2.984156176874745E-1   -3.509353659817415E-1    4.087825416681652E-4   -7.644109728270985E-4    4.591307354809770E-4   -7.628431447480229E-4   -4.405171785282193E-1   -1.889687308539364E-1
 1.004675735100000E+10  -2.990297013571600E-1   -3.503538200395022E-1    3.865035488684599E-4   -7.654279759529330E-4    4.638280894072408E-4   -7.816442945131564E-4   -4.407961582765380E-1   -1.882599996239537E-1
 1.004676871450000E+10  -2.996163127544457E-1   -3.498870783920550E-1    4.146563726113974E-4   -7.742468754564783E-4    4.609499053462904E-4   -7.754972348507587E-4   -4.410802015632399E-1   -1.874580835829667E-1
 1.004678007800000E+10  -3.002817582201849E-1   -3.492893896703056E-1    4.114773174473440E-4   -7.856951396295195E-4    4.365997983161575E-4   -7.719002001603789E-4   -4.412237008435448E-1   -1.868152188564185E-1
 1.004679144150000E+10  -3.006592632811193E-1   -3.487405925394066E-1    3.900071406569479E-4   -7.912312623941519E-4    4.747307204673462E-4   -7.420318906724930E-4   -4.416395128915813E-1   -1.860122747142259E-1
 1.004680280500000E+10  -3.011430730336982E-1   -3.484405860905572E-1    3.958913488034197E-4   -7.946732661465958E-4    4.660140222040723E-4   -7.835054074781773E-4   -4.420495746960902E-1   -1.854411403244752E-1
 1.004681416850000E+10  -3.019062399681027E-1   -3.478521311081572E-1    3.739853688288948E-4   -7.946894894637566E-4    4.058628096311306E-4   -7.705841882364650E-4   -4.420962817416786E-1   -1.847200488560774E-1
 1.004682553200000E+10  -3.023143620027336E-1   -3.472463841760340E-1    3.959532275845022E-4   -7.683985965588153E-4    4.552141721017813E-4   -7.627614198517866E-4   -4.424813103287393E-1   -1.839832603277999E-1
 1.004683689550000E+10  -3.029331488551267E-1   -3.467470807521292E-1    3.599751184291073E-4   -7.748372271770640E-4    4.368597707287691E-4   -7.870908439366601E-4   -4.427070851221110E-1   -1.831187212625075E-1
 1.004684825900000E+10  -3.033731610897908E-1   -3.463012089350282E-1    3.680045707199940E-4   -7.628307102782277E-4    4.522880679005954E-4   -7.643276159051504E-4   -4.431167387942064E-1   -1.824686474984180E-1
 1.004685962250000E+10  -3.040294925602475E-1   -3.457041806649088E-1    3.738617500187671E-4   -7.571381282332609E-4    4.344781291622043E-4   -7.646083868856140E-4   -4.433338398672665E-1   -1.817277535607054E-1
 1.004687098600000E+10  -3.046151817937134E-1   -3.452095259002478E-1    4.066785342157945E-4   -7.366812761648829E-4    4.538904369159291E-4   -7.354938131788679E-4   -4.434747279662232E-1   -1.811403759399264E-1
 1.004688234950000E+10  -3.051101345336867E-1   -3.447446653940864E-1    3.736692955451153E-4   -7.381880811566561E-4    4.476246757991109E-4   -7.428080886376848E-4   -4.438802390346925E-1   -1.804736625541894E-1
 1.004689371300000E+10  -3.056175343294757E-1   -3.442858925754024E-1    3.722687026808559E-4   -7.347446930804894E-4    4.226000174538242E-4   -7.403062574052415E-4   -4.442098793112255E-1   -1.796324131986943E-1
 1.004690507650000E+10  -3.061990099290363E-1   -3.436619866736069E-1    3.812085845561180E-4   -7.522425458115875E-4    4.492952609549291E-4   -7.680829475923689E-4   -4.442668951600320E-1   -1.789363171699082E-1
 1.004691644000000E+10  -3.068311544543800E-1   -3.431619004965472E-1    3.953830151888928E-4   -7.595064557893613E-4    4.172838941770102E-4   -7.556548166013406E-4   -4.446672930042644E-1   -1.781006798987288E-1
 1.004692780350000E+10  -3.073323411616937E-1   -3.426170940974927E-1    3.752044378503367E-4   -7.314187156480033E-4    4.237098317663836E-4   -7.279405831832043E-4   -4.449945641449995E-1   -1.774035849808394E-1
 1.004693916700000E+10  -3.078019822505630E-1   -3.421231700394273E-1    3.829106883874030E-4   -7.144151568451944E-4    4.278814989922099E-4   -7.244437120844840E-4   -4.452750495827468E-1   -1.765924307421649E-1
 1.004695053050000E+10  -3.083350770346185E-1   -3.417208936610462E-1    3.851116728103926E-4   -7.872079058755511E-4    4.393269615439184E-4   -7.063367896094241E-4   -4.453658191012213E-1   -1.759689612537939E-1
 1.004696189400000E+10  -3.089494625460452E-1   -3.411263397236618E-1    3.661259765970883E-4   -7.564550296825709E-4    4.323977829947539E-4   -7.355839856968730E-4   -4.456035963271950E-1   -1.752444662205049E-1
 1.004697325750000E+10  -3.094244279253794E-1   -3.406173836499772E-1    3.651428809000921E-4   -7.260533178426288E-4    4.172674099882964E-4   -7.289541226935752E-4   -4.459474174789456E-1   -1.745239821407905E-1
 1.004698462100000E+10  -3.100827004511748E-1   -3.400815592592709E-1    3.623101083509058E-4   -7.150521835742388E-4    4.230093170046970E-4   -7.371565369764968E-4   -4.460600656205565E-1   -1.737708939402045E-1
 1.004699598450000E+10  -3.104764128230580E-1   -3.395545405244048E-1    3.623107922490851E-4   -7.349097599498043E-4    3.964836404815946E-4   -7.604219936673147E-4   -4.464307408640336E-1   -1.730901174241272E-1
 1.004700734800000E+10  -3.110651188427121E-1   -3.389842539727739E-1    3.610749307088569E-4   -7.331178492926536E-4    4.421756945186807E-4   -7.289440523062002E-4   -4.467194877780549E-1   -1.724696641222254E-1
 1.004701871150000E+10  -3.116409927976962E-1   -3.385155570194844E-1    3.438845719991882E-4   -7.208056080617429E-4    4.133421158203649E-4   -7.492770814146484E-4   -4.467325613952143E-1   -1.716206995735999E-1
 1.004703007500000E+10  -3.121627432048417E-1   -3.378909176560667E-1    3.520426408582573E-4   -7.324050573157656E-4    4.374342273003817E-4   -7.262458642879192E-4   -4.471431450769803E-1   -1.707923885284046E-1
 1.004704143850000E+10  -3.127378072952272E-1   -3.374955169016594E-1    3.310139153146417E-4   -7.454972391917541E-4    3.931242019704429E-4   -7.307868477063106E-4   -4.474142010058716E-1   -1.702664254219529E-1
 1.004705280200000E+10  -3.131721576475930E-1   -3.368874311830583E-1    3.509493576472353E-4   -6.964648930512094E-4    4.423438287907957E-4   -7.054202288604668E-4   -4.478054083894388E-1   -1.694097867916682E-1
 1.004706416550000E+10  -3.136738691598628E-1   -3.363319832732590E-1    3.265004314431661E-4   -7.207736526478422E-4    3.844096991969168E-4   -7.006665877579143E-4   -4.478968238450899E-1   -1.686748770654000E-1
 1.004707552900000E+10  -3.142215317735911E-1   -3.357824777628792E-1    3.335893565175592E-4   -7.076655940854077E-4    4.187667005210280E-4   -7.196522625100067E-4   -4.481713289749734E-1   -1.680684541665156E-1
 1.004708689250000E+10  -3.147529362030927E-1   -3.352228763091328E-1    3.196747343981996E-4   -7.250889608777972E-4    3.937179772697618E-4   -7.116481476066945E-4   -4.484959607573949E-1   -1.671641002531898E-1
 1.004709825600000E+10  -3.152886743362747E-1   -3.349204442949688E-1    3.480669907832516E-4   -7.328049109284630E-4    4.186077751052869E-4   -6.948337625005580E-4   -4.486764988408948E-1   -1.663557434502730E-1
 1.004710961950000E+10  -3.157713747109650E-1   -3.342438116180281E-1    3.532120323437577E-4   -7.116235431492147E-4    3.905155412747443E-4   -6.929200768761329E-4   -4.488504277504078E-1   -1.657321524939823E-1
 1.004712098300000E+10  -3.162756459708467E-1   -3.338206528673432E-1    3.525177567227899E-4   -7.011426441960810E-4    3.855694226041063E-4   -6.876033985195659E-4   -4.492274180446126E-1   -1.651072646966653E-1
 1.004713234650000E+10  -3.169538208744402E-1   -3.331965881368755E-1    3.396738105936723E-4   -7.048930812457021E-4    4.114608855226239E-4   -6.932089625341588E-4   -4.495385709140737E-1   -1.642826345924751E-1
 1.004714371000000E+10  -3.174789220983318E-1   -3.326152438549644E-1    3.344368571444528E-4   -6.733226456445526E-4    4.076350183252874E-4   -7.322763360681604E-4   -4.496935477261617E-1   -1.636558574628469E-1
 1.004715507350000E+10  -3.180155553861017E-1   -3.320445548364921E-1    3.033434401306457E-4   -6.952862605571886E-4    3.472425269972086E-4   -6.706092766887809E-4   -4.499015708057713E-1   -1.628285945321353E-1
 1.004716643700000E+10  -3.185561553283722E-1   -3.315110064932263E-1    3.325617583008060E-4   -6.965610216336833E-4    3.839332464169737E-4   -6.927837473167033E-4   -4.502831206717335E-1   -1.621366786798067E-1
 1.004717780050000E+10  -3.189014215119790E-1   -3.310605354145076E-1    3.177659598048043E-4   -6.750805982763174E-4    3.744314974038363E-4   -6.971734601001517E-4   -4.505506256587936E-1   -1.613087406311227E-1
 1.004718916400000E+10  -3.196558977811102E-1   -3.304481082128487E-1    3.377839783363878E-4   -7.040556092740701E-4    3.848503989419980E-4   -6.576730819496235E-4   -4.508088279117318E-1   -1.605749934577580E-1
 1.004720052750000E+10  -3.200467501743436E-1   -3.299864289277923E-1    3.487507820968563E-4   -7.161435418881529E-4    3.907789999467593E-4   -6.529772590011143E-4   -4.508397156708329E-1   -1.597927265107484E-1
 1.004721189100000E+10  -3.205747894020738E-1   -3.294201837349637E-1    3.024198974132855E-4   -6.699943040937150E-4    3.962887241535090E-4   -6.753217764178812E-4   -4.510788877482524E-1   -1.591820467580772E-1
 1.004722325450000E+10  -3.211404052305449E-1   -3.288131292965973E-1    3.425444524871207E-4   -6.803939251223692E-4    4.010401038461739E-4   -6.537076049882596E-4   -4.513873052000525E-1   -1.582316746323766E-1
 1.004723461800000E+10  -3.217328528224253E-1   -3.283233378385336E-1    3.153389352152333E-4   -6.724142606772298E-4    3.622259868692427E-4   -6.722976184329475E-4   -4.516673945816482E-1   -1.576834732299065E-1
 1.004724598150000E+10  -3.222105855915374E-1   -3.278660665244044E-1    3.206390250397819E-4   -6.638840100566317E-4    3.760429590855018E-4   -6.520357013731552E-4   -4.517903544690032E-1   -1.568408011515678E-1
 1.004725734500000E+10  -3.226704032567432E-1   -3.272894707128504E-1    3.167364650773234E-4   -6.592550508208903E-4    3.749330570110735E-4   -6.635540950493135E-4   -4.521281206832869E-1   -1.560037550178242E-1
 1.004726870850000E+10  -3.232734933566394E-1   -3.267026072251874E-1    3.305698283712142E-4   -6.671072045874672E-4    3.824183238418291E-4   -6.726347808046844E-4   -4.522189534217640E-1   -1.553023044921494E-1
 1.004728007200000E+10  -3.237664441701133E-1   -3.262228458118320E-1    3.412229748113778E-4   -6.414260569349777E-4    3.428246648163447E-4   -6.724038467109075E-4   -4.525853874259821E-1   -1.545673624323104E-1
 1.004729143550000E+10  -3.242547936197481E-1   -3.257450624312480E-1    2.973573324409007E-4   -6.385817686484034E-4    3.699222057173954E-4   -6.473176285233574E-4   -4.527237494354377E-1   -1.537583231903336E-1
 1.004730279900000E+10  -3.246199353796034E-1   -3.250828362347941E-1    3.105910827544227E-4   -6.451028405745072E-4    3.935594175760827E-4   -6.286227352770596E-4   -4.530106036027845E-1   -1.531303200848805E-1
 1.004731416250000E+10  -3.252865166454471E-1   -3.244858494380405E-1    3.193088828722995E-4   -6.274082089734734E-4    3.833656019907844E-4   -6.660857834963242E-4   -4.532369056874905E-1   -1.522790617095159E-1
 1.004732552600000E+10  -3.256996126559612E-1   -3.239844681570238E-1    3.069958720946950E-4   -6.137719758289039E-4    3.517773460041977E-4   -6.311194865473867E-4   -4.534616187300217E-1   -1.514585303624739E-1
 1.004733688950000E+10  -3.264037736320574E-1   -3.233040255107730E-1    2.935741660403746E-4   -6.223900479963148E-4    3.610584847457588E-4   -5.950318519754583E-4   -4.537485139962183E-1   -1.506103834813609E-1
 1.004734825300000E+10  -3.268093833413945E-1   -3.228438816784236E-1    2.922814155733289E-4   -6.135145511747829E-4    3.542754518946561E-4   -6.289573409178071E-4   -4.538624141595277E-1   -1.502011039932656E-1
 1.004735961650000E+10  -3.274688761408787E-1   -3.223226785095192E-1    3.112440624935575E-4   -6.589910624011367E-4    3.593834676375401E-4   -6.579389542719176E-4   -4.539914694889804E-1   -1.491548129704669E-1
 1.004737098000000E+10  -3.277938763742756E-1   -3.218292112613632E-1    3.240393656211319E-4   -6.312596672983353E-4    3.413407852559749E-4   -6.097802418628817E-4   -4.543461968012107E-1   -1.485162787433970E-1
 1.004738234350000E+10  -3.282144343167662E-1   -3.213820609491712E-1    2.837818373987368E-4   -6.233631074433155E-4    3.875353759466516E-4   -6.010433957055063E-4   -4.544994280277468E-1   -1.476826081260118E-1
 1.004739370700000E+10  -3.287790422590094E-1   -3.206247712209389E-1    3.198968381261183E-4   -6.285845726455367E-4    3.760473887421825E-4   -5.819823506354036E-4   -4.546406370986675E-1   -1.469120520468081E-1
 1.004740507050000E+10  -3.294207597893388E-1   -3.201573338737132E-1    3.077715666757645E-4   -6.109767234827397E-4    3.333984062103068E-4   -5.898295411029376E-4   -4.548324624369456E-1   -1.462119185077061E-1
 1.004741643400000E+10  -3.298782849943215E-1   -3.196044455443483E-1    3.009469217810579E-4   -5.850448630952685E-4    3.266956535540383E-4   -5.797403802298100E-4   -4.550618001850042E-1   -1.454303666800181E-1
 1.004742779750000E+10  -3.302595404795456E-1   -3.190509031350399E-1    3.008885262397086E-4   -6.012560327964931E-4    3.376620548763450E-4   -5.871095460508416E-4   -4.553388209707802E-1   -1.447300405470135E-1
 1.004743916100000E+10  -3.308019288532563E-1   -3.185370451957652E-1    2.936840196839481E-4   -5.825719267207887E-4    3.457452501634470E-4   -5.938515318844549E-4   -4.554853038215986E-1   -1.439088488999005E-1
 1.004745052450000E+10  -3.313674335584349E-1   -3.179099515241168E-1    2.908307881619781E-4   -5.761852142675152E-4    3.486138311549989E-4   -5.593466211799503E-4   -4.556687660171477E-1   -1.432074107010977E-1
 1.004746188800000E+10  -3.317993453294599E-1   -3.172395658345847E-1    3.062226655250768E-4   -5.975553158730692E-4    3.221292809768071E-4   -5.681746758352686E-4   -4.560280155587601E-1   -1.423896553871034E-1
 1.004747325150000E+10  -3.322596687701487E-1   -3.168404125288037E-1    2.991166690507700E-4   -5.484476256824034E-4    3.283691704752469E-4   -5.690706296382156E-4   -4.562045570142348E-1   -1.415916085967439E-1
 1.004748461500000E+10  -3.328421797970728E-1   -3.161645667290146E-1    2.887540393737284E-4   -5.822335790034300E-4    3.561322524361926E-4   -5.842535921786437E-4   -4.566095873429744E-1   -1.408305312975671E-1
 1.004749597850000E+10  -3.332780391815646E-1   -3.157039810178201E-1    2.818486413235315E-4   -5.511235314404498E-4    3.367290709411974E-4   -5.533141785555338E-4   -4.565926952225090E-1   -1.400215956560509E-1
 1.004750734200000E+10  -3.338685629235889E-1   -3.151700308806265E-1    2.842160503178674E-4   -5.425391006932932E-4    3.266805151528773E-4   -5.523670047820404E-4   -4.568095045552679E-1   -1.392315444290707E-1
 1.004751870550000E+10  -3.343439114854973E-1   -3.145755696145457E-1    2.673724595858505E-4   -5.682803381124092E-4    3.433937552799527E-4   -5.491761588255199E-4   -4.568948288968713E-1   -1.384450999700996E-1
 1.004753006900000E+10  -3.346799482806328E-1   -3.139759341098259E-1    2.836131470201658E-4   -5.240829409150778E-4    2.947333792888730E-4   -5.170295668398713E-4   -4.573319766399951E-1   -1.377106536272055E-1
 1.004754143250000E+10  -3.353645154012938E-1   -3.133814109462464E-1    2.825659261398640E-4   -5.067039836827548E-4    3.429031675780162E-4   -5.204889895792130E-4   -4.573371126877483E-1   -1.367050667256159E-1
 1.004755279600000E+10  -3.356459833153193E-1   -3.127705375706263E-1    2.900977279225415E-4   -5.265525294090453E-4    3.290491074949518E-4   -4.950633689179854E-4   -4.575699318313569E-1   -1.361925131059610E-1
 1.004756415950000E+10  -3.363893523112600E-1   -3.123805390801717E-1    2.693902991146622E-4   -5.162657789132544E-4    3.285243332931017E-4   -4.852028181819835E-4   -4.578131587851380E-1   -1.353678851226246E-1
 1.004757552300000E+10  -3.369764744877689E-1   -3.117299013575346E-1    2.604531776303797E-4   -4.864239390608623E-4    3.150537938946608E-4   -4.969036688006298E-4   -4.579555237435022E-1   -1.345596925254854E-1
 1.004758688650000E+10  -3.373784788674594E-1   -3.111617532441562E-1    2.492782727693540E-4   -5.117749396474365E-4    3.135991704015699E-4   -5.131334241318416E-4   -4.580983729976181E-1   -1.337197487203532E-1
 1.004759825000000E+10  -3.377094642506217E-1   -3.105866054565883E-1    2.857411380714718E-4   -4.795706463441195E-4    2.948233300101455E-4   -4.743288291722644E-4   -4.583254329858906E-1   -1.330094544012392E-1
