#  HZ   S   RI   R     50.00 
! Rohde & Schwarz Vector Network Analyzer 
! Rohde-Schwarz,ZNB20-2Port,1311601062101988,3.16
! Created: UTC 3/21/2024, 1:03:03 AM
! freq[Hz]                re:S11                  im:S11                  re:S21                  im:S21                  re:S12                  im:S12                  re:S22                  im:S22
 1.004657129800000E+10  -2.897480373250406E-1   -3.586957279678823E-1    4.485293740754451E-4   -8.067549061861215E-4    4.775543066055346E-4   -7.869544218664210E-4   -4.359973028457043E-1   -2.000365529966204E-1
 1.004658268235000E+10  -2.903663634162977E-1   -3.580201493846513E-1    4.139615474488717E-4   -8.359244091383493E-4    4.944739866562200E-4   -7.756272516871043E-4   -4.364710934329930E-1   -1.991000892801170E-1
 1.004659406670000E+10  -2.908661791739577E-1   -3.576009853462819E-1    4.228681473367052E-4   -8.086893463110711E-4    4.785644430528363E-4   -7.740622902334705E-4   -4.365619880321007E-1   -1.984964887934579E-1
 1.004660545105000E+10  -2.914966511486719E-1   -3.571590721313153E-1    4.240405508469589E-4   -8.300600975240810E-4    5.260375753903609E-4   -7.764160418639479E-4   -4.367868111469197E-1   -1.978269434759184E-1
 1.004661683540000E+10  -2.919979745473686E-1   -3.566997219521362E-1    4.039068563325057E-4   -8.131278102585497E-4    4.894240043043510E-4   -8.051105124583523E-4   -4.370824865809087E-1   -1.971746185759150E-1
 1.004662821975000E+10  -2.924566642285064E-1   -3.562275930735224E-1    4.261928863875472E-4   -7.936122179951734E-4    4.963408253074598E-4   -7.982457818355634E-4   -4.374217265584400E-1   -1.964652654661583E-1
 1.004663960410000E+10  -2.930499085784719E-1   -3.555337676716686E-1    4.147278058499748E-4   -8.096676663009296E-4    4.735482825191316E-4   -8.104646935688744E-4   -4.377694644325054E-1   -1.956443067289271E-1
 1.004665098845000E+10  -2.936888016159721E-1   -3.551644327114252E-1    4.136060067481361E-4   -7.823434023178722E-4    4.515482669443534E-4   -8.079023671485292E-4   -4.379161259868254E-1   -1.950025914108329E-1
 1.004666237280000E+10  -2.942375611538861E-1   -3.547024316779253E-1    4.340470438757265E-4   -8.003541673078708E-4    4.901095250360034E-4   -7.851458234592158E-4   -4.383729828270905E-1   -1.942866624045484E-1
 1.004667375715000E+10  -2.948903000891773E-1   -3.541633795493966E-1    4.255065159807533E-4   -7.867328780681387E-4    4.750385104425249E-4   -7.946134920677801E-4   -4.385618553237075E-1   -1.934393225930065E-1
 1.004668514150000E+10  -2.954527593643766E-1   -3.536304087488873E-1    4.054432693959894E-4   -7.790165122440220E-4    4.811272291492994E-4   -7.987821750276270E-4   -4.390590777950803E-1   -1.928180575690963E-1
 1.004669652585000E+10  -2.959462530164708E-1   -3.531972493580961E-1    4.261858934986125E-4   -7.861304271104129E-4    4.633869221444669E-4   -7.839866520226298E-4   -4.393076072258021E-1   -1.920890517845936E-1
 1.004670791020000E+10  -2.965316523128200E-1   -3.526990425262267E-1    4.071260492099236E-4   -8.010083652636211E-4    4.599592304821940E-4   -7.920743384608917E-4   -4.395312317318565E-1   -1.913599945535176E-1
 1.004671929455000E+10  -2.970174498418898E-1   -3.520884480586325E-1    4.111894250850354E-4   -8.207201765964945E-4    4.846944332045551E-4   -7.690409677106617E-4   -4.398752387453323E-1   -1.906006610604374E-1
 1.004673067890000E+10  -2.977034844773067E-1   -3.515355830290947E-1    4.134192500695739E-4   -7.786644322680083E-4    4.681954113297425E-4   -7.826215051241807E-4   -4.400746363487006E-1   -1.899213926323033E-1
 1.004674206325000E+10  -2.981065710074233E-1   -3.510425447738783E-1    3.913475150365074E-4   -7.868368326016599E-4    4.668853524166266E-4   -7.814484799313307E-4   -4.404135313269226E-1   -1.893662959825645E-1
 1.004675344760000E+10  -2.986684733156394E-1   -3.505613702494541E-1    4.307062039419675E-4   -7.920878468646122E-4    4.674725119149040E-4   -7.580854422104004E-4   -4.406237193959046E-1   -1.885114252966764E-1
 1.004676483195000E+10  -2.992915562145147E-1   -3.500928443547626E-1    3.942778020778939E-4   -7.695124152862497E-4    4.335029030507555E-4   -7.370056134293232E-4   -4.408237010413327E-1   -1.878154050084366E-1
 1.004677621630000E+10  -2.999393056981460E-1   -3.495060287048159E-1    4.135262981464429E-4   -7.938633274308550E-4    4.442423814104128E-4   -7.556872818841669E-4   -4.412175954274266E-1   -1.872002871959222E-1
 1.004678760065000E+10  -3.005214324954642E-1   -3.489911372918665E-1    3.966525461872497E-4   -7.901475847843350E-4    4.589234499872368E-4   -7.546105921750117E-4   -4.416540540737253E-1   -1.863400628034287E-1
 1.004679898500000E+10  -3.010422857062365E-1   -3.485994247346016E-1    4.123690474410922E-4   -7.648632494315257E-4    4.285845242591307E-4   -7.812176392327901E-4   -4.417806535056117E-1   -1.857213397898693E-1
 1.004681036935000E+10  -3.015108408545392E-1   -3.480322676834286E-1    4.242688081547319E-4   -7.811581605703702E-4    4.252794478021824E-4   -7.574950555292806E-4   -4.420187991675322E-1   -1.850145888382220E-1
 1.004682175370000E+10  -3.020693256923738E-1   -3.474596850460128E-1    3.873820021860478E-4   -7.707421654884198E-4    4.399193427662640E-4   -7.433244812673935E-4   -4.422333880886671E-1   -1.840674513607720E-1
 1.004683313805000E+10  -3.028446155518439E-1   -3.469285539103829E-1    3.860876402806520E-4   -7.751616522181341E-4    4.748993009694749E-4   -7.884671652352593E-4   -4.426052828170239E-1   -1.835249702418466E-1
 1.004684452240000E+10  -3.032805273418205E-1   -3.464507686280756E-1    4.066605369256392E-4   -8.101968522879366E-4    4.629962559727805E-4   -7.577115752670015E-4   -4.429149845978411E-1   -1.827916230846136E-1
 1.004685590675000E+10  -3.038472767061571E-1   -3.459605948527891E-1    3.852916744674746E-4   -7.744420235216014E-4    4.224478870715403E-4   -7.583057822775182E-4   -4.431210532331603E-1   -1.820251346838049E-1
 1.004686729110000E+10  -3.042907162599799E-1   -3.453911116078723E-1    3.860726659818887E-4   -7.663072995919615E-4    4.568371715072368E-4   -7.620743245716392E-4   -4.435545306693950E-1   -1.813115742725021E-1
 1.004687867545000E+10  -3.048530401155859E-1   -3.449099233411626E-1    4.052341263207511E-4   -7.906764078849869E-4    4.336473559826311E-4   -7.707238944108604E-4   -4.437801225078087E-1   -1.805891771737606E-1
 1.004689005980000E+10  -3.054812938355386E-1   -3.443600301233352E-1    3.888155537671443E-4   -7.426817652792647E-4    4.416523096907101E-4   -7.481165692380725E-4   -4.440515039402049E-1   -1.798409357287911E-1
 1.004690144415000E+10  -3.059601553853583E-1   -3.438455217408342E-1    3.639500521615208E-4   -7.563210747675683E-4    4.415040136444804E-4   -7.553041960313832E-4   -4.442556974371115E-1   -1.792482003220085E-1
 1.004691282850000E+10  -3.065430836745234E-1   -3.434774105618668E-1    3.798019746423004E-4   -7.388930943518234E-4    4.483728919044339E-4   -7.282160434858861E-4   -4.445722663195242E-1   -1.784494519715748E-1
 1.004692421285000E+10  -3.070639859520697E-1   -3.428448993894216E-1    3.788294208862423E-4   -7.650805173564622E-4    4.263212417761502E-4   -7.413646317559813E-4   -4.448071039609966E-1   -1.776102991958978E-1
 1.004693559720000E+10  -3.076407177610664E-1   -3.422875233464442E-1    3.750596231582604E-4   -7.580277300751936E-4    4.283744329132153E-4   -7.467547191783294E-4   -4.450486956635151E-1   -1.770047260697577E-1
 1.004694698155000E+10  -3.081304940265108E-1   -3.419078382324930E-1    3.739153663562023E-4   -7.556132639954783E-4    4.045550512488528E-4   -7.305120465784556E-4   -4.454882170520458E-1   -1.762117642018443E-1
 1.004695836590000E+10  -3.086630734257121E-1   -3.411544829460157E-1    3.524829522560748E-4   -7.223565058867552E-4    4.373701812219026E-4   -7.336611662666359E-4   -4.456563790303257E-1   -1.757149404622400E-1
 1.004696975025000E+10  -3.092670679980496E-1   -3.408856431227362E-1    3.557013602969802E-4   -7.429019691833277E-4    4.350338667340812E-4   -7.339552319262463E-4   -4.458557611675142E-1   -1.748874180394896E-1
 1.004698113460000E+10  -3.097420711309485E-1   -3.402401995909299E-1    3.724587696396021E-4   -7.439038929890154E-4    4.348011671658906E-4   -7.145749485754693E-4   -4.461835932234358E-1   -1.741400711923689E-1
 1.004699251895000E+10  -3.103838625945606E-1   -3.396405787214090E-1    3.726157902239854E-4   -7.640236322871337E-4    4.200821461425640E-4   -7.259430968586477E-4   -4.462101842454934E-1   -1.732405390674071E-1
 1.004700390330000E+10  -3.107834687185161E-1   -3.392159983514073E-1    3.841635874689551E-4   -7.346532737639798E-4    4.118670448511948E-4   -6.990339005267145E-4   -4.465856862068685E-1   -1.725998725824395E-1
 1.004701528765000E+10  -3.114181699197228E-1   -3.385623168154923E-1    3.651102734343270E-4   -7.469001199302120E-4    4.609684463237755E-4   -7.477754604639825E-4   -4.470343322941069E-1   -1.717853286605987E-1
 1.004702667200000E+10  -3.118838555141946E-1   -3.382203164451006E-1    3.376557135224177E-4   -7.148673674036690E-4    4.296476455959877E-4   -7.178553248428543E-4   -4.472033723409906E-1   -1.711665478100612E-1
 1.004703805635000E+10  -3.124574528090748E-1   -3.375950229275392E-1    3.645464648284646E-4   -7.308843661541507E-4    4.221449985554815E-4   -6.892080647380042E-4   -4.473777062921614E-1   -1.703545426582229E-1
 1.004704944070000E+10  -3.130956969644661E-1   -3.370186667674042E-1    3.462714821167077E-4   -7.160483731098879E-4    4.247002360145112E-4   -7.057122025898343E-4   -4.476707293325306E-1   -1.697549417229241E-1
 1.004706082505000E+10  -3.135243895669703E-1   -3.364674350009815E-1    3.365600272881420E-4   -7.279086775955585E-4    3.950652437040218E-4   -7.250353385007916E-4   -4.478779203938608E-1   -1.689833014910523E-1
 1.004707220940000E+10  -3.141206391602526E-1   -3.358795268696192E-1    3.691098111834422E-4   -7.337889655580517E-4    3.939636140959790E-4   -6.884396970440118E-4   -4.479641833569493E-1   -1.681289179256604E-1
 1.004708359375000E+10  -3.146705429099483E-1   -3.354045039720686E-1    3.556049817366238E-4   -6.973799831505456E-4    4.282340725723291E-4   -7.134557188549678E-4   -4.484526632324451E-1   -1.675080627069274E-1
 1.004709497810000E+10  -3.151840582861916E-1   -3.349962045110385E-1    3.667284073196644E-4   -6.999300631843608E-4    3.759722730208486E-4   -6.744766491846859E-4   -4.487329192443983E-1   -1.667865380690578E-1
 1.004710636245000E+10  -3.157678418226748E-1   -3.344285947525829E-1    3.652848738819541E-4   -7.178094685942883E-4    4.222554928519038E-4   -6.843360593430972E-4   -4.487583253321518E-1   -1.659490091285683E-1
 1.004711774680000E+10  -3.162972784590114E-1   -3.337543520769705E-1    3.480949896389158E-4   -7.046279616584038E-4    3.954143235169110E-4   -6.884997029495021E-4   -4.492080064019404E-1   -1.652234018530568E-1
 1.004712913115000E+10  -3.166854700351880E-1   -3.332659095706842E-1    3.470302901163457E-4   -7.125647250291684E-4    4.033710273201689E-4   -6.991727084910025E-4   -4.494777604864361E-1   -1.644699808001324E-1
 1.004714051550000E+10  -3.172264707350889E-1   -3.327870392464202E-1    3.603336703420863E-4   -6.918024490175423E-4    3.948502619926282E-4   -7.125452997739541E-4   -4.496626779132070E-1   -1.637735078559771E-1
 1.004715189985000E+10  -3.177819024633337E-1   -3.321151476001604E-1    3.533149188178773E-4   -6.925556391340645E-4    3.826340392993952E-4   -6.913455030354846E-4   -4.500812670353707E-1   -1.629013962831916E-1
 1.004716328420000E+10  -3.183489013294055E-1   -3.317281125722232E-1    3.305472142570051E-4   -6.893389214785004E-4    3.714935990017169E-4   -6.821708955882830E-4   -4.501900675248386E-1   -1.623774127073871E-1
 1.004717466855000E+10  -3.188089054672806E-1   -3.312325282639578E-1    3.185441075021104E-4   -6.919642465132069E-4    3.908873787432572E-4   -6.966603699448691E-4   -4.503350262533183E-1   -1.613791009385076E-1
 1.004718605290000E+10  -3.193786631515499E-1   -3.306324729247272E-1    3.106098455719922E-4   -6.946062503579748E-4    4.004809126315957E-4   -6.561528831148666E-4   -4.504916740729361E-1   -1.607045624008666E-1
 1.004719743725000E+10  -3.198782518677599E-1   -3.300507577820473E-1    3.387304835398586E-4   -6.970607141533328E-4    3.895369761429380E-4   -6.802168754992232E-4   -4.507530211670456E-1   -1.600442199112854E-1
 1.004720882160000E+10  -3.203680603380454E-1   -3.296318878874217E-1    3.170915949888486E-4   -6.687707837382782E-4    3.891782101447200E-4   -6.619963715137098E-4   -4.510634975010285E-1   -1.593556413654033E-1
 1.004722020595000E+10  -3.209743243766149E-1   -3.290033153769772E-1    3.396576045224686E-4   -6.912875189518594E-4    3.767003554328772E-4   -6.728317041191606E-4   -4.513312637442918E-1   -1.585949472399572E-1
 1.004723159030000E+10  -3.213462416178724E-1   -3.285147747206901E-1    3.291087034047173E-4   -6.804824171597216E-4    3.812017955590023E-4   -6.617973470220391E-4   -4.515850099627946E-1   -1.578402954311361E-1
 1.004724297465000E+10  -3.218327224634439E-1   -3.277904986744224E-1    3.425477555986436E-4   -6.446656494359095E-4    3.801995846956556E-4   -6.810745643213379E-4   -4.518440320791127E-1   -1.571166183458964E-1
 1.004725435900000E+10  -3.224616850578039E-1   -3.274267450738765E-1    3.386223342074748E-4   -6.721676834030497E-4    3.603760817503607E-4   -6.398475699236546E-4   -4.520202004000620E-1   -1.562107487784598E-1
 1.004726574335000E+10  -3.230309879473625E-1   -3.267547405559296E-1    3.253135578524015E-4   -6.489679172647675E-4    3.841752070971021E-4   -6.401639412354919E-4   -4.523571674419001E-1   -1.556797753246023E-1
 1.004727712770000E+10  -3.235864617513626E-1   -3.261963698970420E-1    3.197515063745006E-4   -6.638128956664338E-4    3.787841318105756E-4   -6.614835864690014E-4   -4.524328420899619E-1   -1.548328438400154E-1
 1.004728851205000E+10  -3.239477571741195E-1   -3.257082402509183E-1    3.210616032203008E-4   -6.447192875270909E-4    4.048469536868867E-4   -6.317646323577716E-4   -4.528173503269977E-1   -1.541142665614715E-1
 1.004729989640000E+10  -3.245684207587773E-1   -3.251604961898930E-1    3.160484911220703E-4   -6.605232260597718E-4    3.444609580686353E-4   -6.462907139101781E-4   -4.529435257737994E-1   -1.533676167454040E-1
 1.004731128075000E+10  -3.249569168815968E-1   -3.246747823433906E-1    2.971951483958974E-4   -6.414442976411944E-4    3.737365639314169E-4   -6.300280462435729E-4   -4.531515959717123E-1   -1.525907059504587E-1
 1.004732266510000E+10  -3.255501945176986E-1   -3.240908991873398E-1    3.050181269908075E-4   -6.255220438062479E-4    3.632377906315510E-4   -6.098775492569861E-4   -4.534445043357645E-1   -1.517942753210263E-1
 1.004733404945000E+10  -3.262241555994401E-1   -3.235615609975747E-1    3.259058383182836E-4   -6.635034940280591E-4    3.477096900542597E-4   -6.186058828832176E-4   -4.536657414206327E-1   -1.510837180152340E-1
 1.004734543380000E+10  -3.264638932249043E-1   -3.230223909581382E-1    2.835127128207389E-4   -6.564522565583503E-4    3.781026547789566E-4   -6.111010412392648E-4   -4.538875065185123E-1   -1.502663146230161E-1
 1.004735681815000E+10  -3.271743517861216E-1   -3.224780258604454E-1    3.286397395175380E-4   -6.421712353757849E-4    3.505658279136112E-4   -6.046759124529869E-4   -4.537879419723984E-1   -1.494777036571787E-1
 1.004736820250000E+10  -3.276378993673172E-1   -3.217756439581398E-1    3.029586522140400E-4   -6.324748894643876E-4    3.595951804211216E-4   -6.087153761743429E-4   -4.543422135467391E-1   -1.485856962987028E-1
 1.004737958685000E+10  -3.281493494311308E-1   -3.212463960502630E-1    3.324542185772883E-4   -5.964263460656351E-4    3.630857949624743E-4   -6.267284147017787E-4   -4.543697065894694E-1   -1.479497698259540E-1
 1.004739097120000E+10  -3.286917186256126E-1   -3.208667144951465E-1    3.103846824866951E-4   -6.205224700980962E-4    3.400895465191467E-4   -5.961684927282502E-4   -4.547500993172631E-1   -1.470707440337683E-1
 1.004740235555000E+10  -3.291069467217549E-1   -3.202409157515736E-1    2.803452266934901E-4   -6.190392136619065E-4    3.080535722616052E-4   -5.879471285396517E-4   -4.549025484070924E-1   -1.463765378337052E-1
 1.004741373990000E+10  -3.297083653927186E-1   -3.196985268910080E-1    3.159706863613824E-4   -6.011314735343271E-4    3.512769653170386E-4   -6.192099616106414E-4   -4.549980967817281E-1   -1.455824417313221E-1
 1.004742512425000E+10  -3.302037633482864E-1   -3.190904533458278E-1    3.199517504005566E-4   -5.859463375374166E-4    3.072669349221569E-4   -5.698846561279084E-4   -4.553581746998632E-1   -1.450337577633626E-1
 1.004743650860000E+10  -3.306938393247261E-1   -3.186267491899769E-1    2.994007219592060E-4   -5.883069041776904E-4    3.368214778839946E-4   -5.739914576135360E-4   -4.555242562642876E-1   -1.441659649239362E-1
 1.004744789295000E+10  -3.311097070046990E-1   -3.178894016482005E-1    3.132981588074207E-4   -5.796121677176264E-4    3.178842355398779E-4   -5.653948583465625E-4   -4.557715939525405E-1   -1.433305959848329E-1
 1.004745927730000E+10  -3.318071787653879E-1   -3.174041713659081E-1    2.928474501062810E-4   -5.894821849011125E-4    3.413781533319224E-4   -5.697878570159325E-4   -4.559300894935399E-1   -1.425958569620173E-1
 1.004747066165000E+10  -3.322308780763999E-1   -3.169028643399436E-1    2.848528415493213E-4   -5.715919709833853E-4    3.562215736219046E-4   -5.620565392706206E-4   -4.561779072980318E-1   -1.418612304070014E-1
 1.004748204600000E+10  -3.325965817980705E-1   -3.163420502102731E-1    2.682442549100940E-4   -5.600203187435447E-4    3.217143314946909E-4   -5.628044698168331E-4   -4.564063719378199E-1   -1.411670452681261E-1
 1.004749343035000E+10  -3.331503841915182E-1   -3.158200903475504E-1    2.717921018873375E-4   -5.678922404947726E-4    3.173530070848535E-4   -5.168862178636852E-4   -4.566114030905202E-1   -1.402931171152721E-1
 1.004750481470000E+10  -3.336411059820555E-1   -3.152096941483913E-1    3.034970939161383E-4   -5.645567811198364E-4    3.068652662719674E-4   -5.538516257263624E-4   -4.567622157496352E-1   -1.393666262000284E-1
 1.004751619905000E+10  -3.342265106602763E-1   -3.146500173584071E-1    2.862524621866223E-4   -5.451549869385536E-4    3.146338176038946E-4   -5.354295546882293E-4   -4.569594634383550E-1   -1.385447317580119E-1
 1.004752758340000E+10  -3.346735230700528E-1   -3.140042519900728E-1    2.877818054407115E-4   -5.568590847983332E-4    3.302088512166604E-4   -5.125494896971580E-4   -4.572465125369393E-1   -1.379057752229844E-1
 1.004753896775000E+10  -3.350406822219958E-1   -3.135439627851935E-1    2.899564768241592E-4   -5.455153020755988E-4    3.096036133499944E-4   -5.527051308225222E-4   -4.572771947194899E-1   -1.371138535876054E-1
 1.004755035210000E+10  -3.355952249356167E-1   -3.130213953817951E-1    2.815598327586119E-4   -5.498561659479337E-4    3.344351802338372E-4   -5.052019410282718E-4   -4.575792988825762E-1   -1.363432194376202E-1
 1.004756173645000E+10  -3.360550050664166E-1   -3.124329475312292E-1    3.064857160261026E-4   -5.467241882045511E-4    3.378821608713634E-4   -5.029804822957992E-4   -4.578259050719234E-1   -1.355396472153940E-1
 1.004757312080000E+10  -3.366505219454119E-1   -3.119101464909948E-1    2.807005896792804E-4   -5.150095234549769E-4    3.319468068605230E-4   -5.050551844273990E-4   -4.579357654161608E-1   -1.347370235107485E-1
 1.004758450515000E+10  -3.371067419651137E-1   -3.112141048747918E-1    2.858700893054245E-4   -4.957353270916542E-4    3.282437660327042E-4   -4.889335892273768E-4   -4.580396404077190E-1   -1.339708695562354E-1
 1.004759588950000E+10  -3.375537225014523E-1   -3.106482516315420E-1    2.775135626051835E-4   -5.001523274432779E-4    3.314633445355425E-4   -4.794409603878462E-4   -4.583969941115443E-1   -1.331790984664732E-1
