#  HZ   S   RI   R     50.00 
! Rohde & Schwarz Vector Network Analyzer 
! Rohde-Schwarz,ZNB20-2Port,1311601062101988,3.16
! Created: UTC 3/21/2024, 1:03:13 AM
! freq[Hz]                re:S11                  im:S11                  re:S21                  im:S21                  re:S12                  im:S12                  re:S22                  im:S22
 1.004654876500000E+10  -2.884087012219571E-1   -3.596712331133607E-1    4.086400385347518E-4   -7.948378277159829E-4    4.833447200760434E-4   -8.026817768068448E-4   -4.353205885395701E-1   -2.015837053543002E-1
 1.004656028360000E+10  -2.890585314426491E-1   -3.591000876388385E-1    4.225558416342325E-4   -7.906340837077405E-4    4.817940111688160E-4   -8.104530282967438E-4   -4.355097526575831E-1   -2.006001437895764E-1
 1.004657180220000E+10  -2.897108059789336E-1   -3.586221937862631E-1    4.276119068914478E-4   -8.157225148832319E-4    4.726231802465278E-4   -7.829396253555408E-4   -4.360059228614149E-1   -2.000889350931886E-1
 1.004658332080000E+10  -2.902675169524659E-1   -3.581115940209139E-1    4.116204567217648E-4   -7.970402319369833E-4    4.763429885822976E-4   -7.708454061793812E-4   -4.361424515003972E-1   -1.993659619947120E-1
 1.004659483940000E+10  -2.908506938582443E-1   -3.575429572995842E-1    4.253187116039184E-4   -8.101458540734666E-4    5.044097887086796E-4   -7.926011779071279E-4   -4.365629472961478E-1   -1.986979882089477E-1
 1.004660635800000E+10  -2.913438210428508E-1   -3.572150383760156E-1    4.119735693721869E-4   -7.907054855535551E-4    4.974744262453540E-4   -7.918381621704436E-4   -4.366299682850912E-1   -1.980011241696098E-1
 1.004661787660000E+10  -2.918569928061835E-1   -3.565079711163784E-1    4.204640265443988E-4   -7.981348010175225E-4    4.805207694210067E-4   -8.135195316765766E-4   -4.370800781849786E-1   -1.973910081755486E-1
 1.004662939520000E+10  -2.925373616261155E-1   -3.561297496619005E-1    4.099498261984577E-4   -8.016694510207010E-4    4.684978381408476E-4   -8.033723859393764E-4   -4.373978521567365E-1   -1.965017858947133E-1
 1.004664091380000E+10  -2.931653514890592E-1   -3.554637649361497E-1    4.181988132902757E-4   -7.804442838838877E-4    4.633094832889113E-4   -7.791826424661688E-4   -4.377951147697641E-1   -1.959411889249308E-1
 1.004665243240000E+10  -2.937661146844807E-1   -3.550684880898756E-1    4.218881302211229E-4   -8.125082148718562E-4    4.953710582290483E-4   -7.580155235878734E-4   -4.380191401164400E-1   -1.948988795917390E-1
 1.004666395100000E+10  -2.942812222676111E-1   -3.545137862994666E-1    4.205210651207491E-4   -8.003596305957392E-4    4.848806655698141E-4   -7.968725852787091E-4   -4.383144885610384E-1   -1.943762123138062E-1
 1.004667546960000E+10  -2.948134990835957E-1   -3.540414590345983E-1    4.179080047366377E-4   -7.859355563767514E-4    4.647863368074228E-4   -7.716368367502638E-4   -4.386835762654749E-1   -1.935993228205215E-1
 1.004668698820000E+10  -2.953490640635965E-1   -3.536282906780360E-1    4.213770061325084E-4   -7.832095202567497E-4    4.652234267219375E-4   -8.043740352449340E-4   -4.388980332245804E-1   -1.928464756898433E-1
 1.004669850680000E+10  -2.959889542402216E-1   -3.530195942616323E-1    4.235943384525790E-4   -7.967396218719008E-4    4.878461632414606E-4   -7.586157283232449E-4   -4.390173861339957E-1   -1.921790293220471E-1
 1.004671002540000E+10  -2.965633670314715E-1   -3.525677731798852E-1    4.341658336570987E-4   -7.866200274767196E-4    4.595118903120511E-4   -7.627125675105314E-4   -4.394295105212168E-1   -1.915067985382611E-1
 1.004672154400000E+10  -2.971215774147989E-1   -3.520987937399008E-1    4.408956990934430E-4   -7.809932905027843E-4    4.776492063211729E-4   -7.844250345342369E-4   -4.397574063161397E-1   -1.908958341377383E-1
 1.004673306260000E+10  -2.975650956658807E-1   -3.514827886833102E-1    4.085284765765208E-4   -7.925164600575749E-4    4.708717063540193E-4   -7.644066570589776E-4   -4.399248269437000E-1   -1.901031713037521E-1
 1.004674458120000E+10  -2.982510241289293E-1   -3.510422810545165E-1    4.152344875054016E-4   -7.945467887689173E-4    4.694397295988813E-4   -8.116390262380042E-4   -4.403140279954661E-1   -1.892574644096929E-1
 1.004675609980000E+10  -2.986617949645917E-1   -3.505817940084206E-1    4.125368147117012E-4   -7.749546705839591E-4    4.582695476650735E-4   -7.808569334949554E-4   -4.405770756116688E-1   -1.886903882286197E-1
 1.004676761840000E+10  -2.993759361976741E-1   -3.498846383821622E-1    3.786191195918029E-4   -7.751015584847610E-4    4.713501786117758E-4   -7.796543135807875E-4   -4.409101311247840E-1   -1.877516059400831E-1
 1.004677913700000E+10  -2.998579371923777E-1   -3.494734284225389E-1    3.818708179644222E-4   -7.959320325212373E-4    4.701818020276186E-4   -7.464176323743031E-4   -4.413011903208909E-1   -1.870877652650618E-1
 1.004679065560000E+10  -3.004560986224763E-1   -3.489223410766968E-1    3.896611031532310E-4   -7.981079156607328E-4    4.564457053852324E-4   -7.469814204042625E-4   -4.414710645829028E-1   -1.863176721226476E-1
 1.004680217420000E+10  -3.011687744986640E-1   -3.484777242014050E-1    4.219613581881961E-4   -7.928396442051954E-4    4.447609677472356E-4   -7.816254159067849E-4   -4.418261953932049E-1   -1.856982681779866E-1
 1.004681369280000E+10  -3.014475155100999E-1   -3.479319351802627E-1    3.839058921965375E-4   -7.796637074577181E-4    4.615694635684766E-4   -7.779564573640728E-4   -4.420252627632613E-1   -1.848548694359217E-1
 1.004682521140000E+10  -3.021158446541514E-1   -3.473831474162263E-1    3.708715868407646E-4   -7.838918825222645E-4    4.846077222491692E-4   -7.613241713820000E-4   -4.423261461078011E-1   -1.842744681272551E-1
 1.004683673000000E+10  -3.027004679682392E-1   -3.468253563912529E-1    3.972892272225647E-4   -7.740880734238818E-4    4.163102134075230E-4   -7.558064184103422E-4   -4.427103548176625E-1   -1.834562698076514E-1
 1.004684824860000E+10  -3.033044679171703E-1   -3.464038989077937E-1    3.802702755381004E-4   -7.726050082207570E-4    4.485021129061882E-4   -7.648639312405872E-4   -4.428322860100595E-1   -1.828332264341561E-1
 1.004685976720000E+10  -3.037456281634702E-1   -3.459628502716958E-1    3.832485781844004E-4   -7.604088942067578E-4    4.528528104239871E-4   -7.668976588197361E-4   -4.432650021099042E-1   -1.820069674228885E-1
 1.004687128580000E+10  -3.045318979788258E-1   -3.452751777033752E-1    3.732753813854617E-4   -7.701168220391547E-4    4.280645762520279E-4   -7.499411930612440E-4   -4.434951179603621E-1   -1.813167749791352E-1
 1.004688280440000E+10  -3.049694945621642E-1   -3.447343040543331E-1    3.744987099627934E-4   -7.655973952865069E-4    4.354362682208591E-4   -7.698011923259917E-4   -4.437917227629335E-1   -1.806871631030101E-1
 1.004689432300000E+10  -3.055114572117248E-1   -3.443027016863613E-1    3.695023184750296E-4   -7.344858271716559E-4    4.260350980177412E-4   -7.379804575152422E-4   -4.439296385626488E-1   -1.798446613795034E-1
 1.004690584160000E+10  -3.061062735149037E-1   -3.438828325398060E-1    3.828343126736944E-4   -7.653554213776425E-4    4.172001754873391E-4   -7.275972364086310E-4   -4.442406959797678E-1   -1.789079141006092E-1
 1.004691736020000E+10  -3.066660281779395E-1   -3.431989183973586E-1    3.887743996920133E-4   -7.328611457988118E-4    4.638095055548097E-4   -7.411580529562818E-4   -4.445855597198891E-1   -1.783638873333911E-1
 1.004692887880000E+10  -3.070549291262137E-1   -3.426659293082107E-1    3.761126274200138E-4   -7.550622559806533E-4    4.287742856837907E-4   -7.252042880649041E-4   -4.447884579003200E-1   -1.776796153120124E-1
 1.004694039740000E+10  -3.076231517521828E-1   -3.421349705809010E-1    3.509575311591936E-4   -7.402747707437486E-4    4.361725815580341E-4   -7.487454571771946E-4   -4.449451397399984E-1   -1.770041568985073E-1
 1.004695191600000E+10  -3.082479513891566E-1   -3.416198768380829E-1    3.635696533014760E-4   -7.473135359989079E-4    3.926833469601428E-4   -7.397872142926201E-4   -4.453639952736127E-1   -1.761041410547120E-1
 1.004696343460000E+10  -3.088775403152173E-1   -3.411219788729216E-1    3.746449033217191E-4   -7.380628962216332E-4    4.158500856216922E-4   -7.225949502877575E-4   -4.456082608539226E-1   -1.754297742562228E-1
 1.004697495320000E+10  -3.093526482472967E-1   -3.404764013204840E-1    3.870308551434516E-4   -7.383767748527167E-4    4.172151064795823E-4   -7.296568995743635E-4   -4.458362063077066E-1   -1.747233714510029E-1
 1.004698647180000E+10  -3.099312686342849E-1   -3.399804433823482E-1    3.824667533724571E-4   -7.526178256443795E-4    4.144415964411755E-4   -7.144929125331281E-4   -4.461954613157234E-1   -1.738873752942345E-1
 1.004699799040000E+10  -3.104571227461629E-1   -3.395378499168989E-1    3.773037987408885E-4   -7.436195414392872E-4    4.166264321706599E-4   -7.174502582771571E-4   -4.464079809284464E-1   -1.733120332680665E-1
 1.004700950900000E+10  -3.110581777220065E-1   -3.389365701638151E-1    3.694813231403243E-4   -7.469649848479363E-4    4.101045536444453E-4   -7.220335240972928E-4   -4.465956364556635E-1   -1.725797772301627E-1
 1.004702102760000E+10  -3.115278552080009E-1   -3.384832888658643E-1    3.569485079737281E-4   -7.232777916624861E-4    4.143893796428525E-4   -7.339562280775706E-4   -4.469781863572788E-1   -1.716736925382238E-1
 1.004703254620000E+10  -3.121774695031899E-1   -3.378845132485667E-1    3.551456997091566E-4   -7.300419177820306E-4    4.176108205735962E-4   -7.297729107034800E-4   -4.470599560742524E-1   -1.709625090994603E-1
 1.004704406480000E+10  -3.125767606441351E-1   -3.375042603139591E-1    3.342359725356572E-4   -7.438679409225974E-4    3.894039301621623E-4   -7.416433681344144E-4   -4.474945361771526E-1   -1.701699071177166E-1
 1.004705558340000E+10  -3.131634844620007E-1   -3.369144688495399E-1    3.905417929319919E-4   -7.515377502654631E-4    3.949716203990986E-4   -7.114624782722402E-4   -4.477904374936057E-1   -1.695532973606724E-1
 1.004706710200000E+10  -3.136533788323034E-1   -3.362857432737639E-1    3.464078774054635E-4   -7.379433997490737E-4    4.264844704357776E-4   -7.110447582709122E-4   -4.479408537046719E-1   -1.689379807069341E-1
 1.004707862060000E+10  -3.143377411754292E-1   -3.357567282468825E-1    3.178881094192065E-4   -7.315050453196977E-4    4.024924816021739E-4   -6.867403846112168E-4   -4.481939728345042E-1   -1.678733074552295E-1
 1.004709013920000E+10  -3.147357921177551E-1   -3.352167638220116E-1    3.443935701316016E-4   -7.307283703793395E-4    3.997194787095700E-4   -7.085326868350622E-4   -4.485073587997765E-1   -1.672406823468369E-1
 1.004710165780000E+10  -3.154624386949588E-1   -3.347342100018219E-1    3.703268999407980E-4   -6.990908545823958E-4    3.866635715601069E-4   -6.607579894826871E-4   -4.486280820845780E-1   -1.665201600679800E-1
 1.004711317640000E+10  -3.158837219128889E-1   -3.341475683262707E-1    3.587139628836551E-4   -7.031520440116171E-4    3.899827709455880E-4   -7.062974833367623E-4   -4.489915667330530E-1   -1.659793195685985E-1
 1.004712469500000E+10  -3.164905374541294E-1   -3.335628779321854E-1    3.444711363769182E-4   -7.281578032823952E-4    3.994898826546400E-4   -6.831349943602990E-4   -4.491151789230552E-1   -1.650113200125690E-1
 1.004713621360000E+10  -3.169501979237216E-1   -3.330891368296182E-1    3.631007713087323E-4   -7.116983739915371E-4    3.832657528125495E-4   -7.092628167487877E-4   -4.495046628946359E-1   -1.641734558872517E-1
 1.004714773220000E+10  -3.174772707060615E-1   -3.326497676563697E-1    3.364467306122759E-4   -6.902417992007062E-4    4.254203910191444E-4   -6.902431296695234E-4   -4.497697757668552E-1   -1.633871263959950E-1
 1.004715925080000E+10  -3.181221321420872E-1   -3.318931465108951E-1    3.555118995941782E-4   -6.591050209496212E-4    3.998626275905056E-4   -6.897429819115981E-4   -4.499695915068464E-1   -1.627124176313799E-1
 1.004717076940000E+10  -3.184817773315715E-1   -3.313466386626214E-1    3.385828013961974E-4   -6.790445116035710E-4    4.083127352530846E-4   -6.766584551946946E-4   -4.502917740361929E-1   -1.619910525372218E-1
 1.004718228800000E+10  -3.190563743416149E-1   -3.308827769347884E-1    3.484274937538622E-4   -6.995477990813816E-4    3.913453260102550E-4   -6.729942952234744E-4   -4.505450253954753E-1   -1.613316141802088E-1
 1.004719380660000E+10  -3.195525553025981E-1   -3.303135120988479E-1    3.187279937751368E-4   -7.141638471828227E-4    3.766092447202989E-4   -6.734133000374656E-4   -4.505485566375577E-1   -1.604753984272852E-1
 1.004720532520000E+10  -3.201986054588878E-1   -3.297501954837558E-1    3.089193037968143E-4   -6.743023056539797E-4    3.921993480120727E-4   -6.492142893867455E-4   -4.507161521408801E-1   -1.599349223601124E-1
 1.004721684380000E+10  -3.206290920949968E-1   -3.292668951371200E-1    3.029033872013108E-4   -6.723393795682660E-4    3.760599692645307E-4   -6.502943930893103E-4   -4.510916927568385E-1   -1.590159198606986E-1
 1.004722836240000E+10  -3.211241700257239E-1   -3.287198941070765E-1    3.422669533287542E-4   -6.793927294049441E-4    3.641760561754570E-4   -6.739513524426197E-4   -4.513479077154152E-1   -1.582323583894877E-1
 1.004723988100000E+10  -3.217206620295975E-1   -3.279615254896152E-1    3.170033695010770E-4   -6.587437200961193E-4    3.768866784997611E-4   -6.414980186691142E-4   -4.516316877879993E-1   -1.575186869085225E-1
 1.004725139960000E+10  -3.222792639620893E-1   -3.276049424935746E-1    3.091452971955509E-4   -6.567518607563389E-4    3.794499695347554E-4   -6.684865093332789E-4   -4.517563940913623E-1   -1.567015922508737E-1
 1.004726291820000E+10  -3.227086559517806E-1   -3.270082341651469E-1    3.474547307056221E-4   -6.498518193241066E-4    3.631936655573084E-4   -6.525889866093341E-4   -4.521257987189919E-1   -1.558781682193106E-1
 1.004727443680000E+10  -3.233106487576673E-1   -3.264525207408237E-1    3.112676795976418E-4   -6.454674140368230E-4    3.548507556986932E-4   -6.519309299419111E-4   -4.522662358063760E-1   -1.552280621261278E-1
 1.004728595540000E+10  -3.237809590118764E-1   -3.259515060055565E-1    3.249137471625398E-4   -6.580318419254736E-4    3.657558210344045E-4   -6.442377865657377E-4   -4.526133280410812E-1   -1.545545495233897E-1
 1.004729747400000E+10  -3.242999858168949E-1   -3.253862641362273E-1    3.036921483052431E-4   -6.816936583211641E-4    3.517307253751375E-4   -6.484804608564501E-4   -4.526946962629086E-1   -1.535802965026783E-1
 1.004730899260000E+10  -3.249418709738846E-1   -3.248474514315136E-1    3.370427823297848E-4   -6.653384656393657E-4    3.572318114047847E-4   -6.302160604540726E-4   -4.530574695371865E-1   -1.530317064172800E-1
 1.004732051120000E+10  -3.254269943035549E-1   -3.242931169028904E-1    2.901010036873083E-4   -6.353694855839066E-4    3.545485811639067E-4   -6.383372442495245E-4   -4.532672214322493E-1   -1.520983889465419E-1
 1.004733202980000E+10  -3.259187696240706E-1   -3.236111188501106E-1    3.007872883954541E-4   -6.329427888139438E-4    3.301111013289344E-4   -6.220474371313212E-4   -4.535276249413622E-1   -1.511287669417192E-1
 1.004734354840000E+10  -3.262784162819416E-1   -3.232627049544149E-1    3.285917091063056E-4   -6.292999567823189E-4    3.578743938075724E-4   -6.431834621316541E-4   -4.537822123253527E-1   -1.505517039916347E-1
 1.004735506700000E+10  -3.270464877035492E-1   -3.226579817036375E-1    3.041078380196791E-4   -6.113603007954297E-4    3.640576980009606E-4   -6.310143028117385E-4   -4.539042401762819E-1   -1.500036642116876E-1
 1.004736658560000E+10  -3.275211845592829E-1   -3.221549989976695E-1    3.213947116890123E-4   -6.156558959624179E-4    3.559888169346854E-4   -6.086320462164008E-4   -4.541817390434256E-1   -1.491204496592683E-1
 1.004737810420000E+10  -3.280038980791156E-1   -3.214779722423666E-1    2.924725849665767E-4   -6.242593789675770E-4    3.411299516111311E-4   -6.094850477604251E-4   -4.544517980243001E-1   -1.481496930841102E-1
 1.004738962280000E+10  -3.284989622865789E-1   -3.210585277870847E-1    3.260944872284769E-4   -5.976439507290209E-4    3.380720793243571E-4   -5.871784235354303E-4   -4.544197221823396E-1   -1.474750634597481E-1
 1.004740114140000E+10  -3.290124982121490E-1   -3.202410479536877E-1    3.010918380105944E-4   -6.042227157686222E-4    3.215892281343310E-4   -5.776851088789110E-4   -4.548075111380003E-1   -1.467027838771000E-1
 1.004741266000000E+10  -3.294901179887777E-1   -3.198350535608725E-1    3.066511050307962E-4   -6.262868232396815E-4    3.590910971751787E-4   -6.035030596208356E-4   -4.550180839402838E-1   -1.458700986814153E-1
 1.004742417860000E+10  -3.299758486494436E-1   -3.191828899863828E-1    2.851729005681681E-4   -5.991861489080311E-4    3.617521927839813E-4   -6.211776974304715E-4   -4.551314983420603E-1   -1.452819053375287E-1
 1.004743569720000E+10  -3.305346664586231E-1   -3.186836409334635E-1    3.071326906070503E-4   -5.789743070410144E-4    3.452989099902208E-4   -5.802632013190569E-4   -4.554789479454174E-1   -1.443821156348336E-1
 1.004744721580000E+10  -3.311169027161606E-1   -3.180187561227349E-1    3.283840357166332E-4   -5.716391712092703E-4    3.638121351978407E-4   -5.793020959557397E-4   -4.558075742426459E-1   -1.436720676278692E-1
 1.004745873440000E+10  -3.315117888784632E-1   -3.175454540950377E-1    2.894444177424942E-4   -5.530910736495600E-4    3.353997683548965E-4   -5.673447570034672E-4   -4.558595102277837E-1   -1.427843412452444E-1
 1.004747025300000E+10  -3.320315848513167E-1   -3.169721901919945E-1    2.899721013872728E-4   -5.974471273654518E-4    3.466275356948831E-4   -5.662098778387339E-4   -4.560192166853782E-1   -1.420360733818293E-1
 1.004748177160000E+10  -3.325513104564806E-1   -3.164213701259073E-1    2.914343577480396E-4   -5.638780573822841E-4    3.476316577167538E-4   -5.487838172796112E-4   -4.561757573316751E-1   -1.410526470590597E-1
 1.004749329020000E+10  -3.331559879302872E-1   -3.157597453676171E-1    2.588921325669981E-4   -5.497354668336060E-4    3.272298597446931E-4   -5.144242884098680E-4   -4.564243062715634E-1   -1.404990767237517E-1
 1.004750480880000E+10  -3.336974457545922E-1   -3.152626236299700E-1    2.960151944859242E-4   -5.493926666440850E-4    3.057118529381503E-4   -5.479004029024378E-4   -4.565937239018579E-1   -1.398257449335358E-1
 1.004751632740000E+10  -3.340997814675256E-1   -3.147866734050412E-1    2.894170726458053E-4   -5.485925921531593E-4    3.082007952664865E-4   -5.439519165221289E-4   -4.568320679850260E-1   -1.389780034418188E-1
 1.004752784600000E+10  -3.346882391516195E-1   -3.140724110672560E-1    2.728102765730593E-4   -5.561130367033567E-4    3.193809624161156E-4   -5.225528372693250E-4   -4.571176176996911E-1   -1.380637123793368E-1
 1.004753936460000E+10  -3.352115131189510E-1   -3.134883110802871E-1    2.822379032436151E-4   -5.343399131354997E-4    3.525847505453240E-4   -5.473802583092173E-4   -4.574648135592158E-1   -1.373416548679685E-1
 1.004755088320000E+10  -3.357061073392200E-1   -3.129335150102366E-1    2.980893899665470E-4   -5.196041998019011E-4    3.351684819569680E-4   -5.314405119865040E-4   -4.574370469877386E-1   -1.365287322315590E-1
 1.004756240180000E+10  -3.361088092624176E-1   -3.124399539581777E-1    2.807653617516780E-4   -5.577444229863295E-4    3.319691145891040E-4   -5.007354540338261E-4   -4.576531793954637E-1   -1.357861513713665E-1
 1.004757392040000E+10  -3.368028784070102E-1   -3.118555764943423E-1    2.800897466971968E-4   -5.282804238943904E-4    3.257433025449741E-4   -4.664841593082825E-4   -4.578738149075873E-1   -1.349667438063537E-1
 1.004758543900000E+10  -3.371688720536073E-1   -3.112686953264059E-1    2.752909440512455E-4   -5.194940566725827E-4    3.328837352976713E-4   -5.265005940972271E-4   -4.579191092403619E-1   -1.340308355761561E-1
