#  HZ   S   RI   R     50.00 
! Rohde & Schwarz Vector Network Analyzer 
! Rohde-Schwarz,ZNB20-2Port,1311601062101988,3.16
! Created: UTC 3/21/2024, 1:03:23 AM
! freq[Hz]                re:S11                  im:S11                  re:S21                  im:S21                  re:S12                  im:S12                  re:S22                  im:S22
 1.004651196400000E+10  -2.865619195354308E-1   -3.611899554084187E-1    4.449861211888126E-4   -8.328563626806701E-4    5.245766333581232E-4   -7.945569097004935E-4   -4.342047785824513E-1   -2.039748424909202E-1
 1.004652369060000E+10  -2.872796511395784E-1   -3.606307312697855E-1    4.684836641458181E-4   -7.991644393397795E-4    5.250016280060944E-4   -8.054062670028894E-4   -4.345110100861975E-1   -2.031981400936523E-1
 1.004653541720000E+10  -2.877295486631524E-1   -3.602730193483040E-1    4.215801477920873E-4   -8.026157445531609E-4    4.990234883854716E-4   -8.173487233949236E-4   -4.348856232448629E-1   -2.025619205346986E-1
 1.004654714380000E+10  -2.882997227316241E-1   -3.596262455582620E-1    4.343851349094399E-4   -8.218100868061606E-4    5.083404957795604E-4   -8.006604050397405E-4   -4.352667078488432E-1   -2.019649278650242E-1
 1.004655887040000E+10  -2.888425976281214E-1   -3.591110542233163E-1    4.396981951026072E-4   -8.535958824917317E-4    5.234071297265074E-4   -8.196620841010146E-4   -4.354082447148466E-1   -2.011572303686968E-1
 1.004657059700000E+10  -2.895249870009280E-1   -3.586294951997434E-1    4.316003643621862E-4   -8.104023768535613E-4    5.025919836231813E-4   -7.821908092367499E-4   -4.358676536748810E-1   -2.003838855931556E-1
 1.004658232360000E+10  -2.900324051603050E-1   -3.582298501817665E-1    4.206752985271279E-4   -7.984421024529815E-4    5.029109950406902E-4   -7.776682591894892E-4   -4.362146292987772E-1   -1.996420504762317E-1
 1.004659405020000E+10  -2.907707234994199E-1   -3.577830071278776E-1    4.179538757912944E-4   -8.162938979142746E-4    5.086134682304455E-4   -7.951120396458415E-4   -4.363990934341258E-1   -1.988853357784810E-1
 1.004660577680000E+10  -2.913173129011031E-1   -3.572245760313481E-1    4.078312425046400E-4   -8.173690490028748E-4    4.953678661274817E-4   -8.012999204737828E-4   -4.366988502275532E-1   -1.980979380512356E-1
 1.004661750340000E+10  -2.918508512172363E-1   -3.567819452763576E-1    4.184561879924435E-4   -8.110836234616046E-4    4.873946836504536E-4   -7.818264059644277E-4   -4.371289045707923E-1   -1.974411627427736E-1
 1.004662923000000E+10  -2.925967428478460E-1   -3.562155339410052E-1    4.359041856215105E-4   -8.122981065596048E-4    5.122100311698378E-4   -7.909965945705942E-4   -4.373822755061423E-1   -1.967864047801633E-1
 1.004664095660000E+10  -2.930990472153343E-1   -3.556664485983299E-1    4.235839235982040E-4   -8.121488606808826E-4    4.721002369907345E-4   -7.652753347178408E-4   -4.377086850754316E-1   -1.959599769137798E-1
 1.004665268320000E+10  -2.935704853220390E-1   -3.550758628364219E-1    4.261032026792823E-4   -7.969275792624462E-4    4.600963239426341E-4   -7.789269085473067E-4   -4.379991888291377E-1   -1.951620029391915E-1
 1.004666440980000E+10  -2.941862334136939E-1   -3.545933235157175E-1    4.345846465630435E-4   -8.174749340945891E-4    4.803388514997738E-4   -7.767801115146675E-4   -4.382241320266265E-1   -1.946872106591910E-1
 1.004667613640000E+10  -2.948599942554293E-1   -3.541087844764159E-1    4.013790504936348E-4   -8.042470054134216E-4    4.819682969334741E-4   -7.665346559610227E-4   -4.386823066163488E-1   -1.938090167636466E-1
 1.004668786300000E+10  -2.954183003740179E-1   -3.536240744594481E-1    3.886730316194936E-4   -8.025299763121761E-4    4.831539299198956E-4   -7.817707737238698E-4   -4.386620239067486E-1   -1.929871036508035E-1
 1.004669958960000E+10  -2.958164429338159E-1   -3.529906587376843E-1    4.009471858797176E-4   -7.899198997492071E-4    4.948369767315267E-4   -7.976520745866868E-4   -4.391946771614861E-1   -1.923883134697650E-1
 1.004671131620000E+10  -2.965030976916019E-1   -3.526103546233124E-1    3.996446245029475E-4   -7.991461509764322E-4    4.907359376103876E-4   -7.806137882182871E-4   -4.394111350551943E-1   -1.916573707952861E-1
 1.004672304280000E+10  -2.972257698835223E-1   -3.520590487274066E-1    4.239274793028706E-4   -7.911118819274767E-4    4.778885303534733E-4   -7.789174748090084E-4   -4.398270156869186E-1   -1.908961696739993E-1
 1.004673476940000E+10  -2.977310128298972E-1   -3.514756940970193E-1    4.141715899472880E-4   -7.706097287081057E-4    4.704640923806265E-4   -7.739143762017355E-4   -4.399727745545093E-1   -1.903078355287815E-1
 1.004674649600000E+10  -2.981133908117235E-1   -3.509272245514593E-1    3.962103228431396E-4   -7.872000948566894E-4    4.802169117410446E-4   -7.604192378520840E-4   -4.402971301993817E-1   -1.894327064320096E-1
 1.004675822260000E+10  -2.988642402944449E-1   -3.503947476130900E-1    4.131597683098230E-4   -8.176329430711769E-4    4.561451827169538E-4   -7.451743131791508E-4   -4.406924684873161E-1   -1.886652478959455E-1
 1.004676994920000E+10  -2.994034142858626E-1   -3.499575868428937E-1    3.984625898039882E-4   -7.948703343487980E-4    4.393507503348160E-4   -7.621681781258639E-4   -4.409391802467583E-1   -1.879311174480922E-1
 1.004678167580000E+10  -2.999527547879532E-1   -3.494971225065138E-1    3.987159150838669E-4   -8.226843941608827E-4    4.616276926982882E-4   -7.670679722917102E-4   -4.412649688486328E-1   -1.871473249402572E-1
 1.004679340240000E+10  -3.004948016200594E-1   -3.489724195926303E-1    3.876765205659484E-4   -7.684566222092191E-4    4.787716787062806E-4   -7.701829970159300E-4   -4.414954929222560E-1   -1.865881096352554E-1
 1.004680512900000E+10  -3.012851476005245E-1   -3.483017350035736E-1    3.903677832349606E-4   -8.128629895742090E-4    4.597445592786639E-4   -7.604973031775366E-4   -4.417004150359322E-1   -1.856944622799972E-1
 1.004681685560000E+10  -3.017477449810954E-1   -3.478865135784306E-1    3.910997007803423E-4   -7.628391938108952E-4    4.599030438211454E-4   -7.495244541448592E-4   -4.420836580599204E-1   -1.850807010987699E-1
 1.004682858220000E+10  -3.022663597338535E-1   -3.473542283361170E-1    3.940852994120709E-4   -7.919541981379703E-4    4.571032629400890E-4   -7.750981034645864E-4   -4.423716586582177E-1   -1.843372947195975E-1
 1.004684030880000E+10  -3.029591805186860E-1   -3.467055118065233E-1    3.998198404252880E-4   -7.809264046119707E-4    4.520956312578548E-4   -7.349922537654634E-4   -4.424943632855874E-1   -1.835459625282198E-1
 1.004685203540000E+10  -3.032770490883525E-1   -3.462159351095949E-1    3.708802836809349E-4   -7.449785370875534E-4    4.477238111907050E-4   -7.373448868900138E-4   -4.428679252862688E-1   -1.826705649847560E-1
 1.004686376200000E+10  -3.039402947286874E-1   -3.458188879590667E-1    3.835031606813295E-4   -7.809346756962114E-4    4.153581097185298E-4   -7.537229517717609E-4   -4.432042702583404E-1   -1.819024130643128E-1
 1.004687548860000E+10  -3.045173887063258E-1   -3.450594413713130E-1    4.103695789850239E-4   -7.495389276563144E-4    4.502519550323219E-4   -7.560096918311372E-4   -4.432426091106540E-1   -1.813163738655618E-1
 1.004688721520000E+10  -3.050795116829242E-1   -3.446414583202759E-1    3.934146737424414E-4   -7.461659991545685E-4    4.284154975479640E-4   -7.457250272114833E-4   -4.435261854696180E-1   -1.805762081533265E-1
 1.004689894180000E+10  -3.056154454226833E-1   -3.441688018037284E-1    3.795343604929306E-4   -7.726923526490783E-4    4.218619364622191E-4   -7.326037730398734E-4   -4.439593385464913E-1   -1.797907632099090E-1
 1.004691066840000E+10  -3.062246918681251E-1   -3.436251321070852E-1    3.787128631407502E-4   -7.294057735962545E-4    4.380273018160284E-4   -7.592259520441474E-4   -4.442525346500022E-1   -1.789620550956073E-1
 1.004692239500000E+10  -3.066756570911813E-1   -3.429503221064927E-1    3.723297159600381E-4   -7.449169715674759E-4    4.386586516549970E-4   -7.290020067678618E-4   -4.445213007320247E-1   -1.784488519919157E-1
 1.004693412160000E+10  -3.074688866627755E-1   -3.425321893489946E-1    3.579405475669339E-4   -7.515751953917167E-4    3.981112850886836E-4   -7.240741535336673E-4   -4.447988503609277E-1   -1.774548459360386E-1
 1.004694584820000E+10  -3.079611067378568E-1   -3.419332105767692E-1    3.756521472984721E-4   -7.649438122849513E-4    4.648922099284069E-4   -7.443957497918416E-4   -4.450159849945778E-1   -1.768946672874651E-1
 1.004695757480000E+10  -3.085434176541207E-1   -3.414526563767819E-1    3.693514974308416E-4   -7.570745677071742E-4    4.055116227648613E-4   -7.416505142374380E-4   -4.453747287469278E-1   -1.760164698762109E-1
 1.004696930140000E+10  -3.090497557457371E-1   -3.408909438674434E-1    3.577896485641996E-4   -7.331972462524296E-4    4.129290644289539E-4   -7.487269858684828E-4   -4.455606248905886E-1   -1.755783463833947E-1
 1.004698102800000E+10  -3.095645523414222E-1   -3.404586697734250E-1    3.715051688027595E-4   -7.373815381448633E-4    4.153965640940564E-4   -7.540070792036934E-4   -4.458522902104026E-1   -1.745249729775748E-1
 1.004699275460000E+10  -3.102980182473739E-1   -3.397356580577553E-1    3.720888230084086E-4   -7.460682835225043E-4    4.335260096085494E-4   -7.212046925239556E-4   -4.461022725748892E-1   -1.738509604392631E-1
 1.004700448120000E+10  -3.107236915961780E-1   -3.391786323692177E-1    3.841596765173635E-4   -7.325080209548745E-4    4.331336721805176E-4   -7.294750637265817E-4   -4.464145291130613E-1   -1.731306410818212E-1
 1.004701620780000E+10  -3.111841860720809E-1   -3.387481462002742E-1    3.658156689740993E-4   -7.207818506297364E-4    4.078470541945311E-4   -7.151367841979214E-4   -4.467926485958730E-1   -1.722974518581699E-1
 1.004702793440000E+10  -3.117306152799745E-1   -3.382121657348321E-1    3.797795851518131E-4   -7.282134812496276E-4    4.051261992573473E-4   -7.308404264868114E-4   -4.470976479866616E-1   -1.715660247786295E-1
 1.004703966100000E+10  -3.122827761412522E-1   -3.376872209244943E-1    3.622817439005089E-4   -7.330185326473448E-4    3.996050006310631E-4   -6.947129010702039E-4   -4.471917611516291E-1   -1.707609069848026E-1
 1.004705138760000E+10  -3.128432395727586E-1   -3.370561423583205E-1    3.638957327219966E-4   -7.339884124686005E-4    4.169290207162527E-4   -7.175243251717159E-4   -4.476027693904785E-1   -1.700951021716517E-1
 1.004706311420000E+10  -3.134158840515281E-1   -3.364770502683348E-1    3.598808750739586E-4   -7.348793616362559E-4    4.226881590639214E-4   -7.075348746125154E-4   -4.478621243981097E-1   -1.693786304148279E-1
 1.004707484080000E+10  -3.140140544645736E-1   -3.358992834083583E-1    3.640429860437687E-4   -7.305967017828097E-4    3.997102181674752E-4   -7.185321111395324E-4   -4.481278754835156E-1   -1.684274822324509E-1
 1.004708656740000E+10  -3.145385765560633E-1   -3.353430314016153E-1    3.578487150483426E-4   -7.182103390224032E-4    4.040377742132958E-4   -7.065016619066499E-4   -4.483607092555009E-1   -1.677589527413951E-1
 1.004709829400000E+10  -3.150641684298049E-1   -3.348881612449784E-1    3.453821619866305E-4   -7.119282504410660E-4    4.309865259588369E-4   -6.822870846164353E-4   -4.485681360413160E-1   -1.667867748248166E-1
 1.004711002060000E+10  -3.155880939516784E-1   -3.344015658606885E-1    3.364341774432572E-4   -7.170970367875883E-4    4.061929657789708E-4   -7.244697225865050E-4   -4.486540040253536E-1   -1.663274667256737E-1
 1.004712174720000E+10  -3.161981832329225E-1   -3.337026357074528E-1    3.463614160211282E-4   -6.971683146750860E-4    3.937284079503066E-4   -6.927772767852229E-4   -4.490081546062420E-1   -1.656248279343544E-1
 1.004713347380000E+10  -3.167806536383070E-1   -3.332277091688169E-1    3.301836530124421E-4   -6.937519624637703E-4    3.853515013327065E-4   -7.003149163822734E-4   -4.492965853969648E-1   -1.646712279130032E-1
 1.004714520040000E+10  -3.172331205404233E-1   -3.326331972438800E-1    3.531779592188168E-4   -7.227923702281888E-4    4.202281101094866E-4   -7.069527938334664E-4   -4.495087412931971E-1   -1.639684060239513E-1
 1.004715692700000E+10  -3.177298253110570E-1   -3.321100002644215E-1    3.512332811389036E-4   -7.154144823195001E-4    3.944448571123853E-4   -6.725796747051477E-4   -4.498697879897962E-1   -1.629571609605923E-1
 1.004716865360000E+10  -3.182591704519985E-1   -3.316078937638327E-1    3.338883638535019E-4   -6.842339884682655E-4    4.139333423404542E-4   -6.802860657001925E-4   -4.500281805301752E-1   -1.624128967971692E-1
 1.004718038020000E+10  -3.189332388698201E-1   -3.309047517435763E-1    3.198049857510330E-4   -6.900881355632231E-4    4.010944501772940E-4   -6.706154435800278E-4   -4.504553967416355E-1   -1.616913361339047E-1
 1.004719210680000E+10  -3.194881143017040E-1   -3.303889579954579E-1    3.455901951013102E-4   -7.129448249234735E-4    3.998987279561569E-4   -6.620021897877290E-4   -4.504616870772901E-1   -1.609397708379747E-1
 1.004720383340000E+10  -3.199836149361358E-1   -3.299526808505124E-1    3.538426366381959E-4   -6.821135943917364E-4    3.609740341772399E-4   -6.630365254143054E-4   -4.506643298448978E-1   -1.601178247377118E-1
 1.004721556000000E+10  -3.205452742809203E-1   -3.293605115313591E-1    3.794240258263554E-4   -6.865136535067099E-4    3.851115025317459E-4   -6.834419246165198E-4   -4.510373025043498E-1   -1.593171191062761E-1
 1.004722728660000E+10  -3.210327262318770E-1   -3.288108528808882E-1    3.485376024746088E-4   -6.531012392438818E-4    3.709419581286296E-4   -6.593560628519145E-4   -4.513315346712811E-1   -1.586493947527186E-1
 1.004723901320000E+10  -3.216822527807399E-1   -3.283067868556832E-1    3.483636167085065E-4   -6.575262075828194E-4    3.848240901314247E-4   -6.549047583268973E-4   -4.514141053941249E-1   -1.578091323033053E-1
 1.004725073980000E+10  -3.221123908330693E-1   -3.277729661220669E-1    3.519450761534555E-4   -6.633274928527956E-4    3.999856716130342E-4   -6.666833839090421E-4   -4.517931475671697E-1   -1.571012569751838E-1
 1.004726246640000E+10  -3.225728983082105E-1   -3.271301587162607E-1    3.107977494874176E-4   -6.388434891606581E-4    3.762800524861134E-4   -6.453782973056460E-4   -4.518272791960110E-1   -1.562596775891694E-1
 1.004727419300000E+10  -3.231968417680293E-1   -3.265591652158550E-1    3.158433346133150E-4   -6.595098072270756E-4    3.672794895831917E-4   -6.621263875292332E-4   -4.520624879215618E-1   -1.554097520359212E-1
 1.004728591960000E+10  -3.236693622927974E-1   -3.259159336450065E-1    3.266075621076340E-4   -6.508548352361885E-4    3.923836458410017E-4   -6.392343311444638E-4   -4.523154361237411E-1   -1.546610565988703E-1
 1.004729764620000E+10  -3.242874885375035E-1   -3.254776423652666E-1    3.242475392321082E-4   -6.323260881067195E-4    3.769695346833146E-4   -6.515826478714424E-4   -4.527300132168343E-1   -1.539250239996019E-1
 1.004730937280000E+10  -3.247956074007929E-1   -3.247649708203620E-1    3.283296367370972E-4   -6.493534554922412E-4    3.843968829829646E-4   -6.358998189872615E-4   -4.528291267985430E-1   -1.531643464039546E-1
 1.004732109940000E+10  -3.252837506959937E-1   -3.243692775240104E-1    3.390883835168113E-4   -6.247636725323526E-4    3.171777656858956E-4   -6.059666100799194E-4   -4.531405178242070E-1   -1.523019754376021E-1
 1.004733282600000E+10  -3.257447784854611E-1   -3.236776837312762E-1    3.215941847013180E-4   -6.300072560677575E-4    3.357697242623267E-4   -5.952121709114102E-4   -4.533931753086031E-1   -1.514684467138377E-1
 1.004734455260000E+10  -3.264995372819440E-1   -3.232547431703707E-1    3.394623546879431E-4   -6.233160613780943E-4    3.469411394965791E-4   -6.171357517178642E-4   -4.535292185867738E-1   -1.509755243590378E-1
 1.004735627920000E+10  -3.269535629798630E-1   -3.225441930423717E-1    3.283058249030620E-4   -6.068451680150945E-4    3.729547893378507E-4   -6.225041959217893E-4   -4.537558717308875E-1   -1.499074978343231E-1
 1.004736800580000E+10  -3.274481034018752E-1   -3.220196578710557E-1    3.469838242537108E-4   -6.273978932954754E-4    3.459801724086106E-4   -5.965415971695025E-4   -4.540525297588638E-1   -1.491366356379169E-1
 1.004737973240000E+10  -3.280178193044553E-1   -3.214640998690527E-1    2.943724660302207E-4   -6.055666990525389E-4    3.541769957308173E-4   -6.061167671771861E-4   -4.542764650697771E-1   -1.482865235346834E-1
 1.004739145900000E+10  -3.284756275069625E-1   -3.208780263434712E-1    3.407643814967014E-4   -6.297881320841727E-4    3.663579609026422E-4   -6.200622868834426E-4   -4.544781870257891E-1   -1.476729089401697E-1
 1.004740318560000E+10  -3.290581525370487E-1   -3.202845327753806E-1    3.041653513519087E-4   -5.878339812443673E-4    3.473485742616590E-4   -6.311173996335473E-4   -4.547407640384006E-1   -1.468751820473269E-1
 1.004741491220000E+10  -3.294966407757414E-1   -3.197660328020769E-1    3.155332572596468E-4   -6.021149324443212E-4    3.411604219723004E-4   -5.986992919102573E-4   -4.550196982985363E-1   -1.459642363354983E-1
 1.004742663880000E+10  -3.299914074306401E-1   -3.191441229696483E-1    3.087864941309043E-4   -5.755166385091428E-4    3.665692802147929E-4   -5.906517529364139E-4   -4.552107668046408E-1   -1.451766122431703E-1
 1.004743836540000E+10  -3.306253150765132E-1   -3.185455274612934E-1    3.024277456215667E-4   -5.913012625194145E-4    3.580674478357445E-4   -5.848819154177083E-4   -4.554755747988667E-1   -1.444939038115607E-1
 1.004745009200000E+10  -3.309818186404817E-1   -3.180140099520624E-1    3.046222475723856E-4   -5.634947821811509E-4    3.445663766828457E-4   -6.105215822543441E-4   -4.555430318222268E-1   -1.437145137739392E-1
 1.004746181860000E+10  -3.316463573138218E-1   -3.175441017388444E-1    2.754436675192429E-4   -5.686231626406625E-4    3.353565256330004E-4   -5.341052449925682E-4   -4.559568251699880E-1   -1.429130901326963E-1
 1.004747354520000E+10  -3.320658885348963E-1   -3.169222699342437E-1    2.944787702253186E-4   -5.550870271484159E-4    3.398349022837463E-4   -5.678532165030518E-4   -4.560438832108888E-1   -1.421723796441769E-1
 1.004748527180000E+10  -3.326513861427097E-1   -3.162570216235774E-1    3.298584026143647E-4   -5.712822534911915E-4    3.528287943416594E-4   -5.441950965240171E-4   -4.562749380923832E-1   -1.412832679011400E-1
 1.004749699840000E+10  -3.331298084015263E-1   -3.157325280499926E-1    2.893004422667125E-4   -5.474680995116232E-4    3.325249087984611E-4   -5.356820748947071E-4   -4.563492707809534E-1   -1.404551615359808E-1
 1.004750872500000E+10  -3.336888734275764E-1   -3.152217845349355E-1    3.155613689881350E-4   -5.505934740581280E-4    3.062719558830021E-4   -5.280272253352827E-4   -4.566861721317428E-1   -1.396450932721953E-1
 1.004752045160000E+10  -3.342531652981526E-1   -3.144420975646480E-1    2.974834846414064E-4   -5.603588792720332E-4    3.181302241223033E-4   -5.261599749274758E-4   -4.568897310682213E-1   -1.388645164525204E-1
 1.004753217820000E+10  -3.347761476387674E-1   -3.138833633659370E-1    2.978738935277293E-4   -5.532758203243063E-4    3.424871741978216E-4   -5.349583961609082E-4   -4.570628603934393E-1   -1.381959708604134E-1
 1.004754390480000E+10  -3.352447420717762E-1   -3.133866089947240E-1    2.880752094670968E-4   -5.276621114903643E-4    3.284774978584140E-4   -5.360975000485331E-4   -4.572080994456816E-1   -1.373718514970176E-1
 1.004755563140000E+10  -3.358533746986042E-1   -3.126912248347827E-1    2.898579684602177E-4   -5.272173275722439E-4    3.333714282865009E-4   -5.097103900552735E-4   -4.574625228527350E-1   -1.365573447843240E-1
 1.004756735800000E+10  -3.362611013275933E-1   -3.121887213448971E-1    2.846220407961802E-4   -5.300685210247961E-4    3.103376803478972E-4   -5.220159326174412E-4   -4.576479066311476E-1   -1.356064814747622E-1
