#  HZ   S   RI   R     50.00 
! Rohde & Schwarz Vector Network Analyzer 
! Rohde-Schwarz,ZNB20-2Port,1311601062101988,3.16
! Created: UTC 3/21/2024, 1:03:43 AM
! freq[Hz]                re:S11                  im:S11                  re:S21                  im:S21                  re:S12                  im:S12                  re:S22                  im:S22
 1.004646078700000E+10  -2.838688738004743E-1   -3.634160067094925E-1    4.436336118136891E-4   -8.127580380402963E-4    5.345814494910650E-4   -8.051064701193301E-4   -4.325885710735768E-1   -2.074985719939886E-1
 1.004647279632500E+10  -2.843528321465503E-1   -3.631163119165893E-1    4.785403234259919E-4   -8.015176384035336E-4    5.122837860784918E-4   -8.086311834678420E-4   -4.331069315058587E-1   -2.068559082534803E-1
 1.004648480565000E+10  -2.851138676289072E-1   -3.624919124285420E-1    4.367589287042084E-4   -8.258042272816193E-4    4.919697809064691E-4   -8.000235201466298E-4   -4.329971142406502E-1   -2.060516439590884E-1
 1.004649681497500E+10  -2.855349547261448E-1   -3.619854014519705E-1    4.544300659903054E-4   -8.103597098158383E-4    5.179244049836954E-4   -8.201597913912159E-4   -4.334752184803938E-1   -2.052227732550396E-1
 1.004650882430000E+10  -2.862704468177909E-1   -3.614970607477532E-1    4.353677458519228E-4   -8.192075810323225E-4    5.019249308702657E-4   -7.763490068721141E-4   -4.338959833805801E-1   -2.045194736222763E-1
 1.004652083362500E+10  -2.868480564524113E-1   -3.610438757716047E-1    4.478252420020899E-4   -8.149004849663502E-4    5.125885397130970E-4   -7.806582379365643E-4   -4.341616977332490E-1   -2.037711218423684E-1
 1.004653284295000E+10  -2.873809769619715E-1   -3.603435990129175E-1    4.509513973535660E-4   -8.322408551309229E-4    4.803505566776846E-4   -8.144474627830834E-4   -4.345448246673906E-1   -2.029541338508441E-1
 1.004654485227500E+10  -2.880943277760292E-1   -3.598212195290393E-1    4.328855668351177E-4   -8.242738956523481E-4    5.028443390400881E-4   -7.987429440529257E-4   -4.348938187783852E-1   -2.024837838669415E-1
 1.004655686160000E+10  -2.885625536995893E-1   -3.594118595887237E-1    4.428656458139088E-4   -8.142431679898595E-4    5.008123593158749E-4   -7.775775188186835E-4   -4.351298006639373E-1   -2.015271448350875E-1
 1.004656887092500E+10  -2.892715401053514E-1   -3.587740619160754E-1    4.343570301726567E-4   -8.019388906983822E-4    4.899445369281209E-4   -7.728686715199760E-4   -4.354748082318286E-1   -2.009552005134994E-1
 1.004658088025000E+10  -2.898187109685667E-1   -3.584124945365018E-1    4.448436375322954E-4   -7.950573175433571E-4    5.041710716511918E-4   -7.914747422121921E-4   -4.358435624801707E-1   -2.000470378789168E-1
 1.004659288957500E+10  -2.904782884354286E-1   -3.577069361258889E-1    4.292901437311433E-4   -8.086765434767198E-4    4.920848252088973E-4   -8.012248870459872E-4   -4.361716475017704E-1   -1.993089758257588E-1
 1.004660489890000E+10  -2.910951375743063E-1   -3.573072252589108E-1    4.261787997158202E-4   -7.948851483755308E-4    4.681034606630578E-4   -8.082061777148216E-4   -4.363719476575577E-1   -1.986595882669287E-1
 1.004661690822500E+10  -2.916829838497324E-1   -3.567968874347628E-1    4.386402519968075E-4   -7.741066522507274E-4    4.880049997674325E-4   -8.021139689179757E-4   -4.366786746045680E-1   -1.979740651566206E-1
 1.004662891755000E+10  -2.922821405769452E-1   -3.562900618197193E-1    4.176892412758709E-4   -7.807335900125692E-4    5.029765445799834E-4   -7.772246898386863E-4   -4.372053567519049E-1   -1.971429788391231E-1
 1.004664092687500E+10  -2.928635358510701E-1   -3.556102442756803E-1    4.241335832824052E-4   -8.035647188259891E-4    4.805056804248121E-4   -7.852777890183301E-4   -4.374406802621544E-1   -1.964915591819716E-1
 1.004665293620000E+10  -2.933562210709326E-1   -3.552368202161404E-1    4.123863726317500E-4   -7.848112063931181E-4    4.690361901767305E-4   -8.218417993811649E-4   -4.377360474806490E-1   -1.955453739476130E-1
 1.004666494552500E+10  -2.940237327127487E-1   -3.545916952491856E-1    4.337116894207993E-4   -8.031003828803244E-4    4.816306470343470E-4   -7.936426820518581E-4   -4.379610461095113E-1   -1.949820996386584E-1
 1.004667695485000E+10  -2.946351502893668E-1   -3.540814741090728E-1    4.157641862375060E-4   -7.864236330818290E-4    4.789847257648028E-4   -7.660117491696965E-4   -4.383769156243276E-1   -1.939940533521750E-1
 1.004668896417500E+10  -2.953079522709278E-1   -3.535357531427188E-1    4.070973715290680E-4   -7.962142040117616E-4    4.969959409254509E-4   -7.736184619954911E-4   -4.386079016880023E-1   -1.933589752529506E-1
 1.004670097350000E+10  -2.958737571916441E-1   -3.529972546144746E-1    4.082882302938594E-4   -7.876354187842187E-4    5.014967371398850E-4   -7.743468891630690E-4   -4.388813037455197E-1   -1.926455397290321E-1
 1.004671298282500E+10  -2.964205356812080E-1   -3.525967996815348E-1    4.002268412047811E-4   -7.620139002704018E-4    4.623744398642476E-4   -8.036812914308188E-4   -4.390713724023154E-1   -1.919426599301155E-1
 1.004672499215000E+10  -2.970006781099566E-1   -3.520477695414232E-1    4.064464619667781E-4   -8.131539636648181E-4    4.516245591796021E-4   -7.849064009050879E-4   -4.395490672705483E-1   -1.912542594459673E-1
 1.004673700147500E+10  -2.976752890357682E-1   -3.514113570692551E-1    4.059818601015938E-4   -7.885237277592093E-4    4.662175532488669E-4   -7.417658779469172E-4   -4.397314268650420E-1   -1.905383479806846E-1
 1.004674901080000E+10  -2.982154820278584E-1   -3.509964161672448E-1    4.038005643842452E-4   -7.630581312292858E-4    4.484734326598566E-4   -7.685893414330859E-4   -4.401978249641094E-1   -1.896801524078828E-1
 1.004676102012500E+10  -2.988460565994348E-1   -3.503787182793779E-1    4.225037787948479E-4   -7.805789416578246E-4    4.777780838512606E-4   -7.724462641359734E-4   -4.405468997704535E-1   -1.888388174992227E-1
 1.004677302945000E+10  -2.995099719429901E-1   -3.498707156067860E-1    3.963772363735730E-4   -7.768085483651817E-4    4.695881449698039E-4   -7.438628839631534E-4   -4.406655977390614E-1   -1.880457585575988E-1
 1.004678503877500E+10  -2.999052173117846E-1   -3.492228466115078E-1    3.759690241021264E-4   -7.745120097704837E-4    4.695057122134621E-4   -7.551658024634325E-4   -4.410332525767703E-1   -1.871604675992882E-1
 1.004679704810000E+10  -3.004930779906596E-1   -3.487742154088748E-1    3.988912076670424E-4   -7.848939936653132E-4    4.362262014356261E-4   -7.749842928574223E-4   -4.414244092136300E-1   -1.865201663580303E-1
 1.004680905742500E+10  -3.010741995298725E-1   -3.482689616049585E-1    3.936122036689706E-4   -7.845426172931197E-4    4.220101684068494E-4   -7.530057415154887E-4   -4.415807302741187E-1   -1.858705836976027E-1
 1.004682106675000E+10  -3.017558359594076E-1   -3.477986319182227E-1    3.776004712718999E-4   -7.719944221687514E-4    4.338988757697448E-4   -7.678857959845834E-4   -4.419812083523630E-1   -1.850489321832259E-1
 1.004683307607500E+10  -3.023344599797655E-1   -3.471329009343777E-1    3.906432621376834E-4   -7.554300206083250E-4    4.604417373838303E-4   -7.615439282158392E-4   -4.422312603200100E-1   -1.843781912759964E-1
 1.004684508540000E+10  -3.028468790924968E-1   -3.466136458132697E-1    3.853233271849863E-4   -7.742210762774354E-4    4.473278181247354E-4   -7.706060297704607E-4   -4.423967047816328E-1   -1.834648000543678E-1
 1.004685709472500E+10  -3.035232909544668E-1   -3.460287585078710E-1    3.753625707835725E-4   -7.857777885742740E-4    4.566317941915496E-4   -7.526868766603447E-4   -4.427807478373825E-1   -1.828876520673704E-1
 1.004686910405000E+10  -3.040005708914459E-1   -3.454153866089169E-1    4.152764547498562E-4   -7.357091920874412E-4    4.353557668345036E-4   -7.399716188455784E-4   -4.430831467163002E-1   -1.820631181999228E-1
 1.004688111337500E+10  -3.046608307371856E-1   -3.450121822142673E-1    3.566328277877240E-4   -7.503345488079917E-4    4.296895727295651E-4   -7.569154563446674E-4   -4.433990826188666E-1   -1.811807442436852E-1
 1.004689312270000E+10  -3.053264828466066E-1   -3.444623266086141E-1    3.766267475277026E-4   -7.796246848633443E-4    4.456874351523276E-4   -7.568797827962617E-4   -4.436057403844497E-1   -1.804142700501891E-1
 1.004690513202500E+10  -3.058534801418751E-1   -3.439506776432980E-1    3.711875767273751E-4   -7.721868168640966E-4    4.399785187792964E-4   -7.391738909077984E-4   -4.438689135118943E-1   -1.795856186207513E-1
 1.004691714135000E+10  -3.063184762426147E-1   -3.433872475365756E-1    3.749475783538396E-4   -7.689907822299698E-4    4.121712860109412E-4   -7.340267649412556E-4   -4.442424816374341E-1   -1.789390752381838E-1
 1.004692915067500E+10  -3.068780224960050E-1   -3.426777110545371E-1    4.126203245588020E-4   -7.494857757684213E-4    4.220133265087745E-4   -7.609053014134767E-4   -4.444958495596358E-1   -1.782912291690395E-1
 1.004694116000000E+10  -3.074281455262745E-1   -3.422777988394836E-1    3.748700570251286E-4   -7.679527676375860E-4    4.430258425534045E-4   -7.564954793613570E-4   -4.448342412642454E-1   -1.774364681765270E-1
 1.004695316932500E+10  -3.080921979684750E-1   -3.417244882127450E-1    3.702339989464452E-4   -7.605981976670283E-4    4.310533575270758E-4   -7.308595264692290E-4   -4.450074248537399E-1   -1.766449744297787E-1
 1.004696517865000E+10  -3.087135124630476E-1   -3.410612044150903E-1    3.733859725538336E-4   -7.760354881906678E-4    4.341152038625631E-4   -7.605211538246276E-4   -4.451705956808325E-1   -1.757686149284914E-1
 1.004697718797500E+10  -3.091074518270425E-1   -3.406474170147325E-1    3.637372671405545E-4   -7.639358134955696E-4    4.375325326808726E-4   -7.459019082728241E-4   -4.456773267624932E-1   -1.752659477101555E-1
 1.004698919730000E+10  -3.097717071926673E-1   -3.399750673079495E-1    3.631771949571492E-4   -7.239560409553844E-4    4.107694404512489E-4   -7.179314437808545E-4   -4.459393811314745E-1   -1.743290316960701E-1
 1.004700120662500E+10  -3.104460707416807E-1   -3.394901908660820E-1    3.713583783047886E-4   -7.413144974643091E-4    4.108475404357033E-4   -7.101949735105373E-4   -4.462436984744845E-1   -1.736165999391335E-1
 1.004701321595000E+10  -3.108148162922539E-1   -3.389722592310827E-1    3.631658326738226E-4   -7.526317063681848E-4    4.358475073392523E-4   -7.129727827030816E-4   -4.463520404795713E-1   -1.729577848961797E-1
 1.004702522527500E+10  -3.114785658896161E-1   -3.383409570715657E-1    3.596823268828983E-4   -7.422549758530117E-4    4.091288502193713E-4   -7.451662407444263E-4   -4.468619655193516E-1   -1.721301695247605E-1
 1.004703723460000E+10  -3.120398501542224E-1   -3.378230042298041E-1    3.803754844219364E-4   -7.396636976899232E-4    3.993083574648154E-4   -7.329371277897583E-4   -4.469336855831860E-1   -1.713955315225648E-1
 1.004704924392500E+10  -3.127096522271994E-1   -3.373569660767985E-1    3.647173652694211E-4   -7.400482069528055E-4    4.221778021068402E-4   -7.071097362516184E-4   -4.472759871270812E-1   -1.705705564389150E-1
 1.004706125325000E+10  -3.131563158527087E-1   -3.368019598541847E-1    3.702387676557857E-4   -7.372601231962113E-4    3.816178856804900E-4   -6.925156522700532E-4   -4.476771978270469E-1   -1.696770377615309E-1
 1.004707326257500E+10  -3.136837428816897E-1   -3.361311809525090E-1    3.622417375040893E-4   -7.126734333224046E-4    4.185119751863372E-4   -6.966960222114241E-4   -4.477321993169421E-1   -1.689623969333443E-1
 1.004708527190000E+10  -3.143687659890319E-1   -3.355604518483598E-1    3.538087191042802E-4   -7.110371913958794E-4    3.899994209839601E-4   -7.212694728039068E-4   -4.479354504814888E-1   -1.683072181537902E-1
 1.004709728122500E+10  -3.149130577473502E-1   -3.350512118320570E-1    3.377221095958599E-4   -7.216241109196302E-4    3.997738762805170E-4   -7.085669258623837E-4   -4.481977677015018E-1   -1.674565134171949E-1
 1.004710929055000E+10  -3.154232369220100E-1   -3.344769729526769E-1    3.503621745044762E-4   -6.966366384925477E-4    4.034260844091470E-4   -7.170201302770212E-4   -4.485800475346534E-1   -1.666824696103273E-1
 1.004712129987500E+10  -3.160248944672105E-1   -3.339350806208431E-1    3.346393388218211E-4   -6.900283253083913E-4    3.831016122690229E-4   -6.849690355299434E-4   -4.487141952162224E-1   -1.659460227213739E-1
 1.004713330920000E+10  -3.166807691369679E-1   -3.333607832354244E-1    3.475095954131856E-4   -7.004359317567382E-4    4.086241309197400E-4   -6.942429266096664E-4   -4.490528006983867E-1   -1.650676547589040E-1
 1.004714531852500E+10  -3.170410708013182E-1   -3.326970264122587E-1    3.439135395562891E-4   -6.858957146542432E-4    4.025507621499373E-4   -6.996665067500246E-4   -4.493545238275405E-1   -1.641005447383721E-1
 1.004715732785000E+10  -3.176800176319927E-1   -3.322143681836584E-1    3.260508643669880E-4   -6.838146785177360E-4    4.068668895303917E-4   -6.803370790789097E-4   -4.494553786863286E-1   -1.635617703699461E-1
 1.004716933717500E+10  -3.181982710054160E-1   -3.317145801320581E-1    3.429049264699123E-4   -6.797407854786746E-4    3.934183030275575E-4   -6.854264083810581E-4   -4.499492533806839E-1   -1.627590271161703E-1
 1.004718134650000E+10  -3.188149330230101E-1   -3.311273124575911E-1    3.498421480609658E-4   -6.812891252698057E-4    3.678530798466916E-4   -7.066538974771823E-4   -4.500701666051125E-1   -1.618650740084420E-1
 1.004719335582500E+10  -3.194519530388258E-1   -3.304699538066328E-1    3.473234906088508E-4   -7.063855704075703E-4    3.808118267924249E-4   -6.780490165343566E-4   -4.502487967193173E-1   -1.610960010488251E-1
 1.004720536515000E+10  -3.199570691942584E-1   -3.298995774163598E-1    3.532980000976325E-4   -6.912690141827312E-4    3.926449028833818E-4   -6.840062851401554E-4   -4.505795605973753E-1   -1.603112253391724E-1
 1.004721737447500E+10  -3.203579673798055E-1   -3.294738411130328E-1    3.570084180754050E-4   -6.671378724080978E-4    3.902444439639073E-4   -6.560287828755957E-4   -4.508427818587621E-1   -1.594244449540882E-1
 1.004722938380000E+10  -3.209271151610528E-1   -3.287627120514196E-1    2.928373477571951E-4   -6.632027196213839E-4    3.806342193133627E-4   -6.748182967051912E-4   -4.511273769960735E-1   -1.587286868783791E-1
 1.004724139312500E+10  -3.216205735180686E-1   -3.281641634010021E-1    3.301086833292498E-4   -6.782275643819754E-4    3.810462284520541E-4   -6.524120521358283E-4   -4.512231211748433E-1   -1.580221754931624E-1
 1.004725340245000E+10  -3.220782842851518E-1   -3.276227337903528E-1    2.945089617537515E-4   -6.757038259037042E-4    3.599126362607906E-4   -6.722826236968849E-4   -4.516380838947444E-1   -1.571713960722740E-1
 1.004726541177500E+10  -3.226148450022453E-1   -3.270500952868668E-1    3.038541198269648E-4   -6.609537184287188E-4    3.713775645673584E-4   -6.567737361116410E-4   -4.517766072716998E-1   -1.562475496568619E-1
 1.004727742110000E+10  -3.232778715898592E-1   -3.264168527200152E-1    3.370587336555609E-4   -6.550963311435365E-4    3.485968826274336E-4   -6.335434916679404E-4   -4.520997415276372E-1   -1.555387758778807E-1
 1.004728943042500E+10  -3.237771485180143E-1   -3.259275963551477E-1    3.163487184156844E-4   -6.478912889134939E-4    3.662417028249911E-4   -6.250240377159508E-4   -4.523315615713535E-1   -1.548150706532440E-1
 1.004730143975000E+10  -3.243286231438475E-1   -3.252517625587781E-1    3.155138997477752E-4   -6.750329086365729E-4    3.440884550457930E-4   -6.313923820024779E-4   -4.525532349081774E-1   -1.538548170433911E-1
 1.004731344907500E+10  -3.247886044326777E-1   -3.247372098960256E-1    3.033095507406738E-4   -6.375980515773866E-4    3.322174886948741E-4   -6.380530702213333E-4   -4.528105416506351E-1   -1.531586328222776E-1
 1.004732545840000E+10  -3.253686519902897E-1   -3.240907499027172E-1    3.230159157440851E-4   -6.373532244445207E-4    3.470433802011471E-4   -6.541386908357559E-4   -4.530618093317398E-1   -1.524942642600303E-1
 1.004733746772500E+10  -3.258766106166493E-1   -3.235947919989008E-1    2.935081212996515E-4   -6.425210154950867E-4    3.449802832334010E-4   -6.338930888215356E-4   -4.532739242623898E-1   -1.515514575939190E-1
 1.004734947705000E+10  -3.264310096660724E-1   -3.229555102508909E-1    3.054696252258313E-4   -6.248110454463202E-4    3.437451861402010E-4   -6.029078118075986E-4   -4.534749160572656E-1   -1.507840951012958E-1
 1.004736148637500E+10  -3.269648719597031E-1   -3.225599804996689E-1    3.156486495321297E-4   -6.487153267298486E-4    3.557525104378456E-4   -6.017194452224638E-4   -4.536531358134826E-1   -1.499877237823916E-1
 1.004737349570000E+10  -3.274801187848309E-1   -3.217879005465709E-1    3.174363448051932E-4   -6.289971078447184E-4    3.388259310824141E-4   -6.175559839918459E-4   -4.540227111378038E-1   -1.491686280080092E-1
 1.004738550502500E+10  -3.280278685253136E-1   -3.214168765476313E-1    2.854002293503798E-4   -6.363411620789341E-4    3.640594752627804E-4   -5.887475772571741E-4   -4.542923974444598E-1   -1.484420511129929E-1
 1.004739751435000E+10  -3.286191524911151E-1   -3.207080876327288E-1    3.297693721085910E-4   -6.270088320658817E-4    3.457756464579344E-4   -6.101248529880087E-4   -4.544527597860027E-1   -1.475772476646903E-1
 1.004740952367500E+10  -3.292349885608790E-1   -3.200850004235403E-1    2.876718362264213E-4   -6.180757432407166E-4    3.635506113121388E-4   -5.738323497546933E-4   -4.545614862508945E-1   -1.466973588527006E-1
 1.004742153300000E+10  -3.296959633817199E-1   -3.194814149760798E-1    2.974502333326030E-4   -6.004214453965300E-4    3.298130942632115E-4   -5.860838883715172E-4   -4.549678928476610E-1   -1.459671213316908E-1
 1.004743354232500E+10  -3.301209588347522E-1   -3.189405255277807E-1    2.927770498290706E-4   -6.143671181224508E-4    3.348002655898335E-4   -5.798205922464728E-4   -4.549852774091642E-1   -1.451458172157181E-1
 1.004744555165000E+10  -3.308036315689409E-1   -3.183764073554797E-1    3.090013683454253E-4   -5.569066710773225E-4    3.386500795325609E-4   -5.939273706784225E-4   -4.554591136983637E-1   -1.444115965064551E-1
 1.004745756097500E+10  -3.313566714532650E-1   -3.178537166286873E-1    3.121458529167191E-4   -5.879952441787122E-4    3.604652603346232E-4   -5.884654921030552E-4   -4.555902183669679E-1   -1.435339112558117E-1
 1.004746957030000E+10  -3.316848282200595E-1   -3.171135104630607E-1    3.162211068209769E-4   -5.640326345952871E-4    3.458438307088299E-4   -5.403976497354853E-4   -4.556695261977319E-1   -1.426976294142579E-1
 1.004748157962500E+10  -3.323193805000222E-1   -3.165290177857130E-1    3.016136263119277E-4   -5.795981904684448E-4    3.199810536890829E-4   -5.638884920223731E-4   -4.559709355009572E-1   -1.418377664633879E-1
 1.004749358895000E+10  -3.329581708808291E-1   -3.161001683213377E-1    2.903483990580524E-4   -5.598156629038494E-4    3.558123033778712E-4   -5.628743061714289E-4   -4.561216667052686E-1   -1.410054751719292E-1
 1.004750559827500E+10  -3.332576949046186E-1   -3.154963013860269E-1    2.940759059190630E-4   -5.568613579329227E-4    3.152903041160794E-4   -5.247169932919251E-4   -4.563845681555960E-1   -1.402929895736991E-1
 1.004751760760000E+10  -3.339535439841778E-1   -3.147948823716397E-1    2.845961891043531E-4   -5.425681103851519E-4    3.045873172196781E-4   -5.432919013930580E-4   -4.566283247745723E-1   -1.394088474568429E-1
 1.004752961692500E+10  -3.345377618278530E-1   -3.141472107231980E-1    2.943089268565780E-4   -5.407915902800221E-4    3.173760510438291E-4   -5.258546454478437E-4   -4.568235181734464E-1   -1.386916865189191E-1
 1.004754162625000E+10  -3.349566467091529E-1   -3.136337090137488E-1    2.828181831699653E-4   -5.061795726957986E-4    3.131140530144285E-4   -5.159606297242456E-4   -4.570709025040731E-1   -1.378723273166857E-1
