#  HZ   S   RI   R     50.00 
! Rohde & Schwarz Vector Network Analyzer 
! Rohde-Schwarz,ZNB20-2Port,1311601062101988,3.16
! Created: UTC 3/21/2024, 1:03:53 AM
! freq[Hz]                re:S11                  im:S11                  re:S21                  im:S21                  re:S12                  im:S12                  re:S22                  im:S22
 1.004644051800000E+10  -2.825352344667916E-1   -3.643867162537715E-1    4.616565383944976E-4   -8.457942465589744E-4    5.458596609131835E-4   -8.296947799143889E-4   -4.317448685713835E-1   -2.087526768198210E-1
 1.004645266037500E+10  -2.833762955998430E-1   -3.638016563449593E-1    4.704671692692869E-4   -8.222973701505018E-4    5.135721078668013E-4   -8.207065588202291E-4   -4.322713899194423E-1   -2.082957286129985E-1
 1.004646480275000E+10  -2.838697258694265E-1   -3.633777010906503E-1    4.660547549476219E-4   -8.238962043486451E-4    5.095051388293691E-4   -7.997468470352817E-4   -4.325829868917366E-1   -2.073797024876238E-1
 1.004647694512500E+10  -2.845440947836900E-1   -3.627422376107708E-1    4.541006242534953E-4   -8.280421665033448E-4    5.045627516735857E-4   -8.074015361141275E-4   -4.330611864035985E-1   -2.066845913610181E-1
 1.004648908750000E+10  -2.852590222733145E-1   -3.622622086341729E-1    4.275085068060584E-4   -8.148166828918277E-4    5.137646174105472E-4   -8.093705385222657E-4   -4.332257540343087E-1   -2.060075230521297E-1
 1.004650122987500E+10  -2.857606528742369E-1   -3.618201552249256E-1    4.614839246276168E-4   -8.060875913514885E-4    5.122292421093723E-4   -7.893341756214932E-4   -4.337021945644229E-1   -2.051277562773560E-1
 1.004651337225000E+10  -2.864664223689332E-1   -3.612526099254527E-1    4.402424474224047E-4   -7.810341186162838E-4    5.106853700816528E-4   -8.049663585347011E-4   -4.337463225390253E-1   -2.042580546544210E-1
 1.004652551462500E+10  -2.870996229190712E-1   -3.607958060549730E-1    4.369248150738523E-4   -8.005440695901981E-4    4.917922337921015E-4   -7.978029346674040E-4   -4.342204700885358E-1   -2.037049662230157E-1
 1.004653765700000E+10  -2.876432381665617E-1   -3.603279478414808E-1    4.433354715712250E-4   -8.090874502497771E-4    4.950582328687288E-4   -7.878936517213783E-4   -4.345747376105840E-1   -2.029968354500849E-1
 1.004654979937500E+10  -2.881549876748176E-1   -3.596376702612715E-1    4.461559546322002E-4   -8.015461094419745E-4    4.977506504212569E-4   -8.076941439539708E-4   -4.349248422294492E-1   -2.022452152759134E-1
 1.004656194175000E+10  -2.888719540789011E-1   -3.591826407668924E-1    4.290964315379313E-4   -8.078599464388984E-4    5.071657873816260E-4   -7.721714252842790E-4   -4.351846674282409E-1   -2.014559392333133E-1
 1.004657408412500E+10  -2.893533807824293E-1   -3.587280237559001E-1    4.241994710214063E-4   -7.982291895201497E-4    5.197441136455241E-4   -7.864592051692156E-4   -4.355144569351524E-1   -2.006572287518760E-1
 1.004658622650000E+10  -2.899548075234477E-1   -3.581717601792740E-1    4.441392020352460E-4   -7.964465442246914E-4    5.365630228378448E-4   -7.912644263550390E-4   -4.358625524844442E-1   -1.998764203863330E-1
 1.004659836887500E+10  -2.906228382349359E-1   -3.575572971176372E-1    4.218259434456986E-4   -8.029745527005368E-4    4.747059512353022E-4   -7.836224879583404E-4   -4.361255311077431E-1   -1.991585837542080E-1
 1.004661051125000E+10  -2.911454483082920E-1   -3.571953869529517E-1    4.431133030787097E-4   -8.202511391086340E-4    4.903963175431721E-4   -7.967945627231714E-4   -4.364336693045479E-1   -1.984120814694912E-1
 1.004662265362500E+10  -2.918662144624664E-1   -3.564959553870331E-1    4.106573474957636E-4   -7.835393795101170E-4    4.808854873240468E-4   -7.943660676516214E-4   -4.368587299183893E-1   -1.977206048947723E-1
 1.004663479600000E+10  -2.924476086555555E-1   -3.560792595408402E-1    4.235985341394998E-4   -7.651039381944561E-4    4.974852520186886E-4   -7.759827554154018E-4   -4.371190727040771E-1   -1.969022450646949E-1
 1.004664693837500E+10  -2.930007052865607E-1   -3.555219492681293E-1    4.390019665955498E-4   -8.020149986472965E-4    4.817721619010232E-4   -7.858420654351815E-4   -4.374833881782598E-1   -1.961150282586094E-1
 1.004665908075000E+10  -2.936786054287290E-1   -3.548510051835136E-1    4.278106368278978E-4   -8.091807092089434E-4    4.951867010573266E-4   -8.030952510738070E-4   -4.378868873046771E-1   -1.954608095443243E-1
 1.004667122312500E+10  -2.943153283411516E-1   -3.543592984639979E-1    4.272480615635278E-4   -8.100190454723514E-4    4.790281019979456E-4   -7.750560534010858E-4   -4.380534810885305E-1   -1.947114812213343E-1
 1.004668336550000E+10  -2.948015979515373E-1   -3.537042142262309E-1    4.440816653991400E-4   -7.735101510132277E-4    4.698941154761740E-4   -7.654969599934110E-4   -4.384064820284896E-1   -1.937955784503462E-1
 1.004669550787500E+10  -2.955735353194130E-1   -3.533193789563524E-1    4.247708692545791E-4   -7.970269540940334E-4    5.010435818017770E-4   -7.781537527711708E-4   -4.387206210434088E-1   -1.931023115876765E-1
 1.004670765025000E+10  -2.961164769725189E-1   -3.528829052858488E-1    4.012759554593403E-4   -7.859464333306801E-4    4.922928534732506E-4   -7.744165170732045E-4   -4.391014782444693E-1   -1.924650859504073E-1
 1.004671979262500E+10  -2.966795650075700E-1   -3.522583302235298E-1    4.000632374986897E-4   -8.013105649571847E-4    5.115639900321978E-4   -7.450407232940998E-4   -4.393151261368602E-1   -1.916941648529958E-1
 1.004673193500000E+10  -2.972923711549429E-1   -3.517465798086219E-1    4.088618220585496E-4   -7.927673349151411E-4    4.921589563058891E-4   -8.033036182063800E-4   -4.395294377118527E-1   -1.910090907540183E-1
 1.004674407737500E+10  -2.979441038143683E-1   -3.511440885964573E-1    3.958623615089282E-4   -8.002214883674737E-4    4.534947538911655E-4   -7.687951765774559E-4   -4.398263665948257E-1   -1.900538287474556E-1
 1.004675621975000E+10  -2.985087707084973E-1   -3.505934427179218E-1    4.107525223664711E-4   -7.613778743022603E-4    4.555345233628145E-4   -7.542818236116833E-4   -4.403947133167785E-1   -1.894569576984343E-1
 1.004676836212500E+10  -2.990716797221118E-1   -3.500161010881441E-1    4.083396958987445E-4   -7.814892242303556E-4    4.767745074215943E-4   -7.568395331528513E-4   -4.405274617205118E-1   -1.885731853251238E-1
 1.004678050450000E+10  -2.996859903022717E-1   -3.495521222539728E-1    3.952644459598001E-4   -7.996472929316515E-4    4.430201238277177E-4   -7.374554647466761E-4   -4.408051842004456E-1   -1.878382891525527E-1
 1.004679264687500E+10  -3.002446673176938E-1   -3.491093268563888E-1    3.812171576476627E-4   -7.811909730048224E-4    4.406595707270608E-4   -7.729874234584311E-4   -4.411365806504455E-1   -1.869722219841855E-1
 1.004680478925000E+10  -3.007623550748907E-1   -3.484645736369387E-1    4.263973920125086E-4   -7.621840591958987E-4    4.506537110860050E-4   -7.395419438795850E-4   -4.414424590617909E-1   -1.862685137950748E-1
 1.004681693162500E+10  -3.016011666601444E-1   -3.479602011411639E-1    4.006812754382822E-4   -7.844061625040704E-4    4.510251058750835E-4   -7.490579676279459E-4   -4.418969075313432E-1   -1.856116644569154E-1
 1.004682907400000E+10  -3.021037134612144E-1   -3.474106558997769E-1    4.053137563541475E-4   -7.549745239323320E-4    4.387229996312083E-4   -7.550553855891120E-4   -4.420067440128549E-1   -1.846087919413483E-1
 1.004684121637500E+10  -3.027415901893211E-1   -3.468103700371022E-1    4.143057344224010E-4   -7.529399077270537E-4    4.611041231257079E-4   -7.739461719400813E-4   -4.423848699022779E-1   -1.840481262602014E-1
 1.004685335875000E+10  -3.032926304167871E-1   -3.463216676589665E-1    3.856079931403834E-4   -7.674907550742541E-4    4.564198925223692E-4   -7.628551180734540E-4   -4.424934661477176E-1   -1.832178756934231E-1
 1.004686550112500E+10  -3.038758827030669E-1   -3.457185452705893E-1    3.853432968679857E-4   -7.662318854537957E-4    4.543465652064512E-4   -7.378670884504392E-4   -4.428658499235970E-1   -1.825494869647426E-1
 1.004687764350000E+10  -3.043604793726566E-1   -3.451103996876651E-1    3.933261174077335E-4   -7.453520275589293E-4    4.161624542462000E-4   -7.521815305098408E-4   -4.431133689190365E-1   -1.815752900902526E-1
 1.004688978587500E+10  -3.050436408985251E-1   -3.446207404283704E-1    3.869820854781674E-4   -7.437238111533222E-4    4.472648269755343E-4   -7.400838632380482E-4   -4.436808149777274E-1   -1.808586616477900E-1
 1.004690192825000E+10  -3.055912884902272E-1   -3.440489721616801E-1    3.832291430499665E-4   -7.887403883536978E-4    4.355955897098954E-4   -7.352367418518671E-4   -4.437353278048993E-1   -1.801097649973920E-1
 1.004691407062500E+10  -3.061066731649416E-1   -3.434783665407299E-1    4.050929783210619E-4   -7.656649166498987E-4    4.475960680509762E-4   -7.176926002582458E-4   -4.441125851671869E-1   -1.793648677336762E-1
 1.004692621300000E+10  -3.066873330494240E-1   -3.430001945816520E-1    3.776385001250281E-4   -7.188154548152381E-4    4.462234228200283E-4   -7.563248481457052E-4   -4.443533056139332E-1   -1.787230419234173E-1
 1.004693835537500E+10  -3.073533508185388E-1   -3.424618390519135E-1    3.785914591013481E-4   -7.730496894315108E-4    4.411639750407976E-4   -7.245194075676506E-4   -4.445239691249394E-1   -1.776438156564927E-1
 1.004695049775000E+10  -3.077718467398924E-1   -3.417838422227191E-1    3.096557268109492E-4   -7.278207671350496E-4    4.254173156644729E-4   -7.350678063201294E-4   -4.449177572595562E-1   -1.769020767810645E-1
 1.004696264012500E+10  -3.084642044592997E-1   -3.413621210961727E-1    3.666713105097433E-4   -7.565069272586892E-4    4.398121063625554E-4   -7.564164492513569E-4   -4.451254003964329E-1   -1.762272168020555E-1
 1.004697478250000E+10  -3.090435125887265E-1   -3.408198626044052E-1    3.649016576389777E-4   -7.402349672857514E-4    4.262210026393822E-4   -7.507661655653299E-4   -4.453303156933002E-1   -1.755007410864742E-1
 1.004698692487500E+10  -3.097229571766878E-1   -3.402378209836663E-1    3.756927812565537E-4   -7.382191880746677E-4    4.203975584582877E-4   -7.653828086320864E-4   -4.457271350041884E-1   -1.747744619600395E-1
 1.004699906725000E+10  -3.102277893186181E-1   -3.396588661435049E-1    3.624345225467204E-4   -7.541770400033324E-4    4.025031106857054E-4   -7.171673438336064E-4   -4.459172242457931E-1   -1.737106436914848E-1
 1.004701120962500E+10  -3.107242627005961E-1   -3.390312381509119E-1    3.485136895958739E-4   -7.423670385982747E-4    4.192539466511259E-4   -6.937682465601163E-4   -4.463949789583309E-1   -1.730838141426362E-1
 1.004702335200000E+10  -3.113946753503718E-1   -3.385712018652287E-1    3.862814115657695E-4   -7.514989267451477E-4    4.123335902881827E-4   -7.338984838694309E-4   -4.466344261371300E-1   -1.725342319157556E-1
 1.004703549437500E+10  -3.119809546598432E-1   -3.378769074367307E-1    3.411737476829588E-4   -7.266431845233119E-4    4.295694484413333E-4   -7.130022144707655E-4   -4.467386453435538E-1   -1.717433824761975E-1
 1.004704763675000E+10  -3.124719736560838E-1   -3.373396972097609E-1    3.659411477913860E-4   -7.163202209599308E-4    4.351407514878765E-4   -7.069581530160721E-4   -4.470562006050776E-1   -1.707845422493773E-1
 1.004705977912500E+10  -3.130859162217036E-1   -3.368061565874084E-1    3.599455391934864E-4   -7.359586071336764E-4    4.064070212621833E-4   -6.766897045839157E-4   -4.474083620096140E-1   -1.700590919960950E-1
 1.004707192150000E+10  -3.136208257263049E-1   -3.363145178769609E-1    3.554757509154415E-4   -7.198038545112666E-4    4.103236836313740E-4   -6.901266167056010E-4   -4.477020495252518E-1   -1.692965970171668E-1
 1.004708406387500E+10  -3.142508888166639E-1   -3.356324602724453E-1    3.529206115211003E-4   -7.385765072193347E-4    4.250881559764209E-4   -7.441756075148731E-4   -4.477930574057323E-1   -1.684865433475196E-1
 1.004709620625000E+10  -3.147164949050887E-1   -3.351615407675299E-1    3.568774990523100E-4   -7.265490784705587E-4    4.226308319806212E-4   -7.089473848551812E-4   -4.482173715307308E-1   -1.675411712850285E-1
 1.004710834862500E+10  -3.153314131925986E-1   -3.345783522570663E-1    3.371933363984899E-4   -6.983923978769494E-4    4.142573589472018E-4   -7.049176809867275E-4   -4.483844168279471E-1   -1.668631716002082E-1
 1.004712049100000E+10  -3.159873865079136E-1   -3.339459254448703E-1    3.657605825474005E-4   -7.044025241344284E-4    3.826506900279906E-4   -6.687827342470905E-4   -4.486539682908777E-1   -1.659209609796231E-1
 1.004713263337500E+10  -3.164594723163349E-1   -3.334122552372559E-1    3.444117259159526E-4   -6.938641481939530E-4    4.338796531252613E-4   -6.786822334508127E-4   -4.490755528690177E-1   -1.652877476825355E-1
 1.004714477575000E+10  -3.170127707032651E-1   -3.328691099002603E-1    3.153509118115333E-4   -7.102275581967119E-4    3.948615770989316E-4   -6.834523259554823E-4   -4.492304737802177E-1   -1.644690949923635E-1
 1.004715691812500E+10  -3.176506652703343E-1   -3.321952275476303E-1    3.235632969546592E-4   -7.029693059168488E-4    3.682134581353277E-4   -6.743092176990724E-4   -4.495900711707957E-1   -1.637561995307408E-1
 1.004716906050000E+10  -3.181405607640110E-1   -3.316526897909100E-1    3.697093337168494E-4   -6.763543785567972E-4    4.294130136162068E-4   -6.711049139132212E-4   -4.498041702085767E-1   -1.629650278339027E-1
 1.004718120287500E+10  -3.186417028680177E-1   -3.312050827057034E-1    3.469780839049492E-4   -7.169045561838409E-4    4.086351689244164E-4   -6.765886936086215E-4   -4.500568016697521E-1   -1.621883790463501E-1
 1.004719334525000E+10  -3.193402727387697E-1   -3.305373139128621E-1    3.236528139630350E-4   -6.923096141023327E-4    3.568509032688426E-4   -6.741810282666815E-4   -4.503265688142094E-1   -1.613116702552361E-1
 1.004720548762500E+10  -3.197890539280195E-1   -3.299104198092269E-1    3.278680275961252E-4   -6.960716663470983E-4    3.613631382266700E-4   -6.500990886622649E-4   -4.506984570363899E-1   -1.604379970007663E-1
 1.004721763000000E+10  -3.204539843844862E-1   -3.293614177192484E-1    3.187494736514908E-4   -6.792224608530903E-4    3.744251451818198E-4   -6.381155034125861E-4   -4.506232647115404E-1   -1.596848266447456E-1
 1.004722977237500E+10  -3.210087298583856E-1   -3.288279558378010E-1    2.991003660766111E-4   -7.044828071507591E-4    3.868374862529448E-4   -6.572084573173685E-4   -4.509851972368790E-1   -1.590383827032240E-1
 1.004724191475000E+10  -3.215263850266728E-1   -3.282157695086174E-1    3.195668916393070E-4   -6.437235518194457E-4    3.734184505429626E-4   -6.592962416832619E-4   -4.512980343926824E-1   -1.581810202098078E-1
 1.004725405712500E+10  -3.221670409834541E-1   -3.277107924111259E-1    2.946895165056218E-4   -6.601823003448183E-4    4.102187997417961E-4   -6.391184222268216E-4   -4.516351664944474E-1   -1.574720990402236E-1
 1.004726619950000E+10  -3.225762218526998E-1   -3.270772276543605E-1    3.060281266656348E-4   -6.761942293079365E-4    3.544016293358094E-4   -6.572459404469122E-4   -4.516989974208013E-1   -1.565665023736984E-1
 1.004727834187500E+10  -3.230623356182917E-1   -3.265019274356150E-1    2.974174358177407E-4   -6.534481542045188E-4    3.694747322944888E-4   -6.451330839399337E-4   -4.521108433346051E-1   -1.557735251397498E-1
 1.004729048425000E+10  -3.236345712151447E-1   -3.258952267985025E-1    3.162952718906648E-4   -6.487596844645342E-4    3.787102104338650E-4   -6.315504795186257E-4   -4.522198199329065E-1   -1.549887052155590E-1
 1.004730262662500E+10  -3.241845830515634E-1   -3.252391019926323E-1    3.319815462927621E-4   -6.615987726351340E-4    3.913416311098010E-4   -6.332222934502512E-4   -4.524785432054064E-1   -1.542397215763868E-1
 1.004731476900000E+10  -3.248020854272783E-1   -3.248003959787271E-1    3.263762830000859E-4   -6.485810306025264E-4    3.818889609542274E-4   -6.296742872352890E-4   -4.528561088054033E-1   -1.533866208669623E-1
 1.004732691137500E+10  -3.253630330307569E-1   -3.241622277981774E-1    3.143123649929971E-4   -6.650598059546440E-4    3.642040806572540E-4   -6.182360295670898E-4   -4.528913741486105E-1   -1.524600793471523E-1
 1.004733905375000E+10  -3.259387434196738E-1   -3.235984814874989E-1    3.366488331596057E-4   -6.481687247267149E-4    3.687916386506453E-4   -6.259001720892367E-4   -4.532043238142424E-1   -1.517156624726325E-1
 1.004735119612500E+10  -3.264979388363642E-1   -3.229246039883690E-1    3.186813763268611E-4   -6.118801263964730E-4    3.662960983506034E-4   -5.953895911549021E-4   -4.534706502547812E-1   -1.509930329216943E-1
 1.004736333850000E+10  -3.270451009772725E-1   -3.224798927658139E-1    3.250262567568040E-4   -6.448091109604127E-4    3.655762154532116E-4   -6.079292707169504E-4   -4.537911230505103E-1   -1.500515875172705E-1
 1.004737548087500E+10  -3.276148394723079E-1   -3.218475902509721E-1    3.108207199229166E-4   -6.225285957791973E-4    3.572793621677278E-4   -6.120247346356700E-4   -4.540682467775073E-1   -1.492445311734544E-1
 1.004738762325000E+10  -3.280945074157577E-1   -3.212036819111571E-1    3.207244543185206E-4   -6.173297770461680E-4    3.107907785741882E-4   -6.220206702773531E-4   -4.540110220043058E-1   -1.484001014213432E-1
 1.004739976562500E+10  -3.285892555309978E-1   -3.206637534784172E-1    3.115361104375201E-4   -6.177130686031202E-4    3.402946332996565E-4   -5.931082893794187E-4   -4.543264331993419E-1   -1.474860674103733E-1
 1.004741190800000E+10  -3.291559170414589E-1   -3.199941044158007E-1    3.045263492243414E-4   -6.053856187210698E-4    3.470514974369989E-4   -5.961693493718008E-4   -4.546657570636514E-1   -1.469370314893345E-1
 1.004742405037500E+10  -3.296947777843757E-1   -3.194993755994818E-1    3.107037822313316E-4   -6.034940871079479E-4    3.446430128680004E-4   -6.056861887194686E-4   -4.547177392212942E-1   -1.461121332505410E-1
 1.004743619275000E+10  -3.302108690563954E-1   -3.189849900672023E-1    2.699363579933474E-4   -5.997271569612622E-4    3.286267386601884E-4   -5.793521900274480E-4   -4.550827830634182E-1   -1.451341389742627E-1
 1.004744833512500E+10  -3.307058380748299E-1   -3.182792240814751E-1    2.964416355435770E-4   -5.818094412738787E-4    3.307555334269725E-4   -5.857081765346658E-4   -4.553347344129172E-1   -1.443820822112600E-1
 1.004746047750000E+10  -3.313961103416490E-1   -3.176368721907594E-1    3.039420434238183E-4   -5.668419064478254E-4    3.538181362957056E-4   -5.782733114437155E-4   -4.556592343160508E-1   -1.435600815727976E-1
 1.004747261987500E+10  -3.318327618316911E-1   -3.171224410053511E-1    3.047522897909718E-4   -5.949915056863190E-4    3.502515090675874E-4   -5.581717569881364E-4   -4.557531966346396E-1   -1.425532652018614E-1
 1.004748476225000E+10  -3.324070017992741E-1   -3.163606806402960E-1    2.901338673987887E-4   -5.742132136040950E-4    3.427911511687376E-4   -5.271925706978494E-4   -4.558531318827103E-1   -1.419377140783671E-1
 1.004749690462500E+10  -3.329476276695504E-1   -3.158288441604546E-1    3.208110101880672E-4   -5.356538468146855E-4    3.194207592214190E-4   -5.778251609073159E-4   -4.562248661795149E-1   -1.409611312590081E-1
 1.004750904700000E+10  -3.334234784918995E-1   -3.151667583655497E-1    2.883753039968009E-4   -5.715042862755205E-4    3.394478367907872E-4   -5.584462738789894E-4   -4.564295811876216E-1   -1.402620564457468E-1
 1.004752118937500E+10  -3.339107554656104E-1   -3.146454007447773E-1    3.086265155509039E-4   -5.444987834897058E-4    3.194178638011638E-4   -5.355241394159117E-4   -4.565753536553269E-1   -1.393650573071206E-1
 1.004753333175000E+10  -3.345512166570140E-1   -3.140004353079237E-1    3.135845651161307E-4   -5.218691660857949E-4    3.279093366864229E-4   -5.150530996808416E-4   -4.566601461078281E-1   -1.385659700331267E-1
