#  HZ   S   RI   R     50.00 
! Rohde & Schwarz Vector Network Analyzer 
! Rohde-Schwarz,ZNB20-2Port,1311601062101988,3.16
! Created: UTC 3/21/2024, 1:03:58 AM
! freq[Hz]                re:S11                  im:S11                  re:S21                  im:S21                  re:S12                  im:S12                  re:S22                  im:S22
 1.004644734400000E+10  -2.830243687220362E-1   -3.642062498446423E-1    4.773736928843907E-4   -8.320239464149961E-4    5.458468568825303E-4   -7.967086747280884E-4   -4.320367633598124E-1   -2.085483003272165E-1
 1.004645944857500E+10  -2.836124205027671E-1   -3.634742447658873E-1    4.695151542405719E-4   -8.241793564208187E-4    5.137541993791839E-4   -7.779905829392634E-4   -4.324144124224674E-1   -2.078957528290966E-1
 1.004647155315000E+10  -2.843493088959834E-1   -3.631455812650786E-1    4.607084869566591E-4   -7.954862112774674E-4    5.076406874866978E-4   -8.055674719370596E-4   -4.326347297330940E-1   -2.071214414563867E-1
 1.004648365772500E+10  -2.848892984367792E-1   -3.626123126568671E-1    4.306093610059349E-4   -8.299737256128536E-4    4.996082704649174E-4   -8.133192186994575E-4   -4.331112536452129E-1   -2.063354231033433E-1
 1.004649576230000E+10  -2.854089905133074E-1   -3.620510548915989E-1    4.357508202095194E-4   -8.187707569260370E-4    5.327879591661883E-4   -8.083087812192915E-4   -4.334372586767720E-1   -2.056386844377765E-1
 1.004650786687500E+10  -2.860263357286282E-1   -3.615213136663343E-1    4.575363567676482E-4   -8.153559389067510E-4    5.218216783694814E-4   -7.872503659545166E-4   -4.335802364832487E-1   -2.048228386440196E-1
 1.004651997145000E+10  -2.866426985978968E-1   -3.610502173797652E-1    4.508657101669205E-4   -8.027442243037704E-4    4.900304336881707E-4   -8.072352970731648E-4   -4.340770031419216E-1   -2.042113666673470E-1
 1.004653207602500E+10  -2.872440086120590E-1   -3.605014965653895E-1    4.353105667260486E-4   -8.088440161497541E-4    5.101772934131884E-4   -8.003606570872483E-4   -4.344570608815469E-1   -2.033844126320408E-1
 1.004654418060000E+10  -2.878301192237235E-1   -3.599783283281943E-1    4.212135844562067E-4   -7.909736074884044E-4    4.922369517286000E-4   -7.837535100726162E-4   -4.346942205693458E-1   -2.026270530904485E-1
 1.004655628517500E+10  -2.883762442948144E-1   -3.593950121680370E-1    4.227593354483470E-4   -7.762471167092434E-4    4.856328777399941E-4   -8.171324666367075E-4   -4.350468526270734E-1   -2.019607348346815E-1
 1.004656838975000E+10  -2.891817926916582E-1   -3.590013439781016E-1    4.435849101527062E-4   -8.212928505785679E-4    4.941872821833244E-4   -7.857025770802278E-4   -4.352852128400172E-1   -2.011185539271824E-1
 1.004658049432500E+10  -2.897112145403393E-1   -3.584335343220842E-1    4.427906016738917E-4   -7.933972705636448E-4    5.159215147227890E-4   -8.182656586897389E-4   -4.357085815490725E-1   -2.003565833188375E-1
 1.004659259890000E+10  -2.903998727808960E-1   -3.579899685234166E-1    4.330949135094284E-4   -8.007476629802302E-4    5.006742063191494E-4   -7.832832916570029E-4   -4.359944790735614E-1   -1.997846508854740E-1
 1.004660470347500E+10  -2.909356428761148E-1   -3.573513378941019E-1    4.261734701911488E-4   -8.159353405421301E-4    4.885773002199259E-4   -7.949341637644135E-4   -4.364010174494036E-1   -1.990176232565407E-1
 1.004661680805000E+10  -2.915261495317451E-1   -3.567125455880509E-1    4.211935311152637E-4   -8.329892758405361E-4    4.958198633796527E-4   -7.828452985163859E-4   -4.365044237630210E-1   -1.981480136921960E-1
 1.004662891262500E+10  -2.921785047707025E-1   -3.562609977065290E-1    4.218289538590938E-4   -7.992663288896786E-4    4.849934125204061E-4   -7.881655381426131E-4   -4.369102905982832E-1   -1.974606199623571E-1
 1.004664101720000E+10  -2.928144627344631E-1   -3.558203522543036E-1    4.105196048941635E-4   -7.892244739668409E-4    5.090245443220421E-4   -7.791301151270155E-4   -4.371783938206895E-1   -1.967331161626701E-1
 1.004665312177500E+10  -2.932767257518377E-1   -3.551115667419060E-1    4.131504365158677E-4   -7.803148432509864E-4    4.598066875737736E-4   -7.819762526022045E-4   -4.375535884135509E-1   -1.958081505483002E-1
 1.004666522635000E+10  -2.939220947569382E-1   -3.547020322594209E-1    4.448935878617927E-4   -8.073523922724273E-4    4.999683670749601E-4   -7.787062156486146E-4   -4.378294665781452E-1   -1.952213733073917E-1
 1.004667733092500E+10  -2.945579509554701E-1   -3.541826764401988E-1    4.363848603476677E-4   -8.037131265911691E-4    4.818187736835307E-4   -7.713932048425032E-4   -4.381654105106874E-1   -1.944746465932393E-1
 1.004668943550000E+10  -2.951808930728864E-1   -3.536333508257548E-1    4.101853302012735E-4   -8.313533869155794E-4    4.903083792538698E-4   -7.767100728444428E-4   -4.384268887032861E-1   -1.937989016051634E-1
 1.004670154007500E+10  -2.957977988283441E-1   -3.531231671447580E-1    4.135220015647636E-4   -7.968428258672574E-4    4.864274369410234E-4   -7.688591870460318E-4   -4.386623099389017E-1   -1.928211427813183E-1
 1.004671364465000E+10  -2.964348573600079E-1   -3.526532117531390E-1    4.163757927005652E-4   -7.904967214127299E-4    4.579835176968211E-4   -7.798418668920739E-4   -4.391246652298208E-1   -1.919924913941698E-1
 1.004672574922500E+10  -2.970275928093644E-1   -3.520367648749575E-1    4.078195275019223E-4   -7.568942027460313E-4    4.744246002821252E-4   -7.831107259895350E-4   -4.394190856566022E-1   -1.911976702132107E-1
 1.004673785380000E+10  -2.975334125234174E-1   -3.515190561322429E-1    3.913142421129255E-4   -8.058672393152166E-4    4.868540510679948E-4   -7.847604200176605E-4   -4.397172204634500E-1   -1.907098401291206E-1
 1.004674995837500E+10  -2.981896093651469E-1   -3.508976817654760E-1    4.093992220134861E-4   -7.561919414978117E-4    4.667357819334699E-4   -7.757269449392746E-4   -4.398098689546033E-1   -1.897738952435887E-1
 1.004676206295000E+10  -2.986487356045079E-1   -3.503017680935246E-1    4.129138118038026E-4   -7.655468910001646E-4    4.708152590394619E-4   -7.565691918551999E-4   -4.402712149125606E-1   -1.892013516554698E-1
 1.004677416752500E+10  -2.993798303615453E-1   -3.498858705007743E-1    4.187361654641045E-4   -7.848507622784126E-4    4.673123787015748E-4   -7.433652629669042E-4   -4.404792922409702E-1   -1.882393715993217E-1
 1.004678627210000E+10  -2.999294511231697E-1   -3.492930818078051E-1    3.949831825394765E-4   -7.708711748779466E-4    4.651339699092326E-4   -7.640652646244942E-4   -4.407738907671318E-1   -1.876072634507670E-1
 1.004679837667500E+10  -3.005256794747890E-1   -3.488195994569986E-1    3.975050295895470E-4   -8.037347130657703E-4    4.514812773930666E-4   -7.570676448528853E-4   -4.411393309479423E-1   -1.868301320240756E-1
 1.004681048125000E+10  -3.010983609319495E-1   -3.482979513572041E-1    4.111729506610813E-4   -7.794625375621495E-4    4.379935992234337E-4   -7.694377084553470E-4   -4.416421179300746E-1   -1.859144711455691E-1
 1.004682258582500E+10  -3.017044960150750E-1   -3.477063452527112E-1    4.073761540182058E-4   -7.620560031590182E-4    4.587304348168470E-4   -7.802752469391514E-4   -4.418542031313530E-1   -1.851445515032102E-1
 1.004683469040000E+10  -3.023517649687928E-1   -3.470635363355570E-1    3.847029905179021E-4   -7.734369416659106E-4    4.317632170094306E-4   -7.716308257652900E-4   -4.420933966762629E-1   -1.845946627697424E-1
 1.004684679497500E+10  -3.028806733177672E-1   -3.465255790394953E-1    4.099598363731356E-4   -7.736467184562272E-4    4.557483165374931E-4   -7.663035037612131E-4   -4.423735305856505E-1   -1.837005437971251E-1
 1.004685889955000E+10  -3.034432671120792E-1   -3.461212595458603E-1    3.922214097079117E-4   -7.562499701022776E-4    4.520953262286182E-4   -7.685368266337217E-4   -4.428216826973500E-1   -1.829663049416245E-1
 1.004687100412500E+10  -3.040688396958555E-1   -3.455782631406810E-1    3.927880319299697E-4   -7.862427021598626E-4    4.376440598130312E-4   -7.390259159847862E-4   -4.429194335682339E-1   -1.822810698280200E-1
 1.004688310870000E+10  -3.044826291882673E-1   -3.448405552181779E-1    3.533936768988860E-4   -7.707463060541353E-4    4.701122113279856E-4   -7.412127610671112E-4   -4.432596342649764E-1   -1.815036127159005E-1
 1.004689521327500E+10  -3.052113958312830E-1   -3.442936180848699E-1    3.609076096151441E-4   -7.834693456205723E-4    4.623286858724207E-4   -7.393114979446383E-4   -4.434764404205741E-1   -1.807333612444548E-1
 1.004690731785000E+10  -3.057668950705189E-1   -3.438631230801917E-1    4.115677761623443E-4   -7.688489427006052E-4    4.582811824760741E-4   -7.540890087130621E-4   -4.437879399930368E-1   -1.799907168215842E-1
 1.004691942242500E+10  -3.063546107697962E-1   -3.433241942644807E-1    3.883523658387653E-4   -7.570086165197171E-4    4.602312030032016E-4   -7.537392054088747E-4   -4.440928627725717E-1   -1.792541188537844E-1
 1.004693152700000E+10  -3.068728688670921E-1   -3.427341546185436E-1    3.671728176828175E-4   -7.455528232895340E-4    4.562549545737293E-4   -7.381440406776257E-4   -4.443904990228302E-1   -1.783928137962008E-1
 1.004694363157500E+10  -3.073648311144019E-1   -3.422011086549464E-1    3.595534854579196E-4   -7.503710950517273E-4    4.292239953037307E-4   -7.545855175786401E-4   -4.447203755958794E-1   -1.775095208474580E-1
 1.004695573615000E+10  -3.081311114365097E-1   -3.414389673022947E-1    3.727417801849136E-4   -7.283290538432275E-4    4.197198554730816E-4   -7.453166510593310E-4   -4.451535314037494E-1   -1.768451671701896E-1
 1.004696784072500E+10  -3.087805664862004E-1   -3.410631939912699E-1    3.975517577444386E-4   -7.462301485404034E-4    4.455492563950892E-4   -7.223103222182767E-4   -4.452163957870729E-1   -1.759825738777402E-1
 1.004697994530000E+10  -3.091579266810585E-1   -3.403979093994559E-1    4.035906360775346E-4   -7.369287477425610E-4    4.292922126413937E-4   -7.311390684733415E-4   -4.456325340770426E-1   -1.753593027131638E-1
 1.004699204987500E+10  -3.097770577673560E-1   -3.400583540856575E-1    3.854794867422465E-4   -7.368916037458641E-4    4.209576611000468E-4   -7.024699084302312E-4   -4.457508055072886E-1   -1.746311494435141E-1
 1.004700415445000E+10  -3.105053215270099E-1   -3.393942072410179E-1    3.798883272947207E-4   -7.535093793942079E-4    4.141402851350843E-4   -7.277534558395345E-4   -4.462810124626317E-1   -1.737506439048964E-1
 1.004701625902500E+10  -3.109536014464481E-1   -3.389138784803726E-1    3.722525894791919E-4   -7.332558671187619E-4    4.268869159733077E-4   -7.242707439156343E-4   -4.464409595640328E-1   -1.731328253131849E-1
 1.004702836360000E+10  -3.115527746718209E-1   -3.383992048273750E-1    3.253434259106436E-4   -7.436382446898069E-4    3.979324805563738E-4   -7.242348208750532E-4   -4.466542683210952E-1   -1.720087724071070E-1
 1.004704046817500E+10  -3.121298531562831E-1   -3.378008436493944E-1    3.650411457035604E-4   -7.498598016275315E-4    4.187925303675648E-4   -7.233553503678898E-4   -4.469251228474670E-1   -1.714330198716360E-1
 1.004705257275000E+10  -3.125783703257034E-1   -3.371626083738750E-1    3.367359655535440E-4   -7.316162599297615E-4    4.097374825084036E-4   -7.256026730419910E-4   -4.471778708326269E-1   -1.705341887329919E-1
 1.004706467732500E+10  -3.132275034732307E-1   -3.366113749684174E-1    3.298362110572286E-4   -7.292416350368185E-4    4.085142399115920E-4   -7.149850491605188E-4   -4.474180583035312E-1   -1.701115897719115E-1
 1.004707678190000E+10  -3.137550293473773E-1   -3.360888449341287E-1    3.605748543987027E-4   -7.124169698086030E-4    3.995733962660330E-4   -6.967364642078405E-4   -4.476599438700676E-1   -1.689684987646621E-1
 1.004708888647500E+10  -3.142958257438381E-1   -3.354447359928067E-1    3.603471031602903E-4   -7.010552162050959E-4    4.050676380901033E-4   -7.015666387198881E-4   -4.480186681190848E-1   -1.681676654274320E-1
 1.004710099105000E+10  -3.150436187020163E-1   -3.349405392044454E-1    3.464585962740942E-4   -7.233340789571621E-4    4.051435459138528E-4   -7.094819677766301E-4   -4.482954191053148E-1   -1.675484882176112E-1
 1.004711309562500E+10  -3.154859953892640E-1   -3.343566372614161E-1    3.500459616345922E-4   -7.134062757323687E-4    4.142875092914215E-4   -6.931259539131299E-4   -4.485398821217209E-1   -1.667278335807344E-1
 1.004712520020000E+10  -3.160366602252898E-1   -3.337755797362480E-1    3.420321388609195E-4   -7.287072104583385E-4    3.926657676005791E-4   -6.976058754040839E-4   -4.487970432810265E-1   -1.659871591462768E-1
 1.004713730477500E+10  -3.165621204879175E-1   -3.331532053639067E-1    3.503654730143989E-4   -7.163328561618853E-4    4.188155382881625E-4   -7.007183213510817E-4   -4.489957651848044E-1   -1.652100363190655E-1
 1.004714940935000E+10  -3.171398272616105E-1   -3.326673703619025E-1    3.274381606798364E-4   -6.852177147341669E-4    3.852483014794084E-4   -6.977025977529814E-4   -4.492834442231179E-1   -1.643014748985844E-1
 1.004716151392500E+10  -3.177404029873229E-1   -3.321001251069016E-1    3.314795562047205E-4   -6.976901293527780E-4    3.928264145652279E-4   -6.900978111321596E-4   -4.495145660884640E-1   -1.637291059799384E-1
 1.004717361850000E+10  -3.183476759800162E-1   -3.313421152678619E-1    3.289749837498805E-4   -6.966768361319278E-4    4.057931053921560E-4   -6.566534856379400E-4   -4.497508290162551E-1   -1.626726514328024E-1
 1.004718572307500E+10  -3.188696301153372E-1   -3.309580182593690E-1    3.320519016742533E-4   -6.896026718422945E-4    3.802160943656685E-4   -6.890302944773006E-4   -4.500287243908755E-1   -1.619901564809791E-1
 1.004719782765000E+10  -3.194692124339573E-1   -3.304308563355539E-1    3.491831773754657E-4   -6.784418712492856E-4    3.862479858855808E-4   -6.715664218717620E-4   -4.503654749541129E-1   -1.611247497376861E-1
 1.004720993222500E+10  -3.198833684408051E-1   -3.297481790640579E-1    3.483003751907754E-4   -6.833543251809539E-4    3.635097710939077E-4   -6.648455202261312E-4   -4.506938297369476E-1   -1.603926354101509E-1
 1.004722203680000E+10  -3.205169378553355E-1   -3.292044943051800E-1    3.075517276488424E-4   -6.686314448533479E-4    3.769071460011114E-4   -6.554042927261983E-4   -4.508308187821663E-1   -1.596302481165611E-1
 1.004723414137500E+10  -3.210576681020337E-1   -3.286621680564438E-1    3.119485261075059E-4   -6.826787658310378E-4    3.827040269384505E-4   -6.661450825272650E-4   -4.510893023638926E-1   -1.587763387001037E-1
 1.004724624595000E+10  -3.217700153077603E-1   -3.281383298061304E-1    3.112523211686729E-4   -6.890474430128171E-4    4.010823530667047E-4   -6.693016097161896E-4   -4.513090102638840E-1   -1.579783835158725E-1
 1.004725835052500E+10  -3.222435598505296E-1   -3.274695516897416E-1    3.149623020517957E-4   -6.538561960799286E-4    3.572678922521361E-4   -6.540769985089334E-4   -4.515915149878181E-1   -1.573340111590963E-1
 1.004727045510000E+10  -3.227466196550163E-1   -3.268393316344795E-1    3.435513283378893E-4   -6.595303104283519E-4    4.024425582163290E-4   -6.445059482229528E-4   -4.518558460639812E-1   -1.564091839142882E-1
 1.004728255967500E+10  -3.231851426557009E-1   -3.263849176348536E-1    3.492960152209499E-4   -6.692302950091700E-4    3.785193379153013E-4   -6.440889384927730E-4   -4.521606442670674E-1   -1.555787327412263E-1
 1.004729466425000E+10  -3.238154319519183E-1   -3.256669056642049E-1    3.239295958473355E-4   -6.580735220075044E-4    3.708179896886684E-4   -6.245543626225886E-4   -4.522630176050916E-1   -1.547694249215338E-1
 1.004730676882500E+10  -3.244045282771820E-1   -3.250818076739200E-1    2.928464268461211E-4   -6.327175656784752E-4    3.814953084853882E-4   -6.287489182254711E-4   -4.525312943703019E-1   -1.539571557132941E-1
 1.004731887340000E+10  -3.248408080741136E-1   -3.245951050380975E-1    3.146339364714867E-4   -6.681480202816256E-4    3.655838793728141E-4   -6.098409010564333E-4   -4.527903939552904E-1   -1.532150201208641E-1
 1.004733097797500E+10  -3.253515946253125E-1   -3.240528010067408E-1    3.167997752667844E-4   -6.419264210888857E-4    3.646248016948958E-4   -6.357909950614257E-4   -4.530131676767408E-1   -1.523633136478733E-1
 1.004734308255000E+10  -3.260556644639703E-1   -3.233525992700724E-1    3.283166993135033E-4   -6.239026890366893E-4    3.623015944578804E-4   -6.322694947877801E-4   -4.534040036866414E-1   -1.516406832019412E-1
 1.004735518712500E+10  -3.265983661208945E-1   -3.228793903700580E-1    3.106951802277627E-4   -6.205007139096679E-4    3.751364906408836E-4   -6.198981544461722E-4   -4.536383324487299E-1   -1.508641846997427E-1
 1.004736729170000E+10  -3.271396453757323E-1   -3.221922142964850E-1    3.140578148287787E-4   -6.191371611837567E-4    3.498798905675506E-4   -6.181040656767425E-4   -4.538194501839861E-1   -1.499429349833923E-1
 1.004737939627500E+10  -3.277644546524162E-1   -3.217422387008125E-1    2.939839644164519E-4   -6.174704724865754E-4    3.436131329002077E-4   -5.837530610244493E-4   -4.538657123093107E-1   -1.491326018140056E-1
 1.004739150085000E+10  -3.282391576666081E-1   -3.211421938024889E-1    3.157491436606377E-4   -6.157152941500064E-4    3.692806108593023E-4   -6.000446861790261E-4   -4.540991595345426E-1   -1.482757676450822E-1
 1.004740360542500E+10  -3.287168326845319E-1   -3.205331536559695E-1    3.273712846153469E-4   -6.182705594599214E-4    3.651372769860540E-4   -5.918976474024105E-4   -4.544803861639539E-1   -1.474620636350059E-1
 1.004741571000000E+10  -3.292270931867398E-1   -3.199554295840249E-1    3.145405716321053E-4   -6.152583772249421E-4    3.510955912809697E-4   -5.852368267227723E-4   -4.545993939766506E-1   -1.466971297804062E-1
 1.004742781457500E+10  -3.297646965914806E-1   -3.193130939812961E-1    2.885845296034344E-4   -5.946446893728590E-4    3.374309593202146E-4   -5.552386123549769E-4   -4.548480163615263E-1   -1.458049576572257E-1
 1.004743991915000E+10  -3.303732949304074E-1   -3.186659876832797E-1    2.910072511310422E-4   -5.821525129619006E-4    3.128560813839878E-4   -5.660581304315568E-4   -4.551135937151745E-1   -1.450681474360712E-1
 1.004745202372500E+10  -3.309517542597851E-1   -3.180494491360866E-1    3.024451784517120E-4   -5.947981983498646E-4    3.664510332490441E-4   -5.768002945475944E-4   -4.553989927500640E-1   -1.443280794374076E-1
 1.004746412830000E+10  -3.314145792867784E-1   -3.175444413628077E-1    3.236838591813632E-4   -5.657196577859588E-4    2.969812068947137E-4   -5.600805635168271E-4   -4.555685620734849E-1   -1.434232597503698E-1
 1.004747623287500E+10  -3.318233289383520E-1   -3.169901814632535E-1    3.050186216470603E-4   -5.494101930668867E-4    3.549870156982363E-4   -5.626505104077580E-4   -4.557184521509779E-1   -1.425792186392144E-1
 1.004748833745000E+10  -3.324131963966148E-1   -3.163704399277578E-1    2.813957934521201E-4   -5.674598328271899E-4    3.285847549902674E-4   -5.453484289714985E-4   -4.560678910764468E-1   -1.417929381402020E-1
 1.004750044202500E+10  -3.330282071729530E-1   -3.156945959699823E-1    3.077780664793189E-4   -5.533733758029466E-4    3.278590227668140E-4   -5.275578646410730E-4   -4.562305235483498E-1   -1.410260326475777E-1
 1.004751254660000E+10  -3.336363668774691E-1   -3.151590387127810E-1    3.132251793016357E-4   -5.417368084313669E-4    3.420976907990462E-4   -5.367312071148210E-4   -4.564800895778620E-1   -1.401108640920388E-1
 1.004752465117500E+10  -3.340372353560022E-1   -3.144512684217042E-1    3.191918445569689E-4   -5.314204504316234E-4    3.271918162621545E-4   -5.199175491508369E-4   -4.567208449454720E-1   -1.393117439490796E-1
 1.004753675575000E+10  -3.345401912444733E-1   -3.138344983291172E-1    2.982599669230779E-4   -5.391058981972951E-4    3.161915544774661E-4   -5.124473266242053E-4   -4.567633702058773E-1   -1.385249193166671E-1
