#  HZ   S   RI   R     50.00 
! Rohde & Schwarz Vector Network Analyzer 
! Rohde-Schwarz,ZNB20-2Port,1311601062101988,3.16
! Created: UTC 3/21/2024, 1:04:05 AM
! freq[Hz]                re:S11                  im:S11                  re:S21                  im:S21                  re:S12                  im:S12                  re:S22                  im:S22
 1.004643586400000E+10  -2.824201823820089E-1   -3.646055490271338E-1    4.277979121584916E-4   -8.612265907508106E-4    5.261273806152112E-4   -8.088487056332678E-4   -4.315890266112131E-1   -2.094055966376748E-1
 1.004644803482500E+10  -2.829621181352255E-1   -3.640600313078881E-1    4.344148847810828E-4   -7.942434408779150E-4    5.283882660250107E-4   -8.103111635922883E-4   -4.320100860416788E-1   -2.086830603699522E-1
 1.004646020565000E+10  -2.836712748365084E-1   -3.635035234115277E-1    4.314394345119424E-4   -8.087152787410664E-4    5.121973968949697E-4   -7.982866682785988E-4   -4.324244777804050E-1   -2.079079962026081E-1
 1.004647237647500E+10  -2.842108296889770E-1   -3.631385833194449E-1    4.506884498169116E-4   -8.248219645993565E-4    5.264283905296965E-4   -7.976190529566074E-4   -4.327529988699675E-1   -2.072440672321341E-1
 1.004648454730000E+10  -2.848299463968282E-1   -3.626547484256064E-1    4.603092086003930E-4   -8.311890123890903E-4    5.244268101640555E-4   -7.789709862343831E-4   -4.330316809251374E-1   -2.063472086912656E-1
 1.004649671812500E+10  -2.853817873469999E-1   -3.619194126541573E-1    4.256782027310930E-4   -8.162857892734821E-4    5.014222731238618E-4   -7.998180223597664E-4   -4.333963714240991E-1   -2.056747941016735E-1
 1.004650888895000E+10  -2.860502576780291E-1   -3.614698936436481E-1    4.236682057631551E-4   -8.075100221820538E-4    5.345199825521553E-4   -8.019325098455846E-4   -4.336474703014166E-1   -2.049715746880053E-1
 1.004652105977500E+10  -2.867536694066011E-1   -3.610229671830926E-1    4.637133588740926E-4   -7.946126251009057E-4    4.972523619661513E-4   -7.953537728525085E-4   -4.340861697551621E-1   -2.042736828491666E-1
 1.004653323060000E+10  -2.872772359381177E-1   -3.604604926553054E-1    4.218851414382410E-4   -7.954399445166192E-4    5.218896648328432E-4   -8.019230121765201E-4   -4.343228691585622E-1   -2.035125267838271E-1
 1.004654540142500E+10  -2.878212803781294E-1   -3.600327869647597E-1    4.561492432377539E-4   -8.006164979895399E-4    5.139613797102211E-4   -8.172202758044673E-4   -4.346413402883403E-1   -2.026619638028731E-1
 1.004655757225000E+10  -2.884015719799063E-1   -3.593391542164979E-1    4.489706858368282E-4   -8.157993905613537E-4    5.239999508788452E-4   -8.082985977913780E-4   -4.349787325114952E-1   -2.018470896316922E-1
 1.004656974307500E+10  -2.892519577987860E-1   -3.588215408279579E-1    4.259969178815018E-4   -7.984984528561552E-4    5.152178559654465E-4   -7.947181960679897E-4   -4.353328691013550E-1   -2.011360253407496E-1
 1.004658191390000E+10  -2.897124725079965E-1   -3.583465804147010E-1    4.098885457914833E-4   -7.812154850684247E-4    5.100436843520015E-4   -8.001563369755919E-4   -4.356304233527605E-1   -2.005240754019817E-1
 1.004659408472500E+10  -2.902956384215949E-1   -3.577691479040263E-1    4.419742338707643E-4   -7.965986571610379E-4    4.932699619797212E-4   -7.987808775385551E-4   -4.359827934470402E-1   -1.998113962709079E-1
 1.004660625555000E+10  -2.909758882198955E-1   -3.572766040826672E-1    4.391923691340752E-4   -8.075604910273844E-4    4.840489568464338E-4   -7.914930524142068E-4   -4.363891240761430E-1   -1.987270742153708E-1
 1.004661842637500E+10  -2.916301416380785E-1   -3.567898405929861E-1    4.278293614593340E-4   -8.182173781604578E-4    4.965830900493895E-4   -7.641621887811260E-4   -4.366039098912028E-1   -1.981807656324442E-1
 1.004663059720000E+10  -2.921179785104304E-1   -3.562161421050114E-1    4.198267093918769E-4   -7.963304722004758E-4    5.280861504960536E-4   -7.675339538026500E-4   -4.368323362556177E-1   -1.975644244429846E-1
 1.004664276802500E+10  -2.928120937012022E-1   -3.556462594437541E-1    4.420211024428727E-4   -8.067865014496938E-4    5.067138624165156E-4   -7.914186857314476E-4   -4.372022036011172E-1   -1.968334705874833E-1
 1.004665493885000E+10  -2.933319905231780E-1   -3.550360064785342E-1    4.227304463222646E-4   -7.946482165436551E-4    4.825779998205128E-4   -8.016191110437067E-4   -4.376348016154823E-1   -1.958703473670657E-1
 1.004666710967500E+10  -2.938705415640729E-1   -3.545696051302491E-1    4.434633312059266E-4   -7.998801065851184E-4    4.658309252317154E-4   -7.659471920920050E-4   -4.377151247033499E-1   -1.952576448686555E-1
 1.004667928050000E+10  -2.945382605254530E-1   -3.541250865379810E-1    4.330746399123703E-4   -7.881348176449930E-4    5.028394788575962E-4   -8.015363205408594E-4   -4.379797710208034E-1   -1.943288895840076E-1
 1.004669145132500E+10  -2.950600785710923E-1   -3.537384695193769E-1    4.215815775191588E-4   -7.903397419942692E-4    4.704844664460791E-4   -7.708198836397530E-4   -4.383393644447117E-1   -1.937446374333750E-1
 1.004670362215000E+10  -2.957746596315444E-1   -3.531081850572074E-1    4.115334558998326E-4   -8.042739238396656E-4    4.759787533491300E-4   -7.860577926690605E-4   -4.388648539539127E-1   -1.929143322637499E-1
 1.004671579297500E+10  -2.962878026334190E-1   -3.525321407026686E-1    4.214719766649875E-4   -8.047823836691591E-4    4.606047245881646E-4   -7.994321736388656E-4   -4.390642458353486E-1   -1.920292679890691E-1
 1.004672796380000E+10  -2.969990486667994E-1   -3.518283842058787E-1    4.335177755898764E-4   -7.868292909817460E-4    4.648076099784188E-4   -7.881710433181444E-4   -4.394408957234375E-1   -1.912833365700326E-1
 1.004674013462500E+10  -2.975831392500130E-1   -3.514012393315428E-1    4.032209941525935E-4   -7.916954918761464E-4    4.862152097478675E-4   -7.854598251883461E-4   -4.397509738239517E-1   -1.906226013980227E-1
 1.004675230545000E+10  -2.981275273487063E-1   -3.509653425583552E-1    4.290719651803032E-4   -7.869105066056621E-4    4.759658377235439E-4   -7.692870257561709E-4   -4.400829447089277E-1   -1.898326947913026E-1
 1.004676447627500E+10  -2.987842611887635E-1   -3.503090951552016E-1    4.096925048286674E-4   -7.914628187492783E-4    4.842412390651798E-4   -7.730600353412621E-4   -4.403018429638311E-1   -1.891100143244134E-1
 1.004677664710000E+10  -2.994857868440812E-1   -3.497613247466133E-1    3.991450794024006E-4   -7.680375474561124E-4    4.491178451422776E-4   -7.662530860524826E-4   -4.405392139309716E-1   -1.882557634543759E-1
 1.004678881792500E+10  -3.000259912357952E-1   -3.492909457929181E-1    3.932394866811524E-4   -7.797492280051957E-4    4.518943643183244E-4   -7.520479944595280E-4   -4.410196132813817E-1   -1.875146531644482E-1
 1.004680098875000E+10  -3.006119868331862E-1   -3.487389881170421E-1    4.004637080160644E-4   -7.558126318281547E-4    4.668613769377420E-4   -7.688408063051466E-4   -4.413361141954713E-1   -1.866521958542733E-1
 1.004681315957500E+10  -3.010965706289475E-1   -3.481752550855644E-1    3.954049084381127E-4   -7.701956261431225E-4    4.728467184296253E-4   -7.807994655988135E-4   -4.413826923099693E-1   -1.860383750472438E-1
 1.004682533040000E+10  -3.017112938480143E-1   -3.475925909740411E-1    4.253579341991147E-4   -7.750890693747637E-4    4.600877692621425E-4   -7.891092680662332E-4   -4.417760952861976E-1   -1.853377588155207E-1
 1.004683750122500E+10  -3.022672149955646E-1   -3.469737842410532E-1    4.059785700777570E-4   -7.898438019214499E-4    4.677653340936662E-4   -7.703294170034088E-4   -4.421247895301300E-1   -1.844213336963634E-1
 1.004684967205000E+10  -3.029031096592643E-1   -3.465524216261433E-1    4.008238538821136E-4   -7.785936169113545E-4    4.571692179322230E-4   -7.717863937802502E-4   -4.423336773786519E-1   -1.836978893017402E-1
 1.004686184287500E+10  -3.035285373556255E-1   -3.460092205158824E-1    3.774199667812785E-4   -7.445062452107424E-4    4.531271587463926E-4   -7.343957107441438E-4   -4.426699279993182E-1   -1.828531118280620E-1
 1.004687401370000E+10  -3.040181497098494E-1   -3.454863243448352E-1    3.808741855084218E-4   -7.480416777613058E-4    4.617617202742159E-4   -7.590467357190669E-4   -4.430490050247682E-1   -1.821390548408037E-1
 1.004688618452500E+10  -3.046829520949346E-1   -3.448939818776615E-1    3.927989178556030E-4   -7.630775948691354E-4    4.523295679654411E-4   -7.502563840053826E-4   -4.434089112960686E-1   -1.813583418899179E-1
 1.004689835535000E+10  -3.052263192316623E-1   -3.443773937582570E-1    3.676843416414996E-4   -7.651249133175447E-4    4.337338540441163E-4   -7.262494098643913E-4   -4.436780945258377E-1   -1.805052292651239E-1
 1.004691052617500E+10  -3.057942982773664E-1   -3.437498967595477E-1    3.880006746799861E-4   -7.623065173161758E-4    4.465263632863230E-4   -7.509581670627278E-4   -4.438572052720278E-1   -1.798129637460311E-1
 1.004692269700000E+10  -3.063603777995804E-1   -3.430928463082647E-1    3.834311892962804E-4   -7.425539620915047E-4    4.666089803036858E-4   -7.356119239281325E-4   -4.442251492214312E-1   -1.790575990810888E-1
 1.004693486782500E+10  -3.070745499968610E-1   -3.426016587258662E-1    4.102895845546097E-4   -7.602356551534111E-4    4.347922249635426E-4   -7.358956177528163E-4   -4.445116261408432E-1   -1.783819509789834E-1
 1.004694703865000E+10  -3.076573097269524E-1   -3.420155803046012E-1    3.747938906894926E-4   -7.555386357686575E-4    4.357489941310992E-4   -7.340213305999808E-4   -4.448018828149847E-1   -1.774581157074819E-1
 1.004695920947500E+10  -3.081591531350989E-1   -3.415265568575521E-1    3.762880266824723E-4   -7.413646868045380E-4    4.192147863497671E-4   -7.266137833647708E-4   -4.451825473926043E-1   -1.766665744945890E-1
 1.004697138030000E+10  -3.086459624739930E-1   -3.408900510358483E-1    3.691811203264204E-4   -7.485547177290293E-4    4.377915690548847E-4   -7.476821223610352E-4   -4.453691409246504E-1   -1.760311583292311E-1
 1.004698355112500E+10  -3.092720527601285E-1   -3.403802528875194E-1    3.903817742049896E-4   -7.257177476615863E-4    4.153410892014319E-4   -7.377190762950916E-4   -4.454594728082216E-1   -1.752097642523753E-1
 1.004699572195000E+10  -3.099051315821442E-1   -3.398042576737293E-1    3.790164627330224E-4   -7.286213788349254E-4    4.259741482608508E-4   -7.401329018658683E-4   -4.458620022850606E-1   -1.743158572385666E-1
 1.004700789277500E+10  -3.105001075329515E-1   -3.393555180303884E-1    3.650722954459780E-4   -7.386499305037627E-4    4.266057729547634E-4   -7.146557539802404E-4   -4.461375983397866E-1   -1.735790825706333E-1
 1.004702006360000E+10  -3.110245079864555E-1   -3.388677041217858E-1    3.927453073565043E-4   -7.302493296474347E-4    4.371899518430669E-4   -7.338954528338509E-4   -4.464624430805625E-1   -1.729633840838316E-1
 1.004703223442500E+10  -3.115753435552907E-1   -3.380892539499490E-1    3.490941461157715E-4   -7.144292430313902E-4    4.145446881413149E-4   -7.293681930148927E-4   -4.467593988394241E-1   -1.722484853574866E-1
 1.004704440525000E+10  -3.121522915546831E-1   -3.376169337421898E-1    3.441647345492410E-4   -7.281003289550083E-4    4.532242768939228E-4   -6.835717077831673E-4   -4.468937726709599E-1   -1.713202827921914E-1
 1.004705657607500E+10  -3.126724685187774E-1   -3.370743996265795E-1    3.501579843346090E-4   -7.309883127547742E-4    3.999616593982639E-4   -7.128954721601601E-4   -4.474056704701110E-1   -1.704696164230166E-1
 1.004706874690000E+10  -3.133561951496323E-1   -3.364261769602733E-1    3.666753925736081E-4   -7.354053413183799E-4    4.034376621123138E-4   -7.210164821103406E-4   -4.475105978916112E-1   -1.697920998122318E-1
 1.004708091772500E+10  -3.140060001617406E-1   -3.358497708262564E-1    3.383259660782088E-4   -6.913241888451843E-4    4.138093394676066E-4   -7.156181984382397E-4   -4.478354379531810E-1   -1.690279761946443E-1
 1.004709308855000E+10  -3.143602072573148E-1   -3.353298891559141E-1    3.705110855558011E-4   -7.273052865805040E-4    4.334014495815656E-4   -6.955969774591433E-4   -4.479689244698277E-1   -1.680990458361573E-1
 1.004710525937500E+10  -3.150220604751162E-1   -3.347316192749896E-1    3.676042283420907E-4   -7.036970995471816E-4    3.974046634483240E-4   -6.869524857203444E-4   -4.483497073556849E-1   -1.674888483219811E-1
 1.004711743020000E+10  -3.156348660292190E-1   -3.340317806913109E-1    3.570784157919821E-4   -6.951753652909997E-4    4.184756288450660E-4   -6.851485122020811E-4   -4.486092100528592E-1   -1.665236217747822E-1
 1.004712960102500E+10  -3.161587045870384E-1   -3.335431242727983E-1    3.545258518686347E-4   -7.210716497758731E-4    3.857877591722997E-4   -6.999102639990027E-4   -4.488789416348125E-1   -1.657893295675003E-1
 1.004714177185000E+10  -3.167362741828171E-1   -3.329888404003490E-1    3.633094490178923E-4   -7.167240802082483E-4    3.892334412685588E-4   -6.672766831779245E-4   -4.490197408886373E-1   -1.650400539987530E-1
 1.004715394267500E+10  -3.174060669144942E-1   -3.324771544914999E-1    3.645863007889003E-4   -6.869100330436359E-4    3.802834710030694E-4   -6.911077050024798E-4   -4.493201747823503E-1   -1.641969047394323E-1
 1.004716611350000E+10  -3.178468680141593E-1   -3.318878672700127E-1    3.582043619918252E-4   -7.043980940006416E-4    3.802282171734669E-4   -6.837703885137461E-4   -4.498132761565796E-1   -1.633394346465463E-1
 1.004717828432500E+10  -3.184477373398221E-1   -3.312247317592540E-1    3.509295039196647E-4   -7.181777273590621E-4    4.044182625898497E-4   -7.110639754045678E-4   -4.500014732288726E-1   -1.627147799871044E-1
 1.004719045515000E+10  -3.188973831423673E-1   -3.307255226354164E-1    3.366166245686523E-4   -6.742314474191210E-4    3.540117757588795E-4   -6.820841225552673E-4   -4.501183849898178E-1   -1.616445155427743E-1
 1.004720262597500E+10  -3.195489223431635E-1   -3.300807993687317E-1    3.241257480469090E-4   -6.967916889496227E-4    3.952769802001405E-4   -6.715463136597403E-4   -4.504027900613136E-1   -1.609820212644328E-1
 1.004721479680000E+10  -3.199844769487570E-1   -3.295954226530004E-1    3.511755368151836E-4   -6.919685152642157E-4    3.861624790484093E-4   -6.836808249133076E-4   -4.505950284950504E-1   -1.602975984700684E-1
 1.004722696762500E+10  -3.206487397739779E-1   -3.290826054402625E-1    3.345230884965352E-4   -6.897559687100522E-4    3.970490078585240E-4   -6.697444667722752E-4   -4.509394357023053E-1   -1.594185999575033E-1
 1.004723913845000E+10  -3.212633419369385E-1   -3.284056929838490E-1    3.245248609794891E-4   -6.675285088358560E-4    3.898624948165536E-4   -6.315564477493534E-4   -4.512153595510242E-1   -1.585944354938940E-1
 1.004725130927500E+10  -3.219954123325313E-1   -3.278777407013684E-1    3.392539320742515E-4   -6.787805685122016E-4    3.641502119481386E-4   -6.745086389665500E-4   -4.513919022328385E-1   -1.576869202970604E-1
 1.004726348010000E+10  -3.224110476212935E-1   -3.273528024144122E-1    3.421725777526582E-4   -6.384692502594256E-4    3.782543300943856E-4   -6.554709772432137E-4   -4.516490223048797E-1   -1.570458594812101E-1
 1.004727565092500E+10  -3.229076693012197E-1   -3.266792602381306E-1    3.559226462865248E-4   -6.334081773309038E-4    3.854139572124194E-4   -6.434920378401474E-4   -4.518336686495820E-1   -1.561969725605216E-1
 1.004728782175000E+10  -3.234582760307798E-1   -3.260554476923756E-1    2.982441614514297E-4   -6.616258518820364E-4    3.770621430224015E-4   -6.420990428136440E-4   -4.521437888234368E-1   -1.554023115935030E-1
 1.004729999257500E+10  -3.240262881087135E-1   -3.254649097435432E-1    3.270954569272266E-4   -6.582610582914512E-4    3.666944815209589E-4   -6.337981769172895E-4   -4.524792206962399E-1   -1.544830683655161E-1
 1.004731216340000E+10  -3.246372995568669E-1   -3.249556234613616E-1    3.377256052549501E-4   -6.266099543861623E-4    3.615790375494324E-4   -6.237117211272524E-4   -4.525942996673343E-1   -1.537829700322947E-1
 1.004732433422500E+10  -3.250807191371447E-1   -3.242670059544555E-1    3.386667041637526E-4   -6.362900197761657E-4    3.468651229123185E-4   -6.437219867195977E-4   -4.528412147946890E-1   -1.529669666917612E-1
 1.004733650505000E+10  -3.256391119607585E-1   -3.237215760348909E-1    3.246329790435232E-4   -6.328737252502243E-4    3.404062478869773E-4   -6.350300570301299E-4   -4.529737503373502E-1   -1.522656528514889E-1
 1.004734867587500E+10  -3.262087742135003E-1   -3.231361745188999E-1    3.233854766435009E-4   -6.292327491191324E-4    3.777452828390805E-4   -6.279097132400440E-4   -4.533581656190334E-1   -1.512044050403112E-1
 1.004736084670000E+10  -3.266348463821424E-1   -3.225658793328415E-1    3.403720270810701E-4   -6.455469951437044E-4    3.520358209867789E-4   -6.068411046286815E-4   -4.535507416694160E-1   -1.504893060704981E-1
 1.004737301752500E+10  -3.273623973436686E-1   -3.219347373261390E-1    3.215066599970115E-4   -6.125850498896779E-4    3.696058050693632E-4   -6.023971504716335E-4   -4.538666572231305E-1   -1.497544850013300E-1
 1.004738518835000E+10  -3.278729984677052E-1   -3.213450212569187E-1    3.149246127836668E-4   -6.168861992751289E-4    3.468655255782002E-4   -6.214444374823350E-4   -4.540340749899600E-1   -1.489465075920642E-1
 1.004739735917500E+10  -3.284845893664687E-1   -3.207833014077787E-1    3.127087373361391E-4   -5.980259970817307E-4    3.304130863987666E-4   -5.954590201368587E-4   -4.542487498892364E-1   -1.481341305627069E-1
 1.004740953000000E+10  -3.288961323793571E-1   -3.202280185989393E-1    2.839181769035455E-4   -6.171131079647877E-4    3.557955484950213E-4   -5.937558748961282E-4   -4.545044944220806E-1   -1.473263541038436E-1
 1.004742170082500E+10  -3.294441856992454E-1   -3.196274898122205E-1    2.940223247296039E-4   -6.295179284118577E-4    3.431061023043303E-4   -5.928075100105527E-4   -4.547722484081578E-1   -1.463766821000892E-1
 1.004743387165000E+10  -3.300534459329692E-1   -3.190613600712977E-1    2.919179308643557E-4   -6.046464239471675E-4    3.549381929199157E-4   -5.850091668338559E-4   -4.549074363478712E-1   -1.455692235768301E-1
 1.004744604247500E+10  -3.305848376214978E-1   -3.184329656942443E-1    3.039920648785598E-4   -6.169642085923869E-4    3.568683904270901E-4   -5.551454669957153E-4   -4.551298945177838E-1   -1.448330626593688E-1
 1.004745821330000E+10  -3.310613223954964E-1   -3.178753160890218E-1    3.028148810426883E-4   -5.912578206379827E-4    3.430079103954169E-4   -5.552382190724459E-4   -4.553569628920628E-1   -1.439206629699825E-1
 1.004747038412500E+10  -3.316100571443497E-1   -3.171726194829496E-1    3.145363985837064E-4   -5.663462753808010E-4    3.321832720860886E-4   -5.635512905290566E-4   -4.554718134729698E-1   -1.431226551660353E-1
 1.004748255495000E+10  -3.321209837940861E-1   -3.166989257220759E-1    3.113523577206087E-4   -5.762458492745999E-4    3.579565145031678E-4   -5.607395488064225E-4   -4.559101802044084E-1   -1.424501973215971E-1
 1.004749472577500E+10  -3.327870847719360E-1   -3.160986629685835E-1    2.962918011117678E-4   -5.680828873741620E-4    3.385262002830142E-4   -5.335571204351554E-4   -4.560207923570029E-1   -1.414239846693502E-1
 1.004750689660000E+10  -3.331671540974068E-1   -3.153906428433431E-1    3.056370649379792E-4   -5.522759766628737E-4    3.221371975423729E-4   -5.561056133753678E-4   -4.562670160668423E-1   -1.404172787662899E-1
 1.004751906742500E+10  -3.337486831495284E-1   -3.148622848780418E-1    2.931162365499920E-4   -5.193880785142161E-4    3.516044997736295E-4   -5.280880603723578E-4   -4.564767906606663E-1   -1.398886688769062E-1
 1.004753123825000E+10  -3.344452395312013E-1   -3.142939149659157E-1    2.779189650384419E-4   -5.417472206474087E-4    3.401962860961055E-4   -5.377605353488953E-4   -4.565789285440495E-1   -1.388489840729927E-1
