#  HZ   S   RI   R     50.00 
! Rohde & Schwarz Vector Network Analyzer 
! Rohde-Schwarz,ZNB20-2Port,1311601062101988,3.16
! Created: UTC 3/21/2024, 1:04:38 AM
! freq[Hz]                re:S11                  im:S11                  re:S21                  im:S21                  re:S12                  im:S12                  re:S22                  im:S22
 1.004633439500000E+10  -2.767881993581596E-1   -3.690716308559361E-1    4.510955750510718E-4   -7.958692388150008E-4    5.612775475855634E-4   -8.225566727593597E-4   -4.286388733623985E-1   -2.164662443405884E-1
 1.004634713830000E+10  -2.774677247328324E-1   -3.684818741503834E-1    4.536995808744055E-4   -8.359945776650017E-4    5.695521187948797E-4   -8.086016474895198E-4   -4.291107242548141E-1   -2.157128675958040E-1
 1.004635988160000E+10  -2.780737595897194E-1   -3.680382694158374E-1    4.655818225950228E-4   -8.483425482154867E-4    5.383601921010927E-4   -8.000457410176247E-4   -4.294075629700086E-1   -2.147592616842401E-1
 1.004637262490000E+10  -2.788962447533712E-1   -3.673902909247320E-1    4.648997691778267E-4   -8.688370783052759E-4    5.311124386277977E-4   -8.288591414265308E-4   -4.298104542176210E-1   -2.141328942881427E-1
 1.004638536820000E+10  -2.794862385953359E-1   -3.668397335182378E-1    4.760975911835501E-4   -8.249787303830396E-4    5.463829898739894E-4   -8.197414072732493E-4   -4.301527373935947E-1   -2.134025812497218E-1
 1.004639811150000E+10  -2.801735080081599E-1   -3.663002013252971E-1    4.873939129661972E-4   -8.339486581301930E-4    5.361851167827277E-4   -7.843540863767133E-4   -4.304353800155534E-1   -2.125828128715724E-1
 1.004641085480000E+10  -2.806616110466731E-1   -3.658332752970295E-1    4.540787735695611E-4   -8.396120324606661E-4    5.175810053782115E-4   -7.737104135977601E-4   -4.308440270427666E-1   -2.117895270853285E-1
 1.004642359810000E+10  -2.813926173359885E-1   -3.653254313421448E-1    4.545752307985113E-4   -8.308871491909690E-4    5.167968930440403E-4   -8.002862654918734E-4   -4.311763671301342E-1   -2.110493191130533E-1
 1.004643634140000E+10  -2.820213628101215E-1   -3.646825424156434E-1    4.681924412565901E-4   -8.279450185152668E-4    5.300133448714515E-4   -8.067610108425203E-4   -4.316200423305603E-1   -2.102355998567831E-1
 1.004644908470000E+10  -2.827055294569829E-1   -3.642915126484736E-1    4.621526145204194E-4   -8.182022987910330E-4    5.214691661941120E-4   -7.914910857449584E-4   -4.317488066319409E-1   -2.093979935001720E-1
 1.004646182800000E+10  -2.833165181623364E-1   -3.636244324726762E-1    4.535206853510791E-4   -8.149465593818479E-4    5.119112439661852E-4   -8.209099713407084E-4   -4.322382630584030E-1   -2.087635788072058E-1
 1.004647457130000E+10  -2.840641056597704E-1   -3.630568058019620E-1    4.457240457901818E-4   -8.012855312127711E-4    5.408935749933392E-4   -8.281100913932636E-4   -4.326092566018737E-1   -2.078762861151049E-1
 1.004648731460000E+10  -2.846407594653141E-1   -3.625085297916809E-1    4.505672533472046E-4   -8.298691383414539E-4    5.117416195813584E-4   -8.102812224889814E-4   -4.328008508628955E-1   -2.071831217009542E-1
 1.004650005790000E+10  -2.853152895351328E-1   -3.620737208439002E-1    4.313761206172492E-4   -8.111476568638436E-4    5.149698684288583E-4   -7.760452409363234E-4   -4.333106695333740E-1   -2.064321871179060E-1
 1.004651280120000E+10  -2.859394751390947E-1   -3.614928779461236E-1    4.267444658188873E-4   -7.971198965373509E-4    5.554851747786126E-4   -7.873349932156873E-4   -4.336069864903485E-1   -2.055979873354470E-1
 1.004652554450000E+10  -2.866397401590401E-1   -3.609946289083262E-1    4.387424839582022E-4   -8.434154692638469E-4    5.073556246642521E-4   -8.033778088646907E-4   -4.340751478251439E-1   -2.047106193288109E-1
 1.004653828780000E+10  -2.872594772078702E-1   -3.603434470853394E-1    4.386712514891165E-4   -7.938932779897736E-4    5.093999768377513E-4   -7.643725152919296E-4   -4.344932769594834E-1   -2.038734161407683E-1
 1.004655103110000E+10  -2.878759991165176E-1   -3.599492791037225E-1    4.513670949765048E-4   -8.009109602168021E-4    5.187737825326065E-4   -8.084656824043040E-4   -4.346626746630382E-1   -2.032988006626749E-1
 1.004656377440000E+10  -2.885912596847517E-1   -3.593003558059830E-1    4.449279822994614E-4   -8.218937751119476E-4    4.905320574071550E-4   -7.722822577785103E-4   -4.349194762788156E-1   -2.023911741106621E-1
 1.004657651770000E+10  -2.892331129218460E-1   -3.587472184895133E-1    4.354502220616723E-4   -8.250296911624592E-4    4.834223142492907E-4   -7.849165193924746E-4   -4.354305534779454E-1   -2.017679014738550E-1
 1.004658926100000E+10  -2.897743003201761E-1   -3.582051825917335E-1    4.145188366351824E-4   -8.171429146636782E-4    4.977449068317920E-4   -8.011011541223318E-4   -4.356444532413494E-1   -2.007043510747646E-1
 1.004660200430000E+10  -2.904624170712518E-1   -3.575483810341423E-1    4.417069268386057E-4   -8.068238282106726E-4    4.800913503904157E-4   -7.908483986924951E-4   -4.359426717307876E-1   -2.001144080421446E-1
 1.004661474760000E+10  -2.910364038622076E-1   -3.569745735762242E-1    4.425765252248357E-4   -8.136908210717161E-4    4.788169022614632E-4   -7.780673092843115E-4   -4.363115982879163E-1   -1.993118708281020E-1
 1.004662749090000E+10  -2.917381157779376E-1   -3.566225379029033E-1    4.309501289916900E-4   -7.977200535478210E-4    5.026677838791241E-4   -7.892085593491059E-4   -4.366427032022581E-1   -1.985976145832215E-1
 1.004664023420000E+10  -2.922534695665359E-1   -3.560675858211180E-1    4.270784504596390E-4   -7.698654162238698E-4    4.987393395461245E-4   -7.843237266846741E-4   -4.369971687187985E-1   -1.976476902636262E-1
 1.004665297750000E+10  -2.929187183794305E-1   -3.553634713901939E-1    4.061461531159862E-4   -7.891408210596215E-4    4.871054016541906E-4   -8.004350701574994E-4   -4.374606269358846E-1   -1.969749658304021E-1
 1.004666572080000E+10  -2.937043655324338E-1   -3.548798375356340E-1    4.352149259549540E-4   -7.883763347070343E-4    4.677092793658318E-4   -7.814529110429750E-4   -4.377436584697885E-1   -1.961474504314390E-1
 1.004667846410000E+10  -2.943413673490529E-1   -3.541938585002629E-1    4.173125476708689E-4   -7.984800690909897E-4    4.784430226167566E-4   -7.722026143880044E-4   -4.380963463582446E-1   -1.952371828310097E-1
 1.004669120740000E+10  -2.949472893709407E-1   -3.537624674510822E-1    4.242116843287454E-4   -7.680193439312341E-4    4.445191118900485E-4   -7.937006338156535E-4   -4.382829556739398E-1   -1.943679139761692E-1
 1.004670395070000E+10  -2.954439272496321E-1   -3.532080033756919E-1    4.074182053839301E-4   -7.909154761473476E-4    4.832682425993455E-4   -7.935491097482884E-4   -4.387773340709936E-1   -1.936877968964650E-1
 1.004671669400000E+10  -2.961771918623074E-1   -3.525403378537385E-1    3.975904955386350E-4   -7.947835950812280E-4    4.982487800562902E-4   -7.614364761991851E-4   -4.391225924343503E-1   -1.929401169273603E-1
 1.004672943730000E+10  -2.968549782926367E-1   -3.519051354711660E-1    3.777950262954815E-4   -8.005084407865239E-4    4.477951944394467E-4   -7.680982790257079E-4   -4.393090238153596E-1   -1.921028986432760E-1
 1.004674218060000E+10  -2.974112602158383E-1   -3.515095512221974E-1    4.209781361510615E-4   -7.793365905211223E-4    4.558515244637140E-4   -7.817027704273801E-4   -4.395923221867769E-1   -1.913309981516412E-1
 1.004675492390000E+10  -2.979016873580138E-1   -3.509432712845124E-1    4.227678823527995E-4   -8.114332990049587E-4    4.754955882134123E-4   -7.488591333753993E-4   -4.398976337963890E-1   -1.904859124918763E-1
 1.004676766720000E+10  -2.986888021181100E-1   -3.503729834620506E-1    4.381211541037184E-4   -7.841170396150743E-4    4.659451208339796E-4   -7.839182983646164E-4   -4.403821644722388E-1   -1.896536789522263E-1
 1.004678041050000E+10  -2.992569251911072E-1   -3.497432831965142E-1    3.850753921922013E-4   -7.901958597569726E-4    4.635217813825161E-4   -7.575671141215303E-4   -4.404840778623606E-1   -1.889801617809173E-1
 1.004679315380000E+10  -2.998253253140870E-1   -3.492238842248234E-1    3.988972974946336E-4   -7.636215407269455E-4    4.651829634422111E-4   -7.753184260020740E-4   -4.409217373360400E-1   -1.881325833006230E-1
 1.004680589710000E+10  -3.003709158553896E-1   -3.487177841506178E-1    3.787847854725479E-4   -7.958999773593318E-4    4.660854096982046E-4   -7.652631235325993E-4   -4.412911440443528E-1   -1.872884297261734E-1
 1.004681864040000E+10  -3.010726993160629E-1   -3.480965193318328E-1    4.026631381924803E-4   -7.737449402109854E-4    4.914780500454440E-4   -7.745377684420509E-4   -4.415771311115819E-1   -1.865817040206217E-1
 1.004683138370000E+10  -3.016994935711392E-1   -3.475784364635290E-1    3.850073367229437E-4   -7.698546629348322E-4    4.327048228309109E-4   -7.629698846827102E-4   -4.419045945348558E-1   -1.857650471306326E-1
 1.004684412700000E+10  -3.023979657549187E-1   -3.469190068283007E-1    4.007109402004925E-4   -7.792320649925251E-4    4.387119244687091E-4   -7.545735688182989E-4   -4.422087209989714E-1   -1.849814966442409E-1
 1.004685687030000E+10  -3.030393112213139E-1   -3.463096875588931E-1    3.825500194446647E-4   -7.596745188099116E-4    4.530846532130673E-4   -7.325783068708778E-4   -4.424176215029627E-1   -1.842142583533541E-1
 1.004686961360000E+10  -3.036492608246513E-1   -3.458825025495076E-1    3.978556160700288E-4   -7.547916955396032E-4    4.399486639070550E-4   -7.671889860425121E-4   -4.428017889331202E-1   -1.832327361670026E-1
 1.004688235690000E+10  -3.042535149071128E-1   -3.452712671185934E-1    3.787348238071210E-4   -7.736417586270668E-4    4.442856992446547E-4   -7.735320859613884E-4   -4.430875326270989E-1   -1.824306844996234E-1
 1.004689510020000E+10  -3.046855645938463E-1   -3.446174386511688E-1    3.701867827018076E-4   -7.952671714974673E-4    4.481280996236892E-4   -7.468693545953893E-4   -4.434840806032646E-1   -1.816423480349890E-1
 1.004690784350000E+10  -3.053760555852271E-1   -3.439565778018553E-1    3.740565927566439E-4   -7.520271624960257E-4    4.269605275929492E-4   -7.571208011299970E-4   -4.437847579992967E-1   -1.810032259027721E-1
 1.004692058680000E+10  -3.060837161112730E-1   -3.434234776141599E-1    3.912311936403779E-4   -7.411443334248651E-4    4.161844446041845E-4   -7.361748680193146E-4   -4.440286904185306E-1   -1.800757007104193E-1
 1.004693333010000E+10  -3.065961605088205E-1   -3.429350542653188E-1    3.975415516101810E-4   -7.371284788777356E-4    4.297971228873522E-4   -7.552006802389096E-4   -4.442477776051958E-1   -1.792589445122067E-1
 1.004694607340000E+10  -3.072191193435103E-1   -3.423203144850725E-1    3.895685546912075E-4   -7.530014256372474E-4    4.709380655679287E-4   -7.495914669552729E-4   -4.447624520316344E-1   -1.784619939599631E-1
 1.004695881670000E+10  -3.079307174095819E-1   -3.417066116411440E-1    3.761096792526167E-4   -7.448905848785098E-4    4.075585816616538E-4   -7.304746676841206E-4   -4.450322521458068E-1   -1.776245316127903E-1
 1.004697156000000E+10  -3.084649731728697E-1   -3.411702664660944E-1    3.818456275662171E-4   -7.559721264646828E-4    4.214352641665830E-4   -7.183831440540446E-4   -4.453213986019470E-1   -1.768409425844335E-1
 1.004698430330000E+10  -3.090406702489311E-1   -3.406592905138346E-1    3.736083385354324E-4   -7.484711684839953E-4    4.276142251185619E-4   -7.150385782778835E-4   -4.455199107132850E-1   -1.761131555306290E-1
 1.004699704660000E+10  -3.096666764742383E-1   -3.398767835226827E-1    3.859610499301794E-4   -7.371506659139865E-4    4.090595444115348E-4   -7.172596561868575E-4   -4.457784892012076E-1   -1.752404849782100E-1
 1.004700978990000E+10  -3.102440645947442E-1   -3.394097305214694E-1    3.673971497152939E-4   -7.356174959314971E-4    4.173764548816660E-4   -7.261825047862891E-4   -4.460584518377871E-1   -1.742584849118546E-1
 1.004702253320000E+10  -3.109141597137284E-1   -3.388292801335250E-1    3.637604198993071E-4   -7.034324097273855E-4    4.286305847645934E-4   -7.383908414661303E-4   -4.464053722644382E-1   -1.736163210778293E-1
 1.004703527650000E+10  -3.113708799442800E-1   -3.382195097695271E-1    3.347650891529450E-4   -7.441046996087967E-4    4.312191259513913E-4   -7.231288319230647E-4   -4.467026316414381E-1   -1.726537843522280E-1
 1.004704801980000E+10  -3.120931548492910E-1   -3.376483853393139E-1    3.774554972224072E-4   -7.081872742045619E-4    4.070287679200572E-4   -7.334078210390632E-4   -4.469624010815136E-1   -1.719791451995965E-1
 1.004706076310000E+10  -3.126721755106430E-1   -3.370135252376274E-1    3.516520680664291E-4   -7.165312775171568E-4    4.265959203503704E-4   -7.159713203904059E-4   -4.472671588646233E-1   -1.711977573804281E-1
 1.004707350640000E+10  -3.132993310411353E-1   -3.364350524063819E-1    3.483919678766117E-4   -7.353984762327973E-4    4.095109988703730E-4   -7.292734714884217E-4   -4.475080366977232E-1   -1.702481495931307E-1
 1.004708624970000E+10  -3.138986706852953E-1   -3.359206029681293E-1    3.840198245159876E-4   -7.297288144448387E-4    3.897965684283802E-4   -6.922876588216171E-4   -4.477541133761997E-1   -1.694537218268357E-1
 1.004709899300000E+10  -3.144413733427505E-1   -3.353434046908371E-1    3.572858954855499E-4   -7.075873121909377E-4    4.151139865836458E-4   -6.866690197145807E-4   -4.481550428489541E-1   -1.686428448047184E-1
 1.004711173630000E+10  -3.150977731697369E-1   -3.346730879902985E-1    3.259069600003673E-4   -7.043034152195358E-4    3.916603635226449E-4   -6.984523883330580E-4   -4.483584411392379E-1   -1.677348627656874E-1
 1.004712447960000E+10  -3.156567199706908E-1   -3.340897847791322E-1    3.543985424733861E-4   -6.963291278069247E-4    4.205694338905528E-4   -6.710618503682952E-4   -4.486476470550657E-1   -1.668741671378942E-1
 1.004713722290000E+10  -3.162779374283071E-1   -3.334673383551391E-1    3.430824955576005E-4   -7.011136577540529E-4    4.088092547067924E-4   -7.112354252570272E-4   -4.487955154280149E-1   -1.660994006097010E-1
 1.004714996620000E+10  -3.168389241499502E-1   -3.329024045654358E-1    3.439430742973981E-4   -7.260154688097812E-4    3.717408810053050E-4   -6.739432191304278E-4   -4.491438844756437E-1   -1.653317844643556E-1
 1.004716270950000E+10  -3.175204649359918E-1   -3.322553307282180E-1    3.400422518111048E-4   -6.862731969897598E-4    3.973611035015226E-4   -6.772844543666078E-4   -4.493960823535998E-1   -1.646109196257156E-1
 1.004717545280000E+10  -3.181307111735447E-1   -3.316620337415619E-1    3.423400705829943E-4   -6.983809669849775E-4    3.860295876147422E-4   -6.653337221989409E-4   -4.499441355957474E-1   -1.636599615050852E-1
 1.004718819610000E+10  -3.187074611601224E-1   -3.309971898740641E-1    3.374807795588041E-4   -6.844487800228688E-4    3.993291913466771E-4   -6.589304656849116E-4   -4.499965133540189E-1   -1.627288974314638E-1
 1.004720093940000E+10  -3.192033691533828E-1   -3.305164835867153E-1    3.192696147517676E-4   -6.811997964160748E-4    4.052483571844358E-4   -6.838188729884804E-4   -4.502147425113212E-1   -1.620047204649461E-1
 1.004721368270000E+10  -3.197482795064985E-1   -3.297772093721483E-1    3.123525951745035E-4   -6.724241536152927E-4    3.861475410819579E-4   -6.654062497158760E-4   -4.504940188036543E-1   -1.610771461306432E-1
 1.004722642600000E+10  -3.203811283219842E-1   -3.291193907806925E-1    3.214824130087835E-4   -6.962119217765939E-4    3.703680773413194E-4   -6.422453118792058E-4   -4.508614848211348E-1   -1.602347335987451E-1
 1.004723916930000E+10  -3.209382457770836E-1   -3.287145767488124E-1    3.449391679127554E-4   -6.729203071893315E-4    3.850084117031183E-4   -6.504019061067780E-4   -4.511208061593825E-1   -1.593969620711098E-1
 1.004725191260000E+10  -3.216008449520245E-1   -3.279402262744713E-1    3.537384833872109E-4   -6.595445534593068E-4    3.764476038109967E-4   -6.596503592214579E-4   -4.513686949698858E-1   -1.585730182299362E-1
 1.004726465590000E+10  -3.220918950514248E-1   -3.274032750185730E-1    3.352058108731453E-4   -6.676390418065863E-4    3.881803259550939E-4   -6.462052441112188E-4   -4.514709429682855E-1   -1.578915645585579E-1
 1.004727739920000E+10  -3.227714990862206E-1   -3.268044427108538E-1    3.494423234507269E-4   -6.788332226799114E-4    3.747799644330394E-4   -6.488527872882173E-4   -4.519115265789235E-1   -1.570227742977675E-1
 1.004729014250000E+10  -3.232097127268904E-1   -3.261623026897931E-1    3.318952480364006E-4   -6.359828265191860E-4    3.673663356428920E-4   -6.326942181234714E-4   -4.519988817630199E-1   -1.561141760734577E-1
 1.004730288580000E+10  -3.239540210377301E-1   -3.255877921074979E-1    3.001849007011272E-4   -6.433433745713471E-4    3.866548479745658E-4   -6.206457474894190E-4   -4.523393861353537E-1   -1.551933065889842E-1
 1.004731562910000E+10  -3.244436220526709E-1   -3.250200070965705E-1    3.190840053646659E-4   -6.255213493922902E-4    3.964215158303453E-4   -6.478814290768241E-4   -4.526418083376823E-1   -1.544693890905514E-1
 1.004732837240000E+10  -3.251456235960406E-1   -3.242267259739579E-1    3.340400357630423E-4   -6.259550438269413E-4    3.573693050529737E-4   -6.426457518845012E-4   -4.528379091880300E-1   -1.535075710419477E-1
 1.004734111570000E+10  -3.255612606771029E-1   -3.237698912069477E-1    3.159692882194454E-4   -6.542110586066522E-4    3.724427533335799E-4   -6.269897285620125E-4   -4.529856305622404E-1   -1.526518874946967E-1
 1.004735385900000E+10  -3.260874650120428E-1   -3.230791520812214E-1    3.259178827791448E-4   -6.522680607796004E-4    3.763437272806512E-4   -6.175617475905892E-4   -4.533074711441700E-1   -1.519658711981205E-1
 1.004736660230000E+10  -3.266363269210827E-1   -3.225059244924026E-1    2.959603410250512E-4   -6.250817287370923E-4    3.509403924861901E-4   -6.176671013679213E-4   -4.535546688538277E-1   -1.509877018524342E-1
 1.004737934560000E+10  -3.272862590131493E-1   -3.218334981302164E-1    2.964193278695269E-4   -6.373828445685113E-4    3.769834261116172E-4   -6.292555105635343E-4   -4.538209646867337E-1   -1.502519169290023E-1
 1.004739208890000E+10  -3.278463253158689E-1   -3.212900939492762E-1    3.102384461878034E-4   -5.664328114248825E-4    3.326940753451234E-4   -5.886786845005673E-4   -4.541842745686714E-1   -1.492597377177314E-1
 1.004740483220000E+10  -3.284677382869343E-1   -3.206937283180858E-1    3.523202629784450E-4   -6.221083797119253E-4    3.637621807106304E-4   -5.710998463669514E-4   -4.543912976389216E-1   -1.484905186387395E-1
 1.004741757550000E+10  -3.289324833324486E-1   -3.199958715027709E-1    3.149601299557032E-4   -6.009132345540920E-4    3.518787870769236E-4   -5.979426016105758E-4   -4.545618860454811E-1   -1.475545472426913E-1
 1.004743031880000E+10  -3.296313027425867E-1   -3.194920931693084E-1    3.029411356790804E-4   -5.896922580020903E-4    3.750211416621385E-4   -5.727807599980503E-4   -4.547373168585298E-1   -1.467924353001566E-1
 1.004744306210000E+10  -3.301074663401131E-1   -3.187847751397171E-1    3.175734655830961E-4   -5.827091530722366E-4    3.488180888262623E-4   -5.748252714989199E-4   -4.549726042122831E-1   -1.457759607777770E-1
 1.004745580540000E+10  -3.306789169415545E-1   -3.181685005677718E-1    3.095840261179529E-4   -5.935729846775181E-4    3.349219027377373E-4   -5.475295411815562E-4   -4.552510445417200E-1   -1.450026694043440E-1
 1.004746854870000E+10  -3.312699812578245E-1   -3.176273818244629E-1    3.251169863449095E-4   -5.939880553479457E-4    3.692400966596029E-4   -5.740077422644669E-4   -4.553898715555811E-1   -1.440258080985721E-1
 1.004748129200000E+10  -3.317987875349069E-1   -3.169412442161875E-1    3.210139354088448E-4   -5.805317296127316E-4    3.306557908049303E-4   -5.457979072419665E-4   -4.557407527154603E-1   -1.432861207549977E-1
