#  HZ   S   RI   R     50.00 
! Rohde & Schwarz Vector Network Analyzer 
! Rohde-Schwarz,ZNB20-2Port,1311601062101988,3.16
! Created: UTC 3/21/2024, 1:04:50 AM
! freq[Hz]                re:S11                  im:S11                  re:S21                  im:S21                  re:S12                  im:S12                  re:S22                  im:S22
 1.004637708000000E+10  -2.788802659254884E-1   -3.673028396777200E-1    4.493471666124490E-4   -8.364240049455171E-4    5.355009519071905E-4   -8.110338881187311E-4   -4.298677997095875E-1   -2.141779707324729E-1
 1.004638958425000E+10  -2.795407751398266E-1   -3.667861711763118E-1    4.526935945683901E-4   -8.503189244164555E-4    5.423027674006300E-4   -8.078041396429626E-4   -4.302936369200643E-1   -2.133399838452349E-1
 1.004640208850000E+10  -2.802449646982587E-1   -3.661845636616637E-1    4.556037020176898E-4   -8.438204437455025E-4    5.278339854923284E-4   -8.334010130831069E-4   -4.306910298926029E-1   -2.126463495071946E-1
 1.004641459275000E+10  -2.807983649670593E-1   -3.658518640510232E-1    4.777261834628033E-4   -8.137993247589397E-4    5.425931731433259E-4   -8.124446757088081E-4   -4.306771327935068E-1   -2.120049165742471E-1
 1.004642709700000E+10  -2.814354481940901E-1   -3.652183942785433E-1    4.753379928895008E-4   -8.284427555209719E-4    5.298063877798199E-4   -7.834789748727952E-4   -4.313660733452802E-1   -2.111403547328275E-1
 1.004643960125000E+10  -2.820448323241658E-1   -3.646372837216894E-1    4.532043691515591E-4   -8.129412810140898E-4    5.135906853544472E-4   -7.948990677271146E-4   -4.316475590093418E-1   -2.103067035918212E-1
 1.004645210550000E+10  -2.826386764015535E-1   -3.642111001066205E-1    4.756132697326135E-4   -8.341161696010209E-4    5.199823725002518E-4   -7.910073529763850E-4   -4.319974057745281E-1   -2.095671062288774E-1
 1.004646460975000E+10  -2.834693959159303E-1   -3.634719999519160E-1    4.212520036023733E-4   -8.169414259314137E-4    5.178248552490951E-4   -7.791235124569931E-4   -4.324391543382025E-1   -2.087943785411920E-1
 1.004647711400000E+10  -2.840628094290439E-1   -3.630800718059972E-1    4.449508986686473E-4   -8.243361109313550E-4    5.160339438629597E-4   -8.316952758709678E-4   -4.325880270660050E-1   -2.081421572752399E-1
 1.004648961825000E+10  -2.847103623383025E-1   -3.625727229080684E-1    4.482636911427620E-4   -8.413691232321107E-4    5.451336653852569E-4   -7.788625914446234E-4   -4.330304278103455E-1   -2.072484293689398E-1
 1.004650212250000E+10  -2.850793270840449E-1   -3.619632542988989E-1    4.478137760558728E-4   -8.435747804853913E-4    5.117237803696717E-4   -7.818303672405603E-4   -4.333015423913795E-1   -2.065373127612543E-1
 1.004651462675000E+10  -2.859887015558935E-1   -3.614417288882227E-1    4.650938945831011E-4   -7.868214818940254E-4    5.275897466181440E-4   -7.805452247219059E-4   -4.337649407583934E-1   -2.057150268621671E-1
 1.004652713100000E+10  -2.865416925860309E-1   -3.609281643284891E-1    4.261760780389282E-4   -8.198144251332384E-4    5.297715623373558E-4   -7.882467358529489E-4   -4.341555544137757E-1   -2.049668967554752E-1
 1.004653963525000E+10  -2.871968757116897E-1   -3.603670897253125E-1    4.585287021533047E-4   -7.925923528300907E-4    5.121303632252530E-4   -7.950472168920170E-4   -4.343970153308415E-1   -2.041856088843840E-1
 1.004655213950000E+10  -2.878388207553447E-1   -3.598858353420483E-1    4.551296362880401E-4   -8.133069921266078E-4    5.131800523453892E-4   -8.018771130952919E-4   -4.346146339786044E-1   -2.033955372802312E-1
 1.004656464375000E+10  -2.884615608519578E-1   -3.594010133594283E-1    4.479481045027142E-4   -8.211285447773787E-4    4.867042493904472E-4   -7.803385227389168E-4   -4.351433670063489E-1   -2.026593965624408E-1
 1.004657714800000E+10  -2.891397790904261E-1   -3.588462055438111E-1    4.456640516368388E-4   -8.059434235889479E-4    5.098463914110421E-4   -7.849092376482387E-4   -4.353114396137815E-1   -2.018188676080651E-1
 1.004658965225000E+10  -2.896001472953912E-1   -3.581804184247299E-1    4.175741850519978E-4   -7.955619352445566E-4    5.102180752551271E-4   -7.799371882300213E-4   -4.356988282101434E-1   -2.010462719639453E-1
 1.004660215650000E+10  -2.904496542349266E-1   -3.576603102764297E-1    4.208467413723032E-4   -7.930462295622819E-4    4.961856125070995E-4   -7.679888590405974E-4   -4.361342371493405E-1   -2.005056793887960E-1
 1.004661466075000E+10  -2.909081765311679E-1   -3.571877601386084E-1    4.320692445784163E-4   -8.196285131409682E-4    5.057512335338365E-4   -7.946352170640367E-4   -4.363717854389650E-1   -1.996982762946176E-1
 1.004662716500000E+10  -2.915945608606145E-1   -3.565524745298573E-1    4.450561523171917E-4   -7.898944003718604E-4    4.932187412673020E-4   -7.734882589995533E-4   -4.367589762882865E-1   -1.988858998344481E-1
 1.004663966925000E+10  -2.921329366661547E-1   -3.560421994818456E-1    4.399471450986974E-4   -8.176412545965291E-4    4.917025675771470E-4   -7.953731421592306E-4   -4.371615598726850E-1   -1.981440394568424E-1
 1.004665217350000E+10  -2.928025976185722E-1   -3.554710361915571E-1    4.207697638110132E-4   -7.930422343140865E-4    4.994429265796423E-4   -7.866408448047110E-4   -4.374147099108515E-1   -1.972773144709351E-1
 1.004666467775000E+10  -2.932821949274591E-1   -3.550367618678157E-1    4.106109298173718E-4   -8.038034748481223E-4    4.683681533359363E-4   -7.880495639949381E-4   -4.375990127617883E-1   -1.964385904146039E-1
 1.004667718200000E+10  -2.940760608306632E-1   -3.545100421732381E-1    3.926967795213488E-4   -7.809396094334932E-4    4.803071621144591E-4   -7.672440548219630E-4   -4.378280401137347E-1   -1.958433770917851E-1
 1.004668968625000E+10  -2.946472456858432E-1   -3.539183523170746E-1    4.096604081472318E-4   -8.015528568973359E-4    4.919297002795440E-4   -7.859010842707427E-4   -4.383399483946558E-1   -1.949916008312665E-1
 1.004670219050000E+10  -2.952950580499079E-1   -3.533358239478650E-1    4.289325257481672E-4   -7.843600510194804E-4    4.785709911485646E-4   -7.971742903298794E-4   -4.387195361809173E-1   -1.941948277620074E-1
 1.004671469475000E+10  -2.958832613363320E-1   -3.527524325417339E-1    4.002749925010000E-4   -7.833632231694885E-4    4.779262241976589E-4   -7.627159078796563E-4   -4.388620607283817E-1   -1.933328389741764E-1
 1.004672719900000E+10  -2.965699815803703E-1   -3.521006730127885E-1    4.358630211438438E-4   -7.866359399108453E-4    4.701165408297987E-4   -7.688196150716522E-4   -4.393645193113033E-1   -1.927119259826504E-1
 1.004673970325000E+10  -2.970632493251329E-1   -3.516898021197895E-1    4.142046281333595E-4   -7.738458279465962E-4    4.677042535968340E-4   -7.648784745698627E-4   -4.396123466606083E-1   -1.918039968538257E-1
 1.004675220750000E+10  -2.977107175334521E-1   -3.511047346023666E-1    4.172551790989882E-4   -8.067489324015078E-4    4.578068329786340E-4   -7.798715789996229E-4   -4.399635958474636E-1   -1.910778811381822E-1
 1.004676471175000E+10  -2.983319469881106E-1   -3.506375996596616E-1    4.137491647511597E-4   -7.925225575119211E-4    4.566657156130392E-4   -7.853641628591360E-4   -4.402731145281272E-1   -1.901956067850627E-1
 1.004677721600000E+10  -2.990438693563738E-1   -3.499809788092504E-1    4.169236374841383E-4   -7.736965975750699E-4    4.739212293497269E-4   -7.755685703967812E-4   -4.404616261103428E-1   -1.894009881034950E-1
 1.004678972025000E+10  -2.996100568113784E-1   -3.494277205278874E-1    4.238040097709116E-4   -7.874294475077082E-4    4.580620382395574E-4   -7.494550146359168E-4   -4.407962229451127E-1   -1.887044752459906E-1
 1.004680222450000E+10  -3.000842922979141E-1   -3.488687114602458E-1    4.093089505507685E-4   -7.780464883390108E-4    4.521739656326793E-4   -7.519278948846977E-4   -4.412401197531114E-1   -1.878359267546508E-1
 1.004681472875000E+10  -3.008011225134377E-1   -3.482876454599860E-1    3.935039047666947E-4   -7.777363399866040E-4    4.447790158303444E-4   -7.941720553948493E-4   -4.415488391404028E-1   -1.869826440298715E-1
 1.004682723300000E+10  -3.013776741158465E-1   -3.477873601695023E-1    4.022286179481563E-4   -7.711450654171557E-4    4.769425096440251E-4   -7.397745273175648E-4   -4.418208658651236E-1   -1.862321847419381E-1
 1.004683973725000E+10  -3.020334691366567E-1   -3.472143605646553E-1    3.979829193832805E-4   -7.527973964921019E-4    4.330853773140154E-4   -7.456338634025195E-4   -4.421388963141837E-1   -1.854166671655705E-1
 1.004685224150000E+10  -3.026883789001326E-1   -3.465441156943846E-1    3.789353877213917E-4   -7.841412698154494E-4    4.531207538497235E-4   -7.481023902209998E-4   -4.422661349380373E-1   -1.848491981985792E-1
 1.004686474575000E+10  -3.031717408792480E-1   -3.460836857201463E-1    3.990745707703569E-4   -7.735486845322144E-4    4.531313287550156E-4   -7.593322587991174E-4   -4.426256102644655E-1   -1.838800690228364E-1
 1.004687725000000E+10  -3.037765026600390E-1   -3.456113197885664E-1    3.896427901469233E-4   -7.601256857064283E-4    4.722856594504371E-4   -7.593702696174009E-4   -4.429085670988844E-1   -1.831334726327597E-1
 1.004688975425000E+10  -3.044237020170955E-1   -3.448911878348485E-1    3.904963914449267E-4   -7.605686832424377E-4    4.568902789098574E-4   -7.544469467055759E-4   -4.432641205891503E-1   -1.822207415088494E-1
 1.004690225850000E+10  -3.050088290508887E-1   -3.442441736350914E-1    3.808790238629636E-4   -7.530751428794966E-4    4.554593864973532E-4   -7.554839854149286E-4   -4.435057454990187E-1   -1.816852088106709E-1
 1.004691476275000E+10  -3.056051964055306E-1   -3.438111059023560E-1    3.936672183260792E-4   -7.607605195797399E-4    4.485182657015607E-4   -7.390852556932093E-4   -4.438759402706902E-1   -1.807864724323728E-1
 1.004692726700000E+10  -3.064128142539933E-1   -3.432863226037809E-1    3.789153696274131E-4   -7.530793874780253E-4    4.433691192832040E-4   -7.495898870476679E-4   -4.441977488423875E-1   -1.798560971857942E-1
 1.004693977125000E+10  -3.068369195318970E-1   -3.427186095445163E-1    3.578289075531454E-4   -7.485447586003626E-4    4.358306518631479E-4   -7.167770762329568E-4   -4.444034975101845E-1   -1.791739695044573E-1
 1.004695227550000E+10  -3.074514379764967E-1   -3.420716671204544E-1    3.854087139701346E-4   -7.200528677688135E-4    4.347635128327765E-4   -7.565906650057471E-4   -4.447541334986412E-1   -1.783937762964774E-1
 1.004696477975000E+10  -3.079713003585852E-1   -3.415401107461329E-1    3.869998271526002E-4   -7.445939712552152E-4    4.321102214797092E-4   -7.123480626703822E-4   -4.450774650655149E-1   -1.775650344983135E-1
 1.004697728400000E+10  -3.085407168997508E-1   -3.410066265773025E-1    3.601062301933925E-4   -7.398686344412187E-4    4.382620372256984E-4   -7.224096917399754E-4   -4.452219160707637E-1   -1.768198971506417E-1
 1.004698978825000E+10  -3.092273663049083E-1   -3.402357597631844E-1    3.650502811911578E-4   -7.233625965798467E-4    4.228579708706241E-4   -7.008594703639289E-4   -4.454664196183967E-1   -1.759674178365515E-1
 1.004700229250000E+10  -3.097947562110183E-1   -3.397747597692900E-1    4.160923850300542E-4   -7.190311778402986E-4    4.273313626105360E-4   -7.169749222984431E-4   -4.459723874058573E-1   -1.752403461329152E-1
 1.004701479675000E+10  -3.103672590325574E-1   -3.391943411297351E-1    3.740223462176316E-4   -7.378365385640602E-4    4.432667039914449E-4   -7.271206847933449E-4   -4.462470347310348E-1   -1.744504753522752E-1
 1.004702730100000E+10  -3.110279129842187E-1   -3.387939496201757E-1    3.775630002273933E-4   -7.413645500331779E-4    4.210417917563539E-4   -7.393073912914747E-4   -4.465247865682477E-1   -1.735339014010473E-1
 1.004703980525000E+10  -3.116447306820366E-1   -3.381356364003216E-1    3.689124987719565E-4   -7.356707024241131E-4    4.048809305365510E-4   -7.079114527602287E-4   -4.467285747281710E-1   -1.727188338930019E-1
 1.004705230950000E+10  -3.120858757907272E-1   -3.374431921208373E-1    3.628868413255565E-4   -7.520407713031749E-4    4.184602525863079E-4   -7.313164546703055E-4   -4.471372914901876E-1   -1.720705529212307E-1
 1.004706481375000E+10  -3.127773820763236E-1   -3.370160470382385E-1    3.616732201250759E-4   -7.287709885029844E-4    4.318518730756527E-4   -7.481904836536160E-4   -4.473131373922056E-1   -1.713183841377872E-1
 1.004707731800000E+10  -3.133957114365890E-1   -3.362765926037279E-1    3.726526726050385E-4   -7.350810472396894E-4    4.415588812518411E-4   -6.819797164666841E-4   -4.475629699580016E-1   -1.703473701559869E-1
 1.004708982225000E+10  -3.138807002045645E-1   -3.358491966079447E-1    3.369900416995371E-4   -6.995745421909505E-4    3.936685935501595E-4   -7.010711377528422E-4   -4.479352494475553E-1   -1.696071372668259E-1
 1.004710232650000E+10  -3.145854790006752E-1   -3.351550808303132E-1    3.655206417429029E-4   -7.240639845603304E-4    4.046757993196402E-4   -7.374727153465957E-4   -4.482408673747423E-1   -1.687197783285866E-1
 1.004711483075000E+10  -3.150201928596398E-1   -3.345570723939443E-1    3.596572905792216E-4   -7.109641049507155E-4    4.266845333574738E-4   -6.970235500411325E-4   -4.483121710088455E-1   -1.678372227131716E-1
 1.004712733500000E+10  -3.155962596953972E-1   -3.340815528081619E-1    3.543941622586553E-4   -6.978760041747363E-4    3.891851201663422E-4   -6.860814204510626E-4   -4.487096247301782E-1   -1.670742287869877E-1
 1.004713983925000E+10  -3.161443516656122E-1   -3.333716681108398E-1    3.675147589558261E-4   -7.054840962587113E-4    4.101499756220741E-4   -6.965244425022361E-4   -4.490465048561857E-1   -1.662759406455001E-1
 1.004715234350000E+10  -3.169176625456584E-1   -3.327672253164214E-1    3.479525215960218E-4   -6.901783823456569E-4    4.153093262187717E-4   -6.991488386852248E-4   -4.491928894304302E-1   -1.653711595394477E-1
 1.004716484775000E+10  -3.174159489873747E-1   -3.321915954138571E-1    3.478170605536150E-4   -7.230681610457704E-4    4.041970496284184E-4   -6.850031433137816E-4   -4.496564684982998E-1   -1.647206046645751E-1
 1.004717735200000E+10  -3.181300532812016E-1   -3.316001040803933E-1    3.599231113065410E-4   -6.692708954525596E-4    3.914808686930623E-4   -6.861837192394207E-4   -4.497808946316001E-1   -1.638220953194721E-1
 1.004718985625000E+10  -3.185970609534846E-1   -3.311549609466449E-1    3.327490523436692E-4   -6.492778479048027E-4    3.851017625473702E-4   -6.659120766871104E-4   -4.501013232234599E-1   -1.631096310038346E-1
 1.004720236050000E+10  -3.190271719697061E-1   -3.304854891773000E-1    3.365786470209257E-4   -6.985560060229499E-4    3.843663843493955E-4   -6.774467570855977E-4   -4.503561892476922E-1   -1.622408552970463E-1
 1.004721486475000E+10  -3.197389748902366E-1   -3.298962628055513E-1    3.536686847233328E-4   -6.983294203002955E-4    3.806809124851898E-4   -6.773665689553514E-4   -4.504610904523906E-1   -1.613633853179896E-1
 1.004722736900000E+10  -3.202520872612007E-1   -3.291329263730787E-1    3.242351158429765E-4   -7.077026076478328E-4    3.700913297461385E-4   -6.479926213898399E-4   -4.508609274116295E-1   -1.604874741656762E-1
 1.004723987325000E+10  -3.209084327503967E-1   -3.287656557874592E-1    3.226001171081898E-4   -6.722668843823029E-4    3.923522454566914E-4   -6.589141803611700E-4   -4.510763132178005E-1   -1.596686705556323E-1
 1.004725237750000E+10  -3.213685030277861E-1   -3.280916381583434E-1    3.386503322322982E-4   -6.705292195422306E-4    3.968217734362316E-4   -6.664531978492083E-4   -4.514261286747991E-1   -1.589657753767592E-1
 1.004726488175000E+10  -3.219916533516373E-1   -3.274995827223190E-1    3.253466739160813E-4   -6.659680627315700E-4    3.726940361623730E-4   -6.542835727532731E-4   -4.516138135935057E-1   -1.579527656689515E-1
 1.004727738600000E+10  -3.226355735017547E-1   -3.268505546361948E-1    3.153302750214539E-4   -6.402265110106681E-4    3.724714407592148E-4   -6.446975019521627E-4   -4.519872801017626E-1   -1.571777526763576E-1
 1.004728989025000E+10  -3.232138662239102E-1   -3.262888663918276E-1    3.248243640032766E-4   -6.714368094650259E-4    4.022317096717558E-4   -6.325552345556438E-4   -4.521118347514649E-1   -1.563683659513584E-1
 1.004730239450000E+10  -3.236647554200257E-1   -3.257103199938649E-1    3.241746927899280E-4   -6.630364838310967E-4    3.842601578001121E-4   -6.320132143489634E-4   -4.523204668067738E-1   -1.555097477432210E-1
 1.004731489875000E+10  -3.242453974850445E-1   -3.250512471799203E-1    2.976809837570014E-4   -6.331384414902347E-4    3.432689005439008E-4   -6.487883467361041E-4   -4.525288404325952E-1   -1.547803174228903E-1
 1.004732740300000E+10  -3.248009674142088E-1   -3.244285561062576E-1    3.358953686732268E-4   -6.709299815038372E-4    3.715031050149759E-4   -6.339808203202885E-4   -4.528732980128886E-1   -1.539401978091881E-1
 1.004733990725000E+10  -3.254655623444273E-1   -3.238945958490393E-1    3.229179092190217E-4   -6.542990899109630E-4    3.752110306210601E-4   -6.275777329290211E-4   -4.530967653955504E-1   -1.532160210856293E-1
 1.004735241150000E+10  -3.258631586906248E-1   -3.232581804645620E-1    3.301045184324468E-4   -6.321332269409062E-4    3.728394011512113E-4   -6.109132908243298E-4   -4.533375960775482E-1   -1.522330948308812E-1
 1.004736491575000E+10  -3.265257659125474E-1   -3.227323413011136E-1    3.157041871708607E-4   -6.134983887612506E-4    3.568853700866446E-4   -6.174389716154808E-4   -4.537376846600900E-1   -1.515555169338272E-1
 1.004737742000000E+10  -3.271917864942117E-1   -3.220782097586826E-1    2.745786401250811E-4   -6.381056245535916E-4    3.625004229390017E-4   -5.976577669218981E-4   -4.537389817167183E-1   -1.505484722729662E-1
 1.004738992425000E+10  -3.275907792445069E-1   -3.214496192598384E-1    3.029042104323459E-4   -6.119867352003524E-4    3.440665152089851E-4   -5.994166750144812E-4   -4.542684022083230E-1   -1.496455773474474E-1
 1.004740242850000E+10  -3.281930348440667E-1   -3.208665658535549E-1    3.343930305601955E-4   -6.076981410675419E-4    3.565048970133940E-4   -5.915693874276230E-4   -4.542556886735853E-1   -1.490238176935305E-1
 1.004741493275000E+10  -3.287503111308412E-1   -3.201135544914190E-1    3.202677752143455E-4   -6.166266018313711E-4    3.848698117627791E-4   -5.735888778360068E-4   -4.545427789505658E-1   -1.479383983187047E-1
 1.004742743700000E+10  -3.293263663986521E-1   -3.196030748383373E-1    3.116329409697558E-4   -5.917634034086214E-4    3.573079341503809E-4   -5.769532818589968E-4   -4.548341249245709E-1   -1.471994911991650E-1
 1.004743994125000E+10  -3.298715990269209E-1   -3.189948639050264E-1    3.027527647472591E-4   -5.934260515024711E-4    3.699367695648755E-4   -5.733671470989842E-4   -4.552141668822980E-1   -1.463864730565549E-1
 1.004745244550000E+10  -3.305048241043315E-1   -3.183569307848626E-1    3.091324007722199E-4   -5.819206196946979E-4    3.368939350892935E-4   -5.684640784845118E-4   -4.553295119830078E-1   -1.456005643247918E-1
 1.004746494975000E+10  -3.308990017965707E-1   -3.178500998675577E-1    3.156633289816074E-4   -5.413688261805251E-4    3.467197369767736E-4   -5.598039396905560E-4   -4.553828671201468E-1   -1.447121154713946E-1
 1.004747745400000E+10  -3.316343043024790E-1   -3.171837047184994E-1    2.972568453840968E-4   -5.475283813031329E-4    3.534489150340779E-4   -5.526328318365572E-4   -4.557152155359974E-1   -1.438691918197567E-1
 1.004748995825000E+10  -3.321738646411559E-1   -3.165810563779666E-1    2.836414361480157E-4   -5.609298222598598E-4    3.328106433050654E-4   -5.555859820662154E-4   -4.560281561840080E-1   -1.430566086658077E-1
 1.004750246250000E+10  -3.327697030660071E-1   -3.161585499116576E-1    2.837752971751744E-4   -5.706628510621671E-4    3.218623712912245E-4   -5.261638316503429E-4   -4.561496470511887E-1   -1.420079699917246E-1
