#  HZ   S   RI   R     50.00 
! Rohde & Schwarz Vector Network Analyzer 
! Rohde-Schwarz,ZNB20-2Port,1311601062101988,3.16
! Created: UTC 3/21/2024, 1:05:02 AM
! freq[Hz]                re:S11                  im:S11                  re:S21                  im:S21                  re:S12                  im:S12                  re:S22                  im:S22
 1.004630310200000E+10  -2.750842813468629E-1   -3.704180404861451E-1    4.935650337584479E-4   -8.273693503208597E-4    5.416891732266646E-4   -7.984337276006259E-4   -4.279078087228494E-1   -2.189952507766756E-1
 1.004631601950000E+10  -2.757225723115937E-1   -3.698856309153846E-1    4.750219940705385E-4   -8.288411532042247E-4    5.508024020323291E-4   -8.213995018708520E-4   -4.282467769897413E-1   -2.182172130163307E-1
 1.004632893700000E+10  -2.763415038889708E-1   -3.694055376325566E-1    4.616794346619168E-4   -8.201042767310181E-4    5.556734069816388E-4   -8.236264844678226E-4   -4.285669863011375E-1   -2.176148302522292E-1
 1.004634185450000E+10  -2.768932636710659E-1   -3.688637236853948E-1    4.883165218836706E-4   -8.401090859004122E-4    5.735922962254399E-4   -8.260052093603618E-4   -4.289798917823431E-1   -2.166099776976173E-1
 1.004635477200000E+10  -2.776834101712305E-1   -3.682995882932792E-1    4.559746014988121E-4   -8.182489650840480E-4    5.475170886590721E-4   -7.867795344939430E-4   -4.295525183900781E-1   -2.158836128034322E-1
 1.004636768950000E+10  -2.783169203724175E-1   -3.677295545666452E-1    4.683231896999938E-4   -8.130178978218024E-4    5.599843266351233E-4   -7.897227511682589E-4   -4.298027606657573E-1   -2.151344933191964E-1
 1.004638060700000E+10  -2.789908936105914E-1   -3.672249077373483E-1    4.633657945919078E-4   -8.203081486550210E-4    5.443036990422884E-4   -8.248399811407306E-4   -4.301890317033804E-1   -2.144265397607734E-1
 1.004639352450000E+10  -2.796539807705897E-1   -3.667358134167800E-1    4.481273692486250E-4   -8.237269998925791E-4    5.114748363244652E-4   -8.076313578731213E-4   -4.303397690273444E-1   -2.134792517205874E-1
 1.004640644200000E+10  -2.803460492563262E-1   -3.662102347886227E-1    4.618969470883822E-4   -8.286129238056801E-4    5.490742445551698E-4   -8.003238546428554E-4   -4.308519664068640E-1   -2.126493242632791E-1
 1.004641935950000E+10  -2.810608854778361E-1   -3.655303167462788E-1    4.706053290680379E-4   -8.288932819427130E-4    5.108525005953032E-4   -7.957871858614584E-4   -4.312829585574721E-1   -2.117820126604022E-1
 1.004643227700000E+10  -2.816892649711008E-1   -3.650288661711560E-1    4.192773924706559E-4   -8.353506802262031E-4    5.371285953028021E-4   -7.973846085906233E-4   -4.315574640526057E-1   -2.112621442214161E-1
 1.004644519450000E+10  -2.823503824698308E-1   -3.644576154510135E-1    4.519581902951781E-4   -8.426793831371410E-4    5.254207568714816E-4   -7.965358986571601E-4   -4.319154915010077E-1   -2.104261240048631E-1
 1.004645811200000E+10  -2.830058893983921E-1   -3.639269301158325E-1    4.883879079767678E-4   -8.226035451908205E-4    5.144266949538697E-4   -8.225646326933994E-4   -4.322000372316713E-1   -2.097265560732930E-1
 1.004647102950000E+10  -2.835684429683226E-1   -3.633437171197949E-1    4.551473452820567E-4   -8.103184938220698E-4    5.087078719312544E-4   -8.289305206539011E-4   -4.327906284144185E-1   -2.088294991772119E-1
 1.004648394700000E+10  -2.843270399497380E-1   -3.628534051099683E-1    4.423993010146407E-4   -8.251918137370722E-4    4.801519732842055E-4   -8.108342103983766E-4   -4.330265638941180E-1   -2.079845387418362E-1
 1.004649686450000E+10  -2.849960052323973E-1   -3.622972247204749E-1    4.735610711980379E-4   -7.998335797529476E-4    5.308284970741713E-4   -8.112897389914942E-4   -4.333256695041438E-1   -2.073495928221508E-1
 1.004650978200000E+10  -2.855398654626450E-1   -3.617105952124470E-1    4.473720718016000E-4   -8.161555431793081E-4    5.394870936545110E-4   -7.940572490335460E-4   -4.336906064381937E-1   -2.065366272139817E-1
 1.004652269950000E+10  -2.862612458975399E-1   -3.611976687817149E-1    4.484020786131489E-4   -7.958491025497644E-4    4.936990323008185E-4   -8.184900921337348E-4   -4.340545090604131E-1   -2.056086473004579E-1
 1.004653561700000E+10  -2.869586913038266E-1   -3.605841839481821E-1    4.358130368502730E-4   -8.065651850929766E-4    4.824694157467878E-4   -7.824516729318575E-4   -4.344271345873876E-1   -2.048475924285250E-1
 1.004654853450000E+10  -2.875640377262132E-1   -3.601098492119208E-1    4.538509050328680E-4   -7.998764268881229E-4    4.989772377882447E-4   -7.865945435823775E-4   -4.347923857395100E-1   -2.039887405092924E-1
 1.004656145200000E+10  -2.882008859620879E-1   -3.596640498545168E-1    4.228770327990168E-4   -8.031871069486788E-4    5.299842923712396E-4   -8.017576227197142E-4   -4.351076234004947E-1   -2.032772080937134E-1
 1.004657436950000E+10  -2.888121382758009E-1   -3.590708842629862E-1    4.314944691516771E-4   -7.976193149525569E-4    5.041340156406461E-4   -8.131737758202955E-4   -4.354695608966531E-1   -2.024213790819644E-1
 1.004658728700000E+10  -2.895298484050597E-1   -3.584411188196642E-1    4.832228284326000E-4   -8.071677225103033E-4    5.218735774055518E-4   -7.702258007819497E-4   -4.358822516540065E-1   -2.016760152750707E-1
 1.004660020450000E+10  -2.901844483286182E-1   -3.577808194529778E-1    4.166569133038685E-4   -8.293340794398768E-4    5.144634430149537E-4   -7.785583527214040E-4   -4.361967917037960E-1   -2.009124310075966E-1
 1.004661312200000E+10  -2.908728623380675E-1   -3.573355666472673E-1    4.206307239175646E-4   -8.105329528645786E-4    4.687513902796449E-4   -7.909406337866401E-4   -4.363579712334700E-1   -2.001278737197010E-1
 1.004662603950000E+10  -2.913511272895568E-1   -3.566929627262233E-1    4.257885431697564E-4   -8.212950037754436E-4    4.745386870947335E-4   -8.012516167298509E-4   -4.367768846017011E-1   -1.992757387532242E-1
 1.004663895700000E+10  -2.920902882856433E-1   -3.561278353448156E-1    4.275315081034162E-4   -7.700906856403637E-4    4.864314170660871E-4   -7.798168321358570E-4   -4.371880616658766E-1   -1.983648780731356E-1
 1.004665187450000E+10  -2.927245891426963E-1   -3.556054166051848E-1    4.201814077388311E-4   -7.820773102884278E-4    4.873664678258848E-4   -7.887595116881298E-4   -4.374765076418693E-1   -1.977378032527513E-1
 1.004666479200000E+10  -2.934278069412253E-1   -3.549895311013871E-1    3.925891827298644E-4   -8.020097169704457E-4    4.945138509314438E-4   -7.563238106619442E-4   -4.377923867728543E-1   -1.968851615844085E-1
 1.004667770950000E+10  -2.939857557376272E-1   -3.544029185394081E-1    4.192338365383644E-4   -7.891437330269247E-4    4.940775698187487E-4   -7.641414307582363E-4   -4.382712233223179E-1   -1.961579037554887E-1
 1.004669062700000E+10  -2.947068384762849E-1   -3.537458717323317E-1    4.411874632266752E-4   -7.844946249122699E-4    4.894837791014870E-4   -8.008066337849180E-4   -4.384177697900473E-1   -1.952721758236364E-1
 1.004670354450000E+10  -2.953071908583807E-1   -3.532642134242975E-1    4.355392654349846E-4   -7.970899879038740E-4    4.590653713287226E-4   -7.739486487486427E-4   -4.388975191039627E-1   -1.944949536281393E-1
 1.004671646200000E+10  -2.958206378767418E-1   -3.526859564641446E-1    4.242392959820766E-4   -7.879514866369826E-4    4.813456769241600E-4   -7.735399552012411E-4   -4.390892947055155E-1   -1.936150076434980E-1
 1.004672937950000E+10  -2.965461912326141E-1   -3.522422794678494E-1    4.118105011827961E-4   -7.806178343638846E-4    4.792396295777770E-4   -7.596488114283415E-4   -4.394086697004877E-1   -1.928564843534928E-1
 1.004674229700000E+10  -2.973061117736459E-1   -3.515069118341453E-1    4.309526761959447E-4   -7.859470197138483E-4    4.899700163150037E-4   -7.698033411879186E-4   -4.398733615575570E-1   -1.919898312520294E-1
 1.004675521450000E+10  -2.977840740382128E-1   -3.510105762098594E-1    3.974411157774725E-4   -8.042326834815629E-4    4.852757760166183E-4   -7.713893187969565E-4   -4.401745488659981E-1   -1.912401825242040E-1
 1.004676813200000E+10  -2.984148215576465E-1   -3.504819727806572E-1    4.096463286671436E-4   -8.002592817323134E-4    4.650915676535219E-4   -7.863081516524112E-4   -4.404927384072745E-1   -1.904686871145061E-1
 1.004678104950000E+10  -2.991052259831333E-1   -3.499576255813389E-1    3.976992535609411E-4   -7.578236049674938E-4    4.466517086391133E-4   -7.588764660672965E-4   -4.407920306385038E-1   -1.895608119155149E-1
 1.004679396700000E+10  -2.997550152279968E-1   -3.493021562868464E-1    3.990676497386391E-4   -7.751134481557506E-4    4.667986923283380E-4   -7.712685833716791E-4   -4.411505046393648E-1   -1.887731271016078E-1
 1.004680688450000E+10  -3.003667942177545E-1   -3.486832134669906E-1    4.073769627146155E-4   -7.594424303149433E-4    4.602227291815742E-4   -7.743969402383360E-4   -4.415021523097196E-1   -1.879753437786685E-1
 1.004681980200000E+10  -3.010412170724869E-1   -3.480733528865916E-1    3.968149788663075E-4   -7.866948778449587E-4    4.670365379633921E-4   -7.559276219921228E-4   -4.416788180308147E-1   -1.871280495339052E-1
 1.004683271950000E+10  -3.016188611650551E-1   -3.476176202713095E-1    4.104323133163789E-4   -7.637790508477325E-4    4.524625232729746E-4   -7.519107444655066E-4   -4.420058486272096E-1   -1.862766760063594E-1
 1.004684563700000E+10  -3.022489934255298E-1   -3.470666801725116E-1    3.796644549040836E-4   -7.785191644249613E-4    4.702039587621584E-4   -7.406448673519635E-4   -4.423977341821212E-1   -1.853845764658685E-1
 1.004685855450000E+10  -3.028357668674895E-1   -3.463518667721218E-1    3.897433108495538E-4   -7.552625158514599E-4    4.552816523149282E-4   -7.519671043589520E-4   -4.426540529955924E-1   -1.847613271125473E-1
 1.004687147200000E+10  -3.035301039663066E-1   -3.458677870521987E-1    4.002812911985884E-4   -7.493040947695358E-4    4.711986272199973E-4   -7.532028190720437E-4   -4.429073535594062E-1   -1.838792997667108E-1
 1.004688438950000E+10  -3.041267253758344E-1   -3.452240371436680E-1    3.908251802206006E-4   -7.582916688916429E-4    4.564672359733308E-4   -7.534380657089893E-4   -4.432324312224428E-1   -1.830736578510029E-1
 1.004689730700000E+10  -3.046841020284528E-1   -3.446388621631364E-1    4.071380684269954E-4   -7.584896555479984E-4    4.340334617729973E-4   -7.465863449385935E-4   -4.436159619830672E-1   -1.821937841901408E-1
 1.004691022450000E+10  -3.054014735145378E-1   -3.441167507744065E-1    3.996680031917254E-4   -7.423266380462624E-4    4.654987279435725E-4   -7.491172566744052E-4   -4.439550080218368E-1   -1.813589789161917E-1
 1.004692314200000E+10  -3.059455902045971E-1   -3.433937222771895E-1    3.735573468815335E-4   -7.727240695001526E-4    4.461683902160899E-4   -7.392341867679608E-4   -4.442668819879368E-1   -1.806307052170920E-1
 1.004693605950000E+10  -3.065126440218765E-1   -3.428632295515040E-1    3.656609016023403E-4   -7.572500904294204E-4    4.316140760285035E-4   -7.437714684807552E-4   -4.445961216163623E-1   -1.798089261135573E-1
 1.004694897700000E+10  -3.070795672895266E-1   -3.422894926889097E-1    3.560381013270452E-4   -7.359157077490037E-4    4.385881954714761E-4   -7.223605957082229E-4   -4.447861376086434E-1   -1.788855897167641E-1
 1.004696189450000E+10  -3.078218540190197E-1   -3.416541295706090E-1    3.723826896588720E-4   -7.433164922306405E-4    4.473821522112361E-4   -7.253886667508896E-4   -4.451320489727644E-1   -1.780467933979003E-1
 1.004697481200000E+10  -3.084585958586233E-1   -3.411725455770095E-1    3.697017566822046E-4   -7.499520757088494E-4    4.458907110936604E-4   -7.443795165360594E-4   -4.453813880445963E-1   -1.772243943953489E-1
 1.004698772950000E+10  -3.089900330340709E-1   -3.405387217563189E-1    3.798709745203363E-4   -7.154133053791848E-4    4.252046901094345E-4   -7.427669496802370E-4   -4.458016218519018E-1   -1.763616904518275E-1
 1.004700064700000E+10  -3.097217433349911E-1   -3.399162731231667E-1    3.866805886852103E-4   -7.433373137707407E-4    4.429112688814240E-4   -7.228909976007065E-4   -4.462183852672761E-1   -1.756462061074752E-1
 1.004701356450000E+10  -3.102813028244637E-1   -3.394005974631021E-1    3.433585464506067E-4   -7.247486892655636E-4    4.281171476110925E-4   -7.094680215322602E-4   -4.462003030167376E-1   -1.747570656667926E-1
 1.004702648200000E+10  -3.108628317258148E-1   -3.387331682642669E-1    3.714292233082256E-4   -7.225815293369632E-4    4.192263266077925E-4   -7.285434559422566E-4   -4.466573396454323E-1   -1.739017386349661E-1
 1.004703939950000E+10  -3.115512090151237E-1   -3.382388733308281E-1    3.513748436126888E-4   -7.180528535935382E-4    4.224225669250375E-4   -7.166031795219162E-4   -4.469250912689796E-1   -1.731116402941269E-1
 1.004705231700000E+10  -3.120377759594199E-1   -3.375716466105460E-1    3.698124707078032E-4   -7.087709630684140E-4    3.941507809600031E-4   -7.080607476332358E-4   -4.471241434527976E-1   -1.723420300404044E-1
 1.004706523450000E+10  -3.128497729866348E-1   -3.368334861404929E-1    3.455062414153640E-4   -7.170984225831289E-4    4.117248629977307E-4   -7.078452737337544E-4   -4.476762221063214E-1   -1.715301265844719E-1
 1.004707815200000E+10  -3.132051640121725E-1   -3.363980303373070E-1    3.451342325066675E-4   -7.126106159626315E-4    4.395384391943628E-4   -6.874037625199261E-4   -4.477768932986635E-1   -1.705313901592828E-1
 1.004709106950000E+10  -3.139299216634517E-1   -3.356911355395249E-1    3.424109175686033E-4   -7.006883805004608E-4    4.302843022198673E-4   -6.926795688498665E-4   -4.481120887843914E-1   -1.697756462505650E-1
 1.004710398700000E+10  -3.145275354238059E-1   -3.351110648377994E-1    3.707557519567849E-4   -7.044802858553727E-4    3.944029735357904E-4   -6.981736911035324E-4   -4.483984213299094E-1   -1.688610679048211E-1
 1.004711690450000E+10  -3.152195671049350E-1   -3.345887424424946E-1    3.577222901620805E-4   -6.842658616033406E-4    3.984248957287731E-4   -7.011259206902894E-4   -4.488608970758776E-1   -1.680974596137673E-1
 1.004712982200000E+10  -3.156802389623077E-1   -3.339000379660166E-1    3.567227166711910E-4   -7.107167086131124E-4    4.141133673444704E-4   -6.944092689872632E-4   -4.490559477418879E-1   -1.674634680932951E-1
 1.004714273950000E+10  -3.163733535801882E-1   -3.333408972728242E-1    3.485702882232097E-4   -6.815238004433792E-4    4.265852728193732E-4   -6.796082644570840E-4   -4.493538071228997E-1   -1.664194005902334E-1
 1.004715565700000E+10  -3.169161097327750E-1   -3.326844189621309E-1    3.290580597343240E-4   -7.204482582963698E-4    4.171460165848145E-4   -6.667241263243117E-4   -4.495751423208809E-1   -1.657414294872407E-1
 1.004716857450000E+10  -3.173976251377432E-1   -3.320931779483121E-1    3.461816490208662E-4   -7.083938314787033E-4    3.842443052093650E-4   -6.579793351681629E-4   -4.499395773923861E-1   -1.648566129397461E-1
 1.004718149200000E+10  -3.180609656679929E-1   -3.314473599954335E-1    3.486794504763950E-4   -6.873763069891058E-4    4.093234149730221E-4   -6.798675440848719E-4   -4.500313174130843E-1   -1.639964090873610E-1
 1.004719440950000E+10  -3.187040349673742E-1   -3.308450775866335E-1    3.494118464438476E-4   -6.886580266155579E-4    3.819851971210957E-4   -6.833243468739430E-4   -4.503805968089930E-1   -1.629677310157092E-1
 1.004720732700000E+10  -3.193319974043611E-1   -3.303470773867847E-1    3.308947752555921E-4   -6.744673528542168E-4    4.082113977837564E-4   -6.672676720621125E-4   -4.506915465374534E-1   -1.622224824124881E-1
 1.004722024450000E+10  -3.199715057265855E-1   -3.296108400034559E-1    3.514689193017450E-4   -6.864197677214566E-4    4.012725022636374E-4   -6.384806175408193E-4   -4.508212595974523E-1   -1.613496671366645E-1
 1.004723316200000E+10  -3.205561128890372E-1   -3.290760635898105E-1    3.172192254620830E-4   -6.650843687827485E-4    4.014190027156499E-4   -6.479154694417204E-4   -4.511228889946765E-1   -1.604351028691645E-1
 1.004724607950000E+10  -3.211675405410719E-1   -3.284676869313206E-1    3.217538310787336E-4   -6.664156761975129E-4    3.929754528448965E-4   -6.664752845530299E-4   -4.512893204778369E-1   -1.597734361408532E-1
 1.004725899700000E+10  -3.217158088121169E-1   -3.276798542593111E-1    3.456102250445385E-4   -6.666064167833863E-4    3.794127315444744E-4   -6.493134265407910E-4   -4.517668781123489E-1   -1.587396261762146E-1
 1.004727191450000E+10  -3.222923277386137E-1   -3.272045364580892E-1    3.304949819921128E-4   -6.439441952714674E-4    4.263000091646642E-4   -6.455319938646150E-4   -4.519662717726767E-1   -1.579972867259883E-1
 1.004728483200000E+10  -3.228417281851924E-1   -3.266084525468778E-1    3.139518127774794E-4   -6.456190517640759E-4    3.755353634891163E-4   -6.321577112115969E-4   -4.521991735986449E-1   -1.571245536154421E-1
 1.004729774950000E+10  -3.232454411583212E-1   -3.259818600230679E-1    3.537305666536807E-4   -6.523694759104136E-4    3.687516423908624E-4   -6.357282088362386E-4   -4.524583374090183E-1   -1.563614644597419E-1
 1.004731066700000E+10  -3.240147363061129E-1   -3.253392802776209E-1    3.169115366264741E-4   -6.570008718905951E-4    3.716318645743574E-4   -6.656046353022071E-4   -4.526722419401122E-1   -1.554570373884346E-1
 1.004732358450000E+10  -3.246254144268193E-1   -3.247760247742191E-1    3.193104486017737E-4   -6.334088238405908E-4    3.453461051521674E-4   -6.256706592064186E-4   -4.530031968233524E-1   -1.545438745858561E-1
 1.004733650200000E+10  -3.252099881666262E-1   -3.241408198492496E-1    2.743651750421772E-4   -6.415409939820984E-4    3.797336382022551E-4   -6.034564362265219E-4   -4.532496585330301E-1   -1.536825442626926E-1
 1.004734941950000E+10  -3.258791848937940E-1   -3.233981019772299E-1    3.133840286069942E-4   -6.209161613434384E-4    3.657883805961600E-4   -5.986596848593909E-4   -4.534531752002426E-1   -1.527585595827129E-1
 1.004736233700000E+10  -3.263968841831418E-1   -3.229058486362126E-1    3.203492411056550E-4   -6.181920085586638E-4    3.642298758521877E-4   -5.999191188439211E-4   -4.538411667901316E-1   -1.519721723236408E-1
 1.004737525450000E+10  -3.268593305897849E-1   -3.221820104023742E-1    2.868550534293561E-4   -6.507159647974501E-4    3.529630100689908E-4   -6.073384878611087E-4   -4.541104294428662E-1   -1.510696663099219E-1
 1.004738817200000E+10  -3.275916799083385E-1   -3.216666272824930E-1    3.151600020851389E-4   -6.438148605505966E-4    3.736639254725808E-4   -6.038606352672688E-4   -4.543358496402697E-1   -1.502209208687833E-1
 1.004740108950000E+10  -3.280624194464011E-1   -3.208911075484450E-1    3.018337233792459E-4   -6.014121351407253E-4    3.598262409335167E-4   -5.751767722077086E-4   -4.545615845943537E-1   -1.492727478582283E-1
 1.004741400700000E+10  -3.287421337498042E-1   -3.202851182595843E-1    3.156870917172985E-4   -5.901828122136017E-4    3.516313117152868E-4   -5.499243134585341E-4   -4.548139964231401E-1   -1.485207705150794E-1
 1.004742692450000E+10  -3.291919195670153E-1   -3.196770342192503E-1    3.219849145509007E-4   -5.978419750871496E-4    3.549905104369728E-4   -5.931646855258546E-4   -4.551157033763490E-1   -1.475510464362916E-1
 1.004743984200000E+10  -3.299285962902652E-1   -3.191165260397139E-1    3.127354722137379E-4   -5.908169604042360E-4    3.447267222850464E-4   -5.935069911645452E-4   -4.552643659058769E-1   -1.466471732596982E-1
 1.004745275950000E+10  -3.304691703294783E-1   -3.184768524674086E-1    2.866526890286127E-4   -5.738148116185325E-4    3.506225838937659E-4   -5.707518255366839E-4   -4.553809353567544E-1   -1.460883514109223E-1
 1.004746567700000E+10  -3.309298899787916E-1   -3.179089769805647E-1    2.990248639571518E-4   -5.831718929487679E-4    3.261742681188601E-4   -5.731046084378904E-4   -4.558927608775983E-1   -1.449518664684661E-1
