#  HZ   S   RI   R     50.00 
! Rohde & Schwarz Vector Network Analyzer 
! Rohde-Schwarz,ZNB20-2Port,1311601062101988,3.16
! Created: UTC 3/21/2024, 1:05:07 AM
! freq[Hz]                re:S11                  im:S11                  re:S21                  im:S21                  re:S12                  im:S12                  re:S22                  im:S22
 1.004625610200000E+10  -2.725458874906455E-1   -3.724489983536538E-1    5.008445920401783E-4   -8.279347343063802E-4    5.877157671516534E-4   -8.460632184778573E-4   -4.266492104353387E-1   -2.220313115854761E-1
 1.004626929355000E+10  -2.732159267653582E-1   -3.718331542447683E-1    4.844954293972000E-4   -8.546518023673617E-4    5.337026725095621E-4   -8.135511582480628E-4   -4.269133830609949E-1   -2.211243097340788E-1
 1.004628248510000E+10  -2.738510529862776E-1   -3.714014347788722E-1    4.938856475647942E-4   -8.315178236933730E-4    5.404254162660872E-4   -8.413101381885962E-4   -4.273170162425826E-1   -2.201462222110777E-1
 1.004629567665000E+10  -2.745030674814610E-1   -3.707213343779179E-1    4.733332763556206E-4   -8.286987609910718E-4    5.774589782728957E-4   -8.131555360407784E-4   -4.276480432504729E-1   -2.196579092669151E-1
 1.004630886820000E+10  -2.752304714699074E-1   -3.702167249902718E-1    4.993842622504069E-4   -8.385718911522947E-4    5.697066356714123E-4   -8.280538924627060E-4   -4.281065220583971E-1   -2.188741710301088E-1
 1.004632205975000E+10  -2.759309021335067E-1   -3.696896893977677E-1    4.818895846189839E-4   -8.426136866119517E-4    5.156571772327768E-4   -8.267781075852389E-4   -4.283180743776682E-1   -2.179999411986453E-1
 1.004633525130000E+10  -2.766589145761417E-1   -3.689999073044425E-1    4.446946921434660E-4   -8.202145630269509E-4    5.432303097692979E-4   -8.169868612933025E-4   -4.288448429585834E-1   -2.173979308561391E-1
 1.004634844285000E+10  -2.773240543241363E-1   -3.684663342937191E-1    4.644855744938576E-4   -8.095268516223940E-4    5.579687328379196E-4   -7.933093525787795E-4   -4.293379943766510E-1   -2.164349378325857E-1
 1.004636163440000E+10  -2.779168130450867E-1   -3.680376889557389E-1    4.609588798687247E-4   -8.095804684192946E-4    5.432761790801425E-4   -8.210620756337289E-4   -4.295928600549246E-1   -2.155508310272845E-1
 1.004637482595000E+10  -2.785936593946090E-1   -3.673949641005853E-1    4.965106763137548E-4   -8.086119411781381E-4    5.258196838005903E-4   -8.064797127443773E-4   -4.300755116696309E-1   -2.148555708125545E-1
 1.004638801750000E+10  -2.793752458386655E-1   -3.668602046491829E-1    4.454873852650735E-4   -8.231657989898197E-4    5.450298552715017E-4   -8.154036288636642E-4   -4.304495260844818E-1   -2.139564296607586E-1
 1.004640120905000E+10  -2.799595868316044E-1   -3.664107150538360E-1    4.625045690957430E-4   -8.518888937606558E-4    5.362191174750898E-4   -8.204570167255516E-4   -4.307672354844789E-1   -2.133756053668415E-1
 1.004641440060000E+10  -2.806967361941778E-1   -3.658859596418205E-1    4.366745676391618E-4   -8.188382647173276E-4    5.214243318964356E-4   -7.826132539334673E-4   -4.311427147255190E-1   -2.123306770255509E-1
 1.004642759215000E+10  -2.813878226802813E-1   -3.651213354033128E-1    4.807180053173837E-4   -8.297707565621551E-4    5.233134003652976E-4   -7.996116173228148E-4   -4.316274688293114E-1   -2.115476605495581E-1
 1.004644078370000E+10  -2.821718209833976E-1   -3.646766619898696E-1    4.638643264484307E-4   -8.116601719602853E-4    5.455098681109024E-4   -7.986717944595453E-4   -4.318666394104598E-1   -2.107365097433810E-1
 1.004645397525000E+10  -2.828330252812131E-1   -3.640526823906666E-1    4.772768586973522E-4   -8.027777149883224E-4    5.230772550537141E-4   -7.628671447716279E-4   -4.323908836820798E-1   -2.101190546060692E-1
 1.004646716680000E+10  -2.833410953949869E-1   -3.635985145867633E-1    4.788080071558965E-4   -7.952689263849509E-4    5.523518555013363E-4   -8.078753881850229E-4   -4.326479970954799E-1   -2.093267951027065E-1
 1.004648035835000E+10  -2.839945503332081E-1   -3.630326210412907E-1    4.327769359181315E-4   -8.041688587685852E-4    5.002878400195940E-4   -8.101977752112856E-4   -4.328849781538092E-1   -2.083962066894742E-1
 1.004649354990000E+10  -2.847232646947377E-1   -3.624814922585538E-1    4.612396522229787E-4   -8.149303351490483E-4    5.326581077796795E-4   -8.125375326962224E-4   -4.333745144913921E-1   -2.076234250598882E-1
 1.004650674145000E+10  -2.854679618085627E-1   -3.619178147520712E-1    4.607007685827551E-4   -8.267667803310125E-4    5.007954196049572E-4   -8.091224004233583E-4   -4.337040264915435E-1   -2.068274146690376E-1
 1.004651993300000E+10  -2.861222729394418E-1   -3.613414232907174E-1    4.490526653322867E-4   -8.079353919244038E-4    5.226491367880380E-4   -7.980026592342484E-4   -4.341625035479987E-1   -2.059942205296830E-1
 1.004653312455000E+10  -2.867285526307086E-1   -3.608586973922034E-1    4.386997531057754E-4   -8.311207582855489E-4    4.949137848335666E-4   -8.026087031825602E-4   -4.344275208783946E-1   -2.052062321620377E-1
 1.004654631610000E+10  -2.874915208071362E-1   -3.601140055261705E-1    4.372086899580805E-4   -8.010862153288627E-4    5.040161933626356E-4   -7.977572179178958E-4   -4.347769444181545E-1   -2.042790105317032E-1
 1.004655950765000E+10  -2.879427201499374E-1   -3.595184088632946E-1    4.456442355481875E-4   -7.988257850721054E-4    4.984082761093294E-4   -7.746739567466098E-4   -4.350721797895627E-1   -2.035089128433770E-1
 1.004657269920000E+10  -2.887599796239704E-1   -3.589985694865334E-1    4.449419374986049E-4   -8.142490324303207E-4    5.246312225738382E-4   -8.177378123473153E-4   -4.355752606975907E-1   -2.027149202749911E-1
 1.004658589075000E+10  -2.893414935819194E-1   -3.585173702011742E-1    4.301047860908491E-4   -8.104808302266701E-4    5.148810848877701E-4   -7.880821773458904E-4   -4.358231473302842E-1   -2.018129318363193E-1
 1.004659908230000E+10  -2.900836414426878E-1   -3.579118790416737E-1    4.277275700901826E-4   -8.112334226931407E-4    5.119571677270030E-4   -7.845548927906350E-4   -4.361135036772547E-1   -2.011012947861708E-1
 1.004661227385000E+10  -2.906624314195140E-1   -3.573375854242838E-1    4.323520297402099E-4   -8.098272038471098E-4    4.864406724577601E-4   -7.757527854512380E-4   -4.365022567856708E-1   -2.002850621871229E-1
 1.004662546540000E+10  -2.913095510370946E-1   -3.568489096283137E-1    4.157270543314676E-4   -8.236272300099460E-4    5.058061226786709E-4   -7.975311303997607E-4   -4.368404377968328E-1   -1.995291523812027E-1
 1.004663865695000E+10  -2.921122533282922E-1   -3.561650207577185E-1    4.458791448208582E-4   -8.271259572875454E-4    5.003225259797216E-4   -7.557908297158806E-4   -4.371128696509485E-1   -1.986711141107153E-1
 1.004665184850000E+10  -2.926800711890392E-1   -3.556621924960571E-1    4.421492581018667E-4   -8.176855933146510E-4    4.784418174045495E-4   -7.804137920638026E-4   -4.375391164219589E-1   -1.977322668879661E-1
 1.004666504005000E+10  -2.932402214584409E-1   -3.550254581548346E-1    4.393061297273274E-4   -7.837175603004334E-4    4.854356801237161E-4   -8.001921606733882E-4   -4.377765521033918E-1   -1.970745366777241E-1
 1.004667823160000E+10  -2.939349099065053E-1   -3.544143055945234E-1    4.277523841771959E-4   -8.005590913098885E-4    4.737994769744514E-4   -7.809791250228879E-4   -4.382003392164094E-1   -1.961947039894554E-1
 1.004669142315000E+10  -2.947315940584002E-1   -3.538018915666186E-1    4.132930437589551E-4   -7.780545444472861E-4    4.936253995902468E-4   -7.644370798699174E-4   -4.386383478377416E-1   -1.953905448243052E-1
 1.004670461470000E+10  -2.952493379587924E-1   -3.533886879769239E-1    4.452863429262577E-4   -7.709261784726111E-4    4.781330350548815E-4   -7.615603954471044E-4   -4.389259066614629E-1   -1.944720568053292E-1
 1.004671780625000E+10  -2.958586413149927E-1   -3.526420795662147E-1    4.339621203718445E-4   -7.719749877837130E-4    4.652752968392720E-4   -7.810094975281693E-4   -4.391887594698523E-1   -1.937449792230073E-1
 1.004673099780000E+10  -2.965809440558311E-1   -3.521395186724846E-1    4.391009335422215E-4   -7.747175907275908E-4    4.998396568174311E-4   -7.505697115102921E-4   -4.395767470007572E-1   -1.928553016930239E-1
 1.004674418935000E+10  -2.973787314915953E-1   -3.515515506001448E-1    4.366387935881446E-4   -7.718504906997729E-4    4.641124824859495E-4   -7.828590080603120E-4   -4.399295922715130E-1   -1.920414963098321E-1
 1.004675738090000E+10  -2.978242642125217E-1   -3.509339707497713E-1    4.154747011904673E-4   -7.912997059157598E-4    4.724242804342807E-4   -7.706150044635231E-4   -4.401700688729855E-1   -1.911342412441551E-1
 1.004677057245000E+10  -2.984458946724100E-1   -3.503064700863429E-1    4.147076179218501E-4   -7.834974558113111E-4    4.838673592764943E-4   -7.868008236830524E-4   -4.404918110193614E-1   -1.902580186940105E-1
 1.004678376400000E+10  -2.990628500871803E-1   -3.498436377497694E-1    4.058965666977215E-4   -7.839950779867854E-4    4.810819429262091E-4   -7.616530866416968E-4   -4.408298358327652E-1   -1.896835859676041E-1
 1.004679695555000E+10  -2.997493489815511E-1   -3.491171590138216E-1    4.104111806192200E-4   -7.753097338979050E-4    4.751205855525950E-4   -7.434015464107436E-4   -4.411964333788455E-1   -1.886773084512034E-1
 1.004681014710000E+10  -3.004462259200601E-1   -3.485658251164062E-1    4.052651662178904E-4   -7.862824375385276E-4    4.678223958891389E-4   -7.513032176374178E-4   -4.415874738190556E-1   -1.879757956332709E-1
 1.004682333865000E+10  -3.010269721556596E-1   -3.480650874993301E-1    4.159143498415442E-4   -7.860399931779822E-4    4.709312047082898E-4   -7.924648189893031E-4   -4.419550600663349E-1   -1.870490188375953E-1
 1.004683653020000E+10  -3.017599746993408E-1   -3.474926055365314E-1    3.865794363035347E-4   -7.606270746454134E-4    4.432723156664906E-4   -7.557002676744675E-4   -4.422245664839122E-1   -1.861988152705766E-1
 1.004684972175000E+10  -3.024034031275747E-1   -3.468939514617420E-1    3.928137185450357E-4   -7.533311296412414E-4    4.815265988370989E-4   -7.817692767055478E-4   -4.424670351247652E-1   -1.854417394610983E-1
 1.004686291330000E+10  -3.030405513139497E-1   -3.461906229766434E-1    3.624800682416494E-4   -7.620361793473793E-4    4.588477012386303E-4   -7.496841623900018E-4   -4.428942424418096E-1   -1.846244718985814E-1
 1.004687610485000E+10  -3.036611124848642E-1   -3.456110159443996E-1    3.743575160344092E-4   -7.479847181242570E-4    4.470295094424294E-4   -7.413650479503434E-4   -4.432675095010491E-1   -1.837461512828235E-1
 1.004688929640000E+10  -3.042851004173543E-1   -3.450106975858631E-1    3.765454838279515E-4   -7.684314412889011E-4    4.684629171284970E-4   -7.530929380780968E-4   -4.434845972229813E-1   -1.828093890878046E-1
 1.004690248795000E+10  -3.049037512557681E-1   -3.444608224418071E-1    4.018161807648072E-4   -7.364894304391196E-4    4.431060982973563E-4   -7.747786007985741E-4   -4.438748160103012E-1   -1.819453854332397E-1
 1.004691567950000E+10  -3.055560488333462E-1   -3.439065112296408E-1    3.894936273453889E-4   -7.710657951863934E-4    4.478543837688183E-4   -7.370248302305650E-4   -4.440499012016679E-1   -1.811987656627839E-1
 1.004692887105000E+10  -3.062104389565002E-1   -3.431199564110122E-1    4.048750349181177E-4   -7.599072752115454E-4    4.297736011580690E-4   -7.293883946192457E-4   -4.444917401589287E-1   -1.803672033157101E-1
 1.004694206260000E+10  -3.067294221665113E-1   -3.426612646695787E-1    3.700671183351022E-4   -7.318127858303556E-4    4.313198196660382E-4   -7.353818518155741E-4   -4.448459698072242E-1   -1.794655475359732E-1
 1.004695525415000E+10  -3.073665744266583E-1   -3.421411495721521E-1    3.705091455061247E-4   -7.318100700044968E-4    4.442499485412920E-4   -7.411639690568747E-4   -4.450137555022371E-1   -1.786361505422688E-1
 1.004696844570000E+10  -3.080661746324575E-1   -3.415478534664073E-1    3.703879499811160E-4   -7.300892865457713E-4    4.396183959504611E-4   -7.203082050470065E-4   -4.453615604431819E-1   -1.780607301567459E-1
 1.004698163725000E+10  -3.087069091406294E-1   -3.407945743177748E-1    4.195915710319965E-4   -7.523280480736574E-4    4.546400036306958E-4   -7.261469291430968E-4   -4.456629936572177E-1   -1.770306254679026E-1
 1.004699482880000E+10  -3.093407010836287E-1   -3.401736372592721E-1    3.829800616930273E-4   -7.463259765649240E-4    4.203866158717114E-4   -7.174567566825928E-4   -4.460003043445501E-1   -1.761230278858609E-1
 1.004700802035000E+10  -3.099821730759361E-1   -3.395383545480311E-1    3.989150885703007E-4   -7.619737639650597E-4    4.384519270459712E-4   -7.372258417821308E-4   -4.462991675716049E-1   -1.752779837550073E-1
 1.004702121190000E+10  -3.105963095273525E-1   -3.389754106950786E-1    3.670646483572169E-4   -7.105132262227314E-4    4.310730463928504E-4   -7.051907059402465E-4   -4.466182400647755E-1   -1.744078684351677E-1
 1.004703440345000E+10  -3.112859985475523E-1   -3.384992726393350E-1    3.739916376773087E-4   -7.355327930972278E-4    4.004142913704959E-4   -7.013856615429997E-4   -4.469603851873247E-1   -1.735651368734716E-1
 1.004704759500000E+10  -3.116153899651464E-1   -3.377430996542503E-1    3.913542911400346E-4   -7.310733207019406E-4    4.227624830293883E-4   -7.354486140516706E-4   -4.471478256482451E-1   -1.727219449190401E-1
 1.004706078655000E+10  -3.123607401532442E-1   -3.372217466251286E-1    3.681855831095516E-4   -7.102370142265614E-4    4.133066925190269E-4   -7.107959172702425E-4   -4.473674062358812E-1   -1.717115474461867E-1
 1.004707397810000E+10  -3.131682382978334E-1   -3.365974515111831E-1    3.581034096500544E-4   -6.940562800170815E-4    4.232433996802754E-4   -7.001888395347162E-4   -4.476775185037645E-1   -1.711318141144942E-1
 1.004708716965000E+10  -3.136068577529779E-1   -3.360032539430803E-1    3.701734875503471E-4   -7.027910087908701E-4    3.920555181347510E-4   -7.185690754647263E-4   -4.479472179155832E-1   -1.702863510292796E-1
 1.004710036120000E+10  -3.142549254417978E-1   -3.353293949668534E-1    3.433028917994684E-4   -7.240478842025289E-4    4.040956609946321E-4   -7.209721811456259E-4   -4.484371377016590E-1   -1.694251896042505E-1
 1.004711355275000E+10  -3.149771068983876E-1   -3.346956357032638E-1    3.430217450604584E-4   -6.995975771498056E-4    3.849201399837233E-4   -7.016310078360319E-4   -4.487272945995119E-1   -1.686582076640957E-1
 1.004712674430000E+10  -3.155743788676078E-1   -3.341328293871623E-1    3.791828298477196E-4   -7.007818541814500E-4    4.100252728113905E-4   -6.924269401215112E-4   -4.490834479681808E-1   -1.676556866197266E-1
 1.004713993585000E+10  -3.161107828363403E-1   -3.335461008493963E-1    3.680418216743545E-4   -7.011713623512828E-4    4.041916303043491E-4   -6.921293968418376E-4   -4.491187262886149E-1   -1.667939736005616E-1
 1.004715312740000E+10  -3.166237251597060E-1   -3.328599256930813E-1    3.550210426732356E-4   -6.898665706375440E-4    4.073554941030606E-4   -6.645476384458110E-4   -4.495818217137499E-1   -1.660760903711671E-1
 1.004716631895000E+10  -3.172780129909895E-1   -3.322392987767354E-1    3.673449610178641E-4   -6.916585783998321E-4    4.228267499368464E-4   -6.690616719787031E-4   -4.498552292287911E-1   -1.651520638618045E-1
 1.004717951050000E+10  -3.179176001595365E-1   -3.315857901448428E-1    3.286281337189420E-4   -6.991009348009641E-4    3.870278186174100E-4   -6.763548950270775E-4   -4.501627663201586E-1   -1.642052383580768E-1
 1.004719270205000E+10  -3.185061144898447E-1   -3.308866624837022E-1    3.410036697099398E-4   -6.874337925651889E-4    3.952380083560941E-4   -6.678879899603893E-4   -4.504359752268891E-1   -1.633338732032805E-1
 1.004720589360000E+10  -3.191101077967358E-1   -3.303305617036555E-1    3.367501632776246E-4   -6.837621544636780E-4    3.972597256048975E-4   -6.653959532561887E-4   -4.506102047009960E-1   -1.624862922424147E-1
 1.004721908515000E+10  -3.197930362743207E-1   -3.298046441095301E-1    3.332359714858984E-4   -6.797975788585479E-4    3.668280913377748E-4   -6.669270413560491E-4   -4.510140967329836E-1   -1.614587663968979E-1
 1.004723227670000E+10  -3.203839009324575E-1   -3.290567050146357E-1    3.516709985735482E-4   -6.849949955224226E-4    3.801327121336400E-4   -6.667603456017921E-4   -4.513999556809071E-1   -1.606724348413027E-1
 1.004724546825000E+10  -3.209573540764025E-1   -3.284888285366910E-1    3.419357091618802E-4   -6.659530925059911E-4    3.992295887153275E-4   -6.674330593966448E-4   -4.512866655717674E-1   -1.598788787979565E-1
 1.004725865980000E+10  -3.216896568753594E-1   -3.278708150429794E-1    3.382486694698034E-4   -6.687336539611291E-4    3.792526245327084E-4   -6.676902311732005E-4   -4.516947745867091E-1   -1.589938506934941E-1
 1.004727185135000E+10  -3.221884388411313E-1   -3.272670068790304E-1    3.421531680373810E-4   -6.571227605089254E-4    3.783118416799690E-4   -6.499237095005468E-4   -4.521095361094907E-1   -1.582029500876981E-1
 1.004728504290000E+10  -3.229053203194043E-1   -3.266443880971628E-1    3.378155919234400E-4   -6.635083385039066E-4    3.800399541437617E-4   -6.453814081514613E-4   -4.521765896298179E-1   -1.572702705425904E-1
 1.004729823445000E+10  -3.234911154267898E-1   -3.260974645630941E-1    3.279984040626523E-4   -6.570395727208429E-4    3.787785340991933E-4   -6.364851407153534E-4   -4.525725440564589E-1   -1.563643749593659E-1
 1.004731142600000E+10  -3.239734906529702E-1   -3.252843942611015E-1    3.429095632681436E-4   -6.771743601747236E-4    3.580960291833539E-4   -6.505663397138641E-4   -4.528502479007833E-1   -1.555861000591885E-1
 1.004732461755000E+10  -3.245166864997677E-1   -3.247439478280519E-1    3.308620750242116E-4   -6.302060477711641E-4    3.805073071467746E-4   -6.367301056301005E-4   -4.529250403451660E-1   -1.545880923897213E-1
 1.004733780910000E+10  -3.252246527800497E-1   -3.240332673248131E-1    2.920299389087417E-4   -6.305822032913442E-4    3.809659671556947E-4   -6.289355075742491E-4   -4.531634441346014E-1   -1.536452256587990E-1
 1.004735100065000E+10  -3.258163840112937E-1   -3.234448696801469E-1    3.311426090625405E-4   -6.101748856619328E-4    3.759244810182063E-4   -6.384011379709127E-4   -4.536157707010037E-1   -1.528282684077710E-1
 1.004736419220000E+10  -3.263921532477435E-1   -3.228526475951535E-1    3.215961548931450E-4   -6.214054806518275E-4    3.573652707470422E-4   -6.174149150065843E-4   -4.538431510867841E-1   -1.520563425684343E-1
 1.004737738375000E+10  -3.269560892889952E-1   -3.222738650772385E-1    3.309950057342731E-4   -6.675801009926438E-4    3.677997176543247E-4   -6.040739437547782E-4   -4.541069866278271E-1   -1.510748233907555E-1
 1.004739057530000E+10  -3.276055210367511E-1   -3.214954408924694E-1    3.202840868907281E-4   -6.110626078397773E-4    3.655602624279899E-4   -6.095209417069318E-4   -4.543503423044619E-1   -1.502743748414517E-1
 1.004740376685000E+10  -3.281965655522265E-1   -3.208071780677367E-1    2.806279614907083E-4   -5.919755727887248E-4    3.393951137720244E-4   -5.939730249500064E-4   -4.546095665955496E-1   -1.492992564891189E-1
 1.004741695840000E+10  -3.286928409459312E-1   -3.201523076907261E-1    3.015946179471627E-4   -6.099961488662463E-4    3.436723976317188E-4   -6.012795801610888E-4   -4.549129495920822E-1   -1.485673629654287E-1
 1.004743014995000E+10  -3.292951371222130E-1   -3.195880979199500E-1    3.049587346272207E-4   -5.834718420388924E-4    3.718946204532975E-4   -5.735201649487077E-4   -4.551075208763822E-1   -1.476286689541137E-1
 1.004744334150000E+10  -3.298887127790929E-1   -3.188724300150036E-1    3.128384238608138E-4   -5.842437351070677E-4    3.400605308377373E-4   -5.933756439175490E-4   -4.553646628619114E-1   -1.465391560315113E-1
