#  HZ   S   RI   R     50.00 
! Rohde & Schwarz Vector Network Analyzer 
! Rohde-Schwarz,ZNB20-2Port,1311601062101988,3.16
! Created: UTC 3/21/2024, 1:06:44 AM
! freq[Hz]                re:S11                  im:S11                  re:S21                  im:S21                  re:S12                  im:S12                  re:S22                  im:S22
 1.004643513900000E+10  -2.806538421773601E-1   -3.656408949444866E-1    4.628847463061369E-4   -8.231309648682469E-4    5.356891922280294E-4   -8.211425240827891E-4   -4.313702233930665E-1   -2.127310978721563E-1
 1.004644776375000E+10  -2.813612293379882E-1   -3.649895825678688E-1    4.631271848656057E-4   -8.356196474155968E-4    5.409747648986326E-4   -8.035318652517742E-4   -4.316822111664652E-1   -2.119008747866324E-1
 1.004646038850000E+10  -2.818780804138794E-1   -3.645398551378273E-1    4.236978518193585E-4   -8.507142448425735E-4    5.322709765795498E-4   -8.430862745498239E-4   -4.320326506597882E-1   -2.111582001512085E-1
 1.004647301325000E+10  -2.826041257227296E-1   -3.640269198185808E-1    4.538447072733421E-4   -8.393556769878144E-4    5.331147815048668E-4   -8.262343017610826E-4   -4.322821243989031E-1   -2.105150801351690E-1
 1.004648563800000E+10  -2.833031514424237E-1   -3.635597589476894E-1    4.653769655751607E-4   -8.216349104052807E-4    5.293817031330622E-4   -8.093199643965052E-4   -4.327541047758883E-1   -2.096864735889185E-1
 1.004649826275000E+10  -2.839348623282844E-1   -3.629366137250989E-1    4.551120345141730E-4   -8.455353138040254E-4    5.383342481584984E-4   -8.124441819507138E-4   -4.329754123504670E-1   -2.089776109440733E-1
 1.004651088750000E+10  -2.844678220758400E-1   -3.624987005023745E-1    4.650647360585967E-4   -8.253954803384188E-4    5.070572240453653E-4   -7.987944537489620E-4   -4.335363367373088E-1   -2.080426604595406E-1
 1.004652351225000E+10  -2.852733960984958E-1   -3.618259269635271E-1    4.403524807552886E-4   -8.245905563576156E-4    5.304385794153282E-4   -8.320341973115468E-4   -4.338384013869199E-1   -2.075721149221957E-1
 1.004653613700000E+10  -2.857638642358216E-1   -3.613130042055304E-1    4.473371665097881E-4   -8.190386398787422E-4    5.210470775373311E-4   -7.913286674285312E-4   -4.341952651557292E-1   -2.066265275989390E-1
 1.004654876175000E+10  -2.863638416490933E-1   -3.607177369808957E-1    4.663188514010609E-4   -8.039443315402398E-4    5.179892902800617E-4   -8.124967036190230E-4   -4.344016181845354E-1   -2.057301506887097E-1
 1.004656138650000E+10  -2.870975022905875E-1   -3.602172202997195E-1    4.172641390375260E-4   -8.248283214232772E-4    5.180297588111201E-4   -8.154846194168227E-4   -4.347187653827232E-1   -2.050030874950168E-1
 1.004657401125000E+10  -2.876096024699389E-1   -3.596862164500813E-1    4.459772409461184E-4   -7.855333982886285E-4    5.075399996399945E-4   -7.875173765267581E-4   -4.351392695090780E-1   -2.042667056332722E-1
 1.004658663600000E+10  -2.884154888168549E-1   -3.591667517195512E-1    4.277164718032029E-4   -8.036082098042826E-4    5.314329898374650E-4   -8.196761126557724E-4   -4.354011629664989E-1   -2.034477459755470E-1
 1.004659926075000E+10  -2.887722493522507E-1   -3.585700031233260E-1    4.470051650903121E-4   -8.291030971381174E-4    5.201391743359818E-4   -7.758729464070779E-4   -4.358849838838063E-1   -2.025621387979776E-1
 1.004661188550000E+10  -2.895169611773102E-1   -3.580154390835923E-1    4.390356970239968E-4   -8.097360379742573E-4    4.975323830164137E-4   -7.840438324923835E-4   -4.360612489354144E-1   -2.018288699838966E-1
 1.004662451025000E+10  -2.901863521896007E-1   -3.576463038618278E-1    4.479377453240094E-4   -8.246122012007235E-4    5.051734587094462E-4   -8.000354237218813E-4   -4.364316956547717E-1   -2.012591482820165E-1
 1.004663713500000E+10  -2.908767221393522E-1   -3.568801428067320E-1    4.300423214338558E-4   -7.833035605443470E-4    4.927088472198318E-4   -8.175945854723617E-4   -4.368547389831622E-1   -2.003487081785813E-1
 1.004664975975000E+10  -2.913821179340753E-1   -3.563603903338486E-1    4.530277874825067E-4   -8.119640905836730E-4    4.765351356076876E-4   -8.117169011634807E-4   -4.372812145144097E-1   -1.996438051852481E-1
 1.004666238450000E+10  -2.920588634934578E-1   -3.558423777634576E-1    4.050787811756851E-4   -7.782834198071258E-4    4.995642802555671E-4   -8.085157370398801E-4   -4.375276313005467E-1   -1.988670164981368E-1
 1.004667500925000E+10  -2.927713240716901E-1   -3.553654222902513E-1    4.433606696940027E-4   -7.976988647748034E-4    4.781196826153699E-4   -7.964245199237569E-4   -4.378169607139857E-1   -1.979658829723850E-1
 1.004668763400000E+10  -2.934133295850365E-1   -3.547931351362087E-1    4.320585422002792E-4   -7.628517790764063E-4    5.044199367613826E-4   -7.973285395563581E-4   -4.381777023050995E-1   -1.972926221792933E-1
 1.004670025875000E+10  -2.939802722792006E-1   -3.542361267303071E-1    4.315659671154298E-4   -8.034093180972357E-4    4.894237607833297E-4   -7.894464575222306E-4   -4.384701579763138E-1   -1.963710586769463E-1
 1.004671288350000E+10  -2.947405030873781E-1   -3.535980735966601E-1    4.516775327686235E-4   -8.186748438676259E-4    4.844259909196215E-4   -8.022214603175120E-4   -4.387548754623185E-1   -1.957267906825462E-1
 1.004672550825000E+10  -2.951913891679819E-1   -3.530775366421069E-1    3.870346345300483E-4   -8.207469526129610E-4    4.564986525215280E-4   -7.788206958527826E-4   -4.390914075850926E-1   -1.948890811336767E-1
 1.004673813300000E+10  -2.957957285271388E-1   -3.525809950501558E-1    4.031468495640621E-4   -7.844885807126869E-4    4.845951550838743E-4   -7.729252811760593E-4   -4.393518020385205E-1   -1.940709682172206E-1
 1.004675075775000E+10  -2.964099227987095E-1   -3.519852523483231E-1    4.127606869895011E-4   -7.880822644807353E-4    4.911620325653850E-4   -7.724801115080804E-4   -4.397547403978973E-1   -1.933650217474616E-1
 1.004676338250000E+10  -2.971764481507094E-1   -3.513869250345314E-1    4.203742966827153E-4   -7.830981796608079E-4    4.753494509980702E-4   -7.850646085901459E-4   -4.400384404675490E-1   -1.925149171175095E-1
 1.004677600725000E+10  -2.977439165004154E-1   -3.509295984741109E-1    4.192318327695874E-4   -7.948560065329010E-4    4.957706452397618E-4   -7.591752219405039E-4   -4.405186427579136E-1   -1.914857344673004E-1
 1.004678863200000E+10  -2.983160384275724E-1   -3.502708339403445E-1    4.058512643334720E-4   -8.055837018943005E-4    4.454105714385282E-4   -7.846501501045864E-4   -4.406670181041828E-1   -1.909516461821759E-1
 1.004680125675000E+10  -2.989685466989806E-1   -3.498806524781327E-1    3.971542401976765E-4   -7.856667297503427E-4    4.804871260830593E-4   -7.738917596631421E-4   -4.409937380393620E-1   -1.902026814516966E-1
 1.004681388150000E+10  -2.995234281855467E-1   -3.490604694549584E-1    4.157037862785610E-4   -7.656549669657703E-4    4.621305832500114E-4   -8.103392083637699E-4   -4.411659207849437E-1   -1.892756783929286E-1
 1.004682650625000E+10  -3.001521515145570E-1   -3.487438530150844E-1    4.096225298647026E-4   -7.765365347111487E-4    4.748992779582510E-4   -7.636584143993953E-4   -4.418534882248559E-1   -1.884987962454105E-1
 1.004683913100000E+10  -3.007438493285255E-1   -3.481548756625382E-1    4.059101856611507E-4   -7.821655190025322E-4    4.662019342676733E-4   -8.098215872807209E-4   -4.420482291563768E-1   -1.878394308905697E-1
 1.004685175575000E+10  -3.014401324695559E-1   -3.475076191861923E-1    3.933902567888800E-4   -7.851388795766771E-4    4.542372755876735E-4   -7.836122228756682E-4   -4.422106946951163E-1   -1.870605562804342E-1
 1.004686438050000E+10  -3.021003776125735E-1   -3.470094095801375E-1    3.968448082465846E-4   -7.953363530474855E-4    4.554391495769396E-4   -7.867929859796965E-4   -4.425792701158590E-1   -1.863647161100221E-1
 1.004687700525000E+10  -3.024863488713654E-1   -3.462843297727524E-1    3.997115644042649E-4   -7.842945369520753E-4    4.388665398307903E-4   -7.351259692708910E-4   -4.427308433183714E-1   -1.854943796925909E-1
 1.004688963000000E+10  -3.032148523076966E-1   -3.458174629485966E-1    4.196113597352695E-4   -7.988749720094419E-4    4.601166210335189E-4   -7.419809300793604E-4   -4.433608641087902E-1   -1.846159750660371E-1
 1.004690225475000E+10  -3.037826328716836E-1   -3.450893274527213E-1    3.884858674688162E-4   -7.931167514300698E-4    4.483061619324142E-4   -7.500423754606142E-4   -4.435139757570509E-1   -1.838940063216636E-1
 1.004691487950000E+10  -3.044230333862785E-1   -3.447328287297329E-1    4.130569367564956E-4   -7.594991883373071E-4    4.565514398268935E-4   -7.633668704299208E-4   -4.440461425416644E-1   -1.827686448937685E-1
 1.004692750425000E+10  -3.049367205773083E-1   -3.440320160816194E-1    3.645454411615044E-4   -7.589271815786432E-4    4.383992751491434E-4   -7.714631629468324E-4   -4.442170409167810E-1   -1.823143582211372E-1
 1.004694012900000E+10  -3.056492407567981E-1   -3.435591706981241E-1    3.600675669358994E-4   -7.716259790846162E-4    4.419571102750381E-4   -7.454910305494316E-4   -4.445521582152935E-1   -1.813345038773966E-1
 1.004695275375000E+10  -3.062733085911993E-1   -3.428557307792329E-1    3.918688491141939E-4   -7.828891887443438E-4    4.717691720559572E-4   -7.277143998537832E-4   -4.446914278424250E-1   -1.805382245290784E-1
 1.004696537850000E+10  -3.068102942418822E-1   -3.422956403202487E-1    4.013425512977230E-4   -7.687874158410807E-4    4.377055636028856E-4   -7.458119313436707E-4   -4.449891483715614E-1   -1.797827436216847E-1
 1.004697800325000E+10  -3.074064925312848E-1   -3.417633577021524E-1    3.640590131397584E-4   -7.631831594178081E-4    4.422244487953009E-4   -7.546660638375163E-4   -4.453663654087924E-1   -1.788891106229856E-1
 1.004699062800000E+10  -3.081417790856484E-1   -3.412346936634508E-1    4.040025853987958E-4   -7.501388486799714E-4    4.482382693452317E-4   -7.307971707081044E-4   -4.457257798272810E-1   -1.783068272068735E-1
 1.004700325275000E+10  -3.085118279052395E-1   -3.404802136549497E-1    3.779737200707319E-4   -7.505970427893139E-4    4.483706748359577E-4   -7.379085201985108E-4   -4.457770354973705E-1   -1.773436357899592E-1
 1.004701587750000E+10  -3.092003595008861E-1   -3.399431678864355E-1    3.762579030120719E-4   -7.513112688314840E-4    4.220553615159576E-4   -7.101066070721384E-4   -4.461925040992145E-1   -1.765814604750493E-1
 1.004702850225000E+10  -3.097880128927848E-1   -3.394473129861589E-1    3.581174380403535E-4   -7.432471192200837E-4    3.962975828005282E-4   -7.591925580629292E-4   -4.465507404605039E-1   -1.755962791007113E-1
 1.004704112700000E+10  -3.103981750645704E-1   -3.387491044291414E-1    3.776456709753095E-4   -7.342058362778167E-4    4.193025947135479E-4   -7.777825722224489E-4   -4.466935925952879E-1   -1.749158159937512E-1
 1.004705375175000E+10  -3.111839225267867E-1   -3.382164236133709E-1    3.631528260206420E-4   -7.479190024749997E-4    4.275712143482745E-4   -7.378134480309825E-4   -4.469287763871783E-1   -1.741751735957419E-1
 1.004706637650000E+10  -3.116662471514475E-1   -3.377707734516560E-1    3.660734520897354E-4   -7.492137568469840E-4    3.980768167346278E-4   -7.035503052170151E-4   -4.473283240560615E-1   -1.733679561049737E-1
 1.004707900125000E+10  -3.122854816813080E-1   -3.370771727570484E-1    3.605700799475721E-4   -7.515038092908030E-4    4.124875849740065E-4   -7.119772217013645E-4   -4.475753990415929E-1   -1.726361109035922E-1
 1.004709162600000E+10  -3.127961282161543E-1   -3.365607304475927E-1    3.913186235828582E-4   -7.608016577176407E-4    4.118478500044675E-4   -7.325229731067239E-4   -4.480063067636634E-1   -1.717585923534593E-1
 1.004710425075000E+10  -3.133959643530508E-1   -3.358987346087974E-1    3.518347044151035E-4   -7.555724914110020E-4    4.433897573305302E-4   -7.338996461864805E-4   -4.482805709779679E-1   -1.708767218222389E-1
 1.004711687550000E+10  -3.140713165198016E-1   -3.353718562507244E-1    3.752118261563207E-4   -7.500328192585207E-4    4.087468467342180E-4   -7.508127587037499E-4   -4.485296453299092E-1   -1.701291576834608E-1
 1.004712950025000E+10  -3.145746012892974E-1   -3.347386324624740E-1    3.510608377325202E-4   -7.405483284760536E-4    4.131710710965582E-4   -7.294701494666156E-4   -4.488893056243116E-1   -1.692363778363364E-1
 1.004714212500000E+10  -3.150850150255288E-1   -3.341043712749421E-1    3.675428042355363E-4   -7.109810884405675E-4    4.216535785745597E-4   -6.891416164140648E-4   -4.490288259033818E-1   -1.684582496731130E-1
 1.004715474975000E+10  -3.157488220276135E-1   -3.335028196430653E-1    3.609250439487882E-4   -7.282072124335810E-4    4.032061001518300E-4   -7.037908055195469E-4   -4.494541026693269E-1   -1.675294669724154E-1
 1.004716737450000E+10  -3.163042926864627E-1   -3.329536885629855E-1    3.683877340906737E-4   -7.127694550330219E-4    4.274209721169737E-4   -7.140925511082115E-4   -4.494966474158868E-1   -1.667543718076868E-1
 1.004717999925000E+10  -3.169267044884554E-1   -3.323817690724648E-1    3.539743493110719E-4   -7.008215842636058E-4    3.845636587621038E-4   -7.138093924271827E-4   -4.499238135350607E-1   -1.660347504682473E-1
 1.004719262400000E+10  -3.176573705705708E-1   -3.319583932116054E-1    3.675653566722826E-4   -6.819488864975975E-4    4.175074496258769E-4   -7.158086508779559E-4   -4.502187248356986E-1   -1.650658994320358E-1
 1.004720524875000E+10  -3.180423157854411E-1   -3.311891211438567E-1    3.510310559283081E-4   -7.017802765730783E-4    4.181010165589403E-4   -6.943996370924093E-4   -4.504019806290663E-1   -1.644114893943543E-1
 1.004721787350000E+10  -3.186607378034511E-1   -3.306001566762214E-1    3.301474187866933E-4   -7.000652697882073E-4    3.907414020495019E-4   -6.778283414453156E-4   -4.507556493872751E-1   -1.635758108922913E-1
 1.004723049825000E+10  -3.193026418532752E-1   -3.299479057767953E-1    3.267226063021086E-4   -7.192070348287772E-4    3.925984810397126E-4   -6.761158020931883E-4   -4.510002728072698E-1   -1.627456791171010E-1
 1.004724312300000E+10  -3.197652655486616E-1   -3.294487422661283E-1    3.688505431956860E-4   -7.013463925035642E-4    3.897363392780386E-4   -6.841098829302257E-4   -4.512268618102315E-1   -1.619528493952629E-1
 1.004725574775000E+10  -3.203970136414921E-1   -3.287301628632577E-1    3.567311136303525E-4   -6.877500939208050E-4    3.854848007342090E-4   -6.820602356317643E-4   -4.514944232854020E-1   -1.611611508319888E-1
 1.004726837250000E+10  -3.209985759497269E-1   -3.281449322457217E-1    3.399168504013359E-4   -6.688220704514688E-4    3.989046270576744E-4   -6.794908484714935E-4   -4.517400141954626E-1   -1.602544153992437E-1
 1.004728099725000E+10  -3.216504385628212E-1   -3.276500938484379E-1    3.521141412419569E-4   -6.773523958240759E-4    3.915107712007430E-4   -6.662437776235776E-4   -4.520221863265144E-1   -1.594804030844521E-1
 1.004729362200000E+10  -3.222411238210254E-1   -3.268931231140201E-1    3.229671460482603E-4   -6.861153308768577E-4    3.807493875249237E-4   -6.876814462273440E-4   -4.522358130299362E-1   -1.585643163882049E-1
 1.004730624675000E+10  -3.227386591776498E-1   -3.263426813664347E-1    3.330766597255851E-4   -6.821217518136754E-4    3.911351349728048E-4   -6.833244149810339E-4   -4.526537004361113E-1   -1.577888294204403E-1
 1.004731887150000E+10  -3.233864958348052E-1   -3.258000301796961E-1    3.212520186899204E-4   -6.766140925275638E-4    3.714429460029999E-4   -6.420618312198162E-4   -4.528473813880093E-1   -1.569133578438556E-1
 1.004733149625000E+10  -3.238627274562575E-1   -3.250613643413661E-1    3.275245759082959E-4   -6.602038621163563E-4    3.927487238365202E-4   -6.854110555270057E-4   -4.530663666054560E-1   -1.560877159067213E-1
 1.004734412100000E+10  -3.245123561910847E-1   -3.245944973277031E-1    3.043346876815282E-4   -6.963838532480606E-4    3.811628471995487E-4   -6.487619010923508E-4   -4.533038511611235E-1   -1.551792515499935E-1
 1.004735674575000E+10  -3.250162302800960E-1   -3.239922578483730E-1    3.376882744480515E-4   -6.723376466469755E-4    3.789491383897366E-4   -6.707964099677626E-4   -4.536926829203815E-1   -1.544350509544852E-1
 1.004736937050000E+10  -3.256083369563602E-1   -3.234417213516687E-1    3.008818007814525E-4   -6.450073978410501E-4    3.470810910293627E-4   -6.246481403468213E-4   -4.538911603110014E-1   -1.535425943088341E-1
 1.004738199525000E+10  -3.262251484878806E-1   -3.227783558580227E-1    2.918434376614200E-4   -6.698050011312120E-4    3.533548115821517E-4   -6.550012522480286E-4   -4.541340098305974E-1   -1.525670198474819E-1
 1.004739462000000E+10  -3.266688683372356E-1   -3.221170515514543E-1    3.479087194884753E-4   -6.726339952803838E-4    3.431822587813607E-4   -6.345672882593088E-4   -4.544791771563027E-1   -1.519310998383220E-1
 1.004740724475000E+10  -3.273129515597418E-1   -3.215035395463109E-1    3.039028866745623E-4   -6.456944911276582E-4    3.631089943452665E-4   -6.255575148754539E-4   -4.547067720786448E-1   -1.510989255033141E-1
 1.004741986950000E+10  -3.277846496652011E-1   -3.207721150938779E-1    3.298082702058059E-4   -6.351636448449109E-4    3.559578709534107E-4   -6.380087202828820E-4   -4.548813582178155E-1   -1.501780560889320E-1
 1.004743249425000E+10  -3.284618503073566E-1   -3.202965719541011E-1    3.240621829798160E-4   -6.258508462608120E-4    3.670712539971816E-4   -6.213014659903419E-4   -4.549396893464648E-1   -1.494429832003501E-1
 1.004744511900000E+10  -3.290806277418897E-1   -3.197315626346333E-1    3.113126102252400E-4   -6.275247312759754E-4    3.524865256231278E-4   -6.339479960541550E-4   -4.553714531105751E-1   -1.485063922819527E-1
 1.004745774375000E+10  -3.295133464424151E-1   -3.191822838444215E-1    3.103134571391333E-4   -6.315325861885977E-4    3.555106169497679E-4   -5.999896788382976E-4   -4.554454105630329E-1   -1.478581565805453E-1
 1.004747036850000E+10  -3.302444599827665E-1   -3.184026610004435E-1    2.947100037450208E-4   -5.957814742840824E-4    3.636333136223672E-4   -5.998478791705087E-4   -4.558026515690634E-1   -1.468300645541422E-1
 1.004748299325000E+10  -3.306249145186106E-1   -3.177530841073066E-1    2.859539314279511E-4   -6.078706522317691E-4    3.432707034810034E-4   -6.153731915998926E-4   -4.559061623056491E-1   -1.459209955626390E-1
 1.004749561800000E+10  -3.314261878304889E-1   -3.173021997037085E-1    3.309049957199640E-4   -6.147253096243414E-4    3.621582004217712E-4   -5.997912581854130E-4   -4.561511989549564E-1   -1.451142762950349E-1
 1.004750824275000E+10  -3.317747096281335E-1   -3.164575834951506E-1    3.075119682942707E-4   -5.877154612203453E-4    3.432389280959198E-4   -5.882027197152714E-4   -4.565150937934260E-1   -1.442290123164537E-1
 1.004752086750000E+10  -3.324693286100986E-1   -3.159930414676668E-1    2.806626647531968E-4   -5.907289482226702E-4    3.402583361434735E-4   -5.762808092814754E-4   -4.566243020466030E-1   -1.433717611999175E-1
 1.004753349225000E+10  -3.327878509554732E-1   -3.152751822062910E-1    2.983346476100456E-4   -5.941764105214119E-4    3.486204051925072E-4   -5.577879831491887E-4   -4.569981726961218E-1   -1.424773786663199E-1
 1.004754611700000E+10  -3.335283178866922E-1   -3.147163889027403E-1    2.888316981953664E-4   -5.644864397313673E-4    3.465953636221084E-4   -5.697804047911563E-4   -4.572735786176685E-1   -1.416796316918527E-1
 1.004755874175000E+10  -3.340075129846138E-1   -3.141134168015327E-1    2.938448518914813E-4   -5.936046509473680E-4    3.414322856283616E-4   -5.750744095996350E-4   -4.575632183700261E-1   -1.408721815027882E-1
 1.004757136650000E+10  -3.345134828591352E-1   -3.134945365480890E-1    2.983426520332327E-4   -5.837675866846834E-4    3.510561758823263E-4   -5.496735755124301E-4   -4.576847132644597E-1   -1.398869919135132E-1
