#  HZ   S   RI   R     50.00 
! Rohde & Schwarz Vector Network Analyzer 
! Rohde-Schwarz,ZNB20-2Port,1311601062101988,3.16
! Created: UTC 3/21/2024, 12:51:56 AM
! freq[Hz]                re:S11                  im:S11                  re:S21                  im:S21                  re:S12                  im:S12                  re:S22                  im:S22
 1.004799551400000E+10  -3.607496337926097E-1   -2.846712284253682E-1    7.607613273018499E-6    2.335647644518076E-4    1.398537003453138E-5    2.374692015300374E-4   -4.663619121239733E-1   -8.532546249302447E-2
 1.004799841207500E+10  -3.607796619136303E-1   -2.845896816858823E-1    2.505116287122353E-5    2.178946810198173E-4    2.249430033503453E-6    2.591372185997554E-4   -4.664484318860339E-1   -8.517468798949267E-2
 1.004800131015000E+10  -3.608903892164588E-1   -2.844165691911137E-1    2.804536063175019E-5    2.562292204599937E-4    1.241527390014538E-5    2.547771849947359E-4   -4.665971771471679E-1   -8.475025413407340E-2
 1.004800420822500E+10  -3.611266237475201E-1   -2.842569429227785E-1   -7.330640815882703E-6    2.591153990813468E-4    1.285121480605581E-5    2.524234044147809E-4   -4.665345797744178E-1   -8.464999072175833E-2
 1.004800710630000E+10  -3.610711310192356E-1   -2.839334350062361E-1    2.642741992618920E-5    2.610856968490391E-4   -1.578976011778912E-5    2.865404066152745E-4   -4.665785666211645E-1   -8.427588937900037E-2
 1.004801000437500E+10  -3.612237525818711E-1   -2.839561009343611E-1   -1.747149247559146E-8    2.319390806583024E-4   -3.860528467480920E-6    2.512653596252236E-4   -4.665472586537864E-1   -8.399825717475881E-2
 1.004801290245000E+10  -3.613619915202689E-1   -2.838150323580543E-1    4.847007981033688E-5    2.665434351287098E-4    1.497692855568092E-5    2.627701890543572E-4   -4.665765562465067E-1   -8.375992616794779E-2
 1.004801580052500E+10  -3.614016721903126E-1   -2.836376126328051E-1    1.042032188828442E-5    2.690825911389870E-4    2.482313110993232E-6    2.655331682376879E-4   -4.665141675042640E-1   -8.350150327246898E-2
 1.004801869860000E+10  -3.615580309460523E-1   -2.834053117265327E-1    1.237935048507264E-5    2.826278463499901E-4   -9.171202215229234E-6    2.800536886441426E-4   -4.665879135919364E-1   -8.308888727653471E-2
 1.004802159667500E+10  -3.616871872553133E-1   -2.832916011515793E-1    1.136710349855678E-5    2.842139552876777E-4   -7.448331825566406E-6    2.891019009692278E-4   -4.666894989156635E-1   -8.289139481819777E-2
 1.004802449475000E+10  -3.617777527877054E-1   -2.831685254860936E-1    1.797861726072511E-5    3.095286476540452E-4    1.594357990812788E-6    3.142120303154729E-4   -4.666256365840595E-1   -8.279823277142154E-2
 1.004802739282500E+10  -3.619795957796114E-1   -2.829597109726039E-1    2.460587332423382E-6    3.359149479888195E-4   -6.163818496207249E-6    3.298041083166076E-4   -4.667395263817725E-1   -8.234180788399471E-2
 1.004803029090000E+10  -3.620512121430779E-1   -2.827639628325926E-1    2.747984914109210E-5    3.042791599179939E-4   -1.317297090010849E-5    3.111768682442978E-4   -4.667719186849265E-1   -8.209509277589984E-2
 1.004803318897500E+10  -3.621351164040021E-1   -2.826493930520399E-1    2.676695264370439E-6    3.402464719364333E-4   -6.675592109915224E-6    3.128633296910597E-4   -4.667741633555095E-1   -8.183340015711640E-2
 1.004803608705000E+10  -3.622268597221841E-1   -2.825557652513742E-1   -7.147329437536202E-6    3.490679234858517E-4   -2.246253159902881E-5    3.549126670219353E-4   -4.667939504153651E-1   -8.165198315956280E-2
 1.004803898512500E+10  -3.624467483119548E-1   -2.823468628780103E-1    2.497106380586123E-5    3.662435927316878E-4    1.429031402965902E-6    3.299626640093529E-4   -4.667441767109633E-1   -8.132801482085805E-2
 1.004804188320000E+10  -3.625878545037212E-1   -2.822907936290429E-1    3.258065468420338E-5    3.687594688823117E-4   -7.275013822984093E-6    3.450856461059506E-4   -4.666799755963052E-1   -8.081996943551299E-2
 1.004804478127500E+10  -3.626749163311846E-1   -2.820800641399272E-1    2.326317308516688E-5    3.798874165337857E-4   -1.641711095283016E-5    3.591607455756497E-4   -4.668866519047222E-1   -8.080374503117084E-2
 1.004804767935000E+10  -3.627936694106072E-1   -2.818672205210299E-1    1.757678340393022E-5    3.759777484893750E-4   -2.856740702186164E-5    3.912447389597816E-4   -4.669195653885862E-1   -8.034214116806379E-2
 1.004805057742500E+10  -3.629152117483582E-1   -2.817444474750322E-1    9.698063404370493E-6    4.002450375428810E-4   -2.758568042490657E-5    3.731445886882237E-4   -4.667474681117548E-1   -8.009522166520894E-2
 1.004805347550000E+10  -3.629879171781370E-1   -2.816158399731767E-1    1.801440239436406E-5    4.030570194914302E-4   -2.608514903598129E-5    3.979021454646683E-4   -4.668165639747527E-1   -7.997343754166825E-2
 1.004805637357500E+10  -3.631643265444975E-1   -2.814812522675323E-1   -1.743036081373526E-5    4.053739382165133E-4   -2.511295258221102E-5    4.184092107492538E-4   -4.670118176633027E-1   -7.947533229191618E-2
 1.004805927165000E+10  -3.632398616472972E-1   -2.812672718200376E-1    1.704858121263669E-6    4.187102791000255E-4    1.275409222408198E-7    4.184849254780747E-4   -4.668731367362182E-1   -7.933269543290095E-2
 1.004806216972500E+10  -3.633455236102693E-1   -2.809841927606087E-1   -5.154497634467271E-6    4.425323767817274E-4   -6.412678546571534E-6    4.366106287227404E-4   -4.668392088220493E-1   -7.898652328830388E-2
 1.004806506780000E+10  -3.633867449503166E-1   -2.809631094040757E-1    1.290323376636624E-5    4.380497619086829E-4   -3.594785736079178E-5    4.536421748813157E-4   -4.670791452073195E-1   -7.864282404761001E-2
 1.004806796587500E+10  -3.635478530646157E-1   -2.808253007688879E-1    1.289636841178628E-5    4.549684077080098E-4   -6.299344058364166E-5    4.450399405390730E-4   -4.670399492534297E-1   -7.841548377220493E-2
 1.004807086395000E+10  -3.636013083094548E-1   -2.805263952201897E-1   -1.196180782970747E-5    4.550050746573616E-4   -3.922116788820382E-5    4.987466944840011E-4   -4.671601501253618E-1   -7.818856433711201E-2
 1.004807376202500E+10  -3.638143436893390E-1   -2.804983452998783E-1    7.420426323427990E-6    4.792622565467888E-4   -3.324412831123200E-5    4.979186395196476E-4   -4.669907555171579E-1   -7.795565645345476E-2
 1.004807666010000E+10  -3.639115498539363E-1   -2.803604836220429E-1   -1.539296758403294E-5    4.803842604866689E-4   -3.200766451874078E-5    4.741359414310548E-4   -4.670455718962306E-1   -7.758637909824345E-2
 1.004807955817500E+10  -3.640258665896939E-1   -2.801208890617288E-1    7.150829161459465E-6    4.826944308883428E-4   -1.601222653706552E-5    5.000191405989710E-4   -4.669965476772338E-1   -7.715037022192194E-2
 1.004808245625000E+10  -3.641077961163168E-1   -2.799518221526792E-1    6.667621485852751E-7    5.028501739185354E-4   -3.619201433088423E-5    4.945603577054301E-4   -4.671330493807045E-1   -7.696172283806139E-2
 1.004808535432500E+10  -3.643420467301323E-1   -2.797115478349671E-1    2.454150823655933E-6    5.265475572276957E-4    1.715091897868096E-6    5.039121070908150E-4   -4.671524834096408E-1   -7.670663974129741E-2
 1.004808825240000E+10  -3.645364083463867E-1   -2.796748016725205E-1    5.712711652189677E-6    5.142936798753277E-4   -2.465184290210302E-5    5.287332919377149E-4   -4.670801392800583E-1   -7.628650392809605E-2
 1.004809115047500E+10  -3.644168589539978E-1   -2.794268401463036E-1    1.636427239706632E-5    5.310194739507250E-4   -4.552372241923366E-5    5.223016519505173E-4   -4.671659107498434E-1   -7.617584711885685E-2
 1.004809404855000E+10  -3.644407576238424E-1   -2.793886867052833E-1   -6.607183414964605E-6    5.577730528028695E-4   -1.619451969381070E-5    5.399115880057990E-4   -4.672371792197003E-1   -7.572472775104050E-2
 1.004809694662500E+10  -3.647887146475399E-1   -2.791013868534931E-1   -4.061366283148787E-5    5.552566691000187E-4   -4.008531247683865E-5    5.417178923726862E-4   -4.672034262995244E-1   -7.526580888180666E-2
 1.004809984470000E+10  -3.647916992178894E-1   -2.788859035134149E-1    1.507396922337712E-5    6.017746046041847E-4   -1.728188466964709E-5    5.938750547861011E-4   -4.671532201219135E-1   -7.521228507524434E-2
 1.004810274277500E+10  -3.650240645789131E-1   -2.789292205281514E-1   -1.911470774487131E-5    5.782920993760346E-4   -4.784004556993903E-5    5.505963618919911E-4   -4.672181245699750E-1   -7.492678257595169E-2
 1.004810564085000E+10  -3.650928773363783E-1   -2.788303630918499E-1   -4.971914320835225E-6    5.968595596210343E-4   -6.382050425847298E-6    6.194920973581147E-4   -4.672735489984508E-1   -7.464555755908645E-2
 1.004810853892500E+10  -3.653464591897485E-1   -2.787049019440150E-1   -2.388212131909782E-5    5.800459050832911E-4   -4.123001688791656E-5    5.720521607078594E-4   -4.671965604925834E-1   -7.421578950766326E-2
 1.004811143700000E+10  -3.653109889100219E-1   -2.784574993101681E-1   -7.563700692753029E-6    6.183710253632051E-4   -1.465249735054255E-5    6.287878431132886E-4   -4.673986694339814E-1   -7.396732271796677E-2
 1.004811433507500E+10  -3.653699450024974E-1   -2.783641881821911E-1   -2.591421119562670E-5    6.409735162031959E-4   -5.659150574022732E-5    6.500234004982796E-4   -4.672562799335727E-1   -7.371123344801161E-2
 1.004811723315000E+10  -3.654423214323498E-1   -2.781928816781052E-1   -1.258904642088708E-5    6.356525753027010E-4   -7.066089377534808E-5    6.483239050572884E-4   -4.675284721301652E-1   -7.333039070983541E-2
 1.004812013122500E+10  -3.656162422503680E-1   -2.780369873381038E-1   -1.417049755732161E-5    6.609158089842643E-4   -2.492520378015474E-5    6.825360614526567E-4   -4.673181456973286E-1   -7.304851624155630E-2
 1.004812302930000E+10  -3.657737306372112E-1   -2.778719766819977E-1   -3.261423291893240E-6    6.808886696104533E-4   -2.809435196385562E-5    6.849513196917217E-4   -4.673298430952698E-1   -7.279851487246809E-2
 1.004812592737500E+10  -3.657711315575828E-1   -2.776365662588025E-1   -3.115445474807456E-5    6.747421636402325E-4   -5.849748710474125E-5    7.001913358260930E-4   -4.672829589852411E-1   -7.236593177902596E-2
 1.004812882545000E+10  -3.661102935684083E-1   -2.774348674917167E-1   -2.417034925695632E-5    7.069067659833165E-4   -4.637397260096754E-5    6.862675077285644E-4   -4.674796698181957E-1   -7.194283256670513E-2
 1.004813172352500E+10  -3.660526481134844E-1   -2.773469645181673E-1   -1.213819033692972E-6    7.364058833257988E-4   -6.561656930638230E-5    6.854411701027166E-4   -4.673120171504870E-1   -7.182297330446613E-2
 1.004813462160000E+10  -3.662693999259132E-1   -2.772907467820871E-1   -1.607479053089698E-5    7.071372365778293E-4   -4.157576797697338E-5    7.105684836354481E-4   -4.673681037777004E-1   -7.147730842579052E-2
 1.004813751967500E+10  -3.662554187240724E-1   -2.770957704919543E-1   -3.023569378510951E-5    7.439476495525032E-4   -3.443341182472448E-5    7.692674346800807E-4   -4.673910698231407E-1   -7.103776725468891E-2
 1.004814041775000E+10  -3.663886207600283E-1   -2.769021181160075E-1    2.517975131390561E-5    7.614279713578876E-4   -5.302105661794034E-5    7.469633496806447E-4   -4.674768095664741E-1   -7.085135006019261E-2
 1.004814331582500E+10  -3.665931955002875E-1   -2.766964565901213E-1   -9.640731311944991E-6    7.402599356237290E-4   -9.195579110627913E-5    7.814007029030407E-4   -4.675138984393676E-1   -7.052408725528735E-2
 1.004814621390000E+10  -3.666663821266769E-1   -2.765502095974397E-1   -4.244107712678469E-5    7.706979224768310E-4   -6.125498925007298E-5    7.778922084912194E-4   -4.674603189570700E-1   -7.004025859854934E-2
 1.004814911197500E+10  -3.669905435786343E-1   -2.763666138374220E-1    2.824004151713153E-5    8.030592801807111E-4   -5.152253298387663E-5    7.863849105038041E-4   -4.674793799075763E-1   -6.970024030593434E-2
 1.004815201005000E+10  -3.668641325971704E-1   -2.762679637794759E-1   -7.557299146993472E-6    8.225084424260588E-4   -5.403694951599525E-5    8.225059885476636E-4   -4.675175687606739E-1   -6.949012056002747E-2
 1.004815490812500E+10  -3.671060442211049E-1   -2.760718542802743E-1    5.357084129045828E-6    8.237610317386074E-4   -6.781986226406153E-5    8.462423725477088E-4   -4.674996347297103E-1   -6.907647071220240E-2
 1.004815780620000E+10  -3.671572638358203E-1   -2.759493095784507E-1   -1.844510903943438E-5    8.249519599419712E-4   -5.743922797216934E-5    8.425397974275536E-4   -4.675769542031594E-1   -6.878466376985211E-2
 1.004816070427500E+10  -3.671376687574538E-1   -2.757820454714500E-1   -1.492478669318804E-5    8.454502905377801E-4   -6.499380275293902E-5    8.907530858382092E-4   -4.672162930563968E-1   -6.841418406798486E-2
 1.004816360235000E+10  -3.672950608889519E-1   -2.756346183192396E-1   -7.203723390113810E-6    8.758705324146096E-4   -3.302460465577342E-5    9.204041514122744E-4   -4.674422957128783E-1   -6.814869432084067E-2
 1.004816650042500E+10  -3.674005560445775E-1   -2.754248491355485E-1   -2.075398334241859E-6    8.674513596612220E-4   -6.747728156816308E-5    8.856610087793476E-4   -4.673933215625551E-1   -6.768936300925739E-2
 1.004816939850000E+10  -3.675520232406827E-1   -2.752686878719400E-1   -2.237754800583815E-5    9.302496773279967E-4   -4.004712801651466E-5    9.309122583266294E-4   -4.674558317550033E-1   -6.743675708606986E-2
 1.004817229657500E+10  -3.676888444438290E-1   -2.750973298376190E-1    6.959681101393492E-6    9.232721939003430E-4   -7.864091635741522E-5    9.335854795155531E-4   -4.674034390029863E-1   -6.695009432096301E-2
 1.004817519465000E+10  -3.678458841450857E-1   -2.750009796191178E-1   -2.242168002599113E-5    9.375148201803487E-4   -6.966119976963177E-5    9.417020420271031E-4   -4.674399289832194E-1   -6.663225056945858E-2
 1.004817809272500E+10  -3.680393679508949E-1   -2.747294035025838E-1   -1.567140159582716E-5    9.544341384852544E-4   -4.086402963351582E-5    9.848649280776920E-4   -4.673147688470086E-1   -6.644138359515930E-2
 1.004818099080000E+10  -3.680224771012249E-1   -2.745937159886147E-1   -1.898691696905249E-5    9.764714084004414E-4   -4.625533209467793E-5    9.813600002715173E-4   -4.674552046277662E-1   -6.606222944322528E-2
 1.004818388887500E+10  -3.680855910597090E-1   -2.744775342107936E-1   -2.407756614811443E-5    1.003586437665350E-3   -5.817161508960935E-5    1.007568250603200E-3   -4.673730865828923E-1   -6.571502925980166E-2
 1.004818678695000E+10  -3.681817208042605E-1   -2.743597552171994E-1    6.566046871758803E-6    1.029730608177002E-3   -7.477521530510411E-5    1.026261899902768E-3   -4.672869615222685E-1   -6.536550763727181E-2
 1.004818968502500E+10  -3.682601711370239E-1   -2.741594013968611E-1   -2.040916188271593E-5    1.049535428342517E-3   -8.908089796075275E-5    1.039431801547047E-3   -4.674044098766825E-1   -6.491125204880906E-2
 1.004819258310000E+10  -3.684465594675842E-1   -2.739344686099101E-1    1.344000268416311E-5    1.043025738683897E-3   -6.423540909608386E-5    1.047298899700059E-3   -4.672593790035039E-1   -6.458832718529212E-2
 1.004819548117500E+10  -3.685076279656250E-1   -2.738290434633336E-1   -2.195677706466987E-5    1.061114464499149E-3   -6.691926425440784E-5    1.074293626888916E-3   -4.674257731263571E-1   -6.424717808116930E-2
 1.004819837925000E+10  -3.686803062484887E-1   -2.735867957746164E-1    1.652704471575458E-5    1.092731133720340E-3   -6.817061910172923E-5    1.088241551520379E-3   -4.673709570195022E-1   -6.382230258117261E-2
 1.004820127732500E+10  -3.688210944890049E-1   -2.735417024371146E-1   -1.120355495214010E-5    1.102803259548746E-3   -8.066779571405649E-5    1.110571316005898E-3   -4.674122062808270E-1   -6.326422789905591E-2
 1.004820417540000E+10  -3.689868397807415E-1   -2.733044439198400E-1    1.323074057751584E-5    1.094187486407642E-3   -7.468098857963269E-5    1.112964789208650E-3   -4.673668677705995E-1   -6.300630234574636E-2
 1.004820707347500E+10  -3.690459387142281E-1   -2.732676694491795E-1    7.279436679304446E-6    1.179253847952588E-3   -4.088007287327398E-5    1.149772162528849E-3   -4.674412229884524E-1   -6.275147794639582E-2
 1.004820997155000E+10  -3.691393150875779E-1   -2.730655676487890E-1   -1.405445517706282E-5    1.160780727184966E-3   -5.126239360324797E-5    1.178432341918134E-3   -4.673368569252216E-1   -6.239991876265694E-2
 1.004821286962500E+10  -3.692243860119575E-1   -2.728861685562290E-1   -2.411051658308371E-5    1.188912316390656E-3   -6.923984467961509E-5    1.194280965260441E-3   -4.674147311880756E-1   -6.189061962502516E-2
 1.004821576770000E+10  -3.694275703623125E-1   -2.727420419300494E-1   -7.994129062911259E-6    1.177298111646349E-3   -7.689184743635256E-5    1.175652588790308E-3   -4.673380974197055E-1   -6.156359779672021E-2
 1.004821866577500E+10  -3.694366085530333E-1   -2.724743928613884E-1    1.898028276943985E-5    1.212857558768517E-3   -1.132807874791035E-4    1.209852571506776E-3   -4.673468047297009E-1   -6.116427034432696E-2
 1.004822156385000E+10  -3.695549641455990E-1   -2.723276180656456E-1    1.819690063520649E-5    1.235528402425132E-3   -7.059265171463349E-5    1.246581542443370E-3   -4.671947954796048E-1   -6.066256224149136E-2
 1.004822446192500E+10  -3.695706903718616E-1   -2.721573718016911E-1    3.317073108365296E-5    1.265928912902646E-3   -6.193650558895266E-5    1.255513241412827E-3   -4.671386860580181E-1   -6.036950670251513E-2
 1.004822736000000E+10  -3.697337243088937E-1   -2.720169895329146E-1    1.525292735069151E-5    1.314306846380640E-3   -2.910734908320212E-5    1.328135093635909E-3   -4.670888197720832E-1   -5.991766405617045E-2
 1.004823025807500E+10  -3.698514822589536E-1   -2.718604167648684E-1    7.811325297927372E-7    1.300993911891708E-3   -5.385137549321874E-5    1.333104252419275E-3   -4.671433141286546E-1   -5.959086992539351E-2
 1.004823315615000E+10  -3.700843201860491E-1   -2.717023424875236E-1    4.635452373806261E-6    1.348431089608476E-3   -9.278026474010965E-5    1.363643124276712E-3   -4.671154421792864E-1   -5.919632981835373E-2
 1.004823605422500E+10  -3.700600959329566E-1   -2.716324338095634E-1    3.232798544149094E-5    1.375390218679006E-3   -3.755241454743767E-5    1.366229371033136E-3   -4.670985911688450E-1   -5.872148425405194E-2
 1.004823895230000E+10  -3.701892180711511E-1   -2.713422735218666E-1    3.529141278210857E-5    1.382358660769197E-3   -5.034023715402025E-5    1.386069589779810E-3   -4.670048503586631E-1   -5.837570074155667E-2
 1.004824185037500E+10  -3.702973639651525E-1   -2.712909678942338E-1    2.166351087932588E-5    1.401215725800753E-3   -3.758816736523489E-5    1.395613871109900E-3   -4.668946790299520E-1   -5.781684429474350E-2
 1.004824474845000E+10  -3.704044265915566E-1   -2.712331566207458E-1    1.763044915721482E-5    1.428054130403175E-3   -5.557082563588956E-5    1.430230098803256E-3   -4.670693475175562E-1   -5.766728743546479E-2
 1.004824764652500E+10  -3.705425492012550E-1   -2.708279064702027E-1    2.949871398548428E-5    1.437192170021843E-3   -5.919974976310076E-5    1.480484479430548E-3   -4.669632259384852E-1   -5.705171712300804E-2
 1.004825054460000E+10  -3.705056457289556E-1   -2.708284705566495E-1    1.724637078798991E-5    1.471881381887798E-3   -6.177877502797244E-5    1.493272458655638E-3   -4.669873905970186E-1   -5.668347600332306E-2
 1.004825344267500E+10  -3.707473122894717E-1   -2.706883127784617E-1   -1.480464832144608E-6    1.496550756561697E-3   -4.401168271107065E-5    1.492475573749979E-3   -4.668455479843744E-1   -5.613856411236692E-2
 1.004825634075000E+10  -3.708841679023265E-1   -2.703955349969122E-1    2.941161403755947E-5    1.541606938352909E-3   -6.455727622335044E-5    1.542043650112377E-3   -4.668062771933783E-1   -5.577213735900020E-2
