#  HZ   S   RI   R     50.00 
! Rohde & Schwarz Vector Network Analyzer 
! Rohde-Schwarz,ZNB20-2Port,1311601062101988,3.16
! Created: UTC 3/21/2024, 1:08:08 AM
! freq[Hz]                re:S11                  im:S11                  re:S21                  im:S21                  re:S12                  im:S12                  re:S22                  im:S22
 1.004669949200000E+10  -2.928076368338242E-1   -3.550539640831892E-1    4.281171904088067E-4   -8.368609387626369E-4    4.773972111134701E-4   -8.024393848642182E-4   -4.379284535320831E-1   -1.976906431730832E-1
 1.004671115472500E+10  -2.934020921209364E-1   -3.544205731364690E-1    4.296782290666924E-4   -8.262796576320404E-4    4.934809440748840E-4   -8.309214738356335E-4   -4.381952402003577E-1   -1.969767541053357E-1
 1.004672281745000E+10  -2.940008948750828E-1   -3.540048829582030E-1    4.187796866131421E-4   -8.319164185129191E-4    4.805501029589225E-4   -8.002997927694978E-4   -4.385285647003995E-1   -1.962764076992653E-1
 1.004673448017500E+10  -2.946189401248859E-1   -3.535508095615953E-1    4.002468277480137E-4   -8.081617325958511E-4    4.934722816857334E-4   -8.094627757122074E-4   -4.388298081837345E-1   -1.955498592836390E-1
 1.004674614290000E+10  -2.951559262686944E-1   -3.530892007839244E-1    4.115913367971187E-4   -8.175102364811356E-4    4.879743298978351E-4   -7.794690177240560E-4   -4.391790538930077E-1   -1.946394358080026E-1
 1.004675780562500E+10  -2.957185015339727E-1   -3.525778264775563E-1    4.042805403479588E-4   -8.383588452620389E-4    5.068198415380345E-4   -8.114479779023413E-4   -4.394265219295712E-1   -1.941414928553820E-1
 1.004676946835000E+10  -2.961525832665527E-1   -3.520419778241383E-1    3.979786522894811E-4   -7.990492508896414E-4    4.712324137946917E-4   -7.905673219485888E-4   -4.396870940964490E-1   -1.933421692808561E-1
 1.004678113107500E+10  -2.968062532195734E-1   -3.514554316392579E-1    3.982210463513339E-4   -8.235563633239878E-4    4.820252178813300E-4   -8.082958988836209E-4   -4.400364900711847E-1   -1.927960366386385E-1
 1.004679279380000E+10  -2.974372110893406E-1   -3.509561667475683E-1    4.148094242550392E-4   -8.060242171487376E-4    4.500248624087859E-4   -8.019181729070825E-4   -4.402076404079994E-1   -1.918562413747133E-1
 1.004680445652500E+10  -2.980146503849497E-1   -3.505244421111371E-1    4.169018044672888E-4   -8.306325432084001E-4    4.739754982771365E-4   -7.931068421151124E-4   -4.406276069622823E-1   -1.911021323957294E-1
 1.004681611925000E+10  -2.985422273413050E-1   -3.499233061983076E-1    4.069981633561411E-4   -7.901286211051307E-4    4.756014657657237E-4   -7.594830178306503E-4   -4.407753688772067E-1   -1.903012109602689E-1
 1.004682778197500E+10  -2.991738761655108E-1   -3.493043864717727E-1    4.167359317292676E-4   -8.119953572490988E-4    4.703642443548460E-4   -7.920672998595309E-4   -4.411938638731563E-1   -1.895622884106226E-1
 1.004683944470000E+10  -2.997595854586638E-1   -3.488824393616767E-1    4.118583591923210E-4   -7.964543231921931E-4    4.903113650058926E-4   -8.007047550501727E-4   -4.414704093691499E-1   -1.890618560375200E-1
 1.004685110742500E+10  -3.003337164133200E-1   -3.483641585575699E-1    3.688280288965367E-4   -8.077253546962672E-4    4.669194959205978E-4   -8.119898095652225E-4   -4.418127619662771E-1   -1.881936999909629E-1
 1.004686277015000E+10  -3.007676583402799E-1   -3.477433907651808E-1    3.951096229603735E-4   -8.038272867668464E-4    4.506606949550418E-4   -7.735092143280345E-4   -4.420831021121152E-1   -1.875954723751909E-1
 1.004687443287500E+10  -3.015117141856178E-1   -3.473685937420957E-1    3.761014721619768E-4   -8.038844687989091E-4    4.552520541212967E-4   -7.934244618925282E-4   -4.423314762638110E-1   -1.867745773855375E-1
 1.004688609560000E+10  -3.020406558981251E-1   -3.468273627045578E-1    4.072641726653591E-4   -8.055200143586484E-4    4.652169132340508E-4   -8.045963839536912E-4   -4.425389931273760E-1   -1.860213663126833E-1
 1.004689775832500E+10  -3.024611111931738E-1   -3.461825846015313E-1    3.819472919212620E-4   -8.045940230132425E-4    4.635701106742682E-4   -8.217373712785384E-4   -4.428252633525012E-1   -1.853723141077201E-1
 1.004690942105000E+10  -3.030526025922139E-1   -3.457735621137732E-1    3.952814380021231E-4   -7.919531722815747E-4    4.354692138440558E-4   -7.807582243800821E-4   -4.431425641894208E-1   -1.845703571211083E-1
 1.004692108377500E+10  -3.036682627449364E-1   -3.453016760491189E-1    3.951125791240085E-4   -8.033645550862836E-4    4.564157879732469E-4   -7.548724728991277E-4   -4.434799103155634E-1   -1.838284542552976E-1
 1.004693274650000E+10  -3.041661101816427E-1   -3.446770761279909E-1    3.869016799941890E-4   -7.951439383086171E-4    4.569936501858029E-4   -7.664600805963827E-4   -4.436717784879998E-1   -1.831042244153625E-1
 1.004694440922500E+10  -3.047121355906250E-1   -3.440503311541503E-1    3.941912569080726E-4   -7.853735339274407E-4    4.639066736986954E-4   -7.672414420618962E-4   -4.440780281601498E-1   -1.823851982955547E-1
 1.004695607195000E+10  -3.054190799608429E-1   -3.435478219631373E-1    3.534361763010764E-4   -7.870288343454331E-4    4.564407136359049E-4   -7.667668629563795E-4   -4.443317773039321E-1   -1.816757826162619E-1
 1.004696773467500E+10  -3.058586491431202E-1   -3.432562574531173E-1    3.944847104167229E-4   -7.610986356092427E-4    4.551645551418448E-4   -7.740799517401789E-4   -4.446063403636862E-1   -1.808489997113757E-1
 1.004697939740000E+10  -3.064126852501524E-1   -3.424214293469163E-1    3.965192729072369E-4   -7.859775568094981E-4    4.598041016716674E-4   -7.846217243336127E-4   -4.449418982595436E-1   -1.800859824690528E-1
 1.004699106012500E+10  -3.069540395472166E-1   -3.419572684217407E-1    3.932390929948408E-4   -7.606192933429608E-4    4.419628613856705E-4   -7.818230357584819E-4   -4.450331440008967E-1   -1.794613945157107E-1
 1.004700272285000E+10  -3.076872884808745E-1   -3.415125133039449E-1    3.835873535688537E-4   -7.752916438692322E-4    4.433133204913455E-4   -7.628785174205467E-4   -4.454182335016753E-1   -1.786645420170268E-1
 1.004701438557500E+10  -3.081723247408334E-1   -3.409293257151648E-1    3.912756214769364E-4   -7.540107664640577E-4    4.499180888013167E-4   -7.635349021316727E-4   -4.456486957130196E-1   -1.779355695083890E-1
 1.004702604830000E+10  -3.086165184371101E-1   -3.403543254093798E-1    3.503397013359509E-4   -7.761542458026358E-4    4.289537294433847E-4   -7.693442149415365E-4   -4.460116697519743E-1   -1.770272972211215E-1
 1.004703771102500E+10  -3.091885082302968E-1   -3.398501736254225E-1    3.926240678475755E-4   -7.589184146857583E-4    4.457106262088456E-4   -7.612458752331971E-4   -4.463661927186880E-1   -1.764895015410422E-1
 1.004704937375000E+10  -3.098064625465068E-1   -3.393732654317309E-1    3.601641270500199E-4   -7.554809895192107E-4    4.431262664275515E-4   -7.488567481541355E-4   -4.464307066449860E-1   -1.756125568618508E-1
 1.004706103647500E+10  -3.103778828313929E-1   -3.387542599656678E-1    3.782689402341260E-4   -7.883682755131990E-4    4.253960665629651E-4   -7.697329648389284E-4   -4.467201842569400E-1   -1.750073466010690E-1
 1.004707269920000E+10  -3.108260474023046E-1   -3.382181860348987E-1    3.571174158666731E-4   -7.462183376794794E-4    4.667524569011483E-4   -7.581977598016134E-4   -4.469795479877998E-1   -1.741852110673608E-1
 1.004708436192500E+10  -3.114537523042148E-1   -3.376011248263308E-1    3.762755181678037E-4   -7.661042592953085E-4    4.259695217014955E-4   -7.410163763544314E-4   -4.472653011365475E-1   -1.734920727428956E-1
 1.004709602465000E+10  -3.119034740090057E-1   -3.370990686577726E-1    3.686926492501559E-4   -7.565626532710624E-4    4.354677743853487E-4   -7.446550110729213E-4   -4.475234185407030E-1   -1.726179082371032E-1
 1.004710768737500E+10  -3.125765097835517E-1   -3.365289489570222E-1    3.875292743054228E-4   -7.736230712216341E-4    4.188272054860350E-4   -7.687641713746012E-4   -4.478159230103040E-1   -1.719649419852334E-1
 1.004711935010000E+10  -3.131125904791751E-1   -3.359614527387077E-1    3.634590580129955E-4   -7.698409583315622E-4    4.237335808867753E-4   -7.492554633258154E-4   -4.482102102741499E-1   -1.712548314215296E-1
 1.004713101282500E+10  -3.135489818060411E-1   -3.354838910849295E-1    3.436670229053435E-4   -7.429425110391559E-4    3.877036813054683E-4   -7.719667696349434E-4   -4.483706159764976E-1   -1.703400545429371E-1
 1.004714267555000E+10  -3.141527003636685E-1   -3.349547079037834E-1    3.666241070062398E-4   -7.611734360047451E-4    4.127808527449254E-4   -7.447649489142235E-4   -4.485426957880828E-1   -1.696314590958868E-1
 1.004715433827500E+10  -3.146568588116789E-1   -3.345200593156470E-1    3.774905695467104E-4   -7.185811409009546E-4    4.044024490543687E-4   -7.373340903635663E-4   -4.489495838939364E-1   -1.690155022901273E-1
 1.004716600100000E+10  -3.153293379122201E-1   -3.339382792210022E-1    3.348656400662151E-4   -7.569598417985801E-4    4.197544439427330E-4   -7.427738461229633E-4   -4.491082020276767E-1   -1.681675891994879E-1
 1.004717766372500E+10  -3.156792863162601E-1   -3.333434106216659E-1    3.763011739909829E-4   -7.415389447217707E-4    4.138035139246741E-4   -7.672126853446616E-4   -4.492467758143653E-1   -1.675434410179432E-1
 1.004718932645000E+10  -3.163924457027545E-1   -3.329159967531461E-1    3.686152028736309E-4   -7.458833934731913E-4    4.013030456240638E-4   -7.494503198578626E-4   -4.496286472259441E-1   -1.666835993152907E-1
 1.004720098917500E+10  -3.168719188136190E-1   -3.322134568236942E-1    3.312296433983747E-4   -7.261305004121075E-4    3.949646437451341E-4   -7.312528271178488E-4   -4.499036662109228E-1   -1.659059861800779E-1
 1.004721265190000E+10  -3.174467668474112E-1   -3.316659386003332E-1    3.384170831881023E-4   -7.283232101287509E-4    4.186706415530625E-4   -7.274717283401135E-4   -4.501893336147182E-1   -1.651585932709081E-1
 1.004722431462500E+10  -3.178652386455231E-1   -3.313381038712641E-1    3.676914990139311E-4   -7.404631584939133E-4    4.024976674061976E-4   -7.148099195936729E-4   -4.502756628034909E-1   -1.646257553727862E-1
 1.004723597735000E+10  -3.185145823603988E-1   -3.306167692539198E-1    3.503392758398723E-4   -7.363810769361717E-4    3.903969123405345E-4   -7.254100882513227E-4   -4.506600396667250E-1   -1.637125759898163E-1
 1.004724764007500E+10  -3.190377992788598E-1   -3.300203291446957E-1    3.596993090001281E-4   -7.251116726336376E-4    3.822552647787698E-4   -7.351061145116706E-4   -4.507944892402794E-1   -1.628374981077839E-1
 1.004725930280000E+10  -3.194926641951314E-1   -3.295941920180749E-1    3.507404269866789E-4   -7.459110228466131E-4    3.867942571409394E-4   -6.985524819605712E-4   -4.511303069264524E-1   -1.620756142374353E-1
 1.004727096552500E+10  -3.201799918392049E-1   -3.289525701713467E-1    3.534975039326299E-4   -7.447028807712442E-4    3.798331154316938E-4   -6.979524265560840E-4   -4.514589711427176E-1   -1.614562017838859E-1
 1.004728262825000E+10  -3.208051905394127E-1   -3.283974252565224E-1    3.482178784703315E-4   -6.889578000644867E-4    3.962325185297812E-4   -6.890614079902533E-4   -4.516516407279968E-1   -1.607047990115516E-1
 1.004729429097500E+10  -3.212283795268288E-1   -3.279636141381531E-1    3.186300023883635E-4   -6.958079860828564E-4    3.956307437657380E-4   -7.116404776973102E-4   -4.518891929768548E-1   -1.599041949507372E-1
 1.004730595370000E+10  -3.217649993694236E-1   -3.272856578032986E-1    3.472865437251693E-4   -7.218402422267250E-4    3.841073153287405E-4   -7.176640792211283E-4   -4.519805485009529E-1   -1.592758081193938E-1
 1.004731761642500E+10  -3.221687260610076E-1   -3.267728631021246E-1    3.462231237466025E-4   -7.191676730658446E-4    3.695765728381321E-4   -7.053113107715377E-4   -4.522713732375691E-1   -1.582971548244868E-1
 1.004732927915000E+10  -3.228012209625702E-1   -3.263006036395409E-1    3.516930864454621E-4   -6.799646946788482E-4    3.776569653001224E-4   -6.710563373749300E-4   -4.525636273721592E-1   -1.575080326312021E-1
 1.004734094187500E+10  -3.232845815254718E-1   -3.254550720597076E-1    3.189386217556406E-4   -6.782880292999977E-4    3.873002516772346E-4   -6.840562384616797E-4   -4.529161392971249E-1   -1.567010578358356E-1
 1.004735260460000E+10  -3.239661388125015E-1   -3.251451118346770E-1    3.116705957330212E-4   -6.877560370718218E-4    3.626692574598080E-4   -6.774609801442709E-4   -4.531525183464374E-1   -1.560227043371146E-1
 1.004736426732500E+10  -3.244199747537129E-1   -3.245190172723640E-1    3.367943245904003E-4   -6.957849858830836E-4    3.564920388031945E-4   -6.677245910630389E-4   -4.533443226629116E-1   -1.552875280519034E-1
 1.004737593005000E+10  -3.248527668773957E-1   -3.237674246428610E-1    3.167628934960276E-4   -6.767128099374536E-4    3.574227796285058E-4   -6.634174181403121E-4   -4.535501023749893E-1   -1.544471015244942E-1
 1.004738759277500E+10  -3.254537214154402E-1   -3.234353522598895E-1    3.178182322680426E-4   -6.887508485571421E-4    3.868864061862448E-4   -6.635652749483866E-4   -4.537974517457976E-1   -1.538176570233496E-1
 1.004739925550000E+10  -3.258869559968746E-1   -3.227579521485161E-1    3.376152179034847E-4   -6.791255980922033E-4    3.580011235447223E-4   -6.824213049936035E-4   -4.538919635152213E-1   -1.530033891065856E-1
 1.004741091822500E+10  -3.264577719374612E-1   -3.222206973672249E-1    3.412266055450691E-4   -6.705773885675901E-4    3.717642856097846E-4   -6.785303135132672E-4   -4.541738121341429E-1   -1.522994758131582E-1
 1.004742258095000E+10  -3.270388299607403E-1   -3.217192780893694E-1    3.081561300069872E-4   -6.762558446950480E-4    3.442187875779724E-4   -6.568058613678894E-4   -4.546741945657910E-1   -1.513600077244133E-1
 1.004743424367500E+10  -3.274165907968682E-1   -3.211275975471186E-1    2.862266727042036E-4   -6.674141319194693E-4    3.331826614916447E-4   -6.390867657317483E-4   -4.546078257172929E-1   -1.507356481013544E-1
 1.004744590640000E+10  -3.279610852458462E-1   -3.204606814363594E-1    2.934290270245965E-4   -6.350180264024551E-4    3.637571688516123E-4   -6.875178407752392E-4   -4.548076275888620E-1   -1.498105938914698E-1
 1.004745756912500E+10  -3.285802958623827E-1   -3.199885950093285E-1    3.048049835223762E-4   -6.533239847816615E-4    3.224278820614827E-4   -6.435160070238232E-4   -4.551166819557525E-1   -1.489206227205847E-1
 1.004746923185000E+10  -3.291197908538966E-1   -3.194219160487496E-1    2.975759668910108E-4   -6.613141850280376E-4    3.591898571596346E-4   -6.518291420510638E-4   -4.553227902856901E-1   -1.483813445796817E-1
 1.004748089457500E+10  -3.295388150882476E-1   -3.187985317926400E-1    3.058176994690226E-4   -6.205144953816341E-4    3.544087087526482E-4   -6.426924222994005E-4   -4.555096669299896E-1   -1.475069117377316E-1
 1.004749255730000E+10  -3.300392213025981E-1   -3.182802637612872E-1    3.272285631499886E-4   -6.519862902458708E-4    3.481444318583827E-4   -6.314499937674587E-4   -4.557348546907237E-1   -1.468857711427050E-1
 1.004750422002500E+10  -3.307249729277099E-1   -3.176377957419084E-1    2.836033919555165E-4   -6.373577946138253E-4    3.461078058607001E-4   -6.407763415664315E-4   -4.560634210845931E-1   -1.460331112236048E-1
 1.004751588275000E+10  -3.312552838807891E-1   -3.171957964237900E-1    3.369954847545990E-4   -6.334850272035839E-4    3.463641723574550E-4   -6.113215840757400E-4   -4.563791526791972E-1   -1.451666807548375E-1
 1.004752754547500E+10  -3.317470357913971E-1   -3.165385479734201E-1    2.927383144663038E-4   -6.335058493821394E-4    3.569828966508984E-4   -6.226486636120089E-4   -4.564477035601293E-1   -1.444273911246025E-1
 1.004753920820000E+10  -3.322439427539645E-1   -3.159278865548921E-1    3.033287049692470E-4   -6.176936171495268E-4    3.342875636188926E-4   -6.374729740894721E-4   -4.567105946156682E-1   -1.435722939104471E-1
 1.004755087092500E+10  -3.326475085531511E-1   -3.153718763848551E-1    2.710516059378678E-4   -6.376098572277608E-4    3.294728601938137E-4   -6.042484949501177E-4   -4.569208342368848E-1   -1.428481487015922E-1
 1.004756253365000E+10  -3.332787005722078E-1   -3.148436341082914E-1    3.042487600180090E-4   -6.109112355197616E-4    3.240939383810944E-4   -6.349527445471936E-4   -4.572274988056207E-1   -1.419849601246491E-1
 1.004757419637500E+10  -3.337052732731730E-1   -3.142223463130511E-1    2.935178323282880E-4   -6.073234785510490E-4    3.482047522600814E-4   -6.095397782875600E-4   -4.573682117290091E-1   -1.413340072706523E-1
 1.004758585910000E+10  -3.342592870199778E-1   -3.136640011748047E-1    3.091666178319040E-4   -6.053464116603400E-4    3.322515319630495E-4   -5.879567875603730E-4   -4.575076365776025E-1   -1.404034329174664E-1
 1.004759752182500E+10  -3.346839097214309E-1   -3.130358001219363E-1    3.174227775967999E-4   -6.025992872248382E-4    3.234646705293210E-4   -6.138823545574237E-4   -4.577676852790307E-1   -1.397157420889081E-1
 1.004760918455000E+10  -3.352366160837600E-1   -3.123963588063985E-1    2.872006428408025E-4   -6.017111587162164E-4    3.202392994762820E-4   -5.910810921215846E-4   -4.579500200000170E-1   -1.390045307469503E-1
 1.004762084727500E+10  -3.358237136954241E-1   -3.118992002501949E-1    2.824512508518806E-4   -6.116908140875020E-4    3.379859392537010E-4   -5.849792196124273E-4   -4.581924575692492E-1   -1.379624656194765E-1
 1.004763251000000E+10  -3.362325158567844E-1   -3.113577025111382E-1    2.778872659731380E-4   -5.915283739752084E-4    3.317067989057404E-4   -5.641568759225055E-4   -4.583222365591355E-1   -1.373653715486210E-1
 1.004764417272500E+10  -3.367050315343570E-1   -3.106936771198496E-1    2.956097329998893E-4   -5.691649560678659E-4    3.723321762124449E-4   -5.863727101133234E-4   -4.586500654160027E-1   -1.365873962358551E-1
 1.004765583545000E+10  -3.371602604633644E-1   -3.102176863099051E-1    3.012415610599348E-4   -5.535965659765106E-4    3.438619335506591E-4   -5.517054273321668E-4   -4.587597403656878E-1   -1.357152092289566E-1
 1.004766749817500E+10  -3.376207225956804E-1   -3.096654866223987E-1    2.762495732482230E-4   -5.465805556030059E-4    3.271334138867174E-4   -5.647708867779689E-4   -4.589412245145741E-1   -1.348562020102127E-1
 1.004767916090000E+10  -3.381883326753344E-1   -3.090473280151179E-1    2.725564780747101E-4   -5.431648072269952E-4    3.298479458835887E-4   -5.534706136837576E-4   -4.590622012448064E-1   -1.341300859091355E-1
 1.004769082362500E+10  -3.387538915707580E-1   -3.084276779491253E-1    3.074451544708258E-4   -5.342625124498956E-4    3.417435532698981E-4   -5.382190673755571E-4   -4.591732264442755E-1   -1.334150056469501E-1
 1.004770248635000E+10  -3.394221082828526E-1   -3.078772362678102E-1    3.171136413989138E-4   -5.159315577257303E-4    3.260076131836198E-4   -5.152038716551724E-4   -4.595197136230359E-1   -1.324428811726368E-1
 1.004771414907500E+10  -3.397540296197001E-1   -3.073015240035290E-1    2.612424390177871E-4   -5.319290098714174E-4    3.173332921215710E-4   -5.049979405163451E-4   -4.597483659847248E-1   -1.317448447263669E-1
 1.004772581180000E+10  -3.402322717694973E-1   -3.066538284455994E-1    2.597821169278614E-4   -5.066534743173174E-4    3.238319740067607E-4   -5.039913521109503E-4   -4.599996043771387E-1   -1.308937538195716E-1
 1.004773747452500E+10  -3.406871639066711E-1   -3.061572507641415E-1    2.525944306695777E-4   -5.287866043171730E-4    3.155538741369570E-4   -5.150869273506871E-4   -4.599613335031093E-1   -1.301401480517584E-1
 1.004774913725000E+10  -3.411532768170232E-1   -3.054870986533752E-1    2.507646367971475E-4   -5.284278632052019E-4    3.051814880510249E-4   -4.888657902368922E-4   -4.601406064329768E-1   -1.295391391117759E-1
