#  HZ   S   RI   R     50.00 
! Rohde & Schwarz Vector Network Analyzer 
! Rohde-Schwarz,ZNB20-2Port,1311601062101988,3.16
! Created: UTC 3/21/2024, 1:08:18 AM
! freq[Hz]                re:S11                  im:S11                  re:S21                  im:S21                  re:S12                  im:S12                  re:S22                  im:S22
 1.004673467600000E+10  -2.944596855786467E-1   -3.536066305404925E-1    4.244884790170435E-4   -8.101159050412593E-4    4.812046367249804E-4   -7.936152990085580E-4   -4.386847509194138E-1   -1.956658063797587E-1
 1.004674621692500E+10  -2.950643743159677E-1   -3.532353640420264E-1    4.028132999284412E-4   -8.168486361891441E-4    4.850912486875489E-4   -8.071944194919284E-4   -4.391803310768849E-1   -1.949973586545848E-1
 1.004675775785000E+10  -2.955666336703280E-1   -3.526018092505030E-1    4.118124848806533E-4   -8.257996012935219E-4    4.973315286094813E-4   -7.942976863324429E-4   -4.391981222862800E-1   -1.939540414326568E-1
 1.004676929877500E+10  -2.961364559662327E-1   -3.520453845406277E-1    4.040875663758713E-4   -8.221324574169934E-4    4.746359582189281E-4   -7.740540715529449E-4   -4.395405863965974E-1   -1.934260244891092E-1
 1.004678083970000E+10  -2.966335005658986E-1   -3.514759308098469E-1    4.306478283430098E-4   -8.136036087774323E-4    4.858038649983791E-4   -7.905852019574046E-4   -4.399813152012205E-1   -1.927447134349485E-1
 1.004679238062500E+10  -2.973318997679602E-1   -3.510353121243447E-1    3.923314185903087E-4   -7.993147856305379E-4    4.746631710703460E-4   -8.076993826242757E-4   -4.401972765079107E-1   -1.920080864210483E-1
 1.004680392155000E+10  -2.977659870396929E-1   -3.505216960364937E-1    4.034640967133146E-4   -8.177907054234331E-4    5.011422518849286E-4   -7.818854058944811E-4   -4.404563669313837E-1   -1.913640801638142E-1
 1.004681546247500E+10  -2.983406937615574E-1   -3.499599772323769E-1    4.111141461109097E-4   -8.187382120853898E-4    4.431551611312965E-4   -8.044886370914375E-4   -4.407337693801268E-1   -1.904425774720315E-1
 1.004682700340000E+10  -2.988653201399574E-1   -3.495195743995789E-1    3.965067588762546E-4   -8.086371667706613E-4    4.605473528831274E-4   -7.957447960397553E-4   -4.409278518859877E-1   -1.898332474559045E-1
 1.004683854432500E+10  -2.994748586085936E-1   -3.490110601694295E-1    4.035982952917907E-4   -8.067130014448592E-4    4.641720454761057E-4   -7.972646456855351E-4   -4.412711746467265E-1   -1.891232013728847E-1
 1.004685008525000E+10  -3.000122543068063E-1   -3.486259780947215E-1    3.986629233680975E-4   -7.672555289108302E-4    4.966913048470805E-4   -8.106750487636923E-4   -4.415511864538597E-1   -1.883311759354526E-1
 1.004686162617500E+10  -3.006214259821916E-1   -3.479531097897153E-1    4.032533983212689E-4   -8.305809573023412E-4    4.764331729149841E-4   -7.856923225910953E-4   -4.419338361626247E-1   -1.876727248750246E-1
 1.004687316710000E+10  -3.011453876691385E-1   -3.474752867925857E-1    3.867172434746354E-4   -8.072157814148383E-4    4.975733751321308E-4   -7.900912024967680E-4   -4.420459135912548E-1   -1.869216071668375E-1
 1.004688470802500E+10  -3.017002422354057E-1   -3.470596668152504E-1    4.105165628092261E-4   -8.055560593933379E-4    4.571837769948396E-4   -7.994543415558053E-4   -4.425705369022827E-1   -1.865083268239091E-1
 1.004689624895000E+10  -3.022328379806129E-1   -3.463465725874434E-1    3.869870566083316E-4   -7.745342701418919E-4    4.540356051581877E-4   -8.116419348505528E-4   -4.427190104196694E-1   -1.854070069177541E-1
 1.004690778987500E+10  -3.027757005645139E-1   -3.457872703715474E-1    4.293680000379608E-4   -7.781767117848034E-4    4.405813620822351E-4   -7.731069555205390E-4   -4.430223045344780E-1   -1.847744296799549E-1
 1.004691933080000E+10  -3.035259444080021E-1   -3.454652128021499E-1    4.111415633632828E-4   -8.077595195014462E-4    4.588606069623097E-4   -7.865800923979682E-4   -4.432801794523600E-1   -1.840126988031041E-1
 1.004693087172500E+10  -3.041170731433773E-1   -3.448488161976985E-1    3.703592056165859E-4   -7.917842797524585E-4    4.720221267271701E-4   -7.907601606172937E-4   -4.437026420935754E-1   -1.833262105083223E-1
 1.004694241265000E+10  -3.046201240390973E-1   -3.442897649901865E-1    3.843822013075389E-4   -7.930509577911783E-4    4.514683591320231E-4   -7.852073153621757E-4   -4.440033111313772E-1   -1.826504318463557E-1
 1.004695395357500E+10  -3.050193204865589E-1   -3.437888404625389E-1    4.050464235196066E-4   -7.912294181524919E-4    4.728668549679355E-4   -7.587325477264808E-4   -4.441098568843873E-1   -1.819728456555245E-1
 1.004696549450000E+10  -3.056253799205093E-1   -3.433164037688996E-1    3.744407520901241E-4   -7.824958339320516E-4    4.427004783145873E-4   -7.811372334604795E-4   -4.442783170945175E-1   -1.811761867970796E-1
 1.004697703542500E+10  -3.062333158430056E-1   -3.426946119802178E-1    3.710032024313757E-4   -7.906445624954096E-4    4.443144661710033E-4   -7.637566291068213E-4   -4.447453498260561E-1   -1.803601387073534E-1
 1.004698857635000E+10  -3.067293812191206E-1   -3.423411644831096E-1    3.627056099687490E-4   -7.978195144125214E-4    4.280936997969275E-4   -7.638101464913451E-4   -4.450204618721766E-1   -1.797590203086555E-1
 1.004700011727500E+10  -3.074094567215493E-1   -3.417715999748613E-1    3.774790922592521E-4   -7.834671675420641E-4    4.454506039720531E-4   -7.826380347035426E-4   -4.453789412096531E-1   -1.789217423822101E-1
 1.004701165820000E+10  -3.079387641618616E-1   -3.410895388844862E-1    3.858424826745399E-4   -8.105874461205260E-4    4.549483328157195E-4   -7.612757721547009E-4   -4.455292747786043E-1   -1.783408405890982E-1
 1.004702319912500E+10  -3.084661157890725E-1   -3.405943555258855E-1    3.825289441628130E-4   -7.866362948000696E-4    4.471844589250357E-4   -7.623269342235757E-4   -4.457745101451855E-1   -1.775205602534627E-1
 1.004703474005000E+10  -3.089616426929932E-1   -3.400155659046517E-1    3.548325399997937E-4   -7.680301576501964E-4    4.382389027194239E-4   -7.490059592511719E-4   -4.461096776529174E-1   -1.766811733014745E-1
 1.004704628097500E+10  -3.094102908777743E-1   -3.396400678765390E-1    3.627404461130781E-4   -7.671981122539747E-4    4.234836122306958E-4   -7.574152048235220E-4   -4.463012429605484E-1   -1.761128945830147E-1
 1.004705782190000E+10  -3.099917784251141E-1   -3.389863190107326E-1    3.704878527541209E-4   -7.544945659984304E-4    4.451082529395588E-4   -7.736504498897427E-4   -4.464806536535349E-1   -1.752494113527263E-1
 1.004706936282500E+10  -3.106602472335392E-1   -3.385851770082147E-1    3.516346180361813E-4   -7.640313856533914E-4    4.406323629963555E-4   -7.769215447513229E-4   -4.468323918974832E-1   -1.744945795851670E-1
 1.004708090375000E+10  -3.111929508387438E-1   -3.379303977793124E-1    3.582951746681483E-4   -7.781991761188771E-4    4.499896463699890E-4   -7.423960758680375E-4   -4.472855515573241E-1   -1.738100219251621E-1
 1.004709244467500E+10  -3.115571632368865E-1   -3.373609086579818E-1    3.447179362200888E-4   -7.518126512777771E-4    4.352295267834771E-4   -7.241727346650016E-4   -4.474016466190271E-1   -1.730598470170836E-1
 1.004710398560000E+10  -3.122239721012555E-1   -3.368324103775606E-1    3.508959284792132E-4   -7.668221764150940E-4    4.335882369986926E-4   -7.452376013634205E-4   -4.476275758984935E-1   -1.722403622358367E-1
 1.004711552652500E+10  -3.127968365990563E-1   -3.363542389887120E-1    3.477587331296429E-4   -7.481692330502537E-4    4.352632926409741E-4   -7.355686195202609E-4   -4.478981331200679E-1   -1.715820831836943E-1
 1.004712706745000E+10  -3.132596770307690E-1   -3.358028522698842E-1    3.422113513016867E-4   -7.561672839744634E-4    4.212106215810138E-4   -7.431575911542485E-4   -4.480861247164379E-1   -1.708265529004842E-1
 1.004713860837500E+10  -3.137828413491746E-1   -3.353198573250610E-1    3.667187400545027E-4   -7.483387084684850E-4    4.266518691884801E-4   -7.510882782781620E-4   -4.484421711557443E-1   -1.701273158569736E-1
 1.004715014930000E+10  -3.144980388439875E-1   -3.347099317895112E-1    3.316197745524420E-4   -7.239091083924337E-4    3.938373393849963E-4   -7.061324896106238E-4   -4.487362362172643E-1   -1.693654048898875E-1
 1.004716169022500E+10  -3.148861894190088E-1   -3.340001328767759E-1    3.427600374013214E-4   -7.512896413531741E-4    4.424241358574863E-4   -7.339399887465478E-4   -4.489311937269315E-1   -1.685922237984976E-1
 1.004717323115000E+10  -3.154451991976201E-1   -3.336436996534664E-1    3.558390624249792E-4   -7.474849865441864E-4    4.022501575392037E-4   -7.282212471424546E-4   -4.491458408102886E-1   -1.677553929520026E-1
 1.004718477207500E+10  -3.159829101859176E-1   -3.330655171078932E-1    3.445810825076658E-4   -7.488237904298433E-4    4.273056598597798E-4   -7.138355567017176E-4   -4.494106433433755E-1   -1.669747392266010E-1
 1.004719631300000E+10  -3.166253613098450E-1   -3.326873506595322E-1    3.508870404710640E-4   -7.722631591289764E-4    4.010070282567485E-4   -7.537522575336151E-4   -4.496479482955200E-1   -1.662658268032996E-1
 1.004720785392500E+10  -3.170955629603455E-1   -3.320751352835856E-1    3.442691044286478E-4   -7.239684748446866E-4    4.041929003515111E-4   -7.329463280791626E-4   -4.499275764559619E-1   -1.656016645648888E-1
 1.004721939485000E+10  -3.175884093379637E-1   -3.314202842117681E-1    3.704185929541578E-4   -7.303526867670144E-4    4.086241712626742E-4   -7.142721735601997E-4   -4.503539248237916E-1   -1.647712804422228E-1
 1.004723093577500E+10  -3.180384344503475E-1   -3.309376499585131E-1    3.507226458108003E-4   -7.309334758048653E-4    4.075774795317646E-4   -7.302246264969161E-4   -4.505089076004227E-1   -1.641411439961702E-1
 1.004724247670000E+10  -3.187529523494891E-1   -3.304524110270796E-1    3.354334492042944E-4   -7.274163906124848E-4    3.831591189754764E-4   -7.142605258309652E-4   -4.506802300608550E-1   -1.633180857063822E-1
 1.004725401762500E+10  -3.192665697691522E-1   -3.298662387717032E-1    3.371139663118543E-4   -7.325635813321281E-4    3.714456587110604E-4   -6.996463423675784E-4   -4.509950023549618E-1   -1.625898323962271E-1
 1.004726555855000E+10  -3.197424217040571E-1   -3.293495847224797E-1    3.224608933656116E-4   -7.330934087826874E-4    3.791495175783271E-4   -7.256305434950695E-4   -4.512369509203020E-1   -1.618405772103451E-1
 1.004727709947500E+10  -3.203358710734207E-1   -3.287809106738763E-1    3.640849002341932E-4   -7.207743118650124E-4    3.798673219556127E-4   -7.140681735985451E-4   -4.515791193243667E-1   -1.612116224834038E-1
 1.004728864040000E+10  -3.207018415239452E-1   -3.282709332280206E-1    3.492355288298917E-4   -7.220696349344158E-4    3.818279393764084E-4   -7.110794935003250E-4   -4.516467457834026E-1   -1.604361706911189E-1
 1.004730018132500E+10  -3.213263949116650E-1   -3.276757409007288E-1    3.428992887983064E-4   -7.060789047112728E-4    3.834951181535805E-4   -7.285380634169329E-4   -4.518303810219814E-1   -1.596342303081620E-1
 1.004731172225000E+10  -3.217414824502423E-1   -3.271413271759168E-1    3.303123855827551E-4   -7.189359250426085E-4    3.830430809119059E-4   -6.909356607978481E-4   -4.520925046064008E-1   -1.588447435708165E-1
 1.004732326317500E+10  -3.222844744702235E-1   -3.265189539220267E-1    3.263410521500561E-4   -6.966488134047025E-4    4.152453337771217E-4   -7.147138039344763E-4   -4.522825981226657E-1   -1.581522971538800E-1
 1.004733480410000E+10  -3.229569825588152E-1   -3.259679977207841E-1    3.271579253940690E-4   -6.910705642195257E-4    4.073506391232768E-4   -6.786963559558214E-4   -4.526070434046122E-1   -1.574012206407674E-1
 1.004734634502500E+10  -3.233584159549394E-1   -3.255046549544991E-1    3.490565533644688E-4   -6.882925598226016E-4    3.777748097115352E-4   -6.937777946584887E-4   -4.529019504240227E-1   -1.566487993825185E-1
 1.004735788595000E+10  -3.239463408169553E-1   -3.248726059104930E-1    3.036493583795140E-4   -7.001703556306098E-4    3.631257436963915E-4   -7.104971823089244E-4   -4.530303731187078E-1   -1.557828886518772E-1
 1.004736942687500E+10  -3.243347152496360E-1   -3.243282021940068E-1    3.145889775824336E-4   -6.745452027790783E-4    3.749325298812721E-4   -6.882049950301416E-4   -4.534427827990986E-1   -1.549102685452250E-1
 1.004738096780000E+10  -3.249788421381711E-1   -3.238443829717425E-1    3.248801018342361E-4   -6.982964301117931E-4    3.432488640262428E-4   -6.748569917641437E-4   -4.536066361920761E-1   -1.542545412481033E-1
 1.004739250872500E+10  -3.255388539511228E-1   -3.233099243991365E-1    3.079568503082507E-4   -6.980959285764508E-4    3.718994976779101E-4   -6.702681003679983E-4   -4.538405901323905E-1   -1.535694276447245E-1
 1.004740404965000E+10  -3.260391534145466E-1   -3.227375777354075E-1    3.066333262296294E-4   -6.715253925782144E-4    3.815399443137182E-4   -6.574168194598537E-4   -4.540085378178921E-1   -1.528878561692282E-1
 1.004741559057500E+10  -3.265706362623519E-1   -3.221387358601296E-1    3.148015126389079E-4   -6.599101624487516E-4    3.761620404381115E-4   -6.517448504445044E-4   -4.542132532737229E-1   -1.519896749741448E-1
 1.004742713150000E+10  -3.269437745871392E-1   -3.215295403995069E-1    3.073021387402169E-4   -6.694843922324642E-4    3.747574317306003E-4   -6.431457595298604E-4   -4.544683249293746E-1   -1.513498575134092E-1
 1.004743867242500E+10  -3.275325797629885E-1   -3.210093847372129E-1    3.277306959998728E-4   -6.504647233515683E-4    3.598546883314331E-4   -6.697284409047459E-4   -4.546198435620978E-1   -1.503840963117442E-1
 1.004745021335000E+10  -3.280917725425301E-1   -3.204479159041673E-1    3.085150402203100E-4   -6.360049094831045E-4    3.710073333306199E-4   -6.529704234959916E-4   -4.548889520775337E-1   -1.496157067949731E-1
 1.004746175427500E+10  -3.286905132388690E-1   -3.198500776196112E-1    3.324464290914130E-4   -6.598888658523810E-4    3.440380942668332E-4   -6.579745229227511E-4   -4.552324029893318E-1   -1.489319153720307E-1
 1.004747329520000E+10  -3.290820228666989E-1   -3.192646713185187E-1    2.859538878011495E-4   -6.544160299466378E-4    3.533977020932095E-4   -6.295944864000815E-4   -4.555129363342152E-1   -1.481684816858881E-1
 1.004748483612500E+10  -3.296042756438001E-1   -3.187146020216433E-1    3.311921159975744E-4   -6.723522815079488E-4    3.542576412966039E-4   -6.410336691509068E-4   -4.556335105430599E-1   -1.474406293959286E-1
 1.004749637705000E+10  -3.301217192675741E-1   -3.180455536067198E-1    2.685673307258842E-4   -6.464198342852633E-4    3.401964878140517E-4   -6.090700901067600E-4   -4.557021445585575E-1   -1.466494610893289E-1
 1.004750791797500E+10  -3.306019734278610E-1   -3.176363534027963E-1    3.110338300952073E-4   -6.654209205597256E-4    3.578677869764112E-4   -6.296313145934423E-4   -4.559265058290786E-1   -1.459512669766382E-1
 1.004751945890000E+10  -3.311508767525827E-1   -3.171179591194644E-1    3.083671646518982E-4   -6.316847004578314E-4    3.466287322802651E-4   -6.039793170471569E-4   -4.562394535242582E-1   -1.450706236042436E-1
 1.004753099982500E+10  -3.315761804349124E-1   -3.163982075903284E-1    2.993867505926356E-4   -6.406303964076558E-4    3.244989632180318E-4   -6.388939711260964E-4   -4.564314882376377E-1   -1.443854865377689E-1
 1.004754254075000E+10  -3.321829505679122E-1   -3.160016242678492E-1    2.856775538544307E-4   -6.443384336900173E-4    3.358254520079994E-4   -6.254962190095473E-4   -4.566274163002184E-1   -1.434910825668221E-1
 1.004755408167500E+10  -3.326767307416283E-1   -3.153360038498357E-1    3.283899242086852E-4   -5.982131811079634E-4    3.257572091093232E-4   -6.045822991373038E-4   -4.568430884938516E-1   -1.427835397541662E-1
 1.004756562260000E+10  -3.332069160425087E-1   -3.148782650297127E-1    2.771972371410311E-4   -6.325188746214858E-4    3.564384585294617E-4   -5.944444769183530E-4   -4.572609941716068E-1   -1.419209863688526E-1
 1.004757716352500E+10  -3.337088312377696E-1   -3.141054164279966E-1    3.116864765474100E-4   -6.047293282962724E-4    3.361481409118258E-4   -6.000328442044371E-4   -4.572942196064290E-1   -1.410605369572901E-1
 1.004758870445000E+10  -3.341756774378528E-1   -3.136254950449102E-1    3.068335271145345E-4   -6.003366781421428E-4    3.327674157496072E-4   -5.941101409722662E-4   -4.575659594610891E-1   -1.405776171121580E-1
 1.004760024537500E+10  -3.347249619374159E-1   -3.131286215189186E-1    2.978409832133148E-4   -5.876891603601121E-4    3.058631762491201E-4   -5.685229500174969E-4   -4.576807400478264E-1   -1.397329825356490E-1
 1.004761178630000E+10  -3.353096630010884E-1   -3.125032897092567E-1    2.794594096184185E-4   -5.975690033546858E-4    3.547871090924092E-4   -6.247877848670656E-4   -4.579221410058927E-1   -1.389442796402714E-1
 1.004762332722500E+10  -3.357012845436795E-1   -3.119365498370804E-1    2.756052162964374E-4   -5.987382848958937E-4    3.300088976246019E-4   -5.827715258018034E-4   -4.581149310059847E-1   -1.379803543993880E-1
 1.004763486815000E+10  -3.361058241890013E-1   -3.113579777009815E-1    2.679694757096163E-4   -5.690075024150676E-4    3.073079663361255E-4   -5.667213802591482E-4   -4.583032341811716E-1   -1.373542083063296E-1
 1.004764640907500E+10  -3.367188848188033E-1   -3.107475370733664E-1    2.808367822536449E-4   -5.607212453952609E-4    3.197779744266938E-4   -6.045768556733644E-4   -4.585667608894465E-1   -1.364944616810241E-1
 1.004765795000000E+10  -3.371193572704699E-1   -3.102885365126997E-1    2.898618739053995E-4   -5.819290731467137E-4    2.971959527533978E-4   -5.638658691542132E-4   -4.585721991826248E-1   -1.356709601265150E-1
 1.004766949092500E+10  -3.377990138108618E-1   -3.095440986836023E-1    2.816479676243137E-4   -5.927060975937995E-4    3.132235876453465E-4   -5.746139923102051E-4   -4.589326775241098E-1   -1.349992101905259E-1
 1.004768103185000E+10  -3.382382049790836E-1   -3.089681456570116E-1    2.930143118898243E-4   -5.529111165039092E-4    3.195124832217777E-4   -5.481865131580240E-4   -4.590645910640509E-1   -1.341156559829799E-1
 1.004769257277500E+10  -3.386293296890883E-1   -3.085019909504260E-1    2.662894579625499E-4   -5.782140784236640E-4    3.161097146301708E-4   -5.571608229702833E-4   -4.593530207278633E-1   -1.333542701683831E-1
 1.004770411370000E+10  -3.391696712782614E-1   -3.079785344276975E-1    2.880221893369419E-4   -5.681326810059068E-4    3.111333237319848E-4   -5.593101018075682E-4   -4.595205861130958E-1   -1.323975915067117E-1
 1.004771565462500E+10  -3.396891261138474E-1   -3.072511620336566E-1    2.760485820285876E-4   -5.441032208959714E-4    3.253915909738911E-4   -5.518230162597515E-4   -4.596437665501501E-1   -1.317380297138055E-1
 1.004772719555000E+10  -3.400142062742890E-1   -3.067912314158001E-1    2.979345778267950E-4   -5.476359327776294E-4    3.066095768892118E-4   -5.265062355320197E-4   -4.598375875809214E-1   -1.309296138806287E-1
 1.004773873647500E+10  -3.406199478984789E-1   -3.061769020142969E-1    2.777774349164779E-4   -5.303658897679338E-4    2.926944618699919E-4   -4.977010830862754E-4   -4.602521882752504E-1   -1.301111821103023E-1
 1.004775027740000E+10  -3.411532036870213E-1   -3.054932627994470E-1    2.768101057195487E-4   -5.320733040111525E-4    3.003962714134222E-4   -5.189165461608212E-4   -4.602439829086044E-1   -1.294525280635537E-1
 1.004776181832500E+10  -3.416320969431126E-1   -3.049298708944219E-1    2.643260122774047E-4   -5.271532699632306E-4    2.921666454797157E-4   -5.076053866642027E-4   -4.603359692348892E-1   -1.285273149990873E-1
 1.004777335925000E+10  -3.421558600850352E-1   -3.045241175768350E-1    2.680887618944688E-4   -5.073854470855053E-4    3.159518182856562E-4   -4.949869773486333E-4   -4.605833702381354E-1   -1.276459942667641E-1
