#  HZ   S   RI   R     50.00 
! Rohde & Schwarz Vector Network Analyzer 
! Rohde-Schwarz,ZNB20-2Port,1311601062101988,3.16
! Created: UTC 3/21/2024, 1:09:17 AM
! freq[Hz]                re:S11                  im:S11                  re:S21                  im:S21                  re:S12                  im:S12                  re:S22                  im:S22
 1.004695094600000E+10  -3.041188858827207E-1   -3.445707581680668E-1    3.649283294270695E-4   -8.092838692543198E-4    4.640416694811767E-4   -7.909097105098926E-4   -4.436881323230022E-1   -1.827751950945758E-1
 1.004696165905000E+10  -3.046415923934248E-1   -3.441438641802562E-1    3.863966324798856E-4   -7.987319948611960E-4    4.320396512977742E-4   -8.041582741388512E-4   -4.441071612328610E-1   -1.823478248813320E-1
 1.004697237210000E+10  -3.051408839419353E-1   -3.437265196274387E-1    4.211505050739223E-4   -7.821959729580869E-4    4.556119635048437E-4   -7.975113163714856E-4   -4.441575886195021E-1   -1.816574665487133E-1
 1.004698308515000E+10  -3.057635872694636E-1   -3.430258256707388E-1    3.715706324363110E-4   -8.160151326427884E-4    4.663440117398194E-4   -7.874734863899689E-4   -4.444620456572830E-1   -1.809447253220308E-1
 1.004699379820000E+10  -3.062104214576228E-1   -3.426475706088731E-1    4.074581269927177E-4   -8.022496778415766E-4    4.399204521055142E-4   -8.018616022197005E-4   -4.447501371053344E-1   -1.802573398097451E-1
 1.004700451125000E+10  -3.067118672211939E-1   -3.420859194258830E-1    3.930586246723787E-4   -8.196554235001884E-4    4.517586267572587E-4   -7.844693135459465E-4   -4.448856084350585E-1   -1.795126182909381E-1
 1.004701522430000E+10  -3.071752034794538E-1   -3.415204257580018E-1    3.770443358256904E-4   -7.890944836964454E-4    4.589457207682160E-4   -7.736073572846619E-4   -4.452262282130234E-1   -1.788150493978868E-1
 1.004702593735000E+10  -3.077373897963623E-1   -3.411948276629415E-1    3.848810073615925E-4   -7.996217727459122E-4    4.522388611377948E-4   -7.697923595356026E-4   -4.455997930775813E-1   -1.781296751435510E-1
 1.004703665040000E+10  -3.082719599605140E-1   -3.407079311788399E-1    3.682360195227987E-4   -8.133697470339416E-4    4.307804343853492E-4   -7.913520246617978E-4   -4.457868394755709E-1   -1.774400052927923E-1
 1.004704736345000E+10  -3.086674862781685E-1   -3.401401832425479E-1    3.869409743754163E-4   -8.023393127188241E-4    4.529338830064812E-4   -7.693076108656663E-4   -4.460201292842957E-1   -1.768392962163372E-1
 1.004705807650000E+10  -3.092731605894559E-1   -3.396045179280027E-1    3.655898219666718E-4   -7.977843815432399E-4    4.248520667071263E-4   -8.011291425317026E-4   -4.461122792089702E-1   -1.760012749617999E-1
 1.004706878955000E+10  -3.096632831270049E-1   -3.391258933999348E-1    3.727496074075825E-4   -7.765637751536169E-4    4.502529933807763E-4   -7.649758601422973E-4   -4.464693308126605E-1   -1.755301875811220E-1
 1.004707950260000E+10  -3.101543218270777E-1   -3.386630502577673E-1    3.816755510840848E-4   -7.829248139867096E-4    4.547009814145970E-4   -7.974769749911467E-4   -4.466994612580705E-1   -1.748012235241073E-1
 1.004709021565000E+10  -3.108983965689835E-1   -3.381469197821146E-1    3.380830516890701E-4   -7.924922067331006E-4    4.146512660299125E-4   -7.530881154717976E-4   -4.469652725454932E-1   -1.740910003630057E-1
 1.004710092870000E+10  -3.113651639539458E-1   -3.377433216924339E-1    3.636286593453749E-4   -7.949723620523466E-4    4.443295073742388E-4   -7.472179450717331E-4   -4.472488624721541E-1   -1.733992739468697E-1
 1.004711164175000E+10  -3.117783146246344E-1   -3.372997764239850E-1    3.532822870267494E-4   -7.841882375454324E-4    4.124789273926234E-4   -7.826043221278921E-4   -4.475673481821884E-1   -1.727494335916021E-1
 1.004712235480000E+10  -3.124400664850986E-1   -3.367702660440336E-1    3.687729101922527E-4   -7.845401829923517E-4    3.926701301619283E-4   -7.771503758392582E-4   -4.477246907653654E-1   -1.719809834244514E-1
 1.004713306785000E+10  -3.128603310513264E-1   -3.362903514578257E-1    3.430920883975246E-4   -7.875939626867973E-4    4.462362812073682E-4   -7.536125320670057E-4   -4.479980463793723E-1   -1.713815332496051E-1
 1.004714378090000E+10  -3.133161321225912E-1   -3.356406652761933E-1    3.900269962567918E-4   -7.799583972307716E-4    4.143587679076137E-4   -7.531725510872290E-4   -4.480413907545097E-1   -1.707117005459835E-1
 1.004715449395000E+10  -3.138756811127908E-1   -3.351681896859214E-1    3.692931373321355E-4   -7.777999026065115E-4    4.284975808588253E-4   -7.797479681040143E-4   -4.485422833486855E-1   -1.700048603348886E-1
 1.004716520700000E+10  -3.143611920018904E-1   -3.347689808460068E-1    3.611721840158868E-4   -7.653987494936028E-4    4.251039259488386E-4   -7.386555836219488E-4   -4.486275052184157E-1   -1.692559554535063E-1
 1.004717592005000E+10  -3.148299823143582E-1   -3.340912009276496E-1    3.226884249654988E-4   -7.830103777199405E-4    4.016606388580524E-4   -7.364062845159272E-4   -4.488965057379359E-1   -1.685811744060567E-1
 1.004718663310000E+10  -3.152961160344150E-1   -3.337145948684234E-1    3.591993297195369E-4   -7.557819584818732E-4    3.984053842368844E-4   -7.565589985534335E-4   -4.491982014288394E-1   -1.679175674711209E-1
 1.004719734615000E+10  -3.158123071520337E-1   -3.331625519611795E-1    3.773108785084544E-4   -7.574291460497978E-4    3.990605627401066E-4   -7.528975318660991E-4   -4.493296079298135E-1   -1.672517148011645E-1
 1.004720805920000E+10  -3.164203160157440E-1   -3.326571516049878E-1    3.634804469719702E-4   -7.487255609593277E-4    4.557917907107900E-4   -7.308239615688736E-4   -4.497174388568997E-1   -1.665396524602276E-1
 1.004721877225000E+10  -3.168341163928974E-1   -3.320500752508463E-1    3.536255231953922E-4   -7.374029784550521E-4    4.216203651293561E-4   -7.550284279346990E-4   -4.497752781560726E-1   -1.656965327122953E-1
 1.004722948530000E+10  -3.173705667128905E-1   -3.317215788333149E-1    3.589997443890027E-4   -7.304358286843351E-4    3.956666204376574E-4   -7.422395243114648E-4   -4.501044268637457E-1   -1.651612873623575E-1
 1.004724019835000E+10  -3.177989190424892E-1   -3.311867381612244E-1    3.615967266838077E-4   -7.459162187297243E-4    3.904335963765880E-4   -7.283901073709867E-4   -4.503332531179970E-1   -1.645284618354147E-1
 1.004725091140000E+10  -3.182257298158164E-1   -3.305976099592248E-1    3.445339340411308E-4   -7.390939352697255E-4    4.081790509900864E-4   -7.458493124386828E-4   -4.506162327548185E-1   -1.637584721907928E-1
 1.004726162445000E+10  -3.187934721167066E-1   -3.301128231536000E-1    3.298311486696421E-4   -7.547435577620380E-4    4.004965698487231E-4   -7.364023221478487E-4   -4.508244214519297E-1   -1.630631539379044E-1
 1.004727233750000E+10  -3.193004627102484E-1   -3.296504660462714E-1    3.496279326236233E-4   -7.206495596761991E-4    3.613458055010282E-4   -7.490402905562683E-4   -4.509306389159186E-1   -1.622784087415747E-1
 1.004728305055000E+10  -3.198450248210982E-1   -3.291418881619608E-1    3.472069211186000E-4   -7.279253336945889E-4    4.101699696769448E-4   -7.356835637398147E-4   -4.511998079611293E-1   -1.616561644458021E-1
 1.004729376360000E+10  -3.202357137805245E-1   -3.286687633641219E-1    3.255134341176708E-4   -7.071225575777891E-4    3.861870892660439E-4   -7.186331622408752E-4   -4.514079387709866E-1   -1.609970064983575E-1
 1.004730447665000E+10  -3.207121110512273E-1   -3.281357882926347E-1    3.244266051507628E-4   -7.633869050773586E-4    3.824947663864536E-4   -7.075688159243707E-4   -4.517978701980601E-1   -1.601642760976607E-1
 1.004731518970000E+10  -3.212649291899659E-1   -3.275279789764324E-1    3.369238957896593E-4   -7.469023436627860E-4    3.705195883211804E-4   -7.094276360207904E-4   -4.519747555891305E-1   -1.595886916778729E-1
 1.004732590275000E+10  -3.216673000777477E-1   -3.269893048768445E-1    3.407181431508117E-4   -7.212484823038306E-4    3.776155515424769E-4   -7.362776398635385E-4   -4.522141424494822E-1   -1.588889252340965E-1
 1.004733661580000E+10  -3.220914311456449E-1   -3.264930054189504E-1    3.032879446736921E-4   -7.422242799516934E-4    3.673501359670857E-4   -6.958366094217114E-4   -4.523727900479462E-1   -1.581731643860481E-1
 1.004734732885000E+10  -3.227587941581893E-1   -3.260351454852049E-1    3.145820079370082E-4   -7.346750095991378E-4    3.900445642153613E-4   -7.224336264385612E-4   -4.524127257124438E-1   -1.574695378146976E-1
 1.004735804190000E+10  -3.230757583080913E-1   -3.255012601573206E-1    3.374185266225131E-4   -7.277488864369665E-4    3.788451417880894E-4   -7.226033449924252E-4   -4.526853582619426E-1   -1.567678221364772E-1
 1.004736875495000E+10  -3.235950157602854E-1   -3.249512239133082E-1    3.064813918104134E-4   -6.912516225405630E-4    3.642611039137300E-4   -7.112665337276756E-4   -4.530760097851537E-1   -1.561319753985859E-1
 1.004737946800000E+10  -3.241311621940524E-1   -3.244869661961980E-1    3.513309522822118E-4   -7.288107286165080E-4    3.630255759684578E-4   -7.254602172610665E-4   -4.533252980307275E-1   -1.553659048423042E-1
 1.004739018105000E+10  -3.246604746346516E-1   -3.238896033150266E-1    3.078868324201094E-4   -7.030879805453067E-4    3.873076669080114E-4   -6.989463813455353E-4   -4.534345563239364E-1   -1.546338072788137E-1
 1.004740089410000E+10  -3.252612689228541E-1   -3.235662141478336E-1    3.225676375491421E-4   -7.336581936093831E-4    3.831372543236338E-4   -7.026064825039496E-4   -4.536786177273638E-1   -1.540354137106284E-1
 1.004741160715000E+10  -3.256853030586829E-1   -3.229493768037755E-1    3.256310771870668E-4   -7.009265984218391E-4    3.532468199976082E-4   -6.947795752527630E-4   -4.539073096229603E-1   -1.533325475684920E-1
 1.004742232020000E+10  -3.261062704275032E-1   -3.224815666208765E-1    3.345973762487828E-4   -7.000965443945670E-4    3.580359763652673E-4   -7.005504110237176E-4   -4.541624403424596E-1   -1.526386111779429E-1
 1.004743303325000E+10  -3.265381263343729E-1   -3.219857815642703E-1    3.078040400357891E-4   -6.899385880448730E-4    3.689825086578252E-4   -6.821438700456085E-4   -4.542045426927200E-1   -1.517515734054635E-1
 1.004744374630000E+10  -3.271673773367825E-1   -3.213496854740428E-1    3.254893267038487E-4   -6.956829306536993E-4    3.958420118367014E-4   -7.001369490346968E-4   -4.544631577689948E-1   -1.512430551659022E-1
 1.004745445935000E+10  -3.276030272951512E-1   -3.209614104644176E-1    3.440848392530377E-4   -7.016299785646247E-4    3.368745246067233E-4   -6.831334240597498E-4   -4.546746469299648E-1   -1.503522465459651E-1
 1.004746517240000E+10  -3.279919702463823E-1   -3.203507403037354E-1    3.102284963250950E-4   -7.015281842502254E-4    3.796572910255321E-4   -6.972105869608615E-4   -4.549287336871392E-1   -1.497144096760201E-1
 1.004747588545000E+10  -3.284524924714658E-1   -3.198900472358497E-1    2.999189776675045E-4   -6.724048489663561E-4    3.762974957701125E-4   -6.707713623617951E-4   -4.550163934627335E-1   -1.491060902032683E-1
 1.004748659850000E+10  -3.290239226101456E-1   -3.191808992152673E-1    3.178331459665903E-4   -7.050632613608091E-4    3.809859242122800E-4   -6.629322530197119E-4   -4.553331526755768E-1   -1.484038189796373E-1
 1.004749731155000E+10  -3.294094913930044E-1   -3.188295556868852E-1    3.026182968739040E-4   -6.750793592110667E-4    3.453208841664521E-4   -6.599226703842174E-4   -4.555724607785447E-1   -1.476805462763867E-1
 1.004750802460000E+10  -3.298775039689922E-1   -3.183040828555959E-1    2.880212893023774E-4   -6.942557642056240E-4    3.376972747331894E-4   -6.578059680800729E-4   -4.557261801643194E-1   -1.467932108032974E-1
 1.004751873765000E+10  -3.304625967114988E-1   -3.177777107039684E-1    3.061214836215480E-4   -6.536284622794286E-4    3.650570288457109E-4   -6.683641147787903E-4   -4.559491610741693E-1   -1.461763101615487E-1
 1.004752945070000E+10  -3.309181094184176E-1   -3.170735690488966E-1    3.175096477283787E-4   -6.853280385353169E-4    3.560129899984529E-4   -6.438249588950155E-4   -4.561147130658237E-1   -1.453656077284612E-1
 1.004754016375000E+10  -3.313921248906054E-1   -3.167373968229074E-1    2.947057929560443E-4   -6.673161412974010E-4    3.131553549759185E-4   -6.512796907118857E-4   -4.563092164128644E-1   -1.448711151924308E-1
 1.004755087680000E+10  -3.318956285885674E-1   -3.161950673814118E-1    3.069982655431417E-4   -6.859453279011848E-4    3.660497677344205E-4   -6.406632343844126E-4   -4.565084318941238E-1   -1.440208785727521E-1
 1.004756158985000E+10  -3.323284522090967E-1   -3.157522219969336E-1    3.024811171850965E-4   -6.771952004043723E-4    3.611108276896573E-4   -6.108505362296271E-4   -4.566063364328934E-1   -1.433552978884299E-1
 1.004757230290000E+10  -3.327965976996275E-1   -3.152193751874416E-1    2.981449193581694E-4   -6.453527308875591E-4    3.572344647480888E-4   -6.395639038143646E-4   -4.568561650417108E-1   -1.425923434393804E-1
 1.004758301595000E+10  -3.331797439278308E-1   -3.146385785625729E-1    3.145468176712766E-4   -6.431227944538582E-4    3.441527509820188E-4   -6.130441848364417E-4   -4.571008371749816E-1   -1.418499609089730E-1
 1.004759372900000E+10  -3.337181250646599E-1   -3.139551284446910E-1    2.851218603358290E-4   -6.254512469149943E-4    3.360909398007474E-4   -6.577485653185265E-4   -4.571993991146049E-1   -1.410293403760690E-1
 1.004760444205000E+10  -3.341176589668644E-1   -3.135678752329117E-1    2.921993830177986E-4   -6.282337799328251E-4    3.309224161633524E-4   -6.195752948734296E-4   -4.575122201768242E-1   -1.404791081513754E-1
 1.004761515510000E+10  -3.346047530453399E-1   -3.130932639351571E-1    2.746661323529680E-4   -6.234588905621721E-4    3.286266992093912E-4   -6.202998445434901E-4   -4.577781270235336E-1   -1.397498234383119E-1
 1.004762586815000E+10  -3.350333632657877E-1   -3.125979476246630E-1    2.767786158312035E-4   -6.332975444952682E-4    3.373659762624726E-4   -5.983896983664507E-4   -4.579198822801172E-1   -1.389552787904837E-1
 1.004763658120000E+10  -3.354795556346751E-1   -3.118704626793143E-1    2.996772864015400E-4   -6.351302944448649E-4    3.279736193359068E-4   -6.221471827654287E-4   -4.581762441401824E-1   -1.383403848974293E-1
 1.004764729425000E+10  -3.361271892988879E-1   -3.113991495200922E-1    2.653137728029179E-4   -6.176867558845491E-4    3.056125478847574E-4   -5.813225823651899E-4   -4.581487399201433E-1   -1.374799999508269E-1
 1.004765800730000E+10  -3.364441353857637E-1   -3.108773776998635E-1    2.965574474734137E-4   -6.080332880186574E-4    3.217054169062397E-4   -5.961272169491813E-4   -4.584374533856302E-1   -1.368661003186280E-1
 1.004766872035000E+10  -3.370085041066053E-1   -3.104551097206270E-1    2.777525443830436E-4   -6.151255648236862E-4    3.262449709941624E-4   -5.927724729830325E-4   -4.586667411128869E-1   -1.361453362119849E-1
 1.004767943340000E+10  -3.373844178338934E-1   -3.097462179643893E-1    2.817428133181415E-4   -5.886630854664034E-4    2.893251944890973E-4   -5.812349765814221E-4   -4.587996545418231E-1   -1.353680864124134E-1
 1.004769014645000E+10  -3.379411561583446E-1   -3.092859777613445E-1    2.776079859997135E-4   -5.969728201850033E-4    3.404272854119031E-4   -6.057892579498504E-4   -4.589912669267034E-1   -1.345069409474326E-1
 1.004770085950000E+10  -3.383802099721182E-1   -3.087955490498658E-1    2.677480680429276E-4   -5.897312123716132E-4    3.118016201561793E-4   -5.965191715552985E-4   -4.592220700315756E-1   -1.339871663908160E-1
 1.004771157255000E+10  -3.388168474275269E-1   -3.081185192183238E-1    2.699637859359992E-4   -5.930674880046082E-4    3.332529904967176E-4   -5.605583761544542E-4   -4.595435842569025E-1   -1.332755317113520E-1
 1.004772228560000E+10  -3.391015446875915E-1   -3.076414618079338E-1    2.816980262014889E-4   -5.808110621541372E-4    3.108118025519533E-4   -5.686033873326991E-4   -4.595219648600863E-1   -1.325162684449230E-1
 1.004773299865000E+10  -3.396262034721446E-1   -3.071627982652189E-1    2.728026094810213E-4   -5.662324622585451E-4    3.136253685827560E-4   -5.707432347022989E-4   -4.597149831536205E-1   -1.317616017663088E-1
 1.004774371170000E+10  -3.401205371258729E-1   -3.066404756841896E-1    2.704990153569066E-4   -5.771646340249775E-4    3.017264757057485E-4   -5.628335268797620E-4   -4.599416363587852E-1   -1.310205024129345E-1
 1.004775442475000E+10  -3.406120319634534E-1   -3.060323846297905E-1    2.947133504552320E-4   -5.310404545817005E-4    3.124167809288306E-4   -5.338492475381866E-4   -4.602128977198221E-1   -1.302371374788333E-1
 1.004776513780000E+10  -3.411320781282768E-1   -3.054697258553709E-1    2.476171828593824E-4   -5.409692191455933E-4    3.212189857007239E-4   -5.342404865465423E-4   -4.601800224513450E-1   -1.293243212579023E-1
 1.004777585085000E+10  -3.416055763903973E-1   -3.050018767641612E-1    2.627720938969045E-4   -5.610630529492626E-4    3.204452922408922E-4   -5.545572003142019E-4   -4.602845467784160E-1   -1.287786232731830E-1
 1.004778656390000E+10  -3.419415031790130E-1   -3.044425086321080E-1    2.715953365256843E-4   -5.755781380791771E-4    3.036987278034296E-4   -5.384662019135336E-4   -4.605348524172405E-1   -1.281696737104625E-1
 1.004779727695000E+10  -3.424632770371848E-1   -3.039368021702058E-1    2.663974368375287E-4   -5.354191453253081E-4    2.904657077153825E-4   -5.372588510834340E-4   -4.609905194025811E-1   -1.272838373395800E-1
 1.004780799000000E+10  -3.428711161166285E-1   -3.032378746033537E-1    2.567038793857655E-4   -5.236009723905672E-4    3.253013321419508E-4   -5.065506381943760E-4   -4.609824048646736E-1   -1.264343504737523E-1
 1.004781870305000E+10  -3.434812381900596E-1   -3.027396873852705E-1    2.609771437414481E-4   -4.958158419089213E-4    3.051583990947136E-4   -5.267553560712575E-4   -4.611205468131260E-1   -1.257622699895524E-1
 1.004782941610000E+10  -3.437451662523784E-1   -3.021116704667275E-1    2.770889262542251E-4   -5.012129886362265E-4    3.045584495304083E-4   -5.204829643816549E-4   -4.612664388533169E-1   -1.249504504849514E-1
 1.004784012915000E+10  -3.442963804413839E-1   -3.016795473393344E-1    2.621905770458627E-4   -5.207143947759497E-4    2.984897924578481E-4   -5.269066864581623E-4   -4.614333057072232E-1   -1.242581767119301E-1
 1.004785084220000E+10  -3.445942919594087E-1   -3.009552092227435E-1    2.559055572107344E-4   -5.050784645366493E-4    3.068691841400912E-4   -5.230022767740418E-4   -4.616241828867798E-1   -1.234823961977901E-1
 1.004786155525000E+10  -3.451801621099713E-1   -3.006205967586036E-1    2.426833054743906E-4   -5.162316182810737E-4    3.088697060656486E-4   -5.033413642449931E-4   -4.617356689247970E-1   -1.227579530972730E-1
 1.004787226830000E+10  -3.455654179906745E-1   -3.000931036345064E-1    2.422331357265413E-4   -4.962670742943760E-4    3.092036473669054E-4   -4.631210677304952E-4   -4.618044948842345E-1   -1.220303283353278E-1
 1.004788298135000E+10  -3.460930926535156E-1   -2.994186618776294E-1    2.364168619818092E-4   -4.676913014224200E-4    2.984709783976809E-4   -4.865691290565012E-4   -4.620835949633801E-1   -1.212530695213665E-1
 1.004789369440000E+10  -3.463268215060544E-1   -2.988950972858986E-1    2.625661718896393E-4   -4.661208915049737E-4    3.048061607274772E-4   -4.735749307697835E-4   -4.622130916526874E-1   -1.205303747659600E-1
 1.004790440745000E+10  -3.468804260477601E-1   -2.983190386417877E-1    2.405676223619131E-4   -4.598649276973053E-4    2.933587845371596E-4   -4.669479143160444E-4   -4.623069175557993E-1   -1.197541407281572E-1
 1.004791512050000E+10  -3.473889608132219E-1   -2.978728313581606E-1    2.591342602277731E-4   -4.457708152865162E-4    2.755659560842375E-4   -4.649881004006150E-4   -4.625514534129073E-1   -1.188589410502474E-1
