#  HZ   S   RI   R     50.00 
! Rohde & Schwarz Vector Network Analyzer 
! Rohde-Schwarz,ZNB20-2Port,1311601062101988,3.16
! Created: UTC 3/21/2024, 1:09:19 AM
! freq[Hz]                re:S11                  im:S11                  re:S21                  im:S21                  re:S12                  im:S12                  re:S22                  im:S22
 1.004696185600000E+10  -3.046554225007072E-1   -3.441066752931626E-1    3.880096740006528E-4   -8.140304084221353E-4    4.397357329142513E-4   -7.914482414838862E-4   -4.438652468758513E-1   -1.822898796816816E-1
 1.004697253800000E+10  -3.051170089657114E-1   -3.436414471607152E-1    3.723056156814933E-4   -8.158378772020686E-4    4.284628973660902E-4   -7.988399126597958E-4   -4.443290500621659E-1   -1.816520623476585E-1
 1.004698322000000E+10  -3.057742176484953E-1   -3.430904227599411E-1    3.816331233306292E-4   -8.069902119843916E-4    4.712660739536089E-4   -7.885548809616162E-4   -4.444122580949390E-1   -1.809358503132809E-1
 1.004699390200000E+10  -3.061578948857038E-1   -3.427088699751971E-1    3.697165307554096E-4   -8.018172709057181E-4    4.509938313381329E-4   -8.077134177525448E-4   -4.447994501620092E-1   -1.803344137916274E-1
 1.004700458400000E+10  -3.067386399676899E-1   -3.422006689552954E-1    3.794559978243391E-4   -7.988570153762877E-4    4.610066379575240E-4   -7.741092903625600E-4   -4.448983271109586E-1   -1.794962005744208E-1
 1.004701526600000E+10  -3.072279601918417E-1   -3.416058186958007E-1    3.738931411899376E-4   -8.124803094974315E-4    4.593514581526937E-4   -7.622748540147052E-4   -4.452243096570632E-1   -1.789747147055220E-1
 1.004702594800000E+10  -3.077807791313583E-1   -3.411924537597059E-1    3.776749943070233E-4   -7.730425070917525E-4    4.471310084408619E-4   -7.841945022726813E-4   -4.453948762365690E-1   -1.781558743032983E-1
 1.004703663000000E+10  -3.082182950902998E-1   -3.405370243059226E-1    3.843882796993837E-4   -7.755837260507094E-4    4.388551892564457E-4   -7.763663883508521E-4   -4.456943178617667E-1   -1.775066538040143E-1
 1.004704731200000E+10  -3.086490215605466E-1   -3.402533833213984E-1    3.593957644281623E-4   -7.969456341824658E-4    4.293678591503779E-4   -7.796367638106886E-4   -4.458530642094718E-1   -1.768538430142514E-1
 1.004705799400000E+10  -3.093514396851624E-1   -3.396529019827255E-1    3.650367633520767E-4   -7.662896245819575E-4    4.231602099350368E-4   -7.608689986021520E-4   -4.463343041264961E-1   -1.762880753209863E-1
 1.004706867600000E+10  -3.098091975103187E-1   -3.391793247692479E-1    3.563616937115886E-4   -8.155601160577853E-4    4.419061703152892E-4   -7.487341480097761E-4   -4.464489417035327E-1   -1.756119698384407E-1
 1.004707935800000E+10  -3.102903655055766E-1   -3.387252941472039E-1    3.607967919014334E-4   -7.791377253279251E-4    4.231419749680054E-4   -7.767930463712117E-4   -4.466674904513782E-1   -1.747473254847981E-1
 1.004709004000000E+10  -3.107409359911327E-1   -3.381628984871125E-1    3.746196815907709E-4   -7.826060085014278E-4    4.131981272457259E-4   -7.654953620726786E-4   -4.469549445436796E-1   -1.740772588840773E-1
 1.004710072200000E+10  -3.112563125603380E-1   -3.376371362815718E-1    3.640513855824184E-4   -7.719871072670227E-4    4.305386280806482E-4   -8.063144231008381E-4   -4.472690367555158E-1   -1.734057350322768E-1
 1.004711140400000E+10  -3.117553740260490E-1   -3.371361572149910E-1    3.516952813275145E-4   -7.664064424219272E-4    4.161596437136872E-4   -7.588328489910012E-4   -4.474736768054889E-1   -1.727178937660001E-1
 1.004712208600000E+10  -3.123520376907711E-1   -3.366515767039807E-1    3.610255644271098E-4   -7.855153530835880E-4    4.342173720688212E-4   -7.914400392560365E-4   -4.477924810008740E-1   -1.721007938522472E-1
 1.004713276800000E+10  -3.126290634225920E-1   -3.362684741822886E-1    3.632626086416542E-4   -7.637190726627846E-4    4.272482542272062E-4   -7.528988233518714E-4   -4.479056028561889E-1   -1.715735987991944E-1
 1.004714345000000E+10  -3.133636030506056E-1   -3.357507092388285E-1    3.444468546838175E-4   -7.744754276556721E-4    4.183962205715842E-4   -7.591596966627610E-4   -4.481881288310951E-1   -1.706756837311457E-1
 1.004715413200000E+10  -3.138354021769173E-1   -3.352684253028425E-1    3.711594670897300E-4   -7.657933201635123E-4    4.450091004712902E-4   -7.470567784146629E-4   -4.484421053180150E-1   -1.700467204304583E-1
 1.004716481400000E+10  -3.141667169956025E-1   -3.346550810048727E-1    3.520640764572438E-4   -7.786312483915953E-4    4.388889104315105E-4   -7.502438145533675E-4   -4.486648165387851E-1   -1.692259678309250E-1
 1.004717549600000E+10  -3.147295675420496E-1   -3.343468989645230E-1    3.755848291374290E-4   -7.770579530889444E-4    4.133459965264642E-4   -7.828013682811152E-4   -4.489590753834501E-1   -1.687244838719134E-1
 1.004718617800000E+10  -3.152934158136992E-1   -3.337563007772542E-1    3.601397173224659E-4   -7.431419992762340E-4    4.125677268624404E-4   -7.714273994327756E-4   -4.490063919976207E-1   -1.679404882761586E-1
 1.004719686000000E+10  -3.157846145198756E-1   -3.332846116556634E-1    3.528655694007844E-4   -7.516877906936203E-4    4.241644912770904E-4   -7.550029945432767E-4   -4.494422379656909E-1   -1.674730076496692E-1
 1.004720754200000E+10  -3.163287722270746E-1   -3.327718549613050E-1    3.168364589992322E-4   -7.611256778651328E-4    4.168692367890756E-4   -7.823982328547730E-4   -4.495467392283669E-1   -1.666927395723010E-1
 1.004721822400000E+10  -3.166888198136687E-1   -3.321477851797770E-1    3.475821725779114E-4   -7.651548483077373E-4    3.731548269847681E-4   -7.393855645248656E-4   -4.498185185737901E-1   -1.660039147246173E-1
 1.004722890600000E+10  -3.172155386160803E-1   -3.317422743124879E-1    3.493055306602641E-4   -7.614168324970679E-4    3.919586860630751E-4   -7.567736635688446E-4   -4.501123239392041E-1   -1.652699609350231E-1
 1.004723958800000E+10  -3.177341751805849E-1   -3.312544061472641E-1    3.752991499432994E-4   -7.320673705880304E-4    4.006098347511580E-4   -7.445136349748086E-4   -4.502569172058599E-1   -1.645049429177215E-1
 1.004725027000000E+10  -3.182533039439012E-1   -3.306870168203272E-1    3.699974461926339E-4   -7.435499936555378E-4    4.179946095855916E-4   -7.497362971758293E-4   -4.504732864562389E-1   -1.639324682795694E-1
 1.004726095200000E+10  -3.187447275387468E-1   -3.301865898845217E-1    3.604749292183752E-4   -7.493694442268482E-4    3.895594396488492E-4   -7.214192734298021E-4   -4.508032783381350E-1   -1.632241940278194E-1
 1.004727163400000E+10  -3.192550404985608E-1   -3.296716012647952E-1    3.351045337837325E-4   -7.621304096707574E-4    3.971947017253895E-4   -7.377040762594028E-4   -4.510052332285285E-1   -1.625356016895284E-1
 1.004728231600000E+10  -3.196446731344432E-1   -3.291917483545855E-1    3.292723878607721E-4   -7.480794684604962E-4    3.867051550905413E-4   -7.217647258162659E-4   -4.512055245527830E-1   -1.617677815547100E-1
 1.004729299800000E+10  -3.201728096493268E-1   -3.287251035308450E-1    3.451498358513652E-4   -7.424110707899284E-4    3.690476325229078E-4   -7.182372507026780E-4   -4.515834855236018E-1   -1.611297410690575E-1
 1.004730368000000E+10  -3.206819043217216E-1   -3.281912559602677E-1    3.524276649026172E-4   -7.193951108650357E-4    4.150714559049285E-4   -7.454680528501549E-4   -4.517229996984679E-1   -1.603727748820075E-1
 1.004731436200000E+10  -3.211698987426004E-1   -3.277013826533295E-1    3.184682710968466E-4   -7.389906075620638E-4    3.861330543752615E-4   -7.155812482354001E-4   -4.519028510890805E-1   -1.596928877713382E-1
 1.004732504400000E+10  -3.216002476356197E-1   -3.272174353513596E-1    3.372098148512623E-4   -7.205477809893347E-4    3.733745085942890E-4   -6.983593034148519E-4   -4.520986002958763E-1   -1.591084337066686E-1
 1.004733572600000E+10  -3.221735574740500E-1   -3.265384470456165E-1    3.402050193335315E-4   -7.259474976099756E-4    4.095756734683640E-4   -7.136803782315909E-4   -4.523579677295639E-1   -1.582785806981916E-1
 1.004734640800000E+10  -3.226117540590708E-1   -3.261378978223803E-1    3.375840220622549E-4   -7.235693431973395E-4    3.862354248492533E-4   -7.542268754737377E-4   -4.524985464119547E-1   -1.575258231338400E-1
 1.004735709000000E+10  -3.231285170280221E-1   -3.256996569108632E-1    3.213109476645546E-4   -7.083231691137279E-4    3.647940580923526E-4   -7.125049108371840E-4   -4.526288058517490E-1   -1.570993929641483E-1
 1.004736777200000E+10  -3.235742235904709E-1   -3.249482373586510E-1    3.226331578596853E-4   -7.328281164298551E-4    3.375350115782193E-4   -6.918193223491484E-4   -4.529744405860800E-1   -1.562546263096528E-1
 1.004737845400000E+10  -3.241289328585059E-1   -3.246522725180192E-1    3.349320895974845E-4   -7.078474251158370E-4    3.816582122715224E-4   -6.834262235660318E-4   -4.530767398730453E-1   -1.554641297778353E-1
 1.004738913600000E+10  -3.246114187497313E-1   -3.240029302504366E-1    3.202469969088491E-4   -7.278465266042699E-4    3.639160927501888E-4   -6.775079963900979E-4   -4.534632548960541E-1   -1.547395294866736E-1
 1.004739981800000E+10  -3.250063951227382E-1   -3.235898295327347E-1    3.150245646676282E-4   -7.071369459664103E-4    3.791798565386206E-4   -7.158956917543979E-4   -4.537069982866025E-1   -1.541147795240997E-1
 1.004741050000000E+10  -3.256492517551310E-1   -3.230850586177402E-1    3.142988919165932E-4   -6.910982073587652E-4    3.909165279371559E-4   -6.798688618965885E-4   -4.539416608088288E-1   -1.534611845057236E-1
 1.004742118200000E+10  -3.260949634120204E-1   -3.225600270077960E-1    3.099361461767701E-4   -7.167069346906952E-4    3.850056175598237E-4   -6.904167814811898E-4   -4.539898381839645E-1   -1.526814346717457E-1
 1.004743186400000E+10  -3.265786091224867E-1   -3.220015862726224E-1    3.230558421540062E-4   -6.934906977404140E-4    3.720657045219680E-4   -6.807673631396625E-4   -4.542471678634520E-1   -1.520278641085325E-1
 1.004744254600000E+10  -3.269635079905192E-1   -3.214167386581497E-1    3.511304432228825E-4   -7.008520034432909E-4    3.740978331880999E-4   -6.553753343787335E-4   -4.544735643525774E-1   -1.512387594850000E-1
 1.004745322800000E+10  -3.274999878635530E-1   -3.209514276995493E-1    3.114669653376872E-4   -6.898653556374559E-4    3.650251729828380E-4   -6.528941576528317E-4   -4.546542633132991E-1   -1.506641783764317E-1
 1.004746391000000E+10  -3.279177158813163E-1   -3.202761903476690E-1    2.998195631627612E-4   -6.730891062461944E-4    3.561471734291529E-4   -6.889275301304422E-4   -4.549014168525309E-1   -1.499157087343122E-1
 1.004747459200000E+10  -3.283834124562158E-1   -3.199653859154785E-1    3.351935781058962E-4   -6.802372238836683E-4    3.676525202614896E-4   -6.766837135755981E-4   -4.550432609668388E-1   -1.491394659520406E-1
 1.004748527400000E+10  -3.288843328449637E-1   -3.194078018870826E-1    3.145623155633551E-4   -6.983643548696475E-4    3.491021107384725E-4   -6.982960069947616E-4   -4.553164880392193E-1   -1.485263691422960E-1
 1.004749595600000E+10  -3.294185456252699E-1   -3.190097115399452E-1    3.203889688340463E-4   -6.824582653405226E-4    3.305108471768484E-4   -6.710395646852987E-4   -4.554807312263792E-1   -1.476881922879921E-1
 1.004750663800000E+10  -3.297082680883446E-1   -3.181437326314526E-1    3.048432615887951E-4   -6.910004570559019E-4    3.468713779370184E-4   -6.725019948121601E-4   -4.556753100876502E-1   -1.470834403684750E-1
 1.004751732000000E+10  -3.303401579949298E-1   -3.178668049936754E-1    2.930885344186513E-4   -6.759729797996022E-4    3.543412181674777E-4   -6.440166149651488E-4   -4.559264113550791E-1   -1.463454602857440E-1
 1.004752800200000E+10  -3.308356200902439E-1   -3.172988286165328E-1    3.048299150488116E-4   -6.646781167581103E-4    3.443499292975324E-4   -6.765415428017841E-4   -4.561159587538458E-1   -1.454999200931877E-1
 1.004753868400000E+10  -3.312375024586274E-1   -3.166597375229210E-1    3.003870664727078E-4   -6.461489881898269E-4    3.486020900088494E-4   -6.790641078725465E-4   -4.563244899876676E-1   -1.449176026448612E-1
 1.004754936600000E+10  -3.316466608365377E-1   -3.163094151522279E-1    3.052171531828689E-4   -6.664963373161734E-4    3.566173411786909E-4   -6.619599297932640E-4   -4.564459192023803E-1   -1.442384391080515E-1
 1.004756004800000E+10  -3.321361058670346E-1   -3.157306172070252E-1    2.990570485316021E-4   -6.660514911455864E-4    3.040076116614352E-4   -6.471843780116389E-4   -4.566435843514264E-1   -1.435163410147005E-1
 1.004757073000000E+10  -3.327339120054145E-1   -3.152704581232906E-1    2.869662625788639E-4   -6.739007428202476E-4    3.433767067125442E-4   -6.149859686119028E-4   -4.569422106692022E-1   -1.427446570977492E-1
 1.004758141200000E+10  -3.330969609144512E-1   -3.147096518686340E-1    3.057930420570152E-4   -6.377671512200382E-4    3.185718484709982E-4   -6.215006343567754E-4   -4.570894685832347E-1   -1.420554714506160E-1
 1.004759209400000E+10  -3.336372022174665E-1   -3.142449244881241E-1    3.091824361429591E-4   -6.424479685824485E-4    3.312052656122520E-4   -6.208941813929993E-4   -4.572812155776637E-1   -1.413862203943798E-1
 1.004760277600000E+10  -3.341343940885487E-1   -3.137153276221910E-1    2.632182274928517E-4   -6.703790564093188E-4    3.480547217130268E-4   -5.918538874389971E-4   -4.573723566258126E-1   -1.406845029958694E-1
 1.004761345800000E+10  -3.345160161799912E-1   -3.131026132765119E-1    2.866699669320923E-4   -6.477630095468674E-4    3.314695686356962E-4   -5.995518659531383E-4   -4.576441156039189E-1   -1.400808952496537E-1
 1.004762414000000E+10  -3.350936816732371E-1   -3.125044124280451E-1    2.934463508680003E-4   -6.246023564192837E-4    3.302405753833064E-4   -6.095831957112168E-4   -4.578603891506208E-1   -1.391902247463405E-1
 1.004763482200000E+10  -3.354079256935445E-1   -3.120879384269393E-1    2.690154182818466E-4   -6.440206449683670E-4    3.254932652153620E-4   -5.905462879318945E-4   -4.579166665749732E-1   -1.384518705414999E-1
 1.004764550400000E+10  -3.360220568863845E-1   -3.114749910141995E-1    2.935015115833492E-4   -6.070700626288092E-4    3.361825608462163E-4   -6.110674978411699E-4   -4.583091976872137E-1   -1.375809569519755E-1
 1.004765618600000E+10  -3.364517122709759E-1   -3.110986134375803E-1    2.613062026554556E-4   -6.193618799565855E-4    3.195628485910557E-4   -5.985418336960709E-4   -4.584548512118199E-1   -1.368542001045790E-1
 1.004766686800000E+10  -3.367868240723244E-1   -3.105101014246874E-1    2.583036020126253E-4   -6.302657998766523E-4    3.367502380943505E-4   -6.046471542568097E-4   -4.585320066361511E-1   -1.364115024013204E-1
 1.004767755000000E+10  -3.373425059166800E-1   -3.100015855074171E-1    2.669140993416577E-4   -5.872214726676174E-4    3.099940646404629E-4   -6.024480002089044E-4   -4.588378352465425E-1   -1.354870686086474E-1
 1.004768823200000E+10  -3.379209910526433E-1   -3.093682846625239E-1    2.816842892842711E-4   -6.109615249946048E-4    3.255078277958766E-4   -5.829885638188665E-4   -4.589406377071644E-1   -1.348667618349848E-1
 1.004769891400000E+10  -3.382408669827155E-1   -3.089063067118450E-1    2.691979207411699E-4   -5.962080781786560E-4    3.019007941542082E-4   -5.928019370061935E-4   -4.591564944795235E-1   -1.341332735615897E-1
 1.004770959600000E+10  -3.386859670876626E-1   -3.083209090795548E-1    2.579456384394706E-4   -6.041988708412362E-4    3.119725198202414E-4   -5.856802069956647E-4   -4.593701396855292E-1   -1.333823670209511E-1
 1.004772027800000E+10  -3.391697158332065E-1   -3.078554554439651E-1    3.024106011342125E-4   -5.860463792533480E-4    3.214340905275952E-4   -5.804021364152065E-4   -4.594418663799157E-1   -1.327074826335607E-1
 1.004773096000000E+10  -3.395447237863041E-1   -3.071765323876802E-1    2.709718797214984E-4   -5.908634589646806E-4    2.992559213285316E-4   -5.661512934025883E-4   -4.596528346578718E-1   -1.319468873735153E-1
 1.004774164200000E+10  -3.401154562594256E-1   -3.066789827305876E-1    2.835667827531011E-4   -5.720051184658743E-4    3.062659032383128E-4   -5.768891532676136E-4   -4.598812394326955E-1   -1.312205084969734E-1
 1.004775232400000E+10  -3.404518114804621E-1   -3.061478285662843E-1    2.748794478731095E-4   -5.775562041692253E-4    3.097254937229859E-4   -5.553707193875608E-4   -4.599969134087319E-1   -1.304266599302165E-1
 1.004776300600000E+10  -3.410319744699895E-1   -3.056706362243696E-1    2.788828929998710E-4   -5.428077770679885E-4    2.924963960870346E-4   -5.398047159703319E-4   -4.600647934630707E-1   -1.297144900570380E-1
 1.004777368800000E+10  -3.415326434274140E-1   -3.052312025011098E-1    2.665011715090663E-4   -5.430714273121386E-4    3.132626047489170E-4   -5.404496529270016E-4   -4.603354824572496E-1   -1.289470300725263E-1
 1.004778437000000E+10  -3.418867440487638E-1   -3.045100661269456E-1    2.721337650760954E-4   -5.753243743178034E-4    3.311840022782401E-4   -5.119732728782561E-4   -4.604979915928695E-1   -1.281980542851808E-1
 1.004779505200000E+10  -3.423416518046775E-1   -3.040212092512696E-1    2.689359255766465E-4   -5.492524003393416E-4    2.927224325084811E-4   -5.275198622216018E-4   -4.607550926801372E-1   -1.274309256932618E-1
 1.004780573400000E+10  -3.427424044815937E-1   -3.034011585438134E-1    2.555106432210963E-4   -5.417971037667927E-4    2.837604520552344E-4   -5.297295152278806E-4   -4.609845470514750E-1   -1.266509130762516E-1
 1.004781641600000E+10  -3.431652472825075E-1   -3.028632771626562E-1    2.562326864367850E-4   -5.137097007066658E-4    3.056463306319202E-4   -4.942486611246950E-4   -4.610903233991557E-1   -1.259962114715366E-1
 1.004782709800000E+10  -3.435597802548588E-1   -3.022705258856168E-1    2.511394845724184E-4   -5.391802435019834E-4    3.133548839075341E-4   -5.058105030915392E-4   -4.610597699173370E-1   -1.253699490511234E-1
 1.004783778000000E+10  -3.440466185624785E-1   -3.018329390686870E-1    2.728919017422383E-4   -5.033917442222956E-4    3.255257683505816E-4   -5.065266352446180E-4   -4.614855449954743E-1   -1.244175775162666E-1
 1.004784846200000E+10  -3.445951720373757E-1   -3.012207626596350E-1    2.262390014157944E-4   -5.371525102287235E-4    3.009811885919686E-4   -5.074499254210581E-4   -4.615748972813913E-1   -1.237018782718368E-1
 1.004785914400000E+10  -3.451234688723546E-1   -3.007869018023197E-1    2.464558338255114E-4   -4.805165520747347E-4    2.945790010574374E-4   -4.797903945414899E-4   -4.617374814207330E-1   -1.228884411156339E-1
 1.004786982600000E+10  -3.454584769966228E-1   -3.001885088125560E-1    2.727618726781429E-4   -5.029699058538585E-4    3.191007311439193E-4   -5.152535570911314E-4   -4.617206598365242E-1   -1.221708776512765E-1
 1.004788050800000E+10  -3.459740594300169E-1   -2.995727189663786E-1    2.587212265920989E-4   -4.970282529789081E-4    2.848190900718933E-4   -4.853521838396079E-4   -4.620793763063929E-1   -1.215449455810990E-1
 1.004789119000000E+10  -3.464444765891155E-1   -2.989545816227580E-1    2.557802267582385E-4   -4.935702278899853E-4    2.906274126912540E-4   -4.762862153570813E-4   -4.620746947780389E-1   -1.206418374504444E-1
 1.004790187200000E+10  -3.467437757491686E-1   -2.983797339481467E-1    2.174895706597554E-4   -4.881325380010827E-4    2.796217702003539E-4   -4.572752288980633E-4   -4.622635287695869E-1   -1.200704812954213E-1
 1.004791255400000E+10  -3.473057514954800E-1   -2.980626821559646E-1    2.451201833164077E-4   -4.732236951054443E-4    3.162811367430799E-4   -4.578800692365426E-4   -4.625235665194969E-1   -1.192354135083897E-1
 1.004792323600000E+10  -3.476397921767604E-1   -2.973634228820733E-1    2.746892161381621E-4   -4.557591616180548E-4    2.813709481514246E-4   -4.560520938342410E-4   -4.624830621088633E-1   -1.184297587344905E-1
