#  HZ   S   RI   R     50.00 
! Rohde & Schwarz Vector Network Analyzer 
! Rohde-Schwarz,ZNB20-2Port,1311601062101988,3.16
! Created: UTC 3/21/2024, 12:52:11 AM
! freq[Hz]                re:S11                  im:S11                  re:S21                  im:S21                  re:S12                  im:S12                  re:S22                  im:S22
 1.004796709100000E+10  -3.593306571003969E-1   -2.864464652570025E-1    3.542130772275726E-5    1.516157999998782E-4    2.296590038605114E-5    1.476661355958876E-4   -4.660152811856960E-1   -8.849666948818337E-2
 1.004797016822500E+10  -3.595415268565035E-1   -2.862193928269484E-1    2.694484883024379E-5    1.389129012558777E-4    2.236174324984838E-5    1.466663179439614E-4   -4.661007365453829E-1   -8.816891857751834E-2
 1.004797324545000E+10  -3.596470607992060E-1   -2.860281990543613E-1    1.680471784510765E-5    1.496114532638156E-4    2.321249099898534E-5    1.407023443919570E-4   -4.661014826158587E-1   -8.778858507725269E-2
 1.004797632267500E+10  -3.597355340548355E-1   -2.858993739931444E-1    2.943922912419980E-5    1.490198596369945E-4    4.139936263623907E-6    1.399840455584825E-4   -4.661474076492890E-1   -8.751572346710682E-2
 1.004797939990000E+10  -3.599411408566405E-1   -2.857051841465538E-1    7.094666631878485E-5    1.645942092730149E-4    2.396860365926348E-5    1.680183457498745E-4   -4.661585228683623E-1   -8.732786402331322E-2
 1.004798247712500E+10  -3.600292969974694E-1   -2.855225116579183E-1    4.729665742510383E-5    1.578040191911551E-4    2.601451733698181E-5    1.638149933112762E-4   -4.663080030291419E-1   -8.691878364833951E-2
 1.004798555435000E+10  -3.600821858803277E-1   -2.852581533987429E-1    5.288290817569364E-5    1.662200221080910E-4    7.874834922527028E-6    1.725459305300226E-4   -4.661268244502914E-1   -8.666079634275412E-2
 1.004798863157500E+10  -3.601941022494561E-1   -2.853193211439881E-1    1.728696795140523E-5    1.693900407626683E-4    8.220766097842015E-6    1.933967876755259E-4   -4.662373184263334E-1   -8.649756440450534E-2
 1.004799170880000E+10  -3.603505886438464E-1   -2.848667262867163E-1    1.554222753190796E-5    2.071056621013824E-4    3.437926966603301E-5    2.076603375951585E-4   -4.661442281668192E-1   -8.613037201547817E-2
 1.004799478602500E+10  -3.604906127390250E-1   -2.848976554189667E-1    5.663927711722160E-5    2.240249928546802E-4    3.358117194063963E-5    1.961776988498343E-4   -4.663160601427817E-1   -8.575427887983393E-2
 1.004799786325000E+10  -3.606213660353974E-1   -2.846994474119646E-1    3.967226991917230E-5    2.127711921269596E-4    1.222535981971454E-5    2.105405409993132E-4   -4.663373038565642E-1   -8.562669038712792E-2
 1.004800094047500E+10  -3.607429326900275E-1   -2.845320848935946E-1    2.021899626928616E-5    2.358633257058964E-4    2.016372611825375E-5    2.179080455443811E-4   -4.663138331730518E-1   -8.523818141004910E-2
 1.004800401770000E+10  -3.608754890073619E-1   -2.843546927576414E-1    5.700986799562517E-6    2.442214718837828E-4    3.852977394344576E-6    2.470707565419052E-4   -4.664024321597267E-1   -8.511808727042655E-2
 1.004800709492500E+10  -3.609844585188999E-1   -2.841106082479995E-1    3.787993766894375E-5    2.534864180175268E-4    3.275069337254222E-6    2.650586103053439E-4   -4.664947276443134E-1   -8.483837018481319E-2
 1.004801017215000E+10  -3.611210918926067E-1   -2.839909159224744E-1   -9.972441154898768E-7    2.349277981278404E-4    2.896349631109138E-5    2.327344977122144E-4   -4.663641773657746E-1   -8.435064695037700E-2
 1.004801324937500E+10  -3.612518652407221E-1   -2.839644027280849E-1    2.596539965555856E-5    2.633049580090440E-4    2.828273377374674E-5    2.543677613403769E-4   -4.664776378813645E-1   -8.420489970135328E-2
 1.004801632660000E+10  -3.613264301529403E-1   -2.837212715868049E-1    3.454028489061267E-5    2.832810654831143E-4    4.634564089448719E-6    2.755516867254990E-4   -4.665172574170185E-1   -8.388078802990141E-2
 1.004801940382500E+10  -3.615317523500680E-1   -2.834421989171293E-1    2.139755152411589E-5    2.845980898187043E-4    1.870951074105591E-5    2.757397829417258E-4   -4.665080135846321E-1   -8.362056407587543E-2
 1.004802248105000E+10  -3.616765273008308E-1   -2.832786128368412E-1    1.845997202624508E-5    2.784699175207911E-4    2.620033370450716E-5    2.806589085448145E-4   -4.665739056697129E-1   -8.332799295998326E-2
 1.004802555827500E+10  -3.616746887173888E-1   -2.832141752582304E-1    1.506081600968843E-5    2.938359240700939E-4   -6.249845311629883E-6    3.056410818342280E-4   -4.666715998155131E-1   -8.311962217587013E-2
 1.004802863550000E+10  -3.618670106799524E-1   -2.829731774531586E-1    2.221126349732542E-5    2.904650644417096E-4    4.334332098983867E-7    3.297760431678480E-4   -4.665022811103630E-1   -8.275997171970333E-2
 1.004803171272500E+10  -3.619808829948907E-1   -2.828685727924981E-1    4.136551721596360E-5    2.981375581945081E-4    1.727571184228497E-5    3.166162764542616E-4   -4.666251400197938E-1   -8.249023759531000E-2
 1.004803478995000E+10  -3.620540977877627E-1   -2.828053338475228E-1   -8.253736459886444E-6    3.559455570633258E-4    3.967044951317536E-5    3.279663472897022E-4   -4.666429294550463E-1   -8.211069595405776E-2
 1.004803786717500E+10  -3.623084692685750E-1   -2.827108349756783E-1    2.391500545401643E-5    3.235271646186477E-4   -5.104162298827051E-7    3.506538754402191E-4   -4.668112859909817E-1   -8.193498224066406E-2
 1.004804094440000E+10  -3.624101735484819E-1   -2.823711513002453E-1    2.211405686512522E-5    3.474904660904678E-4    1.437572856948073E-5    3.285361698046374E-4   -4.667062963640469E-1   -8.155866958097270E-2
 1.004804402162500E+10  -3.625756017965246E-1   -2.821771522841020E-1    9.824303170014044E-6    3.656353826196240E-4   -7.946180998101089E-6    3.548459304652476E-4   -4.667535438384701E-1   -8.132716075960958E-2
 1.004804709885000E+10  -3.626149422468908E-1   -2.820103916797140E-1    2.587819526709835E-5    3.473070427353069E-4   -2.277179682438716E-5    3.672692946819594E-4   -4.666904405365753E-1   -8.097569276963842E-2
 1.004805017607500E+10  -3.627804404529679E-1   -2.819447053693653E-1    2.133466798678842E-5    3.430202757262095E-4    1.044848261564023E-5    3.851258714361620E-4   -4.668501403303851E-1   -8.066851022800701E-2
 1.004805325330000E+10  -3.628706913888562E-1   -2.818597972021208E-1    3.082646845690285E-5    3.755036563889185E-4   -2.119790745429128E-5    4.185637713450222E-4   -4.668247347192350E-1   -8.037451806682426E-2
 1.004805633052500E+10  -3.629114760557081E-1   -2.815197463015779E-1    1.969551581023612E-5    3.620337890365155E-4    9.793337200324652E-6    3.970407773020928E-4   -4.667531979012588E-1   -8.019512322368330E-2
 1.004805940775000E+10  -3.631215403323039E-1   -2.814883279103616E-1    2.704236049137234E-6    4.075080090607960E-4   -8.871174149811066E-6    4.249189499801270E-4   -4.668440018620034E-1   -7.982355305516806E-2
 1.004806248497500E+10  -3.632065422398847E-1   -2.810863263278146E-1    2.318295419670909E-5    4.120374948276420E-4    3.838557319700163E-6    4.184224588652259E-4   -4.668822983110302E-1   -7.952981611233875E-2
 1.004806556220000E+10  -3.632184462813504E-1   -2.811321917141243E-1    3.082893787880679E-5    4.285423818280045E-4   -7.377379715919941E-7    4.368716394769404E-4   -4.669171909803688E-1   -7.920827992192821E-2
 1.004806863942500E+10  -3.635353948498711E-1   -2.808488811466616E-1    2.800650994006786E-5    4.329368277146570E-4   -1.148035791306825E-5    4.327296845533394E-4   -4.669200125752519E-1   -7.902461517668635E-2
 1.004807171665000E+10  -3.636488816006675E-1   -2.806578902641609E-1    1.189657235560353E-5    4.365520795205393E-4   -1.375096888516677E-5    4.434830807199671E-4   -4.668786645938822E-1   -7.864460300673355E-2
 1.004807479387500E+10  -3.636133694148294E-1   -2.805909105955650E-1   -1.713000755186728E-6    4.597532562289832E-4    9.350165638986568E-6    4.726609314117107E-4   -4.669222499983256E-1   -7.830476903873591E-2
 1.004807787110000E+10  -3.636847403703243E-1   -2.804191871659480E-1    3.450561840501962E-5    4.511005942826870E-4    5.156417928480123E-6    4.570045823211503E-4   -4.668770715744695E-1   -7.788872989839347E-2
 1.004808094832500E+10  -3.638263623576737E-1   -2.802881887424820E-1    1.767262321424788E-5    4.647763777009567E-4   -1.930934824724360E-5    4.789098126992179E-4   -4.670039918847062E-1   -7.748668097404522E-2
 1.004808402555000E+10  -3.640875846955650E-1   -2.800521108706925E-1    4.540411761026171E-5    4.963876705674515E-4   -3.835687458058949E-5    5.028041453667740E-4   -4.670896490252758E-1   -7.736952771749382E-2
 1.004808710277500E+10  -3.641379839155152E-1   -2.799784257023737E-1    2.371059005876644E-5    5.025160628339599E-4    1.123969112281969E-5    4.865882479853542E-4   -4.670838167674483E-1   -7.707434781198173E-2
 1.004809018000000E+10  -3.643048594506107E-1   -2.798231323614305E-1    1.605076233375633E-5    5.226051012633342E-4   -5.675143591893785E-5    5.030453861502323E-4   -4.670594527142111E-1   -7.674554057242437E-2
 1.004809325722500E+10  -3.643826699438312E-1   -2.795295701437167E-1   -1.636788528462209E-5    5.154778578135095E-4   -1.072404602551174E-5    5.497200320814459E-4   -4.670397946924677E-1   -7.635321011526235E-2
 1.004809633445000E+10  -3.645204787480602E-1   -2.794320463679762E-1    4.986137139750739E-6    5.394756564614648E-4   -7.155968532202822E-6    5.556255782131372E-4   -4.670403888359963E-1   -7.618664278767887E-2
 1.004809941167500E+10  -3.646059364149580E-1   -2.792662205584976E-1    1.757680187458169E-5    5.360953442691457E-4    6.804230132728587E-6    5.589094289243396E-4   -4.670557548264037E-1   -7.563523812091545E-2
 1.004810248890000E+10  -3.647081753880733E-1   -2.791560820629591E-1    2.183516716824170E-5    5.467322635817110E-4    1.110926047556899E-5    5.629962674695324E-4   -4.671563943172879E-1   -7.556766435669539E-2
 1.004810556612500E+10  -3.650206445814549E-1   -2.788279731743491E-1   -5.669414303439547E-6    5.945444577206066E-4   -3.277647861634260E-5    5.805178038930044E-4   -4.670498453931758E-1   -7.511449499593414E-2
 1.004810864335000E+10  -3.650275828169122E-1   -2.787984062886628E-1    5.179598854218900E-6    5.639387539903606E-4   -3.584711929651773E-5    6.031788359912954E-4   -4.671809903716177E-1   -7.480260949974447E-2
 1.004811172057500E+10  -3.651686424648504E-1   -2.787225923409136E-1    9.218349887053184E-6    5.925184074368929E-4   -4.877301695303472E-5    5.832139006149346E-4   -4.671458570150381E-1   -7.442792922412297E-2
 1.004811479780000E+10  -3.652858841096072E-1   -2.784570341971358E-1    5.249358000609041E-6    6.006721560643723E-4   -3.110205607648082E-5    6.520193101161990E-4   -4.671863011076825E-1   -7.408172246082668E-2
 1.004811787502500E+10  -3.653091792708882E-1   -2.782873313552887E-1    6.294336737701444E-6    6.015020993534504E-4    6.349873352558071E-6    6.216803761713762E-4   -4.673000407498097E-1   -7.397444467723872E-2
 1.004812095225000E+10  -3.654799744821626E-1   -2.780955109745217E-1    1.367007092194386E-5    6.314006941716689E-4   -1.273530251218784E-5    6.417832642184148E-4   -4.672741699412395E-1   -7.345090982190546E-2
 1.004812402947500E+10  -3.655691007226072E-1   -2.777663881112473E-1    1.046549402171186E-5    6.523598304537412E-4   -1.084224447684800E-5    6.653415341050632E-4   -4.671774976979465E-1   -7.318340975099145E-2
 1.004812710670000E+10  -3.657253776115864E-1   -2.777731213187188E-1   -9.411824273348870E-6    6.560402429086111E-4   -1.092543220733648E-5    6.627256388942763E-4   -4.673179956266665E-1   -7.282614987212369E-2
 1.004813018392500E+10  -3.658516878531654E-1   -2.775669896421933E-1   -3.959245963787713E-6    6.979224653696163E-4   -5.202731349937750E-5    6.819385828796673E-4   -4.671886511668023E-1   -7.254416337709084E-2
 1.004813326115000E+10  -3.659166230670595E-1   -2.773558093899712E-1    2.269547925559231E-5    6.773417859359512E-4   -1.845528934295516E-5    6.871689283452638E-4   -4.672394153029414E-1   -7.209080808073873E-2
 1.004813633837500E+10  -3.661216461153887E-1   -2.771890785680584E-1    5.045422060358729E-6    6.891884052383978E-4   -2.517093510048944E-5    7.406067142729844E-4   -4.672715508881939E-1   -7.193936481466037E-2
 1.004813941560000E+10  -3.662854357181168E-1   -2.770940568681039E-1    1.619042196493216E-5    7.136449854631770E-4   -3.663161725614120E-5    7.266503140045884E-4   -4.671787009905871E-1   -7.150126712560992E-2
 1.004814249282500E+10  -3.663415434381410E-1   -2.769078399048125E-1    2.080878905637231E-5    7.462648233003727E-4   -3.897105224501450E-5    7.565204125019589E-4   -4.673538469994765E-1   -7.122888266585782E-2
 1.004814557005000E+10  -3.664550405935063E-1   -2.767600587695065E-1    7.503058499929169E-6    7.390156755671838E-4   -2.724005806584757E-5    8.053848945089970E-4   -4.672151344793703E-1   -7.083743288778331E-2
 1.004814864727500E+10  -3.664981403345223E-1   -2.765579450335967E-1    2.718026304964455E-7    7.513887775901477E-4   -4.772386015781991E-5    7.639323204354594E-4   -4.673224765582991E-1   -7.060644169964241E-2
 1.004815172450000E+10  -3.667297922598254E-1   -2.763597952383886E-1    3.020814969959027E-6    7.854888310002369E-4   -3.550262862134142E-5    7.766848042304681E-4   -4.673459562920581E-1   -7.018804591419170E-2
 1.004815480172500E+10  -3.667461910687258E-1   -2.762805827303413E-1   -1.561109742522217E-5    7.749644635210210E-4   -2.826907883591460E-5    7.947883151757018E-4   -4.673318722519099E-1   -6.990782831003421E-2
 1.004815787895000E+10  -3.669421709561840E-1   -2.761011030693560E-1    2.725695211316518E-6    7.984823955735729E-4   -2.178542996521792E-5    8.307218805183690E-4   -4.671851251010428E-1   -6.948107132520810E-2
 1.004816095617500E+10  -3.670383818301558E-1   -2.758704926392976E-1    8.591629676318507E-6    8.347714479873791E-4   -3.354211711342961E-5    8.614638434598346E-4   -4.672176006546102E-1   -6.910411132499554E-2
 1.004816403340000E+10  -3.670341370103067E-1   -2.757402198155164E-1    3.672625634488308E-5    8.157849626924854E-4   -6.179900702650722E-5    8.628007930838890E-4   -4.671678699979279E-1   -6.873168540273013E-2
 1.004816711062500E+10  -3.672577207026075E-1   -2.755203824862920E-1    7.323369621073791E-6    8.551640984548653E-4   -6.295742304767388E-5    8.826641591800927E-4   -4.673128276834763E-1   -6.831960037208597E-2
 1.004817018785000E+10  -3.673751519411642E-1   -2.753745402790274E-1    1.668851479098274E-5    8.916519589560531E-4   -3.227313530384297E-5    8.876510504780928E-4   -4.673274358851108E-1   -6.798013160874117E-2
 1.004817326507500E+10  -3.676293230337584E-1   -2.753187212971449E-1    5.720273298356313E-5    8.996194738695772E-4   -4.285887523127054E-5    8.982518487805806E-4   -4.673418370040531E-1   -6.769156930815474E-2
 1.004817634230000E+10  -3.675317391062553E-1   -2.750351155648851E-1    3.852481222230792E-5    9.117589633534973E-4   -4.819886925820619E-5    8.889596395436584E-4   -4.672007158192252E-1   -6.733024489399493E-2
 1.004817941952500E+10  -3.678014765622822E-1   -2.748622567080716E-1    6.335077152409971E-6    9.533986446603320E-4   -2.428742548254081E-5    9.361738373300771E-4   -4.673290630941851E-1   -6.682322185811200E-2
 1.004818249675000E+10  -3.678635231041749E-1   -2.747339517611895E-1    4.312576118306600E-5    9.427087983802337E-4   -4.345977280783614E-5    9.478235063728587E-4   -4.673356576394254E-1   -6.654968575179179E-2
 1.004818557397500E+10  -3.679561182612315E-1   -2.746277538588646E-1    1.816020160230056E-5    9.578604481588287E-4   -3.979470578520488E-5    9.879828238087704E-4   -4.671661866948088E-1   -6.612508301152316E-2
 1.004818865120000E+10  -3.681252056013088E-1   -2.745051456805213E-1    1.513774438934983E-5    1.008952241610150E-3   -2.744341837529925E-5    9.969185165966609E-4   -4.672605975481869E-1   -6.576418381602919E-2
 1.004819172842500E+10  -3.682130322413691E-1   -2.741985238942694E-1    8.364932138616428E-6    1.000424493734179E-3   -3.040166869980584E-5    1.024226694454251E-3   -4.672302053744061E-1   -6.554482921059875E-2
 1.004819480565000E+10  -3.682650036581369E-1   -2.740418106678754E-1    1.121995600561516E-5    1.010858108431746E-3   -3.784882129970673E-5    1.036163785730891E-3   -4.672810541106602E-1   -6.499924762289148E-2
 1.004819788287500E+10  -3.685232987629460E-1   -2.738160509623312E-1    1.348748628337986E-5    1.005397343993614E-3   -4.883271474269135E-5    1.051617486445494E-3   -4.672320256686651E-1   -6.471355138125932E-2
 1.004820096010000E+10  -3.685679692166340E-1   -2.736022894928380E-1   -3.471761518185277E-6    1.046183820637067E-3   -3.123975456383993E-5    1.063892864654500E-3   -4.670321915080632E-1   -6.419278242699886E-2
 1.004820403732500E+10  -3.686203845320239E-1   -2.734417750590453E-1    3.659916006183682E-5    1.065469732399056E-3   -3.513227351484138E-5    1.087542323286579E-3   -4.671835957152045E-1   -6.386378708875058E-2
 1.004820711455000E+10  -3.687559700119867E-1   -2.732663177217627E-1    2.422637881549367E-5    1.103409222682735E-3   -9.275974107977515E-6    1.124918202707617E-3   -4.672170083356421E-1   -6.352876109638603E-2
 1.004821019177500E+10  -3.690314575866194E-1   -2.731465978828157E-1   -1.374750182259291E-6    1.135548889883932E-3   -3.885303011079846E-5    1.112775250814523E-3   -4.671346668703547E-1   -6.299768759445952E-2
 1.004821326900000E+10  -3.690926643490444E-1   -2.728861619205148E-1    5.584667635974152E-5    1.126770543597361E-3   -4.621349126914068E-5    1.156729021429270E-3   -4.671799286770563E-1   -6.265596760177586E-2
 1.004821634622500E+10  -3.690580019059890E-1   -2.728584272779999E-1    1.818630312432483E-5    1.147403037743305E-3   -4.078170085474275E-5    1.175804640004184E-3   -4.671400291318809E-1   -6.217187821459558E-2
 1.004821942345000E+10  -3.693696265787089E-1   -2.726056509618453E-1    3.589407388417618E-5    1.201153654044728E-3   -3.722906935452483E-5    1.175377795935643E-3   -4.671143539601899E-1   -6.174678697625523E-2
 1.004822250067500E+10  -3.694667523349811E-1   -2.724412793296223E-1    3.638804205182641E-5    1.227635888464351E-3   -5.105648797835220E-5    1.217521067733262E-3   -4.670306576854119E-1   -6.152131740179191E-2
 1.004822557790000E+10  -3.695709904772114E-1   -2.723426908317781E-1    3.411059528840465E-5    1.240581605596253E-3   -4.932990055630000E-5    1.239002667938223E-3   -4.669461709624838E-1   -6.093499996466802E-2
 1.004822865512500E+10  -3.696694175989668E-1   -2.722458962673212E-1    5.048685095154618E-5    1.253774176946133E-3   -3.409832905588871E-5    1.264997494235133E-3   -4.669437580584174E-1   -6.060648885870402E-2
 1.004823173235000E+10  -3.698481380868295E-1   -2.719950038127614E-1    2.798219145861816E-5    1.272315900950247E-3   -3.979205560491964E-5    1.290425773082159E-3   -4.671867558271430E-1   -6.016173952779905E-2
 1.004823480957500E+10  -3.700205617488053E-1   -2.718089042451965E-1    3.500545629192709E-5    1.291837264225619E-3   -1.893292638268263E-5    1.295242453807135E-3   -4.670033525685384E-1   -5.970004488345308E-2
 1.004823788680000E+10  -3.700375846420771E-1   -2.716846777244550E-1    4.266820473075677E-5    1.312693476535392E-3   -5.242144317465252E-5    1.352796969722185E-3   -4.669931876096178E-1   -5.936700459165169E-2
 1.004824096402500E+10  -3.701309414794800E-1   -2.715029782668796E-1    3.408070710010521E-5    1.340324173872002E-3   -1.813160689283039E-5    1.368632004991051E-3   -4.668907023623594E-1   -5.881042489030688E-2
 1.004824404125000E+10  -3.703372266877296E-1   -2.712775373514205E-1    6.394031721384912E-5    1.358446835246858E-3   -2.964460098706701E-5    1.372699083669660E-3   -4.668010282029027E-1   -5.849636071398956E-2
