#  HZ   S   RI   R     50.00 
! Rohde & Schwarz Vector Network Analyzer 
! Rohde-Schwarz,ZNB20-2Port,1311601062101988,3.16
! Created: UTC 3/21/2024, 1:10:01 AM
! freq[Hz]                re:S11                  im:S11                  re:S21                  im:S21                  re:S12                  im:S12                  re:S22                  im:S22
 1.004708841200000E+10  -3.101956065353825E-1   -3.386895332346614E-1    3.681821743316677E-4   -7.926861847385693E-4    4.544897252792276E-4   -7.758306496989266E-4   -4.465969784004677E-1   -1.748788665431220E-1
 1.004709867217500E+10  -3.106498212569498E-1   -3.382807199748734E-1    3.530676488338595E-4   -7.935012527522720E-4    4.425820942288954E-4   -7.869347762742810E-4   -4.469393489403682E-1   -1.740312377622180E-1
 1.004710893235000E+10  -3.110751104411432E-1   -3.378314223590150E-1    3.644010893030850E-4   -8.046075628172166E-4    4.445856247191366E-4   -8.020287001571653E-4   -4.470831091305315E-1   -1.735444837921488E-1
 1.004711919252500E+10  -3.115957497356264E-1   -3.372698681632291E-1    3.668640224500781E-4   -7.976506111700138E-4    3.875291639758360E-4   -7.506705072351615E-4   -4.474376108825774E-1   -1.730729355260242E-1
 1.004712945270000E+10  -3.121436070288091E-1   -3.369660949532506E-1    3.687575391611258E-4   -7.818603013766476E-4    3.998065924593193E-4   -7.625078921227274E-4   -4.477072691833642E-1   -1.723303310769902E-1
 1.004713971287500E+10  -3.126003271868495E-1   -3.361566159385650E-1    3.412192905095368E-4   -8.029120047006875E-4    4.248898396749371E-4   -7.637324980850308E-4   -4.479176534600782E-1   -1.715757085683266E-1
 1.004714997305000E+10  -3.131166601444993E-1   -3.358041458030056E-1    3.863166268929147E-4   -7.738081277697802E-4    4.325944801973483E-4   -7.543039636555887E-4   -4.482354613151692E-1   -1.708203474185028E-1
 1.004716023322500E+10  -3.135804851671895E-1   -3.353674694047215E-1    3.568429583622762E-4   -7.910566023747448E-4    4.324176214796982E-4   -7.625006245531865E-4   -4.482120857315487E-1   -1.701033730665169E-1
 1.004717049340000E+10  -3.140565833150804E-1   -3.349428374571258E-1    3.428384729449205E-4   -7.729051768776769E-4    4.345208891592935E-4   -7.635367854982386E-4   -4.485007478389536E-1   -1.696240345524662E-1
 1.004718075357500E+10  -3.145354726391608E-1   -3.342885204919884E-1    3.422703079536848E-4   -7.710831400862195E-4    3.838554681857329E-4   -7.548961162372098E-4   -4.487099054637305E-1   -1.688806445743655E-1
 1.004719101375000E+10  -3.149969436682137E-1   -3.338859570313817E-1    3.466351997346049E-4   -7.946258844061247E-4    4.271150485669084E-4   -7.614822444316513E-4   -4.489292863236169E-1   -1.682263477447304E-1
 1.004720127392500E+10  -3.155317471442692E-1   -3.334025917942370E-1    3.553126408290560E-4   -7.805582151857602E-4    4.060884924576528E-4   -7.763414196820330E-4   -4.491695503214025E-1   -1.675056957760205E-1
 1.004721153410000E+10  -3.159865198323029E-1   -3.329086813510501E-1    3.361572573613061E-4   -7.704641172185748E-4    4.087781900985670E-4   -7.427247210296641E-4   -4.495386055435344E-1   -1.670023837119834E-1
 1.004722179427500E+10  -3.164624735658015E-1   -3.324648382802694E-1    3.270218575952946E-4   -7.423159066246722E-4    3.797508183741270E-4   -7.468662525275015E-4   -4.496636574324879E-1   -1.663585235219648E-1
 1.004723205445000E+10  -3.169011730254033E-1   -3.318746070832308E-1    3.640496489947770E-4   -7.336442755060851E-4    4.238726579990563E-4   -7.311521300529852E-4   -4.498090932684776E-1   -1.654823613391483E-1
 1.004724231462500E+10  -3.174505500565944E-1   -3.315494255034969E-1    3.472748520845501E-4   -7.504831610541101E-4    3.991900873149298E-4   -7.413824807116494E-4   -4.501770435030649E-1   -1.649141423020480E-1
 1.004725257480000E+10  -3.178342085174916E-1   -3.310011527038429E-1    3.877080525191034E-4   -7.419095958773671E-4    3.920416448630170E-4   -7.642651216202945E-4   -4.503945010044421E-1   -1.643728824338164E-1
 1.004726283497500E+10  -3.182275394890033E-1   -3.304190286462581E-1    3.514503336955318E-4   -7.724886023867554E-4    3.918310934762367E-4   -7.408587793721880E-4   -4.506408839496640E-1   -1.635439258287258E-1
 1.004727309515000E+10  -3.186963287760789E-1   -3.300154134601565E-1    3.507602732185212E-4   -7.726573825643956E-4    4.129258906120063E-4   -7.402557862118422E-4   -4.508671601072155E-1   -1.630043945396810E-1
 1.004728335532500E+10  -3.193570087735136E-1   -3.295796386171688E-1    3.346057981863322E-4   -7.440381440968057E-4    3.822608307761745E-4   -7.225485573817467E-4   -4.509503082400790E-1   -1.622862560400469E-1
 1.004729361550000E+10  -3.198048394288449E-1   -3.290014539078818E-1    3.331458966646562E-4   -7.587701773591639E-4    3.619998296360629E-4   -7.403489224374372E-4   -4.511775646874311E-1   -1.617547209454778E-1
 1.004730387567500E+10  -3.201612342376310E-1   -3.285225793993811E-1    3.385633659016735E-4   -7.359061802673346E-4    4.099718714699593E-4   -7.541744226466403E-4   -4.515629490531048E-1   -1.610581495870378E-1
 1.004731413585000E+10  -3.206591929549696E-1   -3.280317779212724E-1    3.404831247733149E-4   -7.506493720862948E-4    3.996638523886566E-4   -7.337022344356974E-4   -4.515528680249725E-1   -1.601946081557042E-1
 1.004732439602500E+10  -3.211244633655236E-1   -3.275967041437174E-1    3.544346997734567E-4   -7.290908130839360E-4    3.714149419543031E-4   -7.501153478705201E-4   -4.518834959922855E-1   -1.596347432417936E-1
 1.004733465620000E+10  -3.215731837148704E-1   -3.270843649985465E-1    3.332848291936288E-4   -7.554191642762150E-4    3.944020232408913E-4   -7.185338233670120E-4   -4.520328549837034E-1   -1.589116389487514E-1
 1.004734491637500E+10  -3.221820552385380E-1   -3.266628111051264E-1    3.037925659761073E-4   -7.354400742233281E-4    3.908198454683074E-4   -7.454568917573162E-4   -4.523393531738151E-1   -1.583125798791525E-1
 1.004735517655000E+10  -3.225802907690314E-1   -3.261946453820975E-1    3.056536629001126E-4   -7.363510998195524E-4    3.944997552051818E-4   -7.234461188135089E-4   -4.524905297802114E-1   -1.576331658630726E-1
 1.004736543672500E+10  -3.230587423891335E-1   -3.256382502613757E-1    3.054613746011747E-4   -7.384034114159114E-4    3.750673291563869E-4   -7.107586219868504E-4   -4.528411924613006E-1   -1.567937501760713E-1
 1.004737569690000E+10  -3.234766045195305E-1   -3.250358429258028E-1    3.320324141443631E-4   -7.263555195444410E-4    3.774360623602199E-4   -7.273725329414977E-4   -4.528833282188381E-1   -1.564092750229983E-1
 1.004738595707500E+10  -3.239869518219930E-1   -3.245681557870112E-1    3.160464888318268E-4   -7.221377438044132E-4    3.829313227054830E-4   -7.092127929219297E-4   -4.532018598849009E-1   -1.556085101400176E-1
 1.004739621725000E+10  -3.243822618599330E-1   -3.241717503793080E-1    3.264231785544239E-4   -7.283770776434021E-4    3.820385797530315E-4   -7.571942126184321E-4   -4.535026534196503E-1   -1.550328398714328E-1
 1.004740647742500E+10  -3.248725065617347E-1   -3.236528113185875E-1    3.393004697429042E-4   -7.376174865700036E-4    3.506670682171743E-4   -7.148370950019726E-4   -4.534941900754406E-1   -1.543711341608371E-1
 1.004741673760000E+10  -3.252974541255881E-1   -3.230596105349264E-1    3.231600499498475E-4   -7.138719235152515E-4    3.539439888545186E-4   -7.017542403384297E-4   -4.537043428970381E-1   -1.535961602073443E-1
 1.004742699777500E+10  -3.257963358347953E-1   -3.226465059173067E-1    3.255053301886238E-4   -7.070970274716274E-4    3.973788240391729E-4   -7.228129004798552E-4   -4.539912411534057E-1   -1.529159211232906E-1
 1.004743725795000E+10  -3.262772344242532E-1   -3.221537384415605E-1    3.181348911279515E-4   -7.313487358407624E-4    3.706910155162752E-4   -7.098444727974356E-4   -4.541011331604762E-1   -1.523653240281874E-1
 1.004744751812500E+10  -3.268570540447253E-1   -3.217119068928254E-1    3.071807386529440E-4   -7.336642176097011E-4    3.641740784299068E-4   -7.073434955382552E-4   -4.542450203517439E-1   -1.516081884028728E-1
 1.004745777830000E+10  -3.272591059894139E-1   -3.210640607733422E-1    3.229982971410404E-4   -7.162832247075971E-4    3.886233489648721E-4   -7.069060524089593E-4   -4.546104250068606E-1   -1.509655561445006E-1
 1.004746803847500E+10  -3.277821505616619E-1   -3.206769087184302E-1    3.019989983678042E-4   -7.204762260122090E-4    3.493421505360881E-4   -6.833112723964497E-4   -4.547140201849874E-1   -1.503090116119626E-1
 1.004747829865000E+10  -3.281602995455736E-1   -3.203581633534022E-1    3.181572766865880E-4   -7.145658198070573E-4    3.574012915532251E-4   -6.891601057619492E-4   -4.549827045283989E-1   -1.494611541899668E-1
 1.004748855882500E+10  -3.285078899555855E-1   -3.196242580001906E-1    3.237407411372759E-4   -6.860712788483274E-4    3.351481716474691E-4   -6.894524904586042E-4   -4.551578030741947E-1   -1.489651045962556E-1
 1.004749881900000E+10  -3.290529434381926E-1   -3.192495733754875E-1    3.108685777762483E-4   -6.988728703473378E-4    3.746301306753788E-4   -7.009433973031845E-4   -4.554647431461362E-1   -1.482953381270957E-1
 1.004750907917500E+10  -3.294723691519320E-1   -3.187340664457055E-1    2.912119192275126E-4   -6.941815511179874E-4    3.610907888929829E-4   -6.712101073528165E-4   -4.555197593993542E-1   -1.477395473649946E-1
 1.004751933935000E+10  -3.299887034635173E-1   -3.181506710395228E-1    3.052907378572766E-4   -7.009963689802727E-4    3.505144132720771E-4   -6.785129190137285E-4   -4.559177857566181E-1   -1.467256783214762E-1
 1.004752959952500E+10  -3.302987762158268E-1   -3.177410665687748E-1    2.910203369014433E-4   -6.869237709203276E-4    3.736562467031013E-4   -6.854528406337334E-4   -4.559362297567422E-1   -1.461417654177279E-1
 1.004753985970000E+10  -3.309015516651554E-1   -3.172722724895581E-1    3.286399997931916E-4   -6.885110775037495E-4    3.402825416190576E-4   -6.743828416044194E-4   -4.561847277260401E-1   -1.455660222179932E-1
 1.004755011987500E+10  -3.313400297979784E-1   -3.167202312502461E-1    2.971502750817604E-4   -6.948091099886771E-4    3.548061370299279E-4   -6.685258701253956E-4   -4.563570577812479E-1   -1.447168713252941E-1
 1.004756038005000E+10  -3.316449075641219E-1   -3.161508790909906E-1    3.203982417447839E-4   -6.589217436050386E-4    3.320148732153819E-4   -6.563074265931407E-4   -4.565841175370141E-1   -1.441705712513439E-1
 1.004757064022500E+10  -3.321894092591648E-1   -3.155749476921868E-1    3.296878591291794E-4   -6.503259297220932E-4    3.489068813452870E-4   -6.579542480503350E-4   -4.566762221373722E-1   -1.434189228598928E-1
 1.004758090040000E+10  -3.326838977777563E-1   -3.152230917410835E-1    2.773534258714018E-4   -6.688043787673033E-4    3.370260011444833E-4   -6.340150758258424E-4   -4.568573660345870E-1   -1.428190412468890E-1
 1.004759116057500E+10  -3.331524637841364E-1   -3.147172311756744E-1    2.948402421378058E-4   -6.436058531596046E-4    3.686098414288067E-4   -6.520977639241201E-4   -4.571276349238371E-1   -1.421392514796317E-1
 1.004760142075000E+10  -3.335342886208271E-1   -3.142611521091135E-1    3.090006973830328E-4   -6.778026036964900E-4    3.140838635551480E-4   -6.461666388257319E-4   -4.573036924343225E-1   -1.412266461765797E-1
 1.004761168092500E+10  -3.339966947203116E-1   -3.135928046350391E-1    2.858088362727493E-4   -6.574604717722726E-4    3.171719114171391E-4   -6.606271436628232E-4   -4.574183140402709E-1   -1.407712842923706E-1
 1.004762194110000E+10  -3.344349505281013E-1   -3.132355208474003E-1    2.763960045320509E-4   -6.379733189105302E-4    3.113686423984617E-4   -6.563882387511019E-4   -4.576457652041343E-1   -1.400475562200731E-1
 1.004763220127500E+10  -3.347803350116936E-1   -3.127086853129034E-1    2.680824940063662E-4   -6.693579910874768E-4    3.268864830473447E-4   -6.521351622956718E-4   -4.577816973309413E-1   -1.393228924637086E-1
 1.004764246145000E+10  -3.353811605904245E-1   -3.121944128064837E-1    2.633194436570252E-4   -6.340048601148654E-4    3.102385437381490E-4   -6.278571999839593E-4   -4.579761950123588E-1   -1.386909023225995E-1
 1.004765272162500E+10  -3.357062214302511E-1   -3.116363254758749E-1    2.806578450999704E-4   -6.158010360294026E-4    3.227547775485980E-4   -6.102938273488649E-4   -4.581633024005488E-1   -1.380078753824405E-1
 1.004766298180000E+10  -3.361478998368486E-1   -3.110544290934151E-1    2.500611934998125E-4   -6.439970413210515E-4    3.302229047215956E-4   -6.220539906306777E-4   -4.584077017772150E-1   -1.371861690795510E-1
 1.004767324197500E+10  -3.367586776196494E-1   -3.105878654330387E-1    2.750567079140890E-4   -6.410842041219524E-4    3.423578145246491E-4   -6.176984140385041E-4   -4.587129623042581E-1   -1.364579613744565E-1
 1.004768350215000E+10  -3.370770314621468E-1   -3.100778021927523E-1    2.742406261576906E-4   -6.332547142871020E-4    3.184785320297994E-4   -6.251452678860698E-4   -4.587841156445313E-1   -1.358992935326281E-1
 1.004769376232500E+10  -3.374458704043087E-1   -3.095499486659979E-1    2.608926397109383E-4   -6.150980672684099E-4    3.357079302154264E-4   -6.449392494951503E-4   -4.590307711913330E-1   -1.351967677041298E-1
 1.004770402250000E+10  -3.378818159976637E-1   -3.089732715123328E-1    2.999457718264243E-4   -5.945543214222922E-4    3.370034996890901E-4   -6.247765008861478E-4   -4.591147282020022E-1   -1.343752972765333E-1
 1.004771428267500E+10  -3.384325085035398E-1   -3.086012635188233E-1    2.845752276412050E-4   -6.010649971272652E-4    3.319276876097381E-4   -5.938095183290513E-4   -4.591943050651959E-1   -1.338111650178729E-1
 1.004772454285000E+10  -3.388232177852278E-1   -3.079395724705958E-1    2.719033747964474E-4   -5.868643202277459E-4    3.464129851478360E-4   -5.808167083836354E-4   -4.594481568920502E-1   -1.330015429530639E-1
 1.004773480302500E+10  -3.393527819203834E-1   -3.075947968029409E-1    2.821849072444574E-4   -5.948722940865062E-4    3.035357203895337E-4   -5.932475431876350E-4   -4.595761423645285E-1   -1.324456466356265E-1
 1.004774506320000E+10  -3.397708103238810E-1   -3.069647233138065E-1    3.032431481629229E-4   -5.847091321694303E-4    3.568363939636333E-4   -5.978719326696505E-4   -4.597580005221500E-1   -1.316101938634933E-1
 1.004775532337500E+10  -3.401396535845631E-1   -3.065225952869477E-1    2.685611747163503E-4   -6.109397065370462E-4    3.324271612317946E-4   -6.033788929199364E-4   -4.599033715758799E-1   -1.310168546701894E-1
 1.004776558355000E+10  -3.406416282625155E-1   -3.058932022977982E-1    2.766300053270686E-4   -5.887806454457663E-4    3.252355993552860E-4   -5.958924785498033E-4   -4.600719097086275E-1   -1.301066961907190E-1
 1.004777584372500E+10  -3.410293066761905E-1   -3.053849297965399E-1    2.300993065836034E-4   -5.691252111585897E-4    3.069476554071951E-4   -5.866772260052514E-4   -4.603373071766652E-1   -1.294884558190839E-1
 1.004778610390000E+10  -3.416177197303338E-1   -3.049789593838800E-1    2.583170344296152E-4   -5.820000370027747E-4    2.869775819060306E-4   -5.358724984116830E-4   -4.605378689068228E-1   -1.289459229343311E-1
 1.004779636407500E+10  -3.419226892117671E-1   -3.043595988747890E-1    2.722815116067683E-4   -5.801197871035557E-4    3.089910026977619E-4   -5.739739840081544E-4   -4.606898246169845E-1   -1.281371165784419E-1
 1.004780662425000E+10  -3.424071622678798E-1   -3.038378043248203E-1    2.256020388884526E-4   -5.748844174839596E-4    3.062778559654294E-4   -5.396772443663618E-4   -4.608132949969888E-1   -1.273896670767268E-1
 1.004781688442500E+10  -3.425945069271925E-1   -3.032496661420217E-1    2.417447328775759E-4   -5.766243294644545E-4    2.978301109159758E-4   -5.548134639014409E-4   -4.608901928491884E-1   -1.266372291530231E-1
 1.004782714460000E+10  -3.432989557832880E-1   -3.027296299225268E-1    2.761761861989064E-4   -5.417007345572205E-4    3.120688256277067E-4   -5.339379545320162E-4   -4.610972120262861E-1   -1.259758262615202E-1
 1.004783740477500E+10  -3.437031001446673E-1   -3.023967612934377E-1    2.536481718860786E-4   -5.499102571595868E-4    2.902575305257728E-4   -5.468898947177440E-4   -4.613246773918323E-1   -1.252570369422715E-1
 1.004784766495000E+10  -3.440097786830076E-1   -3.017652532349313E-1    2.541988213446463E-4   -5.539296073287580E-4    3.031320516817284E-4   -5.409138039544253E-4   -4.615205596134177E-1   -1.246494471780425E-1
 1.004785792512500E+10  -3.444282937363502E-1   -3.010845327374435E-1    2.530080333102817E-4   -5.357765151611247E-4    2.725010720048505E-4   -5.221708048942697E-4   -4.614120786745624E-1   -1.239114529640798E-1
 1.004786818530000E+10  -3.449836259727885E-1   -3.006540227025251E-1    2.427674166705153E-4   -5.325252064741212E-4    2.911769657876354E-4   -4.980971721640253E-4   -4.616331145787858E-1   -1.231515002529889E-1
 1.004787844547500E+10  -3.453589251693146E-1   -3.002137545512918E-1    2.526027619262951E-4   -5.155246902111760E-4    2.627357587759072E-4   -4.972837789897343E-4   -4.618492395803555E-1   -1.224859709596856E-1
 1.004788870565000E+10  -3.458057083066932E-1   -2.995423733846287E-1    2.618671372022620E-4   -5.207844626782822E-4    3.089096263990416E-4   -4.987598673580500E-4   -4.620691996348416E-1   -1.216565562851949E-1
 1.004789896582500E+10  -3.462528157446262E-1   -2.989626218747919E-1    2.388573977472765E-4   -5.380755496518557E-4    2.776917535357043E-4   -5.158736661437295E-4   -4.621489092214525E-1   -1.209181119583752E-1
 1.004790922600000E+10  -3.466733489103505E-1   -2.985923760023317E-1    2.480542172008387E-4   -5.061472225206064E-4    3.185117293749150E-4   -4.930386650332409E-4   -4.623796521347520E-1   -1.203574994421491E-1
 1.004791948617500E+10  -3.470987562483141E-1   -2.979498097837210E-1    2.623436116291062E-4   -4.942349436869890E-4    2.736236068020133E-4   -4.747740097448486E-4   -4.625399532407116E-1   -1.195156257979638E-1
 1.004792974635000E+10  -3.475596799193202E-1   -2.975255663754367E-1    2.373629116093255E-4   -5.203159246524498E-4    3.029171427972138E-4   -5.189136449328998E-4   -4.626610000158066E-1   -1.187419558955196E-1
 1.004794000652500E+10  -3.480886580327272E-1   -2.970633888297422E-1    2.569985543114530E-4   -4.821504773505007E-4    2.787559493565003E-4   -4.810235323946165E-4   -4.629608540115692E-1   -1.181633990281186E-1
 1.004795026670000E+10  -3.483730887684185E-1   -2.965275837187950E-1    2.253863049346552E-4   -4.572857747886061E-4    2.798677524782643E-4   -4.944267555096003E-4   -4.630083906908658E-1   -1.174621457074597E-1
 1.004796052687500E+10  -3.488621783384977E-1   -2.959732653973651E-1    2.391553860264544E-4   -4.666108115663751E-4    2.756774082718370E-4   -4.345599992307133E-4   -4.630611896436733E-1   -1.166263909181102E-1
 1.004797078705000E+10  -3.492438069081723E-1   -2.953977404469216E-1    2.527589786762905E-4   -4.777991014195677E-4    2.954159898077319E-4   -4.728048827319133E-4   -4.632577889621141E-1   -1.158270864166937E-1
 1.004798104722500E+10  -3.495759914019727E-1   -2.948599895490191E-1    2.356480618630190E-4   -4.331871487938675E-4    2.836457587147534E-4   -4.708709470254653E-4   -4.633813625279765E-1   -1.151278657568870E-1
 1.004799130740000E+10  -3.500601890378186E-1   -2.943012710500465E-1    2.316470115833332E-4   -4.479297731413881E-4    2.928069228913018E-4   -4.107139394517163E-4   -4.634469725897492E-1   -1.144880766054442E-1
 1.004800156757500E+10  -3.504363367880872E-1   -2.939425266249440E-1    2.612009789532969E-4   -4.513476657241225E-4    2.735910499069095E-4   -4.157706802224170E-4   -4.636984395423530E-1   -1.137437727827867E-1
 1.004801182775000E+10  -3.507588410292050E-1   -2.932173704597384E-1    2.372574537070916E-4   -4.239641730944290E-4    2.514603802602313E-4   -4.360358843477433E-4   -4.638627546483566E-1   -1.129532622332330E-1
