#  HZ   S   RI   R     50.00 
! Rohde & Schwarz Vector Network Analyzer 
! Rohde-Schwarz,ZNB20-2Port,1311601062101988,3.16
! Created: UTC 3/21/2024, 1:11:08 AM
! freq[Hz]                re:S11                  im:S11                  re:S21                  im:S21                  re:S12                  im:S12                  re:S22                  im:S22
 1.004731973300000E+10  -3.202067931348225E-1   -3.285035806626390E-1    3.491279847886647E-4   -7.644496219877645E-4    3.837532077977167E-4   -7.714711249832098E-4   -4.513705915196561E-1   -1.611869316096511E-1
 1.004732918842500E+10  -3.205261224515528E-1   -3.281718553094562E-1    3.283947920826500E-4   -7.430618420759445E-4    3.980437914626058E-4   -7.630077023139906E-4   -4.515997978419608E-1   -1.603928924935865E-1
 1.004733864385000E+10  -3.208918743603749E-1   -3.276722861034260E-1    3.247948485496260E-4   -7.694179742219512E-4    3.702853963430018E-4   -7.690117592773474E-4   -4.519130902719699E-1   -1.599386592797419E-1
 1.004734809927500E+10  -3.214424851361418E-1   -3.272068645232834E-1    3.216678082663480E-4   -7.843090625636759E-4    3.910515800801242E-4   -7.561386049294615E-4   -4.519798878342676E-1   -1.593026406758877E-1
 1.004735755470000E+10  -3.218493310625573E-1   -3.268083469039356E-1    3.341053754631633E-4   -7.613225632253055E-4    3.881992381633679E-4   -7.671413604847967E-4   -4.521061413760952E-1   -1.585350905808611E-1
 1.004736701012500E+10  -3.222358115492943E-1   -3.263250431279119E-1    3.193289625038472E-4   -7.599368923546671E-4    3.875624760254596E-4   -7.243890337876358E-4   -4.522305509834269E-1   -1.580605327263646E-1
 1.004737646555000E+10  -3.227853154354897E-1   -3.259875431593228E-1    3.239240459850627E-4   -7.550319391609374E-4    4.011910952663801E-4   -7.598659628478638E-4   -4.525360010109912E-1   -1.573135625033630E-1
 1.004738592097500E+10  -3.231813814953610E-1   -3.254070914798312E-1    3.283069588495703E-4   -7.595128057015712E-4    3.747098272220460E-4   -7.390185973492618E-4   -4.527257385185051E-1   -1.567245323933066E-1
 1.004739537640000E+10  -3.234826268887533E-1   -3.249705146298756E-1    3.198626661439614E-4   -7.843459772607628E-4    3.770139687576287E-4   -7.322097533199797E-4   -4.530241267026949E-1   -1.561697721635657E-1
 1.004740483182500E+10  -3.240475516614607E-1   -3.244856425542370E-1    3.130787055842806E-4   -7.446843772006582E-4    3.614018677684833E-4   -7.391621444245701E-4   -4.531629452521096E-1   -1.554755019601633E-1
 1.004741428725000E+10  -3.244202161822313E-1   -3.241763572721518E-1    3.225751808598824E-4   -7.359460509250631E-4    3.867711495146135E-4   -7.589623623404482E-4   -4.534542743363666E-1   -1.549391341983002E-1
 1.004742374267500E+10  -3.247288657151725E-1   -3.235776314652414E-1    3.367432425004334E-4   -7.547539570559379E-4    3.623293797029270E-4   -7.451007773099733E-4   -4.536005100960956E-1   -1.541875274182304E-1
 1.004743319810000E+10  -3.253416372527542E-1   -3.231603816982624E-1    3.159769244008218E-4   -7.412872861563522E-4    3.722050306790067E-4   -7.532150831998497E-4   -4.536200796505850E-1   -1.536977635398192E-1
 1.004744265352500E+10  -3.256680070480280E-1   -3.226917296153388E-1    3.251111829087695E-4   -7.568238965442798E-4    3.823679799725587E-4   -7.435602697612272E-4   -4.539369428781771E-1   -1.529944609550075E-1
 1.004745210895000E+10  -3.261080510065248E-1   -3.222749711863724E-1    3.285906921678198E-4   -7.559308653969075E-4    3.454778142475400E-4   -7.185964859872886E-4   -4.541192393558253E-1   -1.524588651435261E-1
 1.004746156437500E+10  -3.264600256239591E-1   -3.217482349273647E-1    3.318836049681327E-4   -7.357092004869709E-4    3.561538945055312E-4   -7.505171938143229E-4   -4.541818561837266E-1   -1.518149926388780E-1
 1.004747101980000E+10  -3.269042495570958E-1   -3.213047021801598E-1    3.531813033510653E-4   -7.302477497452626E-4    3.583785341634687E-4   -7.126163975642171E-4   -4.544370150658747E-1   -1.511476832758061E-1
 1.004748047522500E+10  -3.274770498568678E-1   -3.210010982524869E-1    3.304410754471050E-4   -7.198191877368108E-4    3.770422324502132E-4   -6.810440007865233E-4   -4.546604971684683E-1   -1.505614879557460E-1
 1.004748993065000E+10  -3.278575278700731E-1   -3.204379118073940E-1    3.178081018666198E-4   -7.447665853456386E-4    3.545634683547497E-4   -7.315026166270688E-4   -4.549503286927768E-1   -1.498879633718853E-1
 1.004749938607500E+10  -3.281958008782114E-1   -3.199312644755068E-1    2.933878464196035E-4   -7.186317107150152E-4    3.612130367654429E-4   -7.193566480556263E-4   -4.550306683649640E-1   -1.494860285576868E-1
 1.004750884150000E+10  -3.286567964784047E-1   -3.195161278502588E-1    3.238630642771939E-4   -7.037221313230954E-4    3.637486723302204E-4   -6.920695921854057E-4   -4.552433940738530E-1   -1.487955134489819E-1
 1.004751829692500E+10  -3.289842470691336E-1   -3.189508695201093E-1    3.261141648184854E-4   -7.102692552361115E-4    3.507029877436687E-4   -7.128238893095739E-4   -4.554135964310689E-1   -1.480065695566328E-1
 1.004752775235000E+10  -3.294460788600583E-1   -3.185815622211295E-1    3.023444209326081E-4   -7.330667445997241E-4    3.427173923541222E-4   -6.988133743031328E-4   -4.557895844287610E-1   -1.476050737421989E-1
 1.004753720777500E+10  -3.298770856444921E-1   -3.180799953441436E-1    3.333430398692723E-4   -6.959591676711495E-4    3.373076474507651E-4   -7.050599372550330E-4   -4.558015557617509E-1   -1.469484734986120E-1
 1.004754666320000E+10  -3.303419542660943E-1   -3.175704240389274E-1    2.961269144867310E-4   -7.297005491956315E-4    3.415707929963214E-4   -6.951591432159724E-4   -4.559065418561997E-1   -1.462624482151749E-1
 1.004755611862500E+10  -3.308024055145449E-1   -3.171128232285307E-1    3.069913196892313E-4   -7.259090459260896E-4    3.570222265986926E-4   -7.009027078094162E-4   -4.562347570788959E-1   -1.456304348356648E-1
 1.004756557405000E+10  -3.312888806543424E-1   -3.166989341763629E-1    3.021881927514206E-4   -7.090035695237689E-4    3.556046161620007E-4   -7.197290876319974E-4   -4.563124626834945E-1   -1.449992591067798E-1
 1.004757502947500E+10  -3.315114327659643E-1   -3.161774233062427E-1    2.822829052056467E-4   -7.035311325041078E-4    3.487882868750328E-4   -7.134895843361271E-4   -4.563618598615862E-1   -1.444051417796263E-1
 1.004758448490000E+10  -3.320375224315968E-1   -3.157281686570023E-1    2.860023960420217E-4   -7.074257199187098E-4    3.539894363470296E-4   -6.969750951268519E-4   -4.566965803758235E-1   -1.437328464756526E-1
 1.004759394032500E+10  -3.324513071099190E-1   -3.153498008809177E-1    3.091070614397180E-4   -7.000912181551425E-4    3.451181694166880E-4   -7.039372922739847E-4   -4.569795088866804E-1   -1.431072947248331E-1
 1.004760339575000E+10  -3.329362694286900E-1   -3.148093242271151E-1    3.140119624303609E-4   -6.918214910881427E-4    3.420695060681627E-4   -6.687953814811836E-4   -4.569540663328729E-1   -1.425519635531072E-1
 1.004761285117500E+10  -3.332061638104760E-1   -3.143340878233937E-1    2.830207553285871E-4   -6.870304531966129E-4    3.373531583068873E-4   -6.813005767150723E-4   -4.571546742473673E-1   -1.418096435896054E-1
 1.004762230660000E+10  -3.336889513567964E-1   -3.138260299485847E-1    2.829126815836738E-4   -6.846816852186666E-4    3.346570905855660E-4   -6.878732283571099E-4   -4.575162579407740E-1   -1.411698556931267E-1
 1.004763176202500E+10  -3.341126829405976E-1   -3.134629255220773E-1    3.027737372311956E-4   -6.743675369548570E-4    3.245082789218088E-4   -6.693754991015613E-4   -4.573923313928860E-1   -1.406170147250768E-1
 1.004764121745000E+10  -3.345410525026054E-1   -3.129109194060198E-1    2.808522296031310E-4   -6.839300766503672E-4    3.470979584626982E-4   -6.705469730974955E-4   -4.576431029053071E-1   -1.400549220120478E-1
 1.004765067287500E+10  -3.347245368155250E-1   -3.124772433600974E-1    2.811899716070217E-4   -6.868145895468977E-4    3.217073830558866E-4   -6.784729409879072E-4   -4.578219737015098E-1   -1.393287954657691E-1
 1.004766012830000E+10  -3.353142018952694E-1   -3.120080969523073E-1    2.687940586815717E-4   -6.613944646391700E-4    3.312448410944378E-4   -6.815660072759231E-4   -4.579558746999970E-1   -1.387041571565575E-1
 1.004766958372500E+10  -3.358745468343654E-1   -3.116209065720253E-1    2.812192102603180E-4   -6.726764096549343E-4    3.233105037796494E-4   -6.686336070914767E-4   -4.581445250472889E-1   -1.380523529146749E-1
 1.004767903915000E+10  -3.360876626025738E-1   -3.110382718879333E-1    2.964193182494759E-4   -6.509988067454354E-4    3.320249537208973E-4   -6.472452214211584E-4   -4.584620907338664E-1   -1.374676549133636E-1
 1.004768849457500E+10  -3.366636943744307E-1   -3.105527971106618E-1    2.914942526165533E-4   -6.488710309236983E-4    3.263135938423616E-4   -6.506563190662718E-4   -4.584484394039989E-1   -1.366601285867005E-1
 1.004769795000000E+10  -3.369472874212433E-1   -3.100735049408708E-1    2.837487662827049E-4   -6.418008981183422E-4    3.326318023173535E-4   -6.445223377698975E-4   -4.586519382195384E-1   -1.360840597445821E-1
 1.004770740542500E+10  -3.373692468337735E-1   -3.095936273826274E-1    2.579701884900431E-4   -6.314247661831408E-4    3.235501210061511E-4   -6.415414193687483E-4   -4.588261928144808E-1   -1.354876578163402E-1
 1.004771686085000E+10  -3.377554387423992E-1   -3.091382367043637E-1    2.833168405116393E-4   -6.672954954903234E-4    3.598331240149444E-4   -6.281033449527303E-4   -4.588973361282029E-1   -1.348980807208145E-1
 1.004772631627500E+10  -3.382073284720186E-1   -3.086019197400470E-1    2.877015112329108E-4   -6.372152998460133E-4    3.107887335346809E-4   -6.600019500112911E-4   -4.592180855125492E-1   -1.341963460135959E-1
 1.004773577170000E+10  -3.385654296007189E-1   -3.082584549063290E-1    2.842601596064964E-4   -6.394366346577802E-4    3.422094123587841E-4   -6.052199682383773E-4   -4.594598174583254E-1   -1.335563498522079E-1
 1.004774522712500E+10  -3.390293983286640E-1   -3.077562133988718E-1    2.772277177587613E-4   -6.469409210301881E-4    3.099634283325067E-4   -6.336607418157155E-4   -4.595259739952988E-1   -1.328981119927712E-1
 1.004775468255000E+10  -3.394338354102016E-1   -3.071887448225933E-1    2.698299372413229E-4   -6.367508847393082E-4    3.287036165149686E-4   -6.283181534535910E-4   -4.596957807467045E-1   -1.323492914640373E-1
 1.004776413797500E+10  -3.398823578887369E-1   -3.067446435941256E-1    2.728208972858136E-4   -6.205540280060329E-4    2.963603746150722E-4   -6.118920120946729E-4   -4.598219040346566E-1   -1.317130545991713E-1
 1.004777359340000E+10  -3.401924320504847E-1   -3.062599189733761E-1    2.799942808872537E-4   -6.250108128394176E-4    2.932570479455501E-4   -6.282791768612548E-4   -4.600893226699367E-1   -1.310538365697752E-1
 1.004778304882500E+10  -3.404969358343303E-1   -3.058799962842137E-1    2.541974049217692E-4   -6.275249469561555E-4    3.118282259243848E-4   -6.220774293660492E-4   -4.602363230113849E-1   -1.303408477679236E-1
 1.004779250425000E+10  -3.409539845216289E-1   -3.053328331786169E-1    2.694947895462422E-4   -6.030209746938657E-4    3.006005850751002E-4   -6.160163775712553E-4   -4.603375158509104E-1   -1.297820463922713E-1
 1.004780195967500E+10  -3.414313732740646E-1   -3.048401598927746E-1    2.521203299983112E-4   -5.983772443430329E-4    3.108918826871098E-4   -5.994578050460156E-4   -4.604056533682475E-1   -1.290229826481865E-1
 1.004781141510000E+10  -3.417156301060029E-1   -3.044116050808383E-1    2.739200835123173E-4   -6.384002539868424E-4    3.049886255034553E-4   -5.714383066233245E-4   -4.606485898752219E-1   -1.284386797715213E-1
 1.004782087052500E+10  -3.422638753365522E-1   -3.038878694367063E-1    2.727526398589073E-4   -6.192878883509315E-4    3.005342162120625E-4   -6.071902757382008E-4   -4.607353489798006E-1   -1.277948037711955E-1
 1.004783032595000E+10  -3.425612529106130E-1   -3.033730062286575E-1    2.243368599842333E-4   -6.285498100939918E-4    2.933903463352525E-4   -6.054153165509304E-4   -4.609931188620306E-1   -1.271888188750319E-1
 1.004783978137500E+10  -3.430233118838151E-1   -3.029274842063129E-1    2.772542404561036E-4   -5.929579629335164E-4    3.209733419801727E-4   -5.738944974659552E-4   -4.610931991958243E-1   -1.265260741783533E-1
 1.004784923680000E+10  -3.432812499106502E-1   -3.023688467366553E-1    2.778508880608161E-4   -5.889707036534913E-4    3.406015002125864E-4   -6.016435479250028E-4   -4.612620573794199E-1   -1.258313974467038E-1
 1.004785869222500E+10  -3.437507702349494E-1   -3.019595244021843E-1    2.545948834194374E-4   -6.029373016882861E-4    3.118723854953013E-4   -5.701674146827418E-4   -4.614108943412404E-1   -1.252812651471517E-1
 1.004786814765000E+10  -3.442308638019012E-1   -3.015032158562128E-1    2.695395752168716E-4   -5.766218308577417E-4    2.897283842516824E-4   -5.665801474571484E-4   -4.614020978136004E-1   -1.245879147279174E-1
 1.004787760307500E+10  -3.445226936404925E-1   -3.008984935064162E-1    2.437355180229483E-4   -5.893423063528866E-4    3.025214596368750E-4   -5.487158692159995E-4   -4.615421651949281E-1   -1.237260788865225E-1
 1.004788705850000E+10  -3.448823316756799E-1   -3.005302257997897E-1    2.461444007056655E-4   -5.789696497643897E-4    2.786921473879354E-4   -5.583579714317424E-4   -4.617899675951259E-1   -1.230869900295490E-1
 1.004789651392500E+10  -3.453152077031603E-1   -2.999042901610055E-1    2.290488829185371E-4   -5.620709483244874E-4    2.738237161899392E-4   -5.703663702692087E-4   -4.618342936522796E-1   -1.225492088564206E-1
 1.004790596935000E+10  -3.457741013332030E-1   -2.995214095303607E-1    2.490214665061812E-4   -5.863443100801865E-4    2.758906430602982E-4   -5.388144344519673E-4   -4.621605165957242E-1   -1.218038137453671E-1
 1.004791542477500E+10  -3.462326502749115E-1   -2.990368930076848E-1    2.521269123682207E-4   -5.602921188202658E-4    3.026836579683661E-4   -5.570932591736334E-4   -4.622034427496146E-1   -1.212574028797675E-1
 1.004792488020000E+10  -3.464773311416583E-1   -2.986543430537526E-1    2.386086710236346E-4   -5.684006563965554E-4    2.904754192996161E-4   -5.210265451014268E-4   -4.624069200332384E-1   -1.205853319223459E-1
 1.004793433562500E+10  -3.468314565608773E-1   -2.980383437311097E-1    2.312984459037861E-4   -5.673360990343169E-4    2.787955803044896E-4   -5.505799063254759E-4   -4.625179044523200E-1   -1.199894839229618E-1
 1.004794379105000E+10  -3.472464984519383E-1   -2.976215582891850E-1    2.790766399603564E-4   -5.226445580652621E-4    2.817532257731653E-4   -5.613867981727204E-4   -4.625848369347596E-1   -1.191179018333199E-1
 1.004795324647500E+10  -3.477057719618365E-1   -2.970544286093827E-1    2.596617631640069E-4   -5.414971704016602E-4    2.760761993622982E-4   -5.165360620943046E-4   -4.626397818994932E-1   -1.185718755273463E-1
 1.004796270190000E+10  -3.480551142656731E-1   -2.965854685457326E-1    2.368559302110774E-4   -5.129433333480501E-4    2.811054968687285E-4   -5.096644245482449E-4   -4.628599120483392E-1   -1.179884314444063E-1
 1.004797215732500E+10  -3.484065248348238E-1   -2.961342409323584E-1    2.426900410059314E-4   -5.356263091531874E-4    2.722137269729498E-4   -5.253960929526338E-4   -4.629599926811783E-1   -1.173615765442445E-1
 1.004798161275000E+10  -3.487876724335973E-1   -2.955724014193173E-1    2.489460910784918E-4   -5.321825270377491E-4    2.522032608343636E-4   -5.021310886559717E-4   -4.630847200667439E-1   -1.166863532680214E-1
 1.004799106817500E+10  -3.491894048709929E-1   -2.950900229888631E-1    2.496481748045604E-4   -5.237672240049268E-4    2.851713455512118E-4   -5.062650164621261E-4   -4.633602011522149E-1   -1.158571387000757E-1
 1.004800052360000E+10  -3.496504556066851E-1   -2.946177431276603E-1    2.056649839514877E-4   -4.864103442394388E-4    2.832017953993446E-4   -4.937999487581133E-4   -4.634980245528364E-1   -1.153523430224980E-1
 1.004800997902500E+10  -3.501191933904386E-1   -2.940741398776790E-1    2.191742072575767E-4   -5.247782496121326E-4    3.058029715915326E-4   -4.963687513273533E-4   -4.636107195571699E-1   -1.146490177608229E-1
 1.004801943445000E+10  -3.503778151418327E-1   -2.937163194292443E-1    2.583869861816358E-4   -4.930216160385913E-4    2.802261392166250E-4   -4.783386564196079E-4   -4.637350069631216E-1   -1.138410020247657E-1
 1.004802888987500E+10  -3.508238019041343E-1   -2.932511359492526E-1    2.410706753746512E-4   -4.626102011926242E-4    2.577032520676401E-4   -4.884639299819703E-4   -4.637887980856638E-1   -1.132310638363890E-1
 1.004803834530000E+10  -3.512716204290108E-1   -2.927056217546115E-1    2.384037751552966E-4   -5.036135283922526E-4    2.735380860921736E-4   -4.643277679680125E-4   -4.640522326925348E-1   -1.126007753344553E-1
 1.004804780072500E+10  -3.515533218233585E-1   -2.922905186628912E-1    2.309223738773988E-4   -4.741807306128936E-4    2.688743034377513E-4   -4.530821498419517E-4   -4.639367780584073E-1   -1.120391959916305E-1
 1.004805725615000E+10  -3.519730447432667E-1   -2.916278551404618E-1    2.408050876780193E-4   -4.664361444177395E-4    2.547110119847113E-4   -4.275547992732480E-4   -4.642365057503768E-1   -1.113198657705492E-1
 1.004806671157500E+10  -3.524296140020031E-1   -2.911973134478705E-1    2.447108792946399E-4   -4.666233625773906E-4    2.848661505381556E-4   -4.423936524651793E-4   -4.643693794873259E-1   -1.105384781304543E-1
 1.004807616700000E+10  -3.526915994529175E-1   -2.907670627449687E-1    2.337444859016403E-4   -4.391642787057542E-4    2.731416892506915E-4   -4.313607474251720E-4   -4.644692823096405E-1   -1.098896605313115E-1
 1.004808562242500E+10  -3.531769330469480E-1   -2.902186024465302E-1    2.212497399557476E-4   -4.275431766219819E-4    2.552754930600518E-4   -4.254353100524904E-4   -4.647095164591451E-1   -1.091693937995557E-1
 1.004809507785000E+10  -3.534595883912116E-1   -2.897986972765352E-1    2.539317645759768E-4   -4.497029180703384E-4    2.902369895787145E-4   -3.878443733025211E-4   -4.646930618249711E-1   -1.084196727373518E-1
 1.004810453327500E+10  -3.538778138700371E-1   -2.893712662080296E-1    2.486049244846696E-4   -4.005865441727229E-4    2.618654043803564E-4   -4.282276484327170E-4   -4.648371610679823E-1   -1.079314415570825E-1
 1.004811398870000E+10  -3.542892031694363E-1   -2.889323949083766E-1    2.406690496109713E-4   -4.220447357327022E-4    2.757422162364631E-4   -4.150311092167529E-4   -4.649716364462198E-1   -1.071825086308529E-1
 1.004812344412500E+10  -3.547295195789887E-1   -2.883539337360705E-1    2.081850998146047E-4   -4.017553495801297E-4    2.437563056647492E-4   -3.993123153361895E-4   -4.651835496809359E-1   -1.064695031486101E-1
 1.004813289955000E+10  -3.549987355927695E-1   -2.879502189429125E-1    2.297712239959711E-4   -3.966266588042185E-4    2.463740842847846E-4   -3.975724037102502E-4   -4.653299299298923E-1   -1.059432114734664E-1
 1.004814235497500E+10  -3.554211444507843E-1   -2.873788023099319E-1    2.193561139016502E-4   -3.940073125944519E-4    2.444782140347012E-4   -3.876168619917912E-4   -4.654011991170938E-1   -1.051961417946038E-1
 1.004815181040000E+10  -3.558114252667708E-1   -2.868181038906095E-1    2.487138320048308E-4   -3.787497773278721E-4    2.832228728629081E-4   -3.599602111809835E-4   -4.653325518806556E-1   -1.044817417890331E-1
 1.004816126582500E+10  -3.561430897385742E-1   -2.863524423875284E-1    2.321208698706810E-4   -4.018872846745300E-4    2.652813475088115E-4   -3.479871930096551E-4   -4.654714603999819E-1   -1.037451547506974E-1
 1.004817072125000E+10  -3.564839152694394E-1   -2.859565016631720E-1    2.346249366376702E-4   -3.842491899016177E-4    2.332615079699189E-4   -3.949802769950680E-4   -4.657097859727083E-1   -1.030904708996753E-1
