#  HZ   S   RI   R     50.00 
! Rohde & Schwarz Vector Network Analyzer 
! Rohde-Schwarz,ZNB20-2Port,1311601062101988,3.16
! Created: UTC 3/21/2024, 1:11:53 AM
! freq[Hz]                re:S11                  im:S11                  re:S21                  im:S21                  re:S12                  im:S12                  re:S22                  im:S22
 1.004747537000000E+10  -3.266780173380074E-1   -3.214979601588046E-1    3.127224425465293E-4   -7.513994124087945E-4    3.852216209810760E-4   -7.391380741879829E-4   -4.544508731464432E-1   -1.516053047847195E-1
 1.004748427120000E+10  -3.270047962744955E-1   -3.211435884732287E-1    3.479929800846945E-4   -7.617688905880957E-4    3.708878645039930E-4   -7.470699998894346E-4   -4.545188812619630E-1   -1.510818580293034E-1
 1.004749317240000E+10  -3.275118193478296E-1   -3.206434093425414E-1    2.962324847011950E-4   -7.348067099671054E-4    3.736656094901498E-4   -7.468972680751165E-4   -4.548128202121478E-1   -1.502807439101055E-1
 1.004750207360000E+10  -3.278446445365686E-1   -3.203035438930704E-1    3.142759599927951E-4   -7.560452109619427E-4    3.655182999445617E-4   -7.215869606960773E-4   -4.549220660451083E-1   -1.497660275360201E-1
 1.004751097480000E+10  -3.284120205256901E-1   -3.197741684723321E-1    3.184238032282465E-4   -7.410787735405911E-4    3.621113538638580E-4   -7.286335463007665E-4   -4.551868111599913E-1   -1.491379494499192E-1
 1.004751987600000E+10  -3.285934638439122E-1   -3.193938251145890E-1    3.014570405993964E-4   -7.153658664471923E-4    3.621250585024675E-4   -7.177670849463494E-4   -4.552006077186733E-1   -1.485950518317933E-1
 1.004752877720000E+10  -3.290674889427070E-1   -3.189474776699198E-1    3.031472704967407E-4   -7.368565306615124E-4    3.602476824035508E-4   -7.214367606159631E-4   -4.553501943275582E-1   -1.481156633199920E-1
 1.004753767840000E+10  -3.294626477137632E-1   -3.184622484919468E-1    2.954116192378504E-4   -7.519425966944136E-4    3.481411357300602E-4   -7.435613129504774E-4   -4.554895293732546E-1   -1.474711458063308E-1
 1.004754657960000E+10  -3.297522929909058E-1   -3.180737227562507E-1    3.068796134106702E-4   -7.430651739863454E-4    3.578842492507766E-4   -7.306681971267610E-4   -4.557245243155982E-1   -1.469275592950612E-1
 1.004755548080000E+10  -3.302396279962576E-1   -3.175608644155373E-1    3.058589533545702E-4   -7.076816765837191E-4    3.484087309651675E-4   -7.112958672147513E-4   -4.558621115615686E-1   -1.463496952609879E-1
 1.004756438200000E+10  -3.305860245059084E-1   -3.171624348036982E-1    3.042018239464172E-4   -7.556790996897538E-4    3.428762729191696E-4   -6.974404148447118E-4   -4.561318564413509E-1   -1.456823741200275E-1
 1.004757328320000E+10  -3.309656032644313E-1   -3.168006919931118E-1    3.066558186005405E-4   -7.073444709012217E-4    3.284696252599328E-4   -7.006787398135542E-4   -4.562246685396857E-1   -1.450725760533009E-1
 1.004758218440000E+10  -3.314684065259457E-1   -3.163204298920986E-1    3.016093722362446E-4   -7.327762089639398E-4    3.252846449441323E-4   -7.236896522396221E-4   -4.562513756236574E-1   -1.444830372475707E-1
 1.004759108560000E+10  -3.318808615442521E-1   -3.158122684008706E-1    3.047648123177976E-4   -7.214072987895969E-4    3.572229696792814E-4   -7.038252787318290E-4   -4.566476794071764E-1   -1.439531987061284E-1
 1.004759998680000E+10  -3.322098628069335E-1   -3.153772067630792E-1    3.135248346671288E-4   -7.219381510457248E-4    3.601027546118050E-4   -7.083446590293828E-4   -4.568253360108379E-1   -1.433219266132771E-1
 1.004760888800000E+10  -3.326586526677504E-1   -3.150304315227934E-1    2.801179814773833E-4   -7.215277365503203E-4    3.381386321826476E-4   -7.293331932865625E-4   -4.568769939489613E-1   -1.426479776466145E-1
 1.004761778920000E+10  -3.330395129039061E-1   -3.144523290020035E-1    3.028321033993585E-4   -7.325186297881139E-4    3.582779244378257E-4   -6.843223136059727E-4   -4.570443371890153E-1   -1.421302805189010E-1
 1.004762669040000E+10  -3.334675346537496E-1   -3.140234971273220E-1    2.968843567671472E-4   -6.810308353174931E-4    3.322220769750886E-4   -7.004209040929358E-4   -4.572557710497835E-1   -1.417330627315676E-1
 1.004763559160000E+10  -3.338183690680600E-1   -3.135499760908200E-1    3.119982462805797E-4   -6.823043908363163E-4    3.412917313833323E-4   -6.903362792905870E-4   -4.574835449500903E-1   -1.410418444518447E-1
 1.004764449280000E+10  -3.342192285858425E-1   -3.132217670696882E-1    2.863677288417132E-4   -6.880387323028771E-4    3.567243896368918E-4   -6.694858925822811E-4   -4.576434182894314E-1   -1.404139275897803E-1
 1.004765339400000E+10  -3.346543656769135E-1   -3.127010336009922E-1    2.873622396017226E-4   -6.905858961821070E-4    3.204555562858213E-4   -6.853225121681896E-4   -4.576607988977933E-1   -1.397227999558221E-1
 1.004766229520000E+10  -3.349150519605230E-1   -3.123646142469674E-1    2.732992365434654E-4   -7.090481252183932E-4    3.567854989080730E-4   -6.868680444120258E-4   -4.579885976392837E-1   -1.391660872699974E-1
 1.004767119640000E+10  -3.352564623312565E-1   -3.118259681590281E-1    2.719675459573117E-4   -6.807561957120074E-4    3.293141983515767E-4   -7.028035390392417E-4   -4.580276394791545E-1   -1.387724795628289E-1
 1.004768009760000E+10  -3.356733923288193E-1   -3.114283067912324E-1    2.708130632685685E-4   -6.781765126638661E-4    3.237260365793327E-4   -6.949753216444026E-4   -4.582736302983578E-1   -1.381040313421405E-1
 1.004768899880000E+10  -3.360861233053865E-1   -3.108432701861610E-1    2.716893221651308E-4   -6.718943503619474E-4    3.289585514391515E-4   -6.760680745416007E-4   -4.582054797925472E-1   -1.374065243600689E-1
 1.004769790000000E+10  -3.364179018857888E-1   -3.105924836452147E-1    2.827197998223025E-4   -6.845811830913375E-4    3.314171441238510E-4   -6.739758962091853E-4   -4.584856034837910E-1   -1.367924509214493E-1
 1.004770680120000E+10  -3.368772118062955E-1   -3.100968834454757E-1    2.850804847205206E-4   -7.007683943461907E-4    3.200107695771327E-4   -6.667138548957246E-4   -4.587340248137320E-1   -1.362281155421892E-1
 1.004771570240000E+10  -3.372545494761047E-1   -3.097507201729174E-1    2.718122563661366E-4   -6.819470867182981E-4    3.103207856210759E-4   -6.748020486545160E-4   -4.589502822999495E-1   -1.357044802492421E-1
 1.004772460360000E+10  -3.376655710318966E-1   -3.092706838313641E-1    2.867805655153659E-4   -6.487401167055813E-4    3.288359633939501E-4   -6.438871295083812E-4   -4.590690960989242E-1   -1.350200591221357E-1
 1.004773350480000E+10  -3.379426053049676E-1   -3.087512841155854E-1    2.669984425939479E-4   -6.624871609544453E-4    3.103306377468007E-4   -6.389754871094333E-4   -4.590787482267433E-1   -1.344160031523210E-1
 1.004774240600000E+10  -3.384505061745958E-1   -3.083292603637622E-1    2.840185406568630E-4   -6.706994366662003E-4    3.096066239503827E-4   -6.431475711757876E-4   -4.594408999330599E-1   -1.338282295687734E-1
 1.004775130720000E+10  -3.387556294349043E-1   -3.077758118619053E-1    2.854445244685379E-4   -6.512387073150290E-4    3.202870254292130E-4   -6.771554151387191E-4   -4.593432088879733E-1   -1.333356723394701E-1
 1.004776020840000E+10  -3.390252724341767E-1   -3.074493030612284E-1    2.765282458188342E-4   -6.625967604459000E-4    3.116717039447449E-4   -6.339206008719312E-4   -4.595796445152535E-1   -1.326604795487679E-1
 1.004776910960000E+10  -3.394829944250358E-1   -3.068914193754294E-1    2.848635788920007E-4   -6.756340530376554E-4    3.115424987759468E-4   -6.648096765816893E-4   -4.597177344485995E-1   -1.321562958222316E-1
 1.004777801080000E+10  -3.398408539783539E-1   -3.065203370533242E-1    2.842308222478946E-4   -6.477544101817402E-4    3.195770369252543E-4   -6.610815140676875E-4   -4.600603596988856E-1   -1.313304908444462E-1
 1.004778691200000E+10  -3.402789025299763E-1   -3.060370462070852E-1    2.667108427626669E-4   -6.567263478614546E-4    3.183609602477343E-4   -6.240972319852397E-4   -4.601762226557667E-1   -1.309008286745891E-1
 1.004779581320000E+10  -3.407074296731847E-1   -3.055347692077300E-1    2.855198182711635E-4   -6.574218737242542E-4    3.248257859596691E-4   -6.243357575099774E-4   -4.600428464579561E-1   -1.303242104150897E-1
 1.004780471440000E+10  -3.409825098653493E-1   -3.052370322050318E-1    2.607382752652297E-4   -6.595976951753508E-4    3.373583068649353E-4   -6.294231503667177E-4   -4.603113242355912E-1   -1.296689584517195E-1
 1.004781361560000E+10  -3.413945894405608E-1   -3.046623028783413E-1    2.492783498076685E-4   -5.984158671097093E-4    3.194814462671813E-4   -6.189245984162297E-4   -4.603556501725432E-1   -1.290113992577956E-1
 1.004782251680000E+10  -3.416013697800754E-1   -3.042438113142454E-1    2.379730604517463E-4   -6.319755336126767E-4    2.988858091576708E-4   -6.214889343444655E-4   -4.605439114782002E-1   -1.284173307506918E-1
 1.004783141800000E+10  -3.422076366909799E-1   -3.037254386451961E-1    2.591409750008291E-4   -6.245753448613049E-4    2.918607311593869E-4   -6.026651688438110E-4   -4.607568147791881E-1   -1.277786029875596E-1
 1.004784031920000E+10  -3.425891233700646E-1   -3.034082575784001E-1    2.606449159140536E-4   -6.170235686176198E-4    3.180191889144810E-4   -6.241877464347676E-4   -4.609032982112823E-1   -1.272369861659676E-1
 1.004784922040000E+10  -3.429066655240727E-1   -3.028339122470187E-1    2.341271275137642E-4   -5.931676497631793E-4    3.405377460829217E-4   -5.902545486790827E-4   -4.611053110452260E-1   -1.267874798979091E-1
 1.004785812160000E+10  -3.432298816095735E-1   -3.023921178993646E-1    2.545738748487685E-4   -6.152114724137788E-4    3.180966159520196E-4   -6.023963129218420E-4   -4.610878838322565E-1   -1.259840074695039E-1
 1.004786702280000E+10  -3.435969843560785E-1   -3.019680972887376E-1    2.674585825149760E-4   -5.904038770093240E-4    3.105816523400486E-4   -6.046739912875907E-4   -4.613936652626145E-1   -1.253902651305872E-1
 1.004787592400000E+10  -3.439378076652011E-1   -3.015813760005224E-1    2.467409451244726E-4   -6.019507770662079E-4    3.070398129476574E-4   -6.324062823644424E-4   -4.615718761712038E-1   -1.247543311043203E-1
 1.004788482520000E+10  -3.444209225891785E-1   -3.010386556674596E-1    2.381761800651807E-4   -6.117018630132516E-4    2.914875418490838E-4   -5.626793238412702E-4   -4.616348313140613E-1   -1.242015081271924E-1
 1.004789372640000E+10  -3.447157395299669E-1   -3.005647565367061E-1    2.693738168017227E-4   -5.759964473720836E-4    3.042834857627680E-4   -5.804073147779906E-4   -4.617763924747432E-1   -1.235424463850309E-1
 1.004790262760000E+10  -3.450929243410934E-1   -3.001418961514780E-1    2.486063898872268E-4   -5.880382511783293E-4    2.779471440948783E-4   -5.963072093677275E-4   -4.618928701362444E-1   -1.228766018891056E-1
 1.004791152880000E+10  -3.454719093129724E-1   -2.995773040497432E-1    2.419108267740953E-4   -5.922859610480451E-4    3.061624092938812E-4   -6.008813316465378E-4   -4.619365733376994E-1   -1.222555074746622E-1
 1.004792043000000E+10  -3.458578936306299E-1   -2.991097506758887E-1    2.390985527993160E-4   -6.129153470301761E-4    2.781600409366269E-4   -5.544402852138233E-4   -4.620962491611379E-1   -1.216763531450417E-1
 1.004792933120000E+10  -3.463261767810253E-1   -2.988179943784536E-1    2.408398471356208E-4   -5.791962856115424E-4    2.870273185571642E-4   -5.498771876168856E-4   -4.624165397920785E-1   -1.211286625984225E-1
 1.004793823240000E+10  -3.466241137713604E-1   -2.982556932459921E-1    2.393226456387002E-4   -5.638009022320167E-4    2.674021029453174E-4   -5.655786341689970E-4   -4.624366598451976E-1   -1.205249920999787E-1
 1.004794713360000E+10  -3.470069144024968E-1   -2.978203588814964E-1    2.349409229295577E-4   -5.705239256982722E-4    3.003617903499991E-4   -5.644093256025441E-4   -4.626252072327107E-1   -1.198927088551533E-1
 1.004795603480000E+10  -3.473551946226462E-1   -2.973409433161581E-1    2.412834186718072E-4   -5.606570457483891E-4    2.687180624529437E-4   -5.555621266976316E-4   -4.628593005127598E-1   -1.193499835031832E-1
 1.004796493600000E+10  -3.477337897574350E-1   -2.968281330471707E-1    2.248466997201841E-4   -5.652873749391187E-4    3.096489096559427E-4   -5.484483989335131E-4   -4.628413948144489E-1   -1.185942423292882E-1
 1.004797383720000E+10  -3.480226011487586E-1   -2.964341803971640E-1    2.243508302831196E-4   -5.619092244907325E-4    2.966202690854939E-4   -5.441695350799889E-4   -4.629355389226549E-1   -1.180393700966264E-1
 1.004798273840000E+10  -3.485494063609552E-1   -2.960927373591536E-1    2.444208326048443E-4   -5.594795431346954E-4    2.887736169438985E-4   -5.652028236221612E-4   -4.631501437998488E-1   -1.174268373267818E-1
 1.004799163960000E+10  -3.489085799046345E-1   -2.955147170428835E-1    2.249887694809080E-4   -5.617538612626047E-4    2.959084365368525E-4   -5.448907040237718E-4   -4.633163805487890E-1   -1.168128473141261E-1
 1.004800054080000E+10  -3.492768460598046E-1   -2.950318788132816E-1    2.126732462148776E-4   -5.314605443068875E-4    2.903073428967890E-4   -5.289154022450257E-4   -4.633656697176902E-1   -1.160626225444288E-1
 1.004800944200000E+10  -3.496246261825146E-1   -2.946431742000488E-1    2.397743413706136E-4   -5.406758982320492E-4    2.187160440574884E-4   -5.376330667978852E-4   -4.635736986476231E-1   -1.153921221073551E-1
 1.004801834320000E+10  -3.499796850698172E-1   -2.942009773879836E-1    2.041327641709370E-4   -5.422030506879022E-4    2.558955492716533E-4   -5.113741285555377E-4   -4.635902157035582E-1   -1.149063469854179E-1
 1.004802724440000E+10  -3.502521709636128E-1   -2.937133010198027E-1    2.523141583434555E-4   -5.057813267149836E-4    2.629451606359266E-4   -5.243035726673575E-4   -4.637538876155678E-1   -1.143095476189580E-1
 1.004803614560000E+10  -3.506596407939269E-1   -2.933137699168100E-1    2.237812783577863E-4   -5.357949791567816E-4    2.772333473966920E-4   -5.205780320857276E-4   -4.639048383737153E-1   -1.136665933652681E-1
 1.004804504680000E+10  -3.509195550647924E-1   -2.927548397819661E-1    2.522577922973416E-4   -5.278699306361057E-4    2.626813565810134E-4   -4.842670428521098E-4   -4.640032145036370E-1   -1.131468310453353E-1
 1.004805394800000E+10  -3.513286883916469E-1   -2.923423285105156E-1    2.326796957466582E-4   -5.012575412147197E-4    2.642489814843935E-4   -4.986336862425333E-4   -4.641971093181029E-1   -1.124185518299782E-1
 1.004806284920000E+10  -3.517433076600217E-1   -2.920316549338815E-1    2.216262141178387E-4   -5.061378789830033E-4    2.791601839062799E-4   -4.755020848063630E-4   -4.642982496045147E-1   -1.117397365523678E-1
 1.004807175040000E+10  -3.520474754494493E-1   -2.913654386413130E-1    2.400029311873455E-4   -5.024264904047883E-4    2.438907449977330E-4   -4.651167480968954E-4   -4.643277695197665E-1   -1.111602438228731E-1
 1.004808065160000E+10  -3.524329018749979E-1   -2.910262450156060E-1    2.415617248125185E-4   -4.797500243702034E-4    2.599049243381598E-4   -4.965536974392482E-4   -4.644807362524422E-1   -1.105191309271665E-1
 1.004808955280000E+10  -3.527834925540424E-1   -2.905394319987624E-1    2.043654815552442E-4   -4.682836550639754E-4    2.602431774083458E-4   -4.646652817686367E-4   -4.645168005796872E-1   -1.097944405481185E-1
 1.004809845400000E+10  -3.531832444968102E-1   -2.899982660582935E-1    2.232571024530699E-4   -4.949243393297221E-4    2.408569507818132E-4   -4.764985340538942E-4   -4.646457560213156E-1   -1.092152280680053E-1
 1.004810735520000E+10  -3.536172129489251E-1   -2.895021249338469E-1    2.181337390062950E-4   -4.606718381595716E-4    2.634051046218807E-4   -4.577037494543703E-4   -4.649288030930572E-1   -1.086946251028758E-1
 1.004811625640000E+10  -3.539874459084960E-1   -2.890953302486348E-1    2.425797011288930E-4   -4.503064126292732E-4    2.536669892788303E-4   -4.266833318045182E-4   -4.649508246147568E-1   -1.080820494872008E-1
 1.004812515760000E+10  -3.542814955907850E-1   -2.887763285095610E-1    2.293988629349214E-4   -4.413369265727252E-4    2.522736441911326E-4   -4.617643229126831E-4   -4.650695958227441E-1   -1.073207268756806E-1
 1.004813405880000E+10  -3.546941540203231E-1   -2.882562806462974E-1    2.452007891832501E-4   -4.591465040344802E-4    2.293902351616633E-4   -4.466639316111795E-4   -4.650925031545165E-1   -1.066090118009235E-1
 1.004814296000000E+10  -3.548844061120748E-1   -2.877059323777120E-1    2.288644708025435E-4   -4.558664206163440E-4    2.383232509612379E-4   -4.183914258080551E-4   -4.653538087235454E-1   -1.059703989448070E-1
 1.004815186120000E+10  -3.553159742325517E-1   -2.873735940292574E-1    2.304439869338969E-4   -4.517862473852208E-4    2.822038379489933E-4   -4.199847067141868E-4   -4.654620242130893E-1   -1.055277673852122E-1
 1.004816076240000E+10  -3.556986320950014E-1   -2.868614423251912E-1    2.106765777040742E-4   -4.345337262752804E-4    2.542744915834732E-4   -4.087637326074456E-4   -4.654840584909505E-1   -1.047806352598345E-1
 1.004816966360000E+10  -3.559911788674407E-1   -2.864194743243159E-1    2.076613909459670E-4   -4.030343238279105E-4    2.180653640836755E-4   -4.112324125014891E-4   -4.656290590329156E-1   -1.041547209859181E-1
 1.004817856480000E+10  -3.562990749436572E-1   -2.861150409651039E-1    2.142528028163373E-4   -4.359178341288442E-4    2.611915104949565E-4   -3.909156826169558E-4   -4.656658573892997E-1   -1.035121216435613E-1
 1.004818746600000E+10  -3.567144995230042E-1   -2.854104170319626E-1    2.085397754525082E-4   -3.996795006042693E-4    2.355082616088390E-4   -4.008831386207316E-4   -4.658391866410159E-1   -1.027904552556534E-1
 1.004819636720000E+10  -3.570455925767327E-1   -2.848499631483528E-1    2.478738921435622E-4   -3.895230031484427E-4    2.406272729690801E-4   -3.826851861010494E-4   -4.659193885724105E-1   -1.022331074381960E-1
 1.004820526840000E+10  -3.574272595198608E-1   -2.844434255762236E-1    2.403192974324971E-4   -3.986662510591179E-4    2.389953426035541E-4   -3.889343628963315E-4   -4.660869607196942E-1   -1.014228802146365E-1
 1.004821416960000E+10  -3.578224974473291E-1   -2.840099088869543E-1    2.069197897432506E-4   -4.066551116191912E-4    2.428279529661822E-4   -3.821810931319309E-4   -4.660744929871285E-1   -1.009063254529499E-1
 1.004822307080000E+10  -3.581315974910875E-1   -2.836356214886264E-1    2.268584449406633E-4   -3.731264115674505E-4    2.594900284816043E-4   -3.569666272256455E-4   -4.662214602511042E-1   -1.002622681558698E-1
 1.004823197200000E+10  -3.584705673948095E-1   -2.830603092857222E-1    2.319620307171913E-4   -3.650587817600801E-4    2.736548496023802E-4   -3.651094591845231E-4   -4.663194212896454E-1   -9.964295560598642E-2
 1.004824087320000E+10  -3.588062399062281E-1   -2.826713910778591E-1    2.209769491092402E-4   -3.371121492264578E-4    2.306802352860778E-4   -3.478485979652046E-4   -4.663186702278153E-1   -9.905671022074757E-2
 1.004824977440000E+10  -3.592924914168938E-1   -2.820660709343717E-1    2.334199438912458E-4   -3.431026356747539E-4    2.129301868648463E-4   -3.329242651860980E-4   -4.666657779990055E-1   -9.827507210238486E-2
 1.004825867560000E+10  -3.596488956385638E-1   -2.815880410514037E-1    2.063283500690523E-4   -3.119388203081543E-4    2.530457192334581E-4   -3.450244731544674E-4   -4.666188591017137E-1   -9.765244910918737E-2
 1.004826757680000E+10  -3.599571164059919E-1   -2.812759164931378E-1    2.210644951606947E-4   -3.396596616140347E-4    2.426634715101303E-4   -3.098528198984899E-4   -4.668013956085360E-1   -9.700641042135756E-2
 1.004827647800000E+10  -3.603113240590853E-1   -2.807695481629647E-1    2.137237539409553E-4   -3.078683635218905E-4    2.355925466388424E-4   -3.074057759966771E-4   -4.668054306809213E-1   -9.637921087519379E-2
