#  HZ   S   RI   R     50.00 
! Rohde & Schwarz Vector Network Analyzer 
! Rohde-Schwarz,ZNB20-2Port,1311601062101988,3.16
! Created: UTC 3/21/2024, 1:12:03 AM
! freq[Hz]                re:S11                  im:S11                  re:S21                  im:S21                  re:S12                  im:S12                  re:S22                  im:S22
 1.004749067300000E+10  -3.272987933454302E-1   -3.208633803427481E-1    3.124941238531369E-4   -7.442002755766998E-4    3.581141268451925E-4   -7.564243899375772E-4   -4.544358143215586E-1   -1.507400458350130E-1
 1.004749955900000E+10  -3.277610494640935E-1   -3.204825020319315E-1    3.080982839170918E-4   -7.607073419725522E-4    3.772073586251677E-4   -7.298458169195041E-4   -4.548111898695621E-1   -1.501420730943182E-1
 1.004750844500000E+10  -3.280107812124993E-1   -3.200904541898478E-1    3.121992618014911E-4   -7.348722897203874E-4    3.539541187910690E-4   -7.104464520428911E-4   -4.549381372943462E-1   -1.496071629612395E-1
 1.004751733100000E+10  -3.283387133606985E-1   -3.196089085295412E-1    2.881568675475651E-4   -7.304332924954506E-4    3.726132878010355E-4   -7.471440200690533E-4   -4.551710543250770E-1   -1.489037138326997E-1
 1.004752621700000E+10  -3.288698940367662E-1   -3.191216560607701E-1    2.953110765111224E-4   -7.136062936226147E-4    3.555381645743116E-4   -7.644231719307789E-4   -4.553913910064302E-1   -1.483528815318297E-1
 1.004753510300000E+10  -3.291908711504539E-1   -3.185755817264710E-1    3.159553257091568E-4   -7.467232765020842E-4    3.440671982810434E-4   -7.334431705805195E-4   -4.555073054964090E-1   -1.478149489472308E-1
 1.004754398900000E+10  -3.296341069319513E-1   -3.182388258137849E-1    2.873248757876418E-4   -7.456782993775291E-4    3.536262417385911E-4   -7.287079936635964E-4   -4.556145827966911E-1   -1.471595848030048E-1
 1.004755287500000E+10  -3.299925421420487E-1   -3.178586484340967E-1    3.019047495919303E-4   -7.128208975424369E-4    3.564092558008501E-4   -7.551612093933870E-4   -4.558675876747605E-1   -1.465957849128380E-1
 1.004756176100000E+10  -3.304341535259772E-1   -3.175111245224571E-1    3.062068260552240E-4   -7.333642940583694E-4    3.566836242462022E-4   -7.118906824920512E-4   -4.560126752521186E-1   -1.459691239601785E-1
 1.004757064700000E+10  -3.307978898725900E-1   -3.170266911319896E-1    2.780126536442001E-4   -7.240067898576308E-4    3.658391006222049E-4   -6.962503374492806E-4   -4.561853470109873E-1   -1.454278906420138E-1
 1.004757953300000E+10  -3.311117920594138E-1   -3.165527693324269E-1    2.950149731047288E-4   -7.350852348241824E-4    3.566487077356091E-4   -7.099901624759968E-4   -4.563031235241986E-1   -1.448670064791713E-1
 1.004758841900000E+10  -3.315858119259169E-1   -3.161675674746348E-1    2.816789052850426E-4   -7.153303651811637E-4    3.361098161506383E-4   -7.227853061891546E-4   -4.565057303777252E-1   -1.441410719948561E-1
 1.004759730500000E+10  -3.319753813817093E-1   -3.155556770735227E-1    3.088355013645474E-4   -7.283738715379083E-4    3.698136031278873E-4   -7.062589648986758E-4   -4.565269296006973E-1   -1.436492442476826E-1
 1.004760619100000E+10  -3.323976365244712E-1   -3.151859199306635E-1    3.053759896248588E-4   -7.148708399062675E-4    3.349840764567100E-4   -7.163568650937520E-4   -4.568702320106507E-1   -1.430264291128240E-1
 1.004761507700000E+10  -3.327847699773262E-1   -3.147551033553520E-1    2.996806333215809E-4   -7.458408780504514E-4    3.578292832882039E-4   -7.126388400516630E-4   -4.569685544123667E-1   -1.424558700358687E-1
 1.004762396300000E+10  -3.331513286898172E-1   -3.143028367782210E-1    3.019252523797744E-4   -6.795021332550708E-4    3.480193538387358E-4   -7.129476733588089E-4   -4.571681633030225E-1   -1.418410304698280E-1
 1.004763284900000E+10  -3.334289389355952E-1   -3.138441951274208E-1    2.912550442424063E-4   -7.284520319852174E-4    3.616906448833265E-4   -7.074434679688542E-4   -4.573631265887330E-1   -1.413424591864961E-1
 1.004764173500000E+10  -3.339414181826291E-1   -3.135307500973168E-1    3.067696200810813E-4   -7.307002027639704E-4    3.363887486916607E-4   -7.118426762288122E-4   -4.575239156334432E-1   -1.406682249950445E-1
 1.004765062100000E+10  -3.342826167227461E-1   -3.129853635517849E-1    3.037316325001449E-4   -6.863418836308284E-4    3.293180829082773E-4   -7.213835312568148E-4   -4.576776000335827E-1   -1.401887704108065E-1
 1.004765950700000E+10  -3.347422175057649E-1   -3.125664034349024E-1    2.961138668216696E-4   -6.920776620004034E-4    3.322829143742486E-4   -6.805194374654459E-4   -4.578413169217461E-1   -1.394690007408743E-1
 1.004766839300000E+10  -3.350131291943761E-1   -3.121156959088148E-1    2.678351743336771E-4   -6.932472406772826E-4    3.436194807858700E-4   -6.927106852112596E-4   -4.581066975364639E-1   -1.390702852588028E-1
 1.004767727900000E+10  -3.354066980183665E-1   -3.118014825808349E-1    3.059845648711270E-4   -7.174314696992356E-4    3.332290171524685E-4   -6.842102046127149E-4   -4.580613656517345E-1   -1.383656570709119E-1
 1.004768616500000E+10  -3.358163772658320E-1   -3.112801327322414E-1    2.783180490711852E-4   -7.044901681716038E-4    3.211027804463925E-4   -6.824134681803948E-4   -4.581651714058598E-1   -1.377532730708272E-1
 1.004769505100000E+10  -3.362102613884030E-1   -3.108042141521391E-1    2.695947538332017E-4   -6.949589067857655E-4    3.347413066631986E-4   -6.773791831967367E-4   -4.585324039873532E-1   -1.372647135425505E-1
 1.004770393700000E+10  -3.365680250606662E-1   -3.102194074835863E-1    2.706380606442756E-4   -6.873288670661809E-4    3.543907243155395E-4   -6.783134701728842E-4   -4.585555897698011E-1   -1.366176156556650E-1
 1.004771282300000E+10  -3.370389049789055E-1   -3.098553254641652E-1    2.545065742776490E-4   -6.767098574520477E-4    3.506676009926021E-4   -6.750732393538635E-4   -4.587525422290565E-1   -1.361153456555209E-1
 1.004772170900000E+10  -3.374036861719699E-1   -3.094805694132258E-1    2.543567179226408E-4   -6.744127289597279E-4    3.199029684092755E-4   -6.676441630860687E-4   -4.588299149324241E-1   -1.353471920903422E-1
 1.004773059500000E+10  -3.377685990749516E-1   -3.090607722431362E-1    2.835633178881828E-4   -6.548440803644345E-4    3.186298026584533E-4   -6.807564264367466E-4   -4.590299020525922E-1   -1.348582375165435E-1
 1.004773948100000E+10  -3.380903810016642E-1   -3.085528210185521E-1    2.404092794437578E-4   -6.533446499240942E-4    3.099440142162961E-4   -6.622347048711029E-4   -4.592941114139197E-1   -1.342481626212138E-1
 1.004774836700000E+10  -3.386449360712249E-1   -3.081564218342697E-1    2.760732436047984E-4   -6.805123358296015E-4    3.284655211707801E-4   -6.645715014275028E-4   -4.592709571560356E-1   -1.335342191860932E-1
 1.004775725300000E+10  -3.388578978294300E-1   -3.077481011766687E-1    2.942166090602435E-4   -6.930053765970245E-4    3.137025660185920E-4   -6.282677772493771E-4   -4.595069094612997E-1   -1.329260521285510E-1
 1.004776613900000E+10  -3.393224712338438E-1   -3.073876191669185E-1    2.829058741551123E-4   -6.620332945174026E-4    3.012885967480067E-4   -6.460021752712180E-4   -4.597280022862151E-1   -1.323905000998574E-1
 1.004777502500000E+10  -3.397404022512895E-1   -3.068165842618492E-1    2.642355982483653E-4   -6.919888562218653E-4    3.155254254170697E-4   -6.400313914492641E-4   -4.598813975546439E-1   -1.317712065452004E-1
 1.004778391100000E+10  -3.399869939814354E-1   -3.063969787810326E-1    2.661221286910142E-4   -6.410175100104202E-4    3.207662497325469E-4   -6.614418650972958E-4   -4.600766324693324E-1   -1.313239000655578E-1
 1.004779279700000E+10  -3.404193161367086E-1   -3.059201119799057E-1    2.403884830431971E-4   -6.452954680494499E-4    2.980154165466963E-4   -6.365053882417644E-4   -4.599824595633322E-1   -1.305939716578415E-1
 1.004780168300000E+10  -3.407733090532340E-1   -3.053842156398502E-1    2.714599018493414E-4   -6.535747315699292E-4    3.346315491528915E-4   -6.137645669340792E-4   -4.602327968485736E-1   -1.301091361155706E-1
 1.004781056900000E+10  -3.411516566693175E-1   -3.049554191105877E-1    2.689010008300504E-4   -6.127568284995960E-4    2.895522206152721E-4   -6.270740638329152E-4   -4.604954936252418E-1   -1.292689765693570E-1
 1.004781945500000E+10  -3.414221132584422E-1   -3.044400978049588E-1    2.706572531590415E-4   -6.393677862049778E-4    2.857236622550670E-4   -6.200068250663825E-4   -4.606268465604175E-1   -1.287262201539174E-1
 1.004782834100000E+10  -3.419408741132543E-1   -3.040308776088027E-1    2.129959554114210E-4   -6.351959359803183E-4    3.162054573923632E-4   -6.462498329698810E-4   -4.606171279547545E-1   -1.280836830854947E-1
 1.004783722700000E+10  -3.421005440650367E-1   -3.035424087789737E-1    2.340903733852380E-4   -6.210853625630292E-4    2.819124905140153E-4   -5.956538388303096E-4   -4.608293661989847E-1   -1.276172560642969E-1
 1.004784611300000E+10  -3.426537352174659E-1   -3.030573820837132E-1    2.710711521727575E-4   -6.404782639272381E-4    3.256948381379224E-4   -5.940226765376083E-4   -4.610203108126399E-1   -1.269537701856327E-1
 1.004785499900000E+10  -3.430729030104498E-1   -3.027243010317588E-1    2.608429075446613E-4   -6.166989990178572E-4    3.037804534287695E-4   -6.226688984857407E-4   -4.610702955919110E-1   -1.264339108104758E-1
 1.004786388500000E+10  -3.433784585051899E-1   -3.022038462545950E-1    2.457047934539399E-4   -6.372893279836968E-4    2.952366878144415E-4   -6.354482891529625E-4   -4.614488688671236E-1   -1.256963704830490E-1
 1.004787277100000E+10  -3.437992486214860E-1   -3.017966338450669E-1    2.561071020890120E-4   -6.058744416508412E-4    2.821445782340339E-4   -5.978149486435503E-4   -4.613049230012485E-1   -1.249982208759919E-1
 1.004788165700000E+10  -3.441522045609152E-1   -3.014242028954779E-1    2.409889540005426E-4   -6.008804327743752E-4    2.980983405044563E-4   -6.141111213326831E-4   -4.615780372529416E-1   -1.244912206091509E-1
 1.004789054300000E+10  -3.444659128532990E-1   -3.008222956303148E-1    2.695952500732749E-4   -6.080904967214255E-4    2.970702272898749E-4   -6.156635237998191E-4   -4.617202669414996E-1   -1.238226581744258E-1
 1.004789942900000E+10  -3.449416445850649E-1   -3.003674756722735E-1    2.640014420386179E-4   -6.044518384254822E-4    2.819032017637149E-4   -6.101158061346680E-4   -4.618672313282925E-1   -1.232807746689872E-1
 1.004790831500000E+10  -3.453289991847869E-1   -2.999816524317014E-1    2.642201939296320E-4   -6.155948613295879E-4    2.926573848460956E-4   -6.106706025057714E-4   -4.619723073888825E-1   -1.226984939872181E-1
 1.004791720100000E+10  -3.456191798419465E-1   -2.995937347479927E-1    2.395827816373712E-4   -5.985093997338046E-4    3.171805192842866E-4   -5.867160281985610E-4   -4.620133958174648E-1   -1.220937178418309E-1
 1.004792608700000E+10  -3.460591279555837E-1   -2.990474883328870E-1    2.574116100789063E-4   -5.606065195818125E-4    2.554584479632515E-4   -5.511261667846282E-4   -4.621972906965133E-1   -1.214615651219758E-1
 1.004793497300000E+10  -3.463880655699607E-1   -2.985688188346416E-1    2.317953888379695E-4   -5.743178748110675E-4    2.575038917479769E-4   -5.876362633842140E-4   -4.623525738216757E-1   -1.208235275231533E-1
 1.004794385900000E+10  -3.468239319292845E-1   -2.981269226685693E-1    2.444111071271251E-4   -5.864171409559724E-4    3.127209162041048E-4   -5.868855455300624E-4   -4.625151768263532E-1   -1.201351785386473E-1
 1.004795274500000E+10  -3.470842707654025E-1   -2.978338733406834E-1    2.609161975823251E-4   -5.684733331893125E-4    2.752651982991078E-4   -5.754046935655408E-4   -4.625593389650481E-1   -1.195715504151002E-1
 1.004796163100000E+10  -3.475664377816316E-1   -2.973582907421536E-1    2.578832949513440E-4   -5.623282342160448E-4    2.690650058199224E-4   -5.463125764853581E-4   -4.628237758896701E-1   -1.190813326857238E-1
 1.004797051700000E+10  -3.477848139731612E-1   -2.967292957012331E-1    2.186892011545738E-4   -5.308018107278276E-4    2.824223574686678E-4   -5.293359333687727E-4   -4.629542586081847E-1   -1.184155193737253E-1
 1.004797940300000E+10  -3.482584611751182E-1   -2.963107834070024E-1    2.458946246305094E-4   -5.662135245031037E-4    2.656039528360264E-4   -5.765724338755679E-4   -4.630337512467561E-1   -1.177501522649588E-1
 1.004798828900000E+10  -3.486446207606939E-1   -2.959605553782277E-1    2.401743221069670E-4   -5.458168980890524E-4    2.692331103462405E-4   -5.541801479921293E-4   -4.632393223746357E-1   -1.170737167944352E-1
 1.004799717500000E+10  -3.490075981769518E-1   -2.954589892645053E-1    2.549240292871542E-4   -5.499528790809310E-4    2.595118016687003E-4   -5.387394281005056E-4   -4.632955110331080E-1   -1.164773783005028E-1
 1.004800606100000E+10  -3.493419631685546E-1   -2.949888170808125E-1    2.103126641943959E-4   -5.410799734669405E-4    2.970967553448724E-4   -5.433453044588033E-4   -4.634280564503235E-1   -1.158950560212876E-1
 1.004801494700000E+10  -3.497340996000041E-1   -2.944832492943263E-1    2.292689988094717E-4   -5.179613049721797E-4    2.724311140831891E-4   -5.259300039143529E-4   -4.634643994603587E-1   -1.153369151068379E-1
 1.004802383300000E+10  -3.500800823047206E-1   -2.939693169957889E-1    2.210149624018832E-4   -5.175628830423544E-4    2.625300136351838E-4   -5.028987174188026E-4   -4.636940273914769E-1   -1.144904407369712E-1
 1.004803271900000E+10  -3.503782293264506E-1   -2.935929975314223E-1    2.174742695761743E-4   -5.096651085899232E-4    2.616172689147116E-4   -5.129785714242651E-4   -4.637662411697845E-1   -1.139238979983284E-1
 1.004804160500000E+10  -3.507425471193953E-1   -2.931284649497679E-1    1.985520004438800E-4   -5.197466737837291E-4    3.047891126225105E-4   -5.380069169309174E-4   -4.639980007058996E-1   -1.134246361291553E-1
 1.004805049100000E+10  -3.512483984821415E-1   -2.925840924173132E-1    2.270876502842443E-4   -5.283847337985942E-4    2.645513874562017E-4   -5.372777779384107E-4   -4.640378710993862E-1   -1.127877461596561E-1
 1.004805937700000E+10  -3.514879731780627E-1   -2.922432513208923E-1    2.183527927265449E-4   -5.301285102741864E-4    2.468807957016104E-4   -5.011975997584428E-4   -4.641602846226105E-1   -1.121376164781052E-1
 1.004806826300000E+10  -3.517940901612871E-1   -2.918247070975684E-1    2.363702741097183E-4   -4.918096065722925E-4    2.507147119479908E-4   -5.040357293881623E-4   -4.642042224350337E-1   -1.115458313288714E-1
 1.004807714900000E+10  -3.522633170848591E-1   -2.912046830599333E-1    2.204106353675006E-4   -5.026293295418369E-4    2.640909588051521E-4   -4.911636268037767E-4   -4.643563074599383E-1   -1.109418918145013E-1
 1.004808603500000E+10  -3.525145764249485E-1   -2.907278937483146E-1    1.961072730222773E-4   -5.111293877536775E-4    2.830461555721014E-4   -4.829475217617090E-4   -4.645368795259777E-1   -1.102867135190464E-1
 1.004809492100000E+10  -3.529278467993179E-1   -2.904083777988681E-1    2.086680748772358E-4   -5.103720698567634E-4    2.422724035705403E-4   -4.768997495707182E-4   -4.645468252959919E-1   -1.095978645722200E-1
 1.004810380700000E+10  -3.533285607304217E-1   -2.898806226285824E-1    2.122158003994967E-4   -4.800115716100892E-4    2.253040753738629E-4   -4.900227027211582E-4   -4.648059975471215E-1   -1.091181650769456E-1
 1.004811269300000E+10  -3.535637132000730E-1   -2.894908408666453E-1    2.225562856340457E-4   -4.672574245043327E-4    2.617185156997841E-4   -4.813147922498468E-4   -4.648458872923182E-1   -1.084480972127041E-1
 1.004812157900000E+10  -3.540632323332267E-1   -2.889351767568900E-1    2.438791585432373E-4   -4.789447274855347E-4    2.639602891163857E-4   -4.637092490785268E-4   -4.649409474311613E-1   -1.078219406903726E-1
 1.004813046500000E+10  -3.543647200278585E-1   -2.884710873195259E-1    2.315138227558439E-4   -4.376408684127659E-4    2.560780708563674E-4   -4.274580572785350E-4   -4.651213574148341E-1   -1.072030837713497E-1
 1.004813935100000E+10  -3.547488844256895E-1   -2.880740699998748E-1    1.828650010177722E-4   -4.595107261407407E-4    2.472900989010129E-4   -4.374260243119940E-4   -4.652174237547221E-1   -1.066445969810509E-1
 1.004814823700000E+10  -3.549783696558871E-1   -2.876508796659781E-1    2.316799129398794E-4   -4.329784079543272E-4    2.580505281612826E-4   -4.521720991252232E-4   -4.651923396844179E-1   -1.058242555737062E-1
 1.004815712300000E+10  -3.554321957772703E-1   -2.871442614498680E-1    2.293088478949106E-4   -4.397088159025225E-4    2.429961992846469E-4   -4.493122686417445E-4   -4.654987745603177E-1   -1.051308139105726E-1
 1.004816600900000E+10  -3.557761213503463E-1   -2.867555693853191E-1    2.462411344026819E-4   -4.142136346963991E-4    2.546410584508110E-4   -4.149621317979542E-4   -4.655886096644887E-1   -1.046277489047133E-1
 1.004817489500000E+10  -3.561714819746667E-1   -2.862699126850166E-1    2.138322804697459E-4   -4.511171975420346E-4    2.437246156414860E-4   -4.278904384562155E-4   -4.658484393986053E-1   -1.038649663615241E-1
 1.004818378100000E+10  -3.565288875384219E-1   -2.858102245956743E-1    1.989907203750298E-4   -4.176313458499480E-4    2.504990385196635E-4   -4.320592796142912E-4   -4.658459708392679E-1   -1.033858054051210E-1
 1.004819266700000E+10  -3.567796914803758E-1   -2.851884661501832E-1    1.904856170612074E-4   -4.041860299975919E-4    2.592600341594562E-4   -3.987673061851200E-4   -4.658964354641328E-1   -1.026291000383191E-1
 1.004820155300000E+10  -3.572944887341521E-1   -2.848562609584631E-1    2.212818211217750E-4   -3.910099915864730E-4    2.345056135047493E-4   -3.887129717984996E-4   -4.660502309636180E-1   -1.020203216646022E-1
 1.004821043900000E+10  -3.576255359009025E-1   -2.844119568598631E-1    2.340702734784798E-4   -3.878039338304229E-4    2.596876925528886E-4   -3.889212293766374E-4   -4.661087091541953E-1   -1.014049018880003E-1
 1.004821932500000E+10  -3.579238022269062E-1   -2.837517985673776E-1    2.303852684821939E-4   -3.849240853453636E-4    2.173191643483016E-4   -3.650955189664647E-4   -4.661668691835726E-1   -1.006870506969717E-1
 1.004822821100000E+10  -3.583168481314851E-1   -2.834170261475872E-1    2.164164772975034E-4   -3.968113662637473E-4    2.554895385301743E-4   -3.529187045258710E-4   -4.662964907792820E-1   -1.001080706569537E-1
 1.004823709700000E+10  -3.586140665430421E-1   -2.829229578329960E-1    2.072606446728538E-4   -4.102731043331929E-4    2.437618570147164E-4   -3.344920922543485E-4   -4.665312363984445E-1   -9.939739226280091E-2
 1.004824598300000E+10  -3.589754885518294E-1   -2.824833915883405E-1    2.139165457996058E-4   -3.782895736085616E-4    2.330617526383825E-4   -3.614566338699044E-4   -4.664942929310330E-1   -9.884406123834824E-2
 1.004825486900000E+10  -3.592922807219598E-1   -2.821641671262293E-1    2.037346899679767E-4   -3.662839129731124E-4    2.483231212128172E-4   -3.460640998427843E-4   -4.665586118861706E-1   -9.817589005426769E-2
 1.004826375500000E+10  -3.596979179792620E-1   -2.815025256558992E-1    1.948459781266755E-4   -3.669431510864561E-4    2.281228410333117E-4   -3.454247274211054E-4   -4.667408075339330E-1   -9.753725431054314E-2
 1.004827264100000E+10  -3.600235196070562E-1   -2.810026529276498E-1    2.213497442152501E-4   -3.152889710264531E-4    2.644773237710380E-4   -3.405377014863628E-4   -4.667541232414608E-1   -9.687016810429983E-2
 1.004828152700000E+10  -3.603053876785619E-1   -2.805985324483173E-1    1.996090179131876E-4   -3.423600477319440E-4    2.471628349506765E-4   -3.019324575933666E-4   -4.668702325600105E-1   -9.612500576213553E-2
 1.004829041300000E+10  -3.606502413586162E-1   -2.800205184634533E-1    2.006399135316484E-4   -3.182005520092646E-4    2.300054945324986E-4   -3.154612500066178E-4   -4.669610562744224E-1   -9.542717420085142E-2
