#  HZ   S   RI   R     50.00 
! Rohde & Schwarz Vector Network Analyzer 
! Rohde-Schwarz,ZNB20-2Port,1311601062101988,3.16
! Created: UTC 3/21/2024, 1:12:08 AM
! freq[Hz]                re:S11                  im:S11                  re:S21                  im:S21                  re:S12                  im:S12                  re:S22                  im:S22
 1.004752643500000E+10  -3.286567689799726E-1   -3.192622847432979E-1    3.080966907331752E-4   -7.460619006417258E-4    3.555164913003731E-4   -7.166041913011066E-4   -4.553984690283302E-1   -1.482877487281136E-1
 1.004753515882500E+10  -3.293368657144050E-1   -3.187748185074352E-1    3.106418295508160E-4   -7.469271231108279E-4    3.617317108184533E-4   -7.525731613555003E-4   -4.554565521981020E-1   -1.477470854495806E-1
 1.004754388265000E+10  -3.295437464250116E-1   -3.183839387843803E-1    2.897299422148149E-4   -7.530069260144866E-4    3.321605195033030E-4   -7.217767273766586E-4   -4.556124971729649E-1   -1.472256399129327E-1
 1.004755260647500E+10  -3.299096876479105E-1   -3.179085192055260E-1    2.901923927655201E-4   -7.578054375146023E-4    3.225930141270887E-4   -7.126362417438203E-4   -4.557995518727876E-1   -1.466415828200317E-1
 1.004756133030000E+10  -3.303812889749982E-1   -3.175695565020157E-1    3.033893846178108E-4   -7.104315801384811E-4    3.758619470880212E-4   -7.238253458999084E-4   -4.560190105648944E-1   -1.460876400443564E-1
 1.004757005412500E+10  -3.306488539102466E-1   -3.171771317666274E-1    2.718262866169167E-4   -7.198272130305749E-4    3.355840083302260E-4   -7.129372422501966E-4   -4.561555931731848E-1   -1.455184257525496E-1
 1.004757877795000E+10  -3.310526140700297E-1   -3.167052356661511E-1    2.791455587076565E-4   -7.325766840638011E-4    3.699572281992515E-4   -7.255507008644638E-4   -4.562601592833563E-1   -1.450906599466829E-1
 1.004758750177500E+10  -3.314660381990129E-1   -3.162504834015367E-1    2.940902103835264E-4   -7.047268497034510E-4    3.612045731480503E-4   -7.341572639147427E-4   -4.563947510023271E-1   -1.442595673960078E-1
 1.004759622560000E+10  -3.318608003115298E-1   -3.159498109692537E-1    2.713450194344797E-4   -7.198379292885120E-4    3.541422233055216E-4   -6.935573218226649E-4   -4.566990592650701E-1   -1.438578214306538E-1
 1.004760494942500E+10  -3.323694038611194E-1   -3.153977984489059E-1    2.876055003356210E-4   -7.142106488066322E-4    3.550467552371411E-4   -7.104148778743480E-4   -4.568918208879934E-1   -1.432925362376605E-1
 1.004761367325000E+10  -3.326616289374479E-1   -3.147951189529969E-1    3.060425518421741E-4   -7.242898926217974E-4    3.387219136518901E-4   -7.104454280912624E-4   -4.568896912410380E-1   -1.425067840226722E-1
 1.004762239707500E+10  -3.330317333769915E-1   -3.145496642221656E-1    3.109740242930107E-4   -7.187439979452371E-4    3.579113036415540E-4   -7.108977471846654E-4   -4.572282467426220E-1   -1.420915276810839E-1
 1.004763112090000E+10  -3.333516609885521E-1   -3.141225120974676E-1    3.014856227675969E-4   -6.994993693306968E-4    3.520160742583185E-4   -7.211213610302286E-4   -4.573142088306347E-1   -1.414097298291335E-1
 1.004763984472500E+10  -3.337192728276200E-1   -3.135050828352373E-1    2.606985358900304E-4   -6.837886472080518E-4    3.410125373045650E-4   -6.811942972631980E-4   -4.573601429264923E-1   -1.408959217708615E-1
 1.004764856855000E+10  -3.341842986647465E-1   -3.132234743895252E-1    2.839711803332039E-4   -7.032253506168926E-4    3.485314799985569E-4   -6.823615093208843E-4   -4.575707284358677E-1   -1.404013543552138E-1
 1.004765729237500E+10  -3.346073308939883E-1   -3.126552764875170E-1    2.940968122943567E-4   -6.849850638810915E-4    3.433612828843618E-4   -7.069779996224047E-4   -4.577655715776289E-1   -1.398022723402662E-1
 1.004766601620000E+10  -3.350659863361179E-1   -3.122975406433826E-1    2.860667780572560E-4   -7.055265639893878E-4    3.303596186977872E-4   -6.988952392113554E-4   -4.578644021343157E-1   -1.393648877295461E-1
 1.004767474002500E+10  -3.352443411871901E-1   -3.118513297814743E-1    2.756553234772629E-4   -6.886103773276949E-4    3.516692470754011E-4   -7.186791374410470E-4   -4.579106833604837E-1   -1.386203032237381E-1
 1.004768346385000E+10  -3.357108685923429E-1   -3.114386577507322E-1    3.191995538399211E-4   -7.013307623428535E-4    3.435123271423381E-4   -6.794325199922486E-4   -4.582383482276144E-1   -1.379950809637992E-1
 1.004769218767500E+10  -3.360922098619424E-1   -3.111593288247839E-1    2.834218559803090E-4   -6.898711619113548E-4    3.294788916487749E-4   -6.740153835505874E-4   -4.585463912815140E-1   -1.376581419978400E-1
 1.004770091150000E+10  -3.364875527551963E-1   -3.105746041617398E-1    3.049513258366018E-4   -6.860687630541870E-4    3.374183230615850E-4   -6.694762865899025E-4   -4.584102962976675E-1   -1.369423619634439E-1
 1.004770963532500E+10  -3.368508789886521E-1   -3.101870901218798E-1    2.762908239610694E-4   -7.044179662160238E-4    3.559414783950143E-4   -6.780752793236088E-4   -4.587824486459925E-1   -1.361531445980730E-1
 1.004771835915000E+10  -3.371435151978818E-1   -3.097560219207637E-1    2.750585020424019E-4   -6.935545760162861E-4    3.248415417591249E-4   -6.841569754116737E-4   -4.588102912804033E-1   -1.358048262245933E-1
 1.004772708297500E+10  -3.375725809460844E-1   -3.091554780994493E-1    2.823142442481252E-4   -7.002913747391720E-4    3.378331546485412E-4   -6.656752936251455E-4   -4.589737520627741E-1   -1.350657999471458E-1
 1.004773580680000E+10  -3.378742379718467E-1   -3.088563579886291E-1    2.689529309744470E-4   -6.741357580322474E-4    3.163651010931695E-4   -6.624512140078441E-4   -4.592359197177113E-1   -1.344340436458275E-1
 1.004774453062500E+10  -3.383786667806247E-1   -3.084407924377680E-1    2.391900701659382E-4   -6.494811516455845E-4    3.297107719399286E-4   -6.462747574215352E-4   -4.592109022922928E-1   -1.339787791995543E-1
 1.004775325445000E+10  -3.387249069625990E-1   -3.078565071200418E-1    2.787555080693185E-4   -6.654994701837058E-4    2.866147899454954E-4   -6.661153301956073E-4   -4.593615250030983E-1   -1.332114807399298E-1
 1.004776197827500E+10  -3.389597429049866E-1   -3.074856824078807E-1    2.726600679088320E-4   -6.687333730621342E-4    3.090506427522969E-4   -6.554538817823278E-4   -4.595326822177161E-1   -1.327932610678747E-1
 1.004777070210000E+10  -3.394901464099440E-1   -3.070297777850270E-1    2.735619026066106E-4   -6.924249534494916E-4    2.795191933941624E-4   -6.500258602338501E-4   -4.597244437055392E-1   -1.322029365277877E-1
 1.004777942592500E+10  -3.397750739799807E-1   -3.065280542391274E-1    2.336181090556189E-4   -6.676223081439648E-4    3.074180522278817E-4   -6.506581833306231E-4   -4.599366805051199E-1   -1.317043238297678E-1
 1.004778814975000E+10  -3.401335494388352E-1   -3.061990159120181E-1    2.893967009093085E-4   -6.582418077622986E-4    3.036224759795357E-4   -6.366183373926435E-4   -4.599964444102222E-1   -1.310127528035070E-1
 1.004779687357500E+10  -3.405629727057418E-1   -3.058943937135736E-1    2.738126367231221E-4   -6.319587269648141E-4    3.257797378193483E-4   -6.316944057011876E-4   -4.600583288234800E-1   -1.304992913343598E-1
 1.004780559740000E+10  -3.409595787291717E-1   -3.051939810307937E-1    2.503596517767153E-4   -6.513470840614211E-4    2.786247793160910E-4   -6.762754231475517E-4   -4.600066109245423E-1   -1.298105903022231E-1
 1.004781432122500E+10  -3.412326869327137E-1   -3.048195179305651E-1    2.568325667527161E-4   -6.487557956884765E-4    2.915002577302667E-4   -6.337000257249033E-4   -4.603826959664536E-1   -1.291892426506721E-1
 1.004782304505000E+10  -3.416419349762571E-1   -3.044709065469073E-1    2.473858434184669E-4   -6.434547985011604E-4    3.187723815476245E-4   -6.198176719623855E-4   -4.605956519939291E-1   -1.285769767597525E-1
 1.004783176887500E+10  -3.419754227890686E-1   -3.039144477355074E-1    2.683583613934620E-4   -6.418864506809704E-4    3.191379571654174E-4   -5.993685375848521E-4   -4.607443571409435E-1   -1.279950185252915E-1
 1.004784049270000E+10  -3.423684234440109E-1   -3.034051679935058E-1    2.352376415398987E-4   -6.059094183870186E-4    3.143851549178195E-4   -6.464994406795973E-4   -4.607551265533454E-1   -1.273906790364145E-1
 1.004784921652500E+10  -3.427894262212871E-1   -3.030999810905628E-1    2.498818457671322E-4   -6.341731563290475E-4    3.333010089239563E-4   -6.393222286435782E-4   -4.610456851096421E-1   -1.267121152141354E-1
 1.004785794035000E+10  -3.431588312627241E-1   -3.026204007658063E-1    2.470580099798123E-4   -6.297711581283719E-4    3.040692631774545E-4   -6.277205202964885E-4   -4.610287646569136E-1   -1.261686903239748E-1
 1.004786666417500E+10  -3.435535469257815E-1   -3.022100799080812E-1    2.540753396857371E-4   -6.183259559300047E-4    2.919492901351358E-4   -6.216226769881337E-4   -4.612873728095327E-1   -1.256809424153040E-1
 1.004787538800000E+10  -3.439039129321434E-1   -3.016700192134601E-1    2.510718386767089E-4   -6.357654155271492E-4    2.977201164293963E-4   -6.119008741976887E-4   -4.614980015562937E-1   -1.250413729303292E-1
 1.004788411182500E+10  -3.442297031096515E-1   -3.011887862616369E-1    2.455665362793216E-4   -5.861971866249614E-4    3.212952098305217E-4   -5.935983884115268E-4   -4.614387008360660E-1   -1.245438849921561E-1
 1.004789283565000E+10  -3.445321629745097E-1   -3.008781043330247E-1    2.557910066505347E-4   -6.026923281165775E-4    3.095200450166459E-4   -6.069456491977175E-4   -4.616091521316925E-1   -1.237819855521665E-1
 1.004790155947500E+10  -3.449898420769844E-1   -3.004559033796122E-1    2.479277774303309E-4   -6.109189602769957E-4    3.061671314539315E-4   -5.870395814719724E-4   -4.618485121281521E-1   -1.230978167332434E-1
 1.004791028330000E+10  -3.453166546124060E-1   -2.999094763600855E-1    2.684473257631747E-4   -6.092457843923560E-4    2.885056431217972E-4   -5.939643623720468E-4   -4.619091449377822E-1   -1.226294634115572E-1
 1.004791900712500E+10  -3.457050896723857E-1   -2.995547954247600E-1    2.540225217771850E-4   -5.913866967143692E-4    2.809096997612523E-4   -5.938929594431047E-4   -4.621822439954806E-1   -1.220603694789404E-1
 1.004792773095000E+10  -3.460651300273297E-1   -2.988884983026968E-1    2.462475925102645E-4   -5.847847604783486E-4    2.667365373400624E-4   -5.680001711971510E-4   -4.621714140035917E-1   -1.215064992986137E-1
 1.004793645477500E+10  -3.464329782202540E-1   -2.986415724596674E-1    2.716560811262724E-4   -5.784029085771351E-4    2.884180947394671E-4   -5.665620856219500E-4   -4.622679406957685E-1   -1.207360009404635E-1
 1.004794517860000E+10  -3.467099377726733E-1   -2.979825701426580E-1    2.308287130882217E-4   -5.775370487018991E-4    2.688651425172334E-4   -5.833390635126079E-4   -4.625598987965776E-1   -1.202205553269319E-1
 1.004795390242500E+10  -3.470719814717165E-1   -2.977551039213865E-1    2.501607091475214E-4   -5.852024769408895E-4    3.124403063953998E-4   -5.754555268523984E-4   -4.624909179291972E-1   -1.197858613417449E-1
 1.004796262625000E+10  -3.474892606108914E-1   -2.973249044391562E-1    2.569536050682657E-4   -5.956200869375335E-4    2.822421174643462E-4   -5.605851522175517E-4   -4.627267422095129E-1   -1.191310600220401E-1
 1.004797135007500E+10  -3.478423099263477E-1   -2.968086992087563E-1    2.479281309791970E-4   -5.782283151962681E-4    2.641777223582625E-4   -5.545263954336885E-4   -4.628136416644161E-1   -1.184315720535588E-1
 1.004798007390000E+10  -3.482021906821156E-1   -2.962885466946945E-1    2.265824230265507E-4   -5.419748669182627E-4    2.898597352717226E-4   -5.681360216368787E-4   -4.629578381540008E-1   -1.177862035640797E-1
 1.004798879772500E+10  -3.485495124509392E-1   -2.957728800201387E-1    2.256851538186312E-4   -5.580658900822990E-4    3.017158405398344E-4   -5.235016069566252E-4   -4.632321315221888E-1   -1.170445896291840E-1
 1.004799752155000E+10  -3.488417089386767E-1   -2.955303774880783E-1    2.398396399143844E-4   -5.597292195853818E-4    2.877135693281901E-4   -5.551879892619773E-4   -4.632101972225635E-1   -1.166663879867616E-1
 1.004800624537500E+10  -3.492415945207569E-1   -2.950664391704231E-1    2.174222196968376E-4   -5.454218630606406E-4    2.574416157694325E-4   -5.547922419382386E-4   -4.633961815682210E-1   -1.161258701386441E-1
 1.004801496920000E+10  -3.495919345811788E-1   -2.945527126376108E-1    2.417424339241994E-4   -5.258455686366104E-4    2.900995367135530E-4   -5.311839503490472E-4   -4.634474293631065E-1   -1.153359187673967E-1
 1.004802369302500E+10  -3.499923508830876E-1   -2.940789286265045E-1    2.231356414447311E-4   -5.259784039329168E-4    2.855383091863220E-4   -5.185762061508776E-4   -4.636057992367490E-1   -1.147786429705048E-1
 1.004803241685000E+10  -3.503451627832131E-1   -2.935713427320676E-1    2.192255671759913E-4   -5.248538140459479E-4    2.661941030074234E-4   -5.328343586034905E-4   -4.637717877712384E-1   -1.140668864433795E-1
 1.004804114067500E+10  -3.508451276119050E-1   -2.932083529321790E-1    2.345060438588183E-4   -5.327528654709529E-4    2.570982880055143E-4   -5.124663794287298E-4   -4.638447297164480E-1   -1.135947787294323E-1
 1.004804986450000E+10  -3.510909211305820E-1   -2.926974966588831E-1    1.881185687412021E-4   -5.232612403257583E-4    2.824442898674951E-4   -5.093287041702194E-4   -4.640366474918379E-1   -1.128524321679900E-1
 1.004805858832500E+10  -3.513807563289685E-1   -2.923320343766992E-1    2.325225344913840E-4   -4.854085624927362E-4    2.688138818884915E-4   -5.429239892251639E-4   -4.640787133122801E-1   -1.122880500143331E-1
 1.004806731215000E+10  -3.518859665994473E-1   -2.917884999341606E-1    2.489029661794483E-4   -4.770431021802522E-4    2.716312990090215E-4   -5.096641789190118E-4   -4.642631028418311E-1   -1.116710988033137E-1
 1.004807603597500E+10  -3.521427137300698E-1   -2.912526758207244E-1    2.193906881250629E-4   -5.096217829847928E-4    2.641110125790056E-4   -4.944443724527173E-4   -4.644919571485861E-1   -1.111046000564569E-1
 1.004808475980000E+10  -3.524372688180644E-1   -2.908824137463789E-1    2.265141219150814E-4   -4.819357760567130E-4    2.578179481245480E-4   -4.983161505463062E-4   -4.644856033599963E-1   -1.104789370435257E-1
 1.004809348362500E+10  -3.528844309401593E-1   -2.905380199370667E-1    2.266789552174067E-4   -4.898003156729296E-4    2.792781134277855E-4   -4.786970320686606E-4   -4.645124807576231E-1   -1.098030221825349E-1
 1.004810220745000E+10  -3.531554336694095E-1   -2.900952320168163E-1    2.442180297717796E-4   -4.733015744315331E-4    2.403310633383739E-4   -5.012317776617361E-4   -4.648255282294563E-1   -1.092754630345944E-1
 1.004811093127500E+10  -3.536344158771272E-1   -2.895801886181488E-1    2.157228881796128E-4   -4.808926990086267E-4    2.459783205468974E-4   -4.460135652468993E-4   -4.648288177995902E-1   -1.086939810963278E-1
 1.004811965510000E+10  -3.539026903215719E-1   -2.891405035937152E-1    2.206482280499644E-4   -4.676997234313788E-4    2.721958182089737E-4   -4.638650445716082E-4   -4.648901150445221E-1   -1.080882131019966E-1
 1.004812837892500E+10  -3.543369078414130E-1   -2.887709033235428E-1    2.273365986034505E-4   -4.462692266403335E-4    2.707746777953644E-4   -4.667570265254218E-4   -4.650586393906563E-1   -1.072628514642408E-1
 1.004813710275000E+10  -3.544365250742338E-1   -2.882455732259615E-1    2.263821350609096E-4   -4.579711975619318E-4    2.762802018992900E-4   -4.741700544725631E-4   -4.651982931331277E-1   -1.067031740314391E-1
 1.004814582657500E+10  -3.550163532040321E-1   -2.878558186322812E-1    1.879671879812407E-4   -4.962198907943382E-4    2.641910088979519E-4   -4.389354439592664E-4   -4.652327177329183E-1   -1.061478090077580E-1
 1.004815455040000E+10  -3.553199573617403E-1   -2.873448438608371E-1    2.174249297104403E-4   -4.444640675948753E-4    2.260106730939115E-4   -3.964181023814803E-4   -4.654529619888907E-1   -1.056645800707735E-1
 1.004816327422500E+10  -3.556133521460069E-1   -2.867077701059834E-1    2.272549746328151E-4   -4.677913221201357E-4    2.538776171929387E-4   -4.349978061700089E-4   -4.656361908201977E-1   -1.049639282051277E-1
 1.004817199805000E+10  -3.559650956539930E-1   -2.864580389437507E-1    2.228181760648878E-4   -4.444183312640650E-4    2.611327681311694E-4   -4.552572875288902E-4   -4.656837059272708E-1   -1.042155517483352E-1
 1.004818072187500E+10  -3.563053054583377E-1   -2.861226879686000E-1    2.136953753045731E-4   -4.231001519851610E-4    2.708397510224085E-4   -3.907635486173757E-4   -4.657686020044973E-1   -1.036614370551685E-1
 1.004818944570000E+10  -3.567355874366535E-1   -2.854817376298858E-1    2.186698754711985E-4   -4.173453691787769E-4    2.364613237866097E-4   -4.105055116822783E-4   -4.658894358861286E-1   -1.030529169864214E-1
 1.004819816952500E+10  -3.569967841922558E-1   -2.849770988836815E-1    2.209082624050460E-4   -4.266554612639121E-4    2.572297835945671E-4   -3.901350545115378E-4   -4.659747938284503E-1   -1.023543498801482E-1
 1.004820689335000E+10  -3.573651196121225E-1   -2.844547425817854E-1    2.207217582867027E-4   -4.055930643553908E-4    2.423227600177861E-4   -3.782735183480724E-4   -4.661698811331035E-1   -1.017170857904537E-1
 1.004821561717500E+10  -3.577883186190464E-1   -2.840552484663540E-1    1.836601431760200E-4   -4.002627935540316E-4    2.412705596357325E-4   -3.885687398868771E-4   -4.662363922069510E-1   -1.010785143763555E-1
 1.004822434100000E+10  -3.581350335548263E-1   -2.837413544313528E-1    2.204939952010501E-4   -3.787256523921173E-4    2.437241409387460E-4   -3.830399985725550E-4   -4.662045671016807E-1   -1.005169816483632E-1
 1.004823306482500E+10  -3.584207468970991E-1   -2.832325910863242E-1    2.258627674408667E-4   -3.730800526700753E-4    2.263380147262677E-4   -3.718046556516152E-4   -4.664445059312815E-1   -9.972636735229258E-2
 1.004824178865000E+10  -3.587806638699730E-1   -2.827515381923936E-1    2.077160066981856E-4   -3.522451773272761E-4    2.546377967661361E-4   -3.603480817279398E-4   -4.664477050524462E-1   -9.924917463427053E-2
 1.004825051247500E+10  -3.590815479348795E-1   -2.822698723653388E-1    2.237567194039086E-4   -3.692981705519619E-4    2.456748878608545E-4   -3.711350586968036E-4   -4.667134076936056E-1   -9.853092018113489E-2
 1.004825923630000E+10  -3.593950526635961E-1   -2.818295637400669E-1    2.354517898100111E-4   -3.528745104485200E-4    2.456743813987930E-4   -3.033375842108411E-4   -4.666554586889812E-1   -9.788027572930919E-2
 1.004826796012500E+10  -3.597406144975583E-1   -2.813094284667975E-1    2.146474817145269E-4   -3.359201833218228E-4    2.663550983690168E-4   -3.517600313542438E-4   -4.667725894140622E-1   -9.729847609841943E-2
 1.004827668395000E+10  -3.601526422731956E-1   -2.810580296912471E-1    2.174199027085094E-4   -3.556081912443088E-4    2.453622745597055E-4   -3.260508109364126E-4   -4.668000666984680E-1   -9.665944204297067E-2
 1.004828540777500E+10  -3.603160820163487E-1   -2.804604241613802E-1    2.291058104428779E-4   -3.470916609149018E-4    2.441306720806011E-4   -3.176631476435924E-4   -4.669606208705102E-1   -9.598004195568265E-2
 1.004829413160000E+10  -3.608225415545090E-1   -2.798388962096918E-1    2.108708087653991E-4   -3.038024491262441E-4    2.283060346893280E-4   -3.388516591950271E-4   -4.670736407181511E-1   -9.536754212497292E-2
 1.004830285542500E+10  -3.610806202209834E-1   -2.795700099377267E-1    2.007396416470439E-4   -2.982870044336166E-4    2.317808584495523E-4   -3.088572609975903E-4   -4.671272137196466E-1   -9.456028316260547E-2
 1.004831157925000E+10  -3.614318687624910E-1   -2.790410959453907E-1    2.000053009787480E-4   -2.733019644024416E-4    2.311025292155490E-4   -2.649257532998011E-4   -4.673333356493752E-1   -9.407783174640749E-2
