#  HZ   S   RI   R     50.00 
! Rohde & Schwarz Vector Network Analyzer 
! Rohde-Schwarz,ZNB20-2Port,1311601062101988,3.16
! Created: UTC 3/21/2024, 1:12:15 AM
! freq[Hz]                re:S11                  im:S11                  re:S21                  im:S21                  re:S12                  im:S12                  re:S22                  im:S22
 1.004754305400000E+10  -3.294789011755113E-1   -3.185025042896631E-1    3.023196702572507E-4   -7.421240261651382E-4    3.469611371964589E-4   -7.119030150502502E-4   -4.556011992018365E-1   -1.473234114600702E-1
 1.004755173732500E+10  -3.299086332229342E-1   -3.180715264519146E-1    2.951258956454680E-4   -7.455088998079987E-4    3.318726012788628E-4   -7.221964572587130E-4   -4.558146848129473E-1   -1.468621799161370E-1
 1.004756042065000E+10  -3.302590833015894E-1   -3.176417740202000E-1    3.155272133990401E-4   -6.946439942710203E-4    3.281838162121011E-4   -7.414599027074781E-4   -4.559248544240584E-1   -1.462428790863537E-1
 1.004756910397500E+10  -3.305477862721949E-1   -3.171965148903800E-1    2.957523837141325E-4   -7.274198912306238E-4    3.705665131684602E-4   -7.371799093723705E-4   -4.560665277880842E-1   -1.455598583156906E-1
 1.004757778730000E+10  -3.310392187289943E-1   -3.168091743491003E-1    3.115339845385789E-4   -7.542650232726526E-4    3.630497340466771E-4   -6.999736345126234E-4   -4.561886180023794E-1   -1.451668144409523E-1
 1.004758647062500E+10  -3.314390434902812E-1   -3.163979589262856E-1    2.943823308221216E-4   -7.115903141014524E-4    3.725920430653254E-4   -7.067827158542989E-4   -4.563154998406227E-1   -1.445707438833674E-1
 1.004759515395000E+10  -3.317450961910265E-1   -3.159081857975633E-1    3.018751839795113E-4   -7.350847965114337E-4    3.587110428699728E-4   -7.128191303925800E-4   -4.565842396076826E-1   -1.439538852234442E-1
 1.004760383727500E+10  -3.320373327252120E-1   -3.153775939735364E-1    3.024584860974928E-4   -6.998532086144949E-4    3.467349389356677E-4   -7.374349132453916E-4   -4.567973023913027E-1   -1.434129921892983E-1
 1.004761252060000E+10  -3.325204964850554E-1   -3.149830080138706E-1    2.884910727911153E-4   -7.091458497340447E-4    3.402330114057660E-4   -7.122680584546519E-4   -4.569656417701326E-1   -1.427979391323234E-1
 1.004762120392500E+10  -3.329262098057272E-1   -3.145905198027505E-1    2.704660910243064E-4   -7.125752926989092E-4    3.228857083541160E-4   -6.864596944166011E-4   -4.570989068411480E-1   -1.421503256992953E-1
 1.004762988725000E+10  -3.332801659397343E-1   -3.142573237073355E-1    2.868510530908036E-4   -7.178760656700069E-4    3.473807863829840E-4   -7.109975793239965E-4   -4.572513383959983E-1   -1.416171436460417E-1
 1.004763857057500E+10  -3.336303973920771E-1   -3.137216455597275E-1    3.140602042714071E-4   -7.266530098732179E-4    3.379639879167144E-4   -6.993066476748003E-4   -4.574157563970662E-1   -1.410700927479678E-1
 1.004764725390000E+10  -3.338545697012819E-1   -3.133549408105564E-1    3.105070517060928E-4   -7.043052215017862E-4    3.469162737436005E-4   -7.129711713463030E-4   -4.575732100097169E-1   -1.406448119635205E-1
 1.004765593722500E+10  -3.344183587437682E-1   -3.129021198577063E-1    2.808159626685399E-4   -7.097154235445000E-4    3.418527278589303E-4   -7.006772172726662E-4   -4.577032401794446E-1   -1.399221553670071E-1
 1.004766462055000E+10  -3.348181936052475E-1   -3.124186271227224E-1    2.689939426099376E-4   -7.059939891616575E-4    3.518290266159856E-4   -7.040081255867616E-4   -4.578989739918467E-1   -1.394962312280697E-1
 1.004767330387500E+10  -3.352043035011958E-1   -3.119872006652865E-1    2.824387727642536E-4   -7.011666822259601E-4    3.512908195426015E-4   -6.801614967301639E-4   -4.580355286500733E-1   -1.386235854737130E-1
 1.004768198720000E+10  -3.354700809796862E-1   -3.115362907023687E-1    2.774804909713196E-4   -7.069713329946613E-4    3.368754984285711E-4   -6.828743646833265E-4   -4.581609714498834E-1   -1.380524583013781E-1
 1.004769067052500E+10  -3.360103721380175E-1   -3.111744745813885E-1    2.722043445087845E-4   -7.046017457577773E-4    3.281623539191209E-4   -6.663629692588830E-4   -4.582091643440415E-1   -1.376588064174296E-1
 1.004769935385000E+10  -3.364508622912643E-1   -3.108237036936106E-1    2.697061391666060E-4   -6.927347488669700E-4    3.279241510393824E-4   -6.935590435353371E-4   -4.584447053366226E-1   -1.369657966592203E-1
 1.004770803717500E+10  -3.367334861649232E-1   -3.103030846929792E-1    2.771557929254840E-4   -7.060241193264796E-4    3.232320015167953E-4   -6.518093498054936E-4   -4.586370926591739E-1   -1.365551661304901E-1
 1.004771672050000E+10  -3.369994785753640E-1   -3.098328563282210E-1    2.936291597499108E-4   -6.915203366003103E-4    3.389117825292903E-4   -6.553828732680430E-4   -4.587658535036916E-1   -1.358706040522300E-1
 1.004772540382500E+10  -3.375393380687934E-1   -3.094133594984000E-1    2.873550964290258E-4   -6.971719213183808E-4    3.458599220292787E-4   -6.929130331383227E-4   -4.589918228127147E-1   -1.352774903343701E-1
 1.004773408715000E+10  -3.378429817665011E-1   -3.090018655344050E-1    2.586813326355429E-4   -7.062126519590559E-4    3.097445130666497E-4   -6.576211161429164E-4   -4.589834655985893E-1   -1.347640706280038E-1
 1.004774277047500E+10  -3.381844356005496E-1   -3.086227881510316E-1    3.021640282955373E-4   -7.031431865040527E-4    3.241771751001463E-4   -6.644926545034657E-4   -4.592318149045336E-1   -1.342129894230346E-1
 1.004775145380000E+10  -3.385018934796317E-1   -3.080292406265504E-1    2.795065075497935E-4   -6.670744787273498E-4    3.166101595120201E-4   -6.553468366966689E-4   -4.593743381286898E-1   -1.335974199572608E-1
 1.004776013712500E+10  -3.389700438608291E-1   -3.076335109721367E-1    2.561749485608495E-4   -6.584760128133363E-4    3.163642531625846E-4   -6.476721846029223E-4   -4.595398707922748E-1   -1.330742947418904E-1
 1.004776882045000E+10  -3.392761211371156E-1   -3.072692261715154E-1    2.729009551848942E-4   -6.335998986251414E-4    2.920263730762707E-4   -6.687018792992728E-4   -4.595223498858372E-1   -1.323203443100390E-1
 1.004777750377500E+10  -3.395917087626368E-1   -3.067854807521291E-1    2.704520326355993E-4   -6.746237404547716E-4    3.304983652835582E-4   -6.554939356875715E-4   -4.600010274019107E-1   -1.318357308422142E-1
 1.004778618710000E+10  -3.399712314057569E-1   -3.062839264856622E-1    2.505178418574551E-4   -6.428366073004474E-4    3.240702458045498E-4   -6.574206466275292E-4   -4.599354251048758E-1   -1.311541438460842E-1
 1.004779487042500E+10  -3.403984834854203E-1   -3.059798725085472E-1    2.342922754688630E-4   -6.314496448645363E-4    3.218467184198294E-4   -6.480836045659654E-4   -4.601897404321470E-1   -1.307310229237368E-1
 1.004780355375000E+10  -3.408361122362318E-1   -3.053735570311162E-1    2.728581606603452E-4   -6.716838885471337E-4    3.409828393068251E-4   -6.537937677026771E-4   -4.601666381139437E-1   -1.300106204353351E-1
 1.004781223707500E+10  -3.410897099870145E-1   -3.050190933111101E-1    2.256567222604551E-4   -6.552627691892539E-4    2.872280114081318E-4   -6.458826931395345E-4   -4.604440795721031E-1   -1.294627214133580E-1
 1.004782092040000E+10  -3.414747030801962E-1   -3.043729271677338E-1    2.573728058901508E-4   -6.529098902881360E-4    3.022284837777080E-4   -6.312035235146234E-4   -4.605912071882580E-1   -1.287863469417453E-1
 1.004782960372500E+10  -3.417887122325399E-1   -3.041528701074011E-1    2.699573889301054E-4   -6.577256069409407E-4    3.221698154980811E-4   -6.306775322675082E-4   -4.605911451230355E-1   -1.281603187571980E-1
 1.004783828705000E+10  -3.423216691734705E-1   -3.035993364425890E-1    2.454141008917234E-4   -6.328760791940899E-4    3.184496989329240E-4   -6.328532732695252E-4   -4.607295625767259E-1   -1.276340072859006E-1
 1.004784697037500E+10  -3.426318448012787E-1   -3.032074249179570E-1    2.272035684251852E-4   -6.157350870237501E-4    2.880738800635084E-4   -6.182216021830149E-4   -4.609406444161628E-1   -1.269117134456590E-1
 1.004785565370000E+10  -3.429074692513698E-1   -3.027774852904884E-1    2.343150118577314E-4   -6.422411989940940E-4    3.275373744707425E-4   -6.100143753025818E-4   -4.610095625604931E-1   -1.265427344211105E-1
 1.004786433702500E+10  -3.432703276866345E-1   -3.022895279836538E-1    2.439748849449527E-4   -6.284595590124842E-4    2.853587226392195E-4   -6.101769169405986E-4   -4.612553586884980E-1   -1.259926354082250E-1
 1.004787302035000E+10  -3.436539144581189E-1   -3.019678966887824E-1    2.772481838023878E-4   -6.459696830275145E-4    3.016484424994212E-4   -5.973748248716619E-4   -4.612543155401428E-1   -1.253204746309192E-1
 1.004788170367500E+10  -3.440742084566045E-1   -3.014710991417927E-1    2.585699156191083E-4   -6.194035081738706E-4    2.868270452157503E-4   -6.134142740016097E-4   -4.614724526959712E-1   -1.247211633089016E-1
 1.004789038700000E+10  -3.443550993741680E-1   -3.011415576899363E-1    2.564110607963007E-4   -6.133289078396740E-4    3.068937321042113E-4   -5.919452835852937E-4   -4.618105992329177E-1   -1.241321975319714E-1
 1.004789907032500E+10  -3.447969099603603E-1   -3.005591095554212E-1    2.327090545237236E-4   -5.980951300652203E-4    2.842569440728850E-4   -5.755072249653949E-4   -4.617422461220201E-1   -1.234310131915450E-1
 1.004790775365000E+10  -3.451508094812560E-1   -3.000879239269280E-1    2.304020394238198E-4   -6.049008270566203E-4    2.825220004976026E-4   -5.992261377533036E-4   -4.618068427397988E-1   -1.229590441806303E-1
 1.004791643697500E+10  -3.455590130745664E-1   -2.997844857571764E-1    2.540518841572840E-4   -6.080348968651358E-4    2.805322527372606E-4   -5.738499952089198E-4   -4.620317895942280E-1   -1.222406320322451E-1
 1.004792512030000E+10  -3.458899950882251E-1   -2.992397027291935E-1    2.437684227990620E-4   -6.043670177171533E-4    3.098915501602618E-4   -5.772916987510690E-4   -4.622445212781207E-1   -1.216911233065172E-1
 1.004793380362500E+10  -3.461619182754089E-1   -2.987520589899013E-1    2.552301685430122E-4   -5.970290402512224E-4    2.650891196981955E-4   -5.789709284526010E-4   -4.624103929615390E-1   -1.211472014716232E-1
 1.004794248695000E+10  -3.466417884758135E-1   -2.983678371624163E-1    2.386294391856379E-4   -5.955358548454895E-4    2.587783746384528E-4   -5.828478375440504E-4   -4.623954220726426E-1   -1.204003410794745E-1
 1.004795117027500E+10  -3.470471408882009E-1   -2.979902662806803E-1    2.178758182553905E-4   -5.877589153771416E-4    2.557464338177190E-4   -5.851486188897839E-4   -4.625727089975827E-1   -1.199582229962137E-1
 1.004795985360000E+10  -3.472171639196048E-1   -2.974560881289878E-1    2.217108433015258E-4   -5.538409491988644E-4    2.966613375924645E-4   -5.819276814016744E-4   -4.626007454051715E-1   -1.194275491102622E-1
 1.004796853692500E+10  -3.476440241484165E-1   -2.969748351419711E-1    2.387271078765921E-4   -5.859358785540215E-4    2.883758843776871E-4   -5.893842506700016E-4   -4.628265068403827E-1   -1.187510092915333E-1
 1.004797722025000E+10  -3.481398298661508E-1   -2.966142668817418E-1    2.197902372745312E-4   -5.626540006137610E-4    2.630323706611227E-4   -5.540501127704833E-4   -4.629901667728545E-1   -1.182345818805586E-1
 1.004798590357500E+10  -3.482789970751204E-1   -2.961008653737722E-1    2.140337535559089E-4   -5.723082654537461E-4    2.615362975277143E-4   -5.555387473578613E-4   -4.631079560227026E-1   -1.175242492502295E-1
 1.004799458690000E+10  -3.488664406322347E-1   -2.955949508808088E-1    2.324114557802179E-4   -5.520061377088957E-4    2.767429823604104E-4   -5.665331416711382E-4   -4.630676991311977E-1   -1.169606235865177E-1
 1.004800327022500E+10  -3.492173040942415E-1   -2.952491239487926E-1    2.371896289117747E-4   -5.719379398287274E-4    2.768588493999128E-4   -5.873367724251314E-4   -4.633576177220024E-1   -1.164119937497919E-1
 1.004801195355000E+10  -3.494315481178848E-1   -2.947591114758625E-1    2.171266294496648E-4   -5.574755708377045E-4    2.737347994102504E-4   -5.343163931269352E-4   -4.636025284998190E-1   -1.157527914682967E-1
 1.004802063687500E+10  -3.498059904910965E-1   -2.943276801269749E-1    2.277515041850732E-4   -5.092741495204622E-4    2.630759850364291E-4   -5.309132044046760E-4   -4.634210903564273E-1   -1.151861097296903E-1
 1.004802932020000E+10  -3.500680600866972E-1   -2.937636180587674E-1    2.684334594818908E-4   -5.237185795876435E-4    2.598618690069926E-4   -5.313878558666780E-4   -4.637507691803782E-1   -1.145795760397644E-1
 1.004803800352500E+10  -3.505814475037117E-1   -2.932340170855271E-1    2.445455908884203E-4   -5.509679977444770E-4    2.650030007578262E-4   -5.154822004891092E-4   -4.639011163979193E-1   -1.138635003791153E-1
 1.004804668685000E+10  -3.507830009086848E-1   -2.929562984797400E-1    2.094036827859535E-4   -5.545703363927781E-4    2.610022694934667E-4   -5.119588291178888E-4   -4.640379243487622E-1   -1.132434570715656E-1
 1.004805537017500E+10  -3.512408635953970E-1   -2.926435993035155E-1    2.459464381899026E-4   -5.181892080197294E-4    2.562984993859623E-4   -5.084927184997073E-4   -4.639862140438744E-1   -1.127329658823569E-1
 1.004806405350000E+10  -3.516048627404445E-1   -2.920637381668794E-1    2.391152522766753E-4   -5.114241146380524E-4    2.803895315949670E-4   -5.184463455105836E-4   -4.643398289796080E-1   -1.119890624794597E-1
 1.004807273682500E+10  -3.519939302112417E-1   -2.915423176517818E-1    1.927408216869284E-4   -5.262869803732709E-4    2.785425016504870E-4   -4.827498760743946E-4   -4.644685673788102E-1   -1.113708547816187E-1
 1.004808142015000E+10  -3.521799196350434E-1   -2.910913290585159E-1    2.382478052436505E-4   -5.050033875324641E-4    2.730339421459191E-4   -5.114745125054110E-4   -4.643608729441613E-1   -1.108593803911486E-1
 1.004809010347500E+10  -3.526137114183962E-1   -2.906593010839574E-1    2.274435604720590E-4   -4.989742205266732E-4    2.693295909224635E-4   -4.801462419513209E-4   -4.645496393920662E-1   -1.102666525947033E-1
 1.004809878680000E+10  -3.528691982303097E-1   -2.902849845484404E-1    2.312858921512361E-4   -5.005314045167118E-4    2.235945903402301E-4   -4.823440338786467E-4   -4.646772636029673E-1   -1.096443287247903E-1
 1.004810747012500E+10  -3.532579926078631E-1   -2.898849987219322E-1    2.080021238779915E-4   -4.900147781155896E-4    2.494330285452154E-4   -4.494857251919203E-4   -4.648090112732121E-1   -1.090377047501714E-1
 1.004811615345000E+10  -3.536740351067463E-1   -2.893230268009720E-1    2.170302534598637E-4   -4.750219093874076E-4    2.513276438487996E-4   -4.774201945245499E-4   -4.649849501221693E-1   -1.084754186987427E-1
 1.004812483677500E+10  -3.541265502431420E-1   -2.890375163390365E-1    2.237539898056900E-4   -4.511261101103417E-4    2.883966908976888E-4   -4.714171926626619E-4   -4.651125529876158E-1   -1.078185330472033E-1
 1.004813352010000E+10  -3.544283055514554E-1   -2.884901315665778E-1    2.446200872967507E-4   -4.415372165800419E-4    2.584138608783127E-4   -4.671903404680549E-4   -4.650823231414485E-1   -1.071277709750511E-1
 1.004814220342500E+10  -3.546681149516011E-1   -2.880098963058456E-1    2.070467079065005E-4   -4.845580279658328E-4    2.541881019473290E-4   -4.487314449252088E-4   -4.651091228059859E-1   -1.066728632126698E-1
 1.004815088675000E+10  -3.549991483719729E-1   -2.875147129160029E-1    2.030758579552851E-4   -4.584176483125160E-4    2.783145990758261E-4   -4.508971492687430E-4   -4.654661272751629E-1   -1.058178193628511E-1
 1.004815957007500E+10  -3.554801426772164E-1   -2.871619703673153E-1    2.008357879682120E-4   -4.543839608021046E-4    2.670720785821456E-4   -4.274109036860231E-4   -4.654601764951102E-1   -1.053278712406827E-1
 1.004816825340000E+10  -3.557715527617981E-1   -2.866212458469867E-1    2.344302217888604E-4   -4.283930279823020E-4    2.505401769686964E-4   -4.440995422436076E-4   -4.654864539697972E-1   -1.046722299367141E-1
 1.004817693672500E+10  -3.561089659477418E-1   -2.862796163302487E-1    2.227508538474903E-4   -4.466936322568925E-4    2.411401704836113E-4   -4.284517864259006E-4   -4.656499267231540E-1   -1.042225070517905E-1
 1.004818562005000E+10  -3.564953728883133E-1   -2.858187223008619E-1    2.314376487437290E-4   -4.267234994469799E-4    2.348915443805622E-4   -4.261832485061669E-4   -4.658451807792610E-1   -1.034157324419877E-1
 1.004819430337500E+10  -3.567904250430880E-1   -2.852725271956943E-1    2.349183712149066E-4   -4.088006343723493E-4    2.403111551095459E-4   -4.539875294899708E-4   -4.659129086357785E-1   -1.027319621887308E-1
 1.004820298670000E+10  -3.570531943271176E-1   -2.847725689466161E-1    2.165936453697937E-4   -4.126714824510649E-4    2.543074694446513E-4   -4.185215252919976E-4   -4.660292623694857E-1   -1.019753620441462E-1
 1.004821167002500E+10  -3.575030937765616E-1   -2.845160789103828E-1    1.935363743393321E-4   -4.084738341009464E-4    2.637920242338815E-4   -4.111655289152248E-4   -4.661059058689651E-1   -1.013946534329803E-1
 1.004822035335000E+10  -3.578509719200787E-1   -2.839713647779417E-1    1.978714977548860E-4   -3.905791935517306E-4    2.470727723471845E-4   -4.066891741594444E-4   -4.662518559956388E-1   -1.009260955484560E-1
 1.004822903667500E+10  -3.581326840683665E-1   -2.834001981253769E-1    2.087944978893117E-4   -3.939537820349617E-4    2.486761365234197E-4   -3.880934722364787E-4   -4.663087941193091E-1   -1.002736348692193E-1
 1.004823772000000E+10  -3.585450927364378E-1   -2.829176209481256E-1    2.419265897963910E-4   -4.091299107297764E-4    2.485438643555672E-4   -3.574925787623366E-4   -4.665927570933446E-1   -9.963809343310573E-2
 1.004824640332500E+10  -3.590011194732760E-1   -2.825714124232744E-1    1.905363503157466E-4   -3.675846198439137E-4    2.084594517369743E-4   -3.777682556536717E-4   -4.664920824050292E-1   -9.910626325090760E-2
 1.004825508665000E+10  -3.590408856422146E-1   -2.821214818110443E-1    2.028312223344852E-4   -3.625124274544760E-4    2.668437520833922E-4   -3.562477591671621E-4   -4.665937300553027E-1   -9.843600164177239E-2
 1.004826376997500E+10  -3.595253555027730E-1   -2.816004323130180E-1    2.091484440048708E-4   -3.661634355487596E-4    2.214439225203014E-4   -3.544220018438680E-4   -4.666693390886429E-1   -9.780144838769779E-2
 1.004827245330000E+10  -3.598408739698522E-1   -2.813451624138562E-1    2.050366729702047E-4   -3.606468780847382E-4    2.208319346756040E-4   -3.474386168663647E-4   -4.668754115461869E-1   -9.704203542905966E-2
 1.004828113662500E+10  -3.602823234194998E-1   -2.806962277920109E-1    2.216091588001007E-4   -3.669370012933168E-4    2.149280664319467E-4   -3.517561839569970E-4   -4.669503036167552E-1   -9.658859555430568E-2
 1.004828981995000E+10  -3.605235531463234E-1   -2.803115239477958E-1    1.952375687098014E-4   -3.250097460155042E-4    2.441665566184552E-4   -3.246186760253865E-4   -4.669093425201215E-1   -9.592879278488275E-2
 1.004829850327500E+10  -3.608124295549252E-1   -2.798084114827531E-1    2.036964632652587E-4   -3.078626441336260E-4    2.415564315606133E-4   -3.121330862391738E-4   -4.669965833284246E-1   -9.518912224829530E-2
 1.004830718660000E+10  -3.612878948422450E-1   -2.794472757893726E-1    2.228902770974631E-4   -3.048068050947046E-4    2.347487244172459E-4   -3.059979664576327E-4   -4.670925130578932E-1   -9.443828165710554E-2
 1.004831586992500E+10  -3.616103469834790E-1   -2.787878779562848E-1    2.043566230168745E-4   -3.039148431129481E-4    2.378009678085121E-4   -2.927982698535854E-4   -4.671889779372401E-1   -9.397743611281387E-2
 1.004832455325000E+10  -3.619699219534415E-1   -2.784370381431184E-1    2.147112936541145E-4   -3.133707353259886E-4    2.009202870614294E-4   -2.953502934694752E-4   -4.674334926768228E-1   -9.336176689454699E-2
