#  HZ   S   RI   R     50.00 
! Rohde & Schwarz Vector Network Analyzer 
! Rohde-Schwarz,ZNB20-2Port,1311601062101988,3.16
! Created: UTC 3/21/2024, 1:13:12 AM
! freq[Hz]                re:S11                  im:S11                  re:S21                  im:S21                  re:S12                  im:S12                  re:S22                  im:S22
 1.004772332000000E+10  -3.367328379798986E-1   -3.102174164548427E-1    2.534380304371117E-4   -7.216562162641732E-4    3.314117414310991E-4   -7.180448281759402E-4   -4.587216663416993E-1   -1.362587970696087E-1
 1.004773141055000E+10  -3.371015641583177E-1   -3.097845783085493E-1    2.866413237165768E-4   -7.228570652378404E-4    3.325853956156148E-4   -7.096470914802578E-4   -4.586969890046593E-1   -1.358738903901502E-1
 1.004773950110000E+10  -3.374208006552810E-1   -3.093894700601062E-1    2.716374078960795E-4   -7.134832714439470E-4    3.230330691955781E-4   -6.869883978555990E-4   -4.588981106303996E-1   -1.354225648571064E-1
 1.004774759165000E+10  -3.377137742198585E-1   -3.088932712638733E-1    3.068473006641731E-4   -6.969571285456516E-4    3.261250473948108E-4   -7.175696860249709E-4   -4.589305661269982E-1   -1.347066228806032E-1
 1.004775568220000E+10  -3.380077321304933E-1   -3.084278635405755E-1    2.805281903007189E-4   -6.907874935062114E-4    2.936985177626256E-4   -7.042028356590534E-4   -4.592910796725553E-1   -1.340479112108370E-1
 1.004776377275000E+10  -3.384845733787635E-1   -3.081537315584809E-1    2.489167731566162E-4   -6.762752189952481E-4    3.062170957188353E-4   -7.024867324505336E-4   -4.593356464175757E-1   -1.337671489701251E-1
 1.004777186330000E+10  -3.387041064927201E-1   -3.076371125954759E-1    2.487227587060274E-4   -7.191758657629930E-4    3.163055774858876E-4   -6.935600700904358E-4   -4.593977746157788E-1   -1.331096348332664E-1
 1.004777995385000E+10  -3.391229601094907E-1   -3.073149927249499E-1    2.698981121109637E-4   -7.031919748199934E-4    3.083835694244400E-4   -7.037773579750723E-4   -4.594969815758771E-1   -1.325581194908766E-1
 1.004778804440000E+10  -3.394800957052308E-1   -3.069346498654086E-1    2.778601918961586E-4   -7.275323088257828E-4    3.190711546749127E-4   -6.985577643240160E-4   -4.598124145278657E-1   -1.320576410277544E-1
 1.004779613495000E+10  -3.397344432303530E-1   -3.064840293708487E-1    2.556974369976214E-4   -6.665830373973596E-4    3.279647277263622E-4   -7.047516709088980E-4   -4.597456489940514E-1   -1.316412508543316E-1
 1.004780422550000E+10  -3.401800458572959E-1   -3.060401185042191E-1    2.541302542631651E-4   -7.049682707538258E-4    3.325035222404318E-4   -6.512326593974497E-4   -4.600272075645988E-1   -1.309424362285436E-1
 1.004781231605000E+10  -3.404698678685791E-1   -3.057976797555657E-1    2.627125899423592E-4   -6.568289934347280E-4    2.919919296522459E-4   -6.675049153274712E-4   -4.601581291629589E-1   -1.304039304852258E-1
 1.004782040660000E+10  -3.406975516906159E-1   -3.052943317842542E-1    2.758382219128733E-4   -6.847740029547214E-4    3.071978241716057E-4   -6.705311855723363E-4   -4.603244216909449E-1   -1.297674069624579E-1
 1.004782849715000E+10  -3.411613086381657E-1   -3.047855749016515E-1    2.577758572641794E-4   -6.772863768170285E-4    3.051894721384235E-4   -7.023494480784097E-4   -4.604547785677577E-1   -1.293039171411988E-1
 1.004783658770000E+10  -3.414919738560973E-1   -3.043061406293165E-1    2.604868076639327E-4   -6.624374432534055E-4    3.009992978705256E-4   -6.707903769160730E-4   -4.605248481232078E-1   -1.287230655453049E-1
 1.004784467825000E+10  -3.418416388586087E-1   -3.040203582480665E-1    2.433010633400063E-4   -6.823388348807163E-4    3.082623437411867E-4   -6.714145541987509E-4   -4.606760627054837E-1   -1.280933323828114E-1
 1.004785276880000E+10  -3.422039838719249E-1   -3.035775311376411E-1    2.339388228287719E-4   -6.557852108306875E-4    2.796701878433584E-4   -6.450469240445284E-4   -4.608963494381009E-1   -1.276150785894351E-1
 1.004786085935000E+10  -3.424936339456175E-1   -3.031513688896341E-1    2.450526615508834E-4   -6.879841032494385E-4    2.895481081550485E-4   -6.516363229445910E-4   -4.608823386677378E-1   -1.268909302470233E-1
 1.004786894990000E+10  -3.428792071647654E-1   -3.029042350799184E-1    2.405952163680506E-4   -6.503395052987991E-4    3.063613745559868E-4   -6.376562068356689E-4   -4.609759626022504E-1   -1.265672222357432E-1
 1.004787704045000E+10  -3.431382594413431E-1   -3.023591063082020E-1    2.272406296029240E-4   -6.542150369889053E-4    3.265806695164185E-4   -6.293384439995509E-4   -4.611824792246517E-1   -1.258793120196971E-1
 1.004788513100000E+10  -3.436330276489469E-1   -3.019503714353601E-1    2.506379452839484E-4   -6.418794269767503E-4    3.148033647957144E-4   -6.580989437015659E-4   -4.613441876934448E-1   -1.254300777474037E-1
 1.004789322155000E+10  -3.438615530015235E-1   -3.016494066013777E-1    2.606844815917077E-4   -6.467288424036712E-4    2.908718263825515E-4   -6.436581708332804E-4   -4.615924798497416E-1   -1.248852308332643E-1
 1.004790131210000E+10  -3.442265075022675E-1   -3.010752739865737E-1    2.429743007856232E-4   -6.466300918251986E-4    2.936942117773659E-4   -6.420883421924423E-4   -4.616204781841545E-1   -1.243384264928018E-1
 1.004790940265000E+10  -3.446322946687948E-1   -3.006840338569688E-1    2.555148489704799E-4   -6.261508680393979E-4    2.907283150384288E-4   -6.320260191990428E-4   -4.616374214189379E-1   -1.236473057734348E-1
 1.004791749320000E+10  -3.450201416841745E-1   -3.002421087075317E-1    2.408855525456478E-4   -6.206542772022729E-4    2.998973103882084E-4   -6.275963668676706E-4   -4.619429213593689E-1   -1.232948069385226E-1
 1.004792558375000E+10  -3.452152179340885E-1   -2.997792635687092E-1    2.587950455099745E-4   -6.299014721794921E-4    3.023918558058563E-4   -6.220242739368553E-4   -4.620075335680526E-1   -1.226861896230204E-1
 1.004793367430000E+10  -3.455973944180427E-1   -2.994236764922875E-1    2.422232805664302E-4   -6.103159179335689E-4    2.776311182005711E-4   -6.044945139419339E-4   -4.621152481533516E-1   -1.222546876413694E-1
 1.004794176485000E+10  -3.459423164071542E-1   -2.989929579631405E-1    2.590920212582150E-4   -6.203420044513914E-4    2.878720139887881E-4   -6.049791116982536E-4   -4.621682445199576E-1   -1.215027755811550E-1
 1.004794985540000E+10  -3.462532420271715E-1   -2.986271758451283E-1    2.393651604398710E-4   -6.252637381088757E-4    2.819488447819017E-4   -6.161025971144110E-4   -4.624728532564550E-1   -1.211030063840303E-1
 1.004795794595000E+10  -3.465345815626658E-1   -2.981882886341597E-1    2.495570971053487E-4   -6.168992998397768E-4    2.886884561944089E-4   -6.302958510328835E-4   -4.625844076957560E-1   -1.204677743628207E-1
 1.004796603650000E+10  -3.467623669976640E-1   -2.976183641214228E-1    2.510793917167729E-4   -6.159340826187679E-4    2.788737990566255E-4   -6.141576794247799E-4   -4.626660025485376E-1   -1.198602422850587E-1
 1.004797412705000E+10  -3.473110414328391E-1   -2.973312275784364E-1    2.448302664033137E-4   -6.142618909810393E-4    2.934194921543141E-4   -6.135280498333104E-4   -4.627922487545014E-1   -1.194020659235800E-1
 1.004798221760000E+10  -3.476169079267859E-1   -2.970303870440328E-1    2.562777899986849E-4   -6.314285193324883E-4    2.794531777645719E-4   -5.628503473195094E-4   -4.627789791922721E-1   -1.186982601297982E-1
 1.004799030815000E+10  -3.479152690321047E-1   -2.964564510840943E-1    2.529177875763499E-4   -6.338624046204048E-4    2.702725867506462E-4   -5.821756833762789E-4   -4.629571400814063E-1   -1.181566295892227E-1
 1.004799839870000E+10  -3.483315228230113E-1   -2.960612463104816E-1    2.403248602327648E-4   -6.018819052054592E-4    2.713608301152198E-4   -5.999166144555957E-4   -4.630375099551854E-1   -1.177301826240580E-1
 1.004800648925000E+10  -3.484718207181282E-1   -2.955708289229666E-1    2.361276882840936E-4   -5.880030405003908E-4    2.529714358778039E-4   -5.657743995715968E-4   -4.631874426372715E-1   -1.171538712949155E-1
 1.004801457980000E+10  -3.489529390948100E-1   -2.953543854737131E-1    2.084582673243975E-4   -5.920815233631560E-4    2.639969877468010E-4   -6.278749789279146E-4   -4.633284478124037E-1   -1.166201097449833E-1
 1.004802267035000E+10  -3.492249941309407E-1   -2.948752080874586E-1    2.584364550856427E-4   -5.820853105667737E-4    2.649354467966009E-4   -5.719525236185277E-4   -4.634181088766891E-1   -1.159413052308038E-1
 1.004803076090000E+10  -3.496440949503156E-1   -2.944747092460811E-1    2.300205580837620E-4   -5.637460321609449E-4    2.648453073761457E-4   -5.764954124500491E-4   -4.636951466811343E-1   -1.154281791693897E-1
 1.004803885145000E+10  -3.498016551803912E-1   -2.940374176262507E-1    2.455935177458600E-4   -5.846948935513028E-4    2.817321945575444E-4   -5.941719024939133E-4   -4.636716911668167E-1   -1.148579627530413E-1
 1.004804694200000E+10  -3.503432955299997E-1   -2.936336233280274E-1    2.189088776003694E-4   -5.876805843024325E-4    2.466524375407077E-4   -5.648261372664988E-4   -4.638249071554719E-1   -1.143447474270500E-1
 1.004805503255000E+10  -3.505706227166459E-1   -2.931990113506663E-1    2.332382534308875E-4   -5.587414481628345E-4    2.667428436515758E-4   -5.675935023537306E-4   -4.638991296623149E-1   -1.136224887420760E-1
 1.004806312310000E+10  -3.509386038227428E-1   -2.927599424864779E-1    2.160432479437646E-4   -5.360320412091058E-4    2.780479772382464E-4   -5.480126182151454E-4   -4.639864049628637E-1   -1.132197867654030E-1
 1.004807121365000E+10  -3.512068735429490E-1   -2.923736719693443E-1    2.147581351512001E-4   -5.521917563495241E-4    2.883005850447215E-4   -5.417916893831028E-4   -4.642120987295293E-1   -1.126225872857933E-1
 1.004807930420000E+10  -3.515453512798878E-1   -2.920020930963169E-1    2.634073008775235E-4   -5.596856167766533E-4    2.653618029134216E-4   -5.580284290900154E-4   -4.643466152401264E-1   -1.120502550166329E-1
 1.004808739475000E+10  -3.519375233598112E-1   -2.914909830775820E-1    2.478696410833768E-4   -5.463302746598784E-4    2.418201441029526E-4   -5.273046767698645E-4   -4.644530114067688E-1   -1.114385063445642E-1
 1.004809548530000E+10  -3.520982200005590E-1   -2.911347020444119E-1    2.152506861848387E-4   -5.830082227470295E-4    2.476665899698999E-4   -5.569159178752249E-4   -4.643606614431833E-1   -1.108335073007222E-1
 1.004810357585000E+10  -3.525158478836031E-1   -2.907791875373096E-1    2.008490229876943E-4   -5.211484396424799E-4    2.550348371377745E-4   -5.504571575396127E-4   -4.647216808351700E-1   -1.105529844103339E-1
 1.004811166640000E+10  -3.528678663026308E-1   -2.903174856247649E-1    2.345740955770144E-4   -5.192985499539595E-4    2.563888713175331E-4   -5.317389396576914E-4   -4.646755876083313E-1   -1.098248895172256E-1
 1.004811975695000E+10  -3.532229957921829E-1   -2.898699060486848E-1    2.336258841164143E-4   -5.349362749393836E-4    2.477444805199579E-4   -5.270909187027454E-4   -4.649016422060153E-1   -1.091939952812542E-1
 1.004812784750000E+10  -3.535995410922619E-1   -2.893537091981536E-1    2.009338085612202E-4   -5.308668827387174E-4    2.556422650176538E-4   -5.061291230379334E-4   -4.648401567269164E-1   -1.086748742254808E-1
 1.004813593805000E+10  -3.538754832556670E-1   -2.890187680998421E-1    2.302957066470660E-4   -4.841748921953544E-4    2.646528076851219E-4   -5.190438327412290E-4   -4.649784733844313E-1   -1.080585035548913E-1
 1.004814402860000E+10  -3.542153885190400E-1   -2.886030577916399E-1    2.087178419671651E-4   -4.900512164829372E-4    2.523390564774699E-4   -4.924499260535322E-4   -4.651415965030842E-1   -1.076272601888599E-1
 1.004815211915000E+10  -3.546255703493802E-1   -2.881579399790162E-1    2.349163572952977E-4   -5.300117061785474E-4    2.472615609492188E-4   -4.779205793926014E-4   -4.651874665177244E-1   -1.069499414535989E-1
 1.004816020970000E+10  -3.547474273164982E-1   -2.877101313929855E-1    2.242126185098528E-4   -5.117521306164833E-4    2.558989753573906E-4   -5.155537971719193E-4   -4.654595098986482E-1   -1.063857904681539E-1
 1.004816830025000E+10  -3.551437230822572E-1   -2.872490970063197E-1    2.132216275776692E-4   -4.947173132852259E-4    2.371414430041343E-4   -4.832600205420863E-4   -4.655328722718666E-1   -1.059316081428314E-1
 1.004817639080000E+10  -3.556018503513500E-1   -2.869276728390148E-1    2.019518739579469E-4   -4.936627233635107E-4    2.278575482802183E-4   -5.143451007930988E-4   -4.656227903790350E-1   -1.051350761644330E-1
 1.004818448135000E+10  -3.557664012456301E-1   -2.864611816849517E-1    2.395227804316746E-4   -4.753639161464458E-4    2.402800505896320E-4   -4.785853337200056E-4   -4.656643759520601E-1   -1.047924365324466E-1
 1.004819257190000E+10  -3.560762669042957E-1   -2.860380298774690E-1    1.969212569140605E-4   -4.637418932562302E-4    2.461131858553013E-4   -4.816515577965633E-4   -4.657619388458315E-1   -1.041199126152955E-1
 1.004820066245000E+10  -3.565808632983193E-1   -2.856867804724798E-1    2.168106180396808E-4   -4.663182902997291E-4    2.641250037792872E-4   -4.537281196502115E-4   -4.659155529029154E-1   -1.033896426199563E-1
 1.004820875300000E+10  -3.566674057196838E-1   -2.852537245112785E-1    1.783545598402495E-4   -4.830092523603115E-4    2.351848673327716E-4   -4.557937453901163E-4   -4.659432155007052E-1   -1.028236077218864E-1
 1.004821684355000E+10  -3.571604999901341E-1   -2.849113926064932E-1    1.890688736411275E-4   -4.791275275393414E-4    2.314307501869359E-4   -4.571915875552493E-4   -4.660675690650807E-1   -1.022999571306661E-1
 1.004822493410000E+10  -3.574530693694643E-1   -2.844000404141926E-1    1.986492772268509E-4   -4.377800828860075E-4    2.485814536210482E-4   -4.528909393375767E-4   -4.660407619603417E-1   -1.017894928019329E-1
 1.004823302465000E+10  -3.576828459150850E-1   -2.839302085653213E-1    1.927103720343409E-4   -4.701737466475257E-4    2.313445094496894E-4   -4.462561265291528E-4   -4.662670624691627E-1   -1.013481438445452E-1
 1.004824111520000E+10  -3.581700443130685E-1   -2.835335684783469E-1    2.099556868219558E-4   -4.534057245587085E-4    2.538357030183084E-4   -4.307569599618991E-4   -4.663914504870136E-1   -1.005442421479050E-1
 1.004824920575000E+10  -3.583468126529167E-1   -2.831379911860671E-1    1.963484898328927E-4   -4.352024982625541E-4    2.443341616875041E-4   -4.391125762108851E-4   -4.665243549738037E-1   -9.993579060497189E-2
 1.004825729630000E+10  -3.586675828169189E-1   -2.826951965970290E-1    2.206350539136844E-4   -4.340283448163107E-4    2.374490288888950E-4   -4.208380559676623E-4   -4.665948150624202E-1   -9.940173588127561E-2
 1.004826538685000E+10  -3.589365239520025E-1   -2.822054695970640E-1    2.075045051049710E-4   -4.536726848203276E-4    2.309759846636023E-4   -4.274029918277185E-4   -4.666272695208729E-1   -9.887489618280587E-2
 1.004827347740000E+10  -3.592861300732226E-1   -2.818664932742304E-1    2.136533170138937E-4   -4.189870977858754E-4    2.244417484832749E-4   -3.976735868134151E-4   -4.667019908198721E-1   -9.814591953178751E-2
 1.004828156795000E+10  -3.595670929460253E-1   -2.813503544772775E-1    1.928575448413670E-4   -4.176450869116791E-4    2.480654071458196E-4   -3.990596816584600E-4   -4.668257149677234E-1   -9.762779303833487E-2
 1.004828965850000E+10  -3.599786209191190E-1   -2.809034209984221E-1    2.021406856586660E-4   -3.945880882422750E-4    2.207515195810592E-4   -3.781634275593400E-4   -4.669501092354026E-1   -9.704710452808309E-2
 1.004829774905000E+10  -3.603690075182754E-1   -2.805140612166375E-1    1.896844323887213E-4   -3.716346757315967E-4    2.257782566748378E-4   -4.134808712845225E-4   -4.671425288393004E-1   -9.643919633698596E-2
 1.004830583960000E+10  -3.605378046357393E-1   -2.800985344779326E-1    2.048610480403408E-4   -3.697449081239882E-4    2.399633383625186E-4   -3.886424836449040E-4   -4.670935277133719E-1   -9.585241811677390E-2
 1.004831393015000E+10  -3.610074988766382E-1   -2.796137057933024E-1    2.139111546412850E-4   -3.773522005310840E-4    2.283168766625527E-4   -3.910186321654336E-4   -4.672772485273830E-1   -9.541576292767434E-2
 1.004832202070000E+10  -3.612604040431912E-1   -2.793717945277782E-1    2.122885091339638E-4   -3.623469023150279E-4    2.205842272744852E-4   -3.791086062272732E-4   -4.672877074213246E-1   -9.465355465228957E-2
 1.004833011125000E+10  -3.615287956044667E-1   -2.787137580052272E-1    1.714862482737988E-4   -3.590694383282946E-4    2.219343620074634E-4   -3.443628019687331E-4   -4.673263050593029E-1   -9.410483458409397E-2
 1.004833820180000E+10  -3.618505037709425E-1   -2.783639870112141E-1    1.934190415133857E-4   -3.535649749761515E-4    2.267857489614557E-4   -3.542198607705948E-4   -4.674923413825565E-1   -9.346726598473352E-2
 1.004834629235000E+10  -3.622275951565135E-1   -2.779625681342894E-1    1.760062017104558E-4   -3.579121905796263E-4    2.517889676499350E-4   -3.511100054416019E-4   -4.675492773665258E-1   -9.291298367234650E-2
 1.004835438290000E+10  -3.624845770958743E-1   -2.774330378686763E-1    1.996006059547112E-4   -3.276915036601063E-4    2.031666556234268E-4   -3.091526403276619E-4   -4.676107112690038E-1   -9.241822772377439E-2
 1.004836247345000E+10  -3.627523291086748E-1   -2.769601755861500E-1    1.700554287328374E-4   -3.583066836927790E-4    2.203026987113558E-4   -3.088549195774265E-4   -4.676909619945056E-1   -9.180800112755953E-2
 1.004837056400000E+10  -3.631325046908806E-1   -2.767040506478050E-1    1.908069298792547E-4   -3.481755522401370E-4    2.198881746547265E-4   -3.391497139439317E-4   -4.679212156626406E-1   -9.109479807757002E-2
 1.004837865455000E+10  -3.633962865389636E-1   -2.762073332965270E-1    1.772239629123960E-4   -3.089228206232289E-4    2.143743953946666E-4   -3.118924394601095E-4   -4.678492571670095E-1   -9.053742982702942E-2
 1.004838674510000E+10  -3.636672774892112E-1   -2.757447948863357E-1    1.847013488614105E-4   -3.042150376815343E-4    2.161075314004994E-4   -2.951913826827513E-4   -4.678612001729369E-1   -8.991783591471512E-2
 1.004839483565000E+10  -3.640697752220814E-1   -2.753554389218859E-1    1.998289143125288E-4   -2.856387584436869E-4    2.193550984703406E-4   -2.900015897766516E-4   -4.679844459595687E-1   -8.923290625062712E-2
 1.004840292620000E+10  -3.642655182645202E-1   -2.748359011395739E-1    1.917195364207506E-4   -3.082390398836316E-4    2.172755335751582E-4   -2.872172198110692E-4   -4.680645222059674E-1   -8.882031202549649E-2
 1.004841101675000E+10  -3.646636826784729E-1   -2.744532176454684E-1    1.999873266776346E-4   -2.526935078334792E-4    2.456612433166434E-4   -2.556923605158194E-4   -4.682150584662874E-1   -8.807536454321059E-2
 1.004841910730000E+10  -3.650283289392445E-1   -2.739412166707174E-1    1.786115330416512E-4   -2.707842438347430E-4    2.105042517842363E-4   -2.719111554503105E-4   -4.681643688874755E-1   -8.745979647136716E-2
 1.004842719785000E+10  -3.650784261336314E-1   -2.736025074904165E-1    2.262312444026709E-4   -2.445033565386607E-4    1.970609397997394E-4   -2.490880471039536E-4   -4.682668941635027E-1   -8.683060782770127E-2
 1.004843528840000E+10  -3.655310062461231E-1   -2.732135557196606E-1    2.048735821358812E-4   -2.678482245765761E-4    2.133460876225081E-4   -2.629168809094242E-4   -4.683541543122470E-1   -8.625471398295979E-2
 1.004844337895000E+10  -3.658232441425480E-1   -2.726864459642691E-1    1.872991031532137E-4   -2.195743387846348E-4    2.296159993102406E-4   -2.101123146382415E-4   -4.684911961799210E-1   -8.564270056828104E-2
 1.004845146950000E+10  -3.660511739161415E-1   -2.722383132778144E-1    2.127627401904916E-4   -2.361707901752932E-4    2.010076179103299E-4   -2.076700324144476E-4   -4.685347647377566E-1   -8.496376368543677E-2
