#  HZ   S   RI   R     50.00 
! Rohde & Schwarz Vector Network Analyzer 
! Rohde-Schwarz,ZNB20-2Port,1311601062101988,3.16
! Created: UTC 3/21/2024, 1:13:14 AM
! freq[Hz]                re:S11                  im:S11                  re:S21                  im:S21                  re:S12                  im:S12                  re:S22                  im:S22
 1.004773258300000E+10  -3.370779943428932E-1   -3.098073590895213E-1    2.825962864894678E-4   -7.167008514072838E-4    3.137942540887851E-4   -6.932195582882575E-4   -4.588674212305929E-1   -1.357136811570931E-1
 1.004774064017500E+10  -3.373868100654009E-1   -3.094361927305404E-1    2.801859648943240E-4   -6.608324397367138E-4    3.260917201266928E-4   -7.093983305426534E-4   -4.588998228419910E-1   -1.351385556874065E-1
 1.004774869735000E+10  -3.376710600163048E-1   -3.089426937186640E-1    2.580771086165162E-4   -7.065364473312085E-4    3.301666487755560E-4   -6.863962480985642E-4   -4.590539822604804E-1   -1.346548523958656E-1
 1.004775675452500E+10  -3.379666003583390E-1   -3.084738729338283E-1    2.620852298157730E-4   -6.923046740392639E-4    3.153922973805479E-4   -6.915418193157773E-4   -4.591333460567751E-1   -1.341520512945697E-1
 1.004776481170000E+10  -3.384821131207892E-1   -3.081040520525671E-1    2.770246567735620E-4   -7.000715525075920E-4    3.478404926006479E-4   -6.936427956231156E-4   -4.593918292872995E-1   -1.335749898751702E-1
 1.004777286887500E+10  -3.388397586592563E-1   -3.077961856121636E-1    2.362274947270009E-4   -7.026987746159865E-4    3.174139429008765E-4   -7.047483542823045E-4   -4.593647821461226E-1   -1.330274986343817E-1
 1.004778092605000E+10  -3.391067622538639E-1   -3.073324954024554E-1    2.817015384771116E-4   -7.021676592511233E-4    2.820235670898286E-4   -6.864071723919296E-4   -4.596573277630059E-1   -1.324394880417241E-1
 1.004778898322500E+10  -3.394909009970429E-1   -3.068500136293266E-1    2.458310978137947E-4   -6.887091874165689E-4    2.995051280970810E-4   -6.736883273286835E-4   -4.597805854155447E-1   -1.318695320756272E-1
 1.004779704040000E+10  -3.398809569316952E-1   -3.064125366742206E-1    2.811222476768810E-4   -6.829326596996694E-4    3.399177760826342E-4   -6.952326784747440E-4   -4.599512110735893E-1   -1.314776523854745E-1
 1.004780509757500E+10  -3.401429541994216E-1   -3.059257248327815E-1    2.568129465323399E-4   -6.842814887920587E-4    3.011511520884993E-4   -6.870345215595075E-4   -4.600468692697160E-1   -1.309006828047108E-1
 1.004781315475000E+10  -3.404409166182206E-1   -3.055948731365437E-1    2.528752092607798E-4   -7.088403140242650E-4    3.057126607220520E-4   -6.860522385382982E-4   -4.601049565756944E-1   -1.303461274868478E-1
 1.004782121192500E+10  -3.409220024474642E-1   -3.051792565708299E-1    2.653407788207489E-4   -6.857469315432830E-4    3.140822974325601E-4   -6.659052073025632E-4   -4.602221185656951E-1   -1.296963885284768E-1
 1.004782926910000E+10  -3.413169202163643E-1   -3.045840608953322E-1    2.670184755136122E-4   -6.724606611666280E-4    3.093728647056766E-4   -6.683132507503153E-4   -4.605071695418632E-1   -1.292755876521738E-1
 1.004783732627500E+10  -3.414473187561232E-1   -3.044708002299780E-1    2.797772747888074E-4   -6.876855005510721E-4    3.128298871089859E-4   -6.875253379000616E-4   -4.605823400585128E-1   -1.286264817380600E-1
 1.004784538345000E+10  -3.418064568835525E-1   -3.038421619317096E-1    2.519264504973512E-4   -7.092613049560876E-4    3.139273215494470E-4   -6.690049723465060E-4   -4.607861865954649E-1   -1.281929568425315E-1
 1.004785344062500E+10  -3.422290004898820E-1   -3.035333684060285E-1    2.592624759928224E-4   -6.532134552947648E-4    2.942144871650046E-4   -6.480825745528121E-4   -4.607752796700184E-1   -1.274941931531823E-1
 1.004786149780000E+10  -3.424817412717035E-1   -3.031260735365626E-1    2.996139518567064E-4   -6.542895614375971E-4    3.063569899459451E-4   -6.324228798967113E-4   -4.609222361976053E-1   -1.270644789849222E-1
 1.004786955497500E+10  -3.428525601776293E-1   -3.027138275762294E-1    2.428316915400786E-4   -6.433712805788087E-4    3.348191481073686E-4   -6.427919450493256E-4   -4.611062025275319E-1   -1.264776435189467E-1
 1.004787761215000E+10  -3.433270155728183E-1   -3.024183330581716E-1    2.404824144628725E-4   -6.325548861438611E-4    3.077528902618992E-4   -6.566603371527289E-4   -4.610423800847418E-1   -1.259248486164528E-1
 1.004788566932500E+10  -3.434745993615332E-1   -3.018255497776773E-1    2.492471074975846E-4   -6.520970846484395E-4    2.965459040976989E-4   -6.130799592095922E-4   -4.613230925908050E-1   -1.255147410109476E-1
 1.004789372650000E+10  -3.437896984611730E-1   -3.015058046833649E-1    2.652411493794004E-4   -6.436809863379768E-4    2.952507586501145E-4   -6.591221927488920E-4   -4.615739578949188E-1   -1.249565661138656E-1
 1.004790178367500E+10  -3.441741458497727E-1   -3.011194072178982E-1    2.609525460661474E-4   -6.247358725177492E-4    2.667048912611683E-4   -6.441704957374603E-4   -4.616009071163106E-1   -1.243324191724180E-1
 1.004790984085000E+10  -3.445677844756985E-1   -3.007622629383939E-1    2.244209509178764E-4   -6.384902533144544E-4    2.859663866262065E-4   -6.220356395901519E-4   -4.617234906196128E-1   -1.238056481806846E-1
 1.004791789802500E+10  -3.447913191735438E-1   -3.002074135016315E-1    2.257644007226253E-4   -6.327631644382158E-4    2.881555973500074E-4   -6.314708291438911E-4   -4.617678224944193E-1   -1.231727584723810E-1
 1.004792595520000E+10  -3.453284636182196E-1   -2.998987823547862E-1    2.482118733112215E-4   -6.565428293914908E-4    2.949027304693287E-4   -6.242325409586777E-4   -4.619882025149625E-1   -1.227799315794883E-1
 1.004793401237500E+10  -3.456041204273654E-1   -2.994419759989958E-1    2.468103785669590E-4   -6.462619319582166E-4    2.773137455356851E-4   -6.343303686616149E-4   -4.620984093280410E-1   -1.220740511808734E-1
 1.004794206955000E+10  -3.459246618492356E-1   -2.990590555601313E-1    2.262026679024373E-4   -6.345809662844367E-4    2.934718128948015E-4   -6.251528318144622E-4   -4.621635487219061E-1   -1.215500618865759E-1
 1.004795012672500E+10  -3.461701602000290E-1   -2.987906313825033E-1    2.508039104630936E-4   -6.064216767169007E-4    2.867816097225715E-4   -6.269928513146870E-4   -4.622215342509554E-1   -1.209449850655835E-1
 1.004795818390000E+10  -3.465799372509760E-1   -2.982057579964559E-1    1.934189656246155E-4   -6.431060141474421E-4    3.002207376667247E-4   -6.372905980270882E-4   -4.623749454604439E-1   -1.204587732863064E-1
 1.004796624107500E+10  -3.469559635820884E-1   -2.977490781918003E-1    2.408551466584535E-4   -5.986603759554265E-4    2.574071324232088E-4   -5.884541145725416E-4   -4.626482810463383E-1   -1.199400286258438E-1
 1.004797429825000E+10  -3.472763954598813E-1   -2.974042467051317E-1    2.462983136610965E-4   -6.245023432477178E-4    2.735414281438143E-4   -6.054700709999015E-4   -4.625668426471883E-1   -1.192994496360690E-1
 1.004798235542500E+10  -3.475757873723204E-1   -2.968935337995040E-1    2.276108587115936E-4   -5.871175561844806E-4    2.660407032480427E-4   -5.958591502667405E-4   -4.628148567320496E-1   -1.187963297466006E-1
 1.004799041260000E+10  -3.479153954969450E-1   -2.966003699464723E-1    2.216712292107800E-4   -5.969151610968583E-4    3.028031008966477E-4   -6.162885404028681E-4   -4.630381716839999E-1   -1.182334285961425E-1
 1.004799846977500E+10  -3.481469147611768E-1   -2.961217944627867E-1    2.428014218782091E-4   -6.240724558141726E-4    2.828123925501178E-4   -5.881615233830139E-4   -4.631222522221253E-1   -1.177243444222912E-1
 1.004800652695000E+10  -3.485307250202550E-1   -2.956504066148307E-1    2.602765301568750E-4   -5.897873717450224E-4    2.917220174893530E-4   -6.031391124285694E-4   -4.632085199241291E-1   -1.171806995611965E-1
 1.004801458412500E+10  -3.489031494175865E-1   -2.952115536983737E-1    2.241462753872366E-4   -6.028461933118638E-4    2.625510233833042E-4   -5.929710919610619E-4   -4.634150129916602E-1   -1.166253302115762E-1
 1.004802264130000E+10  -3.491811756874186E-1   -2.949634621238516E-1    2.093109228803881E-4   -6.006450512056166E-4    2.835194337235948E-4   -5.798808626399344E-4   -4.635467262812093E-1   -1.160080147225120E-1
 1.004803069847500E+10  -3.494530869488603E-1   -2.944768719575172E-1    2.306360493781425E-4   -6.014175498668560E-4    2.729851958455127E-4   -5.537086080561103E-4   -4.636391947866662E-1   -1.154669622703616E-1
 1.004803875565000E+10  -3.499392823678023E-1   -2.940631531938570E-1    2.491967579944225E-4   -5.906617094453966E-4    2.518007781020848E-4   -5.777871741770260E-4   -4.636668439456811E-1   -1.148166598337092E-1
 1.004804681282500E+10  -3.502111558156463E-1   -2.936629920608533E-1    2.002423850118423E-4   -5.785333649053067E-4    2.712250738961156E-4   -5.749260721749442E-4   -4.638183735572755E-1   -1.143888179942772E-1
 1.004805487000000E+10  -3.505755270402792E-1   -2.932039934838042E-1    2.310701213267050E-4   -5.546555981025870E-4    2.662109687138726E-4   -5.561307097204418E-4   -4.639455792217033E-1   -1.137180405118011E-1
 1.004806292717500E+10  -3.508971034400322E-1   -2.927080303551263E-1    2.293445153815386E-4   -5.793424592496436E-4    2.698215789140570E-4   -5.471218842504575E-4   -4.639872625414201E-1   -1.132470724575104E-1
 1.004807098435000E+10  -3.513273000333461E-1   -2.924473808539190E-1    2.371721025325328E-4   -5.668087505637707E-4    2.597649313402867E-4   -5.278699247450821E-4   -4.641508717309772E-1   -1.126570726799872E-1
 1.004807904152500E+10  -3.515096871691592E-1   -2.919589266966278E-1    2.212580013948602E-4   -5.535599934194857E-4    2.694020663626021E-4   -5.439427121453292E-4   -4.642528902813307E-1   -1.122738070001759E-1
 1.004808709870000E+10  -3.518899900605352E-1   -2.915690519420784E-1    2.220881447756291E-4   -5.343144432278097E-4    2.686715879595931E-4   -5.463703226516566E-4   -4.644230270703860E-1   -1.116906817005461E-1
 1.004809515587500E+10  -3.521723247287319E-1   -2.910728374950923E-1    2.071476496099799E-4   -5.279450269624389E-4    2.485969632506128E-4   -5.349246592196885E-4   -4.643288557208559E-1   -1.111286636512468E-1
 1.004810321305000E+10  -3.525638758647547E-1   -2.907779118866996E-1    2.356329826411112E-4   -5.469487324750770E-4    2.824979812652344E-4   -5.394870766901999E-4   -4.646327363710047E-1   -1.105432297432224E-1
 1.004811127022500E+10  -3.529043289717064E-1   -2.904221858971753E-1    2.185661299068383E-4   -5.457254591008555E-4    2.559661892732858E-4   -5.068959156072903E-4   -4.646982280060772E-1   -1.098842646177371E-1
 1.004811932740000E+10  -3.531833887515700E-1   -2.900235139986711E-1    2.434297291847178E-4   -5.217236423808787E-4    2.745587714109098E-4   -5.325482913675070E-4   -4.647750730911386E-1   -1.093033229029456E-1
 1.004812738457500E+10  -3.535091739553921E-1   -2.895772539061217E-1    2.025522669025894E-4   -5.399201377581461E-4    2.746701378751970E-4   -5.009759713080108E-4   -4.648824764962050E-1   -1.088578794439394E-1
 1.004813544175000E+10  -3.537994193660463E-1   -2.891675048674026E-1    2.104446039770019E-4   -5.170294052811938E-4    2.452011434534262E-4   -5.254273264846712E-4   -4.649820699156386E-1   -1.081565582373035E-1
 1.004814349892500E+10  -3.540644561679316E-1   -2.886416250930228E-1    1.932713365267705E-4   -5.276400843664202E-4    2.331059125703659E-4   -5.263533876117547E-4   -4.651660171242677E-1   -1.075478670694717E-1
 1.004815155610000E+10  -3.543936482504835E-1   -2.881493991547305E-1    2.234833630211819E-4   -5.110615214089348E-4    2.302572996355028E-4   -4.915323726744533E-4   -4.652642097574395E-1   -1.069582462666326E-1
 1.004815961327500E+10  -3.548085111469721E-1   -2.878985352091749E-1    2.291833621939074E-4   -5.022059818911217E-4    2.442651276200322E-4   -5.052604440514699E-4   -4.654094244313223E-1   -1.065118412581517E-1
 1.004816767045000E+10  -3.552330313091769E-1   -2.873204905813125E-1    2.231025381650245E-4   -5.199726869367540E-4    2.385863544233361E-4   -4.654422037559568E-4   -4.655992268260282E-1   -1.059527860918256E-1
 1.004817572762500E+10  -3.555125728045742E-1   -2.869366401328098E-1    2.334274225167487E-4   -4.943237624655674E-4    2.586010254500993E-4   -4.663106390351956E-4   -4.655110783654977E-1   -1.052789453779454E-1
 1.004818378480000E+10  -3.558478722553249E-1   -2.866540782829294E-1    1.940279095347743E-4   -5.170981278666371E-4    2.469625315807120E-4   -5.045172230424158E-4   -4.657952668627300E-1   -1.048215390165285E-1
 1.004819184197500E+10  -3.560154770052595E-1   -2.861677734592153E-1    2.253391907203554E-4   -4.706873450115293E-4    2.473842367150963E-4   -4.409955110032894E-4   -4.657257267137361E-1   -1.039973330726941E-1
 1.004819989915000E+10  -3.564135818173959E-1   -2.855966018493505E-1    1.913674642813434E-4   -4.910312021407040E-4    2.429097082555495E-4   -4.792859509423551E-4   -4.658785265219663E-1   -1.035703875632789E-1
 1.004820795632500E+10  -3.567677890068485E-1   -2.850921479394286E-1    1.819839909532362E-4   -4.617439174376101E-4    2.443562582820973E-4   -4.426218552323958E-4   -4.659445913721519E-1   -1.030795764868517E-1
 1.004821601350000E+10  -3.570794159864421E-1   -2.847923185760162E-1    2.444624160873949E-4   -4.436358413969299E-4    2.445015739132716E-4   -4.523968190270766E-4   -4.660400641567973E-1   -1.025095648440848E-1
 1.004822407067500E+10  -3.573862993755902E-1   -2.844045293201084E-1    2.174865850820087E-4   -4.664619934039409E-4    2.437547757141994E-4   -4.377068577960448E-4   -4.660179894075698E-1   -1.019925248787033E-1
 1.004823212785000E+10  -3.577946929329779E-1   -2.839488418074910E-1    2.127882402669049E-4   -4.377241613161741E-4    2.381705403446042E-4   -4.422022898170648E-4   -4.661939247843771E-1   -1.013913394896580E-1
 1.004824018502500E+10  -3.579606721311937E-1   -2.836049832718400E-1    2.016129646881802E-4   -4.152861942193119E-4    2.350088775947682E-4   -4.284225720701071E-4   -4.664210696466489E-1   -1.008576295678471E-1
 1.004824824220000E+10  -3.582916527683322E-1   -2.830976668319208E-1    2.110829963230949E-4   -4.661901856849342E-4    2.233936613920807E-4   -4.250194048145811E-4   -4.664538389037567E-1   -1.001098086656413E-1
 1.004825629937500E+10  -3.586436553450154E-1   -2.827130569479560E-1    1.999690959814507E-4   -4.377966843988946E-4    2.505581742114712E-4   -4.363201067342425E-4   -4.666128479595714E-1   -9.963609067655117E-2
 1.004826435655000E+10  -3.589138502270437E-1   -2.823750718446942E-1    2.083306179385476E-4   -4.452586538229996E-4    2.511050713115180E-4   -4.248719579827312E-4   -4.666465880867731E-1   -9.888086270035998E-2
 1.004827241372500E+10  -3.592044763826501E-1   -2.817827427726812E-1    2.239403953797016E-4   -4.433545095539365E-4    2.279176176839777E-4   -4.131118455952789E-4   -4.667725568522544E-1   -9.838304456996894E-2
 1.004828047090000E+10  -3.595693027659377E-1   -2.813162074853368E-1    2.135474212021507E-4   -3.957475377612839E-4    2.483971310732389E-4   -3.915912568817485E-4   -4.667338247621106E-1   -9.778262724455739E-2
 1.004828852807500E+10  -3.598955025005875E-1   -2.809979466290399E-1    2.003992488532624E-4   -3.942301338005399E-4    2.333084233663772E-4   -4.114436086734232E-4   -4.668370499713789E-1   -9.712613911370493E-2
 1.004829658525000E+10  -3.601694772928519E-1   -2.805811477310929E-1    2.091528312164843E-4   -4.069591866775077E-4    2.259787316614547E-4   -4.006277866827628E-4   -4.670434091166618E-1   -9.665813341559609E-2
 1.004830464242500E+10  -3.605170357850148E-1   -2.802260920862128E-1    2.052083611395783E-4   -3.797794355310694E-4    2.268632321411715E-4   -3.815126912889078E-4   -4.671412653060145E-1   -9.604039944902439E-2
 1.004831269960000E+10  -3.609314582122927E-1   -2.797728153484167E-1    1.982345992136654E-4   -3.896569304048401E-4    2.494806502915171E-4   -3.834298436033874E-4   -4.671241527213721E-1   -9.540929708888653E-2
 1.004832075677500E+10  -3.611355434594295E-1   -2.793114116405158E-1    2.177708031608110E-4   -3.804769705559372E-4    2.146879333364298E-4   -3.661110512915513E-4   -4.672680556705236E-1   -9.492742929408841E-2
 1.004832881395000E+10  -3.613917596450539E-1   -2.789272122285736E-1    1.848485074050562E-4   -3.816333276585165E-4    2.043527453639005E-4   -3.577675210430494E-4   -4.673084361422967E-1   -9.437343427347571E-2
 1.004833687112500E+10  -3.617206623184478E-1   -2.785114484226276E-1    2.027987311851680E-4   -3.356218055199978E-4    2.042152962573477E-4   -3.568829344087010E-4   -4.673265197224897E-1   -9.355503169099678E-2
 1.004834492830000E+10  -3.619926694894648E-1   -2.779691033698730E-1    2.099743084996049E-4   -3.336933885367690E-4    2.110589642300971E-4   -3.461456970273535E-4   -4.674753155963252E-1   -9.304895882754630E-2
 1.004835298547500E+10  -3.623549534663044E-1   -2.776036003058639E-1    2.069141326139810E-4   -3.561748548334604E-4    2.209306600628805E-4   -3.040671044441982E-4   -4.675271823738331E-1   -9.258674338402163E-2
 1.004836104265000E+10  -3.627328948407317E-1   -2.771224719480482E-1    1.786810260433862E-4   -3.415803104074598E-4    2.261143557845301E-4   -3.305800942231647E-4   -4.677002559013086E-1   -9.187974320791882E-2
 1.004836909982500E+10  -3.630676647585931E-1   -2.767475589760405E-1    1.931580455960836E-4   -3.296274781872873E-4    2.130861863271241E-4   -3.236257339455511E-4   -4.677329396848012E-1   -9.123275601348738E-2
 1.004837715700000E+10  -3.633447984780754E-1   -2.763212698824350E-1    1.999685345752869E-4   -3.151574646216276E-4    1.789033230429539E-4   -3.271346721540835E-4   -4.677637085765037E-1   -9.079423014338184E-2
 1.004838521417500E+10  -3.636375593622979E-1   -2.758671186846948E-1    2.028525542431136E-4   -3.119801090932992E-4    2.219829413933296E-4   -2.994177688445521E-4   -4.679655858658455E-1   -9.004197801935762E-2
 1.004839327135000E+10  -3.639033627970372E-1   -2.752934547828561E-1    1.898503860785040E-4   -3.011146080385224E-4    2.393629855550277E-4   -2.938985646716442E-4   -4.679658927929660E-1   -8.938058345720118E-2
 1.004840132852500E+10  -3.643738377932149E-1   -2.749926526917560E-1    2.020004108205729E-4   -2.906941117041246E-4    2.191219516797697E-4   -2.866934537239513E-4   -4.682565841886674E-1   -8.888574417216108E-2
 1.004840938570000E+10  -3.645435380759749E-1   -2.745754504878514E-1    1.806105094512183E-4   -3.117312392192759E-4    2.298620604503675E-4   -2.739412205557618E-4   -4.680759561972413E-1   -8.827311093283974E-2
 1.004841744287500E+10  -3.649024393763480E-1   -2.741318294246154E-1    1.790903596080020E-4   -2.650885409586860E-4    1.877934841553668E-4   -2.339946798344466E-4   -4.682249940742348E-1   -8.779331794739163E-2
 1.004842550005000E+10  -3.651166341262314E-1   -2.735521699155031E-1    1.848887733502580E-4   -2.596304680115754E-4    2.371308849249359E-4   -2.552116143152341E-4   -4.683554387483302E-1   -8.710358211554196E-2
 1.004843355722500E+10  -3.654778449370178E-1   -2.731403040043552E-1    2.139095033399222E-4   -2.387585258516852E-4    2.193818666945134E-4   -2.318638046800085E-4   -4.683113048675097E-1   -8.639167135461218E-2
 1.004844161440000E+10  -3.658065991640134E-1   -2.728010155530141E-1    1.832585591261099E-4   -2.379405412346999E-4    2.194375331055057E-4   -2.467532148008838E-4   -4.684631301648772E-1   -8.576980451249346E-2
 1.004844967157500E+10  -3.661546709591124E-1   -2.723428333822652E-1    1.852094739896418E-4   -2.511055092089310E-4    2.188009689267636E-4   -2.207378055340552E-4   -4.685170960581814E-1   -8.517527471607300E-2
 1.004845772875000E+10  -3.664181602288198E-1   -2.720246388005310E-1    2.036496773698892E-4   -2.325765660161605E-4    2.171276549658466E-4   -2.013837037475773E-4   -4.685372474287461E-1   -8.455222552850042E-2
