#  HZ   S   RI   R     50.00 
! Rohde & Schwarz Vector Network Analyzer 
! Rohde-Schwarz,ZNB20-2Port,1311601062101988,3.16
! Created: UTC 3/21/2024, 1:13:17 AM
! freq[Hz]                re:S11                  im:S11                  re:S21                  im:S21                  re:S12                  im:S12                  re:S22                  im:S22
 1.004775749200000E+10  -3.380387671534347E-1   -3.085250671586815E-1    2.698737195852438E-4   -6.945512151688750E-4    3.135896313082227E-4   -6.944672083741076E-4   -4.591633826389558E-1   -1.341063877998538E-1
 1.004776542950000E+10  -3.384215783510093E-1   -3.081430355453342E-1    2.736442948618941E-4   -6.989632240302140E-4    3.471568197783880E-4   -6.811609137317554E-4   -4.592625902146332E-1   -1.334322767739884E-1
 1.004777336700000E+10  -3.387144593096753E-1   -3.077290367587541E-1    2.576424062553728E-4   -6.723506042022827E-4    3.434517022433111E-4   -6.677554318871127E-4   -4.595485235716953E-1   -1.331664734275424E-1
 1.004778130450000E+10  -3.391262139197400E-1   -3.074214325661683E-1    2.590037022759881E-4   -6.987826436981122E-4    3.400333219993992E-4   -6.790023999236945E-4   -4.596170484030868E-1   -1.326042560323821E-1
 1.004778924200000E+10  -3.393757453126839E-1   -3.069326243301708E-1    2.490736913202141E-4   -6.990060253260815E-4    3.026046753089532E-4   -6.667049622334518E-4   -4.596362415302557E-1   -1.321983247091205E-1
 1.004779717950000E+10  -3.398501752664659E-1   -3.065132866888761E-1    2.279304832994363E-4   -6.844453688101164E-4    3.062473929055743E-4   -6.575152669976745E-4   -4.598917528461480E-1   -1.316997350388335E-1
 1.004780511700000E+10  -3.400543657867117E-1   -3.060234340777164E-1    2.608829708129957E-4   -6.905454049179268E-4    3.218709956656184E-4   -6.754134097040045E-4   -4.599476243161861E-1   -1.308216594229580E-1
 1.004781305450000E+10  -3.403571729746191E-1   -3.057241661151630E-1    2.386816631711644E-4   -6.948789082764043E-4    3.031557081001443E-4   -6.708828276892984E-4   -4.600376283274030E-1   -1.303965713442099E-1
 1.004782099200000E+10  -3.407442960226385E-1   -3.051698641487470E-1    2.699987751936938E-4   -7.007485569051763E-4    3.129585052031191E-4   -6.650202769474448E-4   -4.602946013765825E-1   -1.298692954665536E-1
 1.004782892950000E+10  -3.411354139827102E-1   -3.048195414164655E-1    2.845220027463561E-4   -6.729069572308353E-4    2.719338200827659E-4   -6.461553893346881E-4   -4.603385403206395E-1   -1.293412535750365E-1
 1.004783686700000E+10  -3.413460894853015E-1   -3.045167787456570E-1    2.606594993555941E-4   -6.818088284508102E-4    3.269423251967621E-4   -6.483958150956162E-4   -4.605457920825741E-1   -1.287596012764506E-1
 1.004784480450000E+10  -3.417643237513007E-1   -3.041035562479010E-1    2.663338474931440E-4   -6.581476033184787E-4    3.168071958679052E-4   -6.746858764552077E-4   -4.606347258208535E-1   -1.281561335838275E-1
 1.004785274200000E+10  -3.420831742218106E-1   -3.036388590008706E-1    2.741555200944534E-4   -6.663014474002135E-4    2.843287015725818E-4   -6.610539541551846E-4   -4.609194052851922E-1   -1.277794755661412E-1
 1.004786067950000E+10  -3.424335030562267E-1   -3.033028440821943E-1    2.824870938433278E-4   -6.560038278975639E-4    2.941321517679263E-4   -6.441305523388363E-4   -4.608999168877662E-1   -1.271367479056383E-1
 1.004786861700000E+10  -3.427567083374398E-1   -3.028345065742469E-1    2.804213646007741E-4   -6.584502846718726E-4    3.193088610665811E-4   -6.571078510702043E-4   -4.610185123963154E-1   -1.266052984957114E-1
 1.004787655450000E+10  -3.431141257460092E-1   -3.024669379772764E-1    2.427519435838270E-4   -6.333640023121091E-4    3.133589505615731E-4   -6.518364336054204E-4   -4.611538931886784E-1   -1.262299391024360E-1
 1.004788449200000E+10  -3.434968447280732E-1   -3.021348887492294E-1    2.676183274654867E-4   -6.627779219026953E-4    2.998620662087626E-4   -6.282136837185720E-4   -4.612382598737743E-1   -1.255451135434162E-1
 1.004789242950000E+10  -3.438365235837011E-1   -3.016423672744212E-1    2.584076296910176E-4   -6.490803237002164E-4    2.816211836724930E-4   -6.474870839653339E-4   -4.612747784265855E-1   -1.250313184835633E-1
 1.004790036700000E+10  -3.442012435025838E-1   -3.011383440482772E-1    2.347717729831915E-4   -6.401892278390134E-4    2.884060904246289E-4   -6.495330014286669E-4   -4.614341880054630E-1   -1.244437180001335E-1
 1.004790830450000E+10  -3.444244977230642E-1   -3.007219395383696E-1    2.566252232225134E-4   -6.260642242616908E-4    2.833159896056720E-4   -6.514350800359894E-4   -4.616822273445861E-1   -1.238935362593522E-1
 1.004791624200000E+10  -3.447979144711925E-1   -3.003558125053347E-1    2.303963349166043E-4   -6.284700642066775E-4    2.952573806066383E-4   -6.217308123327597E-4   -4.618290752643561E-1   -1.234872916695629E-1
 1.004792417950000E+10  -3.451426113579762E-1   -3.000011653128645E-1    2.582582928290264E-4   -6.166833951866002E-4    2.812913662254363E-4   -6.063231775929826E-4   -4.621083888185085E-1   -1.227477343864158E-1
 1.004793211700000E+10  -3.455024100614579E-1   -2.996330306410561E-1    2.708894685226915E-4   -6.351060088465744E-4    2.954748176974563E-4   -6.241425696996785E-4   -4.618785085161912E-1   -1.222503084515623E-1
 1.004794005450000E+10  -3.458019016630566E-1   -2.991775280549029E-1    2.345618230272025E-4   -6.269650115151646E-4    2.842521997438795E-4   -5.910079942581967E-4   -4.622446119623805E-1   -1.216959302115326E-1
 1.004794799200000E+10  -3.462059956622154E-1   -2.988605032138518E-1    2.458852261104240E-4   -6.281174233960112E-4    2.580005047956348E-4   -6.493752876349443E-4   -4.622056184967975E-1   -1.210816466429740E-1
 1.004795592950000E+10  -3.464766393861218E-1   -2.983310013364012E-1    2.249333135922276E-4   -6.040965599857787E-4    3.004947039842725E-4   -6.191585284624845E-4   -4.624353704689096E-1   -1.206970841088919E-1
 1.004796386700000E+10  -3.467317848270378E-1   -2.979131334346207E-1    2.625937629871229E-4   -6.195171224635183E-4    2.503694498009809E-4   -5.828096304032882E-4   -4.626378509606269E-1   -1.200817216717929E-1
 1.004797180450000E+10  -3.470745031400407E-1   -2.975523990579693E-1    2.596023977129015E-4   -6.218783892186335E-4    2.864131301724044E-4   -5.945604813073363E-4   -4.627357087991790E-1   -1.195038411398034E-1
 1.004797974200000E+10  -3.474864420005956E-1   -2.972361849108602E-1    2.161461292996880E-4   -6.039564537153598E-4    3.126565557170849E-4   -5.870540616860871E-4   -4.627887142159425E-1   -1.190673975818366E-1
 1.004798767950000E+10  -3.478660770495663E-1   -2.966876327312319E-1    2.381925164975008E-4   -5.883135071734174E-4    2.762453504417164E-4   -5.941623108410928E-4   -4.628815423636320E-1   -1.185962041369769E-1
 1.004799561700000E+10  -3.480871631416459E-1   -2.963332540757269E-1    2.286976109730553E-4   -6.048385100428754E-4    2.725887109649035E-4   -5.726995465946187E-4   -4.630345024831508E-1   -1.179341274004490E-1
 1.004800355450000E+10  -3.485604768640584E-1   -2.959484086914260E-1    2.394082579013265E-4   -6.126848685287440E-4    2.797804630931276E-4   -6.127742393690394E-4   -4.630972179066232E-1   -1.174786172252050E-1
 1.004801149200000E+10  -3.487389867347220E-1   -2.954892755566887E-1    2.474674468020562E-4   -5.746578958080440E-4    2.852651665027763E-4   -5.898360070986952E-4   -4.632652468651138E-1   -1.167883475177058E-1
 1.004801942950000E+10  -3.490657963812490E-1   -2.950830971442756E-1    2.506269509973289E-4   -5.860799828560952E-4    2.810050196717371E-4   -5.622788833695055E-4   -4.633164604718684E-1   -1.163211960295588E-1
 1.004802736700000E+10  -3.493399322151456E-1   -2.946808180323133E-1    2.475158151967268E-4   -5.884763700496356E-4    3.014166650374265E-4   -5.935279320036143E-4   -4.635567930990716E-1   -1.158950033566824E-1
 1.004803530450000E+10  -3.497028913738230E-1   -2.941597749983293E-1    2.313684830562862E-4   -6.067206850924265E-4    2.980714603682814E-4   -5.954281884295750E-4   -4.635621236822986E-1   -1.152892206794045E-1
 1.004804324200000E+10  -3.501398709286441E-1   -2.939032685875933E-1    2.321991593955299E-4   -5.717480559056439E-4    2.598080775990894E-4   -5.919930101077183E-4   -4.637956793674693E-1   -1.146123812289499E-1
 1.004805117950000E+10  -3.504541413216282E-1   -2.934419590671429E-1    2.176973635099634E-4   -5.811323893316008E-4    2.756293960818359E-4   -5.862710242975689E-4   -4.638056013071164E-1   -1.141081497691354E-1
 1.004805911700000E+10  -3.506810030940536E-1   -2.929226944436982E-1    2.138687607380830E-4   -5.865519110537093E-4    2.719963124779794E-4   -5.727781540023606E-4   -4.638167959641485E-1   -1.136260258822673E-1
 1.004806705450000E+10  -3.510240737609582E-1   -2.925695968148991E-1    2.340011074114089E-4   -5.305752025355228E-4    2.851050415897493E-4   -5.948232814401682E-4   -4.639849772487362E-1   -1.130376171157201E-1
 1.004807499200000E+10  -3.513396807924027E-1   -2.921578655101981E-1    2.228329669587839E-4   -5.882705193824790E-4    2.575260470647345E-4   -5.630263460220937E-4   -4.641989686578912E-1   -1.122907246256553E-1
 1.004808292950000E+10  -3.517611109285790E-1   -2.918081254210515E-1    2.408968339452312E-4   -5.553535963208003E-4    2.534356458885059E-4   -5.525321748426615E-4   -4.642604000949078E-1   -1.119455194803255E-1
 1.004809086700000E+10  -3.519013183334513E-1   -2.914369135453293E-1    2.209150299145569E-4   -5.660949818410995E-4    2.378759573293020E-4   -5.504418255547250E-4   -4.644604524997571E-1   -1.113983800339449E-1
 1.004809880450000E+10  -3.523527103225614E-1   -2.909670405315040E-1    2.162094229400848E-4   -5.360791428231533E-4    2.912669227713635E-4   -5.414635959809879E-4   -4.646633892782737E-1   -1.106366965116093E-1
 1.004810674200000E+10  -3.525292927025691E-1   -2.907541210427613E-1    2.377396858147982E-4   -5.207789441167130E-4    2.466699455315708E-4   -5.634245745184074E-4   -4.647391302234690E-1   -1.103407674969669E-1
 1.004811467950000E+10  -3.530381778618604E-1   -2.902202865912609E-1    2.259357415548812E-4   -5.392481793624445E-4    2.406990684387484E-4   -5.407775009615743E-4   -4.646336000284440E-1   -1.096765933336176E-1
 1.004812261700000E+10  -3.533788928112720E-1   -2.898515296010239E-1    2.351570165508392E-4   -5.113475872099280E-4    2.493680979987463E-4   -5.331021643200213E-4   -4.648229573818187E-1   -1.093385428422143E-1
 1.004813055450000E+10  -3.537247924882896E-1   -2.893791793857473E-1    2.326456633532754E-4   -5.596566319134244E-4    2.382485348537675E-4   -5.294540214998905E-4   -4.649555484255866E-1   -1.087401290918985E-1
 1.004813849200000E+10  -3.540805518377915E-1   -2.890409166251887E-1    2.200846848042645E-4   -5.292876032705422E-4    2.770719462218304E-4   -5.108890444879561E-4   -4.649904724384457E-1   -1.079458260335895E-1
 1.004814642950000E+10  -3.543244249552114E-1   -2.885465644750394E-1    1.968700962668593E-4   -5.121392915283668E-4    2.439849807056163E-4   -4.920024405140226E-4   -4.652668926718686E-1   -1.076215231861227E-1
 1.004815436700000E+10  -3.546535822021741E-1   -2.881349585100977E-1    2.231537335715605E-4   -5.065652360831378E-4    2.471094984474879E-4   -5.022155407366755E-4   -4.652542435449459E-1   -1.069298971834495E-1
 1.004816230450000E+10  -3.549286548104896E-1   -2.877408247175810E-1    2.252031027495948E-4   -5.454406566771266E-4    2.477613685731557E-4   -4.990042658347563E-4   -4.653196142360955E-1   -1.063231843359728E-1
 1.004817024200000E+10  -3.552535526541322E-1   -2.873487841991474E-1    2.240089081109350E-4   -4.933575868576536E-4    2.537220197880402E-4   -4.687204978799077E-4   -4.655287175668373E-1   -1.059401824629566E-1
 1.004817817950000E+10  -3.555040604808142E-1   -2.868861951121643E-1    2.212584208537792E-4   -5.208298741368288E-4    2.487441056270782E-4   -5.113380551993124E-4   -4.656712621221356E-1   -1.052411726203203E-1
 1.004818611700000E+10  -3.559099302358802E-1   -2.865001505787488E-1    1.941075230520512E-4   -4.807628685915508E-4    2.474990062716797E-4   -4.952332800996841E-4   -4.656416373094659E-1   -1.047749692158816E-1
 1.004819405450000E+10  -3.562993410492026E-1   -2.860217397392644E-1    2.374913996474135E-4   -5.117400822060288E-4    2.438261897599777E-4   -4.803238252735969E-4   -4.657374855842414E-1   -1.041713731998624E-1
 1.004820199200000E+10  -3.563545215118895E-1   -2.855703044126774E-1    2.121161963627528E-4   -4.826034811799468E-4    2.108257900531928E-4   -4.653748236173599E-4   -4.658115132343407E-1   -1.035139332177627E-1
 1.004820992950000E+10  -3.567462464776366E-1   -2.853095493158395E-1    2.192334317398065E-4   -4.755873507174928E-4    2.394964721954639E-4   -4.748471329360333E-4   -4.660319392773635E-1   -1.027879982157481E-1
 1.004821786700000E+10  -3.569983060227455E-1   -2.849101493425816E-1    2.022642676367127E-4   -4.641658905049270E-4    2.216003344474039E-4   -4.493483737155161E-4   -4.661445041196720E-1   -1.023779159868402E-1
 1.004822580450000E+10  -3.574270320685650E-1   -2.843996976767609E-1    1.964929252082501E-4   -4.511970039339938E-4    2.390246468376134E-4   -4.422552840725522E-4   -4.662899540109642E-1   -1.016829638414656E-1
 1.004823374200000E+10  -3.577153533723067E-1   -2.839466841154339E-1    1.826980292611303E-4   -4.595147478909539E-4    2.637271129667635E-4   -4.516588137681062E-4   -4.662505214713734E-1   -1.013247659438847E-1
 1.004824167950000E+10  -3.580820298950201E-1   -2.836434992939709E-1    1.935052860250746E-4   -4.558507929673755E-4    2.420162595765365E-4   -4.270617070606115E-4   -4.664483883678601E-1   -1.007745095567317E-1
 1.004824961700000E+10  -3.584164403515219E-1   -2.830989279099721E-1    2.121805833538310E-4   -4.293164459704874E-4    2.362204396991805E-4   -4.035981311940945E-4   -4.664972836930918E-1   -1.001790515014098E-1
 1.004825755450000E+10  -3.586693265762142E-1   -2.826695513462039E-1    2.292121910712903E-4   -4.367464478234955E-4    2.265141758693665E-4   -4.367473669993846E-4   -4.666273475645327E-1   -9.962787548166141E-2
 1.004826549200000E+10  -3.589885634277495E-1   -2.822455647835057E-1    1.922553065432731E-4   -4.122454400754383E-4    2.239401399208200E-4   -4.420439797137476E-4   -4.666084914182767E-1   -9.901487827526780E-2
 1.004827342950000E+10  -3.593365613704965E-1   -2.818409062914582E-1    2.125778917098131E-4   -4.242969065978490E-4    2.536449969787100E-4   -4.297623807513569E-4   -4.669319130414533E-1   -9.831852866651873E-2
 1.004828136700000E+10  -3.596233517545371E-1   -2.815059757991247E-1    2.077320537681703E-4   -4.248887745100992E-4    2.454333969412946E-4   -3.911429411748822E-4   -4.668868255920162E-1   -9.786399367080338E-2
 1.004828930450000E+10  -3.598610985767809E-1   -2.810116543040068E-1    1.976964081343819E-4   -4.303340175901353E-4    2.333701829044996E-4   -4.247783382299828E-4   -4.668285582644114E-1   -9.732317562118380E-2
 1.004829724200000E+10  -3.601532941836687E-1   -2.806769906581581E-1    1.867089479878927E-4   -3.973340446756633E-4    2.265585064895311E-4   -3.986728478542841E-4   -4.669748751343284E-1   -9.671801901921663E-2
 1.004830517950000E+10  -3.604766490909389E-1   -2.802811845025690E-1    1.965198975392839E-4   -3.955371835072173E-4    2.251867211454490E-4   -4.051339516097180E-4   -4.669528238669132E-1   -9.605400390902105E-2
 1.004831311700000E+10  -3.607728999122846E-1   -2.797594290531746E-1    2.156183989626835E-4   -3.872321082494135E-4    2.191276630746657E-4   -3.862911837118801E-4   -4.671749270305334E-1   -9.554176442625781E-2
 1.004832105450000E+10  -3.611557966940202E-1   -2.793631698221808E-1    1.930426041935303E-4   -3.705834066879152E-4    2.115919982190468E-4   -3.655659795877696E-4   -4.672171033879092E-1   -9.506473791864244E-2
 1.004832899200000E+10  -3.614770565083943E-1   -2.789147063673894E-1    1.688081597716853E-4   -3.782770256778171E-4    2.414590329233261E-4   -3.733526524984427E-4   -4.673018190877234E-1   -9.420970295410559E-2
 1.004833692950000E+10  -3.617928338960325E-1   -2.784023981236226E-1    2.043836067268204E-4   -3.750383240879345E-4    2.294138772731614E-4   -3.515791823228036E-4   -4.674034130636976E-1   -9.375875834914549E-2
 1.004834486700000E+10  -3.620904943164077E-1   -2.781061865009786E-1    2.240474068432771E-4   -3.643182175332709E-4    2.243079743058823E-4   -3.670920684789205E-4   -4.675601123116749E-1   -9.309366649619000E-2
 1.004835280450000E+10  -3.623656573845546E-1   -2.776529853948796E-1    2.163647750817653E-4   -3.622084351566432E-4    2.508172201819667E-4   -3.231087711827305E-4   -4.676329315234471E-1   -9.268159982641465E-2
 1.004836074200000E+10  -3.626876493153163E-1   -2.771596061993282E-1    1.950841731917080E-4   -3.217975781009654E-4    2.215716945452742E-4   -3.369926602626256E-4   -4.676184399954116E-1   -9.190565414973885E-2
 1.004836867950000E+10  -3.629950990808889E-1   -2.767750611202870E-1    2.084699119537038E-4   -3.584630834935313E-4    2.010184404138904E-4   -3.305712456366930E-4   -4.677128941531268E-1   -9.137661615498786E-2
 1.004837661700000E+10  -3.632111751534403E-1   -2.763127689767159E-1    2.206224385957564E-4   -3.191913569099520E-4    2.370549691931503E-4   -3.075557528690060E-4   -4.678939586067066E-1   -9.081202328195379E-2
 1.004838455450000E+10  -3.634309445588426E-1   -2.758598033075478E-1    1.727787448367495E-4   -2.927138607731024E-4    2.166982144675668E-4   -2.867489671312344E-4   -4.678538513079607E-1   -9.003625557399879E-2
 1.004839249200000E+10  -3.639760080543628E-1   -2.755890944741671E-1    2.022751468596982E-4   -2.937151551051517E-4    2.235641487644312E-4   -3.103714463800435E-4   -4.680656873128913E-1   -8.952966654284746E-2
 1.004840042950000E+10  -3.642305374568811E-1   -2.751304202700017E-1    2.298266367712582E-4   -3.011524900089944E-4    1.998397000834602E-4   -2.904054395997413E-4   -4.680690046028314E-1   -8.894214081296022E-2
 1.004840836700000E+10  -3.645941010747854E-1   -2.746332993755191E-1    1.812053375225113E-4   -3.038712829938303E-4    2.210258883999942E-4   -2.736628249439942E-4   -4.679704152055364E-1   -8.856885941663747E-2
 1.004841630450000E+10  -3.648688086387573E-1   -2.742347103107767E-1    1.865351153953432E-4   -2.724973753476017E-4    2.072667924523633E-4   -2.718759506993628E-4   -4.682040312816629E-1   -8.775918518303208E-2
 1.004842424200000E+10  -3.651619234951231E-1   -2.737352050690169E-1    1.954420656851135E-4   -2.884736530507780E-4    2.053919880925550E-4   -2.503505072930178E-4   -4.680458441695804E-1   -8.723827523005816E-2
 1.004843217950000E+10  -3.653300615085854E-1   -2.733362209851267E-1    2.171958483328019E-4   -2.439926050387073E-4    2.151200859524999E-4   -2.553209181953628E-4   -4.683638589276258E-1   -8.659745510541357E-2
 1.004844011700000E+10  -3.656784916832625E-1   -2.730426150172426E-1    1.765618829666445E-4   -2.516217022280620E-4    2.202666483982528E-4   -2.268520482490607E-4   -4.683761035873711E-1   -8.608038025762196E-2
 1.004844805450000E+10  -3.660339173904628E-1   -2.724021666109372E-1    1.767410984156178E-4   -2.430346059367142E-4    2.169877534316697E-4   -2.638257309657227E-4   -4.683999886957933E-1   -8.550723464043816E-2
 1.004845599200000E+10  -3.662988146941855E-1   -2.721318043355213E-1    2.018908121289808E-4   -2.314512417441812E-4    2.083318342379573E-4   -2.506873775889573E-4   -4.685906449080197E-1   -8.482554076585758E-2
 1.004846392950000E+10  -3.666323570603700E-1   -2.717168499805593E-1    2.139262059407110E-4   -2.405452621105168E-4    2.116536786113859E-4   -1.967348706728609E-4   -4.685655650002578E-1   -8.411573144936858E-2
 1.004847186700000E+10  -3.669123803963544E-1   -2.712448718652668E-1    2.085496038909860E-4   -2.155728862551497E-4    1.930974620111846E-4   -1.839465477529586E-4   -4.686234567042119E-1   -8.355124454943520E-2
