#  HZ   S   RI   R     50.00 
! Rohde & Schwarz Vector Network Analyzer 
! Rohde-Schwarz,ZNB20-2Port,1311601062101988,3.16
! Created: UTC 3/21/2024, 12:52:36 AM
! freq[Hz]                re:S11                  im:S11                  re:S21                  im:S21                  re:S12                  im:S12                  re:S22                  im:S22
 1.004791248900000E+10  -3.569300807538283E-1   -2.894970575365562E-1    6.392737505496751E-5    1.040655475610802E-5    8.177532331502412E-5    2.157919278290310E-5   -4.653598158408663E-1   -9.372180169901093E-2
 1.004791589592500E+10  -3.571438998664455E-1   -2.893773545017708E-1    7.116867561580384E-5   -4.306397637378271E-7    5.722709301602276E-5    1.706345585897904E-6   -4.653325876687481E-1   -9.339516335469708E-2
 1.004791930285000E+10  -3.571509156316586E-1   -2.891065395742881E-1    5.888064612038498E-5   -1.123068517247400E-5    7.458651579024930E-5    2.606774262218731E-5   -4.652651648106075E-1   -9.322864693033835E-2
 1.004792270977500E+10  -3.573156104626481E-1   -2.890502464984677E-1    8.174280065504197E-5    1.256074861848171E-5    7.741956413023798E-5    2.718849548661616E-5   -4.654350644281602E-1   -9.277273027625713E-2
 1.004792611670000E+10  -3.574242313096313E-1   -2.887601528209637E-1    6.403737699026790E-5    5.543350364611645E-5    6.147305007637101E-5    1.940816767967165E-5   -4.654550539750248E-1   -9.258331729412736E-2
 1.004792952362500E+10  -3.576307268118138E-1   -2.884977138460596E-1    7.738038601099089E-5    3.866102881728391E-5    9.230443895518026E-5    5.097863151201737E-5   -4.655176837755992E-1   -9.223940765373126E-2
 1.004793293055000E+10  -3.577172176268818E-1   -2.883142869922203E-1    6.850960055539056E-5   -1.145347269960555E-6    6.689744135730646E-5    2.053664010307740E-5   -4.654909134336712E-1   -9.199257131510881E-2
 1.004793633747500E+10  -3.578093905784733E-1   -2.882518432051297E-1    7.364807107495027E-5    7.896023441763174E-5    9.871027872206253E-5    6.800150586917058E-5   -4.657165689423061E-1   -9.163498418237705E-2
 1.004793974440000E+10  -3.580832652663641E-1   -2.879957581449070E-1    6.187707029060976E-5    4.459676155450945E-5    7.941838676199544E-5    5.189667596011756E-5   -4.655001187906638E-1   -9.131931539901733E-2
 1.004794315132500E+10  -3.581277306150445E-1   -2.878067417158872E-1    8.458198933882595E-5    5.048690073441403E-5    7.699952573015493E-5    7.428877306333052E-5   -4.656913632920712E-1   -9.116983908011204E-2
 1.004794655825000E+10  -3.581363228722834E-1   -2.877689933560570E-1    6.151194158399990E-5    8.450630786342359E-5    6.961036203203036E-5    1.020594072922977E-4   -4.656574886946592E-1   -9.087478930898120E-2
 1.004794996517500E+10  -3.584867339305639E-1   -2.876317329583121E-1    4.113623779811857E-5    5.838112651318185E-5    5.933143820538103E-5    1.134995792942023E-4   -4.657529952734627E-1   -9.038966229187287E-2
 1.004795337210000E+10  -3.585598737897149E-1   -2.872298596352131E-1    6.028784770374745E-5    5.908056766884347E-5    5.613962761049377E-5    9.488347150632424E-5   -4.657664501456633E-1   -9.011974713980943E-2
 1.004795677902500E+10  -3.587072362484724E-1   -2.869280983786507E-1    8.984461721626639E-5    9.580700877236406E-5    6.706472622463693E-5    1.135831113582696E-4   -4.656970609529151E-1   -8.985872348447363E-2
 1.004796018595000E+10  -3.588062442924750E-1   -2.870063487860279E-1    7.354704374435877E-5    9.998094178027340E-5    5.686298542175893E-5    9.530684256590825E-5   -4.657602087272803E-1   -8.961966331171987E-2
 1.004796359287500E+10  -3.590632189851086E-1   -2.868558676075896E-1    4.236218829364481E-5    1.221349227852877E-4    4.566035004548697E-5    1.100274527543585E-4   -4.658345143185510E-1   -8.923049060696213E-2
 1.004796699980000E+10  -3.590831923816269E-1   -2.866229251304550E-1    7.621495975231068E-5    1.059528898617080E-4    2.987242696834229E-5    1.340768281382833E-4   -4.659476645711519E-1   -8.909135594997933E-2
 1.004797040672500E+10  -3.591824119274623E-1   -2.863442407792900E-1    6.012360741783694E-5    1.490232593201890E-4    3.024466535203486E-5    1.521706197752646E-4   -4.659714918245041E-1   -8.873418882943583E-2
 1.004797381365000E+10  -3.593711837227307E-1   -2.862639444782759E-1    6.382774227825767E-5    1.254993569450389E-4    6.621902873947962E-5    1.230818337551088E-4   -4.657906435532178E-1   -8.846960035027925E-2
 1.004797722057500E+10  -3.595460190549999E-1   -2.858667347969852E-1    7.238536743447950E-5    1.541927825006031E-4    3.617191910766221E-5    1.291359228049342E-4   -4.659591248768929E-1   -8.826649661695357E-2
 1.004798062750000E+10  -3.596865591110171E-1   -2.858542764748027E-1    4.670940919465946E-5    1.414410212325822E-4    1.433831284272109E-5    1.262348617685556E-4   -4.659795376842770E-1   -8.786222241131425E-2
 1.004798403442500E+10  -3.598566566705756E-1   -2.856699504291954E-1    3.646337536726377E-5    1.521263531947224E-4    7.357118073892272E-5    1.899806116930215E-4   -4.659724236815553E-1   -8.761574077429536E-2
 1.004798744135000E+10  -3.599107703827492E-1   -2.854598696269455E-1    3.447876662724575E-5    1.613705734556640E-4    3.454402571055624E-5    1.769261255801443E-4   -4.659204275357152E-1   -8.721706857161593E-2
 1.004799084827500E+10  -3.601794202976837E-1   -2.852640664203416E-1    7.061651186518446E-5    1.662634346746728E-4    4.918618496648982E-5    2.034667277632832E-4   -4.660675972066350E-1   -8.682898052277957E-2
 1.004799425520000E+10  -3.603380341152073E-1   -2.851144270622022E-1    6.029692323927997E-5    1.938365330552676E-4    3.908191641029491E-5    2.061791733326226E-4   -4.659969238660368E-1   -8.666796489458138E-2
 1.004799766212500E+10  -3.604694257290290E-1   -2.849311337639112E-1    4.720698025893567E-5    2.070873624488748E-4    4.720998792263832E-5    1.841360705290517E-4   -4.661500043583152E-1   -8.622767495638993E-2
 1.004800106905000E+10  -3.604735714163014E-1   -2.847353537647319E-1    6.315285638928130E-5    2.137120696138487E-4    5.043776879374398E-5    2.184317937514971E-4   -4.661690472592645E-1   -8.592787489863779E-2
 1.004800447597500E+10  -3.605039028644278E-1   -2.846547625530461E-1    7.585789358237719E-5    1.773005952868602E-4    4.253605018429671E-5    2.267726106940806E-4   -4.661518467729778E-1   -8.569782888560942E-2
 1.004800788290000E+10  -3.608716487707462E-1   -2.843136299357276E-1    6.327727837557606E-5    2.440489014574317E-4    4.886588850831290E-5    1.901737909249232E-4   -4.662563221472626E-1   -8.537745411420782E-2
 1.004801128982500E+10  -3.609811700847149E-1   -2.841169974235008E-1    3.559907713323786E-5    2.034104115834674E-4    4.209330065045229E-5    2.346452217910462E-4   -4.663203299634053E-1   -8.502688777413168E-2
 1.004801469675000E+10  -3.609669186794498E-1   -2.840215763051125E-1    6.354481720342647E-5    2.361457925300295E-4    3.982860796233903E-5    2.397695348078697E-4   -4.662408119177776E-1   -8.480077148267558E-2
 1.004801810367500E+10  -3.611831246740492E-1   -2.838516006525256E-1    5.252599633819096E-5    2.490093024258690E-4    2.774190907656543E-5    2.584434777472034E-4   -4.663025182693242E-1   -8.443127673557003E-2
 1.004802151060000E+10  -3.613534767725037E-1   -2.836934426746655E-1    4.368092479804676E-5    2.551676620611149E-4    3.722498026100227E-5    2.697806532824897E-4   -4.664393980547774E-1   -8.411731288466821E-2
 1.004802491752500E+10  -3.614996798932819E-1   -2.834110486633147E-1    3.645893676025508E-5    2.486409106242565E-4    4.710968674400857E-5    2.552958672754674E-4   -4.663444405442853E-1   -8.382258897015886E-2
 1.004802832445000E+10  -3.615228438220790E-1   -2.832465466996956E-1    4.420084300589573E-5    2.855334502371827E-4    1.397415080713361E-5    2.780313275812283E-4   -4.664332102542909E-1   -8.347309819457525E-2
 1.004803173137500E+10  -3.617487768467111E-1   -2.830128250250020E-1    4.424673734178468E-5    2.888533375123146E-4    3.586311074038663E-5    3.059868961993555E-4   -4.664004081620919E-1   -8.322986538651528E-2
 1.004803513830000E+10  -3.618945707843195E-1   -2.829422237540330E-1    5.570333595630095E-5    2.883325939645230E-4    3.226369442930272E-5    2.885436133947620E-4   -4.665962942103972E-1   -8.286735189554205E-2
 1.004803854522500E+10  -3.619038520092384E-1   -2.827938328256149E-1    5.344578196479970E-5    2.832177777475682E-4    4.443757432761965E-5    3.098285939371308E-4   -4.664565500952347E-1   -8.248232437540737E-2
 1.004804195215000E+10  -3.620703199531788E-1   -2.825224100670422E-1    6.578524961093740E-5    3.191903038233769E-4   -5.096460800089192E-7    3.288737279751726E-4   -4.666207769577637E-1   -8.216112734992212E-2
 1.004804535907500E+10  -3.623119422191527E-1   -2.822960854820378E-1    4.615358945257885E-5    3.251940351541199E-4    1.313987104391677E-5    3.319906801726095E-4   -4.667197380732165E-1   -8.187427365415965E-2
 1.004804876600000E+10  -3.623950563822045E-1   -2.822786411012072E-1    2.091897278640089E-5    3.488365116713988E-4    1.666324414089889E-5    3.536985849955046E-4   -4.666250655234878E-1   -8.151471131032444E-2
 1.004805217292500E+10  -3.626093237406897E-1   -2.820064281322024E-1    6.469859815670420E-5    3.292174749634607E-4    2.437362387645695E-5    3.910320535468281E-4   -4.666029233732197E-1   -8.105179412259915E-2
 1.004805557985000E+10  -3.626822000609763E-1   -2.818435559014898E-1    3.543373471934066E-5    3.471761476393484E-4    3.840930129633028E-5    3.646894673917236E-4   -4.665431724566698E-1   -8.097080658357753E-2
 1.004805898677500E+10  -3.628396526737646E-1   -2.816191079856438E-1    2.521235776962401E-5    3.868815763897428E-4    1.869620968907962E-5    3.760742373136631E-4   -4.665320855676059E-1   -8.067809389302272E-2
 1.004806239370000E+10  -3.629106804125035E-1   -2.814496604147096E-1    3.848306731379437E-5    3.656449385167095E-4   -1.168615246647360E-5    3.898740521136870E-4   -4.666720265077635E-1   -8.021159200242844E-2
 1.004806580062500E+10  -3.631205903812872E-1   -2.813091866137388E-1    5.203660474383523E-5    3.953763744734786E-4    3.003027254028334E-5    3.931138000120640E-4   -4.665832172270393E-1   -8.006571369490116E-2
 1.004806920755000E+10  -3.631956600702501E-1   -2.810535089334623E-1    5.880480578654294E-5    4.215312006017486E-4    3.917120756985132E-5    4.126671988138420E-4   -4.667959038347090E-1   -7.958264766401871E-2
 1.004807261447500E+10  -3.634366285487302E-1   -2.809134524447021E-1    3.611178611511024E-5    4.319675039285828E-4    2.614837684792598E-5    4.315434880484894E-4   -4.668065486083128E-1   -7.935866678438794E-2
 1.004807602140000E+10  -3.633899663417234E-1   -2.806715579486934E-1    7.828922338644775E-5    4.361041594995241E-4    2.895590338511478E-5    4.641468929184261E-4   -4.668583902677815E-1   -7.901340127833166E-2
 1.004807942832500E+10  -3.635830829517726E-1   -2.805765399855031E-1    2.826480572255504E-5    4.306238020121227E-4   -2.595980219207010E-5    4.753978487091539E-4   -4.666815284553583E-1   -7.860925444305915E-2
 1.004808283525000E+10  -3.636962987042280E-1   -2.803197974867506E-1    3.293699460066648E-5    4.540394260670139E-4    3.036265270744596E-5    4.444001261345935E-4   -4.667127245729017E-1   -7.827847509449401E-2
 1.004808624217500E+10  -3.637556163405384E-1   -2.801342719176423E-1    3.150181236326630E-5    4.743939087736669E-4    1.760501904735515E-5    4.849889340072000E-4   -4.668483261331995E-1   -7.784078130945242E-2
 1.004808964910000E+10  -3.640356974228054E-1   -2.798777331355688E-1    4.202350110611572E-5    4.567436448336242E-4    1.445362389528019E-5    4.953842145849559E-4   -4.668277652120408E-1   -7.741973560077534E-2
 1.004809305602500E+10  -3.641596100997210E-1   -2.797796566822781E-1    4.986726494433689E-5    4.802731957642005E-4    4.757597656665796E-5    5.331170640103565E-4   -4.668322467363486E-1   -7.705024653496959E-2
 1.004809646295000E+10  -3.643215226208547E-1   -2.796789111257840E-1    5.467972617235650E-5    4.901217218957701E-4    2.073572050521960E-5    5.135102758242953E-4   -4.667517102076718E-1   -7.688060432749841E-2
 1.004809986987500E+10  -3.644925233942798E-1   -2.794652846568699E-1    5.320678382790793E-5    5.129923133885933E-4    2.280136221268285E-5    5.490707708060713E-4   -4.668929092775530E-1   -7.644641601103914E-2
 1.004810327680000E+10  -3.645731315194427E-1   -2.793112474021963E-1    3.961109285874206E-5    5.394613849637578E-4    1.223131581138395E-5    5.160400656158041E-4   -4.669891096606406E-1   -7.619473837237006E-2
 1.004810668372500E+10  -3.648612364070371E-1   -2.791047945339691E-1    4.203309709325678E-5    5.168062065456823E-4   -1.328482456837679E-5    5.108224131577694E-4   -4.668976926043131E-1   -7.581516035288466E-2
 1.004811009065000E+10  -3.647533163926985E-1   -2.789291145680708E-1    4.142321623819682E-5    5.763437719528762E-4    2.954155155183294E-5    5.715279517704840E-4   -4.669981912203419E-1   -7.548454890251637E-2
 1.004811349757500E+10  -3.648755786540591E-1   -2.787396743665754E-1    3.056358252303515E-5    5.753065121146224E-4   -2.898564919356415E-6    6.010035829012133E-4   -4.668850065560239E-1   -7.519526724232636E-2
 1.004811690450000E+10  -3.651874254020999E-1   -2.785219022382895E-1    6.666052512765374E-5    5.788405348364865E-4    6.130834957915323E-7    5.734880285292062E-4   -4.670018850076991E-1   -7.479107272599662E-2
 1.004812031142500E+10  -3.651823025264053E-1   -2.783252808735758E-1    2.222183201364024E-5    5.994056272439815E-4    1.946779385593277E-6    5.870633067749259E-4   -4.670354951498939E-1   -7.437803910340016E-2
 1.004812371835000E+10  -3.653862914082857E-1   -2.781059095926856E-1    3.365101796571979E-5    6.119403258197666E-4   -2.051138933690099E-6    5.785275471846413E-4   -4.669025759894159E-1   -7.411712855492909E-2
 1.004812712527500E+10  -3.654157772001343E-1   -2.779830455937191E-1    4.127238138336815E-5    6.391160428915215E-4   -1.227576438945653E-6    6.224145899684230E-4   -4.669126853743436E-1   -7.367639913175593E-2
 1.004813053220000E+10  -3.656369765801251E-1   -2.777316981974861E-1    4.691963695031482E-5    6.372081143767807E-4   -4.234472685309359E-6    6.560889416785704E-4   -4.669466442624716E-1   -7.328682376410203E-2
 1.004813393912500E+10  -3.657258084228774E-1   -2.775818263941509E-1    4.874689020539367E-5    6.702952167283182E-4    1.229514882450801E-5    6.570326377791103E-4   -4.668640055692620E-1   -7.305087605431081E-2
 1.004813734605000E+10  -3.659156857073192E-1   -2.773953882460357E-1    3.884597829814363E-5    6.626550996442453E-4   -1.546976451545645E-5    6.512207141863827E-4   -4.670514530481818E-1   -7.250959611654396E-2
 1.004814075297500E+10  -3.661802940773398E-1   -2.771275985541903E-1    4.820370182899879E-5    6.971485803105444E-4    2.240871258709491E-6    6.841871808967520E-4   -4.670220425770651E-1   -7.221029111442841E-2
 1.004814415990000E+10  -3.660899936563884E-1   -2.770103197575972E-1    5.094967008007306E-5    7.080840074718157E-4   -1.723741317737672E-5    7.099480039349838E-4   -4.669760824658487E-1   -7.180680478401009E-2
 1.004814756682500E+10  -3.663338929488041E-1   -2.766802205393764E-1    4.195838358297537E-5    6.985785897468667E-4    2.891039850381725E-6    7.467657210346026E-4   -4.668989562808563E-1   -7.155566087224197E-2
 1.004815097375000E+10  -3.664466072729800E-1   -2.766617999287526E-1    4.932914886032032E-5    7.311735151413469E-4    1.176785024837957E-5    7.648580171880624E-4   -4.671143301126891E-1   -7.113867335109282E-2
 1.004815438067500E+10  -3.666025523973540E-1   -2.765634602436169E-1    7.560309687423837E-5    7.802705217471558E-4    7.671268363641857E-6    7.716596662222329E-4   -4.670041658777260E-1   -7.067052171304658E-2
 1.004815778760000E+10  -3.667027700853986E-1   -2.761550097655230E-1   -1.283646877030505E-6    7.531954216402802E-4    2.815207544771995E-6    7.770847422762996E-4   -4.669543995495773E-1   -7.030232923325562E-2
 1.004816119452500E+10  -3.669196935587099E-1   -2.760996436426992E-1    2.934158438847464E-5    8.081530693053624E-4    8.621161830181431E-6    7.953178188969166E-4   -4.670067177503489E-1   -6.990195365902589E-2
 1.004816460145000E+10  -3.669464524202486E-1   -2.758673753533705E-1    4.781996652106670E-5    8.131476615385389E-4    1.088979203412172E-5    8.183571924992804E-4   -4.671231744899205E-1   -6.957346288694238E-2
 1.004816800837500E+10  -3.671521343087900E-1   -2.757547367669849E-1    4.100986364974149E-5    8.264678377081560E-4   -9.893682566810363E-6    8.381369524319626E-4   -4.669332515772758E-1   -6.916808708935027E-2
 1.004817141530000E+10  -3.673729491129809E-1   -2.755876076440282E-1    5.904172696808682E-5    8.325359471880911E-4    1.555996244494501E-5    8.491959800691762E-4   -4.668143903277165E-1   -6.871412641793616E-2
 1.004817482222500E+10  -3.673608590402425E-1   -2.753601293542865E-1    3.986391946302872E-5    8.680935543638519E-4    5.842463804758170E-7    8.699047266893140E-4   -4.670281839150209E-1   -6.837343860042672E-2
 1.004817822915000E+10  -3.674485886753565E-1   -2.752474064128300E-1    5.625079658429728E-5    8.558121000820623E-4   -1.203573666534195E-5    8.759702726390167E-4   -4.670243045321608E-1   -6.813038844691562E-2
 1.004818163607500E+10  -3.676789795595112E-1   -2.750797395401244E-1    7.515917247967974E-5    8.821175754849759E-4    7.214559590729161E-6    8.986904186287619E-4   -4.668735702864265E-1   -6.769393010541790E-2
 1.004818504300000E+10  -3.677887428061491E-1   -2.747861779288033E-1    4.358133468144468E-5    9.219503552103298E-4   -7.685762127807414E-6    9.425176403834600E-4   -4.671023666652233E-1   -6.725967963201797E-2
 1.004818844992500E+10  -3.678957560139295E-1   -2.745770848744074E-1    6.587596939588861E-5    9.395514100913168E-4   -2.195339024967382E-6    9.539423627747979E-4   -4.667659262397795E-1   -6.678782955172671E-2
 1.004819185685000E+10  -3.679941491860159E-1   -2.743729293321424E-1    6.446390852585819E-5    9.505885186407137E-4    2.219058299514923E-5    9.855826721265326E-4   -4.669780060416206E-1   -6.635242763361250E-2
 1.004819526377500E+10  -3.680625964645421E-1   -2.743499744659620E-1    5.744776811619864E-5    9.860203631853043E-4    2.264484182474225E-5    9.825975659176237E-4   -4.670871488320474E-1   -6.600104823826304E-2
 1.004819867070000E+10  -3.682620572232297E-1   -2.739936950489688E-1    7.468639489152032E-5    1.005998257009063E-3   -1.555037711913679E-5    9.927980757322170E-4   -4.669677020911824E-1   -6.566307812661136E-2
 1.004820207762500E+10  -3.684400207137678E-1   -2.738590655762075E-1    7.720350064536997E-5    9.996925002312743E-4   -1.984348723894394E-5    1.017166079201728E-3   -4.667652760814097E-1   -6.504620229917328E-2
 1.004820548455000E+10  -3.685098484328543E-1   -2.737331892750898E-1    6.120996307679770E-5    1.046233614969642E-3   -9.209890073443234E-6    1.054996534667052E-3   -4.668883475369927E-1   -6.472131914050396E-2
 1.004820889147500E+10  -3.686714442619710E-1   -2.734766847448529E-1    9.250452794452501E-5    1.046255190518185E-3   -2.538740010989423E-5    1.057463728064284E-3   -4.668898836182646E-1   -6.439010654101322E-2
 1.004821229840000E+10  -3.688385640737793E-1   -2.731824304228164E-1    6.262815268281918E-5    1.088005900993726E-3    2.654654608903043E-7    1.080996201977309E-3   -4.668917367316779E-1   -6.392673712064377E-2
 1.004821570532500E+10  -3.689786039097719E-1   -2.731238612738677E-1    5.852655894686517E-5    1.093238898101428E-3   -1.293988936163271E-5    1.121072534821140E-3   -4.669383368849873E-1   -6.328642646752601E-2
 1.004821911225000E+10  -3.690500173906823E-1   -2.728961505490939E-1    5.164231752126802E-5    1.097798774048540E-3    3.552184125192835E-5    1.131167539529535E-3   -4.667411539530491E-1   -6.311130953720916E-2
