#  HZ   S   RI   R     50.00 
! Rohde & Schwarz Vector Network Analyzer 
! Rohde-Schwarz,ZNB20-2Port,1311601062101988,3.16
! Created: UTC 3/21/2024, 1:14:02 AM
! freq[Hz]                re:S11                  im:S11                  re:S21                  im:S21                  re:S12                  im:S12                  re:S22                  im:S22
 1.004789885100000E+10  -3.436018888315442E-1   -3.017733258442342E-1    2.328606006751601E-4   -6.643985963721120E-4    3.188847124759139E-4   -6.471258118534202E-4   -4.615132957966715E-1   -1.251215225297722E-1
 1.004790633627500E+10  -3.438848537547761E-1   -3.013573996130816E-1    2.517366271191425E-4   -6.734756453289967E-4    3.146796807727368E-4   -7.038439840805212E-4   -4.614435782505295E-1   -1.245627339286857E-1
 1.004791382155000E+10  -3.442415695351776E-1   -3.011478426983135E-1    2.289295002363069E-4   -6.689146096615949E-4    2.868236165522473E-4   -6.555834895435445E-4   -4.615340803246835E-1   -1.242263336907963E-1
 1.004792130682500E+10  -3.444550737886860E-1   -3.005668099201925E-1    2.363181057233498E-4   -6.929484489671237E-4    2.953679143331581E-4   -6.487821388848510E-4   -4.618627395656882E-1   -1.236500106310920E-1
 1.004792879210000E+10  -3.448590978653080E-1   -3.003011639857788E-1    2.267640873316437E-4   -6.569536417102475E-4    2.851463012929847E-4   -6.671934526565440E-4   -4.618762934332803E-1   -1.230372312591944E-1
 1.004793627737500E+10  -3.452089740617764E-1   -2.999166126945744E-1    2.151555584689843E-4   -6.716104435491735E-4    3.224261963993812E-4   -6.398606182596621E-4   -4.618274468011369E-1   -1.227741490181410E-1
 1.004794376265000E+10  -3.454604196639302E-1   -2.995569261963308E-1    2.387826797286361E-4   -6.625589335178361E-4    3.056981990215959E-4   -6.549216732616586E-4   -4.622446546253664E-1   -1.221559372359509E-1
 1.004795124792500E+10  -3.458254735203655E-1   -2.992434892251479E-1    2.342654561165623E-4   -6.544962059966060E-4    2.724837924670297E-4   -6.277099097231167E-4   -4.621393301472672E-1   -1.217098273842893E-1
 1.004795873320000E+10  -3.461757402616986E-1   -2.987021861090547E-1    2.317416270592595E-4   -6.581312826862921E-4    2.807682955634049E-4   -6.435161614945799E-4   -4.623266253175561E-1   -1.210972703355885E-1
 1.004796621847500E+10  -3.463300879875206E-1   -2.982673356454130E-1    2.337645991658545E-4   -6.524897003282091E-4    2.826427452188914E-4   -6.839202522972177E-4   -4.624912482059196E-1   -1.205699242339939E-1
 1.004797370375000E+10  -3.466542928334574E-1   -2.978851106621211E-1    2.550635024885004E-4   -6.257209798566107E-4    2.860162752343066E-4   -6.085321334690379E-4   -4.625520584090523E-1   -1.200691051563341E-1
 1.004798118902500E+10  -3.468870015781894E-1   -2.976680384395984E-1    2.562946774761910E-4   -6.396405214766919E-4    2.914206935302003E-4   -6.159738464649287E-4   -4.625813665968881E-1   -1.195072227967319E-1
 1.004798867430000E+10  -3.473040461125618E-1   -2.972151660510048E-1    2.229572841185018E-4   -6.316715862503380E-4    2.738382155587717E-4   -6.261716704618804E-4   -4.628169962243027E-1   -1.191397334915829E-1
 1.004799615957500E+10  -3.475591355811982E-1   -2.968622798541833E-1    1.993413693045255E-4   -6.304158871188627E-4    2.597508988724827E-4   -6.447191367941145E-4   -4.628448212180156E-1   -1.185431098181591E-1
 1.004800364485000E+10  -3.479939936270460E-1   -2.963466959698960E-1    2.599865462551070E-4   -6.200064751762010E-4    2.697143621379428E-4   -6.174159749602721E-4   -4.629177571870430E-1   -1.180915636013746E-1
 1.004801113012500E+10  -3.482094163602827E-1   -2.959313715251239E-1    2.188737136548143E-4   -6.137558683492841E-4    3.164551757873994E-4   -6.302670293598628E-4   -4.631821000571028E-1   -1.174612932997928E-1
 1.004801861540000E+10  -3.484994545306371E-1   -2.956099093897334E-1    2.111352566622739E-4   -6.328559189819472E-4    2.655049305043649E-4   -6.224571701744286E-4   -4.631527466534902E-1   -1.170715496097929E-1
 1.004802610067500E+10  -3.489124250132662E-1   -2.951958723632424E-1    2.299748362035836E-4   -6.113889507249533E-4    2.813941541830087E-4   -6.241054998178505E-4   -4.633695792961961E-1   -1.165973629909971E-1
 1.004803358595000E+10  -3.491982541926609E-1   -2.947129051723038E-1    2.600421363604574E-4   -6.206501039828928E-4    2.694862063670659E-4   -5.933004422426077E-4   -4.633393685123966E-1   -1.159585877178206E-1
 1.004804107122500E+10  -3.493562381433870E-1   -2.945123189596058E-1    2.316419312143069E-4   -6.162087710033736E-4    2.619962794763440E-4   -6.382771189576238E-4   -4.634534848924428E-1   -1.155101158023977E-1
 1.004804855650000E+10  -3.499758387596051E-1   -2.940060074230449E-1    2.492158556070927E-4   -6.170768175904768E-4    2.803456605435681E-4   -6.011447417252108E-4   -4.636011117314534E-1   -1.149894500219383E-1
 1.004805604177500E+10  -3.501340855645706E-1   -2.935539639110312E-1    2.344420473624587E-4   -6.070675930429623E-4    2.836990914489260E-4   -5.985456027811009E-4   -4.637105583985212E-1   -1.143667268537412E-1
 1.004806352705000E+10  -3.503605703434771E-1   -2.932841880848855E-1    2.252385158295096E-4   -5.967852278521402E-4    2.659316365451455E-4   -6.018533356405727E-4   -4.639143520372100E-1   -1.138246069565707E-1
 1.004807101232500E+10  -3.507566729522119E-1   -2.928729724437191E-1    2.290054917119792E-4   -6.011295888741079E-4    2.454843370499872E-4   -5.600780018939474E-4   -4.639340730067095E-1   -1.136178049723431E-1
 1.004807849760000E+10  -3.510350887618383E-1   -2.925017956090303E-1    2.220267875718682E-4   -5.809543079708277E-4    2.749509126800102E-4   -5.812444818185854E-4   -4.640108014485784E-1   -1.128908168135657E-1
 1.004808598287500E+10  -3.511892106696302E-1   -2.920882718293781E-1    2.373525467553585E-4   -5.810168706474859E-4    2.735586538541687E-4   -5.654950066750096E-4   -4.641759216325937E-1   -1.122725775278118E-1
 1.004809346815000E+10  -3.516063487510787E-1   -2.917603259484602E-1    2.304696890909546E-4   -5.768344067419053E-4    2.796157739375503E-4   -5.610653036703502E-4   -4.643736516960317E-1   -1.118683180908903E-1
 1.004810095342500E+10  -3.519828266225489E-1   -2.913105454869050E-1    2.446398466690832E-4   -5.937002724927363E-4    2.607916201283959E-4   -5.758038240937835E-4   -4.645112256439237E-1   -1.113862328011110E-1
 1.004810843870000E+10  -3.522265763997229E-1   -2.910420272451612E-1    2.357490890240347E-4   -5.671944375560836E-4    2.653987958715857E-4   -5.540806358637211E-4   -4.644059734039309E-1   -1.108485972249613E-1
 1.004811592397500E+10  -3.526194970230521E-1   -2.906382294188011E-1    1.815022997937505E-4   -5.716453471842444E-4    2.493700499505470E-4   -5.600925202117202E-4   -4.645788907315695E-1   -1.102542017412862E-1
 1.004812340925000E+10  -3.529216876611637E-1   -2.901570548756991E-1    2.217375018303952E-4   -5.577045938086855E-4    2.485168856557758E-4   -5.549492873095926E-4   -4.646673924340927E-1   -1.096120006106743E-1
 1.004813089452500E+10  -3.531517545941221E-1   -2.898985312651691E-1    2.267831659405283E-4   -5.903414345912098E-4    2.579781535138013E-4   -5.497718321032575E-4   -4.648406769005555E-1   -1.091716261804496E-1
 1.004813837980000E+10  -3.534091885806471E-1   -2.894029348451539E-1    2.190007387034512E-4   -5.469930145198612E-4    2.824108914003392E-4   -5.444289561215015E-4   -4.648100429263982E-1   -1.088565006620955E-1
 1.004814586507500E+10  -3.537042955481430E-1   -2.890988858123386E-1    1.978101040799476E-4   -5.521379369174016E-4    2.657814649439918E-4   -5.368964299069186E-4   -4.651216691560998E-1   -1.082113900241689E-1
 1.004815335035000E+10  -3.540213313111090E-1   -2.886214775635789E-1    2.357087836090215E-4   -5.382648767710107E-4    2.369129720530215E-4   -5.316837263508492E-4   -4.651678099910607E-1   -1.077197357833101E-1
 1.004816083562500E+10  -3.544962303347220E-1   -2.882592624484154E-1    2.210267036010320E-4   -5.593342340052069E-4    2.501825778956225E-4   -5.452229656055389E-4   -4.653006807823838E-1   -1.071168039859770E-1
 1.004816832090000E+10  -3.545578591805694E-1   -2.878873013996439E-1    1.970399443276628E-4   -5.373743997909047E-4    2.373144361148026E-4   -5.188956534006513E-4   -4.653668007593127E-1   -1.064790758708283E-1
 1.004817580617500E+10  -3.548675257262657E-1   -2.875079518522306E-1    2.188052455870775E-4   -5.481187468521406E-4    2.536933541389008E-4   -5.246648175402795E-4   -4.654602363608020E-1   -1.060520884498417E-1
 1.004818329145000E+10  -3.551196524775721E-1   -2.871859339140178E-1    2.076112351038740E-4   -5.362291741700091E-4    2.549629128019499E-4   -5.242749942870968E-4   -4.656254210445390E-1   -1.055501178201259E-1
 1.004819077672500E+10  -3.555950393948163E-1   -2.867149597453961E-1    2.225678964171257E-4   -4.900206330131761E-4    2.426829370566827E-4   -4.943936512027185E-4   -4.656521872322044E-1   -1.051671139550938E-1
 1.004819826200000E+10  -3.558897278052881E-1   -2.862601818023118E-1    2.039140704860101E-4   -5.296897269826840E-4    2.444643667590432E-4   -5.045801161163347E-4   -4.657245354495166E-1   -1.046225075497458E-1
 1.004820574727500E+10  -3.562381306219417E-1   -2.858781994380655E-1    2.105561738660378E-4   -5.018301705198500E-4    2.301535317455596E-4   -5.056391139408560E-4   -4.658466317191296E-1   -1.041157775316812E-1
 1.004821323255000E+10  -3.564883909586317E-1   -2.854475882243436E-1    2.136149370179324E-4   -5.203910557400978E-4    2.579005089684193E-4   -4.801474810117867E-4   -4.659506779550375E-1   -1.035302022643526E-1
 1.004822071782500E+10  -3.567971084570485E-1   -2.852867313516934E-1    1.952297234369239E-4   -5.057429512930470E-4    2.243347394565135E-4   -4.939504098115980E-4   -4.660744931980560E-1   -1.028784987632965E-1
 1.004822820310000E+10  -3.570255430985954E-1   -2.847806740246652E-1    1.872748815074450E-4   -4.919008667318961E-4    2.138540032969790E-4   -5.046770110796262E-4   -4.661520404878298E-1   -1.024326695453807E-1
 1.004823568837500E+10  -3.574724084958628E-1   -2.843663023068981E-1    1.899411734984967E-4   -4.678554247584133E-4    2.407903099658211E-4   -4.787236373810752E-4   -4.662332082639197E-1   -1.017575463025113E-1
 1.004824317365000E+10  -3.576263060610523E-1   -2.839544226100702E-1    1.855627678515913E-4   -5.159999154746308E-4    2.497049783052228E-4   -4.717464994168020E-4   -4.663735620411755E-1   -1.014203256607031E-1
 1.004825065892500E+10  -3.579395196008363E-1   -2.836682774341680E-1    2.274582286702346E-4   -4.741188792873650E-4    2.350907830419321E-4   -4.682144239200386E-4   -4.664025374632116E-1   -1.008167153876361E-1
 1.004825814420000E+10  -3.582613278491534E-1   -2.831540913216368E-1    2.178539510768483E-4   -4.694070990714460E-4    2.084274955655862E-4   -4.928164341535704E-4   -4.665192671463388E-1   -1.002129184259599E-1
 1.004826562947500E+10  -3.586137493896461E-1   -2.826855380830252E-1    1.972060662449426E-4   -5.046382663038845E-4    2.124866994912788E-4   -4.671638448210372E-4   -4.665099260964984E-1   -9.974437629282920E-2
 1.004827311475000E+10  -3.586900662922301E-1   -2.823402846108596E-1    1.726819400301385E-4   -4.842080181546475E-4    2.238827684101884E-4   -4.723301633317235E-4   -4.666715230032305E-1   -9.911079022078938E-2
 1.004828060002500E+10  -3.590422182199144E-1   -2.819141267859743E-1    2.023587213190335E-4   -4.893534077804920E-4    2.388357857398066E-4   -4.545647220922671E-4   -4.667206008249714E-1   -9.877171111041123E-2
 1.004828808530000E+10  -3.592723281453694E-1   -2.814787694106941E-1    2.016203222783233E-4   -4.436983803794953E-4    2.253093950271106E-4   -4.418376500298847E-4   -4.669298534110584E-1   -9.820461230414888E-2
 1.004829557057500E+10  -3.596827573847838E-1   -2.811592223733053E-1    1.895486998520832E-4   -4.593240587003449E-4    2.383133127996279E-4   -4.571656041473198E-4   -4.668887112034028E-1   -9.757968177796823E-2
 1.004830305585000E+10  -3.599789677740013E-1   -2.806925610225450E-1    2.216058065050746E-4   -4.272487508183938E-4    2.186045416889900E-4   -4.113664092473616E-4   -4.671659609285257E-1   -9.714125146397146E-2
 1.004831054112500E+10  -3.602415470618330E-1   -2.803357174096432E-1    1.769299271181907E-4   -4.253895159827873E-4    2.124328164326763E-4   -4.261741999107133E-4   -4.671034100531925E-1   -9.652565087468419E-2
 1.004831802640000E+10  -3.607484640359543E-1   -2.799605793304173E-1    2.038237291113111E-4   -4.295424362839661E-4    2.041096606368820E-4   -4.482869886403316E-4   -4.671904070897474E-1   -9.606939152902816E-2
 1.004832551167500E+10  -3.608973075877658E-1   -2.793886617231967E-1    1.844490780395503E-4   -4.448920077745554E-4    2.277053518783899E-4   -4.255770244022446E-4   -4.673786659237191E-1   -9.526330308562156E-2
 1.004833299695000E+10  -3.611306850148697E-1   -2.791229341766830E-1    1.883149837773761E-4   -4.200226591514424E-4    2.115566738628593E-4   -4.307287497212321E-4   -4.673248963900150E-1   -9.490603012030237E-2
 1.004834048222500E+10  -3.615092844684100E-1   -2.786766811734261E-1    2.287388951653300E-4   -4.378046272077858E-4    2.019596933568898E-4   -4.133517178039159E-4   -4.674894458739696E-1   -9.431489621090150E-2
 1.004834796750000E+10  -3.617844660201174E-1   -2.782029948538440E-1    1.907793073110965E-4   -3.870365742205830E-4    2.214875460162188E-4   -3.935215085367105E-4   -4.674615316833851E-1   -9.378690154799105E-2
 1.004835545277500E+10  -3.619666818588528E-1   -2.779790961747835E-1    2.010202501397473E-4   -3.737175770800489E-4    2.050121273698079E-4   -4.191077483568606E-4   -4.676900153769230E-1   -9.337394195978269E-2
 1.004836293805000E+10  -3.622273237552142E-1   -2.775875486645422E-1    2.109360548053878E-4   -3.941583215865090E-4    2.318699014601641E-4   -4.026314391375190E-4   -4.676328902832171E-1   -9.273133076787872E-2
 1.004837042332500E+10  -3.625725993064653E-1   -2.771088189635217E-1    1.819994937788919E-4   -4.002921563345807E-4    2.195984252026735E-4   -3.741613483380940E-4   -4.677849246418070E-1   -9.208152469921729E-2
 1.004837790860000E+10  -3.629348597519874E-1   -2.768780333313423E-1    1.785267447773067E-4   -3.744462772505153E-4    2.290440371489118E-4   -3.820966607694367E-4   -4.678938319953517E-1   -9.156530080358347E-2
 1.004838539387500E+10  -3.632993478121738E-1   -2.764145145008031E-1    1.772705512283510E-4   -3.718917293030958E-4    2.094277536554258E-4   -3.437355498305264E-4   -4.679448907646719E-1   -9.103672277203044E-2
 1.004839287915000E+10  -3.635080434429466E-1   -2.760408702950448E-1    1.747323029210864E-4   -3.625545041614829E-4    1.949440758671226E-4   -3.715491395457790E-4   -4.678920930074854E-1   -9.057129985846404E-2
 1.004840036442500E+10  -3.639018139426510E-1   -2.754640657659326E-1    1.999152711922647E-4   -3.506175106746425E-4    2.374673573941628E-4   -3.324884951114232E-4   -4.680482369348005E-1   -8.993410841881247E-2
 1.004840784970000E+10  -3.640244550455026E-1   -2.751592103477037E-1    1.947413528250933E-4   -3.421711776965030E-4    2.035680711309605E-4   -3.378985949852354E-4   -4.679905617155231E-1   -8.939324127159949E-2
 1.004841533497500E+10  -3.643310930178352E-1   -2.748045481305241E-1    1.710961164295798E-4   -3.281863033499986E-4    1.941724818783941E-4   -3.392986995747302E-4   -4.682252598985744E-1   -8.893045407483723E-2
 1.004842282025000E+10  -3.645842634058618E-1   -2.742602447054522E-1    1.847771999823121E-4   -3.346717774816664E-4    2.276712851978953E-4   -3.380784592381426E-4   -4.682078463854319E-1   -8.834143200936312E-2
 1.004843030552500E+10  -3.649355982387879E-1   -2.738940723132310E-1    1.762218471768823E-4   -3.130101209862880E-4    2.030184508028652E-4   -3.322803961960841E-4   -4.683926136532104E-1   -8.778670864540099E-2
 1.004843779080000E+10  -3.652253714448715E-1   -2.736832165466953E-1    1.928765887695348E-4   -3.246041213709543E-4    2.310445898342671E-4   -2.943076250539796E-4   -4.684822161949633E-1   -8.722370662752151E-2
 1.004844527607500E+10  -3.653494738877202E-1   -2.731758890862242E-1    1.633800620462768E-4   -2.954733048749622E-4    1.778105306265435E-4   -2.856188596918182E-4   -4.685252500609380E-1   -8.667626725059016E-2
 1.004845276135000E+10  -3.657454887344297E-1   -2.727977657932365E-1    1.753779339558186E-4   -2.967736641645892E-4    2.127474303868831E-4   -3.076641480383194E-4   -4.686620401012692E-1   -8.607495316664943E-2
 1.004846024662500E+10  -3.659936680614390E-1   -2.723809746719795E-1    2.056616134044465E-4   -2.926787280954210E-4    2.344194439857821E-4   -2.920009953055107E-4   -4.686162625054720E-1   -8.551892732806486E-2
 1.004846773190000E+10  -3.662703477445745E-1   -2.718278034366163E-1    1.705567664892825E-4   -2.714959436241783E-4    2.258752706794989E-4   -2.410902398973861E-4   -4.686307140251825E-1   -8.489350639164987E-2
 1.004847521717500E+10  -3.665975809747672E-1   -2.714948130896849E-1    1.766249679943834E-4   -2.749968291650653E-4    2.214945663114529E-4   -2.751974823625292E-4   -4.687321530073593E-1   -8.421068789170193E-2
 1.004848270245000E+10  -3.668950106828284E-1   -2.710830881674342E-1    1.929314088669025E-4   -2.681342057181018E-4    1.866006028673195E-4   -2.767776516641447E-4   -4.688428737709399E-1   -8.376867960322930E-2
 1.004849018772500E+10  -3.671304602535739E-1   -2.707304030839021E-1    1.966075892195054E-4   -2.393340367030115E-4    2.179584607186760E-4   -2.678466480654174E-4   -4.689257805139955E-1   -8.321976592518712E-2
 1.004849767300000E+10  -3.673727447425769E-1   -2.702623506582194E-1    1.835764087124605E-4   -2.392767641279263E-4    1.809992667837513E-4   -2.432897435161765E-4   -4.688988046506019E-1   -8.262754330248952E-2
 1.004850515827500E+10  -3.677121547755247E-1   -2.698765669805836E-1    1.792039812216702E-4   -2.461089931740788E-4    1.901439744287938E-4   -2.589989558219638E-4   -4.689942540919370E-1   -8.196703638261633E-2
 1.004851264355000E+10  -3.681002535283596E-1   -2.695079564960611E-1    1.997281320868565E-4   -2.266767742765452E-4    2.182314621434102E-4   -2.221345592661306E-4   -4.691557383642127E-1   -8.159519458115809E-2
 1.004852012882500E+10  -3.683426843129535E-1   -2.690370832191112E-1    2.023988073102660E-4   -2.264903810806444E-4    1.957378559809694E-4   -2.337227547372590E-4   -4.692172726504064E-1   -8.082941726493911E-2
 1.004852761410000E+10  -3.686101827767968E-1   -2.686498694056887E-1    1.907120812218818E-4   -2.023666104607826E-4    1.937297200209471E-4   -2.080385867932307E-4   -4.692162718312805E-1   -8.032224761412168E-2
 1.004853509937500E+10  -3.687804588038981E-1   -2.682876592484713E-1    1.902186178647516E-4   -2.180736399761431E-4    2.201902887119229E-4   -1.833309234871109E-4   -4.691570235085434E-1   -7.978170137759699E-2
 1.004854258465000E+10  -3.691762119991496E-1   -2.677589179429737E-1    1.696415261940238E-4   -1.896449095052426E-4    2.078007264995580E-4   -1.858527993025442E-4   -4.693589296589104E-1   -7.916042043000761E-2
 1.004855006992500E+10  -3.694539750925652E-1   -2.675246406138868E-1    1.882174267665126E-4   -2.031734154923289E-4    2.157491093632605E-4   -1.737452995998547E-4   -4.693716549831983E-1   -7.847279530116540E-2
 1.004855755520000E+10  -3.697440839156730E-1   -2.671008399298755E-1    1.617423585684483E-4   -1.832469627784182E-4    2.222389208884849E-4   -1.577477793893431E-4   -4.693426015847409E-1   -7.797788576812900E-2
 1.004856504047500E+10  -3.699799188309240E-1   -2.668400184420444E-1    2.271095245278799E-4   -1.728365118644409E-4    2.092800602814348E-4   -1.398039188412869E-4   -4.692593753012071E-1   -7.745789831414118E-2
 1.004857252575000E+10  -3.701355468492518E-1   -2.661944131754682E-1    1.843717095342116E-4   -1.476529061430014E-4    1.997722377783090E-4   -1.408904263702901E-4   -4.694437254992176E-1   -7.678015805405167E-2
