#  HZ   S   RI   R     50.00 
! Rohde & Schwarz Vector Network Analyzer 
! Rohde-Schwarz,ZNB20-2Port,1311601062101988,3.16
! Created: UTC 3/21/2024, 12:52:41 AM
! freq[Hz]                re:S11                  im:S11                  re:S21                  im:S21                  re:S12                  im:S12                  re:S22                  im:S22
 1.004789423500000E+10  -3.560994737334202E-1   -2.906274466738984E-1    8.412695265282894E-5   -5.044611256066499E-5    7.268875974860731E-5    2.687619460517918E-6   -4.650396355174453E-1   -9.534955736924039E-2
 1.004789775262500E+10  -3.562850396396481E-1   -2.903908550358604E-1    7.351384761347077E-5   -1.485483453960801E-5    5.752865222789799E-5   -5.047135631393284E-5   -4.650449005526747E-1   -9.498843980209264E-2
 1.004790127025000E+10  -3.563953356585739E-1   -2.901820270476972E-1    9.257262913756631E-5   -1.897944287367407E-5    7.293410156336933E-5   -7.861953642234712E-6   -4.651207604298659E-1   -9.492359154131916E-2
 1.004790478787500E+10  -3.565666155047728E-1   -2.899695156632776E-1    7.838627613462339E-5    6.036784700972650E-6    1.063111305723001E-4   -3.182046966757787E-5   -4.651545680531496E-1   -9.440285447420679E-2
 1.004790830550000E+10  -3.566020723430636E-1   -2.897816907509811E-1    6.447538859225463E-5   -2.257881050955392E-5    7.454627703382921E-5   -9.668517783515202E-6   -4.651147261917934E-1   -9.417246153782002E-2
 1.004791182312500E+10  -3.568915696145543E-1   -2.896680652680786E-1    8.759268248442856E-5    4.762784974783397E-6    5.962825512429996E-5    2.827660768266397E-7   -4.652995095913190E-1   -9.392676362080697E-2
 1.004791534075000E+10  -3.569336907239598E-1   -2.895086929657832E-1    7.366415271261282E-5    8.279527844883969E-6    4.452884543987924E-5    6.425238128597782E-6   -4.652250936576033E-1   -9.365455474238955E-2
 1.004791885837500E+10  -3.571558524405341E-1   -2.891928192213477E-1    6.748300825313042E-5    1.058970483494217E-5    7.125886651313712E-5    9.434105731989627E-6   -4.653196288516059E-1   -9.331716018244431E-2
 1.004792237600000E+10  -3.572869736296305E-1   -2.889609034868978E-1    7.944166235855181E-5    1.071215958544812E-5    9.313680626725891E-5    1.029640719274408E-5   -4.654718553733728E-1   -9.299774269713389E-2
 1.004792589362500E+10  -3.573899695569533E-1   -2.889443998716757E-1    7.428832077682888E-5    3.024688371240895E-5    6.806735109958949E-5    4.024507474541088E-5   -4.652833288418869E-1   -9.272744382388186E-2
 1.004792941125000E+10  -3.575061259796176E-1   -2.886697795646720E-1    9.495360840505353E-5    8.675714195241459E-6    7.340579928174864E-5    5.270732781674722E-5   -4.653841972616184E-1   -9.250330962118407E-2
 1.004793292887500E+10  -3.577219745263583E-1   -2.883665631089082E-1    5.557559389311558E-5    2.558970969622338E-5    6.716661040388251E-5    1.621063253364125E-5   -4.654292527947336E-1   -9.222555311120115E-2
 1.004793644650000E+10  -3.577650500255085E-1   -2.882190392290667E-1    8.336488324244736E-5    4.780168923078978E-5    9.454145511773973E-5    4.395862591094980E-5   -4.656164580506107E-1   -9.180994107723299E-2
 1.004793996412500E+10  -3.579726623587915E-1   -2.882916424603751E-1    7.180905967344205E-5    5.212862206904008E-5    5.433210300390241E-5    6.818695160290283E-5   -4.654623430142687E-1   -9.160024699150039E-2
 1.004794348175000E+10  -3.580251249796901E-1   -2.878273847635208E-1    8.180442065714144E-5    5.372537748982644E-5    7.994267151585611E-5    7.282294324156697E-5   -4.655583403397814E-1   -9.124918859033183E-2
 1.004794699937500E+10  -3.582009282897849E-1   -2.876073841608859E-1    2.675067992160886E-5    5.462343096786719E-5    4.481003321363335E-5    7.109859302964792E-5   -4.656974909670277E-1   -9.108467921645791E-2
 1.004795051700000E+10  -3.583658290316911E-1   -2.875611027547409E-1    7.527703177892674E-5    5.389109697840073E-5    5.948413482854336E-5    6.136336399087556E-5   -4.656638110787018E-1   -9.071354108252005E-2
 1.004795403462500E+10  -3.585722056670576E-1   -2.873729724656949E-1    6.187928214327723E-5    7.232305060013426E-5    5.925139486105841E-5    7.173065020981251E-5   -4.657050570783902E-1   -9.039766321456361E-2
 1.004795755225000E+10  -3.586937435531008E-1   -2.870979276868242E-1    8.437580111484486E-5    7.915369024530786E-5    3.699687233446880E-5    1.018091189299080E-4   -4.657486479157496E-1   -9.007755410326909E-2
 1.004796106987500E+10  -3.588079771466077E-1   -2.869040391961490E-1    8.066830299374717E-5    8.951751388562029E-5    6.116784249537103E-5    1.051279875205184E-4   -4.657097467540243E-1   -8.975852754229975E-2
 1.004796458750000E+10  -3.590938221000631E-1   -2.867294329353989E-1    6.275108617895878E-5    1.294259300575881E-4    5.787301626131717E-5    7.661741684375746E-5   -4.659211500445223E-1   -8.938631501514985E-2
 1.004796810512500E+10  -3.591696103563318E-1   -2.865264627328057E-1    9.535382446634545E-5    1.217851404976496E-4    5.327218649887429E-5    1.132634415751494E-4   -4.659369083526667E-1   -8.910042073157247E-2
 1.004797162275000E+10  -3.592806192302766E-1   -2.863915990950588E-1    9.574393768802089E-5    1.284714828944445E-4    7.508691892737140E-5    1.505711081668177E-4   -4.658784136176551E-1   -8.891213109612345E-2
 1.004797514037500E+10  -3.593343486953420E-1   -2.862470750515454E-1    5.242976242021735E-5    1.189383305086588E-4    5.966127469134228E-5    1.658142803449010E-4   -4.658454463276042E-1   -8.835160288409161E-2
 1.004797865800000E+10  -3.595006249935077E-1   -2.860566824155658E-1    4.050444512327958E-6    1.226657089080340E-4    4.132976864284003E-5    1.772466616216786E-4   -4.658315956332343E-1   -8.828893106188507E-2
 1.004798217562500E+10  -3.596769865376201E-1   -2.857568918253394E-1    6.561048837735805E-5    1.231029455129821E-4    8.119129041812990E-5    1.434474393699482E-4   -4.659590744631956E-1   -8.780667362324565E-2
 1.004798569325000E+10  -3.598671649340820E-1   -2.856317695402347E-1    7.662797825865507E-5    1.718244109631285E-4    5.995252153831521E-5    1.480173489790007E-4   -4.660508931736325E-1   -8.741283100846071E-2
 1.004798921087500E+10  -3.599157400917822E-1   -2.854877339891260E-1    6.858540137635541E-5    1.811649809634617E-4    6.505874027891975E-5    1.686950097876294E-4   -4.659463403816938E-1   -8.726100066953131E-2
 1.004799272850000E+10  -3.601459958614324E-1   -2.852010696695556E-1    7.128733530441403E-5    1.685336955095236E-4    4.904379131675295E-5    1.809931846290166E-4   -4.660135354089097E-1   -8.682016331104203E-2
 1.004799624612500E+10  -3.601901288811366E-1   -2.849808131083457E-1    4.780752655532947E-5    1.708195771453039E-4    3.698753633494671E-5    1.862870103473694E-4   -4.659258126030943E-1   -8.659822419663420E-2
 1.004799976375000E+10  -3.604282819792113E-1   -2.848989441644431E-1    3.385580978054804E-5    1.856535229154659E-4    5.386057074879571E-5    1.865491330812557E-4   -4.659430749094521E-1   -8.621982744247680E-2
 1.004800328137500E+10  -3.604638007005168E-1   -2.847849040880671E-1    8.729756866228114E-5    2.045332206929089E-4    3.151121374465149E-5    1.985671925622874E-4   -4.661173379454212E-1   -8.611437640009811E-2
 1.004800679900000E+10  -3.604897162087845E-1   -2.845828526615468E-1    4.343666001248805E-5    1.989355217477429E-4    3.669317824043717E-5    2.143428700275185E-4   -4.661672313652807E-1   -8.561802459935031E-2
 1.004801031662500E+10  -3.607920094041046E-1   -2.843391649712157E-1    6.309612254941130E-5    2.213502043414039E-4    7.681086098066199E-5    2.459171678304117E-4   -4.662774501687437E-1   -8.549433195833346E-2
 1.004801383425000E+10  -3.609546909779052E-1   -2.840596363604606E-1    5.791640155057296E-5    2.367780010340922E-4    4.999992903851185E-5    2.233244840603377E-4   -4.661997996332016E-1   -8.509598564095729E-2
 1.004801735187500E+10  -3.611329782715346E-1   -2.839702983088882E-1    5.596543874637444E-5    2.402055152402466E-4    7.912476411851419E-5    2.443492606980142E-4   -4.662570368088060E-1   -8.474325247366102E-2
 1.004802086950000E+10  -3.612049254601968E-1   -2.836593497665185E-1    6.006859764002453E-5    2.353877242102744E-4    5.098938625260178E-5    2.573865821719097E-4   -4.663319937622432E-1   -8.437634056684556E-2
 1.004802438712500E+10  -3.614534389675110E-1   -2.836150272395697E-1    4.863054525335888E-5    2.379987643021228E-4    5.945060272080305E-5    2.590666875760037E-4   -4.663223396848906E-1   -8.402260303679529E-2
 1.004802790475000E+10  -3.615794817834850E-1   -2.833534459628728E-1    6.859978734016461E-5    2.569100446951736E-4    2.367126310339142E-5    2.993288186821662E-4   -4.662179560258617E-1   -8.355207623307673E-2
 1.004803142237500E+10  -3.616708577649479E-1   -2.832640056559987E-1    4.956710359137231E-5    2.869479555028603E-4    1.015691461796010E-5    2.781630588273424E-4   -4.664650965441413E-1   -8.338528780150889E-2
 1.004803494000000E+10  -3.617075681562089E-1   -2.828908783370240E-1    4.071878727684419E-5    2.762456653863584E-4    3.898452344162514E-5    2.810744914188376E-4   -4.662684275094274E-1   -8.309219516187866E-2
 1.004803845762500E+10  -3.619349508190652E-1   -2.828359964578243E-1    7.433106609907072E-5    3.040064380196656E-4    1.702582584843656E-5    2.998834794088834E-4   -4.664718667808953E-1   -8.269922694026534E-2
 1.004804197525000E+10  -3.620532272587372E-1   -2.826772853434236E-1    9.107522418533859E-5    3.173298894197074E-4    4.089842295777421E-5    3.314018205400171E-4   -4.663678056443122E-1   -8.234216705195499E-2
 1.004804549287500E+10  -3.622567366582337E-1   -2.822590985732696E-1    5.565834828833422E-5    3.051348700237435E-4    4.497156255799474E-5    3.184514567681854E-4   -4.664090958689249E-1   -8.208757330440319E-2
 1.004804901050000E+10  -3.624080512415070E-1   -2.821474502140186E-1    3.211957971334675E-5    3.289299681024005E-4    3.715375608597901E-5    3.645446202631794E-4   -4.664847552370039E-1   -8.166591618163706E-2
 1.004805252812500E+10  -3.625233770217480E-1   -2.820251688289941E-1    2.760900431991561E-5    3.424088550870731E-4    3.187972772171852E-5    3.611161586911286E-4   -4.665239359190687E-1   -8.151031079858634E-2
 1.004805604575000E+10  -3.624869802248855E-1   -2.817938211514955E-1    5.940467449978064E-5    3.511407535496838E-4    3.129720158420485E-5    3.434291052626161E-4   -4.666224608055415E-1   -8.120620164740606E-2
 1.004805956337500E+10  -3.627643379338130E-1   -2.816428142245842E-1    6.004352808924422E-5    3.705615334123135E-4    3.262719384817228E-5    3.660047784891894E-4   -4.666063348372037E-1   -8.058558578151946E-2
 1.004806308100000E+10  -3.628864783205396E-1   -2.815150156955965E-1    4.043413252300659E-5    3.744567510029673E-4    2.036395995983167E-5    3.973939213895529E-4   -4.664524421317728E-1   -8.055489044082441E-2
 1.004806659862500E+10  -3.630903601073103E-1   -2.812486966376052E-1    4.160429985232341E-5    3.884284180570353E-4    2.507845147287674E-5    4.044275093039941E-4   -4.666291634856191E-1   -7.996782010001034E-2
 1.004807011625000E+10  -3.632288531249119E-1   -2.810951549023840E-1    3.472692955710773E-5    3.805795546462148E-4    1.933308746005422E-5    4.197799976895491E-4   -4.665957680166909E-1   -7.968997534583365E-2
 1.004807363387500E+10  -3.633352453540617E-1   -2.810190982007858E-1    5.497563502111707E-5    4.166235481567141E-4    1.862311080713428E-5    4.044613574695909E-4   -4.666604765082676E-1   -7.938541866404940E-2
 1.004807715150000E+10  -3.634375223441121E-1   -2.807109272004144E-1    4.975381896532914E-5    4.320717382034111E-4    5.048764767738292E-5    4.284966591047029E-4   -4.667288912344086E-1   -7.908406805533280E-2
 1.004808066912500E+10  -3.635641587070357E-1   -2.805321567198606E-1    3.550644801382558E-5    4.385735516021554E-4    2.685784111201518E-5    4.400520603544560E-4   -4.667638265940509E-1   -7.861193286218970E-2
 1.004808418675000E+10  -3.636798115971072E-1   -2.803789168962192E-1    5.010172923938939E-5    4.690554462761565E-4    2.840709638007868E-5    4.548495972658281E-4   -4.666982042353429E-1   -7.829339857578917E-2
 1.004808770437500E+10  -3.638647066997017E-1   -2.801761415087756E-1    5.097753491661177E-5    4.656413429075992E-4    2.738208867454975E-5    5.094026649152357E-4   -4.666844115669853E-1   -7.803483717239829E-2
 1.004809122200000E+10  -3.640688369247798E-1   -2.798486342005642E-1    5.689699839970277E-5    5.160992019923383E-4    3.727865644848705E-5    4.798089840225183E-4   -4.667559620463025E-1   -7.743553668032375E-2
 1.004809473962500E+10  -3.641473024934710E-1   -2.797062322445233E-1    4.486989173012689E-5    4.933461559707416E-4    2.229266906537570E-5    4.625092364777499E-4   -4.667080965488994E-1   -7.729233175536770E-2
 1.004809825725000E+10  -3.642076317707186E-1   -2.795955251653917E-1    4.447316995217125E-5    5.208066389186105E-4    2.751077746892234E-5    4.996503759954195E-4   -4.668212906012665E-1   -7.681902397485366E-2
 1.004810177487500E+10  -3.644626935410475E-1   -2.793085717853709E-1    7.045582593364869E-5    5.179300308936829E-4   -6.874821035806291E-7    5.254650335052076E-4   -4.669763669591461E-1   -7.656194777335514E-2
 1.004810529250000E+10  -3.647353499231690E-1   -2.793107111548737E-1    6.022371639184479E-5    5.167305977816737E-4   -3.071899403487953E-6    5.569811064554370E-4   -4.667265714288650E-1   -7.624803587716181E-2
 1.004810881012500E+10  -3.646958043013502E-1   -2.790953612026826E-1    5.254009147594390E-5    5.513786280721294E-4    1.819131729969638E-5    5.716323821240236E-4   -4.668428880002907E-1   -7.591313513850259E-2
 1.004811232775000E+10  -3.647698061872351E-1   -2.788587563746048E-1    5.999063329822296E-5    5.767397663311497E-4    1.847401114606234E-5    5.876820266371569E-4   -4.668767971773335E-1   -7.555528954565632E-2
 1.004811584537500E+10  -3.650989415734406E-1   -2.787488967286983E-1    5.402641223251142E-5    5.710170791953013E-4    3.298858651094478E-5    5.960566601030885E-4   -4.668219008265712E-1   -7.509638301655203E-2
 1.004811936300000E+10  -3.651120806921696E-1   -2.784526729796478E-1    4.784896277404689E-5    5.970423304126351E-4    8.236082422910093E-6    5.933164521906861E-4   -4.667841163892916E-1   -7.477084776733504E-2
 1.004812288062500E+10  -3.654298559770206E-1   -2.783306221167261E-1    3.817878947415633E-5    6.098424154515069E-4   -7.397727343532565E-6    5.981023736763358E-4   -4.669461235215920E-1   -7.444048042223810E-2
 1.004812639825000E+10  -3.654000609506671E-1   -2.781344040939821E-1    5.296234245966248E-5    6.171844693818523E-4    1.068332943636530E-5    6.320430052149472E-4   -4.667983383732360E-1   -7.406676192784860E-2
 1.004812991587500E+10  -3.655119610872705E-1   -2.779453343744172E-1    6.478736277548493E-5    6.092162256561737E-4    1.208152266530570E-5    6.403187779810130E-4   -4.668941872684702E-1   -7.363974594359299E-2
 1.004813343350000E+10  -3.655774397584177E-1   -2.775565519700924E-1    3.174699720734241E-5    6.403470619866312E-4   -1.145856017249455E-5    6.339077906044433E-4   -4.669266998567645E-1   -7.327066501078179E-2
 1.004813695112500E+10  -3.657772318155331E-1   -2.776212621575802E-1    7.365530492611851E-5    6.628380649033985E-4   -8.483785331065515E-6    6.958085501033111E-4   -4.669022473041985E-1   -7.292703947551042E-2
 1.004814046875000E+10  -3.659426545788879E-1   -2.773581313221983E-1    5.984621902396514E-5    6.663045517829853E-4    2.028219751890812E-5    6.896303289849142E-4   -4.669695194274421E-1   -7.252963074256331E-2
 1.004814398637500E+10  -3.659554799938887E-1   -2.771456415154621E-1    6.767363975460013E-5    7.109332096299233E-4    1.699454439903183E-5    7.025516327889507E-4   -4.669143651707152E-1   -7.209715716764792E-2
 1.004814750400000E+10  -3.661515055428158E-1   -2.769565210210889E-1    8.327898622180080E-5    7.154725180255707E-4    2.513235330763467E-5    7.244945425108208E-4   -4.669248186548863E-1   -7.185778670921565E-2
 1.004815102162500E+10  -3.663857481225722E-1   -2.767335707029606E-1    5.341578317704620E-5    7.095822290990675E-4   -2.133696839082251E-5    7.339062637961091E-4   -4.670304895685763E-1   -7.121573621343748E-2
 1.004815453925000E+10  -3.663492606317575E-1   -2.766666833044993E-1    3.261924473188245E-5    7.460453648054254E-4   -9.756820566337320E-6    7.638402550815413E-4   -4.669312076830514E-1   -7.099488796808671E-2
 1.004815805687500E+10  -3.666335871723347E-1   -2.762776143149532E-1    5.374658228970916E-5    7.553008172516085E-4    3.250421892116812E-5    7.831260768478638E-4   -4.669506599900520E-1   -7.052938511759241E-2
 1.004816157450000E+10  -3.668595493747082E-1   -2.761053340528626E-1    3.961176472121683E-5    7.613450905846378E-4    1.869828342186274E-5    7.944577059756413E-4   -4.669665654582715E-1   -7.024541041540891E-2
 1.004816509212500E+10  -3.668957994135864E-1   -2.759337077547320E-1    8.632253071774971E-5    8.046311390700774E-4    5.475295507143178E-6    7.957146869915316E-4   -4.669275340441662E-1   -6.980497034068996E-2
 1.004816860975000E+10  -3.669834208959984E-1   -2.758291743312544E-1    6.635280239132992E-5    7.941526699138335E-4   -1.661390895087213E-5    8.398891785327446E-4   -4.669207515941916E-1   -6.943366452249349E-2
 1.004817212737500E+10  -3.672030961316911E-1   -2.755713762782563E-1    4.631601581146701E-5    8.128069061676535E-4   -2.574540783454619E-6    8.267454934820962E-4   -4.669424653092447E-1   -6.893229304612827E-2
 1.004817564500000E+10  -3.672659942068768E-1   -2.755631928551887E-1    2.994216683974185E-5    8.503547111069970E-4    2.261251252490933E-5    8.443337942714566E-4   -4.669105906949360E-1   -6.863911456875889E-2
 1.004817916262500E+10  -3.674234957135686E-1   -2.752021712742356E-1    4.099211079774250E-5    8.625471095595871E-4    1.193207989980570E-5    8.805782705221761E-4   -4.668270855013968E-1   -6.815953743563331E-2
 1.004818268025000E+10  -3.675598615517520E-1   -2.750533267609859E-1    5.909020631261907E-5    8.754428241951190E-4   -2.089555486733162E-6    8.949080670002638E-4   -4.669172573685217E-1   -6.771391884178825E-2
 1.004818619787500E+10  -3.676401640293793E-1   -2.747490736867683E-1    6.746833270814192E-5    9.148875948354530E-4   -1.626680684617179E-6    9.206346997599325E-4   -4.669122504675033E-1   -6.732027343130756E-2
 1.004818971550000E+10  -3.678868609022189E-1   -2.746798866808668E-1    6.536651523179866E-5    9.558016562481960E-4   -1.417789536816621E-5    9.567620478057155E-4   -4.668510750257829E-1   -6.704691227113244E-2
 1.004819323312500E+10  -3.679339138036025E-1   -2.743338000945229E-1    5.889773194978375E-5    9.589176211170551E-4    8.996858191649146E-6    9.783432281518932E-4   -4.668389703005779E-1   -6.655041609033137E-2
 1.004819675075000E+10  -3.679586161063391E-1   -2.742047774773337E-1    9.630608627112724E-5    9.607435797687842E-4    1.669383679445989E-6    9.743053844794452E-4   -4.667569652959790E-1   -6.622192299519357E-2
 1.004820026837500E+10  -3.682703481558098E-1   -2.740830228111784E-1    7.849780597732026E-5    9.916323335419567E-4    2.301210937343938E-5    1.008110970474786E-3   -4.668579308819026E-1   -6.577340003724785E-2
 1.004820378600000E+10  -3.683937947289833E-1   -2.738584869745987E-1    7.646519107542998E-5    1.003191653813597E-3    6.644993835846037E-6    9.941183684817022E-4   -4.667317393868741E-1   -6.504005552425603E-2
 1.004820730362500E+10  -3.685333912412185E-1   -2.736153950151937E-1    6.073501640638548E-5    1.018985789699568E-3    1.805453596540808E-5    1.023689788392334E-3   -4.667399642868093E-1   -6.475185725305684E-2
 1.004821082125000E+10  -3.687126744416793E-1   -2.734636332545079E-1    6.484962307844557E-5    1.040419278847206E-3    1.848048056005584E-5    1.053645087308724E-3   -4.666576776971538E-1   -6.440422277398916E-2
