#  HZ   S   RI   R     50.00 
! Rohde & Schwarz Vector Network Analyzer 
! Rohde-Schwarz,ZNB20-2Port,1311601062101988,3.16
! Created: UTC 3/21/2024, 1:14:41 AM
! freq[Hz]                re:S11                  im:S11                  re:S21                  im:S21                  re:S12                  im:S12                  re:S22                  im:S22
 1.004802351800000E+10  -3.483063086516811E-1   -2.959057401493449E-1    2.765561082893398E-4   -6.510223486392395E-4    2.777205017664654E-4   -6.377094950204320E-4   -4.630999027468821E-1   -1.172458363826264E-1
 1.004803059332500E+10  -3.486667892632004E-1   -2.954110084274381E-1    2.241715364796130E-4   -6.335707108518961E-4    2.763904483096478E-4   -6.161105663379541E-4   -4.632778347847910E-1   -1.166404954740334E-1
 1.004803766865000E+10  -3.489170881305423E-1   -2.951027849576238E-1    1.948181806022857E-4   -6.251003863407980E-4    2.535071365244126E-4   -6.468084417984099E-4   -4.634811215000361E-1   -1.162326791373350E-1
 1.004804474397500E+10  -3.492231731895809E-1   -2.947291589969012E-1    2.112190002189460E-4   -6.277200623778674E-4    2.744122581763328E-4   -6.352211878851322E-4   -4.635209833005935E-1   -1.157545744423495E-1
 1.004805181930000E+10  -3.493653250718469E-1   -2.943732898624787E-1    2.164016736387438E-4   -6.505460606790719E-4    2.781662939334143E-4   -6.325981600106261E-4   -4.636400618868515E-1   -1.152595973202342E-1
 1.004805889462500E+10  -3.497697042471637E-1   -2.940078911756036E-1    2.277763115582350E-4   -6.482937437555090E-4    3.022316369238541E-4   -6.373769609708806E-4   -4.637798891968414E-1   -1.147690934084370E-1
 1.004806596995000E+10  -3.501022418039202E-1   -2.935702755638485E-1    2.297875473661495E-4   -6.413575568427802E-4    2.810578741426173E-4   -6.280063375207235E-4   -4.638492416545353E-1   -1.140794198660462E-1
 1.004807304527500E+10  -3.503185175813444E-1   -2.932813232712880E-1    2.394033687342655E-4   -6.337549984784620E-4    2.446734930620068E-4   -6.314873296305471E-4   -4.639344835424257E-1   -1.137333840585670E-1
 1.004808012060000E+10  -3.506906746043366E-1   -2.929366960643143E-1    2.339378074886779E-4   -5.930736202767645E-4    2.788672700798747E-4   -5.972161436920847E-4   -4.640954489253577E-1   -1.132484695412289E-1
 1.004808719592500E+10  -3.509069895839301E-1   -2.925326203689366E-1    2.258968806212577E-4   -6.401124221373669E-4    2.767125797838094E-4   -6.104771078408265E-4   -4.642922320845965E-1   -1.127624483041045E-1
 1.004809427125000E+10  -3.511736875818655E-1   -2.922142848030421E-1    2.369744184382626E-4   -5.965494328432970E-4    2.666667714647788E-4   -6.160659943316502E-4   -4.641318861280290E-1   -1.123706630303069E-1
 1.004810134657500E+10  -3.515889622444412E-1   -2.918589941816244E-1    2.231650520531192E-4   -5.964090402028060E-4    2.765091211009463E-4   -6.047816562778928E-4   -4.645228976952629E-1   -1.118997462237232E-1
 1.004810842190000E+10  -3.519198136500653E-1   -2.913581308043093E-1    2.009790998887217E-4   -6.215662098765187E-4    2.552130226574306E-4   -6.041930247156004E-4   -4.645466769601415E-1   -1.113790510574518E-1
 1.004811549722500E+10  -3.522073703096362E-1   -2.911513517418457E-1    2.517376124853757E-4   -5.864041334351902E-4    2.594988455170094E-4   -6.002572311630820E-4   -4.645927126301331E-1   -1.109077664844810E-1
 1.004812257255000E+10  -3.524208190150257E-1   -2.907317821334253E-1    2.184082728968290E-4   -6.260330122194162E-4    2.233445606747436E-4   -5.853582265272910E-4   -4.647749991204134E-1   -1.105422442770374E-1
 1.004812964787500E+10  -3.527057311585263E-1   -2.904012094253167E-1    2.234496639124295E-4   -5.546731240763269E-4    2.514421071965152E-4   -5.873821758006680E-4   -4.648169740887548E-1   -1.100009892987387E-1
 1.004813672320000E+10  -3.529413806179733E-1   -2.899005446664657E-1    1.783545364213691E-4   -5.943622133721425E-4    2.441085933693608E-4   -5.759686245840643E-4   -4.648186051064861E-1   -1.095324977394900E-1
 1.004814379852500E+10  -3.533578968360974E-1   -2.895840597870447E-1    2.172501760518858E-4   -5.426639232495650E-4    2.727823142923851E-4   -5.788965935936914E-4   -4.649582192526523E-1   -1.089117289004364E-1
 1.004815087385000E+10  -3.535341269136558E-1   -2.891543774143875E-1    2.437404201635666E-4   -5.880813386077753E-4    2.511225321730118E-4   -5.813894322328025E-4   -4.651132523597051E-1   -1.082667966088346E-1
 1.004815794917500E+10  -3.537664300494460E-1   -2.889311577937780E-1    2.270085138156239E-4   -5.753182714257692E-4    2.658723957956201E-4   -5.726085874677179E-4   -4.651259319071511E-1   -1.080291415253809E-1
 1.004816502450000E+10  -3.540911724526202E-1   -2.885816419525790E-1    2.234944995708851E-4   -5.747841204873285E-4    2.601622096576840E-4   -5.865381200279907E-4   -4.652634381103683E-1   -1.073865825392533E-1
 1.004817209982500E+10  -3.544039490555940E-1   -2.881866884234788E-1    2.142824015428782E-4   -5.604852311654325E-4    2.547186012280903E-4   -5.403192444818490E-4   -4.653575233787134E-1   -1.069746792509595E-1
 1.004817917515000E+10  -3.547168975452113E-1   -2.877574460599344E-1    2.253656280772577E-4   -5.654975445388966E-4    2.566992734857996E-4   -5.470177614649435E-4   -4.654588735900322E-1   -1.064942406046082E-1
 1.004818625047500E+10  -3.550700400136519E-1   -2.874150362452654E-1    1.998833396470208E-4   -5.854732868491581E-4    2.486311694261815E-4   -5.712726571961141E-4   -4.656918137769985E-1   -1.060345686862226E-1
 1.004819332580000E+10  -3.552656851698858E-1   -2.871219376234667E-1    2.164172473677333E-4   -5.462282122156871E-4    2.304533795074032E-4   -5.443685900031279E-4   -4.656516379249986E-1   -1.055319781242700E-1
 1.004820040112500E+10  -3.555074664128114E-1   -2.866822255953735E-1    2.032601033626883E-4   -5.528778450770148E-4    2.370525049284078E-4   -5.213226484999167E-4   -4.656917805815312E-1   -1.048392892448460E-1
 1.004820747645000E+10  -3.558962838963527E-1   -2.862913181508780E-1    1.999977651058081E-4   -5.429905345883102E-4    2.245025448130807E-4   -5.380998132571916E-4   -4.659284307932700E-1   -1.047262443602490E-1
 1.004821455177500E+10  -3.561279835280231E-1   -2.859310013598370E-1    1.939830923114877E-4   -5.593540043218389E-4    2.631223256684750E-4   -5.380891312142226E-4   -4.657456724460277E-1   -1.040053265503780E-1
 1.004822162710000E+10  -3.565098269530910E-1   -2.855285999857110E-1    2.268633576992076E-4   -5.595271483178788E-4    2.135560003119992E-4   -5.516766985775720E-4   -4.659314457661037E-1   -1.034491648472132E-1
 1.004822870242500E+10  -3.565487882912109E-1   -2.852191081226504E-1    2.252011027174231E-4   -5.244344151029375E-4    2.443564947953876E-4   -5.314930480175891E-4   -4.660301593886918E-1   -1.030339359852413E-1
 1.004823577775000E+10  -3.568850874343707E-1   -2.848813201683823E-1    1.964750997864201E-4   -5.216432780773957E-4    2.398915588898202E-4   -5.392853456004682E-4   -4.661874310154204E-1   -1.025214079103613E-1
 1.004824285307500E+10  -3.573048755754558E-1   -2.845173717634001E-1    1.991244453333899E-4   -5.295888200693694E-4    2.419600524747292E-4   -4.866732097534211E-4   -4.662249593429318E-1   -1.019599585106127E-1
 1.004824992840000E+10  -3.575346254723102E-1   -2.840688263704617E-1    1.649810501135527E-4   -5.272174148741195E-4    2.248087701470018E-4   -5.017336163736092E-4   -4.664073523783271E-1   -1.016160091434167E-1
 1.004825700372500E+10  -3.577023687950210E-1   -2.836214140085404E-1    2.176494138451127E-4   -4.985787528650393E-4    2.178316610387226E-4   -4.859772028297491E-4   -4.664174359726683E-1   -1.009583679815351E-1
 1.004826407905000E+10  -3.580633344309395E-1   -2.832671953630514E-1    1.970782098959266E-4   -4.948753397373047E-4    2.493913792467726E-4   -5.053383327523044E-4   -4.665197295628983E-1   -1.004742751276860E-1
 1.004827115437500E+10  -3.584155166056764E-1   -2.828839903226480E-1    1.993814658676742E-4   -5.162963862316246E-4    2.485611067478937E-4   -5.221325477901672E-4   -4.665867089413017E-1   -9.998314831285944E-2
 1.004827822970000E+10  -3.585876000615123E-1   -2.825405176477034E-1    2.137967207561098E-4   -5.200685192280820E-4    2.414658209242654E-4   -4.797574638532980E-4   -4.666801584760787E-1   -9.945694989922878E-2
 1.004828530502500E+10  -3.589121618352692E-1   -2.821234473640437E-1    1.823435772284236E-4   -5.020125183589943E-4    2.400180148992844E-4   -4.827949463784150E-4   -4.668163174700325E-1   -9.910759893589842E-2
 1.004829238035000E+10  -3.590167586565372E-1   -2.818531290012872E-1    1.752793413808660E-4   -4.904884827777109E-4    2.093493528395052E-4   -4.753929458975671E-4   -4.669985276021851E-1   -9.854966458384160E-2
 1.004829945567500E+10  -3.595623364924364E-1   -2.814375246465147E-1    1.875641378980587E-4   -4.913148870252458E-4    2.441328543357304E-4   -4.744205964898216E-4   -4.668510842520481E-1   -9.809082086520413E-2
 1.004830653100000E+10  -3.596940377937177E-1   -2.810542855498210E-1    1.735761086449663E-4   -4.937675000290009E-4    2.354213329767469E-4   -4.876448078233997E-4   -4.669362041139368E-1   -9.753322645943106E-2
 1.004831360632500E+10  -3.599947680809730E-1   -2.805577311847777E-1    2.039782190192342E-4   -4.932742199729438E-4    2.221529882646781E-4   -4.771533504217648E-4   -4.670722457415165E-1   -9.702774159856220E-2
 1.004832068165000E+10  -3.603144745871522E-1   -2.802409533258130E-1    2.076867863385387E-4   -4.924116594266384E-4    2.291101883479725E-4   -4.723991015867443E-4   -4.671591939181759E-1   -9.652909017163447E-2
 1.004832775697500E+10  -3.606495272826606E-1   -2.799958384303940E-1    1.994445258449594E-4   -4.776498414478641E-4    2.458983048309229E-4   -4.607917302778605E-4   -4.671496435334007E-1   -9.595826131471881E-2
 1.004833483230000E+10  -3.608677219294806E-1   -2.795208823320353E-1    2.066086615622376E-4   -4.797021034780138E-4    2.138833213532960E-4   -4.631912735124800E-4   -4.674861129664000E-1   -9.548252413534411E-2
 1.004834190762500E+10  -3.611117329953911E-1   -2.792446359008388E-1    1.754921915886220E-4   -4.525396731253290E-4    2.167982765825889E-4   -4.336684553154902E-4   -4.675518295243797E-1   -9.482166531346276E-2
 1.004834898295000E+10  -3.614064391883765E-1   -2.787876536588091E-1    1.825613428403316E-4   -4.274448027588612E-4    2.288400664302811E-4   -4.670002190785675E-4   -4.676145790277390E-1   -9.447821935542733E-2
 1.004835605827500E+10  -3.616538115080385E-1   -2.783770814855009E-1    1.790456143795075E-4   -4.692517244132576E-4    2.007666826403380E-4   -4.533791626548439E-4   -4.676293876748540E-1   -9.382178175489421E-2
 1.004836313360000E+10  -3.619606092229712E-1   -2.778453385077787E-1    1.904122239511758E-4   -4.611046897694686E-4    2.089082363757112E-4   -4.213236052829307E-4   -4.676847220928001E-1   -9.338004398029297E-2
 1.004837020892500E+10  -3.621438884320873E-1   -2.776669680655517E-1    2.204041363841707E-4   -3.994099956126411E-4    1.954650077316584E-4   -4.136800545828981E-4   -4.675833088760101E-1   -9.295028558666807E-2
 1.004837728425000E+10  -3.625677647345771E-1   -2.773305876594653E-1    1.684562155364685E-4   -4.265580037661434E-4    2.135901614302139E-4   -4.129095698374106E-4   -4.678706855733759E-1   -9.257761352488708E-2
 1.004838435957500E+10  -3.627513343793367E-1   -2.768077620915369E-1    1.447350757802718E-4   -4.269625384938125E-4    2.270057328943543E-4   -4.171234510365022E-4   -4.679168094714588E-1   -9.198294999781370E-2
 1.004839143490000E+10  -3.629898999672146E-1   -2.766213938941441E-1    1.763723486962655E-4   -4.383971391857820E-4    2.097254736000960E-4   -4.241146650769888E-4   -4.679152452264691E-1   -9.150986745593527E-2
 1.004839851022500E+10  -3.632846640858979E-1   -2.760671981417612E-1    1.835936304828772E-4   -3.988155949278522E-4    2.075612866819622E-4   -4.179376886680322E-4   -4.681160474897152E-1   -9.081693106019910E-2
 1.004840558555000E+10  -3.635269878037671E-1   -2.756530127636946E-1    1.936335383423833E-4   -3.811471875912901E-4    2.209284380637662E-4   -3.972876537863945E-4   -4.680424981036923E-1   -9.035119919460170E-2
 1.004841266087500E+10  -3.638013484659094E-1   -2.753547063507417E-1    1.862467983302498E-4   -3.993595458743838E-4    1.943993182503835E-4   -3.905642472215930E-4   -4.681973983840815E-1   -8.972120975557604E-2
 1.004841973620000E+10  -3.641532449432850E-1   -2.749276202833806E-1    1.946952306846546E-4   -3.746194796540273E-4    2.082543318712545E-4   -3.861350633305745E-4   -4.682713574628219E-1   -8.925785906535648E-2
 1.004842681152500E+10  -3.643184309963924E-1   -2.745794326386192E-1    1.704048982631500E-4   -4.017046590638837E-4    2.263665420229122E-4   -3.682824332016207E-4   -4.684684199292137E-1   -8.865087777254814E-2
 1.004843388685000E+10  -3.646057388719351E-1   -2.742290274898337E-1    1.735579349108445E-4   -3.904144552831161E-4    2.149380796959654E-4   -3.844957551436111E-4   -4.684072858189615E-1   -8.831559495028578E-2
 1.004844096217500E+10  -3.648315205247694E-1   -2.738595498974402E-1    1.623985525150374E-4   -3.531033278934212E-4    1.940971915636908E-4   -3.728782098251216E-4   -4.684955130949905E-1   -8.775227628090032E-2
 1.004844803750000E+10  -3.650621076050986E-1   -2.734850179832906E-1    1.618544108057430E-4   -3.563130168699208E-4    2.101916304605771E-4   -3.397877677224256E-4   -4.685330954869849E-1   -8.699527879617593E-2
 1.004845511282500E+10  -3.654437024950331E-1   -2.730603744688104E-1    1.875759568983880E-4   -3.584342550754227E-4    1.641018191526393E-4   -3.621317967872203E-4   -4.686871144805023E-1   -8.658913651002860E-2
 1.004846218815000E+10  -3.657927669957357E-1   -2.727225345730199E-1    2.013281063150250E-4   -3.304322071859784E-4    1.947798680830245E-4   -3.274053212783537E-4   -4.686641280985596E-1   -8.619752133568898E-2
 1.004846926347500E+10  -3.660064434089639E-1   -2.723543245852922E-1    1.765230509201090E-4   -3.503550777754291E-4    2.139803995954354E-4   -3.269336230876910E-4   -4.687765858151179E-1   -8.564565318398971E-2
 1.004847633880000E+10  -3.661309256568417E-1   -2.719387386828649E-1    1.997257495093775E-4   -3.306166343196963E-4    1.775841482286799E-4   -3.111648924303160E-4   -4.688358060004151E-1   -8.521603623191527E-2
 1.004848341412500E+10  -3.664857639896964E-1   -2.716155085226380E-1    2.123927202874730E-4   -3.304076045666830E-4    2.096271264406960E-4   -3.142887663069407E-4   -4.688987236677798E-1   -8.450000025529884E-2
 1.004849048945000E+10  -3.667204428457999E-1   -2.711768218016080E-1    1.787493661543360E-4   -3.338310556329908E-4    1.820641275186426E-4   -2.944127629563692E-4   -4.689614151063545E-1   -8.396954913267936E-2
 1.004849756477500E+10  -3.670020616561135E-1   -2.707763870775635E-1    1.683222000093675E-4   -3.039834646015218E-4    2.074366024511891E-4   -2.960208829786302E-4   -4.691016709271555E-1   -8.351246434663430E-2
 1.004850464010000E+10  -3.673235353234590E-1   -2.703185859204958E-1    1.567694880443784E-4   -3.294344687984052E-4    2.059859996901537E-4   -2.908081677797054E-4   -4.690704456043446E-1   -8.295011789256007E-2
 1.004851171542500E+10  -3.677798565383009E-1   -2.698300441244572E-1    1.859743155646375E-4   -2.743965353776628E-4    2.000556126572519E-4   -2.591349704033679E-4   -4.690814029212286E-1   -8.243487006531700E-2
 1.004851879075000E+10  -3.678469342507724E-1   -2.696679534443144E-1    1.941747234160342E-4   -2.748037046177517E-4    1.840005309467270E-4   -2.845332814246933E-4   -4.691347342560663E-1   -8.186877195599364E-2
 1.004852586607500E+10  -3.679783244657239E-1   -2.692184596999908E-1    1.879498497647409E-4   -2.868939124540934E-4    2.227611799515113E-4   -2.823581875599688E-4   -4.692893915635820E-1   -8.137710023022592E-2
 1.004853294140000E+10  -3.683576404932811E-1   -2.687877010808026E-1    1.859140923079194E-4   -2.518578857372568E-4    1.805332091034174E-4   -2.730604079946761E-4   -4.692676459367693E-1   -8.089512529644936E-2
 1.004854001672500E+10  -3.686557832399769E-1   -2.684835154138495E-1    1.948318125762285E-4   -2.578235118012332E-4    1.894258894322379E-4   -2.551333940363534E-4   -4.692910815852754E-1   -8.032953185579433E-2
 1.004854709205000E+10  -3.688843497440805E-1   -2.680445438146493E-1    1.726186105866752E-4   -2.781318022577433E-4    1.944026600171073E-4   -2.390427065666173E-4   -4.693892319051845E-1   -7.967231758195929E-2
 1.004855416737500E+10  -3.692566649151069E-1   -2.677598669735483E-1    1.848411664527082E-4   -2.220518362189006E-4    1.871680621607501E-4   -2.386992445791902E-4   -4.694121595269934E-1   -7.912178362329317E-2
 1.004856124270000E+10  -3.693118911167216E-1   -2.672984143075223E-1    1.541973644532616E-4   -2.132081307925605E-4    1.867555939851433E-4   -2.322984871096624E-4   -4.695875130897823E-1   -7.866393217602571E-2
 1.004856831802500E+10  -3.696950430997061E-1   -2.669462230230362E-1    1.803957869200851E-4   -2.128520033060242E-4    1.789964912934027E-4   -2.095790355872778E-4   -4.696208775790069E-1   -7.803014612909247E-2
 1.004857539335000E+10  -3.699752277378305E-1   -2.665817967891370E-1    1.578109107499307E-4   -2.549322696646589E-4    1.773987251663018E-4   -2.026331096496587E-4   -4.696290623819984E-1   -7.749799204907325E-2
 1.004858246867500E+10  -3.701641734668812E-1   -2.661428507508100E-1    1.847171003812664E-4   -1.931454802363244E-4    1.858571278720493E-4   -2.134131540179227E-4   -4.696252269010209E-1   -7.698152020881170E-2
 1.004858954400000E+10  -3.704021210232122E-1   -2.658045954652546E-1    1.779517077795936E-4   -1.913364917741797E-4    1.884619600556167E-4   -1.927114669004187E-4   -4.697804606613649E-1   -7.649061074925094E-2
 1.004859661932500E+10  -3.707226314912758E-1   -2.653753070829192E-1    1.727301487627090E-4   -1.871501292136569E-4    1.652455850447535E-4   -1.765608622058017E-4   -4.699010914193072E-1   -7.599203142988799E-2
 1.004860369465000E+10  -3.709028157041997E-1   -2.651153624110177E-1    1.727575803959543E-4   -1.560685104399687E-4    1.934629370170357E-4   -1.746071825300905E-4   -4.697757985577312E-1   -7.552811174038995E-2
 1.004861076997500E+10  -3.712396343360286E-1   -2.646281452309610E-1    1.964510220491910E-4   -1.682024098306102E-4    1.801735050997203E-4   -1.426513392640137E-4   -4.699666068532455E-1   -7.462196394713706E-2
 1.004861784530000E+10  -3.714712131266640E-1   -2.641061079353334E-1    1.749412989767481E-4   -1.638109708257299E-4    1.933918751338141E-4   -1.496726400545900E-4   -4.699965721380849E-1   -7.426906725792067E-2
 1.004862492062500E+10  -3.717827889122489E-1   -2.638298526053462E-1    1.582176375719317E-4   -1.584710079643005E-4    1.896580883810304E-4   -1.405934025937025E-4   -4.699834550912846E-1   -7.355379994694186E-2
 1.004863199595000E+10  -3.720847034948154E-1   -2.633108066560457E-1    1.858986556411860E-4   -1.254541770208597E-4    1.700101320874415E-4   -1.528401872684915E-4   -4.701441032798519E-1   -7.313663805702174E-2
 1.004863907127500E+10  -3.722046916206416E-1   -2.630809829359936E-1    1.764726932747483E-4   -1.357475907848899E-4    1.722950071986825E-4   -1.137711463396702E-4   -4.699797741124200E-1   -7.245125584484535E-2
 1.004864614660000E+10  -3.725855113870340E-1   -2.626446878213785E-1    1.871502503531552E-4   -9.574597657565326E-5    1.829966193990370E-4   -1.059948269019707E-4   -4.700565489699121E-1   -7.195147100291059E-2
 1.004865322192500E+10  -3.727227099481687E-1   -2.622329163522326E-1    1.752303118604851E-4   -5.087114047423355E-5    1.953300957957061E-4   -8.526685095762666E-5   -4.701208759454505E-1   -7.151466723945998E-2
 1.004866029725000E+10  -3.728802602038629E-1   -2.618591390120287E-1    1.656597557416361E-4   -1.030183934762069E-4    2.025407099558088E-4   -1.031058761928450E-4   -4.702552547185550E-1   -7.082621518327584E-2
