#  HZ   S   RI   R     50.00 
! Rohde & Schwarz Vector Network Analyzer 
! Rohde-Schwarz,ZNB20-2Port,1311601062101988,3.16
! Created: UTC 3/21/2024, 1:14:58 AM
! freq[Hz]                re:S11                  im:S11                  re:S21                  im:S21                  re:S12                  im:S12                  re:S22                  im:S22
 1.004810547700000E+10  -3.516053723452662E-1   -2.918328704585362E-1    2.379025869086322E-4   -6.117653203839276E-4    2.582216829396772E-4   -6.268791503356322E-4   -4.645213338489248E-1   -1.119291165236809E-1
 1.004811223372500E+10  -3.519799254221092E-1   -2.915071923147924E-1    2.372534572778329E-4   -5.965129827128460E-4    2.652845789293877E-4   -6.255638980617321E-4   -4.644205770309751E-1   -1.114876587882456E-1
 1.004811899045000E+10  -3.521811952914900E-1   -2.911241820548460E-1    2.054031029407105E-4   -6.114799678067280E-4    2.718848565134348E-4   -6.044523634706492E-4   -4.647213982703052E-1   -1.109178369774228E-1
 1.004812574717500E+10  -3.523300011870770E-1   -2.906934410720941E-1    2.109174788321780E-4   -5.940523801523956E-4    2.752347593311547E-4   -5.789973480233465E-4   -4.647013147003423E-1   -1.104553694141050E-1
 1.004813250390000E+10  -3.526374977646127E-1   -2.904200548413267E-1    1.887678843252596E-4   -5.895731670579412E-4    2.839287763643799E-4   -6.015463425800471E-4   -4.648687493759678E-1   -1.100053020434130E-1
 1.004813926062500E+10  -3.529486681852402E-1   -2.900553146933989E-1    1.951125361608868E-4   -5.903574367106844E-4    2.538590494897851E-4   -5.858718645924115E-4   -4.651473075303083E-1   -1.096426132712000E-1
 1.004814601735000E+10  -3.530830981289211E-1   -2.896635616571295E-1    1.973283580628489E-4   -5.940955075752064E-4    2.209026417515339E-4   -5.939996684986492E-4   -4.652322130849750E-1   -1.089978263374021E-1
 1.004815277407500E+10  -3.535015753709215E-1   -2.894659105214934E-1    2.075316171049600E-4   -5.964155906702265E-4    2.430380184059470E-4   -5.747775787134658E-4   -4.650916955807335E-1   -1.085957142246488E-1
 1.004815953080000E+10  -3.536715137478161E-1   -2.888150010304214E-1    2.002457763076175E-4   -6.144039527631123E-4    2.288843534508623E-4   -5.781519274470773E-4   -4.652202338731985E-1   -1.080863505572110E-1
 1.004816628752500E+10  -3.540874146715003E-1   -2.885864615494931E-1    2.263688329044778E-4   -5.922519091367862E-4    2.372643007770288E-4   -5.907685804749787E-4   -4.653582447058393E-1   -1.076981267034566E-1
 1.004817304425000E+10  -3.543748102319175E-1   -2.883410337446183E-1    1.982072674612414E-4   -5.752697294297719E-4    2.705306474140220E-4   -5.780559785193728E-4   -4.654163670742699E-1   -1.071674938413372E-1
 1.004817980097500E+10  -3.545963116945340E-1   -2.879012648045802E-1    2.045802105206340E-4   -5.739100492219974E-4    2.481262691339039E-4   -5.626887772120330E-4   -4.654365909258953E-1   -1.067892610547756E-1
 1.004818655770000E+10  -3.547204784399566E-1   -2.875505353534500E-1    1.838655087922152E-4   -5.907412255183867E-4    2.375275219953427E-4   -5.717554772631183E-4   -4.656069580183151E-1   -1.061352693654144E-1
 1.004819331442500E+10  -3.550992482062576E-1   -2.871970539227769E-1    2.259174822570070E-4   -5.650261592582779E-4    2.386972036146639E-4   -5.433696359150932E-4   -4.656579152984260E-1   -1.057405467788892E-1
 1.004820007115000E+10  -3.553837061696083E-1   -2.868819787698090E-1    2.111418141010197E-4   -5.696370964959199E-4    2.342556814616846E-4   -5.350398527535456E-4   -4.658008267889019E-1   -1.052686505667631E-1
 1.004820682787500E+10  -3.556452575269998E-1   -2.865445677776189E-1    1.997313890439627E-4   -5.570225293754881E-4    2.234508567895098E-4   -5.717504054366348E-4   -4.659298204047539E-1   -1.047205898525642E-1
 1.004821358460000E+10  -3.559441334159081E-1   -2.862184525098003E-1    2.251345144427835E-4   -5.340763855865393E-4    2.483776177784713E-4   -5.607877487319983E-4   -4.659381793466952E-1   -1.040476180568216E-1
 1.004822034132500E+10  -3.561956148655135E-1   -2.857981683631896E-1    1.986410673019687E-4   -5.839894302707133E-4    2.388896163025661E-4   -5.323292910591554E-4   -4.660748800659356E-1   -1.039135165611278E-1
 1.004822709805000E+10  -3.564575045268734E-1   -2.853553948759587E-1    2.167967942008036E-4   -5.546008851888300E-4    2.287958360468634E-4   -5.365433523056037E-4   -4.661701940754248E-1   -1.033753179938316E-1
 1.004823385477500E+10  -3.567638469528026E-1   -2.850569526792022E-1    1.958551943495038E-4   -5.383387172831929E-4    2.452776925238281E-4   -5.522602020982714E-4   -4.661334056770137E-1   -1.028187858346813E-1
 1.004824061150000E+10  -3.568462219285616E-1   -2.847142982005205E-1    1.943947741380283E-4   -5.303000380418400E-4    2.002874024655414E-4   -5.347447976599869E-4   -4.663569164488126E-1   -1.024309236690478E-1
 1.004824736822500E+10  -3.572419539979078E-1   -2.843685808192407E-1    1.934789323778990E-4   -5.292021160831422E-4    2.429157349827365E-4   -5.340046208869438E-4   -4.663861198569826E-1   -1.017562367510294E-1
 1.004825412495000E+10  -3.574061514740300E-1   -2.839518899910723E-1    1.935986113095793E-4   -5.427171943364165E-4    2.489517059374034E-4   -5.415838864830786E-4   -4.664697557980301E-1   -1.013707939732374E-1
 1.004826088167500E+10  -3.577912183846176E-1   -2.835434758378542E-1    1.809797594210249E-4   -5.032183283048945E-4    2.469407805578585E-4   -5.068187501783497E-4   -4.665354146388334E-1   -1.009518529572131E-1
 1.004826763840000E+10  -3.580989796883906E-1   -2.831797505300783E-1    1.976651064024970E-4   -5.436214631248906E-4    2.272697617332846E-4   -5.080540621921907E-4   -4.666179579302477E-1   -1.005494175992836E-1
 1.004827439512500E+10  -3.582237569051585E-1   -2.827958515954638E-1    2.238611217210090E-4   -5.400440070070077E-4    2.221005122123997E-4   -4.857776733830131E-4   -4.666770450656660E-1   -1.000130827285099E-1
 1.004828115185000E+10  -3.584101893587849E-1   -2.825090299709551E-1    2.021638668093605E-4   -5.205066002105773E-4    2.286704351627718E-4   -5.209950111222868E-4   -4.667741455341920E-1   -9.953529690047672E-2
 1.004828790857500E+10  -3.587985868341905E-1   -2.821100724767507E-1    1.931267927290792E-4   -5.117909589459825E-4    2.197111219070298E-4   -4.867097235334967E-4   -4.667638854464616E-1   -9.897279032332276E-2
 1.004829466530000E+10  -3.590938808995586E-1   -2.818309550848521E-1    2.052859556576120E-4   -5.060391648287378E-4    2.425221708058228E-4   -4.953687637313190E-4   -4.669993266877233E-1   -9.856818308142101E-2
 1.004830142202500E+10  -3.592339730108457E-1   -2.814737400684300E-1    1.993705282671783E-4   -5.066587142467868E-4    2.223649349678603E-4   -4.924086560537107E-4   -4.670948658367799E-1   -9.811126016464970E-2
 1.004830817875000E+10  -3.595946425931519E-1   -2.810832761964843E-1    1.832500513007267E-4   -4.829687391177855E-4    2.358066043039240E-4   -4.908192414023667E-4   -4.671161824953746E-1   -9.755866794617898E-2
 1.004831493547500E+10  -3.599300108660684E-1   -2.806512349161073E-1    2.023496538337955E-4   -4.900975111318366E-4    2.376154725645092E-4   -4.943171423368861E-4   -4.671505161730692E-1   -9.713445461749716E-2
 1.004832169220000E+10  -3.601416094102333E-1   -2.804985829380521E-1    1.736303452814014E-4   -5.019545595388343E-4    2.320784844774610E-4   -4.748352589942131E-4   -4.672802536884531E-1   -9.669528508024175E-2
 1.004832844892500E+10  -3.603666074182821E-1   -2.800126404685778E-1    1.671508166504850E-4   -4.927617170672281E-4    1.942371802389494E-4   -4.638441921569217E-4   -4.672754681035562E-1   -9.607899986065432E-2
 1.004833520565000E+10  -3.606677986312803E-1   -2.796861642859884E-1    1.993917253227761E-4   -4.674906006917504E-4    2.160378233800805E-4   -4.407760029512020E-4   -4.673798981929477E-1   -9.554699272102574E-2
 1.004834196237500E+10  -3.608751478955083E-1   -2.793026970916047E-1    1.654553090636694E-4   -4.633145791931523E-4    2.360730965564614E-4   -4.586483184375593E-4   -4.675348173030989E-1   -9.534685964714862E-2
 1.004834871910000E+10  -3.612184738473834E-1   -2.787361025186275E-1    1.772195129938245E-4   -4.622988220802435E-4    2.064017071530499E-4   -4.523043868736995E-4   -4.674436690852228E-1   -9.477360161338670E-2
 1.004835547582500E+10  -3.614367837951806E-1   -2.786486525578165E-1    1.900209918724429E-4   -4.517137537919317E-4    2.228121562451054E-4   -4.340171909172635E-4   -4.675924147541638E-1   -9.414912476735356E-2
 1.004836223255000E+10  -3.617276644179370E-1   -2.782634775670223E-1    1.709318326101875E-4   -4.271876727619508E-4    2.117442434302928E-4   -4.644476284935531E-4   -4.677238598008558E-1   -9.379703462412509E-2
 1.004836898927500E+10  -3.620114639251013E-1   -2.776872487867608E-1    2.092700580656485E-4   -4.417328504106893E-4    2.287848193427447E-4   -4.745809895365379E-4   -4.677221761971774E-1   -9.326979897709016E-2
 1.004837574600000E+10  -3.622997932837010E-1   -2.775947871253820E-1    1.885192921049153E-4   -4.250711423150937E-4    2.114717913817061E-4   -4.393321881850391E-4   -4.679114774671242E-1   -9.264728910771396E-2
 1.004838250272500E+10  -3.624826079305568E-1   -2.771337982306104E-1    1.556529044606359E-4   -4.024014925778119E-4    2.160585219285093E-4   -4.321578595271109E-4   -4.679232141924156E-1   -9.220433822034807E-2
 1.004838925945000E+10  -3.627220412607576E-1   -2.768048758869897E-1    2.020372631158832E-4   -4.243228285346477E-4    2.201276776690076E-4   -4.362737128269480E-4   -4.680759976459340E-1   -9.192345752567614E-2
 1.004839601617500E+10  -3.630728121241922E-1   -2.763924749965284E-1    1.781860048565049E-4   -3.907928560638989E-4    2.088373157012555E-4   -4.318532392993804E-4   -4.681348352855860E-1   -9.131245338644803E-2
 1.004840277290000E+10  -3.632943116274568E-1   -2.760684078855467E-1    1.778740125588369E-4   -4.441904546697313E-4    1.930359430596895E-4   -4.134285440541733E-4   -4.680218833580593E-1   -9.078682010638153E-2
 1.004840952962500E+10  -3.635766842080689E-1   -2.757912502757734E-1    1.639409358746236E-4   -4.434683107516708E-4    1.785095137030719E-4   -4.177763119315502E-4   -4.683018476144890E-1   -9.031263487218112E-2
 1.004841628635000E+10  -3.638320935643071E-1   -2.752941639339328E-1    1.856152609350700E-4   -4.244982984850032E-4    1.812836462856865E-4   -4.139174498821546E-4   -4.683200195798272E-1   -8.979284508033804E-2
 1.004842304307500E+10  -3.640143907283534E-1   -2.748703644648620E-1    1.436232378653584E-4   -3.873885958115432E-4    1.962567840707118E-4   -4.035371410410604E-4   -4.682587257083902E-1   -8.937532945147246E-2
 1.004842979980000E+10  -3.643165549534468E-1   -2.745706256023506E-1    1.803953119192969E-4   -3.760395464419175E-4    1.932921938858969E-4   -3.540103933963913E-4   -4.684762852754717E-1   -8.879475167166284E-2
 1.004843655652500E+10  -3.645251566085680E-1   -2.742142527633941E-1    1.819068953772785E-4   -3.798147172531976E-4    2.048857509597650E-4   -3.667281164255651E-4   -4.685243550669143E-1   -8.823986233890110E-2
 1.004844331325000E+10  -3.648610937339122E-1   -2.739436010602874E-1    1.624280191812005E-4   -3.767178012091522E-4    1.964450594937490E-4   -3.664900612988949E-4   -4.686535407358717E-1   -8.796076131965044E-2
 1.004845006997500E+10  -3.650341175936233E-1   -2.735623709348057E-1    1.822896838196532E-4   -3.894989365597001E-4    1.913450697822133E-4   -3.658110341516219E-4   -4.687262931157888E-1   -8.719658363057829E-2
 1.004845682670000E+10  -3.653158556357835E-1   -2.730854567733089E-1    1.517343687639958E-4   -3.711807927630941E-4    1.989011726167218E-4   -3.625887559321969E-4   -4.685732584894445E-1   -8.676442506098325E-2
 1.004846358342500E+10  -3.655465397285266E-1   -2.728237041649148E-1    1.840815397056897E-4   -3.489318664424180E-4    2.116905445103484E-4   -3.411806852413749E-4   -4.688979447080666E-1   -8.637466251816130E-2
 1.004847034015000E+10  -3.657701944117327E-1   -2.724354816278527E-1    1.824442855676825E-4   -3.627227101144022E-4    2.147515583349056E-4   -3.581734455838573E-4   -4.686401485669256E-1   -8.573670841137605E-2
 1.004847709687500E+10  -3.660998737132338E-1   -2.720307468548219E-1    1.754447808509626E-4   -3.689226931537412E-4    2.177492703700599E-4   -3.476426342205549E-4   -4.689154524963837E-1   -8.531102811526139E-2
 1.004848385360000E+10  -3.665367489641843E-1   -2.716518597875085E-1    1.591604908276231E-4   -3.275068535716127E-4    2.182379235047918E-4   -3.527855985419486E-4   -4.690286739557639E-1   -8.480912836252673E-2
 1.004849061032500E+10  -3.665724957279078E-1   -2.713560100738146E-1    1.761731145039636E-4   -3.672823937079593E-4    1.902299914365283E-4   -3.403960320049728E-4   -4.690367973672210E-1   -8.432806495544000E-2
 1.004849736705000E+10  -3.669277922462871E-1   -2.708809698124993E-1    1.639758179782120E-4   -3.150757725783231E-4    2.160900904285777E-4   -3.284535501615157E-4   -4.690828865792335E-1   -8.390161295787921E-2
 1.004850412377500E+10  -3.671015417884058E-1   -2.706435817464488E-1    1.414971635944854E-4   -3.441510263464785E-4    1.988319599746328E-4   -3.184593169747597E-4   -4.691443321966304E-1   -8.328036130098009E-2
 1.004851088050000E+10  -3.674200398884757E-1   -2.701659410157538E-1    1.758363728743722E-4   -3.002687980423403E-4    1.935722139630771E-4   -3.457993929338202E-4   -4.692990903969246E-1   -8.278620375291523E-2
 1.004851763722500E+10  -3.677158961902750E-1   -2.697786679398889E-1    1.556130838758981E-4   -3.035123437363368E-4    1.844417718595109E-4   -2.900657642514131E-4   -4.692273991362123E-1   -8.223512393349286E-2
 1.004852439395000E+10  -3.678920933392784E-1   -2.695456470316333E-1    1.612137674624632E-4   -3.175506751378429E-4    1.850921150640926E-4   -3.184443372690845E-4   -4.695742740028873E-1   -8.177701734808258E-2
 1.004853115067500E+10  -3.681529365781629E-1   -2.690820403711193E-1    1.737920944777586E-4   -2.901309154368759E-4    1.923494595584344E-4   -2.764983502272824E-4   -4.693590720532942E-1   -8.129559021027945E-2
 1.004853790740000E+10  -3.683606078324493E-1   -2.687074149843579E-1    1.589586554116295E-4   -3.010004911843367E-4    1.764325725366951E-4   -2.681628896292426E-4   -4.693027025959469E-1   -8.065506575007989E-2
 1.004854466412500E+10  -3.685616479631773E-1   -2.683267871845101E-1    1.642612655981419E-4   -2.897636036634972E-4    1.800686534531596E-4   -2.414602052901408E-4   -4.694240896268398E-1   -8.014428121930615E-2
 1.004855142085000E+10  -3.687609961234966E-1   -2.680630195264492E-1    1.503038213870097E-4   -2.618659454711105E-4    2.075450219183770E-4   -2.472270429418731E-4   -4.695252790362630E-1   -7.985340502589801E-2
 1.004855817757500E+10  -3.691082986714078E-1   -2.676003283347196E-1    1.464251730384931E-4   -2.654911123936719E-4    1.863541277643317E-4   -2.753036974186844E-4   -4.697484382151078E-1   -7.922408027565507E-2
 1.004856493430000E+10  -3.692661399931349E-1   -2.673563444788171E-1    1.770508710644414E-4   -2.529694300855449E-4    1.619375310481462E-4   -2.248470904121357E-4   -4.696347033556845E-1   -7.867313958696409E-2
 1.004857169102500E+10  -3.696357490636833E-1   -2.668542602045061E-1    1.739720092694928E-4   -2.421445050221998E-4    1.678284900152196E-4   -2.488084381681994E-4   -4.696475125805614E-1   -7.823134891366681E-2
 1.004857844775000E+10  -3.699384380480683E-1   -2.665243880115119E-1    1.674753745129056E-4   -2.416745067243612E-4    1.650698402316117E-4   -2.300076747204222E-4   -4.697122961483805E-1   -7.762675238457534E-2
 1.004858520447500E+10  -3.701101241720041E-1   -2.661862844621821E-1    1.858478283623886E-4   -2.363262548284387E-4    1.725000788234452E-4   -2.507464736328124E-4   -4.696747734247504E-1   -7.715126226492144E-2
 1.004859196120000E+10  -3.704315709220093E-1   -2.657814812450854E-1    1.880764032645794E-4   -2.242696708018656E-4    1.892726480252262E-4   -2.038451371103576E-4   -4.697905500718423E-1   -7.657850702004215E-2
 1.004859871792500E+10  -3.706550560556575E-1   -2.654977141035368E-1    1.526114411896738E-4   -2.148478222998906E-4    1.957334225911950E-4   -1.904131296405481E-4   -4.698587364365039E-1   -7.615720579996839E-2
 1.004860547465000E+10  -3.710446880953244E-1   -2.651030963815495E-1    1.799706281699315E-4   -2.195475391159105E-4    1.962539058850269E-4   -2.101563971590576E-4   -4.699921348449112E-1   -7.561807740848703E-2
 1.004861223137500E+10  -3.712179228826358E-1   -2.646556700853004E-1    1.576669560679256E-4   -1.983696900387120E-4    1.923274325555237E-4   -1.665994490134444E-4   -4.699449876247467E-1   -7.507770371844900E-2
 1.004861898810000E+10  -3.714091241247879E-1   -2.643047684798239E-1    1.523573817730214E-4   -1.895962316601030E-4    1.786719244673292E-4   -1.696749605527096E-4   -4.700910843226051E-1   -7.439426866803305E-2
 1.004862574482500E+10  -3.717180086685397E-1   -2.639275452937692E-1    1.802336102419165E-4   -1.575659361068950E-4    1.752568678031038E-4   -1.847903892898208E-4   -4.701219693969765E-1   -7.397099094127975E-2
 1.004863250155000E+10  -3.718814779654223E-1   -2.635385769300275E-1    1.721903042075946E-4   -1.550486569643651E-4    1.643432777938145E-4   -1.498859668706819E-4   -4.700793999272735E-1   -7.336571274326942E-2
 1.004863925827500E+10  -3.720645873702212E-1   -2.630880496713536E-1    1.662888513932635E-4   -1.604903724880015E-4    1.839806753527472E-4   -1.269969786237160E-4   -4.700798665201588E-1   -7.291588464596757E-2
 1.004864601500000E+10  -3.723870823410633E-1   -2.628551632650415E-1    1.644054593741455E-4   -1.857525105815040E-4    1.988249605274168E-4   -1.411510010206753E-4   -4.702966446529526E-1   -7.237501175369299E-2
 1.004865277172500E+10  -3.726772950332289E-1   -2.625935507251669E-1    2.060542826293475E-4   -1.434219743893238E-4    1.810497383299966E-4   -1.276883597521285E-4   -4.703654993127651E-1   -7.183887880965703E-2
 1.004865952845000E+10  -3.728518625164988E-1   -2.621331912493290E-1    1.829240096814667E-4   -1.042968212173718E-4    1.710786105260082E-4   -1.368579574063713E-4   -4.702683881209619E-1   -7.129757423076701E-2
 1.004866628517500E+10  -3.730353170322313E-1   -2.617421205007022E-1    1.999544352363931E-4   -1.208613571860635E-4    1.650737153154880E-4   -8.517335209581112E-5   -4.702109637223552E-1   -7.069557806094533E-2
 1.004867304190000E+10  -3.731968753646471E-1   -2.613558859503003E-1    1.943310566794517E-4   -9.005520630253616E-5    2.172745150841288E-4   -1.144156238024731E-4   -4.702661094546005E-1   -7.020116188276314E-2
 1.004867979862500E+10  -3.735906285714332E-1   -2.609620960537100E-1    1.745333317764188E-4   -1.071723988149178E-4    1.590571777246736E-4   -1.210206566082333E-4   -4.705028444800135E-1   -6.964450979865661E-2
 1.004868655535000E+10  -3.737798997765279E-1   -2.606056572020254E-1    1.730599124700718E-4   -7.439772150680512E-5    1.750001897486918E-4   -4.591018574714381E-5   -4.704611090567816E-1   -6.922744680174285E-2
 1.004869331207500E+10  -3.740560628953102E-1   -2.602656891397137E-1    1.703957844136678E-4   -7.477039316596076E-5    2.015734524126585E-4   -7.928158572531279E-5   -4.704071085277665E-1   -6.869524081862471E-2
 1.004870006880000E+10  -3.744276481904072E-1   -2.598802971891194E-1    1.390303601353026E-4   -8.082367168627956E-5    1.768899613241101E-4   -8.046448496469599E-5   -4.704694977888176E-1   -6.805779095388312E-2
 1.004870682552500E+10  -3.746203734226958E-1   -2.594902857231922E-1    1.723737046807291E-4   -2.360503830598494E-5    1.898171564984548E-4   -6.644196149160627E-5   -4.705520108673076E-1   -6.746683378894609E-2
 1.004871358225000E+10  -3.748614720416814E-1   -2.591611613832510E-1    1.755357877554244E-4   -1.457731824753473E-5    1.785555746908199E-4   -5.593005698905099E-5   -4.706657382054819E-1   -6.685743779572778E-2
