#  HZ   S   RI   R     50.00 
! Rohde & Schwarz Vector Network Analyzer 
! Rohde-Schwarz,ZNB20-2Port,1311601062101988,3.16
! Created: UTC 3/21/2024, 1:15:06 AM
! freq[Hz]                re:S11                  im:S11                  re:S21                  im:S21                  re:S12                  im:S12                  re:S22                  im:S22
 1.004811476100000E+10  -3.518436715039274E-1   -2.914521636772450E-1    2.079229597303838E-4   -6.106954886562325E-4    2.423234913217163E-4   -6.249671232650231E-4   -4.645250720349515E-1   -1.113762646626176E-1
 1.004812151190000E+10  -3.521790094239534E-1   -2.910542229539539E-1    2.175049625818355E-4   -6.030370079593777E-4    2.606620510143317E-4   -5.881638234104494E-4   -4.645924960407579E-1   -1.108811226404781E-1
 1.004812826280000E+10  -3.523498262989472E-1   -2.907528472311718E-1    2.018391846980816E-4   -6.271205740865121E-4    2.746303617401564E-4   -6.211859751546494E-4   -4.647721124019659E-1   -1.103434671949959E-1
 1.004813501370000E+10  -3.526741937660545E-1   -2.905005636426223E-1    2.246067040661987E-4   -6.054487145842948E-4    2.374206109777101E-4   -5.911634905882515E-4   -4.648204200019234E-1   -1.098789473311097E-1
 1.004814176460000E+10  -3.529207893653291E-1   -2.899749533823156E-1    2.354705111946921E-4   -6.155372095705115E-4    2.392233963178529E-4   -6.052657567799796E-4   -4.648620570857417E-1   -1.094711630296553E-1
 1.004814851550000E+10  -3.532766806902833E-1   -2.896583203069221E-1    2.269749260747868E-4   -6.073446177981826E-4    2.381344762436719E-4   -5.855028127927927E-4   -4.650118295466851E-1   -1.090000812059916E-1
 1.004815526640000E+10  -3.535040488434773E-1   -2.893576927066319E-1    1.949690115657675E-4   -5.797103886547038E-4    2.469594323620301E-4   -5.757276791683338E-4   -4.650821613226207E-1   -1.085061252348936E-1
 1.004816201730000E+10  -3.538979282466916E-1   -2.890724749059070E-1    2.124387415854455E-4   -5.932900302870240E-4    2.566480898622947E-4   -6.086663497383164E-4   -4.652827111373928E-1   -1.079088603956919E-1
 1.004816876820000E+10  -3.539624357615777E-1   -2.886900827532076E-1    1.980388317293726E-4   -5.959001733594389E-4    2.567743454727028E-4   -5.634749142424723E-4   -4.653937824893070E-1   -1.075381477555759E-1
 1.004817551910000E+10  -3.543142435902691E-1   -2.882679405408974E-1    1.950959124904274E-4   -5.799688967419844E-4    2.608543762550273E-4   -5.854518649562648E-4   -4.654404074250135E-1   -1.071865100437108E-1
 1.004818227000000E+10  -3.545372152474155E-1   -2.879341946094038E-1    2.064124255752366E-4   -5.818616924572549E-4    2.772597526626474E-4   -5.594596677818390E-4   -4.653949346087777E-1   -1.066740433816706E-1
 1.004818902090000E+10  -3.548430069552705E-1   -2.875825559433688E-1    2.060109753969865E-4   -5.803671074647690E-4    2.424129862091174E-4   -5.826100650252764E-4   -4.655055914376400E-1   -1.060946635819550E-1
 1.004819577180000E+10  -3.549902372992009E-1   -2.871801008326555E-1    2.101025799415883E-4   -5.640609190671783E-4    2.353359763883013E-4   -5.613860662718904E-4   -4.656402397834922E-1   -1.056049006946045E-1
 1.004820252270000E+10  -3.554014367251545E-1   -2.868286946342013E-1    1.946832942824151E-4   -5.583933045207383E-4    2.571656370574732E-4   -5.784457543437674E-4   -4.657006999076288E-1   -1.050394089225773E-1
 1.004820927360000E+10  -3.557008517373492E-1   -2.864838576970732E-1    2.046937228645470E-4   -5.961325704050863E-4    2.362886087416314E-4   -5.812088405155911E-4   -4.659155421422583E-1   -1.047571997996047E-1
 1.004821602450000E+10  -3.558425086487979E-1   -2.861560144999327E-1    2.028539674691060E-4   -5.620024074200012E-4    2.353171094211966E-4   -5.524071775076627E-4   -4.659399269371270E-1   -1.042517655141880E-1
 1.004822277540000E+10  -3.562337835401317E-1   -2.857330857497442E-1    2.060694777437650E-4   -5.760095502203117E-4    2.313558869172260E-4   -5.615053989700619E-4   -4.660442262553608E-1   -1.036217344993008E-1
 1.004822952630000E+10  -3.564139786477368E-1   -2.854495200342603E-1    1.944836224747991E-4   -5.534679511245679E-4    2.429140196237294E-4   -5.628663160974033E-4   -4.661022309861655E-1   -1.032658888957633E-1
 1.004823627720000E+10  -3.567498238106174E-1   -2.849894128149663E-1    1.964349283365941E-4   -5.561321867356569E-4    2.524515752955532E-4   -5.698083934051415E-4   -4.661039674618225E-1   -1.028866154221292E-1
 1.004824302810000E+10  -3.569829963738228E-1   -2.847589433685484E-1    2.101439865521547E-4   -5.544247733786016E-4    2.369478285626630E-4   -5.226709772935404E-4   -4.663450053172301E-1   -1.023128757628371E-1
 1.004824977900000E+10  -3.571930701877205E-1   -2.842969116874752E-1    2.044339570915109E-4   -5.637116622428256E-4    2.197020747411378E-4   -5.325672583233500E-4   -4.662984131253490E-1   -1.019072118051896E-1
 1.004825652990000E+10  -3.575138802715543E-1   -2.839798394486114E-1    1.876307140768306E-4   -5.494166954397587E-4    2.331213105179339E-4   -5.113102781198685E-4   -4.664895152040196E-1   -1.013609647470247E-1
 1.004826328080000E+10  -3.577704747829346E-1   -2.836134017444427E-1    2.028507624397400E-4   -4.909302291051954E-4    2.333460441956736E-4   -5.064115430780244E-4   -4.666828641300597E-1   -1.008252531531895E-1
 1.004827003170000E+10  -3.581327031533357E-1   -2.832244850837494E-1    1.825999270258918E-4   -5.181905629657084E-4    2.355295975499176E-4   -5.363487821734466E-4   -4.666982625860316E-1   -1.004522802979479E-1
 1.004827678260000E+10  -3.582355412017547E-1   -2.828610508154923E-1    1.939854598882741E-4   -5.324131697684217E-4    2.245792223437920E-4   -5.360633895435528E-4   -4.668505381892668E-1   -1.000410790453802E-1
 1.004828353350000E+10  -3.585877899319483E-1   -2.824620245351048E-1    1.843209471176289E-4   -5.138450980946665E-4    2.254697294448623E-4   -5.252921947063754E-4   -4.667726771971171E-1   -9.947896354228762E-2
 1.004829028440000E+10  -3.587255274913506E-1   -2.822033132876650E-1    1.765474745342755E-4   -5.384403141685230E-4    2.334054757458459E-4   -4.955978365942233E-4   -4.668906286001163E-1   -9.902337716276961E-2
 1.004829703530000E+10  -3.591507768943502E-1   -2.818402672237109E-1    1.986038453755045E-4   -5.197010433562905E-4    2.311529324279249E-4   -5.281096771647970E-4   -4.669865839997384E-1   -9.849994971555721E-2
 1.004830378620000E+10  -3.593678204416921E-1   -2.815058500222012E-1    2.198318402370371E-4   -5.188663095651231E-4    2.244081059914295E-4   -5.074568294769361E-4   -4.670190424355344E-1   -9.813551313427354E-2
 1.004831053710000E+10  -3.597092670415661E-1   -2.811880011775653E-1    2.104149544851599E-4   -5.160460904324557E-4    2.329858933885167E-4   -4.941865983299668E-4   -4.671499170125304E-1   -9.762803665407542E-2
 1.004831728800000E+10  -3.598856363106754E-1   -2.807285725861178E-1    1.810088428994818E-4   -5.150091934774384E-4    2.296575132297779E-4   -4.906444050382761E-4   -4.672820917821072E-1   -9.699358195425813E-2
 1.004832403890000E+10  -3.601336386956590E-1   -2.802447316378115E-1    1.939783250342637E-4   -4.811131289478868E-4    2.174078769760586E-4   -4.881294670105043E-4   -4.672008727886575E-1   -9.666741836314149E-2
 1.004833078980000E+10  -3.604723922610522E-1   -2.799480170716449E-1    2.063926296668048E-4   -5.021673909545621E-4    2.305197454575767E-4   -4.746422829266256E-4   -4.674382957572628E-1   -9.612603373053157E-2
 1.004833754070000E+10  -3.607106197485177E-1   -2.796281471009078E-1    1.379772947136753E-4   -4.991580608059461E-4    2.221613728209410E-4   -4.893809034530848E-4   -4.674511610194627E-1   -9.575665628542268E-2
 1.004834429160000E+10  -3.609142456175722E-1   -2.792639339833841E-1    1.757815877575249E-4   -4.724816147158428E-4    2.076484425905536E-4   -4.641091303085395E-4   -4.674919575789942E-1   -9.512751033816963E-2
 1.004835104250000E+10  -3.611332474869964E-1   -2.788937771488640E-1    1.712095255658096E-4   -4.676052310359885E-4    2.062656173250670E-4   -5.020854799462213E-4   -4.676560137875881E-1   -9.457366084377052E-2
 1.004835779340000E+10  -3.615143271610181E-1   -2.786315530387977E-1    1.420884652488276E-4   -4.667104099786162E-4    2.020317515681911E-4   -4.713445070544504E-4   -4.677007562784403E-1   -9.415984053328670E-2
 1.004836454430000E+10  -3.616427128720716E-1   -2.781804980908058E-1    1.698152193015026E-4   -4.482100961576969E-4    1.737700535828305E-4   -4.602183607890937E-4   -4.678652953068769E-1   -9.372950812278749E-2
 1.004837129520000E+10  -3.620220888238360E-1   -2.778559812058753E-1    1.932474663645041E-4   -4.645735061030698E-4    2.304534838176749E-4   -4.561283382240850E-4   -4.676673000206113E-1   -9.334923230227161E-2
 1.004837804610000E+10  -3.622445845566012E-1   -2.774347639214272E-1    1.909611879153914E-4   -4.453929501547843E-4    1.869212380388136E-4   -4.627975295873158E-4   -4.678080095051944E-1   -9.274798822014012E-2
 1.004838479700000E+10  -3.624739682406262E-1   -2.772070496224227E-1    2.004174195492374E-4   -4.466426133647260E-4    2.022259650104478E-4   -4.336785648476062E-4   -4.679286377630222E-1   -9.230285062179383E-2
 1.004839154790000E+10  -3.628185425714061E-1   -2.765639642751181E-1    2.233966304231898E-4   -4.340609108992541E-4    2.137707007654332E-4   -4.456725067643409E-4   -4.679685705845387E-1   -9.177738519859234E-2
 1.004839829880000E+10  -3.630431110731110E-1   -2.764539615932162E-1    1.626245385704941E-4   -4.559824088459154E-4    1.866083087075116E-4   -4.199986308101249E-4   -4.680626799656677E-1   -9.124850193003108E-2
 1.004840504970000E+10  -3.632804488396498E-1   -2.760655390457175E-1    1.753301386626991E-4   -4.459066252734504E-4    2.111834767819141E-4   -4.252983150994048E-4   -4.682244626225651E-1   -9.078206594973341E-2
 1.004841180060000E+10  -3.634100812710560E-1   -2.756271234991405E-1    1.808722969208703E-4   -4.215720450385700E-4    1.941553667059529E-4   -4.431771515226930E-4   -4.681997547278620E-1   -9.029890843887375E-2
 1.004841855150000E+10  -3.637166729879772E-1   -2.754076801053369E-1    1.898298668634155E-4   -3.976689439013030E-4    1.890627562988329E-4   -4.227159233810186E-4   -4.683409310267907E-1   -8.977803116467528E-2
 1.004842530240000E+10  -3.641312615928770E-1   -2.749344744237594E-1    1.928254611692117E-4   -4.064569465601267E-4    2.138859687390034E-4   -4.093506068303982E-4   -4.683696366501759E-1   -8.917768805634393E-2
 1.004843205330000E+10  -3.642681652247512E-1   -2.744900347175163E-1    1.632545268554908E-4   -3.949114666619340E-4    2.233232989457896E-4   -3.933302418463252E-4   -4.683728056967894E-1   -8.880188457777433E-2
 1.004843880420000E+10  -3.646025670690011E-1   -2.743192435616377E-1    2.143566134926411E-4   -4.108725483815779E-4    2.070051020694831E-4   -3.942089364529860E-4   -4.684724166453481E-1   -8.832700717198270E-2
 1.004844555510000E+10  -3.649689410760118E-1   -2.738390883285879E-1    2.020677337222352E-4   -4.074355451737403E-4    2.092496816133805E-4   -4.143162686595706E-4   -4.685390204105895E-1   -8.777255302909896E-2
 1.004845230600000E+10  -3.650832795896938E-1   -2.734606042584002E-1    1.550340387555236E-4   -3.940387392419873E-4    1.974149472148001E-4   -3.718645742391329E-4   -4.686206385898004E-1   -8.733113299344730E-2
 1.004845905690000E+10  -3.653982715314507E-1   -2.731307499576848E-1    1.556778201254510E-4   -3.722142486682438E-4    1.867025574675435E-4   -3.792402882348434E-4   -4.687594993712488E-1   -8.680396728214959E-2
 1.004846580780000E+10  -3.655580429307352E-1   -2.727561244544097E-1    1.624527871992401E-4   -3.762618015500811E-4    2.058591943238290E-4   -3.725899036109802E-4   -4.688716572977695E-1   -8.631466083222923E-2
 1.004847255870000E+10  -3.659055112929112E-1   -2.724624506448305E-1    1.792983716844609E-4   -3.599940125381037E-4    2.145436543393225E-4   -3.652183495994202E-4   -4.688317405404284E-1   -8.587864811452908E-2
 1.004847930960000E+10  -3.661513954174166E-1   -2.719945110660976E-1    1.741808978287204E-4   -3.501652432531846E-4    1.961370007447241E-4   -3.504039309093811E-4   -4.689276148315185E-1   -8.521278325771409E-2
 1.004848606050000E+10  -3.663030419207188E-1   -2.718134768476163E-1    1.731846792368371E-4   -3.470027588516175E-4    1.858572369416799E-4   -3.648559084133395E-4   -4.689361734767123E-1   -8.486249299763485E-2
 1.004849281140000E+10  -3.665916654296947E-1   -2.712501438909624E-1    1.626417705771028E-4   -3.601400863120280E-4    2.070187398747025E-4   -3.333169529511214E-4   -4.690929111447852E-1   -8.436491045603409E-2
 1.004849956230000E+10  -3.668610144380161E-1   -2.708944140475712E-1    1.810873800347679E-4   -3.279007948623429E-4    1.386884731845072E-4   -3.507752028471135E-4   -4.691078265342445E-1   -8.378099961528790E-2
 1.004850631320000E+10  -3.671085212479357E-1   -2.706175956648240E-1    1.612787116044064E-4   -3.104349854747864E-4    2.155833414414564E-4   -3.341616696998812E-4   -4.692811003569441E-1   -8.333945977700925E-2
 1.004851306410000E+10  -3.674248751483503E-1   -2.702822581523647E-1    1.675340239411220E-4   -3.515128734078044E-4    1.753197274732402E-4   -3.256502821579430E-4   -4.692195725457304E-1   -8.269663806673559E-2
 1.004851981500000E+10  -3.675713176525826E-1   -2.699162838136652E-1    1.815207446269767E-4   -3.184634771274439E-4    2.029259686410017E-4   -3.137750997552096E-4   -4.693798069143648E-1   -8.234257221142581E-2
 1.004852656590000E+10  -3.678928840909947E-1   -2.694259980871704E-1    1.632096331617573E-4   -3.193879868444952E-4    2.032817995184300E-4   -3.078499281771729E-4   -4.692072223429467E-1   -8.183979440710912E-2
 1.004853331680000E+10  -3.682340621875937E-1   -2.690529623850825E-1    1.709134787172612E-4   -3.140407057279478E-4    2.001442172348431E-4   -2.848404216513313E-4   -4.694077353145233E-1   -8.131022125735676E-2
 1.004854006770000E+10  -3.684096816683498E-1   -2.688730359181933E-1    1.419543051322727E-4   -3.033610168662363E-4    1.973403779694591E-4   -2.850375947413850E-4   -4.694001745404315E-1   -8.082031661278180E-2
 1.004854681860000E+10  -3.686055945282158E-1   -2.683716593557789E-1    1.801846500127794E-4   -3.067012321917418E-4    1.775590925689380E-4   -2.700679720097103E-4   -4.694643599714327E-1   -8.018624426895211E-2
 1.004855356950000E+10  -3.689418400826864E-1   -2.679603037018143E-1    1.673346342024920E-4   -3.005493685707126E-4    1.933669274983859E-4   -2.627421473994105E-4   -4.695299381743980E-1   -7.979200610149384E-2
 1.004856032040000E+10  -3.691242252825886E-1   -2.676119822191413E-1    1.672979540105915E-4   -2.591212538322458E-4    1.658161770900937E-4   -2.768837687126071E-4   -4.695044314702715E-1   -7.925775419492394E-2
 1.004856707130000E+10  -3.694597180927164E-1   -2.674287349147991E-1    1.629132023108672E-4   -2.561362060596713E-4    2.009560165647523E-4   -2.663073632370710E-4   -4.697330783834778E-1   -7.869277577177972E-2
 1.004857382220000E+10  -3.696830467571206E-1   -2.668042446788296E-1    1.778486700492904E-4   -2.762520791777353E-4    1.757127578840054E-4   -2.290754055552139E-4   -4.696030486141843E-1   -7.816083373371178E-2
 1.004858057310000E+10  -3.698795374311585E-1   -2.666190098891047E-1    1.745067442795023E-4   -2.640566152452736E-4    1.777699395065843E-4   -2.166058913471374E-4   -4.698838711124949E-1   -7.762222285938725E-2
 1.004858732400000E+10  -3.701372276972814E-1   -2.660903797911661E-1    1.491197966640518E-4   -2.496069167457104E-4    1.824902187047564E-4   -2.243596570238268E-4   -4.698736246025252E-1   -7.721023699152862E-2
 1.004859407490000E+10  -3.704364492666092E-1   -2.658272973947471E-1    1.601096321969686E-4   -2.231953063718825E-4    1.697742964173163E-4   -2.147437896371531E-4   -4.697587384903397E-1   -7.656380684241165E-2
 1.004860082580000E+10  -3.706935455640901E-1   -2.654380424101121E-1    1.606867440874340E-4   -2.227741151598357E-4    1.844612581463527E-4   -2.120300418140514E-4   -4.700456283998102E-1   -7.613236545142636E-2
 1.004860757670000E+10  -3.708730301219432E-1   -2.651031093393864E-1    1.343359555088591E-4   -1.903006764981310E-4    1.742949948859518E-4   -1.949847142928421E-4   -4.702449031047979E-1   -7.564809722044928E-2
 1.004861432760000E+10  -3.712007149818744E-1   -2.645374721352138E-1    1.596585816272842E-4   -2.116158236008245E-4    1.659797033281304E-4   -1.738270354804127E-4   -4.701405037168708E-1   -7.506987832181998E-2
 1.004862107850000E+10  -3.714011166915910E-1   -2.642495944403876E-1    1.823099410625662E-4   -1.769883316034190E-4    1.607045072834984E-4   -1.836409898105494E-4   -4.700864068289669E-1   -7.449963109957124E-2
 1.004862782940000E+10  -3.716411428784293E-1   -2.639479684116112E-1    1.712539858591941E-4   -1.963896444887784E-4    1.640020490361442E-4   -1.729219081692675E-4   -4.702262856280529E-1   -7.397082101810332E-2
 1.004863458030000E+10  -3.719187643970492E-1   -2.634815601790012E-1    1.369347660897692E-4   -1.982085907458983E-4    1.770152952899429E-4   -1.820955326059943E-4   -4.700810106661409E-1   -7.360519395817947E-2
 1.004864133120000E+10  -3.721415431620884E-1   -2.633085173971528E-1    1.527299757060239E-4   -1.516409152551387E-4    1.801770966560492E-4   -1.424884509074179E-4   -4.702114110089952E-1   -7.298213392431371E-2
 1.004864808210000E+10  -3.724228055632524E-1   -2.628108570710989E-1    1.837940028056727E-4   -1.499486695601766E-4    1.977773963824059E-4   -1.692104846818620E-4   -4.702153102322554E-1   -7.245624587821599E-2
 1.004865483300000E+10  -3.726883110619109E-1   -2.625377089643608E-1    2.007552716435408E-4   -1.618051704900071E-4    1.467565126524958E-4   -1.117913148202131E-4   -4.703433755655567E-1   -7.184501530280520E-2
 1.004866158390000E+10  -3.730048188406213E-1   -2.622273970832609E-1    1.602911204744825E-4   -1.451138802566823E-4    1.714452713541371E-4   -1.346639573899805E-4   -4.703380170289378E-1   -7.134120551668240E-2
 1.004866833480000E+10  -3.731206298644028E-1   -2.617844981888928E-1    1.656779007460406E-4   -1.451912196707158E-4    1.894444698189907E-4   -1.235203501005920E-4   -4.703136404858613E-1   -7.082189457368829E-2
 1.004867508570000E+10  -3.734553781665811E-1   -2.613742616910963E-1    1.764928876975807E-4   -1.262456138872986E-4    2.048662141247835E-4   -9.447608070704360E-5   -4.703054642730434E-1   -7.011666546654048E-2
 1.004868183660000E+10  -3.736591733286764E-1   -2.609827111514115E-1    1.840134436175102E-4   -9.560263958916257E-5    1.820021796516351E-4   -7.026002417908878E-5   -4.705570435045645E-1   -6.969603101187732E-2
 1.004868858750000E+10  -3.738223646997372E-1   -2.607155864979701E-1    1.655496857904830E-4   -1.043207966918046E-4    1.529060371634777E-4   -9.196659957203465E-5   -4.704204513202124E-1   -6.924118428107670E-2
 1.004869533840000E+10  -3.739995512695721E-1   -2.603032940394907E-1    1.626414875604553E-4   -1.022378239839905E-4    1.970730294097640E-4   -6.424495950620313E-5   -4.704163577959490E-1   -6.866608378727466E-2
 1.004870208930000E+10  -3.741872841754866E-1   -2.598032265311490E-1    1.795739967604736E-4   -5.192894453300478E-5    2.121581954506298E-4   -5.988178374193424E-5   -4.705015805514230E-1   -6.813957542138714E-2
 1.004870884020000E+10  -3.745938058166424E-1   -2.594531957590288E-1    1.647467831154545E-4   -4.913797676124823E-5    2.136329990296763E-4   -5.534721048766472E-5   -4.704932678611217E-1   -6.758275669922391E-2
 1.004871559110000E+10  -3.747834289756329E-1   -2.590530984562869E-1    1.850402679802971E-4   -5.054184920244066E-6    1.933607429843411E-4   -3.538469763116715E-5   -4.705311916198806E-1   -6.690499462984190E-2
 1.004872234200000E+10  -3.750574833001150E-1   -2.586366669185812E-1    1.848383205974334E-4   -8.995716148927697E-6    1.465865271678256E-4   -1.684595695371683E-5   -4.706649718759088E-1   -6.636347958506701E-2
