#  HZ   S   RI   R     50.00 
! Rohde & Schwarz Vector Network Analyzer 
! Rohde-Schwarz,ZNB20-2Port,1311601062101988,3.16
! Created: UTC 3/21/2024, 1:15:13 AM
! freq[Hz]                re:S11                  im:S11                  re:S21                  im:S21                  re:S12                  im:S12                  re:S22                  im:S22
 1.004813725500000E+10  -3.526946852148364E-1   -2.904253517424909E-1    2.047707107231213E-4   -6.250740034047831E-4    2.535180389154110E-4   -6.026991761887024E-4   -4.646866682145743E-1   -1.097812338104440E-1
 1.004814393402500E+10  -3.528185376189678E-1   -2.899526902199978E-1    1.954315262605053E-4   -6.032537125216891E-4    2.812178204750382E-4   -6.187020794987151E-4   -4.649606134178167E-1   -1.093934415129580E-1
 1.004815061305000E+10  -3.531737871743559E-1   -2.895514041659921E-1    1.994793741703332E-4   -5.968494456740867E-4    2.735187852998132E-4   -5.907046388584600E-4   -4.648862931804615E-1   -1.088565649893864E-1
 1.004815729207500E+10  -3.533787926198845E-1   -2.893933228658307E-1    2.046583420373479E-4   -5.949171155713657E-4    2.568716408081617E-4   -5.491133592768023E-4   -4.651779373850102E-1   -1.084420286774278E-1
 1.004816397110000E+10  -3.537789979683184E-1   -2.889714289287862E-1    2.317114511169828E-4   -5.872349244343738E-4    2.535282933079942E-4   -5.847987890232156E-4   -4.651457249814793E-1   -1.079754998504717E-1
 1.004817065012500E+10  -3.539854902017811E-1   -2.886692192786107E-1    2.266497299655902E-4   -5.894068321497559E-4    2.464577976497742E-4   -5.945436145291795E-4   -4.651944213822859E-1   -1.075530991065040E-1
 1.004817732915000E+10  -3.542630604323683E-1   -2.882799087999511E-1    1.909700117526406E-4   -5.958344277481248E-4    2.388364575794124E-4   -5.942595756091402E-4   -4.654588187752398E-1   -1.071011971966046E-1
 1.004818400817500E+10  -3.545780897382164E-1   -2.878898599999301E-1    2.005890971266899E-4   -5.896880072325210E-4    2.445547108224496E-4   -5.961358967339415E-4   -4.654647891209573E-1   -1.067502062431690E-1
 1.004819068720000E+10  -3.547885332537445E-1   -2.875704646156539E-1    2.058155757371964E-4   -5.611252885023572E-4    2.307126728388889E-4   -5.489590656173699E-4   -4.656049888773187E-1   -1.061513035921247E-1
 1.004819736622500E+10  -3.550178669281506E-1   -2.871281959442642E-1    1.902853712774053E-4   -5.960404773643450E-4    2.550787323893868E-4   -5.778927747712215E-4   -4.656609074411253E-1   -1.055340939580169E-1
 1.004820404525000E+10  -3.553962487615140E-1   -2.868909457397535E-1    2.109668316751607E-4   -5.803533600232227E-4    2.571037247569899E-4   -5.780970715055755E-4   -4.657930281395415E-1   -1.051318690476783E-1
 1.004821072427500E+10  -3.556259418652789E-1   -2.864258124790425E-1    1.907557513884580E-4   -5.877822729970887E-4    2.700403488502380E-4   -5.567862489996948E-4   -4.657927281863991E-1   -1.048119652286025E-1
 1.004821740330000E+10  -3.558643338824404E-1   -2.860910645083021E-1    2.170396186467580E-4   -5.627263540840106E-4    2.657473268175675E-4   -5.555388665760885E-4   -4.660127087822681E-1   -1.042684610392444E-1
 1.004822408232500E+10  -3.562851960855748E-1   -2.857432861229142E-1    1.902024845465247E-4   -5.642967952157955E-4    2.405715469482953E-4   -5.588754405190975E-4   -4.659295672185210E-1   -1.039427972076925E-1
 1.004823076135000E+10  -3.564254821254307E-1   -2.855063295967082E-1    2.206655474016724E-4   -5.620546564731012E-4    2.694035412014686E-4   -5.586175975832815E-4   -4.660831631934525E-1   -1.034020929109984E-1
 1.004823744037500E+10  -3.567736010383257E-1   -2.850291477272992E-1    2.032715882044699E-4   -5.502248559770294E-4    2.386460630884972E-4   -5.444866846830554E-4   -4.662671775834681E-1   -1.028637931841812E-1
 1.004824411940000E+10  -3.569365555680568E-1   -2.848260164012378E-1    1.867194797424375E-4   -5.364024129123823E-4    2.068069417497036E-4   -5.411827739904712E-4   -4.663361139633316E-1   -1.024100785135662E-1
 1.004825079842500E+10  -3.572527036562506E-1   -2.843594643218061E-1    1.937972949039269E-4   -5.565499524412801E-4    2.450429188559593E-4   -5.720175679265587E-4   -4.663503977429564E-1   -1.019535517559971E-1
 1.004825747745000E+10  -3.574413396095960E-1   -2.839231465871466E-1    2.130915807081007E-4   -5.588666176658533E-4    2.299486477939367E-4   -5.529453652218974E-4   -4.665869510911201E-1   -1.014862455894197E-1
 1.004826415647500E+10  -3.577280497250941E-1   -2.835629136131670E-1    2.025521009601313E-4   -5.176176036592620E-4    2.357466431879335E-4   -5.152911207595938E-4   -4.665795916922438E-1   -1.009172268641321E-1
 1.004827083550000E+10  -3.580194363566915E-1   -2.832543793412219E-1    2.113054707283242E-4   -5.270964432963546E-4    2.074376712504511E-4   -5.079461917786983E-4   -4.666273619283835E-1   -1.004941202065261E-1
 1.004827751452500E+10  -3.583161203878980E-1   -2.829469230001045E-1    1.814535265358771E-4   -5.255680659930764E-4    2.454219658162131E-4   -5.129979011625279E-4   -4.666040133025905E-1   -1.000827090462131E-1
 1.004828419355000E+10  -3.584976570271505E-1   -2.824966233655935E-1    1.793886005304728E-4   -5.220852607154775E-4    2.689865125906784E-4   -5.392140137710134E-4   -4.667645819406047E-1   -9.977251262897839E-2
 1.004829087257500E+10  -3.587083848332211E-1   -2.822921816534900E-1    1.805577551028809E-4   -5.147001675055868E-4    2.277768842223509E-4   -4.837396642359095E-4   -4.669289901776387E-1   -9.921725011168990E-2
 1.004829755160000E+10  -3.591334935736294E-1   -2.818102943233040E-1    2.000644587648778E-4   -5.229279737580328E-4    2.241702984870837E-4   -5.088259170682163E-4   -4.669534840478484E-1   -9.874281367710812E-2
 1.004830423062500E+10  -3.593172168037916E-1   -2.814694279842671E-1    1.926107106317884E-4   -5.097038327956433E-4    2.481318801014178E-4   -5.247787497096904E-4   -4.671397490981050E-1   -9.821557823123654E-2
 1.004831090965000E+10  -3.595881910224717E-1   -2.812132795500112E-1    1.365377869260800E-4   -4.974467382680581E-4    2.290025625827729E-4   -5.061693850084485E-4   -4.671625184638849E-1   -9.779872187487618E-2
 1.004831758867500E+10  -3.597427865482168E-1   -2.806858930389710E-1    1.817830075346642E-4   -4.815352622189570E-4    2.018252049804908E-4   -5.118967343067617E-4   -4.672771617310651E-1   -9.709890525958016E-2
 1.004832426770000E+10  -3.602177429832553E-1   -2.803811904693863E-1    1.616050837045992E-4   -5.024687609183560E-4    2.280193676154206E-4   -4.826844807793483E-4   -4.671743741601466E-1   -9.656588410265493E-2
 1.004833094672500E+10  -3.603146009950119E-1   -2.800390365712280E-1    1.755702911684113E-4   -5.162495421633978E-4    1.975130203835369E-4   -4.927197128025800E-4   -4.673232148666878E-1   -9.627551928011710E-2
 1.004833762575000E+10  -3.606268915707225E-1   -2.796714113120516E-1    1.902674839800088E-4   -4.887947410924051E-4    1.909948061100074E-4   -4.547641346491964E-4   -4.674252975569904E-1   -9.573619893291963E-2
 1.004834430477500E+10  -3.609185944797804E-1   -2.793377651154220E-1    1.700496667173717E-4   -4.655715127060662E-4    2.002590023571383E-4   -4.800629848146486E-4   -4.673765810382381E-1   -9.529151746771670E-2
 1.004835098380000E+10  -3.612028945910359E-1   -2.789813051746318E-1    1.906897649422315E-4   -4.822050240622884E-4    2.097655423037987E-4   -4.765056176212741E-4   -4.675093737895692E-1   -9.475459895066668E-2
 1.004835766282500E+10  -3.613688639031267E-1   -2.786989830037751E-1    1.834665544899276E-4   -5.029589397226199E-4    2.079169180549538E-4   -4.920665272445232E-4   -4.676552199627016E-1   -9.417251507193947E-2
 1.004836434185000E+10  -3.616325804040397E-1   -2.784478388276947E-1    1.729722464417799E-4   -4.712658550667406E-4    2.256503016428293E-4   -4.441859266301564E-4   -4.677726938626606E-1   -9.376809848530829E-2
 1.004837102087500E+10  -3.617872592477623E-1   -2.779313189663699E-1    1.794198734446492E-4   -4.886597548691450E-4    2.020056452488348E-4   -4.672201325814251E-4   -4.677801601996676E-1   -9.330490107369756E-2
 1.004837769990000E+10  -3.621945465887887E-1   -2.775112137374108E-1    1.868075397399519E-4   -4.436143694770418E-4    2.227952447339491E-4   -4.518305705329335E-4   -4.678505886962895E-1   -9.289294260285162E-2
 1.004838437892500E+10  -3.625341401771839E-1   -2.772112303060342E-1    1.589083404878248E-4   -4.572651741577625E-4    2.106188384393713E-4   -4.696744980069217E-4   -4.678711178600782E-1   -9.242912979768955E-2
 1.004839105795000E+10  -3.626240374047671E-1   -2.769606531814465E-1    1.760355428764571E-4   -4.319670133754086E-4    2.231265646979892E-4   -4.677372115913584E-4   -4.679868947167607E-1   -9.200062021448999E-2
 1.004839773697500E+10  -3.629635907489162E-1   -2.763622879462364E-1    1.802248035071404E-4   -4.456088152980675E-4    2.038625702337736E-4   -4.265578688290881E-4   -4.679911806608374E-1   -9.147814126381738E-2
 1.004840441600000E+10  -3.631520494715047E-1   -2.761654203106649E-1    1.880796268144802E-4   -4.195634225523393E-4    2.245967946406079E-4   -4.287248144700534E-4   -4.682803609057498E-1   -9.106433768796773E-2
 1.004841109502500E+10  -3.633683931853162E-1   -2.757640949420351E-1    2.031099055766481E-4   -4.342855215765246E-4    1.932178983310448E-4   -4.304288082748004E-4   -4.683006618947639E-1   -9.069091870163642E-2
 1.004841777405000E+10  -3.637526430910170E-1   -2.754484063514286E-1    1.656622889980135E-4   -4.406736725022904E-4    2.112801852133298E-4   -4.324647176668637E-4   -4.681444514154636E-1   -9.003353047640061E-2
 1.004842445307500E+10  -3.640946474527110E-1   -2.750280920087120E-1    1.521999035020891E-4   -3.934241746226192E-4    2.167440696586491E-4   -4.120596845238198E-4   -4.682697425826723E-1   -8.952568803115432E-2
 1.004843113210000E+10  -3.640347965710625E-1   -2.747798446813536E-1    1.970403565281194E-4   -3.983056094039530E-4    1.764780707942623E-4   -4.334475495225779E-4   -4.683606983535430E-1   -8.901305660770753E-2
 1.004843781112500E+10  -3.644994052992003E-1   -2.744357693358987E-1    1.766130145282313E-4   -4.142482946097037E-4    2.008021752516531E-4   -4.090893255659541E-4   -4.685498025261906E-1   -8.858716908356321E-2
 1.004844449015000E+10  -3.647846926759969E-1   -2.740245018745363E-1    1.808075344889120E-4   -4.215877821414803E-4    1.828690601994818E-4   -3.869243920478090E-4   -4.685859881680202E-1   -8.804535536418968E-2
 1.004845116917500E+10  -3.650901128731240E-1   -2.736113518464971E-1    1.673586628942570E-4   -4.158196481501007E-4    1.766429799345148E-4   -4.050071498411272E-4   -4.685898870002188E-1   -8.769993731013849E-2
 1.004845784820000E+10  -3.652508411775605E-1   -2.732868182544476E-1    1.462693610979873E-4   -3.898835769821846E-4    1.950053780764637E-4   -3.905724652682331E-4   -4.687134938197516E-1   -8.705806877543171E-2
 1.004846452722500E+10  -3.656252903678953E-1   -2.730205529369931E-1    1.717029265847354E-4   -3.763091310531681E-4    2.012821111685089E-4   -3.809469258558512E-4   -4.688369056262388E-1   -8.652332358453796E-2
 1.004847120625000E+10  -3.656948966691789E-1   -2.724630349065333E-1    1.711761261490437E-4   -3.896198208205966E-4    2.145147667675227E-4   -3.799558509395362E-4   -4.689239691125661E-1   -8.601243072343566E-2
 1.004847788527500E+10  -3.659600379510257E-1   -2.721633897877783E-1    1.658381862162145E-4   -3.572050551130982E-4    1.947959503752018E-4   -3.843491110442503E-4   -4.689840922794046E-1   -8.568027265640303E-2
 1.004848456430000E+10  -3.662836822665470E-1   -2.718420313192567E-1    1.710030264031357E-4   -3.615075332809343E-4    1.967266589673050E-4   -3.440682362116176E-4   -4.689487210755611E-1   -8.498403895993632E-2
 1.004849124332500E+10  -3.664380687370387E-1   -2.714225238287118E-1    1.804344869584663E-4   -3.377170084223996E-4    1.797340904382264E-4   -3.698678650685318E-4   -4.690473996421826E-1   -8.463110843046957E-2
 1.004849792235000E+10  -3.667871070546203E-1   -2.711416444096959E-1    1.526412029511989E-4   -3.376104785858288E-4    1.819813039725744E-4   -3.226034866032232E-4   -4.690578957776581E-1   -8.405225585526645E-2
 1.004850460137500E+10  -3.670453096664865E-1   -2.706281025940043E-1    1.773170700031419E-4   -3.486921165894051E-4    2.299065774756757E-4   -3.296407133821608E-4   -4.689863222183929E-1   -8.347077368852526E-2
 1.004851128040000E+10  -3.673316529148480E-1   -2.704720619404493E-1    1.658058305378565E-4   -3.256534924075480E-4    2.000234267009448E-4   -3.412100083664350E-4   -4.692183970816803E-1   -8.312255570408547E-2
 1.004851795942500E+10  -3.674145957753084E-1   -2.700814374116239E-1    1.835521041877547E-4   -3.132045073263970E-4    1.861577777327019E-4   -3.326508181296869E-4   -4.694129392158938E-1   -8.259019243143240E-2
 1.004852463845000E+10  -3.676947368920262E-1   -2.696658236571450E-1    1.424980636769941E-4   -3.095830629994505E-4    1.835941427195996E-4   -3.245333577789154E-4   -4.693928250912017E-1   -8.196191512974525E-2
 1.004853131747500E+10  -3.679813466084260E-1   -2.692894846489773E-1    1.704844529542903E-4   -3.304875894196696E-4    2.037037120696920E-4   -2.944004504064384E-4   -4.693794220518632E-1   -8.154033967243760E-2
 1.004853799650000E+10  -3.681757327422567E-1   -2.689345125106412E-1    1.825892975236057E-4   -3.335832248316954E-4    1.740800734778923E-4   -3.058570399174173E-4   -4.693736180204049E-1   -8.102948804557368E-2
 1.004854467552500E+10  -3.685151345801231E-1   -2.684800234337300E-1    1.951428010706459E-4   -2.984767509291802E-4    1.856152312506957E-4   -2.623274803521005E-4   -4.695839062207902E-1   -8.057670364982081E-2
 1.004855135455000E+10  -3.687492041619089E-1   -2.682437889564421E-1    1.397281419233950E-4   -2.980285404446533E-4    2.103221797179719E-4   -3.000935660672139E-4   -4.695520137789801E-1   -8.004505201497809E-2
 1.004855803357500E+10  -3.690029913896753E-1   -2.678386447866482E-1    1.850924038291759E-4   -3.103840582497952E-4    1.639430716407059E-4   -2.969429223582340E-4   -4.695042934798119E-1   -7.958919955034779E-2
 1.004856471260000E+10  -3.692568160599856E-1   -2.674109747541571E-1    1.665131262877803E-4   -2.829755182605660E-4    1.885271039751686E-4   -2.652509598421630E-4   -4.697172820950232E-1   -7.908085698623681E-2
 1.004857139162500E+10  -3.694119967567164E-1   -2.671273603614119E-1    1.699297248806148E-4   -2.485387170679549E-4    1.839843095680135E-4   -2.767802108000902E-4   -4.696972578158266E-1   -7.863667854949506E-2
 1.004857807065000E+10  -3.696092074564791E-1   -2.667488443293939E-1    1.722633645564761E-4   -2.683089879635228E-4    1.836340819455960E-4   -2.425840386331860E-4   -4.698197849817052E-1   -7.816738593193943E-2
 1.004858474967500E+10  -3.700832112025970E-1   -2.663651461901455E-1    1.387258245692515E-4   -2.709840874595915E-4    2.091944024349700E-4   -2.410648013980443E-4   -4.697142015895689E-1   -7.751719776950454E-2
 1.004859142870000E+10  -3.702071074269216E-1   -2.660296976469284E-1    1.618042287777186E-4   -2.385208290763425E-4    1.655759558181080E-4   -2.574025901967510E-4   -4.697884415361047E-1   -7.701245279487551E-2
 1.004859810772500E+10  -3.705057923320919E-1   -2.656204136206611E-1    1.813403067276817E-4   -2.427711184280956E-4    1.765753150453663E-4   -2.326709075807479E-4   -4.697442593687483E-1   -7.651833559916793E-2
 1.004860478675000E+10  -3.707670063343253E-1   -2.653559877538120E-1    1.860991415699495E-4   -2.203582798809735E-4    1.771381293732900E-4   -2.451722258506036E-4   -4.701185393026806E-1   -7.600430371747717E-2
 1.004861146577500E+10  -3.709977618347070E-1   -2.649083895121479E-1    1.644003520032746E-4   -2.491949200049881E-4    1.607893529859657E-4   -2.220662883038104E-4   -4.700659552621916E-1   -7.545357128426597E-2
 1.004861814480000E+10  -3.713153064272066E-1   -2.645240365121345E-1    1.687190093189480E-4   -1.910804033088291E-4    1.846922009598807E-4   -2.164350769776992E-4   -4.702581344815600E-1   -7.499387411311285E-2
 1.004862482382500E+10  -3.714576543707647E-1   -2.641998211462958E-1    1.813523163295978E-4   -2.110090952301808E-4    1.675041555878727E-4   -2.165919823044793E-4   -4.700972661422997E-1   -7.454617141895649E-2
 1.004863150285000E+10  -3.716971954949279E-1   -2.637970465748828E-1    1.496448806756044E-4   -1.893111938072000E-4    1.880646937141609E-4   -2.006086422823177E-4   -4.700529665822399E-1   -7.386407615380795E-2
 1.004863818187500E+10  -3.718992583548615E-1   -2.634435801998692E-1    1.540974873757684E-4   -1.698050235821937E-4    1.604909568883181E-4   -1.855761653598463E-4   -4.702791813643000E-1   -7.345384658871475E-2
 1.004864486090000E+10  -3.721205660844275E-1   -2.630706165324462E-1    1.238819761750192E-4   -1.656421422514280E-4    1.734691301104948E-4   -1.669155032285079E-4   -4.701650897514751E-1   -7.299742496372801E-2
 1.004865153992500E+10  -3.723825924394111E-1   -2.625916893985009E-1    1.953202277886766E-4   -1.611172315866343E-4    1.848324881134151E-4   -1.741424549906408E-4   -4.703482627637823E-1   -7.241687715424054E-2
 1.004865821895000E+10  -3.725683181493038E-1   -2.623788990647442E-1    1.510553438492404E-4   -1.583333323386709E-4    1.996744014504114E-4   -1.299779110967173E-4   -4.702979902796116E-1   -7.168934183138718E-2
 1.004866489797500E+10  -3.729755568462393E-1   -2.620420707815789E-1    1.657854979453840E-4   -1.530221227622881E-4    1.962122683309540E-4   -1.293104138153674E-4   -4.703873965405657E-1   -7.118276830157587E-2
 1.004867157700000E+10  -3.732462982342722E-1   -2.615621818448543E-1    1.584946766240342E-4   -1.429432710282984E-4    1.771978764226422E-4   -1.296777865809230E-4   -4.704702088228038E-1   -7.066052592491991E-2
 1.004867825602500E+10  -3.733433946570674E-1   -2.612911392032694E-1    1.577424798536211E-4   -1.345896724999298E-4    1.983747269545348E-4   -9.514286551644118E-5   -4.703700504579502E-1   -7.021131948681135E-2
 1.004868493505000E+10  -3.737133432398014E-1   -2.607661434464594E-1    1.349339460287933E-4   -1.258654818608480E-4    1.678420286118919E-4   -9.079282380188669E-5   -4.705486539624495E-1   -6.968538057531616E-2
 1.004869161407500E+10  -3.738232016396984E-1   -2.605124327971234E-1    1.665543190530372E-4   -9.543651253461471E-5    1.619337779159823E-4   -9.201401462289147E-5   -4.705377616654877E-1   -6.915982219211250E-2
 1.004869829310000E+10  -3.741033343032498E-1   -2.601699795194118E-1    1.948595752978522E-4   -7.485321640180032E-5    1.621329371803035E-4   -9.712736101933597E-5   -4.705860576513118E-1   -6.865141247274972E-2
 1.004870497212500E+10  -3.743256221630898E-1   -2.598091671848736E-1    1.822181570953544E-4   -8.140945495851408E-5    1.725316888497554E-4   -9.132146532501680E-5   -4.706471767413632E-1   -6.822423301547464E-2
 1.004871165115000E+10  -3.745838005280170E-1   -2.593925233308253E-1    1.644399080024096E-4   -8.547165671408060E-5    1.799289308897226E-4   -8.651803504172386E-5   -4.705785296243939E-1   -6.757333819788060E-2
 1.004871833017500E+10  -3.748310605202339E-1   -2.590493977767541E-1    1.478188270151421E-4   -5.305485684211943E-5    1.812015263009376E-4   -5.935599608414120E-5   -4.707168063218069E-1   -6.696645887869040E-2
 1.004872500920000E+10  -3.750165379502071E-1   -2.586651262843569E-1    1.768308637178716E-4   -5.527132847598238E-5    1.733602314135109E-4   -4.353267697141189E-5   -4.706540409280219E-1   -6.633093593248222E-2
 1.004873168822500E+10  -3.753188161392411E-1   -2.581960439511891E-1    1.612173059466847E-4   -1.930895009409320E-5    1.373550660206659E-4   -2.343967780540016E-5   -4.707795599921107E-1   -6.598471069524038E-2
 1.004873836725000E+10  -3.754726720548136E-1   -2.578822740812503E-1    1.802826272692790E-4   -5.422788203135399E-5    1.739144213402589E-4   -1.583937118995354E-5   -4.707096127912960E-1   -6.535485948236439E-2
