#  HZ   S   RI   R     50.00 
! Rohde & Schwarz Vector Network Analyzer 
! Rohde-Schwarz,ZNB20-2Port,1311601062101988,3.16
! Created: UTC 3/21/2024, 1:15:18 AM
! freq[Hz]                re:S11                  im:S11                  re:S21                  im:S21                  re:S12                  im:S12                  re:S22                  im:S22
 1.004816594000000E+10  -3.537364431728399E-1   -2.888762990501310E-1    2.092235943047037E-4   -6.091852047342282E-4    2.606114722623862E-4   -6.052693284653653E-4   -4.651125585554721E-1   -1.078709160183439E-1
 1.004817249777500E+10  -3.539963779050194E-1   -2.884743000991388E-1    1.979739691040134E-4   -5.914113942370190E-4    2.327129128757150E-4   -5.964579063408365E-4   -4.654261926127712E-1   -1.074706352466946E-1
 1.004817905555000E+10  -3.543521673262194E-1   -2.881898649969482E-1    1.792811799772392E-4   -6.046548398017569E-4    2.567783061030588E-4   -5.822954454008160E-4   -4.653681260482675E-1   -1.069291591777582E-1
 1.004818561332500E+10  -3.545290345422260E-1   -2.877621882006469E-1    1.827107736209363E-4   -6.051582755687032E-4    2.631665456560070E-4   -5.814753865433346E-4   -4.655138634863670E-1   -1.066757517604310E-1
 1.004819217110000E+10  -3.548091862146138E-1   -2.876085529081645E-1    1.916326869572248E-4   -6.025119586927787E-4    2.603679910999186E-4   -5.573263191090993E-4   -4.656046302881313E-1   -1.059978883645157E-1
 1.004819872887500E+10  -3.550371144958543E-1   -2.871414054781590E-1    1.976512052675911E-4   -5.724373603941127E-4    2.697875311675024E-4   -5.595014918661568E-4   -4.656934955993678E-1   -1.056542959049501E-1
 1.004820528665000E+10  -3.552961377396995E-1   -2.867877477031534E-1    2.184095939128947E-4   -6.124656191768957E-4    2.398849475244751E-4   -5.868967542098852E-4   -4.657598678966512E-1   -1.051338121909298E-1
 1.004821184442500E+10  -3.556107271074185E-1   -2.864835138898096E-1    2.167396972695638E-4   -5.534443932462982E-4    2.274052013586049E-4   -5.688948706633587E-4   -4.658446122427974E-1   -1.048010198718956E-1
 1.004821840220000E+10  -3.558820826761106E-1   -2.860055680138257E-1    1.995849188172680E-4   -6.048103324315554E-4    2.613198225986270E-4   -5.335247307295801E-4   -4.658137896908612E-1   -1.041071596405602E-1
 1.004822495997500E+10  -3.560895429697172E-1   -2.858025797046091E-1    2.256031211025320E-4   -5.633082197490012E-4    2.537403795011287E-4   -5.440285278180431E-4   -4.660520751518060E-1   -1.038624227622493E-1
 1.004823151775000E+10  -3.563615436199405E-1   -2.853527780786259E-1    2.203212217192503E-4   -5.880188112006355E-4    2.264283224405081E-4   -5.574453537724065E-4   -4.661160209939977E-1   -1.033654740380593E-1
 1.004823807552500E+10  -3.567034889503751E-1   -2.851089699935853E-1    1.844805405616726E-4   -5.469218639319627E-4    2.234180524298040E-4   -5.363790564362178E-4   -4.663064134058956E-1   -1.029898835214386E-1
 1.004824463330000E+10  -3.569274021079748E-1   -2.846236195515336E-1    1.960608331762474E-4   -5.389338697743804E-4    2.292169919982307E-4   -5.373714897421513E-4   -4.662505009407882E-1   -1.024881966260799E-1
 1.004825119107500E+10  -3.570691552709539E-1   -2.844013062991452E-1    2.033736272232073E-4   -5.385123406869875E-4    2.384907280680376E-4   -5.656109936866178E-4   -4.662449917547360E-1   -1.019490272749018E-1
 1.004825774885000E+10  -3.573376554144397E-1   -2.839122000618998E-1    2.121708879140537E-4   -5.543563128127681E-4    2.390351503546495E-4   -5.457074953662257E-4   -4.664083768028973E-1   -1.014295981910902E-1
 1.004826430662500E+10  -3.576505705393373E-1   -2.837435684347180E-1    2.039724637965961E-4   -5.636180312593927E-4    2.300946901817437E-4   -5.531890996740831E-4   -4.665017133005337E-1   -1.011284583048480E-1
 1.004827086440000E+10  -3.579817624021904E-1   -2.832347095024412E-1    1.644177544321212E-4   -5.499776315089366E-4    2.055202423171173E-4   -5.340270209691538E-4   -4.667347272585856E-1   -1.007176877469130E-1
 1.004827742217500E+10  -3.581708358775494E-1   -2.830546687579348E-1    1.924252491646550E-4   -5.513010685792659E-4    2.364531123837943E-4   -5.408979753913280E-4   -4.666775360642604E-1   -1.000823872994924E-1
 1.004828397995000E+10  -3.583225296145335E-1   -2.826964254632967E-1    1.833887425208833E-4   -5.271309350245892E-4    2.352715615675601E-4   -5.139591858177939E-4   -4.667227532125157E-1   -9.966066021086116E-2
 1.004829053772500E+10  -3.586639640095137E-1   -2.823740244106957E-1    1.660761730971768E-4   -5.335142081648055E-4    2.234724863345199E-4   -5.234392973132674E-4   -4.669838657390754E-1   -9.918419177779986E-2
 1.004829709550000E+10  -3.590061606655008E-1   -2.817568077852177E-1    2.079011963582675E-4   -5.250697619132684E-4    2.212852573203065E-4   -5.125819821824430E-4   -4.670131323784941E-1   -9.874282117230285E-2
 1.004830365327500E+10  -3.590663504738906E-1   -2.816371290559322E-1    2.059577168783023E-4   -5.441402225532795E-4    2.279832667117069E-4   -4.966442046217829E-4   -4.670346853306866E-1   -9.818231991756309E-2
 1.004831021105000E+10  -3.593795998508295E-1   -2.812796863908018E-1    1.979938094790822E-4   -5.353371054249693E-4    2.389629023085514E-4   -5.076113439709557E-4   -4.670916649403659E-1   -9.782746766534228E-2
 1.004831676882500E+10  -3.597387829194951E-1   -2.808574620746668E-1    1.671031662481235E-4   -5.153406174653591E-4    2.055826914717248E-4   -5.130544585205792E-4   -4.670806622468888E-1   -9.742338884424505E-2
 1.004832332660000E+10  -3.600775772765062E-1   -2.805485680926305E-1    1.841646570501018E-4   -4.712969360554962E-4    2.198303862734236E-4   -4.983791398531295E-4   -4.671867829473804E-1   -9.682887508889028E-2
 1.004832988437500E+10  -3.602751694720090E-1   -2.802699262946451E-1    1.982082905698891E-4   -5.081289611516893E-4    2.412011576298356E-4   -5.087471466193140E-4   -4.671960835269848E-1   -9.653789902532828E-2
 1.004833644215000E+10  -3.605069730121710E-1   -2.797348534316655E-1    1.889523278202255E-4   -4.888860963164009E-4    2.087466639990160E-4   -4.907667737006637E-4   -4.673832242074794E-1   -9.594239808328518E-2
 1.004834299992500E+10  -3.606901860831002E-1   -2.795269553727674E-1    1.822611482826061E-4   -4.831492847987103E-4    2.336879691832449E-4   -4.911989227082805E-4   -4.674171716095153E-1   -9.550260024296932E-2
 1.004834955770000E+10  -3.611426966379107E-1   -2.791162408037975E-1    1.652540206702553E-4   -4.831470457791130E-4    2.180276718897954E-4   -4.811465309246517E-4   -4.675573892690355E-1   -9.489426773699655E-2
 1.004835611547500E+10  -3.612983842840907E-1   -2.788419497218497E-1    1.650306680350845E-4   -5.046202064472267E-4    2.256256645657859E-4   -4.580017321577813E-4   -4.676770048514853E-1   -9.457452566968165E-2
 1.004836267325000E+10  -3.614563425487199E-1   -2.784702025194618E-1    1.901179391686927E-4   -4.711608015072077E-4    2.299760421428331E-4   -4.453048535670030E-4   -4.677817662597360E-1   -9.414028821290644E-2
 1.004836923102500E+10  -3.617919684811958E-1   -2.781169827486861E-1    1.850236506339613E-4   -4.911734599732978E-4    2.236440096684776E-4   -4.859742354510859E-4   -4.677706680446942E-1   -9.365060514346894E-2
 1.004837578880000E+10  -3.621443240158980E-1   -2.778311467982233E-1    1.868483834926689E-4   -4.751616934379226E-4    2.217679141114524E-4   -4.601988396125937E-4   -4.678513358319438E-1   -9.309303991340395E-2
 1.004838234657500E+10  -3.622451437130909E-1   -2.773585872906895E-1    1.526702123339437E-4   -4.636232013471642E-4    2.104154158528459E-4   -4.700136287786686E-4   -4.678858851868002E-1   -9.266473807117032E-2
 1.004838890435000E+10  -3.626258904280245E-1   -2.770907381806339E-1    1.842752873196123E-4   -4.431122937704486E-4    1.888367407587025E-4   -4.439175686730560E-4   -4.681031920506742E-1   -9.213483356253808E-2
 1.004839546212500E+10  -3.627505083196165E-1   -2.767687047188845E-1    1.906166808759254E-4   -4.298201772913940E-4    2.196931798441414E-4   -4.667638100251231E-4   -4.680956736567118E-1   -9.173675040268789E-2
 1.004840201990000E+10  -3.630586547938269E-1   -2.764511982282048E-1    1.886483595646370E-4   -4.505426428536557E-4    1.738785627311601E-4   -4.352816004768264E-4   -4.682153548954917E-1   -9.128726969257776E-2
 1.004840857767500E+10  -3.632505324917121E-1   -2.759873357934663E-1    1.759998842473499E-4   -4.322289988679211E-4    1.868839886557435E-4   -4.266935418079616E-4   -4.681231961033123E-1   -9.072728595717730E-2
 1.004841513545000E+10  -3.635202675163952E-1   -2.754786907746586E-1    1.522660073449678E-4   -4.341694197789419E-4    2.154710294440838E-4   -4.493880940678537E-4   -4.681706409063617E-1   -9.026356949654153E-2
 1.004842169322500E+10  -3.638788341729357E-1   -2.751964740240704E-1    1.842867084248075E-4   -4.258748399924451E-4    1.852127489793031E-4   -4.317888679809818E-4   -4.682176200831654E-1   -8.970482887182270E-2
 1.004842825100000E+10  -3.640656375506454E-1   -2.748616248573364E-1    1.668073465601363E-4   -4.372121486484117E-4    2.119979639955951E-4   -3.999727265992978E-4   -4.685002321532337E-1   -8.926949092512899E-2
 1.004843480877500E+10  -3.642375774474940E-1   -2.744831568422500E-1    1.511445986696256E-4   -4.083251897938005E-4    1.950128249130151E-4   -4.050191390771134E-4   -4.684741019774543E-1   -8.885160874859857E-2
 1.004844136655000E+10  -3.646368404693677E-1   -2.742134031706609E-1    1.733366285915442E-4   -4.125128005630096E-4    1.882958835935418E-4   -4.059511419450403E-4   -4.685778182159815E-1   -8.842215644525138E-2
 1.004844792432500E+10  -3.648108673864063E-1   -2.738288007496965E-1    1.772616872568868E-4   -4.098411155905150E-4    1.990638717706945E-4   -4.260899154868915E-4   -4.687583893663702E-1   -8.785802519611513E-2
 1.004845448210000E+10  -3.650148668719703E-1   -2.735193835558937E-1    1.710692798461007E-4   -4.094849357480866E-4    1.891601489730701E-4   -4.047132249237351E-4   -4.687651210865687E-1   -8.740198326701358E-2
 1.004846103987500E+10  -3.652774794804082E-1   -2.730163602098928E-1    1.593902789379068E-4   -3.983864194817747E-4    2.000043819692561E-4   -3.603982988983982E-4   -4.687389588943424E-1   -8.695848756804841E-2
 1.004846759765000E+10  -3.655730547240587E-1   -2.727167045700075E-1    1.721174993198067E-4   -3.960247408074457E-4    1.881735680047152E-4   -3.932426846266627E-4   -4.687896233341303E-1   -8.634649524244653E-2
 1.004847415542500E+10  -3.658447752984652E-1   -2.723364013558213E-1    1.847765685132094E-4   -4.006963748145750E-4    2.033182615584403E-4   -3.520487672699231E-4   -4.688168164749158E-1   -8.595783477254151E-2
 1.004848071320000E+10  -3.660163647577949E-1   -2.720426348388063E-1    1.822255957737338E-4   -3.951987514175465E-4    1.936028383388025E-4   -3.502986981921179E-4   -4.687912067185185E-1   -8.552786263252005E-2
 1.004848727097500E+10  -3.662807721310007E-1   -2.716745585664675E-1    1.858835623947680E-4   -3.697671268643462E-4    1.825532265315833E-4   -3.782124958979382E-4   -4.689478910123713E-1   -8.513285596584430E-2
 1.004849382875000E+10  -3.665137378183612E-1   -2.713407137254212E-1    1.885079757898274E-4   -3.607927139498940E-4    1.849898854442865E-4   -3.690167641814116E-4   -4.690230998848622E-1   -8.454033620721037E-2
 1.004850038652500E+10  -3.668003385974697E-1   -2.708763008104899E-1    1.821302371496273E-4   -3.736782955153381E-4    1.874306959891856E-4   -3.425590680705033E-4   -4.692155497229150E-1   -8.395214412015400E-2
 1.004850694430000E+10  -3.669626951651792E-1   -2.706826698439501E-1    1.570795083030761E-4   -3.497185640034813E-4    1.720811319931872E-4   -3.410502497065367E-4   -4.692119887585132E-1   -8.343769493096589E-2
 1.004851350207500E+10  -3.672949025996121E-1   -2.702830840685441E-1    1.749814204172593E-4   -3.504402092447685E-4    1.711548234033732E-4   -3.261398124130656E-4   -4.691394207345405E-1   -8.284654570563962E-2
 1.004852005985000E+10  -3.675562897697279E-1   -2.700277777938969E-1    1.716710739368904E-4   -3.311505359380512E-4    1.899587006997024E-4   -3.248340827161248E-4   -4.691945743384098E-1   -8.246478935383818E-2
 1.004852661762500E+10  -3.677405023355838E-1   -2.697323302943098E-1    1.728118707192953E-4   -3.173872447252470E-4    1.632692115167868E-4   -3.001304051907712E-4   -4.693800370406298E-1   -8.209509823914671E-2
 1.004853317540000E+10  -3.680724031705513E-1   -2.692234504025769E-1    1.548772670010737E-4   -3.236190013885366E-4    1.898643212450359E-4   -3.233750776346144E-4   -4.695224698358988E-1   -8.147245253613214E-2
 1.004853973317500E+10  -3.681531494739363E-1   -2.688208687322006E-1    1.516579896989109E-4   -3.233611533296408E-4    1.768896576508475E-4   -3.366623022340471E-4   -4.695185110984764E-1   -8.103747999297181E-2
 1.004854629095000E+10  -3.685067387288046E-1   -2.685362498774285E-1    1.385020414888273E-4   -2.984437469180714E-4    1.719749180456425E-4   -2.878251638920008E-4   -4.695734356485888E-1   -8.063857256897303E-2
 1.004855284872500E+10  -3.687409655140503E-1   -2.682076826049449E-1    1.703359245968288E-4   -3.164975334857460E-4    1.663811891975308E-4   -2.885212877233118E-4   -4.695049694132812E-1   -8.020036830068113E-2
 1.004855940650000E+10  -3.689873918236665E-1   -2.677803989328801E-1    1.777097598799244E-4   -2.886116443946404E-4    1.789476969431804E-4   -2.830383214617175E-4   -4.696007297740487E-1   -7.959349842054583E-2
 1.004856596427500E+10  -3.692142579989904E-1   -2.673941291417641E-1    1.549465234233452E-4   -2.699058649341593E-4    1.743331964938847E-4   -2.700424899394006E-4   -4.696409203662090E-1   -7.903746536938563E-2
 1.004857252205000E+10  -3.695315272786731E-1   -2.670755593126216E-1    1.664826106743788E-4   -2.875949883421650E-4    1.941245497719541E-4   -2.798608425546346E-4   -4.697765679841946E-1   -7.864580998083399E-2
 1.004857907982500E+10  -3.697125541609689E-1   -2.667645827071572E-1    1.647319716964359E-4   -2.680330260426942E-4    1.905131592958329E-4   -2.800442285054800E-4   -4.698765828836496E-1   -7.808734856620619E-2
 1.004858563760000E+10  -3.699765276219670E-1   -2.664300676014764E-1    1.643731197365976E-4   -2.649736706451183E-4    1.778442055980094E-4   -2.584896819915517E-4   -4.697908856347348E-1   -7.771482792533360E-2
 1.004859219537500E+10  -3.701390310996689E-1   -2.660783307754426E-1    1.638916484347799E-4   -2.646170951844830E-4    1.949067444433316E-4   -2.810628579143001E-4   -4.698607437526538E-1   -7.697540668968204E-2
 1.004859875315000E+10  -3.703871435424851E-1   -2.656421700850640E-1    1.834246566468320E-4   -2.367142967413203E-4    1.817487081086021E-4   -2.702311705683736E-4   -4.699557545628140E-1   -7.659978360506817E-2
 1.004860531092500E+10  -3.707335351733619E-1   -2.653516771162231E-1    1.601236113704251E-4   -2.597405894045862E-4    2.165715075876683E-4   -2.320299006099209E-4   -4.700375514226427E-1   -7.605850347046329E-2
 1.004861186870000E+10  -3.708304375080362E-1   -2.650535124617179E-1    1.504780794195761E-4   -2.352342395073613E-4    1.722226761888205E-4   -2.225095171815024E-4   -4.699652178318966E-1   -7.556437865571559E-2
 1.004861842647500E+10  -3.711687148137178E-1   -2.644722437830531E-1    1.775263619632699E-4   -1.982003062805593E-4    1.932940938251746E-4   -2.134671408116962E-4   -4.700084855300043E-1   -7.505576061803651E-2
 1.004862498425000E+10  -3.713703589471910E-1   -2.642030167438584E-1    1.556912618177950E-4   -2.331427480795803E-4    1.749632240314607E-4   -1.828838228604386E-4   -4.701722248714104E-1   -7.460139287735472E-2
 1.004863154202500E+10  -3.716994296136253E-1   -2.639067610912144E-1    1.630146039779472E-4   -2.102882781244646E-4    1.980775790032776E-4   -1.809438296192085E-4   -4.702205062600569E-1   -7.396069184487894E-2
 1.004863809980000E+10  -3.719848798055316E-1   -2.635802908723285E-1    1.780627874620612E-4   -1.884183804610267E-4    1.687474908886668E-4   -1.646812430311335E-4   -4.702309795337863E-1   -7.362052055066826E-2
 1.004864465757500E+10  -3.722446268382125E-1   -2.630563164455808E-1    1.717728160135365E-4   -1.813079303561171E-4    2.071054488439832E-4   -1.709857367568066E-4   -4.702654329345701E-1   -7.296949620886906E-2
 1.004865121535000E+10  -3.723988304050321E-1   -2.627507849929143E-1    1.646777268185847E-4   -1.639769874259018E-4    1.733190750163792E-4   -1.655085909370382E-4   -4.702083892350220E-1   -7.251730641175828E-2
 1.004865777312500E+10  -3.727260322967764E-1   -2.624201266306622E-1    1.535670565388998E-4   -2.123141329409517E-4    2.174640222595237E-4   -1.280657257620821E-4   -4.702490866718241E-1   -7.194591733411278E-2
 1.004866433090000E+10  -3.728526588925038E-1   -2.620103395434042E-1    1.821015766792845E-4   -1.573499767353953E-4    1.866595896978452E-4   -1.495337911090934E-4   -4.704014673755272E-1   -7.149711644082156E-2
 1.004867088867500E+10  -3.730697307315537E-1   -2.616123322180545E-1    1.559496778148577E-4   -1.601889154062662E-4    1.990411080620732E-4   -1.455387229815013E-4   -4.704547767461867E-1   -7.083166507844080E-2
 1.004867744645000E+10  -3.734906189375893E-1   -2.613744850004495E-1    1.882539440753448E-4   -1.629141915888285E-4    1.587046750592463E-4   -1.069414260512113E-4   -4.705406662525685E-1   -7.031572895848459E-2
 1.004868400422500E+10  -3.735609477780478E-1   -2.611083275496047E-1    1.608541209754563E-4   -1.250336797383489E-4    2.049023111311540E-4   -1.170913289878716E-4   -4.705473070825933E-1   -7.004943438081779E-2
 1.004869056200000E+10  -3.737727449481119E-1   -2.607131131537714E-1    1.767151108875204E-4   -8.063579788797780E-5    1.745744921361095E-4   -1.037869863803868E-4   -4.703310349976866E-1   -6.931689257284152E-2
 1.004869711977500E+10  -3.740265462362347E-1   -2.602653563089232E-1    1.523407298325616E-4   -1.230228956636730E-4    1.680001714057162E-4   -1.061445818000651E-4   -4.706302965150886E-1   -6.866751328499471E-2
 1.004870367755000E+10  -3.743101213444291E-1   -2.598766908484209E-1    1.476752453338361E-4   -9.757754092571021E-5    1.740443255978581E-4   -5.458131848395367E-5   -4.705645334261316E-1   -6.829638817331965E-2
 1.004871023532500E+10  -3.744958746733678E-1   -2.594431282011848E-1    1.450999962872677E-4   -8.276238383883153E-5    1.829155915364694E-4   -6.161407014357882E-5   -4.706530091538177E-1   -6.783994629371022E-2
 1.004871679310000E+10  -3.746635871724288E-1   -2.591643194672842E-1    1.807466913648960E-4   -5.922695056240568E-5    1.818419244486766E-4   -6.162646051678625E-5   -4.705990463380075E-1   -6.734139706144159E-2
 1.004872335087500E+10  -3.750383543577820E-1   -2.587732323491880E-1    1.641369195283778E-4   -1.960228685065509E-5    1.652338381813183E-4   -3.043639935115102E-5   -4.706854654294878E-1   -6.679518839115392E-2
 1.004872990865000E+10  -3.751734392939085E-1   -2.584824071849625E-1    1.888950402389858E-4   -4.741837123183799E-5    1.654103434830674E-4   -4.329577425179789E-5   -4.706497028792183E-1   -6.631205946347563E-2
 1.004873646642500E+10  -3.754580819469371E-1   -2.580598086766277E-1    1.467489767296283E-4   -3.658686985597128E-5    1.676387160568576E-4    1.707820693726302E-5   -4.706784769355828E-1   -6.555582742670821E-2
 1.004874302420000E+10  -3.757921875361591E-1   -2.577126671402056E-1    1.693668002990330E-4   -3.795307333850380E-5    1.522940209345482E-4   -4.057468289227830E-6   -4.707411866762128E-1   -6.514168836793620E-2
 1.004874958197500E+10  -3.759265707077898E-1   -2.571702530133118E-1    1.628651178893950E-4   -3.727334059702389E-5    1.839186841830274E-4    1.567797052670782E-5   -4.707353587261026E-1   -6.454678285681756E-2
 1.004875613975000E+10  -3.760557407922887E-1   -2.569741147819268E-1    1.794452126582481E-4   -1.792677276018548E-5    1.668996583044164E-4    1.714034148637087E-6   -4.708063263018676E-1   -6.386522334263860E-2
