#  HZ   S   RI   R     50.00 
! Rohde & Schwarz Vector Network Analyzer 
! Rohde-Schwarz,ZNB20-2Port,1311601062101988,3.16
! Created: UTC 3/21/2024, 1:15:38 AM
! freq[Hz]                re:S11                  im:S11                  re:S21                  im:S21                  re:S12                  im:S12                  re:S22                  im:S22
 1.004823832700000E+10  -3.563846012248815E-1   -2.853989075736994E-1    2.028526499300611E-4   -6.018745254987269E-4    2.424749772438198E-4   -5.399620878426411E-4   -4.662353353973904E-1   -1.031262625808774E-1
 1.004824462160000E+10  -3.567780191997467E-1   -2.848276908333833E-1    2.222163195737891E-4   -5.944491715993143E-4    2.356182734214518E-4   -5.632202725381089E-4   -4.663895424599310E-1   -1.027920607586773E-1
 1.004825091620000E+10  -3.570789281331451E-1   -2.846163618491659E-1    2.158770539666789E-4   -5.520295495656404E-4    2.556621320214920E-4   -5.583700306094267E-4   -4.662927570630355E-1   -1.022595674007831E-1
 1.004825721080000E+10  -3.572486887112352E-1   -2.844252946505765E-1    2.118615050340685E-4   -5.533684193883901E-4    2.211760721339078E-4   -5.769349975762255E-4   -4.665190126815834E-1   -1.019815149281275E-1
 1.004826350540000E+10  -3.575744329448566E-1   -2.839371492410804E-1    1.642799032551976E-4   -5.395425806987885E-4    2.205383075703394E-4   -5.484516624992653E-4   -4.666059596133323E-1   -1.015207040166140E-1
 1.004826980000000E+10  -3.576451678263257E-1   -2.836104540015189E-1    2.073965948768709E-4   -5.542030987251077E-4    2.396270025468639E-4   -5.673843286753820E-4   -4.666170483283827E-1   -1.010081371633665E-1
 1.004827609460000E+10  -3.579508088995346E-1   -2.832109550455794E-1    1.935314956480218E-4   -5.865068305889498E-4    2.166402766034621E-4   -5.288198896807630E-4   -4.666933061657851E-1   -1.005288915298433E-1
 1.004828238920000E+10  -3.581615586142197E-1   -2.830638157455198E-1    1.957003564867127E-4   -5.477993416769997E-4    2.317331000443739E-4   -5.550690097275076E-4   -4.666645221369211E-1   -1.001002059523312E-1
 1.004828868380000E+10  -3.584951795844389E-1   -2.826884849291953E-1    1.924529918948588E-4   -5.289638505256969E-4    2.354244965589084E-4   -5.132383458679055E-4   -4.668308249815732E-1   -9.962273952310631E-2
 1.004829497840000E+10  -3.586648000926533E-1   -2.821878218924138E-1    1.967186795765141E-4   -5.382087428167794E-4    2.219859343095381E-4   -5.146893785668164E-4   -4.667543405281102E-1   -9.931643354970343E-2
 1.004830127300000E+10  -3.589064660531621E-1   -2.820045177561132E-1    1.724119705062117E-4   -5.422156301850510E-4    2.080663143816014E-4   -5.287709922277538E-4   -4.669862615664767E-1   -9.890283022339964E-2
 1.004830756760000E+10  -3.591921863716403E-1   -2.815034065874815E-1    1.486752626123374E-4   -5.484232236072799E-4    2.238145582078274E-4   -5.130253854550155E-4   -4.669179597598423E-1   -9.834347721157784E-2
 1.004831386220000E+10  -3.593364836904662E-1   -2.812898955473435E-1    2.002163831962112E-4   -5.201525246746164E-4    2.248389535812419E-4   -5.114112364387505E-4   -4.671085915510668E-1   -9.794409177447434E-2
 1.004832015680000E+10  -3.596798569737578E-1   -2.809612265112910E-1    1.798809141089402E-4   -5.226682421392890E-4    2.345023231425266E-4   -5.149092638010393E-4   -4.671543912007060E-1   -9.762530824139067E-2
 1.004832645140000E+10  -3.598776707727709E-1   -2.807069873155831E-1    1.838315473548474E-4   -5.104796459244146E-4    2.393685930365383E-4   -5.386147191198461E-4   -4.672603733779738E-1   -9.698894994890302E-2
 1.004833274600000E+10  -3.601126206005390E-1   -2.803842190517208E-1    1.982278594488367E-4   -4.898779046938510E-4    2.134218760846073E-4   -5.459135679130857E-4   -4.672375389324359E-1   -9.657930500862047E-2
 1.004833904060000E+10  -3.604868702131973E-1   -2.799462192741945E-1    2.106472187848308E-4   -4.951379433389320E-4    2.087788049550028E-4   -4.557016972243074E-4   -4.673417975163247E-1   -9.600482254255144E-2
 1.004834533520000E+10  -3.607025959072255E-1   -2.796074857663337E-1    1.811728250913164E-4   -4.947089171145451E-4    2.106322294897660E-4   -5.055109747070812E-4   -4.675485593590961E-1   -9.558371430724681E-2
 1.004835162980000E+10  -3.610354259849964E-1   -2.791611965060219E-1    1.797494323924516E-4   -4.898430018414260E-4    2.105898317898028E-4   -5.077934893143581E-4   -4.674855539911759E-1   -9.532031510397505E-2
 1.004835792440000E+10  -3.611964369774613E-1   -2.790666618598789E-1    1.569999774344610E-4   -5.113044669465025E-4    2.187769912227450E-4   -4.703372265990356E-4   -4.677647149421591E-1   -9.483319214332976E-2
 1.004836421900000E+10  -3.614390189175964E-1   -2.786118577326738E-1    1.784600215664937E-4   -5.055539706161073E-4    2.120140294277877E-4   -4.877370277606430E-4   -4.676568525934442E-1   -9.437441575940123E-2
 1.004837051360000E+10  -3.616241444198837E-1   -2.784120280086267E-1    1.614108928875996E-4   -4.606640817121043E-4    2.435152253735649E-4   -4.677997262984439E-4   -4.676684013560387E-1   -9.371806146052486E-2
 1.004837680820000E+10  -3.618826145939630E-1   -2.780435648385901E-1    1.711413896426473E-4   -5.013746064895356E-4    2.082948620974690E-4   -4.712258353389559E-4   -4.678221500902325E-1   -9.341765880278419E-2
 1.004838310280000E+10  -3.621754953840760E-1   -2.776565799157928E-1    1.603488346907027E-4   -4.714722555298436E-4    1.978343280530202E-4   -4.853210490214183E-4   -4.678860946347914E-1   -9.303523043559812E-2
 1.004838939740000E+10  -3.624521206833499E-1   -2.771598628331120E-1    1.592282434463888E-4   -4.707089121290024E-4    2.200339107044538E-4   -4.554703848503717E-4   -4.680326536122762E-1   -9.260991872146837E-2
 1.004839569200000E+10  -3.626643978991452E-1   -2.769279897325150E-1    1.692439032293462E-4   -4.779926623299193E-4    2.432756919987040E-4   -4.703110626328306E-4   -4.680185756325050E-1   -9.193948576826694E-2
 1.004840198660000E+10  -3.627448831586287E-1   -2.764867779204581E-1    1.723767220604164E-4   -4.827765683824389E-4    2.101249047403816E-4   -4.444236484616499E-4   -4.681342751720676E-1   -9.159758039294587E-2
 1.004840828120000E+10  -3.630849114085166E-1   -2.761957307302185E-1    1.654335053953478E-4   -4.449580539890551E-4    1.807305037513013E-4   -4.546731814906161E-4   -4.681323477576995E-1   -9.118403174966905E-2
 1.004841457580000E+10  -3.632942369367846E-1   -2.758993357726895E-1    1.528007170135786E-4   -4.367557592518428E-4    1.961639268995023E-4   -4.502916837904966E-4   -4.683157303328578E-1   -9.073407851363013E-2
 1.004842087040000E+10  -3.635387565822886E-1   -2.755049875196890E-1    1.538037423327614E-4   -4.561947439264348E-4    1.918274313960021E-4   -4.319314612974252E-4   -4.685074244113939E-1   -9.034733817551373E-2
 1.004842716500000E+10  -3.638299273167667E-1   -2.752358259217223E-1    1.635602837545363E-4   -4.464157759130298E-4    1.725842129823299E-4   -4.585580542258561E-4   -4.685432882698274E-1   -8.963044516454029E-2
 1.004843345960000E+10  -3.640805452390197E-1   -2.749094825523315E-1    1.892329689276836E-4   -4.751659469073364E-4    2.112854314699789E-4   -4.202225423127986E-4   -4.684965658125832E-1   -8.946840391124519E-2
 1.004843975420000E+10  -3.642546450543646E-1   -2.746114041425171E-1    1.754991040688935E-4   -4.140485391199583E-4    2.085334969548003E-4   -4.221572240458816E-4   -4.684832713079089E-1   -8.865335039761466E-2
 1.004844604880000E+10  -3.645973026497378E-1   -2.741833072472439E-1    1.616726592506893E-4   -4.267573168806288E-4    2.283872941675395E-4   -4.467013248456442E-4   -4.686841971769546E-1   -8.843744758739303E-2
 1.004845234340000E+10  -3.647251398973246E-1   -2.739602077231367E-1    1.698330154865586E-4   -4.288416848925862E-4    2.007431939732271E-4   -4.221552915149216E-4   -4.687935928709598E-1   -8.783801867869477E-2
 1.004845863800000E+10  -3.649093779333065E-1   -2.735266618597411E-1    1.685223454260533E-4   -4.250305345092989E-4    1.930009944816205E-4   -4.266732491605319E-4   -4.687422251524910E-1   -8.754117798225569E-2
 1.004846493260000E+10  -3.653390378555194E-1   -2.731728988523613E-1    1.716678997748202E-4   -4.338618477774142E-4    1.805764356981409E-4   -4.058219682060063E-4   -4.688458253192109E-1   -8.692955399391114E-2
 1.004847122720000E+10  -3.655468514205977E-1   -2.728647001158133E-1    1.599263544133766E-4   -3.964082586880842E-4    2.053509275152233E-4   -4.097170514709345E-4   -4.689549104534578E-1   -8.650739415971245E-2
 1.004847752180000E+10  -3.657606542437169E-1   -2.725425449047110E-1    1.715166038534219E-4   -4.038162452067159E-4    1.691767851328597E-4   -3.822663136418057E-4   -4.689536515099632E-1   -8.621511147954392E-2
 1.004848381640000E+10  -3.661253933214238E-1   -2.722519151881590E-1    1.706194962713749E-4   -3.957195431683118E-4    1.819988116043825E-4   -3.847661432195699E-4   -4.689094539076565E-1   -8.564096920096272E-2
 1.004849011100000E+10  -3.662297939517062E-1   -2.719264556487513E-1    1.791221646101652E-4   -3.860784846410492E-4    1.781259154205156E-4   -4.089869421678238E-4   -4.689612308426445E-1   -8.525287898948070E-2
 1.004849640560000E+10  -3.664544398664853E-1   -2.716296871892380E-1    1.469467619526061E-4   -3.900396658021874E-4    1.650932229586230E-4   -3.739256171746028E-4   -4.690996278785972E-1   -8.470126059648370E-2
 1.004850270020000E+10  -3.666586609598766E-1   -2.711325502305285E-1    1.717168672501162E-4   -3.470843300574362E-4    1.867593192405423E-4   -3.649131097095038E-4   -4.691436790739586E-1   -8.422458486742372E-2
 1.004850899480000E+10  -3.668882364861132E-1   -2.708790553156092E-1    1.805885533309059E-4   -3.713296168910868E-4    1.974134751833499E-4   -3.763462208633461E-4   -4.693023645807898E-1   -8.370403326158218E-2
 1.004851528940000E+10  -3.673423711643841E-1   -2.704206099926176E-1    1.521926141879741E-4   -3.834078395144729E-4    2.047549289207898E-4   -3.811200903496585E-4   -4.694126102976199E-1   -8.317579089989244E-2
 1.004852158400000E+10  -3.674571546077046E-1   -2.701617509759444E-1    1.582776454521547E-4   -3.697120537093828E-4    1.923690029409457E-4   -3.464401114997367E-4   -4.694025969805694E-1   -8.277402412026573E-2
 1.004852787860000E+10  -3.676421110240325E-1   -2.697845844309216E-1    1.736201120011361E-4   -3.637007248635212E-4    1.780987150907351E-4   -3.477371520739585E-4   -4.694165398576602E-1   -8.238224734307756E-2
 1.004853417320000E+10  -3.678903027165368E-1   -2.693879678228805E-1    1.495424291493170E-4   -3.737987224727091E-4    1.693458744410191E-4   -3.460843252909210E-4   -4.695500042066904E-1   -8.176697850679265E-2
 1.004854046780000E+10  -3.681272680356292E-1   -2.690511244530144E-1    1.569189642274714E-4   -3.479679893780020E-4    2.084469462751650E-4   -3.451515901741196E-4   -4.695347517201928E-1   -8.137351834800816E-2
 1.004854676240000E+10  -3.684242118448166E-1   -2.688961320651975E-1    1.465149387871870E-4   -3.409828554722754E-4    1.756105043472827E-4   -3.238559991912494E-4   -4.697011229916357E-1   -8.089667158823892E-2
 1.004855305700000E+10  -3.686029007959933E-1   -2.684062312612358E-1    1.802005262023707E-4   -3.123003213353398E-4    1.831416100268608E-4   -3.145636420135499E-4   -4.697723457412515E-1   -8.048713558054608E-2
 1.004855935160000E+10  -3.688391968008275E-1   -2.680980615275733E-1    1.606565707460797E-4   -3.067137479429278E-4    1.794021219130374E-4   -3.298964639756111E-4   -4.696594744075115E-1   -8.002144060858435E-2
 1.004856564620000E+10  -3.691962982063586E-1   -2.677999976085418E-1    1.352676677528105E-4   -2.861749778846666E-4    1.610882056777102E-4   -3.029396747239048E-4   -4.697889440585434E-1   -7.968923994155612E-2
 1.004857194080000E+10  -3.692887761638625E-1   -2.673046868631872E-1    1.582220671250325E-4   -3.026944100287254E-4    1.906430910871911E-4   -2.935516200674361E-4   -4.698787423587425E-1   -7.903611006475053E-2
 1.004857823540000E+10  -3.694154989568190E-1   -2.671396775571506E-1    1.572050923050750E-4   -3.115958147989929E-4    1.566802769736911E-4   -2.929113008840655E-4   -4.698416893284295E-1   -7.842306001876043E-2
 1.004858453000000E+10  -3.696885171016299E-1   -2.668987914860289E-1    1.514376228558737E-4   -3.159614479448662E-4    1.898011651764287E-4   -3.052118697635266E-4   -4.699223639629939E-1   -7.821377962699323E-2
 1.004859082460000E+10  -3.700683851028057E-1   -2.663116238800900E-1    1.782501285054597E-4   -2.836301250906749E-4    1.788494525525675E-4   -2.935687700457587E-4   -4.699437212615188E-1   -7.757716391836190E-2
 1.004859711920000E+10  -3.703161552960517E-1   -2.660958454514189E-1    1.661053572889972E-4   -2.848202940148027E-4    1.489904329357500E-4   -2.748903684012786E-4   -4.698539651852159E-1   -7.716089017394585E-2
 1.004860341380000E+10  -3.704078859439491E-1   -2.656665555981256E-1    1.606378415177029E-4   -2.440211986885147E-4    1.802266550186335E-4   -2.516162943546166E-4   -4.699793973599520E-1   -7.654099255164400E-2
 1.004860970840000E+10  -3.707084655812782E-1   -2.652894825660624E-1    1.446041588559180E-4   -2.665784504548481E-4    1.809279378547668E-4   -2.586611999447922E-4   -4.698877832288730E-1   -7.619147356065990E-2
 1.004861600300000E+10  -3.710375620061935E-1   -2.648989030998146E-1    1.453119186880711E-4   -2.392754319939106E-4    1.475369363481454E-4   -2.432752038811860E-4   -4.701498394653834E-1   -7.570018993535203E-2
 1.004862229760000E+10  -3.711499040645787E-1   -2.646650756206960E-1    1.516337677852002E-4   -2.487448724184266E-4    1.762693383106876E-4   -2.379472185089325E-4   -4.702154955322955E-1   -7.521562387896542E-2
 1.004862859220000E+10  -3.713572478008320E-1   -2.643401057679829E-1    1.555356769697219E-4   -2.176234730068960E-4    1.843095715766545E-4   -2.481924810456096E-4   -4.702334768079766E-1   -7.479214869072540E-2
 1.004863488680000E+10  -3.715906059569504E-1   -2.640437576335180E-1    1.647916194152814E-4   -2.411379562640015E-4    1.402662889014142E-4   -2.356882886494426E-4   -4.702375245138536E-1   -7.422660128903751E-2
 1.004864118140000E+10  -3.719750686362581E-1   -2.637150365012331E-1    1.458447699685276E-4   -2.035032183708699E-4    1.694548479279509E-4   -2.198490655452425E-4   -4.703753046318602E-1   -7.359506577575682E-2
 1.004864747600000E+10  -3.720273534715580E-1   -2.632279278557988E-1    1.548222316181264E-4   -2.247396615650218E-4    1.681623798825485E-4   -1.882166222713106E-4   -4.702239630130670E-1   -7.315870211360154E-2
 1.004865377060000E+10  -3.721987970781849E-1   -2.628142691357774E-1    1.286960535752971E-4   -2.033837413771540E-4    1.630175568627658E-4   -1.992422052034364E-4   -4.704257575332179E-1   -7.274864777071077E-2
 1.004866006520000E+10  -3.723781717246243E-1   -2.625648352151371E-1    1.749048845870059E-4   -1.719087222915123E-4    1.960208590764951E-4   -1.987475519728255E-4   -4.704507838805747E-1   -7.233640285583895E-2
 1.004866635980000E+10  -3.728522191462856E-1   -2.621131226247723E-1    1.426125522651060E-4   -2.279008263940109E-4    1.709987031524125E-4   -2.086907575708742E-4   -4.705069319008772E-1   -7.190357137403885E-2
 1.004867265440000E+10  -3.729899786021689E-1   -2.619359865981571E-1    1.583515240492273E-4   -1.745711020933433E-4    1.739119114269688E-4   -1.628112005419971E-4   -4.704332221984818E-1   -7.135322381572327E-2
 1.004867894900000E+10  -3.731671376317204E-1   -2.615144708773074E-1    1.614615820550573E-4   -1.473987705965315E-4    1.784300066719819E-4   -1.514698363256200E-4   -4.704540937983170E-1   -7.090800211783004E-2
 1.004868524360000E+10  -3.734467831304318E-1   -2.612575815476315E-1    1.751493748278293E-4   -1.634499765213594E-4    1.652715380431850E-4   -1.353481542654386E-4   -4.706230862399458E-1   -7.035431854743510E-2
 1.004869153820000E+10  -3.736021054844981E-1   -2.606889684855658E-1    1.472633749619634E-4   -1.640960798420507E-4    1.755852897121803E-4   -1.267462998227251E-4   -4.706904716711020E-1   -6.978822184587916E-2
 1.004869783280000E+10  -3.739398050853908E-1   -2.603719064553647E-1    1.365410024487323E-4   -1.459962345520057E-4    1.719648686538795E-4   -1.181759717880259E-4   -4.706958454564587E-1   -6.937986660366893E-2
 1.004870412740000E+10  -3.740973843698288E-1   -2.602221142755377E-1    1.788265742146154E-4   -1.476281842644676E-4    1.665701723522120E-4   -1.175045581033673E-4   -4.707601631086452E-1   -6.880883191089118E-2
 1.004871042200000E+10  -3.743512794514542E-1   -2.597359483523460E-1    1.381092808310000E-4   -1.324386714545238E-4    1.577572746459314E-4   -9.333095754364738E-5   -4.707654200309399E-1   -6.836465259765352E-2
 1.004871671660000E+10  -3.745748861221215E-1   -2.595113067475019E-1    1.435610069490013E-4   -9.826010458907423E-5    1.346762530771484E-4   -9.736294021016373E-5   -4.707951125849470E-1   -6.787580139793979E-2
 1.004872301120000E+10  -3.748360916327210E-1   -2.591761340970719E-1    1.369140305944960E-4   -7.381265956605737E-5    1.427577769964277E-4   -9.077395848516144E-5   -4.707558261288637E-1   -6.721501256455978E-2
 1.004872930580000E+10  -3.750747022340586E-1   -2.587631891172140E-1    1.257831035683772E-4   -1.030868861308548E-4    1.651547009407898E-4   -8.403939334486204E-5   -4.708335341713228E-1   -6.672240744269885E-2
 1.004873560040000E+10  -3.753030876641559E-1   -2.584441504941101E-1    1.628593839408766E-4   -4.989812646067166E-5    1.659403168295117E-4   -7.957116139281245E-5   -4.709383446859167E-1   -6.637745111982872E-2
 1.004874189500000E+10  -3.753656445730925E-1   -2.580123173308034E-1    1.467076127102283E-4   -1.020047888875474E-4    1.448814329820837E-4   -5.131289429421506E-5   -4.709579675668539E-1   -6.574473645924242E-2
 1.004874818960000E+10  -3.756497293337785E-1   -2.577304602478933E-1    1.356110646750652E-4   -5.927450854109789E-5    1.563799161017809E-4   -5.260472937483504E-5   -4.709278305961527E-1   -6.530189622953482E-2
 1.004875448420000E+10  -3.759970700389282E-1   -2.574173159389700E-1    1.893095934656220E-4   -4.710584901886871E-5    1.623323245715912E-4   -2.793872955834230E-5   -4.709209136135650E-1   -6.477356530378527E-2
 1.004876077880000E+10  -3.761892247520162E-1   -2.569902077303526E-1    1.679566394114665E-4   -1.175976564635543E-5    1.701175921652453E-4   -2.082033749301809E-5   -4.710099601036281E-1   -6.426054753707693E-2
 1.004876707340000E+10  -3.764268893302207E-1   -2.566993952191657E-1    1.697841904712859E-4   -3.184559351492488E-5    1.656837480636534E-4   -2.304644583908726E-5   -4.711490909829224E-1   -6.368358593861650E-2
 1.004877336800000E+10  -3.766169326500893E-1   -2.562754412169007E-1    1.618640465412162E-4   -3.448975973426267E-5    1.767496094272790E-4   -6.090361491852518E-6   -4.709000357046892E-1   -6.321798353398607E-2
 1.004877966260000E+10  -3.769041787143902E-1   -2.558925219792359E-1    1.402399098371157E-4   -2.319118886442656E-5    1.465982488867665E-4    1.664804227787999E-5   -4.711150291937228E-1   -6.275893852785745E-2
 1.004878595720000E+10  -3.770661214802111E-1   -2.556691958034362E-1    1.700741668409717E-4    2.925689645369183E-5    1.657744158515448E-4    2.183343064210399E-5   -4.710456585856178E-1   -6.224820099374315E-2
 1.004879225180000E+10  -3.772970114783015E-1   -2.554235081068372E-1    1.534105403694964E-4    9.042259089547298E-6    1.740638756753833E-4    4.062156809462497E-5   -4.712458771210713E-1   -6.158832641799204E-2
 1.004879854640000E+10  -3.774494944821504E-1   -2.547803876392432E-1    1.650682888018435E-4    5.075802144742297E-5    1.801040400717189E-4    6.122268439287496E-5   -4.709710617667603E-1   -6.109101163081359E-2
 1.004880484100000E+10  -3.775122779767968E-1   -2.545376925534159E-1    1.638760859781128E-4    5.536264086880652E-5    1.664111461274776E-4    6.917417155750393E-5   -4.711551127864999E-1   -6.067006196822745E-2
