#  HZ   S   RI   R     50.00 
! Rohde & Schwarz Vector Network Analyzer 
! Rohde-Schwarz,ZNB20-2Port,1311601062101988,3.16
! Created: UTC 3/21/2024, 1:15:48 AM
! freq[Hz]                re:S11                  im:S11                  re:S21                  im:S21                  re:S12                  im:S12                  re:S22                  im:S22
 1.004826223100000E+10  -3.573683375256011E-1   -2.842448809647522E-1    1.677621425106048E-4   -5.581677652441416E-4    2.467867327562950E-4   -5.723032881381732E-4   -4.665952101753805E-1   -1.015883761423814E-1
 1.004826847452500E+10  -3.575269840514552E-1   -2.839342836183470E-1    1.995805938794405E-4   -5.603991488024742E-4    2.324825943383709E-4   -5.765044566380452E-4   -4.666197086722426E-1   -1.011544474826188E-1
 1.004827471805000E+10  -3.579068756829168E-1   -2.835075054136713E-1    1.951427787775926E-4   -5.693155440975977E-4    2.239022367402300E-4   -5.468095843609850E-4   -4.665327870946433E-1   -1.008062062809319E-1
 1.004828096157500E+10  -3.582127934427677E-1   -2.832559324786161E-1    1.947521852696657E-4   -5.626050359850704E-4    2.194497791827846E-4   -5.775973892621953E-4   -4.667423479671086E-1   -1.004228591915800E-1
 1.004828720510000E+10  -3.583575919781364E-1   -2.828403038693975E-1    1.998518589045368E-4   -5.654924463697333E-4    2.199334726091667E-4   -5.602647171392090E-4   -4.667397679111918E-1   -1.000275356025238E-1
 1.004829344862500E+10  -3.584787524607021E-1   -2.826263710036912E-1    1.945968872159285E-4   -5.436888311648679E-4    2.379019504045209E-4   -5.478008968181214E-4   -4.669640383528145E-1   -9.942913599184199E-2
 1.004829969215000E+10  -3.589030484511533E-1   -2.823141415380115E-1    1.978720802675709E-4   -5.626286309562079E-4    2.123239554284710E-4   -5.403385734441113E-4   -4.669744754633240E-1   -9.906497903418177E-2
 1.004830593567500E+10  -3.589841200342159E-1   -2.819669696442766E-1    1.542144036720412E-4   -5.470640627104861E-4    2.408134070524231E-4   -5.280722453881646E-4   -4.670565938156487E-1   -9.855016916362992E-2
 1.004831217920000E+10  -3.594179406628498E-1   -2.815075790341238E-1    2.060689420407590E-4   -5.166836824239222E-4    2.179958155105182E-4   -5.458085945873027E-4   -4.671178626287393E-1   -9.813442879986034E-2
 1.004831842272500E+10  -3.595652397274684E-1   -2.812271826694399E-1    1.903768247539626E-4   -5.544855688550684E-4    2.513173553690964E-4   -5.096749567151936E-4   -4.670305217684451E-1   -9.777023348729537E-2
 1.004832466625000E+10  -3.596899659542192E-1   -2.809158697855269E-1    1.743580533515395E-4   -5.183634556369607E-4    2.347152620457110E-4   -5.252457571834254E-4   -4.673226995907043E-1   -9.723920151856673E-2
 1.004833090977500E+10  -3.600657038620897E-1   -2.806401340456821E-1    1.812570147432240E-4   -5.329405518377553E-4    2.416561319421720E-4   -5.164211059113344E-4   -4.673622617898431E-1   -9.678807139270434E-2
 1.004833715330000E+10  -3.602163219612947E-1   -2.801328014851089E-1    1.644251151600980E-4   -5.477049636731148E-4    2.262759102929528E-4   -5.054031918507371E-4   -4.676007550413576E-1   -9.632179132339039E-2
 1.004834339682500E+10  -3.606379119974022E-1   -2.798542398616283E-1    1.612400537423679E-4   -5.053303000878009E-4    2.377419715724035E-4   -5.174914357178266E-4   -4.673163458279507E-1   -9.580938817416146E-2
 1.004834964035000E+10  -3.608375832310157E-1   -2.795393614944387E-1    1.916836317654537E-4   -5.221293730645813E-4    2.424558823936962E-4   -5.209937598115894E-4   -4.674758998612700E-1   -9.543439781993023E-2
 1.004835588387500E+10  -3.611749519867773E-1   -2.792080957099752E-1    1.814962618080539E-4   -5.067320973040468E-4    2.214670336103910E-4   -4.811174044093211E-4   -4.676775821335959E-1   -9.505699661776774E-2
 1.004836212740000E+10  -3.612297544917642E-1   -2.788609746129138E-1    1.883973929156814E-4   -5.084144724584145E-4    2.310698397231681E-4   -5.269374633604940E-4   -4.677065057503668E-1   -9.450063264664392E-2
 1.004836837092500E+10  -3.614337915082516E-1   -2.786338198740208E-1    1.893822588833664E-4   -4.975237926018346E-4    2.023404005074380E-4   -5.087848824719222E-4   -4.677503168417765E-1   -9.408754328556493E-2
 1.004837461445000E+10  -3.617992821407089E-1   -2.781835699916249E-1    1.826706058468033E-4   -4.530099325439455E-4    2.203164775493947E-4   -5.181829155783891E-4   -4.678370033724478E-1   -9.375813516812206E-2
 1.004838085797500E+10  -3.619444784310257E-1   -2.779735898109834E-1    1.910012028769672E-4   -5.246648778398362E-4    2.173899984272052E-4   -4.826528534309989E-4   -4.679525902400297E-1   -9.333746149186560E-2
 1.004838710150000E+10  -3.621127323057847E-1   -2.776281206571448E-1    1.795081490199811E-4   -4.898692604473116E-4    2.018173922386009E-4   -4.807182234938496E-4   -4.680362638678696E-1   -9.288884234470336E-2
 1.004839334502500E+10  -3.625482543178802E-1   -2.772069652445067E-1    1.730445596810143E-4   -4.689126009102803E-4    2.218469412039836E-4   -4.825586199012949E-4   -4.680034985602920E-1   -9.216641742940755E-2
 1.004839958855000E+10  -3.627773474118222E-1   -2.767385192999698E-1    1.777945380822150E-4   -4.693815519492796E-4    2.092421467675774E-4   -4.928820826828099E-4   -4.682401183863331E-1   -9.194834055118288E-2
 1.004840583207500E+10  -3.629542062274265E-1   -2.764850806316078E-1    1.539741405408164E-4   -4.697342255646605E-4    2.088542456611733E-4   -4.785243057367033E-4   -4.682080908124948E-1   -9.134310546000536E-2
 1.004841207560000E+10  -3.631448335877020E-1   -2.762163416217426E-1    1.862163198623840E-4   -4.802516715577052E-4    1.857036906681636E-4   -4.749722003620368E-4   -4.682109219823926E-1   -9.102248048690835E-2
 1.004841831912500E+10  -3.634101519715405E-1   -2.757666833527813E-1    1.692929703058167E-4   -4.669551185943662E-4    1.878815051297180E-4   -4.396896122181481E-4   -4.681953791695520E-1   -9.051060457055254E-2
 1.004842456265000E+10  -3.636458784795209E-1   -2.754675868897483E-1    1.802852936694063E-4   -4.604260019188783E-4    2.015688257171602E-4   -4.202591091234669E-4   -4.684450023502221E-1   -9.008282424566576E-2
 1.004843080617500E+10  -3.640390232347703E-1   -2.750866129708319E-1    1.830687403891494E-4   -4.611955131966557E-4    2.194661440769580E-4   -4.699523830493265E-4   -4.685309666793547E-1   -8.966289284428017E-2
 1.004843704970000E+10  -3.641431230754867E-1   -2.748708702439666E-1    1.881889157302073E-4   -4.332930317927691E-4    1.832778762885954E-4   -4.836099477652014E-4   -4.684699835112425E-1   -8.919807778232373E-2
 1.004844329322500E+10  -3.643754171545540E-1   -2.744511331458439E-1    1.829296155288085E-4   -4.804167157308543E-4    2.070337476743808E-4   -4.329788972354725E-4   -4.685764630300195E-1   -8.869876846198821E-2
 1.004844953675000E+10  -3.646219255097242E-1   -2.741692964329415E-1    1.712834929081035E-4   -4.358828785277777E-4    1.968852108324344E-4   -4.298040098016434E-4   -4.685806888571712E-1   -8.828528380353386E-2
 1.004845578027500E+10  -3.647278119881099E-1   -2.737591765543365E-1    1.818126086059597E-4   -4.377899260488251E-4    1.969646273860618E-4   -4.205399659670544E-4   -4.687614932594143E-1   -8.763910924412074E-2
 1.004846202380000E+10  -3.651043543179862E-1   -2.735280680302127E-1    1.664181863685102E-4   -4.385369350894824E-4    2.327693710375042E-4   -4.384572529141776E-4   -4.687969100952541E-1   -8.741698753406618E-2
 1.004846826732500E+10  -3.653372665883998E-1   -2.731623416792727E-1    1.941916267497419E-4   -4.289203008398492E-4    1.746576110408050E-4   -3.845596001314858E-4   -4.689885494082897E-1   -8.701315899664874E-2
 1.004847451085000E+10  -3.655443826286017E-1   -2.729011934656756E-1    1.801491812398215E-4   -4.209379292538996E-4    2.007805270982376E-4   -4.149281121696415E-4   -4.688079950345702E-1   -8.652214214356090E-2
 1.004848075437500E+10  -3.658034871393713E-1   -2.725623622295662E-1    1.558870109407460E-4   -4.244452826991410E-4    1.748765561530236E-4   -4.159712268569427E-4   -4.689360737450259E-1   -8.604931372107465E-2
 1.004848699790000E+10  -3.660827605558103E-1   -2.721644536349615E-1    1.964941734974105E-4   -3.875673000578052E-4    1.939543334114499E-4   -3.945369452176666E-4   -4.689812772217889E-1   -8.562461089583251E-2
 1.004849324142500E+10  -3.663628727042124E-1   -2.717826704906420E-1    1.716376063713405E-4   -3.555390687153884E-4    1.924391440617584E-4   -3.961908022204834E-4   -4.691766618087800E-1   -8.515040311115245E-2
 1.004849948495000E+10  -3.665269437066211E-1   -2.714041227991038E-1    1.512615391520637E-4   -4.048481302861671E-4    1.743238528049925E-4   -4.038617026827626E-4   -4.692027488098082E-1   -8.453377378847766E-2
 1.004850572847500E+10  -3.666529607820772E-1   -2.711274701255735E-1    1.544903650935965E-4   -3.695630361889229E-4    1.908344826451979E-4   -3.591339070872509E-4   -4.691875774631731E-1   -8.430279702969297E-2
 1.004851197200000E+10  -3.669152363440601E-1   -2.707347712870455E-1    1.711298006952883E-4   -4.036456129341299E-4    1.882800343878538E-4   -3.763021375619001E-4   -4.693943530263445E-1   -8.366912381801325E-2
 1.004851821552500E+10  -3.670640830193738E-1   -2.704624372950774E-1    1.583328419849648E-4   -3.710007424308687E-4    2.080244206331223E-4   -3.931785297585707E-4   -4.692883218557789E-1   -8.335313273356525E-2
 1.004852445905000E+10  -3.674161386101524E-1   -2.700823676118075E-1    1.667924722661182E-4   -3.942043447809680E-4    1.657345330112034E-4   -3.684987683067973E-4   -4.692584320894062E-1   -8.273678895234400E-2
 1.004853070257500E+10  -3.675077006492589E-1   -2.697594080828860E-1    1.745142915121885E-4   -3.597686137022004E-4    1.967476736693156E-4   -3.447808405002961E-4   -4.694477914738823E-1   -8.236032203735025E-2
 1.004853694610000E+10  -3.678870805115376E-1   -2.695287865360769E-1    1.826852750582882E-4   -4.018031776915425E-4    1.901823004800542E-4   -3.337140301729813E-4   -4.694216377802862E-1   -8.187253813530933E-2
 1.004854318962500E+10  -3.681768476853834E-1   -2.691104491550662E-1    1.752110784887173E-4   -3.647887065957400E-4    1.883740538230959E-4   -3.505351707607096E-4   -4.696414152355873E-1   -8.128406010283691E-2
 1.004854943315000E+10  -3.684887941626181E-1   -2.686919066603192E-1    1.636508792767066E-4   -3.304982914597021E-4    1.835582115907438E-4   -3.131155812485132E-4   -4.696072760654561E-1   -8.094576702964186E-2
 1.004855567667500E+10  -3.684835793794567E-1   -2.685589798770693E-1    1.619114130104425E-4   -3.348139541333576E-4    1.954096557442726E-4   -3.375348215165220E-4   -4.696376574312002E-1   -8.063396027149101E-2
 1.004856192020000E+10  -3.688020103044354E-1   -2.680359932329412E-1    1.085527005439753E-4   -3.270661767357423E-4    1.642466104449713E-4   -3.038856149217784E-4   -4.696475500230167E-1   -8.000904215659499E-2
 1.004856816372500E+10  -3.690660906691955E-1   -2.678547209265710E-1    1.636843653642806E-4   -3.119494883808640E-4    1.860135395792036E-4   -3.036797004736803E-4   -4.697986161059565E-1   -7.960228412241888E-2
 1.004857440725000E+10  -3.692088821826430E-1   -2.673041579455189E-1    1.403817650005927E-4   -2.998037632638548E-4    1.677830851851321E-4   -3.117391712749770E-4   -4.698963214289675E-1   -7.900473630794562E-2
 1.004858065077500E+10  -3.694913003566425E-1   -2.671718707293106E-1    1.478547226763332E-4   -3.095937618177231E-4    1.827748080261175E-4   -3.094464165344688E-4   -4.698999311908935E-1   -7.855332637514366E-2
 1.004858689430000E+10  -3.697507917887801E-1   -2.666397360582547E-1    1.601859363923284E-4   -3.116044904012056E-4    1.814296145229587E-4   -3.022438809398640E-4   -4.698787985465427E-1   -7.817020714320450E-2
 1.004859313782500E+10  -3.700704029755320E-1   -2.662785299021642E-1    1.238846310819807E-4   -2.914950635137839E-4    1.846489749500147E-4   -3.026202270408894E-4   -4.699744054465593E-1   -7.761404966133859E-2
 1.004859938135000E+10  -3.701053164868652E-1   -2.660126773898457E-1    1.724072526054960E-4   -2.841340289947029E-4    1.676252494462828E-4   -2.845256935390405E-4   -4.700422525878125E-1   -7.725515428513131E-2
 1.004860562487500E+10  -3.704589207599906E-1   -2.656616198247243E-1    1.533460963772697E-4   -2.492861275521280E-4    1.836486115069088E-4   -2.761759543385030E-4   -4.700998055260340E-1   -7.675542746143563E-2
 1.004861186840000E+10  -3.707109641361183E-1   -2.653504637471379E-1    1.528178290277933E-4   -2.822909766364660E-4    1.831748785359292E-4   -3.016609372572034E-4   -4.700654567972847E-1   -7.614349078338006E-2
 1.004861811192500E+10  -3.709032087527292E-1   -2.648926816799975E-1    1.578618308359217E-4   -2.623196603675695E-4    1.804247592206527E-4   -2.652448699852982E-4   -4.702255292074637E-1   -7.553138572965046E-2
 1.004862435545000E+10  -3.711133548614382E-1   -2.646486283802778E-1    1.625962494303716E-4   -2.310184014920649E-4    1.735962273923846E-4   -2.449241341103843E-4   -4.702592208729994E-1   -7.529262045541354E-2
 1.004863059897500E+10  -3.713313479502658E-1   -2.642888319326421E-1    1.501198480656593E-4   -2.480280468357140E-4    1.790892611379157E-4   -2.198831718678748E-4   -4.701809313619679E-1   -7.474177346484907E-2
 1.004863684250000E+10  -3.716127470284631E-1   -2.639936024154650E-1    1.500564810572739E-4   -2.470092485818850E-4    1.845358486360178E-4   -2.382070902616125E-4   -4.702918378094196E-1   -7.431801318454306E-2
 1.004864308602500E+10  -3.717739490556493E-1   -2.636163316696982E-1    1.493065954537937E-4   -2.553703502093025E-4    1.848018967061945E-4   -2.351279923195758E-4   -4.703194069897967E-1   -7.380079182281434E-2
 1.004864932955000E+10  -3.719677283017819E-1   -2.632929634604982E-1    1.830952515130440E-4   -2.246711344601661E-4    1.592673668607229E-4   -2.283367115968203E-4   -4.704329638116693E-1   -7.333973447157731E-2
 1.004865557307500E+10  -3.722123892449422E-1   -2.629556376918176E-1    1.467790110308928E-4   -2.296241071767312E-4    1.874424728655710E-4   -2.149511312817935E-4   -4.705268412623563E-1   -7.290347508674654E-2
 1.004866181660000E+10  -3.724405331010182E-1   -2.626196640533739E-1    1.746718515269254E-4   -2.010572869326625E-4    1.756521511902224E-4   -1.999688282468860E-4   -4.705613680178006E-1   -7.236781108186829E-2
 1.004866806012500E+10  -3.728586118909993E-1   -2.622638091468912E-1    1.618976054213855E-4   -2.023396781249080E-4    1.940895362767007E-4   -2.036744037806007E-4   -4.705662176120203E-1   -7.181999064270968E-2
 1.004867430365000E+10  -3.729607130938670E-1   -2.619431391904599E-1    1.249087899437183E-4   -1.896471550127417E-4    1.727500288694660E-4   -2.013439695766802E-4   -4.706900330734370E-1   -7.129094780921442E-2
 1.004868054717500E+10  -3.731710880731173E-1   -2.615099330047811E-1    1.603838982073464E-4   -2.017557581256742E-4    1.247470998709225E-4   -1.723929593191619E-4   -4.706852241739888E-1   -7.089271457087322E-2
 1.004868679070000E+10  -3.734149778622832E-1   -2.612340627481195E-1    1.253280883978777E-4   -1.909325861136744E-4    1.775298969187130E-4   -2.037326425694151E-4   -4.706469253965084E-1   -7.047831125497429E-2
 1.004869303422500E+10  -3.736509948495203E-1   -2.608664186700684E-1    1.694449475241861E-4   -1.567254607718488E-4    1.571981617960126E-4   -1.494644919053135E-4   -4.706691405260517E-1   -6.994627456412350E-2
 1.004869927775000E+10  -3.738340143535340E-1   -2.605873822556487E-1    1.367291012060623E-4   -1.593542486946834E-4    1.945455680377337E-4   -1.437826666024001E-4   -4.706805361879245E-1   -6.931201937891163E-2
 1.004870552127500E+10  -3.741198419102598E-1   -2.601465122282587E-1    1.368141370001574E-4   -1.467320597864440E-4    1.716521916194045E-4   -1.302861556380285E-4   -4.708523842069294E-1   -6.885971415313849E-2
 1.004871176480000E+10  -3.743412338136927E-1   -2.599627476448818E-1    1.563535804225752E-4   -1.380400843074238E-4    2.017896775544566E-4   -1.310421513637030E-4   -4.707612013331274E-1   -6.842217256382253E-2
 1.004871800832500E+10  -3.744877381129955E-1   -2.595272615274287E-1    1.650376733581746E-4   -1.262798185892125E-4    1.631634938303609E-4   -1.540649752208914E-4   -4.707791790167914E-1   -6.801232726195194E-2
 1.004872425185000E+10  -3.748624195250906E-1   -2.591642464966047E-1    1.424510946834987E-4   -1.419843381980141E-4    1.704175175777919E-4   -1.332882084441269E-4   -4.709010859049946E-1   -6.741421932511639E-2
 1.004873049537500E+10  -3.750256059512874E-1   -2.587466843017762E-1    1.706881079840126E-4   -1.176708224962804E-4    1.560910475641582E-4   -9.240373067215107E-5   -4.708078264543621E-1   -6.690086344483993E-2
 1.004873673890000E+10  -3.751566635551951E-1   -2.583320853513795E-1    1.328007126832749E-4   -9.606284605958535E-5    1.565805667764894E-4   -8.019956379792325E-5   -4.709795583455672E-1   -6.643587610876986E-2
 1.004874298242500E+10  -3.755538418909658E-1   -2.581431225935120E-1    1.660903614910232E-4   -1.119344131494951E-4    1.672284140338295E-4   -7.598995358797455E-5   -4.709380158376067E-1   -6.588228409930590E-2
 1.004874922595000E+10  -3.756636184731648E-1   -2.578176527707197E-1    1.750031984069451E-4   -8.237058745066995E-5    1.608194096623906E-4   -5.495850930922227E-5   -4.709764315730425E-1   -6.539247385954468E-2
 1.004875546947500E+10  -3.759289320489415E-1   -2.572926181048598E-1    1.498810777479193E-4   -7.272773795082372E-5    1.425936705928653E-4   -4.519886607909993E-5   -4.710748358249829E-1   -6.480431056780869E-2
 1.004876171300000E+10  -3.760119883097073E-1   -2.570882536673220E-1    1.457614804373614E-4   -3.895723431292685E-5    1.579192948436346E-4   -5.104012576904032E-5   -4.711604676459035E-1   -6.436041945500565E-2
 1.004876795652500E+10  -3.763752936232918E-1   -2.567974110654858E-1    1.642664636639235E-4   -7.960446198692783E-5    1.602008937964526E-4   -3.573004735768607E-5   -4.711457582882932E-1   -6.377390587486853E-2
 1.004877420005000E+10  -3.765877256978082E-1   -2.565316613580665E-1    1.413869667998163E-4   -6.251712331974394E-6    1.790115505352169E-4   -3.902058345275919E-5   -4.710185206021689E-1   -6.335326677647563E-2
 1.004878044357500E+10  -3.767453649739592E-1   -2.560411068012041E-1    1.470528901265081E-4   -5.302020406250448E-5    1.872599650271036E-4   -1.546459668462161E-5   -4.711747281377662E-1   -6.292995748905678E-2
 1.004878668710000E+10  -3.770025801388258E-1   -2.557361162546508E-1    1.634720237903864E-4   -8.064222606553251E-6    1.451410384676261E-4   -1.828187622439220E-7   -4.710043794827050E-1   -6.238026971473600E-2
 1.004879293062500E+10  -3.771903816464114E-1   -2.553949948590801E-1    1.616770380851797E-4    1.157083364136481E-5    1.819699644193587E-4   -2.400757739600406E-5   -4.710436859033836E-1   -6.181312549039047E-2
 1.004879917415000E+10  -3.774201668987872E-1   -2.548622920931736E-1    1.509468798921605E-4    7.306510442701557E-6    1.790484992485623E-4   -1.529018099500112E-5   -4.710904784508264E-1   -6.127903746189148E-2
 1.004880541767500E+10  -3.777195809147748E-1   -2.547149111191034E-1    1.536971613691637E-4    4.446077635024720E-6    1.481639941294933E-4    4.444301003704287E-5   -4.711097019361667E-1   -6.086347778708638E-2
 1.004881166120000E+10  -3.778792712926251E-1   -2.542237755504910E-1    1.673566203932206E-4    5.954365083046933E-5    1.563361768153309E-4    7.508378800280157E-5   -4.711607246300270E-1   -6.030592101114124E-2
 1.004881790472500E+10  -3.781895880452510E-1   -2.539151431783623E-1    1.374543431372346E-4    6.201305237110951E-5    1.640543190217106E-4    4.812677667359838E-5   -4.711732080959309E-1   -5.976340437214295E-2
 1.004882414825000E+10  -3.783855592285509E-1   -2.536777943959025E-1    1.534086157722339E-4    8.281874613465298E-5    1.742773322193442E-4    4.353643062379324E-5   -4.712281340791716E-1   -5.922396503469735E-2
