#  HZ   S   RI   R     50.00 
! Rohde & Schwarz Vector Network Analyzer 
! Rohde-Schwarz,ZNB20-2Port,1311601062101988,3.16
! Created: UTC 3/21/2024, 12:52:48 AM
! freq[Hz]                re:S11                  im:S11                  re:S21                  im:S21                  re:S12                  im:S12                  re:S22                  im:S22
 1.004786429900000E+10  -3.547983788748720E-1   -2.921762263543537E-1    1.074183429952600E-4   -7.680303468736302E-5    1.463070093917437E-4   -8.546156379119963E-5   -4.648029036519472E-1   -9.813336008853872E-2
 1.004786798605000E+10  -3.549708428004115E-1   -2.921777747133817E-1    8.022639309493005E-5   -8.558405703538270E-5    1.145883989194297E-4   -6.185058751518269E-5   -4.648565831791087E-1   -9.770441873743618E-2
 1.004787167310000E+10  -3.551842801968620E-1   -2.917915556028556E-1    9.148959533206232E-5   -4.068986650784702E-5    9.298744107947796E-5   -6.054119221442128E-5   -4.647548868520897E-1   -9.747432649768044E-2
 1.004787536015000E+10  -3.551417024827102E-1   -2.916483626980597E-1    9.058267725723099E-5   -8.831683447867979E-5    7.623512897353483E-5   -5.865027395153460E-5   -4.648057760397047E-1   -9.708615253516287E-2
 1.004787904720000E+10  -3.554288949303402E-1   -2.914456535252903E-1    9.558665567006435E-5   -7.490126497107795E-5    9.989791997026186E-5   -9.463441324907980E-5   -4.648185097449156E-1   -9.670193192750091E-2
 1.004788273425000E+10  -3.556054875762535E-1   -2.912942366849781E-1    8.054812853831590E-5   -7.407640337039855E-5    1.001557668001831E-4   -7.528217610393559E-5   -4.648224968516431E-1   -9.650954823793320E-2
 1.004788642130000E+10  -3.558023224186606E-1   -2.910071666738696E-1    6.884346924538454E-5   -5.121809002054328E-5    8.740535836494908E-5   -6.189100832190265E-5   -4.649442334537994E-1   -9.606052422529086E-2
 1.004789010835000E+10  -3.558761071138086E-1   -2.908115010038510E-1    9.261576671117017E-5   -5.980017361093232E-5    9.718305225095757E-5   -3.273086002996794E-5   -4.648690716977611E-1   -9.578655569251372E-2
 1.004789379540000E+10  -3.559863603149038E-1   -2.907463775660664E-1    7.723914090750955E-5   -4.387186080597867E-5    8.270878053998656E-5   -2.456337410864205E-5   -4.649768961087779E-1   -9.555909951172670E-2
 1.004789748245000E+10  -3.561694121155923E-1   -2.904720417676462E-1    8.528654629699727E-5   -6.583279590416506E-5    9.822461697902718E-5   -2.843238831695224E-5   -4.651145202689401E-1   -9.522298836742803E-2
 1.004790116950000E+10  -3.563814027161233E-1   -2.901918044023880E-1    7.039317750365515E-5   -5.542790182488539E-5    7.541130745543913E-5   -4.611897548149951E-5   -4.652807792696907E-1   -9.503822916007228E-2
 1.004790485655000E+10  -3.565188786459460E-1   -2.899994232366277E-1    7.452318687743429E-5   -2.216165674856923E-5    6.329941566972532E-5   -1.603997343859936E-5   -4.650886459140404E-1   -9.459907312209069E-2
 1.004790854360000E+10  -3.567453666262431E-1   -2.898488836588320E-1    7.433121118089451E-5   -2.879793339399747E-5    5.985746831954050E-5   -2.225060365501537E-5   -4.651411335517546E-1   -9.446612970356176E-2
 1.004791223065000E+10  -3.568479783011577E-1   -2.895543175147854E-1    7.084287836573568E-5    8.166463009481259E-6    7.020441943907406E-5   -1.465052197078842E-5   -4.652262526564648E-1   -9.414998888835756E-2
 1.004791591770000E+10  -3.569041056936083E-1   -2.894749186139660E-1    1.010242549954164E-4   -2.298773971895261E-5    8.587950234571586E-5    3.504650366978566E-5   -4.652400880412675E-1   -9.382849726988067E-2
 1.004791960475000E+10  -3.570148486080486E-1   -2.892345852187713E-1    6.951784412458972E-5   -2.832904615368896E-7    7.987113354715341E-5    6.239394236939054E-6   -4.653843762920737E-1   -9.342110863661499E-2
 1.004792329180000E+10  -3.572516057568285E-1   -2.891430992667507E-1    8.803191313433763E-5    2.793192953775525E-5    7.974646845644835E-5   -2.410723585862815E-6   -4.652953563411543E-1   -9.320652529755756E-2
 1.004792697885000E+10  -3.574053475947941E-1   -2.888087107780183E-1    8.702338621049235E-5    2.214890510779647E-5    5.053357156989911E-5    1.480631741479633E-5   -4.654371256366717E-1   -9.288075203183618E-2
 1.004793066590000E+10  -3.574861356338308E-1   -2.886396507002951E-1    5.616277164088711E-5    3.313208192172684E-5    8.915651740471225E-5    3.498388220708699E-5   -4.654208849089322E-1   -9.243695998366321E-2
 1.004793435295000E+10  -3.576864996181787E-1   -2.884975257529416E-1    4.254986130515634E-5    1.819252703140623E-5    5.405191249926032E-5    4.433944028487254E-5   -4.654799821698279E-1   -9.232023478277497E-2
 1.004793804000000E+10  -3.579240576171518E-1   -2.882302531575581E-1    5.963308594141762E-5    3.473820518328171E-5    7.818673853198371E-5    5.301858579915214E-5   -4.654308854393909E-1   -9.190197745336434E-2
 1.004794172705000E+10  -3.580177930716730E-1   -2.880648388600563E-1    4.763427575439958E-5    8.374331510985162E-5    7.607897892752827E-5    4.583760098293611E-5   -4.656579314553681E-1   -9.159633056885197E-2
 1.004794541410000E+10  -3.579895720934220E-1   -2.880353909958723E-1    9.938616082806996E-5    3.178484541397165E-5    9.234801308575992E-5    5.458923648131289E-5   -4.656316102939429E-1   -9.129197497055115E-2
 1.004794910115000E+10  -3.583829261519182E-1   -2.876213732505830E-1    6.254313259137507E-5    7.538424262328905E-5    6.396328412985751E-5    6.496835850622311E-5   -4.656769806720627E-1   -9.098966049142966E-2
 1.004795278820000E+10  -3.584079166552679E-1   -2.873727989029213E-1    9.875595749970054E-5    7.071369092111176E-5    9.223207103689961E-5    8.478425814687450E-5   -4.656212518221106E-1   -9.077851387579759E-2
 1.004795647525000E+10  -3.584904998562196E-1   -2.871559389480707E-1    5.085573334122443E-5    8.829482976938338E-5    4.358876133025899E-5    6.193516770661136E-5   -4.657329678309234E-1   -9.031122328876370E-2
 1.004796016230000E+10  -3.588189765283132E-1   -2.870286634719805E-1    8.057578586694976E-5    9.045812907363979E-5    6.373907261552580E-5    9.112069632987499E-5   -4.657590449865320E-1   -9.004765356961622E-2
 1.004796384935000E+10  -3.588545043516606E-1   -2.868980118705260E-1    6.295696886964894E-5    9.493914961110391E-5    5.781228683039441E-5    9.068218454532321E-5   -4.657686804675005E-1   -8.963062707540734E-2
 1.004796753640000E+10  -3.589250964411452E-1   -2.867346452960940E-1    3.558873261575109E-5    8.952382336107674E-5    4.496637684865064E-5    1.119121036054403E-4   -4.658363790148880E-1   -8.932327207670261E-2
 1.004797122345000E+10  -3.592354075238326E-1   -2.865651194945571E-1    8.515813417388672E-5    1.345196594474382E-4    8.871222386450250E-5    1.423233661576481E-4   -4.658111236601933E-1   -8.901681899876647E-2
 1.004797491050000E+10  -3.593301770192830E-1   -2.862552379162859E-1    5.126905864757394E-5    9.579063464040211E-5    6.677650319584048E-5    1.003652331902398E-4   -4.659315317008019E-1   -8.887055857343706E-2
 1.004797859755000E+10  -3.594418009875021E-1   -2.859194833965977E-1    9.685467864240661E-5    1.493739750812883E-4    3.583245662078291E-5    1.365125046138787E-4   -4.659291810777376E-1   -8.838284486540576E-2
 1.004798228460000E+10  -3.595248791397337E-1   -2.858817317689867E-1    5.182515318931185E-5    1.498638669967527E-4    2.508166722974344E-5    1.488379156674249E-4   -4.657471575552483E-1   -8.810057292628425E-2
 1.004798597165000E+10  -3.597622421709741E-1   -2.855410622021112E-1    3.226002989598194E-5    1.543082081037229E-4    7.449724263939416E-5    1.677028504365911E-4   -4.659943067662281E-1   -8.777330980524967E-2
 1.004798965870000E+10  -3.599991198142648E-1   -2.855019101695141E-1    9.884048664266975E-5    1.681144379912755E-4    3.221323203033932E-5    1.807397994931336E-4   -4.661166970262911E-1   -8.742384390204649E-2
 1.004799334575000E+10  -3.600786026601676E-1   -2.854046656876715E-1    6.763003916138772E-5    1.666616793695411E-4    6.535527194509360E-5    1.756877703025830E-4   -4.660699781761399E-1   -8.713114322636298E-2
 1.004799703280000E+10  -3.602213943592466E-1   -2.849333132527925E-1    5.511018220202568E-5    1.540687808524947E-4    5.887016763183067E-5    1.718276033623852E-4   -4.660769736768672E-1   -8.666956728450169E-2
 1.004800071985000E+10  -3.602531992721376E-1   -2.847212817941794E-1    8.828761344173131E-5    1.942015263125289E-4    3.398873351565823E-5    1.901397652006535E-4   -4.661705950134233E-1   -8.649689307698911E-2
 1.004800440690000E+10  -3.603840802079822E-1   -2.847876308060228E-1    5.385272030945786E-5    2.032293546048575E-4    5.384041432988201E-5    2.188787899800937E-4   -4.662162851346524E-1   -8.604013665205766E-2
 1.004800809395000E+10  -3.605854066434642E-1   -2.844778805375994E-1    9.530029245653438E-5    2.220256692359115E-4    7.344797075708965E-5    2.002632730601140E-4   -4.661979678595090E-1   -8.570220999770994E-2
 1.004801178100000E+10  -3.608244249202769E-1   -2.842846388575809E-1    7.341655914955344E-5    2.226537235530861E-4    5.073673060400869E-5    2.217618246034557E-4   -4.662118010715614E-1   -8.553481770316040E-2
 1.004801546805000E+10  -3.609186221849328E-1   -2.841013483265614E-1    9.290174549941074E-5    2.084291624609262E-4    4.001898871229461E-5    2.505130389518141E-4   -4.661332944234692E-1   -8.523908660442309E-2
 1.004801915510000E+10  -3.610569463575454E-1   -2.840026548862869E-1    7.196518633905278E-5    2.288069770756244E-4    7.506110173021679E-5    2.388330397827622E-4   -4.662933692915578E-1   -8.477780858746387E-2
 1.004802284215000E+10  -3.612199287950305E-1   -2.836208762624737E-1    8.610497577173219E-5    2.497710045103667E-4    4.360571425439364E-5    2.714794993953307E-4   -4.662536675375827E-1   -8.443097877736996E-2
 1.004802652920000E+10  -3.613593725744427E-1   -2.835661530489364E-1    5.494929359866947E-5    2.489967211456256E-4    4.067376811702294E-5    2.833599943999886E-4   -4.663245236390572E-1   -8.415536397015907E-2
 1.004803021625000E+10  -3.615681367529761E-1   -2.833612847414072E-1    6.133931052834886E-5    2.766619045900768E-4    4.181579726394954E-5    2.947124022465856E-4   -4.664195068883715E-1   -8.376406906586735E-2
 1.004803390330000E+10  -3.616020102001781E-1   -2.831459774880540E-1    6.226264851775945E-5    2.714796038853109E-4    1.549358084266559E-5    2.958104117315448E-4   -4.663568794831525E-1   -8.350090934864775E-2
 1.004803759035000E+10  -3.617900183939096E-1   -2.828929241913334E-1    6.188129184694737E-5    3.033723184455699E-4    5.014828180439099E-5    3.032058942619204E-4   -4.664914467520377E-1   -8.305193557226272E-2
 1.004804127740000E+10  -3.617882528009235E-1   -2.828464367086916E-1    6.037483569522830E-5    2.988463244801943E-4    3.581317958917300E-5    3.091948446045485E-4   -4.663904470150805E-1   -8.270216672019709E-2
 1.004804496445000E+10  -3.620942615202403E-1   -2.825452343942248E-1    6.117862336664804E-5    2.925791464633874E-4    5.467730122754448E-5    3.089385128910669E-4   -4.664800282957626E-1   -8.240836607052091E-2
 1.004804865150000E+10  -3.622413072847656E-1   -2.823284185271362E-1    6.306420121877991E-5    2.855154342424445E-4    2.924238101929074E-5    3.438775516280818E-4   -4.663459233850000E-1   -8.198000445193510E-2
 1.004805233855000E+10  -3.623786212564127E-1   -2.820336535198832E-1    6.535894746251217E-5    3.490799444439909E-4    2.446079477019241E-5    3.660337800994691E-4   -4.665958138650390E-1   -8.160357508908141E-2
 1.004805602560000E+10  -3.625000421986851E-1   -2.818595551215224E-1    7.317490607590764E-5    3.398407942428645E-4    5.832819945991927E-5    3.522306690504006E-4   -4.665044733134643E-1   -8.129874725474477E-2
 1.004805971265000E+10  -3.626137380954726E-1   -2.817080208159055E-1    4.423767188297148E-5    3.395209338791855E-4    6.973420184126595E-6    3.643548384887586E-4   -4.664192129258563E-1   -8.101208997513432E-2
 1.004806339970000E+10  -3.627890133789488E-1   -2.815281233626497E-1    4.549717376711809E-5    3.845750016165437E-4    2.731284764818201E-6    4.035291250477082E-4   -4.665857443895763E-1   -8.061789995546610E-2
 1.004806708675000E+10  -3.631061184583377E-1   -2.813053308937487E-1    8.105196273118910E-5    3.672366514087486E-4    4.876616599437131E-5    3.776281050164265E-4   -4.665117045735442E-1   -8.015287611213968E-2
 1.004807077380000E+10  -3.631055294725014E-1   -2.811233780017568E-1    8.039353057093799E-5    4.220085240676550E-4    4.241602478427645E-5    4.305282880513211E-4   -4.666631661812543E-1   -7.986763291602256E-2
 1.004807446085000E+10  -3.633715002695452E-1   -2.809614815906423E-1    4.003009422623607E-5    4.100797839142037E-4    4.979445518907622E-5    4.180241976321583E-4   -4.666422176740299E-1   -7.958203970680276E-2
 1.004807814790000E+10  -3.633763015688207E-1   -2.807565878934209E-1    3.901956681101906E-5    4.326223647227942E-4    9.975863807974109E-6    4.520866300118151E-4   -4.666809811261185E-1   -7.919496984562070E-2
 1.004808183495000E+10  -3.635317851393496E-1   -2.805034586707239E-1    4.530992083587041E-5    4.199230110207180E-4    1.622671729972395E-5    4.532760180820553E-4   -4.667206177010944E-1   -7.876328365440100E-2
 1.004808552200000E+10  -3.637639681782390E-1   -2.802433125450254E-1    8.736820211460516E-5    4.700634248855188E-4    4.330653394829731E-5    4.593131057316519E-4   -4.667480897127273E-1   -7.849776798313149E-2
 1.004808920905000E+10  -3.638242989070680E-1   -2.802152889524787E-1    4.551807388591347E-5    4.581340015665513E-4    5.773727467271741E-5    4.509171545486272E-4   -4.667872785614531E-1   -7.807774335914353E-2
 1.004809289610000E+10  -3.639783750720667E-1   -2.798717023122615E-1    4.671095067112858E-5    4.692440342415596E-4    1.379810358934356E-5    4.610617568865668E-4   -4.668876018440230E-1   -7.775386254112181E-2
 1.004809658315000E+10  -3.641440918814010E-1   -2.796596212155473E-1    7.419036882744800E-5    4.974367914979095E-4    3.557203506886490E-5    5.023084300223753E-4   -4.666958620125160E-1   -7.734191443488493E-2
 1.004810027020000E+10  -3.643392136520948E-1   -2.795526959607665E-1    7.655584239024830E-5    4.879629019152321E-4    1.072286341201828E-5    5.487467578508814E-4   -4.667611848089997E-1   -7.696308376092405E-2
 1.004810395725000E+10  -3.644887516707249E-1   -2.793543254970312E-1    5.579415896158307E-5    5.115292029414378E-4    8.601399122416108E-6    5.147053870255032E-4   -4.667227469927824E-1   -7.668219855795801E-2
 1.004810764430000E+10  -3.646490039616514E-1   -2.791664215784767E-1    7.423285299503588E-5    5.026466568947710E-4    2.417233557756974E-5    5.459198407650542E-4   -4.668870913612054E-1   -7.634569174009470E-2
 1.004811133135000E+10  -3.647540743649248E-1   -2.789353262804215E-1    6.142653179498792E-5    5.608468139698389E-4    1.985389803758102E-5    5.478141145806508E-4   -4.667544337176991E-1   -7.588849710449630E-2
 1.004811501840000E+10  -3.648768610599658E-1   -2.788511443597186E-1    5.470980683184911E-5    5.889944688370407E-4    2.809045251040384E-5    5.766528570790917E-4   -4.668659095201108E-1   -7.553858883284924E-2
 1.004811870545000E+10  -3.650658120077517E-1   -2.786982626363032E-1    4.047383040930651E-5    5.830887124683791E-4    2.625716059300930E-5    6.049831358129427E-4   -4.667584115339467E-1   -7.511152941079903E-2
 1.004812239250000E+10  -3.651201469801935E-1   -2.783963034888667E-1    5.733069585332113E-5    5.694725222453263E-4    4.736996750895734E-5    5.854749404160902E-4   -4.668345965181155E-1   -7.479475016221025E-2
 1.004812607955000E+10  -3.652836236241024E-1   -2.781190775151638E-1    6.611407242031986E-5    6.036914808360056E-4    9.102411223667577E-6    6.133610291566675E-4   -4.669746321887925E-1   -7.441319350266544E-2
 1.004812976660000E+10  -3.653408204534118E-1   -2.779944762613787E-1    4.249793679300078E-5    6.054791728309626E-4    9.996700731475815E-6    6.284390237292922E-4   -4.668573285018361E-1   -7.390058222890990E-2
 1.004813345365000E+10  -3.656545557662157E-1   -2.778797492814065E-1    4.412806218326290E-5    6.113037652343952E-4    1.717946081999321E-5    6.481089517882581E-4   -4.669939343288538E-1   -7.350043204626643E-2
 1.004813714070000E+10  -3.657383847968432E-1   -2.775714142751700E-1    8.793371530985802E-5    6.524663498107782E-4    7.174157580048109E-6    6.748095796047787E-4   -4.669343866961096E-1   -7.308711621479770E-2
 1.004814082775000E+10  -3.658052955624509E-1   -2.774898039197147E-1    4.653684251428049E-5    6.614339132841861E-4    2.867918458893580E-5    6.977815324300490E-4   -4.670116806416721E-1   -7.286570157035192E-2
 1.004814451480000E+10  -3.659742136779181E-1   -2.771136650212909E-1    7.164509676385756E-5    6.686749039105077E-4    2.413713695612146E-5    6.929955838652260E-4   -4.669049488298654E-1   -7.245611555273895E-2
 1.004814820185000E+10  -3.661872253916561E-1   -2.768710113161455E-1    7.070993802503872E-5    6.936001529940869E-4    2.301422377390422E-5    7.194944110353997E-4   -4.668596680292072E-1   -7.204070858958227E-2
 1.004815188890000E+10  -3.662595436355308E-1   -2.767156575088054E-1    6.214289463707986E-5    7.137159608910848E-4    4.104491557323207E-5    7.330432485317667E-4   -4.669802203828870E-1   -7.161225873936689E-2
 1.004815557595000E+10  -3.664726315363764E-1   -2.766554172598671E-1    7.483299915419508E-5    7.367021469548386E-4    2.891407961543699E-5    7.181527065025535E-4   -4.668837570314647E-1   -7.112671621137877E-2
 1.004815926300000E+10  -3.665135925381539E-1   -2.763186702547881E-1    8.995932949023215E-5    7.452395581353259E-4    2.864698898717252E-5    7.653721257685144E-4   -4.668823894332495E-1   -7.078019425965455E-2
 1.004816295005000E+10  -3.667193475876886E-1   -2.760792144566430E-1    8.266756248478801E-5    7.540634649930409E-4    1.534488755789425E-5    7.514208318270355E-4   -4.669194490775764E-1   -7.035098231763412E-2
 1.004816663710000E+10  -3.668717362998536E-1   -2.759474377619411E-1    6.699972284677437E-5    7.808946867529527E-4    1.745600584638506E-5    7.802148325739383E-4   -4.668985419257179E-1   -6.996146701331295E-2
 1.004817032415000E+10  -3.670990981843218E-1   -2.758757794942633E-1    4.927684733197034E-5    8.150420461419086E-4    1.834247856516578E-5    8.409669919369162E-4   -4.669673188000521E-1   -6.962848342364410E-2
 1.004817401120000E+10  -3.672734451708842E-1   -2.756674138031772E-1    4.544376758131669E-5    8.321800054367346E-4    1.344007482142266E-5    8.553036029647948E-4   -4.670379821006788E-1   -6.903485111400973E-2
 1.004817769825000E+10  -3.673672993372084E-1   -2.752587312127738E-1    7.630575647869690E-5    8.558799464885150E-4    4.666562827157438E-6    8.751737463913171E-4   -4.669776207573302E-1   -6.861980504225575E-2
 1.004818138530000E+10  -3.674012341438818E-1   -2.750857028535630E-1    6.666342847884458E-5    8.599827270257469E-4    6.325164425988538E-5    8.616505786082849E-4   -4.668525012059633E-1   -6.820527421500065E-2
 1.004818507235000E+10  -3.676466000725576E-1   -2.749932224972463E-1    4.553116880647944E-5    8.890854547532500E-4    3.881685662476736E-6    9.248258395104746E-4   -4.668627058332291E-1   -6.784228384197359E-2
 1.004818875940000E+10  -3.677924117696488E-1   -2.747525100500306E-1    7.021604589816352E-5    8.980417564345996E-4    4.214368850729041E-5    9.329945428591448E-4   -4.668515902184960E-1   -6.746923710553733E-2
 1.004819244645000E+10  -3.679221507523127E-1   -2.745091495601749E-1    8.283691709808204E-5    9.578443697777989E-4    1.422539830035817E-5    9.450622067072970E-4   -4.667352048735020E-1   -6.694917815270661E-2
 1.004819613350000E+10  -3.680029098803605E-1   -2.743507077778205E-1    9.329628260586779E-5    9.084501250644638E-4    1.289779981338879E-5    9.760475135686661E-4   -4.664964945925112E-1   -6.658521170933056E-2
