#  HZ   S   RI   R     50.00 
! Rohde & Schwarz Vector Network Analyzer 
! Rohde-Schwarz,ZNB20-2Port,1311601062101988,3.16
! Created: UTC 3/21/2024, 1:16:15 AM
! freq[Hz]                re:S11                  im:S11                  re:S21                  im:S21                  re:S12                  im:S12                  re:S22                  im:S22
 1.004836670200000E+10  -3.610659291939538E-1   -2.789377867833396E-1    1.750208853615848E-4   -5.035410729313535E-4    2.298294531000045E-4   -5.537161831012294E-4   -4.677906355226351E-1   -9.447630338624011E-2
 1.004837256570000E+10  -3.614490457639306E-1   -2.786171963856500E-1    1.687192578745603E-4   -5.351872843948070E-4    2.048893657971550E-4   -5.106845335160677E-4   -4.677803855300647E-1   -9.418726915154947E-2
 1.004837842940000E+10  -3.616336044798467E-1   -2.782868676097155E-1    1.593243879237030E-4   -5.278948443127649E-4    2.220475550372787E-4   -4.961880635975146E-4   -4.677794198929374E-1   -9.394888944072080E-2
 1.004838429310000E+10  -3.618173039959933E-1   -2.780658195253760E-1    1.597374557051860E-4   -5.179393567349506E-4    2.142745739631552E-4   -5.357356620827519E-4   -4.680063119463339E-1   -9.334351989173822E-2
 1.004839015680000E+10  -3.620607169806272E-1   -2.776599206269862E-1    1.987528486749907E-4   -5.254982918420408E-4    2.223438770472870E-4   -5.063152856643524E-4   -4.678584966185668E-1   -9.299926181411142E-2
 1.004839602050000E+10  -3.623185952934698E-1   -2.774050207118303E-1    1.801176619651433E-4   -5.189278876299682E-4    2.190277343136458E-4   -4.648878990192937E-4   -4.681726118710328E-1   -9.264239434016400E-2
 1.004840188420000E+10  -3.626920418648977E-1   -2.770938533317854E-1    1.530648349638181E-4   -5.019998063789738E-4    2.075814831593632E-4   -4.927560713578198E-4   -4.681051946316752E-1   -9.214815244333394E-2
 1.004840774790000E+10  -3.627731106251676E-1   -2.766565066760503E-1    1.667618433827989E-4   -5.121128821215505E-4    1.902099568902400E-4   -5.077547159057713E-4   -4.682318876250370E-1   -9.170803973117686E-2
 1.004841361160000E+10  -3.629165658987704E-1   -2.764249239705206E-1    1.681778130883879E-4   -4.640880289909657E-4    1.759682584720405E-4   -4.949553761837051E-4   -4.681408148957464E-1   -9.129820644572731E-2
 1.004841947530000E+10  -3.633356852731205E-1   -2.761514617651691E-1    1.963689347796695E-4   -4.850006800875876E-4    2.195362882679589E-4   -4.950488778960240E-4   -4.682852659304372E-1   -9.088272159583610E-2
 1.004842533900000E+10  -3.633857431075934E-1   -2.757291527081081E-1    1.721423091440101E-4   -4.715067737114061E-4    1.943097084111163E-4   -4.570355745355743E-4   -4.683925309079717E-1   -9.050018260454937E-2
 1.004843120270000E+10  -3.636119171201995E-1   -2.755241711977980E-1    1.629963545267158E-4   -4.903495286712815E-4    1.996035957658734E-4   -4.885815158466492E-4   -4.684941617540752E-1   -9.004581543200639E-2
 1.004843706640000E+10  -3.638317780394145E-1   -2.751953332141128E-1    1.951628168644382E-4   -4.711351542865251E-4    1.791860452993761E-4   -4.742791689208383E-4   -4.685761516040923E-1   -8.960354072473714E-2
 1.004844293010000E+10  -3.639284538653425E-1   -2.748903189110121E-1    1.660672472952925E-4   -4.706020764463490E-4    1.596809999964389E-4   -4.717362978473846E-4   -4.684993676037000E-1   -8.929904863820551E-2
 1.004844879380000E+10  -3.642985071009736E-1   -2.744867038325347E-1    1.780448190500992E-4   -4.591797899453252E-4    1.917037147316135E-4   -4.558719420453043E-4   -4.686488652008907E-1   -8.862875248139626E-2
 1.004845465750000E+10  -3.645154397150656E-1   -2.741178833943493E-1    1.355642926078251E-4   -4.471734920533461E-4    2.048469795866377E-4   -4.541874281742303E-4   -4.687506047311064E-1   -8.826217821801137E-2
 1.004846052120000E+10  -3.647577582212906E-1   -2.739284585427556E-1    1.874748837315825E-4   -4.764709572340001E-4    2.157199648706337E-4   -4.630866092723665E-4   -4.687095762514474E-1   -8.789944497950200E-2
 1.004846638490000E+10  -3.650308691346325E-1   -2.736919739592275E-1    1.499868382613654E-4   -4.478420334020848E-4    2.046156186113588E-4   -4.417019447690640E-4   -4.688557511685769E-1   -8.752596892341262E-2
 1.004847224860000E+10  -3.653252215228619E-1   -2.732755400520661E-1    1.639593573427951E-4   -4.493593675309820E-4    2.030184336172354E-4   -4.404339949506871E-4   -4.688430099440099E-1   -8.701871868870804E-2
 1.004847811230000E+10  -3.653564769755183E-1   -2.730125545173293E-1    1.396849976141305E-4   -4.454223288878808E-4    1.970660219487318E-4   -4.515428238802493E-4   -4.688545632617106E-1   -8.680046643663525E-2
 1.004848397600000E+10  -3.657888010956347E-1   -2.725751039828685E-1    1.335628056046063E-4   -4.628796532864280E-4    1.708774302656021E-4   -4.451968416938373E-4   -4.691195887004993E-1   -8.614774176812628E-2
 1.004848983970000E+10  -3.658885873844909E-1   -2.723181483280889E-1    1.339236487216442E-4   -4.171519511322824E-4    1.594721699836450E-4   -4.089151112858031E-4   -4.690463529347484E-1   -8.582778433069423E-2
 1.004849570340000E+10  -3.660942808703186E-1   -2.718637747884805E-1    1.641605363345652E-4   -4.305509806527704E-4    2.051712013581078E-4   -4.287911848611831E-4   -4.691429073579169E-1   -8.535542539209821E-2
 1.004850156710000E+10  -3.663183229847554E-1   -2.716643706839449E-1    1.572347648194605E-4   -4.055843864810141E-4    1.817953178831726E-4   -4.211716215549328E-4   -4.691226163767138E-1   -8.498539600609367E-2
 1.004850743080000E+10  -3.664649842389778E-1   -2.713242222818824E-1    1.564633711775833E-4   -4.135015941949528E-4    1.400450258674336E-4   -4.128410777006520E-4   -4.693011531975292E-1   -8.448341915045217E-2
 1.004851329450000E+10  -3.668196363349260E-1   -2.711057729335437E-1    1.442039843414091E-4   -3.810711923363460E-4    1.805432092976259E-4   -3.905499636711741E-4   -4.693131153891596E-1   -8.408847023915512E-2
 1.004851915820000E+10  -3.669885367646187E-1   -2.707475330036855E-1    1.931899421568991E-4   -4.144482027114145E-4    1.955649373203188E-4   -4.037374185233846E-4   -4.692896311900897E-1   -8.361814673038240E-2
 1.004852502190000E+10  -3.672132747653672E-1   -2.703479828465495E-1    1.711863158253624E-4   -3.880215836207633E-4    1.981631846638055E-4   -3.964054798146662E-4   -4.694071493473799E-1   -8.314166220060849E-2
 1.004853088560000E+10  -3.675088060660617E-1   -2.700247623609416E-1    1.450033193866752E-4   -4.045041201818098E-4    2.029078037800535E-4   -3.911747733686166E-4   -4.695057186475585E-1   -8.276064993903598E-2
 1.004853674930000E+10  -3.676017650351956E-1   -2.697703377559129E-1    1.647742006479472E-4   -3.745301571427707E-4    1.833159603754455E-4   -3.954726707643283E-4   -4.695351935104621E-1   -8.228772243604748E-2
 1.004854261300000E+10  -3.678602754480974E-1   -2.694663773699938E-1    1.343305144760683E-4   -4.020453225482837E-4    1.606278589229598E-4   -3.779873725096202E-4   -4.696354555526904E-1   -8.190619171957939E-2
 1.004854847670000E+10  -3.680296539381868E-1   -2.690207071387829E-1    1.398599746655241E-4   -3.727021866483431E-4    1.739723416757561E-4   -3.716490521719502E-4   -4.696336225508099E-1   -8.150814335343684E-2
 1.004855434040000E+10  -3.683037944945134E-1   -2.687389439287931E-1    1.745225769085716E-4   -3.785231600477086E-4    1.817927364761770E-4   -3.837013141030579E-4   -4.696918690569049E-1   -8.107520355857639E-2
 1.004856020410000E+10  -3.685013426832638E-1   -2.684145443176837E-1    1.430282693685001E-4   -3.716622879895397E-4    1.808813351858019E-4   -3.201385861497375E-4   -4.697316512018716E-1   -8.061469925185732E-2
 1.004856606780000E+10  -3.686905807435667E-1   -2.682228233840374E-1    1.612635538986034E-4   -3.539277480152985E-4    1.774341570443627E-4   -3.452888074261904E-4   -4.698085356386593E-1   -8.021899525503677E-2
 1.004857193150000E+10  -3.690688516256506E-1   -2.679209103215399E-1    1.908927670420413E-4   -3.446482350422265E-4    1.847441116427373E-4   -3.270552501766398E-4   -4.698027675503832E-1   -7.964529006020468E-2
 1.004857779520000E+10  -3.690582135830824E-1   -2.675883320344784E-1    1.440430756911860E-4   -3.524700268951190E-4    1.704319040095691E-4   -3.415422262657425E-4   -4.698621608134002E-1   -7.938502464908176E-2
 1.004858365890000E+10  -3.694609432481946E-1   -2.671429674630221E-1    1.549801251868185E-4   -3.390144899615112E-4    1.759058758091566E-4   -3.244248084020527E-4   -4.698364709207529E-1   -7.884627385089528E-2
 1.004858952260000E+10  -3.696351777178474E-1   -2.668736106209095E-1    1.592124710459940E-4   -3.559542657161847E-4    1.750779021093330E-4   -3.218628226390716E-4   -4.700553595595359E-1   -7.837523146976889E-2
 1.004859538630000E+10  -3.698024929652281E-1   -2.665200595106368E-1    1.478342364005210E-4   -3.392359771955691E-4    2.024242269719988E-4   -3.543204912540265E-4   -4.701018625757351E-1   -7.792370493107002E-2
 1.004860125000000E+10  -3.700658658564956E-1   -2.662411687341730E-1    1.598310806321896E-4   -3.309900696436075E-4    1.570785375586427E-4   -3.195042765455478E-4   -4.700869701140659E-1   -7.745210607258803E-2
 1.004860711370000E+10  -3.703265972523814E-1   -2.658995184720550E-1    1.430191334346545E-4   -3.486730945619252E-4    1.831742414065383E-4   -3.248834428522988E-4   -4.700774880470426E-1   -7.701495644688590E-2
 1.004861297740000E+10  -3.703646939646059E-1   -2.656729227887441E-1    1.649380692382883E-4   -3.159763961643829E-4    1.413557289515229E-4   -3.125027392183492E-4   -4.702797971323852E-1   -7.670516158727189E-2
 1.004861884110000E+10  -3.706930460153122E-1   -2.651039819751623E-1    1.484505699078572E-4   -2.897892281939177E-4    1.575228688914064E-4   -2.881906638251749E-4   -4.702539010890822E-1   -7.620656676630463E-2
 1.004862470480000E+10  -3.708450202646854E-1   -2.648256738979111E-1    1.422657237834988E-4   -3.106552989728481E-4    1.964874754253905E-4   -2.665822952742543E-4   -4.702563450236960E-1   -7.584537905111777E-2
 1.004863056850000E+10  -3.710112851902599E-1   -2.647190245089781E-1    1.563209106239832E-4   -2.810920917492437E-4    1.944767188869190E-4   -2.667295304988382E-4   -4.703038532974027E-1   -7.533985909806312E-2
 1.004863643220000E+10  -3.712469349788667E-1   -2.642875059056260E-1    1.556379789174184E-4   -2.898606928140259E-4    1.740581884225715E-4   -2.762948465370141E-4   -4.704955827435133E-1   -7.494976002529881E-2
 1.004864229590000E+10  -3.714841279200425E-1   -2.639487327333015E-1    1.531553029253775E-4   -2.868033037060329E-4    1.562552256238642E-4   -2.766502565187896E-4   -4.703202155569293E-1   -7.426858386745559E-2
 1.004864815960000E+10  -3.717665563554236E-1   -2.635678480258380E-1    1.605421927417621E-4   -2.673274163631040E-4    1.941570294177820E-4   -2.507015589819845E-4   -4.704389326350222E-1   -7.411179293472078E-2
 1.004865402330000E+10  -3.719702202442625E-1   -2.632986485595197E-1    1.239554574574915E-4   -2.832482996338163E-4    1.555194572691909E-4   -2.573130386198299E-4   -4.703037817876993E-1   -7.346339942335542E-2
 1.004865988700000E+10  -3.720830456296905E-1   -2.630509684686649E-1    1.301545203343770E-4   -2.547115848423478E-4    1.716733428326842E-4   -2.424123919897627E-4   -4.706702884796399E-1   -7.323961429591466E-2
 1.004866575070000E+10  -3.723869574265631E-1   -2.627820182149121E-1    1.437204952121190E-4   -2.369571627759491E-4    1.591139831615947E-4   -2.538438903965789E-4   -4.705901361336731E-1   -7.261831001882903E-2
 1.004867161440000E+10  -3.727145112285706E-1   -2.623667416320520E-1    1.414192993113553E-4   -2.666152631429150E-4    1.524201751305720E-4   -2.286014970711857E-4   -4.706293681368202E-1   -7.225289139150588E-2
 1.004867747810000E+10  -3.727652101870814E-1   -2.620097860362910E-1    1.406348269829955E-4   -2.258442257908793E-4    1.967132163449523E-4   -2.288588562585419E-4   -4.705855863934209E-1   -7.184854919155373E-2
 1.004868334180000E+10  -3.730603000360782E-1   -2.616541164462449E-1    1.537416404427601E-4   -2.409802652389289E-4    1.783842777681172E-4   -2.247658920423931E-4   -4.706747178723063E-1   -7.127847952369483E-2
 1.004868920550000E+10  -3.732958786200589E-1   -2.613410077803291E-1    1.516770034696059E-4   -2.090824683110291E-4    1.569496165084198E-4   -2.291290401239153E-4   -4.706509220396379E-1   -7.076055989841945E-2
 1.004869506920000E+10  -3.735454946419628E-1   -2.610781737286413E-1    1.694484845545587E-4   -1.983210476074803E-4    1.501838464144083E-4   -2.060863556970717E-4   -4.707516697579113E-1   -7.048353905079019E-2
 1.004870093290000E+10  -3.736241301906889E-1   -2.606557444170752E-1    1.287282693867668E-4   -1.994302970259728E-4    1.602345143236213E-4   -2.070481096684325E-4   -4.708739851883709E-1   -6.995711446010770E-2
 1.004870679660000E+10  -3.737477746989821E-1   -2.605038079020949E-1    1.586291929498685E-4   -1.968688831137458E-4    1.320044853597666E-4   -1.975052922015564E-4   -4.710131491479708E-1   -6.948086177929616E-2
 1.004871266030000E+10  -3.741681324206000E-1   -2.600907234180475E-1    1.456794752611354E-4   -2.090166111131028E-4    1.465128265066715E-4   -1.790636905248302E-4   -4.708414992092469E-1   -6.899263856662928E-2
 1.004871852400000E+10  -3.744648198138874E-1   -2.597776578577538E-1    1.553591018606989E-4   -1.991976392209381E-4    1.707559776920029E-4   -1.603457353081623E-4   -4.709891168990021E-1   -6.861601143196158E-2
 1.004872438770000E+10  -3.745064076807404E-1   -2.595226361239197E-1    1.387575209274381E-4   -1.675474374060715E-4    1.695768435715113E-4   -1.626021205166012E-4   -4.710611803103042E-1   -6.797182083666285E-2
 1.004873025140000E+10  -3.746809037008725E-1   -2.591507118277707E-1    1.457965287295125E-4   -2.031291651326282E-4    1.419117546574403E-4   -1.674893083041078E-4   -4.710029768032721E-1   -6.751539264208632E-2
 1.004873611510000E+10  -3.749934520360244E-1   -2.587460316014064E-1    1.181814137983501E-4   -1.593453269423978E-4    1.452986110643691E-4   -1.530823428458334E-4   -4.711051623297099E-1   -6.708047751691547E-2
 1.004874197880000E+10  -3.751828884321252E-1   -2.584107210455904E-1    1.713516858347674E-4   -1.732043423366934E-4    1.849473961677215E-4   -1.549245402851579E-4   -4.712551248292788E-1   -6.654346063680946E-2
 1.004874784250000E+10  -3.753893774824865E-1   -2.580770439893123E-1    1.549117690693990E-4   -1.262668358774597E-4    1.506165302786331E-4   -1.127170910510745E-4   -4.711924127045546E-1   -6.616901334332770E-2
 1.004875370620000E+10  -3.756677859860408E-1   -2.578493992734077E-1    1.629510991838739E-4   -1.461434447112671E-4    1.335058752896627E-4   -1.228859570508979E-4   -4.710494691315644E-1   -6.567503873125380E-2
 1.004875956990000E+10  -3.758512094338056E-1   -2.575681108949252E-1    1.331352989980815E-4   -1.151000971045982E-4    1.621062529759460E-4   -8.373556109226801E-5   -4.712247571606879E-1   -6.532417671150265E-2
 1.004876543360000E+10  -3.759812960905625E-1   -2.571790373373359E-1    1.340988610837121E-4   -1.208691667035951E-4    1.360435051156045E-4   -9.253718860490913E-5   -4.713065421880505E-1   -6.483947829874770E-2
 1.004877129730000E+10  -3.760681469029771E-1   -2.567160466021308E-1    1.368773180771401E-4   -1.069690717977435E-4    1.330752524048314E-4   -9.297589721610706E-5   -4.712473637759469E-1   -6.441428301439717E-2
 1.004877716100000E+10  -3.764696459321166E-1   -2.566152646226003E-1    1.593547735141228E-4   -8.523389220443788E-5    1.315280828165425E-4   -1.137793691347173E-4   -4.712669057235173E-1   -6.383101469028930E-2
 1.004878302470000E+10  -3.766895797943872E-1   -2.562082168577917E-1    1.305678188707759E-4   -4.487779921981079E-5    1.552572782200708E-4   -8.504357033872016E-5   -4.712563647314703E-1   -6.330049217741573E-2
 1.004878888840000E+10  -3.767692442200253E-1   -2.559171771791028E-1    1.447896536236494E-4   -7.440183745805131E-5    1.547267866505225E-4   -5.569874593991232E-5   -4.713561580982253E-1   -6.296313749740420E-2
 1.004879475210000E+10  -3.770820253597467E-1   -2.556374094898649E-1    1.047470540284625E-4   -4.883975338746461E-5    1.894651211346790E-4   -7.477209092571189E-5   -4.712914783475430E-1   -6.237880958519076E-2
 1.004880061580000E+10  -3.771832505373017E-1   -2.551956627610673E-1    1.210607994118714E-4   -3.158942783416027E-5    1.547964342793474E-4   -1.630650211384904E-5   -4.713456773836179E-1   -6.196558316000506E-2
 1.004880647950000E+10  -3.774964675231609E-1   -2.548574674962474E-1    1.255210408202723E-4   -3.979443810358484E-5    1.572828235304358E-4   -4.051234204250468E-5   -4.714185353312617E-1   -6.145090692544264E-2
 1.004881234320000E+10  -3.775395189568596E-1   -2.545348901275969E-1    1.360059259400920E-4   -2.291561377650983E-5    1.745294887298260E-4   -1.363506790336937E-5   -4.713529637449844E-1   -6.078571025093542E-2
 1.004881820690000E+10  -3.779912346465766E-1   -2.543225415541764E-1    1.746602987678009E-4    8.034674414474862E-7    1.575018393474547E-4    6.187791604469577E-6   -4.714752274772573E-1   -6.036351441346569E-2
 1.004882407060000E+10  -3.781271193191870E-1   -2.539385976558385E-1    1.751050090776371E-4    8.032704431755630E-6    1.731269424176327E-4   -2.658589967147619E-5   -4.714330168777313E-1   -6.001721263047065E-2
 1.004882993430000E+10  -3.782775858625855E-1   -2.537125290557087E-1    1.409007209974853E-4    3.982075853808630E-5    1.727156450803167E-4   -1.464447827163783E-5   -4.714036389333853E-1   -5.941950734779684E-2
 1.004883579800000E+10  -3.785296228798746E-1   -2.531973791607425E-1    1.047788654628127E-4    5.546754181569850E-6    1.702069145534907E-4    8.616933781039925E-6   -4.714475736452310E-1   -5.897444081093492E-2
 1.004884166170000E+10  -3.786533097917982E-1   -2.528684417108377E-1    1.357892389325615E-4    3.244770126335743E-5    1.735726908032729E-4    3.547102317311136E-5   -4.714613089097059E-1   -5.855161537647851E-2
 1.004884752540000E+10  -3.788973634662149E-1   -2.526956281577581E-1    1.527619867818101E-4    4.491320040689374E-5    1.602508333480329E-4    5.844053533487578E-5   -4.714904518327691E-1   -5.807393530745726E-2
 1.004885338910000E+10  -3.791098964038515E-1   -2.523079717629066E-1    1.600304359448836E-4    5.774995263872943E-5    1.430389873413146E-4    3.476309039387829E-5   -4.717182180747302E-1   -5.760895521888550E-2
 1.004885925280000E+10  -3.793009578303664E-1   -2.520017860711602E-1    1.487351129651620E-4    5.791318561502999E-5    1.334716374705577E-4    1.049172759951447E-4   -4.715124286287192E-1   -5.705707240322797E-2
 1.004886511650000E+10  -3.795260507778326E-1   -2.516369826655079E-1    1.598912250868747E-4    8.060765967025997E-5    1.572703580713015E-4    7.824814575741128E-5   -4.715364699045252E-1   -5.650685940250037E-2
 1.004887098020000E+10  -3.797260931811238E-1   -2.512161570248624E-1    1.547887741043173E-4    1.122174106578277E-4    1.490683425170893E-4    1.045503081536610E-4   -4.715350817300683E-1   -5.614711240027352E-2
 1.004887684390000E+10  -3.799810050590243E-1   -2.510149271204936E-1    1.594972426247746E-4    9.186821447228278E-5    1.457592390977378E-4    9.754047149453313E-5   -4.714219778694241E-1   -5.557105449131490E-2
 1.004888270760000E+10  -3.800174370134898E-1   -2.505371363043161E-1    1.436482013917221E-4    1.168422530005342E-4    1.124158877315632E-4    1.587393497686120E-4   -4.715701475981260E-1   -5.505595440984327E-2
 1.004888857130000E+10  -3.802881175212556E-1   -2.503583753702803E-1    1.771562210886098E-4    1.320036893075294E-4    1.739160760483622E-4    1.521019006741060E-4   -4.715187272606243E-1   -5.459285098252351E-2
 1.004889443500000E+10  -3.804808771824121E-1   -2.500503173737869E-1    1.700501550328758E-4    1.580433409504333E-4    1.432805505174184E-4    1.618690259240062E-4   -4.716071075331382E-1   -5.398398079785108E-2
