#  HZ   S   RI   R     50.00 
! Rohde & Schwarz Vector Network Analyzer 
! Rohde-Schwarz,ZNB20-2Port,1311601062101988,3.16
! Created: UTC 3/21/2024, 12:52:50 AM
! freq[Hz]                re:S11                  im:S11                  re:S21                  im:S21                  re:S12                  im:S12                  re:S22                  im:S22
 1.004786899900000E+10  -3.549992116162313E-1   -2.920120445832098E-1    9.673741530011231E-5   -9.130167712103741E-5    7.206779375000154E-5   -8.397648955891199E-5   -4.647459397793694E-1   -9.766273086768758E-2
 1.004787266475000E+10  -3.550777129433662E-1   -2.917998063936054E-1    7.974367855036581E-5   -8.169437816172578E-5    9.357762216580633E-5   -8.636278621323183E-5   -4.646613042150441E-1   -9.746404461990762E-2
 1.004787633050000E+10  -3.552619163636507E-1   -2.915731439995614E-1    6.664784211783219E-5   -5.306920280472685E-5    8.388770961566968E-5   -8.818891018460868E-5   -4.647584534428134E-1   -9.713999120825258E-2
 1.004787999625000E+10  -3.553006189594506E-1   -2.915308119554120E-1    1.032339639661407E-4   -5.396859917389187E-5    1.097882274221755E-4   -7.049948982459548E-5   -4.647381699324052E-1   -9.684208421564341E-2
 1.004788366200000E+10  -3.556195168408149E-1   -2.911824531146258E-1    8.157217611718432E-5   -6.466754040554765E-5    8.332217722787345E-5   -4.807224510466448E-5   -4.649345098939691E-1   -9.642840140328990E-2
 1.004788732775000E+10  -3.557075163935907E-1   -2.910178894872544E-1    8.408479414412357E-5   -4.828856910103409E-5    7.229037279146877E-5   -4.098923549997184E-5   -4.649183544973487E-1   -9.627184062738270E-2
 1.004789099350000E+10  -3.558938054994465E-1   -2.908717804135169E-1    1.165647404297674E-4   -5.881922172995548E-5    8.937136326643943E-5   -6.438884478945674E-5   -4.649572050596322E-1   -9.598509825581147E-2
 1.004789465925000E+10  -3.560137429338800E-1   -2.906760860690643E-1    8.055723559580748E-5   -5.028406571299834E-5    9.915613419380796E-5   -5.256550223840823E-5   -4.649590847751942E-1   -9.564798707373341E-2
 1.004789832500000E+10  -3.561637957503852E-1   -2.903913939009280E-1    9.329258324482554E-5   -3.016616284780283E-5    7.751696659210527E-5    3.320997728905940E-6   -4.650415209089203E-1   -9.540841853083337E-2
 1.004790199075000E+10  -3.564024599462443E-1   -2.902116769554309E-1    8.003835920061358E-5   -3.569601050080967E-5    9.296739718588590E-5   -6.803463123389717E-6   -4.651557603950765E-1   -9.522955810386430E-2
 1.004790565650000E+10  -3.564517675726399E-1   -2.899854623029335E-1    1.253988406143171E-4   -2.449154175383972E-5    6.774434305686638E-5   -2.902918634745954E-5   -4.651699845307058E-1   -9.479196397821721E-2
 1.004790932225000E+10  -3.567265454310304E-1   -2.899091050423358E-1    6.321452698085255E-5   -1.643841325732550E-5    7.863712706036256E-5    9.668903188577769E-6   -4.652173415414703E-1   -9.443911611488554E-2
 1.004791298800000E+10  -3.567352223930755E-1   -2.897288729536960E-1    7.398217899488795E-5   -6.408951613855716E-6    7.212525914601861E-5   -6.409360075859175E-6   -4.652872872854613E-1   -9.404965824961591E-2
 1.004791665375000E+10  -3.569143164207915E-1   -2.894882719222304E-1    7.733533267650393E-5   -1.617195812205481E-5    8.211347208144686E-5    7.910985848048753E-6   -4.651690588984677E-1   -9.386023891916463E-2
 1.004792031950000E+10  -3.571338848964662E-1   -2.893228791884981E-1    1.119863602050242E-4    1.313225677853149E-5    6.988726100203496E-5    1.636507407184932E-5   -4.653477872749252E-1   -9.350966466023564E-2
 1.004792398525000E+10  -3.571014116363492E-1   -2.890610390496549E-1    8.747978947386635E-5    4.042546968119017E-5    8.094118684854042E-5    4.217811514186880E-5   -4.654283071315377E-1   -9.314138563452755E-2
 1.004792765100000E+10  -3.573931790562446E-1   -2.887422194001076E-1    6.816497045236007E-5    2.894960951135883E-5    6.258721740653929E-5    2.294439818682471E-5   -4.654480494541964E-1   -9.285539620867464E-2
 1.004793131675000E+10  -3.576319537756707E-1   -2.886433498731136E-1    5.659196717213523E-5    2.313664253175914E-5    6.524980803443840E-5    4.731893142294325E-5   -4.653440994110583E-1   -9.261641517290592E-2
 1.004793498250000E+10  -3.577283564223367E-1   -2.884743404764913E-1    8.959669060404249E-5    3.346528171386933E-5    5.580567020553897E-5    4.584340966653139E-5   -4.655812360906006E-1   -9.216730401971601E-2
 1.004793864825000E+10  -3.578055805390343E-1   -2.882402026660185E-1    8.400183467924470E-5    4.210487064588258E-5    8.704678928119420E-5    6.537199817973827E-5   -4.654249904322941E-1   -9.206826764934019E-2
 1.004794231400000E+10  -3.579348171220894E-1   -2.879733385285755E-1    8.858726771063884E-5    6.233822249804521E-5    5.113548085141587E-5    7.923954361280469E-5   -4.656302562349369E-1   -9.156138703958347E-2
 1.004794597975000E+10  -3.582092551963141E-1   -2.878414247119330E-1    7.251305479523035E-5    5.881897890599873E-5    5.112144592945162E-5    7.331253327345494E-5   -4.656446520471684E-1   -9.140729099228664E-2
 1.004794964550000E+10  -3.582816234069918E-1   -2.876680514258114E-1    5.228604174889434E-5    4.968408347536632E-5    8.068635366098119E-5    7.034121718075687E-5   -4.654277213687023E-1   -9.105677033758197E-2
 1.004795331125000E+10  -3.583193300146587E-1   -2.874874803804334E-1    7.969692247890966E-5    6.362838746799425E-5    8.373034544632657E-5    7.260499559139769E-5   -4.656441608775344E-1   -9.064479886094279E-2
 1.004795697700000E+10  -3.584511945883678E-1   -2.871773797249442E-1    5.980307642606475E-5    9.363913542883953E-5    6.994654600253887E-5    9.035846009782959E-5   -4.656645530576596E-1   -9.037635827809727E-2
 1.004796064275000E+10  -3.586800416987906E-1   -2.870810968911527E-1    8.539993117698236E-5    8.735861390760780E-5    6.678365360903803E-5    9.923788424059650E-5   -4.657282364108150E-1   -9.013784351368649E-2
 1.004796430850000E+10  -3.589620853290998E-1   -2.867637514854067E-1    8.341767741289358E-5    1.008180415005068E-4    6.366530281756929E-5    1.183617588877930E-4   -4.657448390310212E-1   -8.979072200877708E-2
 1.004796797425000E+10  -3.589429640342654E-1   -2.866587755036408E-1    5.573693963781423E-5    7.365168515377362E-5    8.251747960900172E-5    1.242085168041210E-4   -4.657328726586668E-1   -8.952068798478593E-2
 1.004797164000000E+10  -3.590632328271949E-1   -2.866031561467625E-1    9.581111805399381E-5    9.464615625512792E-5    5.731663190257272E-5    1.324731174648598E-4   -4.657757281114985E-1   -8.923328833836053E-2
 1.004797530575000E+10  -3.591748106875689E-1   -2.863465886438147E-1    5.684873496696988E-5    9.773042618397526E-5    6.284138057401972E-5    1.316101127322468E-4   -4.658840464232457E-1   -8.877380295878912E-2
 1.004797897150000E+10  -3.595261657010881E-1   -2.861594946358573E-1    7.177059451507476E-5    1.129548546198655E-4    6.732264750764360E-5    1.422488838497405E-4   -4.658603426795133E-1   -8.852653643881025E-2
 1.004798263725000E+10  -3.596233334130444E-1   -2.859110893309925E-1    5.488033065371103E-5    1.583135340152164E-4    5.234568486604973E-5    1.278974862573872E-4   -4.660269818405918E-1   -8.814073017018319E-2
 1.004798630300000E+10  -3.598312894697266E-1   -2.857121399053296E-1    8.969930154889715E-5    1.528080406539560E-4    4.792139875421369E-5    1.517227819793668E-4   -4.660356429812492E-1   -8.777885401197920E-2
 1.004798996875000E+10  -3.599358346170851E-1   -2.855933871470309E-1    1.049622529188099E-4    1.394869113972044E-4    5.506382743184763E-5    1.319599914033530E-4   -4.661085107314429E-1   -8.763136787458788E-2
 1.004799363450000E+10  -3.599028753194278E-1   -2.853879116715199E-1    6.020814829416370E-5    1.674638093042110E-4    3.611232685578191E-5    1.814938836619053E-4   -4.659886328932498E-1   -8.718015031573625E-2
 1.004799730025000E+10  -3.601734872675015E-1   -2.850941785760914E-1    6.392122132903188E-5    1.548783252223077E-4    6.262979321576248E-5    1.496271102451580E-4   -4.660326993883032E-1   -8.693502851928707E-2
 1.004800096600000E+10  -3.603023334617326E-1   -2.848562465746730E-1    7.942904094937979E-5    2.010012296245360E-4    3.191202566082488E-5    2.163250062845596E-4   -4.660850364702220E-1   -8.655877506793523E-2
 1.004800463175000E+10  -3.604125316205376E-1   -2.847822616487440E-1    7.765462891599652E-5    2.008371847851512E-4    3.861339626101886E-5    1.824404695812052E-4   -4.661944180672492E-1   -8.624646091572143E-2
 1.004800829750000E+10  -3.605955058315613E-1   -2.844093869053469E-1    4.435145563203577E-5    2.153064845365323E-4    5.429099843610262E-5    2.269447630898471E-4   -4.661388084452524E-1   -8.581604557389147E-2
 1.004801196325000E+10  -3.607994710210953E-1   -2.843302867164265E-1    5.667483572452860E-5    2.016809774750574E-4    6.255130316085473E-5    2.402669312807019E-4   -4.661270814780113E-1   -8.551838393974888E-2
 1.004801562900000E+10  -3.608534446058190E-1   -2.840976076577386E-1    5.861126974842251E-5    2.390109592995670E-4    6.081560598563706E-5    2.333972350064958E-4   -4.662745707031660E-1   -8.526525997000405E-2
 1.004801929475000E+10  -3.612007645216120E-1   -2.838620394172074E-1    5.794865783305567E-5    2.179551420623078E-4    5.685230078933406E-5    2.594375250418555E-4   -4.663225481613035E-1   -8.494097279619464E-2
 1.004802296050000E+10  -3.612634667796019E-1   -2.837275906848919E-1    4.135462765614871E-5    2.457714960096850E-4    3.435197824042707E-5    2.510971371680373E-4   -4.663662437969179E-1   -8.458137349255869E-2
 1.004802662625000E+10  -3.613350535320879E-1   -2.834583265430342E-1    6.161329076776851E-5    2.873278423458533E-4    3.645850261632766E-5    2.844121042166884E-4   -4.662492601926704E-1   -8.428900458442579E-2
 1.004803029200000E+10  -3.613277836947374E-1   -2.832695508957220E-1    5.319945667666931E-5    2.818682138242310E-4    3.725526098666115E-5    2.790907862107148E-4   -4.662792286112424E-1   -8.385283287277807E-2
 1.004803395775000E+10  -3.617316292380235E-1   -2.830998280604407E-1    4.761057639957643E-5    2.907676936098613E-4    4.877980325046293E-5    2.852050477843027E-4   -4.663244678461207E-1   -8.340242914179354E-2
 1.004803762350000E+10  -3.617878065222466E-1   -2.828926892960209E-1    4.626905570403377E-5    2.780240269928216E-4    3.468335067840050E-5    3.243442171911278E-4   -4.663048697656293E-1   -8.308457195946096E-2
 1.004804128925000E+10  -3.619087140232451E-1   -2.827625458239759E-1    8.813881144535731E-5    3.031182010336294E-4    2.807294324509393E-5    3.235878491028232E-4   -4.664606770146210E-1   -8.282952311318528E-2
 1.004804495500000E+10  -3.621095759047112E-1   -2.825891515301626E-1    4.530300180212666E-5    3.132388944602563E-4    1.808589788276724E-5    3.221940969322520E-4   -4.665272279006848E-1   -8.255204475375916E-2
 1.004804862075000E+10  -3.622552490126235E-1   -2.822971034226903E-1    5.696724539867846E-5    3.559105636188385E-4    2.443052892881386E-5    3.158272531696810E-4   -4.663364358465021E-1   -8.206247320677942E-2
 1.004805228650000E+10  -3.623749092947800E-1   -2.820780701439436E-1    5.076788097477026E-5    3.310378939065704E-4    6.040597397250801E-5    3.124205416253951E-4   -4.665642020008575E-1   -8.178272162374355E-2
 1.004805595225000E+10  -3.625747772843732E-1   -2.819454654090962E-1    4.232013672354452E-5    3.434242351181986E-4    1.985166449008206E-5    3.505624462318453E-4   -4.665824023444340E-1   -8.137618066566622E-2
 1.004805961800000E+10  -3.627419634766732E-1   -2.816484879201561E-1    7.157846506786560E-5    3.811916444353485E-4    4.589360342245692E-5    3.900657590618474E-4   -4.664887714923376E-1   -8.125012059034432E-2
 1.004806328375000E+10  -3.628343607773598E-1   -2.816628031974514E-1    6.728333015143965E-5    3.637731556558221E-4    3.174840144075349E-5    3.990319149456123E-4   -4.666662261332504E-1   -8.061754330409858E-2
 1.004806694950000E+10  -3.630342885157841E-1   -2.813614920861160E-1    4.195050579047287E-5    3.680826666523924E-4    2.060723239531557E-5    4.107683771269429E-4   -4.666727564433585E-1   -8.041241698771004E-2
 1.004807061525000E+10  -3.631279146829645E-1   -2.811816928767892E-1    6.340898967321484E-5    3.812409692028832E-4    3.483943919962817E-5    4.028944780013435E-4   -4.666767226706680E-1   -8.008037616458509E-2
 1.004807428100000E+10  -3.632346450608221E-1   -2.810086347334896E-1    6.193816366552688E-5    4.129547611684556E-4    5.636972354350702E-5    4.185822102162266E-4   -4.666830162901343E-1   -7.964929203270717E-2
 1.004807794675000E+10  -3.633782516402327E-1   -2.806965069020479E-1    4.150142555432570E-5    4.293281679350151E-4    7.737296997797760E-6    4.142371775069762E-4   -4.666904748752170E-1   -7.940149319763916E-2
 1.004808161250000E+10  -3.635518308167098E-1   -2.804505645277010E-1    6.062580818716910E-5    4.343676529417069E-4    1.567660131483101E-5    4.610868906876015E-4   -4.666587568881808E-1   -7.900225847403936E-2
 1.004808527825000E+10  -3.636191237847431E-1   -2.803950435671455E-1    7.888679474936833E-5    4.552256862026501E-4    4.648104925599711E-5    4.674820666804074E-4   -4.667127195350670E-1   -7.856302324084570E-2
 1.004808894400000E+10  -3.639669120903961E-1   -2.802996240257939E-1    1.837817868824589E-5    4.668812433364266E-4    1.304358633281766E-5    4.740566982145228E-4   -4.666807253585309E-1   -7.821626921887166E-2
 1.004809260975000E+10  -3.638451988692735E-1   -2.799030024687181E-1    7.309610348443973E-5    4.539389349228853E-4    2.633256442785436E-5    4.558498911355350E-4   -4.667857838751535E-1   -7.789590214280223E-2
 1.004809627550000E+10  -3.641747851312054E-1   -2.798227834088815E-1    2.803040650428464E-5    4.760108681992297E-4    4.746648648069467E-5    4.945388846522812E-4   -4.666941069679045E-1   -7.752100113039714E-2
 1.004809994125000E+10  -3.642113155855607E-1   -2.793808366895082E-1    8.078820275230260E-5    4.760163649780983E-4    6.227602367368701E-5    5.210990821329986E-4   -4.667129145785140E-1   -7.710586144076928E-2
 1.004810360700000E+10  -3.644334261333914E-1   -2.793839698271219E-1    3.924038348928828E-5    5.142915980229911E-4    1.410194609815424E-5    5.134490080225165E-4   -4.666450338070415E-1   -7.667285696179048E-2
 1.004810727275000E+10  -3.647012266754556E-1   -2.793037931893315E-1    6.241931108440236E-5    5.412934430332899E-4    3.610425449438726E-5    5.443597470763134E-4   -4.668371943504201E-1   -7.639950830649921E-2
 1.004811093850000E+10  -3.646500029637760E-1   -2.791778947274559E-1    7.451465056210035E-5    5.252661011374052E-4    3.740550672630084E-5    5.536554698546567E-4   -4.669262113957945E-1   -7.600040477940100E-2
 1.004811460425000E+10  -3.648448154387657E-1   -2.788092875739137E-1    7.852119725951721E-5    5.723827423041356E-4    1.392023204337296E-5    5.752605622345683E-4   -4.668237683537449E-1   -7.565881926841435E-2
 1.004811827000000E+10  -3.650162448493903E-1   -2.787076549741382E-1    6.619524908059086E-5    5.997931413942520E-4    7.098020052940186E-6    5.800502872212972E-4   -4.668150524619491E-1   -7.511696729536700E-2
 1.004812193575000E+10  -3.651572202309016E-1   -2.785326991124257E-1    8.020689197971985E-5    5.848670703371302E-4    2.248633314235548E-5    6.089468783793797E-4   -4.667544229528970E-1   -7.498972441340296E-2
 1.004812560150000E+10  -3.653105897091034E-1   -2.782526597771240E-1    5.060788416467116E-5    5.881678957908382E-4    1.275805752839872E-5    6.038642043933382E-4   -4.670321698809261E-1   -7.450635358485301E-2
 1.004812926725000E+10  -3.654983040867869E-1   -2.779855666250378E-1    5.789294449660341E-5    6.151412996537823E-4   -2.239465095272660E-6    6.387896223034081E-4   -4.669061569494647E-1   -7.404944073322069E-2
 1.004813293300000E+10  -3.655062205611979E-1   -2.778840130978880E-1    6.439863049958142E-5    6.205198332083076E-4    2.598874790408460E-5    6.529732412165992E-4   -4.668503476977355E-1   -7.358633570063450E-2
 1.004813659875000E+10  -3.657295816613245E-1   -2.776263542882525E-1    7.216815358148461E-5    6.447342869231079E-4    1.157136267383915E-5    6.311937767425020E-4   -4.669949346185013E-1   -7.339454573112744E-2
 1.004814026450000E+10  -3.657421432566884E-1   -2.773989807585289E-1    4.342032232331298E-5    6.554747229201543E-4    1.036470951693068E-6    6.647812881363060E-4   -4.668259424456174E-1   -7.300113040362929E-2
 1.004814393025000E+10  -3.659160527064160E-1   -2.772282690873776E-1    7.456650159006907E-5    6.569253923561386E-4    3.426806409417402E-5    6.702608032156651E-4   -4.668299612981152E-1   -7.262144505346474E-2
 1.004814759600000E+10  -3.661709160782093E-1   -2.771428431987207E-1    4.509021008641775E-5    7.027793775166643E-4    1.143399149733505E-5    7.255188149546410E-4   -4.669255387450097E-1   -7.218842396301539E-2
 1.004815126175000E+10  -3.662757751617596E-1   -2.768022284498315E-1    7.509132062589662E-5    7.211264950690235E-4    2.782624889413063E-5    7.140209881157849E-4   -4.669593333411715E-1   -7.182062567713637E-2
 1.004815492750000E+10  -3.663986941455988E-1   -2.765885224834638E-1    5.363709399677370E-5    7.341158243106908E-4    5.713079489419784E-5    7.700340205755151E-4   -4.668512291524777E-1   -7.137773759148860E-2
 1.004815859325000E+10  -3.664494104646072E-1   -2.765399615232001E-1    3.114098643876717E-5    7.403214491731068E-4   -2.375204659729150E-7    7.522491725063167E-4   -4.669773530403062E-1   -7.089954156613378E-2
 1.004816225900000E+10  -3.665139506743616E-1   -2.763303241910011E-1    7.367668620001077E-5    7.431168738968960E-4    1.737562134090912E-5    7.755683354185063E-4   -4.668457530339629E-1   -7.048772356572841E-2
 1.004816592475000E+10  -3.667887396812096E-1   -2.759459279469852E-1    7.018611050895084E-5    7.710529813459271E-4    2.762130872194198E-5    7.670125277709099E-4   -4.669498652406994E-1   -7.019668044388194E-2
 1.004816959050000E+10  -3.669413713352101E-1   -2.758384039963412E-1    7.998396146977554E-5    8.290485561402895E-4    3.242082702382991E-5    8.310618116396922E-4   -4.667651219230975E-1   -6.966476149968924E-2
 1.004817325625000E+10  -3.670796102251013E-1   -2.756502491486085E-1    4.778692955607831E-5    8.385286595327971E-4    1.429536847078513E-5    8.522724660006785E-4   -4.668037986201223E-1   -6.921091485566959E-2
 1.004817692200000E+10  -3.672563175518475E-1   -2.754437038288313E-1    6.749500960249921E-5    8.430228587542383E-4    1.667216715908674E-5    8.562572264003331E-4   -4.668910416588677E-1   -6.886027514249429E-2
 1.004818058775000E+10  -3.675969157770560E-1   -2.752559492986260E-1    7.370298324002921E-5    8.277305148796342E-4    2.290749674336182E-5    8.620275238619233E-4   -4.668864040887790E-1   -6.857453778068744E-2
 1.004818425350000E+10  -3.674061483015199E-1   -2.749840561076328E-1    8.957352495995656E-5    8.802203324276196E-4    3.259472237426930E-5    8.881892932118346E-4   -4.669282307365466E-1   -6.795457576267835E-2
 1.004818791925000E+10  -3.678562785213559E-1   -2.747765267662956E-1    6.654304684775791E-5    9.093170801639166E-4    3.475905849349464E-5    9.064239730465685E-4   -4.668485107563250E-1   -6.752353627044684E-2
 1.004819158500000E+10  -3.678037497483964E-1   -2.746925141257273E-1    5.626563776537945E-5    9.262404585576259E-4    5.584885482823046E-5    9.459139049999501E-4   -4.667492500321139E-1   -6.723942074602202E-2
 1.004819525075000E+10  -3.679984340119691E-1   -2.744552476128009E-1    6.965002741805804E-5    9.375407156803015E-4   -3.788130168207280E-6    9.619665763906635E-4   -4.667096704447664E-1   -6.682591884644751E-2
 1.004819891650000E+10  -3.681343951526769E-1   -2.741744455975376E-1    1.288361367640977E-4    9.677174010809376E-4    3.139352187979721E-5    9.963735809522146E-4   -4.667645438011503E-1   -6.617242824236837E-2
