#  HZ   S   RI   R     50.00 
! Rohde & Schwarz Vector Network Analyzer 
! Rohde-Schwarz,ZNB20-2Port,1311601062101988,3.16
! Created: UTC 3/21/2024, 1:16:20 AM
! freq[Hz]                re:S11                  im:S11                  re:S21                  im:S21                  re:S12                  im:S12                  re:S22                  im:S22
 1.004839198800000E+10  -3.619964164346476E-1   -2.775900530875464E-1    1.538323421370768E-4   -4.843506056646150E-4    2.172226132939945E-4   -5.041130158055447E-4   -4.680869698828697E-1   -9.287597020743434E-2
 1.004839775060000E+10  -3.624410471265908E-1   -2.773567647094142E-1    1.535260864069505E-4   -5.009477645700464E-4    2.022030073921264E-4   -5.068329810161278E-4   -4.680023690662463E-1   -9.248253814940161E-2
 1.004840351320000E+10  -3.626838652394818E-1   -2.769661956586837E-1    1.754355513255064E-4   -5.107513659968646E-4    2.007531162558672E-4   -5.134331927878735E-4   -4.681858330173275E-1   -9.211372370260132E-2
 1.004840927580000E+10  -3.628003473849715E-1   -2.766123109375022E-1    1.833930695980057E-4   -5.181513043600761E-4    2.042794738086337E-4   -4.707299081625423E-4   -4.681906729432156E-1   -9.156574825523772E-2
 1.004841503840000E+10  -3.628449674337896E-1   -2.764298465915185E-1    1.657236309119212E-4   -4.912443079621970E-4    2.156127669214607E-4   -5.049936782019198E-4   -4.683748320249854E-1   -9.121212264448435E-2
 1.004842080100000E+10  -3.632220599303118E-1   -2.762069011358939E-1    1.733214727848730E-4   -4.845232455166818E-4    1.837911078202286E-4   -4.852480793093908E-4   -4.684251337711248E-1   -9.085019872903324E-2
 1.004842656360000E+10  -3.633071971526846E-1   -2.757987744595806E-1    1.679498305132731E-4   -5.029454704787231E-4    1.848207270325886E-4   -4.732451601463275E-4   -4.684045187691782E-1   -9.038916449805651E-2
 1.004843232620000E+10  -3.636583614333680E-1   -2.754009363758840E-1    1.533303632564367E-4   -4.888367110745367E-4    1.921955181535256E-4   -4.669664296770815E-4   -4.683764113837958E-1   -9.001041457259355E-2
 1.004843808880000E+10  -3.639007868465347E-1   -2.752039595215479E-1    1.722586701348320E-4   -4.633287033500449E-4    2.045625499753532E-4   -4.424034062517973E-4   -4.684916352429178E-1   -8.957802895717812E-2
 1.004844385140000E+10  -3.640712820683374E-1   -2.747984292707452E-1    1.607427415877500E-4   -4.768544426179503E-4    1.721343391284113E-4   -4.756314432624047E-4   -4.684691735047414E-1   -8.922585356493161E-2
 1.004844961400000E+10  -3.642854150974317E-1   -2.745048066182334E-1    1.649943362555769E-4   -4.906948352571165E-4    2.189608046776572E-4   -4.589489594028696E-4   -4.687006889581020E-1   -8.877827311866256E-2
 1.004845537660000E+10  -3.644978545486872E-1   -2.741636062635958E-1    1.689574746433172E-4   -4.791311826850602E-4    2.166648097625867E-4   -4.497180545849428E-4   -4.686020792793724E-1   -8.835442147084105E-2
 1.004846113920000E+10  -3.647108576317912E-1   -2.737961691530145E-1    1.463177132747658E-4   -4.783034387199805E-4    1.946251257588061E-4   -4.543147507197990E-4   -4.686807624110724E-1   -8.784984620115839E-2
 1.004846690180000E+10  -3.649553247627131E-1   -2.736198276335796E-1    1.799088200419119E-4   -4.450629761930451E-4    1.829420438671734E-4   -4.409427275576771E-4   -4.687344707162740E-1   -8.752470830501229E-2
 1.004847266440000E+10  -3.651351296026693E-1   -2.732939679909022E-1    1.420123089247451E-4   -4.468653353468196E-4    1.944117992431996E-4   -4.351359655032528E-4   -4.688748266780501E-1   -8.701677312628317E-2
 1.004847842700000E+10  -3.654575820692672E-1   -2.728519068527584E-1    1.471892094898263E-4   -4.252109240221787E-4    1.796500974938555E-4   -4.221557405479740E-4   -4.689573786112265E-1   -8.669417552634327E-2
 1.004848418960000E+10  -3.656700999574333E-1   -2.727541317666258E-1    1.631908335382255E-4   -4.611784213421405E-4    1.806426226308699E-4   -4.144329033316962E-4   -4.689416933420703E-1   -8.626751919618911E-2
 1.004848995220000E+10  -3.657772090113962E-1   -2.723103548677461E-1    1.588705348729079E-4   -4.344165996809590E-4    2.107262166084391E-4   -4.384780284546498E-4   -4.690616801347193E-1   -8.581360656471741E-2
 1.004849571480000E+10  -3.660209402060807E-1   -2.719319825098832E-1    1.392937680925083E-4   -4.497903954852011E-4    2.175855839211160E-4   -4.044120206980132E-4   -4.691075162946376E-1   -8.543563994685900E-2
 1.004850147740000E+10  -3.662842028027237E-1   -2.717796455176952E-1    1.856731781138338E-4   -4.287028251240286E-4    2.026409071470297E-4   -4.131030889395413E-4   -4.692521971439028E-1   -8.493923227542957E-2
 1.004850724000000E+10  -3.664500378325834E-1   -2.714947287147466E-1    1.685804791535083E-4   -4.268626089642794E-4    1.654312000036523E-4   -4.045125911168924E-4   -4.694228931980416E-1   -8.462151728685484E-2
 1.004851300260000E+10  -3.668453229781178E-1   -2.711039769518644E-1    1.472565062790639E-4   -4.020702074929805E-4    1.687716537256981E-4   -4.139878079378476E-4   -4.693698048477989E-1   -8.416803078200741E-2
 1.004851876520000E+10  -3.669522279316869E-1   -2.708474469323931E-1    1.460677542747631E-4   -4.282516068586360E-4    1.921993467947147E-4   -4.057890659944260E-4   -4.692986722193830E-1   -8.370719536607386E-2
 1.004852452780000E+10  -3.671676266358068E-1   -2.704452903002382E-1    1.348457189952553E-4   -4.064864962272405E-4    1.699950629462295E-4   -4.006969615161401E-4   -4.693550190949995E-1   -8.338525353140863E-2
 1.004853029040000E+10  -3.674862554495208E-1   -2.701340761434750E-1    1.783258520816746E-4   -4.034638363148034E-4    1.961200104459171E-4   -4.020769544068137E-4   -4.693940202523801E-1   -8.284951368054494E-2
 1.004853605300000E+10  -3.675153758461573E-1   -2.698994630012371E-1    1.672117085741172E-4   -4.104394737432965E-4    1.481192623220589E-4   -3.729170876447450E-4   -4.695326138751076E-1   -8.258318907482211E-2
 1.004854181560000E+10  -3.677795080919418E-1   -2.694386501752343E-1    1.652361009098747E-4   -4.003591594300592E-4    1.665845720717158E-4   -3.757920418959578E-4   -4.695802236874922E-1   -8.204085125145837E-2
 1.004854757820000E+10  -3.679371852335780E-1   -2.692433540935656E-1    1.586910595840155E-4   -3.795342180145731E-4    1.736193157614264E-4   -3.724138295921846E-4   -4.696184739763333E-1   -8.159911420729962E-2
 1.004855334080000E+10  -3.682375259609131E-1   -2.688873877927112E-1    1.603183483608157E-4   -3.766719645741181E-4    1.668115127724548E-4   -3.755573350097612E-4   -4.696941846579442E-1   -8.122171558416476E-2
 1.004855910340000E+10  -3.683894420930920E-1   -2.685894877981637E-1    1.266813742626218E-4   -3.918269946925271E-4    1.744804450824632E-4   -3.801224269021305E-4   -4.696885359074343E-1   -8.072490037279571E-2
 1.004856486600000E+10  -3.686236288142489E-1   -2.683379666059200E-1    1.660869260715727E-4   -3.956988797645546E-4    1.763290604034794E-4   -3.685110523442569E-4   -4.698519193817925E-1   -8.027941921467301E-2
 1.004857062860000E+10  -3.688226557698151E-1   -2.679664031042885E-1    1.365629067027202E-4   -3.561401815567852E-4    1.953060503116980E-4   -3.365054814101303E-4   -4.698740336012240E-1   -7.986991053644055E-2
 1.004857639120000E+10  -3.690556726051248E-1   -2.675544397006411E-1    1.687150102760177E-4   -3.849609667668224E-4    1.951744422678700E-4   -3.489251667163964E-4   -4.699350109764922E-1   -7.928571797224249E-2
 1.004858215380000E+10  -3.693131979608674E-1   -2.671876291501064E-1    1.545188898441032E-4   -3.559202642332956E-4    1.851607167225805E-4   -3.261418798245112E-4   -4.699848237263968E-1   -7.915292232465759E-2
 1.004858791640000E+10  -3.694333567733915E-1   -2.669730327661349E-1    1.498972747242702E-4   -3.529921142257423E-4    1.681976288966048E-4   -3.694433141823313E-4   -4.700591456736377E-1   -7.857987754345809E-2
 1.004859367900000E+10  -3.697240732132553E-1   -2.666786838260513E-1    1.584892481423531E-4   -3.274852749913900E-4    1.854789038527028E-4   -2.888445787750874E-4   -4.699433894305276E-1   -7.820969833401614E-2
 1.004859944160000E+10  -3.699062208364616E-1   -2.662873008464470E-1    1.401300841666231E-4   -3.291008245068392E-4    1.565268638352351E-4   -3.357112550332782E-4   -4.700878098116585E-1   -7.781735891692806E-2
 1.004860520420000E+10  -3.700956335073870E-1   -2.660133396731079E-1    1.830861401654660E-4   -3.229051085051949E-4    1.654481282759187E-4   -3.356445801982706E-4   -4.701154526324706E-1   -7.727312742833219E-2
 1.004861096680000E+10  -3.704091793841066E-1   -2.657015754459555E-1    1.767714285786148E-4   -3.120763525898778E-4    1.510960450954025E-4   -2.933620599921019E-4   -4.700494213267123E-1   -7.689117094808243E-2
 1.004861672940000E+10  -3.706202641437796E-1   -2.653036886278977E-1    1.448261377778364E-4   -3.075710495896716E-4    1.760429679136985E-4   -2.917876108025266E-4   -4.702905399815906E-1   -7.658286256329355E-2
 1.004862249200000E+10  -3.707619136771382E-1   -2.650745417109063E-1    1.583512377394068E-4   -2.975797409715083E-4    1.718078045922271E-4   -2.994432199521845E-4   -4.702828071540892E-1   -7.597995933512301E-2
 1.004862825460000E+10  -3.709698524901093E-1   -2.647356581478748E-1    1.547911096883605E-4   -3.012448115382101E-4    1.775982858427762E-4   -3.102613633774158E-4   -4.704046197585993E-1   -7.551059096557673E-2
 1.004863401720000E+10  -3.712881454461622E-1   -2.643623952408278E-1    1.627909954392223E-4   -3.057827597166909E-4    1.612878707170604E-4   -2.790929621040149E-4   -4.704731881770134E-1   -7.516137501783250E-2
 1.004863977980000E+10  -3.715087605626018E-1   -2.641523031349448E-1    1.486299023385775E-4   -3.232928063057779E-4    1.607177681600701E-4   -3.105457942658796E-4   -4.705073382890189E-1   -7.476474112865986E-2
 1.004864554240000E+10  -3.716139222673401E-1   -2.638036523844465E-1    1.529082293373166E-4   -2.523305390265119E-4    1.738840564792581E-4   -2.812490453185334E-4   -4.704908949134528E-1   -7.446099736462035E-2
 1.004865130500000E+10  -3.717886803506553E-1   -2.635340742700970E-1    1.191028355087989E-4   -2.896904162678113E-4    1.695093920965872E-4   -2.996201781397034E-4   -4.705086545668299E-1   -7.388479766484640E-2
 1.004865706760000E+10  -3.720553165526175E-1   -2.631779791082291E-1    1.572964130563521E-4   -2.803761651071401E-4    1.519772778200282E-4   -2.317570948031332E-4   -4.706061593303856E-1   -7.337217092169876E-2
 1.004866283020000E+10  -3.722814493868882E-1   -2.629834953369517E-1    1.266450944861042E-4   -2.777817151823917E-4    1.613086547890216E-4   -2.708473881079363E-4   -4.707030733073688E-1   -7.300318905466882E-2
 1.004866859280000E+10  -3.724959265185182E-1   -2.626065441245692E-1    1.498580608890464E-4   -2.522662818119165E-4    1.571335238609160E-4   -2.583723430367993E-4   -4.706399962555240E-1   -7.251195534214887E-2
 1.004867435540000E+10  -3.726550657712135E-1   -2.622162816382446E-1    1.533503300979149E-4   -2.199426859325942E-4    1.609932179655577E-4   -2.493826648267384E-4   -4.706228679350480E-1   -7.208579558662237E-2
 1.004868011800000E+10  -3.729922375479265E-1   -2.619459998781659E-1    1.287497535155131E-4   -2.672515612938911E-4    1.557057180631544E-4   -2.522365798489108E-4   -4.706707395445092E-1   -7.153651530794226E-2
 1.004868588060000E+10  -3.730821749985622E-1   -2.615898859029769E-1    1.561111304599546E-4   -2.312749484769265E-4    1.482839334394047E-4   -2.300681166281931E-4   -4.708460863808714E-1   -7.120897782500293E-2
 1.004869164320000E+10  -3.733244956790697E-1   -2.612627074122935E-1    1.487268941153164E-4   -2.398360176511069E-4    1.563047625729340E-4   -2.250787384041944E-4   -4.708086860768633E-1   -7.066585679205349E-2
 1.004869740580000E+10  -3.734810596754692E-1   -2.608779186733106E-1    1.407945732696500E-4   -2.184494320323571E-4    1.376670959959150E-4   -1.988319000783563E-4   -4.708468797719157E-1   -7.025831908862504E-2
 1.004870316840000E+10  -3.737662976980914E-1   -2.607931696901200E-1    1.457762902013462E-4   -1.823458557527713E-4    1.542265992499743E-4   -2.245208899150323E-4   -4.707179063953605E-1   -6.980036653473660E-2
 1.004870893100000E+10  -3.738523897930696E-1   -2.604005678672247E-1    1.472311208925480E-4   -2.273603851316005E-4    1.241670986954505E-4   -1.946859524560102E-4   -4.710240106375181E-1   -6.941806031825988E-2
 1.004871469360000E+10  -3.741904260733154E-1   -2.600998341725949E-1    1.312471880180704E-4   -1.871040545523127E-4    1.586901327349248E-4   -2.116791612021207E-4   -4.712008433768878E-1   -6.884894943918636E-2
 1.004872045620000E+10  -3.743643817172991E-1   -2.597193519976979E-1    1.529345977887922E-4   -1.825803135746978E-4    1.539035279075666E-4   -1.765008017924913E-4   -4.709743504390256E-1   -6.851371869403762E-2
 1.004872621880000E+10  -3.745452708909071E-1   -2.594585434808397E-1    1.383156201576646E-4   -1.567097000325547E-4    1.516697495472433E-4   -1.817477017122795E-4   -4.710872331201726E-1   -6.803995415249885E-2
 1.004873198140000E+10  -3.748775160708091E-1   -2.591261763133446E-1    1.575544591477641E-4   -1.598656723969667E-4    1.751588943577079E-4   -1.682004881656104E-4   -4.710505921110396E-1   -6.757756882079785E-2
 1.004873774400000E+10  -3.750037511172437E-1   -2.588084811375646E-1    1.698815192044592E-4   -1.806811124613535E-4    1.458671119218002E-4   -1.444085594730900E-4   -4.711447396876752E-1   -6.698901699799974E-2
 1.004874350660000E+10  -3.751097187572651E-1   -2.583945807448332E-1    1.250699981389389E-4   -1.601706988480026E-4    1.570372390106210E-4   -1.645281201445033E-4   -4.709652530117794E-1   -6.667347783799649E-2
 1.004874926920000E+10  -3.754627543902719E-1   -2.580476409690471E-1    1.556078803900471E-4   -1.511768303392067E-4    1.441452127745709E-4   -1.521658160331154E-4   -4.711231340574869E-1   -6.631268674501774E-2
 1.004875503180000E+10  -3.756809664807205E-1   -2.577904395963509E-1    1.377711821532741E-4   -1.059508795675036E-4    1.630450644945149E-4   -1.329710840064018E-4   -4.711548549641356E-1   -6.571376465341554E-2
 1.004876079440000E+10  -3.758473112969807E-1   -2.574292163734332E-1    1.551704159861943E-4   -1.422307675465949E-4    1.542759473904359E-4   -1.232897024399938E-4   -4.712008967874439E-1   -6.531361402688834E-2
 1.004876655700000E+10  -3.760063631525798E-1   -2.571816574117285E-1    1.691977744108803E-4   -1.171223296514610E-4    1.622342708372027E-4   -1.158588248536432E-4   -4.711416258383704E-1   -6.490094647222010E-2
 1.004877231960000E+10  -3.764138732193781E-1   -2.567901280324983E-1    1.610149706414043E-4   -1.029717903848208E-4    1.428763586918090E-4   -1.220812277842714E-4   -4.712702287834823E-1   -6.431755785634595E-2
 1.004877808220000E+10  -3.764222692736690E-1   -2.565643489212519E-1    1.401918710211668E-4   -1.006530320744536E-4    1.445682430424805E-4   -8.970940660306641E-5   -4.713311625618236E-1   -6.380939283633115E-2
 1.004878384480000E+10  -3.766234559585143E-1   -2.562035609697170E-1    1.693413143665008E-4   -1.119371408461423E-4    1.408795805699906E-4   -8.075098442894995E-5   -4.712604123879207E-1   -6.335372587929637E-2
 1.004878960740000E+10  -3.768763328821895E-1   -2.558947724607245E-1    1.709535161189047E-4   -7.079287478172496E-5    1.463200684572296E-4   -6.032324547161932E-5   -4.713498193954256E-1   -6.299748144710325E-2
 1.004879537000000E+10  -3.769950410410415E-1   -2.556967293611959E-1    1.790117133425422E-4   -7.632544367837029E-5    1.248990871852768E-4   -7.545704840774302E-5   -4.714098008116434E-1   -6.249925198253632E-2
 1.004880113260000E+10  -3.773359033338185E-1   -2.551941307727144E-1    1.533410059056205E-4   -6.795444021178335E-5    1.628572438301103E-4   -5.750394696001709E-5   -4.712261057682324E-1   -6.200361214567667E-2
 1.004880689520000E+10  -3.774920072495325E-1   -2.549090584338102E-1    1.315846140608284E-4   -4.419993073320240E-5    1.342432719387562E-4   -3.598826370839208E-5   -4.714054942764272E-1   -6.154931413770157E-2
 1.004881265780000E+10  -3.775951585969048E-1   -2.545886697125043E-1    1.607817862392831E-4   -3.590119512140359E-5    1.721363381247757E-4   -2.163998332482340E-5   -4.714093276602179E-1   -6.109532235781421E-2
 1.004881842040000E+10  -3.780472765876346E-1   -2.543344107430812E-1    1.469827700540175E-4   -1.254780747728775E-5    1.602218696338630E-4   -1.789933573528861E-5   -4.715666990432745E-1   -6.056903543758402E-2
 1.004882418300000E+10  -3.780949873743910E-1   -2.539893005026410E-1    1.359394747172138E-4   -2.042583405190258E-6    1.519074374964584E-4    2.943066005359983E-6   -4.715205795687596E-1   -6.015085341410778E-2
 1.004882994560000E+10  -3.782370262343384E-1   -2.535776821764257E-1    1.262487549167660E-4    9.689922622229165E-6    1.458387378132338E-4    1.317493345296890E-5   -4.714714545992179E-1   -5.952448651219530E-2
 1.004883570820000E+10  -3.784318491815122E-1   -2.531809964613520E-1    1.310014918837660E-4    8.815699929259311E-6    1.689077608979296E-4    3.452684774276520E-5   -4.715293647098507E-1   -5.913460368576384E-2
 1.004884147080000E+10  -3.785986533968891E-1   -2.529682459109873E-1    1.500952601199660E-4    9.476663603942298E-6    1.423983983071306E-4    4.305035566706136E-5   -4.715162887021683E-1   -5.853158008216710E-2
 1.004884723340000E+10  -3.788413457403586E-1   -2.526017274615686E-1    1.475109019733460E-4    2.782909545302279E-5    1.641262041735036E-4    4.275961809905270E-5   -4.715695647234764E-1   -5.820019505531834E-2
 1.004885299600000E+10  -3.790265913369405E-1   -2.522395467359521E-1    1.510028582352877E-4    4.259607661455650E-5    1.722479189836318E-4    2.577395164873650E-5   -4.715464135476820E-1   -5.776062277730248E-2
 1.004885875860000E+10  -3.792429540149924E-1   -2.519089454094514E-1    1.538102453832034E-4    6.535643740364242E-5    1.437071709942828E-4    5.407800754530670E-5   -4.715869615568034E-1   -5.705128640921707E-2
 1.004886452120000E+10  -3.795341295567335E-1   -2.517051153437578E-1    1.919210617944235E-4    8.420884471830212E-5    1.285439812147257E-4    8.521025883512489E-5   -4.714528210397118E-1   -5.676021445319792E-2
 1.004887028380000E+10  -3.797189324401473E-1   -2.514566008819137E-1    1.535747272650822E-4    9.376324977880445E-5    1.642318376272832E-4    8.636183514182727E-5   -4.716521520996261E-1   -5.623700452062873E-2
 1.004887604640000E+10  -3.798998744796812E-1   -2.510126232554697E-1    1.499618025804656E-4    8.089738625577504E-5    1.852037704519661E-4    1.018743342752029E-4   -4.715651395282310E-1   -5.573287976388058E-2
 1.004888180900000E+10  -3.800603425744523E-1   -2.507153572436857E-1    1.484456794077322E-4    1.214898205455678E-4    1.300415772636423E-4    8.278397396347084E-5   -4.714684077095277E-1   -5.520205725812929E-2
 1.004888757160000E+10  -3.803251640274672E-1   -2.503090471533206E-1    1.855607891381788E-4    1.151681608197367E-4    1.594394686279277E-4    1.299547479817599E-4   -4.715675506790346E-1   -5.458872877922880E-2
 1.004889333420000E+10  -3.805150299538209E-1   -2.500945011723433E-1    1.442297928879622E-4    1.119965280317697E-4    1.521730859319128E-4    1.212238745826133E-4   -4.715004341853156E-1   -5.415994588602879E-2
 1.004889909680000E+10  -3.807203529095475E-1   -2.495812216605265E-1    1.610739811885704E-4    1.113371814638732E-4    1.507144445710719E-4    1.486839879507047E-4   -4.717367552608108E-1   -5.374669532214361E-2
 1.004890485940000E+10  -3.809501840398501E-1   -2.494788649088749E-1    1.669634571516509E-4    1.646835244431790E-4    1.569662282825821E-4    1.734486251388504E-4   -4.715730459971141E-1   -5.329446670954115E-2
 1.004891062200000E+10  -3.810220293390275E-1   -2.491444924340440E-1    1.758473389299356E-4    1.442131461326010E-4    1.588713617856748E-4    1.771257286712249E-4   -4.716068506308435E-1   -5.267179355680952E-2
