#  HZ   S   RI   R     50.00 
! Rohde & Schwarz Vector Network Analyzer 
! Rohde-Schwarz,ZNB20-2Port,1311601062101988,3.16
! Created: UTC 3/21/2024, 1:17:14 AM
! freq[Hz]                re:S11                  im:S11                  re:S21                  im:S21                  re:S12                  im:S12                  re:S22                  im:S22
 1.004859168200000E+10  -3.691514388209761E-1   -2.673253924622696E-1    1.302296685175361E-4   -4.562457552462578E-4    1.481608637933189E-4   -4.074226114457478E-4   -4.701488438364283E-1   -7.912846922222634E-2
 1.004859675275000E+10  -3.692577461739671E-1   -2.672027512000043E-1    1.387682922130762E-4   -4.113556046428524E-4    1.713357471402067E-4   -3.882262854667790E-4   -4.702613473413314E-1   -7.881151271957818E-2
 1.004860182350000E+10  -3.696786272930954E-1   -2.669946468830997E-1    1.474749072085223E-4   -3.967916438801391E-4    1.944845012155207E-4   -3.887555802770862E-4   -4.702782669265082E-1   -7.840281357779411E-2
 1.004860689425000E+10  -3.697409038522343E-1   -2.665143381951627E-1    1.159956461781681E-4   -3.942611044986866E-4    1.833063486569510E-4   -4.050327357119210E-4   -4.702341267577966E-1   -7.803265387918336E-2
 1.004861196500000E+10  -3.698588591393339E-1   -2.662474971645242E-1    1.472315203181940E-4   -3.730404262442110E-4    1.720614363588947E-4   -4.022711997770140E-4   -4.704288304350056E-1   -7.768524822203714E-2
 1.004861703575000E+10  -3.700965793892880E-1   -2.660073818760303E-1    1.305257043234355E-4   -4.125149391394361E-4    1.463078646800414E-4   -4.095910028095780E-4   -4.703767874007738E-1   -7.719550886895138E-2
 1.004862210650000E+10  -3.702993445848060E-1   -2.657599169660134E-1    1.252243860053352E-4   -3.849301184340583E-4    1.941939479344236E-4   -3.920203459592616E-4   -4.704747581973763E-1   -7.689594039222886E-2
 1.004862717725000E+10  -3.704485732641358E-1   -2.653407081046294E-1    1.181487207049465E-4   -3.773891579845315E-4    1.848598557140070E-4   -3.626890835000382E-4   -4.705090883125453E-1   -7.659425506315129E-2
 1.004863224800000E+10  -3.707508065984719E-1   -2.649601046231498E-1    1.468684052828794E-4   -3.671327582806664E-4    1.485514112539326E-4   -3.769637692400066E-4   -4.706279006341791E-1   -7.620743611937110E-2
 1.004863731875000E+10  -3.709973345205124E-1   -2.649414898434644E-1    1.381224035585979E-4   -3.753439644826222E-4    1.321645602391538E-4   -3.692804862406903E-4   -4.707244721689228E-1   -7.579110105337676E-2
 1.004864238950000E+10  -3.710472221273363E-1   -2.645867511653023E-1    1.530448098796325E-4   -3.714258236825908E-4    1.881204025547531E-4   -3.830112041292692E-4   -4.706011505150276E-1   -7.540138831485045E-2
 1.004864746025000E+10  -3.711415520569645E-1   -2.642549073222356E-1    1.211678786774231E-4   -3.320801798577513E-4    1.480135290987382E-4   -3.583018575764576E-4   -4.706805337185234E-1   -7.510828709391749E-2
 1.004865253100000E+10  -3.713903998973088E-1   -2.638455236467421E-1    1.361099610382174E-4   -3.492496974099375E-4    1.649280935857429E-4   -3.559939028053236E-4   -4.707979637446114E-1   -7.452865974958756E-2
 1.004865760175000E+10  -3.716237657823942E-1   -2.636844952610076E-1    1.176580272197828E-4   -3.747397704037071E-4    1.477658783011423E-4   -3.376297667076899E-4   -4.707170945842121E-1   -7.423244416883122E-2
 1.004866267250000E+10  -3.717940553445519E-1   -2.635270040471074E-1    1.457972448661894E-4   -3.468777533790827E-4    1.857071199057202E-4   -3.476230658558795E-4   -4.707935100757273E-1   -7.390596896338102E-2
 1.004866774325000E+10  -3.720763445690987E-1   -2.632030365128653E-1    1.300638431800065E-4   -3.369624391360431E-4    1.744605301581095E-4   -3.621952153197177E-4   -4.708352572645761E-1   -7.349142836814362E-2
 1.004867281400000E+10  -3.721268020704359E-1   -2.628147846693396E-1    1.465981549536353E-4   -2.957439035623674E-4    1.788901825329442E-4   -3.335242454890688E-4   -4.708248873526316E-1   -7.304356553463326E-2
 1.004867788475000E+10  -3.723266224551481E-1   -2.626234603047171E-1    1.162021986773013E-4   -3.332457303546219E-4    1.507435289485543E-4   -3.214778178040328E-4   -4.709849322426586E-1   -7.278980427818406E-2
 1.004868295550000E+10  -3.725897910114013E-1   -2.623905716294428E-1    1.159535636952679E-4   -3.214905835611180E-4    1.553834161900591E-4   -3.121771265239528E-4   -4.708636649528995E-1   -7.234891991650085E-2
 1.004868802625000E+10  -3.726396026650076E-1   -2.619872352542199E-1    1.077454622378629E-4   -3.097561265056788E-4    1.340707364715920E-4   -3.205614213177776E-4   -4.710382597602616E-1   -7.191452344265990E-2
 1.004869309700000E+10  -3.730186553451094E-1   -2.617447010336764E-1    1.366119085182984E-4   -3.042324455139050E-4    1.406116809149392E-4   -2.869321741159824E-4   -4.711388536946400E-1   -7.166781344641540E-2
 1.004869816775000E+10  -3.731081771957224E-1   -2.614005714589997E-1    1.218815813873897E-4   -3.037649767078569E-4    1.392159832143937E-4   -2.961283088203570E-4   -4.710424625427460E-1   -7.128449898023527E-2
 1.004870323850000E+10  -3.732247224828127E-1   -2.611420623368536E-1    9.926723221396973E-5   -3.326579689617900E-4    1.690402739342804E-4   -3.188165005121250E-4   -4.710226899290376E-1   -7.070785973842185E-2
 1.004870830925000E+10  -3.734199559008749E-1   -2.610046573032588E-1    1.142179818445331E-4   -2.843414037127956E-4    1.576446692286752E-4   -2.997866988346157E-4   -4.710989660888343E-1   -7.022188699602266E-2
 1.004871338000000E+10  -3.736899889007341E-1   -2.606173901906921E-1    1.035087537461959E-4   -2.808639070031082E-4    1.517119629548168E-4   -2.887874473642242E-4   -4.712930077752625E-1   -7.001892233444795E-2
 1.004871845075000E+10  -3.738242128438332E-1   -2.602500418154448E-1    1.502710075477255E-4   -2.568473114266081E-4    1.639329587856560E-4   -2.618435623611575E-4   -4.712491914771617E-1   -6.969282931523500E-2
 1.004872352150000E+10  -3.739917810543469E-1   -2.601136207489009E-1    1.205712606280692E-4   -2.539147108984297E-4    1.424400787983570E-4   -2.690397271540687E-4   -4.714038936417041E-1   -6.917189440873824E-2
 1.004872859225000E+10  -3.742854112922907E-1   -2.598681485844251E-1    1.319162105948740E-4   -2.671268749133462E-4    1.385052336249966E-4   -2.442139566188373E-4   -4.711173411536709E-1   -6.887356633780442E-2
 1.004873366300000E+10  -3.743682689997552E-1   -2.595611094256759E-1    9.853807677339134E-5   -2.941838410199777E-4    1.413272437694244E-4   -2.868888571862406E-4   -4.713072660856288E-1   -6.865211174498106E-2
 1.004873873375000E+10  -3.745810421420214E-1   -2.592797046083785E-1    1.340056026829041E-4   -2.462155804305310E-4    1.276307151664828E-4   -2.506067538444085E-4   -4.713210165664576E-1   -6.803872502211492E-2
 1.004874380450000E+10  -3.747481672176807E-1   -2.588751222569034E-1    1.037895651224051E-4   -2.576336361394700E-4    1.596948028144973E-4   -2.289648553830134E-4   -4.714078188059302E-1   -6.775369789417121E-2
 1.004874887525000E+10  -3.749410420011940E-1   -2.587584904345571E-1    1.034207129272371E-4   -2.732437917744215E-4    1.544676110585609E-4   -2.456629208788235E-4   -4.714443335408229E-1   -6.718115040403196E-2
 1.004875394600000E+10  -3.749709876694414E-1   -2.582774182459825E-1    1.179236057472019E-4   -2.232923430443707E-4    1.629433789553951E-4   -2.429311934842106E-4   -4.714043809467050E-1   -6.685834675317603E-2
 1.004875901675000E+10  -3.753217956169558E-1   -2.580177892730101E-1    1.114430549212260E-4   -2.241402463939257E-4    1.150972447128555E-4   -2.300283816433776E-4   -4.714776519987183E-1   -6.635981650395999E-2
 1.004876408750000E+10  -3.754441447665062E-1   -2.578780039439870E-1    1.173089696135032E-4   -2.047291004587374E-4    1.323841293456982E-4   -2.264879145881370E-4   -4.715362329310557E-1   -6.623041061546350E-2
 1.004876915825000E+10  -3.756216246908729E-1   -2.575465369897741E-1    1.356865034057469E-4   -2.183058515741469E-4    1.160356327653841E-4   -2.309284452748028E-4   -4.715842165925571E-1   -6.567889067932141E-2
 1.004877422900000E+10  -3.759258032842716E-1   -2.573031697720756E-1    1.511511657459671E-4   -2.186718484955133E-4    1.494895956418821E-4   -2.291354444372039E-4   -4.716391110156136E-1   -6.543304885775318E-2
 1.004877929975000E+10  -3.759474484239164E-1   -2.569393844084912E-1    1.118861908556762E-4   -1.933265316367349E-4    1.283415235276201E-4   -2.237802649640512E-4   -4.716810777301659E-1   -6.496056916429108E-2
 1.004878437050000E+10  -3.762324263860990E-1   -2.567503614228381E-1    1.420707054174857E-4   -1.869935161276113E-4    1.779693461766731E-4   -1.876630283447195E-4   -4.717618548014329E-1   -6.457094105545412E-2
 1.004878944125000E+10  -3.764603491462475E-1   -2.563765943154501E-1    1.079467139738567E-4   -1.636608491386327E-4    1.368893127685422E-4   -1.604925978093243E-4   -4.716141674040388E-1   -6.410261860894226E-2
 1.004879451200000E+10  -3.765504134456630E-1   -2.561912262932429E-1    1.120185049944177E-4   -1.694289431820285E-4    1.298105718475093E-4   -1.877441154694750E-4   -4.718375837998309E-1   -6.373268168780798E-2
 1.004879958275000E+10  -3.766833218960863E-1   -2.559341199253178E-1    1.198738525763769E-4   -1.515768314303728E-4    1.694606499421526E-4   -1.614915874705551E-4   -4.716720662136246E-1   -6.334751753755170E-2
 1.004880465350000E+10  -3.768137169905897E-1   -2.555716863373613E-1    9.270485047635575E-5   -1.709999523487991E-4    1.522745924495322E-4   -1.718499957310227E-4   -4.716652069299150E-1   -6.307549624750020E-2
 1.004880972425000E+10  -3.770182199283798E-1   -2.552810499499106E-1    1.178589881153067E-4   -1.603025875501217E-4    1.414239401305998E-4   -1.691526954278890E-4   -4.717165233432876E-1   -6.244570442052240E-2
 1.004881479500000E+10  -3.772482304742367E-1   -2.550459271554421E-1    1.293069054075112E-4   -1.343859645591502E-4    1.760211519193307E-4   -1.462795828080736E-4   -4.718340022694178E-1   -6.203521073588988E-2
 1.004881986575000E+10  -3.773160560688351E-1   -2.546441963923471E-1    1.207615694970404E-4   -1.525776837187214E-4    1.342284998653746E-4   -1.531262995912144E-4   -4.718439509111587E-1   -6.172465881641682E-2
 1.004882493650000E+10  -3.776859528834604E-1   -2.545073804892560E-1    1.229860603370231E-4   -1.588988295877348E-4    1.209599416575260E-4   -1.202358530917238E-4   -4.718447706268132E-1   -6.127208141900311E-2
 1.004883000725000E+10  -3.777920212424681E-1   -2.542408505820720E-1    1.261351657477824E-4   -1.333152255933261E-4    1.121895756708964E-4   -1.179085319871420E-4   -4.719093465757984E-1   -6.086123015788537E-2
 1.004883507800000E+10  -3.780351229959935E-1   -2.539289134479817E-1    1.192220964147622E-4   -1.111020804075730E-4    1.123273998115412E-4   -1.048300970133975E-4   -4.719975538545597E-1   -6.054559248628599E-2
 1.004884014875000E+10  -3.781358439610804E-1   -2.535826940306334E-1    1.331881321241931E-4   -1.213912599053512E-4    1.675967292212412E-4   -8.784100966963014E-5   -4.718601647404353E-1   -6.014319433883968E-2
 1.004884521950000E+10  -3.782552429499154E-1   -2.532967998232161E-1    1.641390724299992E-4   -1.279473712724759E-4    1.288744262379859E-4   -7.907008695665485E-5   -4.719388297363566E-1   -5.969362162793879E-2
 1.004885029025000E+10  -3.786650114686220E-1   -2.530367221466479E-1    1.041925480256738E-4   -9.980200711814412E-5    1.253565635913603E-4   -6.704794058247922E-5   -4.719016733379494E-1   -5.920627986014505E-2
 1.004885536100000E+10  -3.787420830746769E-1   -2.527876132013588E-1    1.284878448245718E-4   -8.127309934415830E-5    1.173945297480260E-4   -5.005394967603063E-5   -4.720704318251348E-1   -5.881787668590877E-2
 1.004886043175000E+10  -3.788839982574743E-1   -2.525196868759206E-1    1.306372961639975E-4   -8.654525132775930E-5    1.176868058475758E-4   -5.069756588598088E-5   -4.720519254524157E-1   -5.838443254817495E-2
 1.004886550250000E+10  -3.790039393232685E-1   -2.521971510652221E-1    1.045420560946687E-4   -6.800847227914224E-5    1.390106391957040E-4   -5.287654730645873E-5   -4.719328952771299E-1   -5.806728343156588E-2
 1.004887057325000E+10  -3.791060033453495E-1   -2.519272820205948E-1    1.268847067246933E-4   -6.839405732135519E-5    1.064546426827218E-4   -5.560896130414349E-5   -4.719417253334337E-1   -5.766406873345754E-2
 1.004887564400000E+10  -3.794504128399812E-1   -2.514201130192567E-1    1.227365750808763E-4   -1.710291509065661E-5    1.514554946776398E-4   -5.266486963179256E-5   -4.720178791202581E-1   -5.731890261880260E-2
 1.004888071475000E+10  -3.795595774296781E-1   -2.513753337273541E-1    1.437428695596800E-4   -3.518624573988995E-5    1.273839979179145E-4   -4.120832192612525E-5   -4.721611595506767E-1   -5.690034169598551E-2
 1.004888578550000E+10  -3.797130004559542E-1   -2.510691192242183E-1    1.158809788845527E-4    5.543735922215321E-6    1.425175245451049E-4   -4.869302619690095E-5   -4.721432557891357E-1   -5.634911835416046E-2
 1.004889085625000E+10  -3.800226082539179E-1   -2.507538018662086E-1    1.145333022705136E-4   -1.944016968100260E-5    1.266461304492973E-4    1.095204339260454E-5   -4.721800815605837E-1   -5.602097306448673E-2
 1.004889592700000E+10  -3.801467147266601E-1   -2.503388809668582E-1    1.040525131999634E-4   -1.353970035714274E-5    1.312372514166714E-4   -2.395881886958741E-5   -4.720532393346195E-1   -5.558170226930695E-2
 1.004890099775000E+10  -3.802283374611995E-1   -2.501528573502235E-1    1.122545117178881E-4   -1.413544729845640E-6    1.169085289615013E-4   -1.328061233528722E-5   -4.721363019301664E-1   -5.518479703635587E-2
 1.004890606850000E+10  -3.805994942348268E-1   -2.498527458371812E-1    1.191477243994130E-4   -8.657067870094277E-7    1.327001818352766E-4    1.144345345247946E-5   -4.721326242885153E-1   -5.470162491438455E-2
 1.004891113925000E+10  -3.805788307964191E-1   -2.496174392659850E-1    9.942225208115268E-5   -8.540805162050621E-7    1.248942578111731E-4    3.708583777951680E-5   -4.722180807005569E-1   -5.415350794647850E-2
 1.004891621000000E+10  -3.808304349054354E-1   -2.493883750837227E-1    1.392532154904058E-4    3.781335513185116E-5    1.402205913093055E-4    3.667094769303044E-5   -4.722626995386905E-1   -5.373236649021534E-2
 1.004892128075000E+10  -3.809705604280010E-1   -2.490073681473554E-1    1.196827943530236E-4    1.655706156993792E-5    1.235313028089460E-4    4.342450199050446E-5   -4.723456774048509E-1   -5.341142575687121E-2
 1.004892635150000E+10  -3.811850146742096E-1   -2.488327545723654E-1    1.213309981906470E-4    4.161706274294329E-5    1.261403146235723E-4    5.339791268359214E-5   -4.723323201803259E-1   -5.302841496982042E-2
 1.004893142225000E+10  -3.813686467977357E-1   -2.486667024236003E-1    1.202383191359996E-4    8.770751176267939E-5    1.208782597960343E-4    1.000094619340261E-4   -4.722247476549737E-1   -5.241762619503937E-2
 1.004893649300000E+10  -3.815162505867816E-1   -2.482035384556191E-1    1.163822773749090E-4    6.778562519961172E-5    1.036662357166317E-4    9.895456845085304E-5   -4.723239817879432E-1   -5.208479781667592E-2
 1.004894156375000E+10  -3.816455465067499E-1   -2.478622983721532E-1    1.483524472063396E-4    6.482563103574939E-5    1.094133888740251E-4    1.101087109199923E-4   -4.723311439714089E-1   -5.167812304214611E-2
 1.004894663450000E+10  -3.818866108108186E-1   -2.475537276120361E-1    1.175584242064851E-4    8.278270194651373E-5    1.363358487473949E-4    1.145254675849155E-4   -4.723562271740289E-1   -5.112019495230361E-2
 1.004895170525000E+10  -3.820136259256403E-1   -2.472775973033659E-1    1.161414492010432E-4    1.102029103726039E-4    1.148311934375858E-4    9.420621524272998E-5   -4.723484348821618E-1   -5.066441055215114E-2
 1.004895677600000E+10  -3.821179805796408E-1   -2.470891201901524E-1    1.004481263411981E-4    1.104866181338446E-4    1.241947674182647E-4    1.509760514614022E-4   -4.723417131522997E-1   -5.036842450619360E-2
 1.004896184675000E+10  -3.823389668253211E-1   -2.467949106235875E-1    1.371880513211864E-4    1.313749097406873E-4    1.243271763057569E-4    1.287774562819009E-4   -4.723927287710366E-1   -4.985339309006504E-2
 1.004896691750000E+10  -3.825159106875218E-1   -2.464805967464175E-1    1.166462232939607E-4    1.431034756279936E-4    1.216920271612963E-4    1.609177672092952E-4   -4.721192370828583E-1   -4.951840485214939E-2
 1.004897198825000E+10  -3.827602788693966E-1   -2.463081798112337E-1    1.530784514056693E-4    1.497656189487656E-4    1.313983298672073E-4    1.307015536350959E-4   -4.723213133339201E-1   -4.905995568966751E-2
 1.004897705900000E+10  -3.829001634945504E-1   -2.458453239183976E-1    9.828859306382852E-5    1.903911866060824E-4    1.165499007682306E-4    1.601890118217484E-4   -4.723127910927349E-1   -4.847374840170066E-2
 1.004898212975000E+10  -3.831083611167899E-1   -2.455663084847243E-1    1.221452619568451E-4    1.955934332846045E-4    1.432424200463942E-4    1.851918640784593E-4   -4.722859073761961E-1   -4.814672662315075E-2
 1.004898720050000E+10  -3.832079426875019E-1   -2.453302684400681E-1    1.186656412231297E-4    2.081035954191994E-4    1.494852487295400E-4    2.078010829746127E-4   -4.722932053898660E-1   -4.755611448936180E-2
 1.004899227125000E+10  -3.834947361691214E-1   -2.450840774638548E-1    1.666821140404489E-4    1.909584986065618E-4    1.178419004057882E-4    1.824026112137964E-4   -4.722549245255218E-1   -4.709984920248227E-2
 1.004899734200000E+10  -3.836127626879416E-1   -2.448552888207738E-1    1.504229731743390E-4    2.188170916005531E-4    1.349589367972665E-4    2.079310864747818E-4   -4.724058959460637E-1   -4.676518118945609E-2
 1.004900241275000E+10  -3.838798973335990E-1   -2.445244937601655E-1    1.526545006524157E-4    2.299912838007374E-4    1.154261932240677E-4    2.284027233131604E-4   -4.721825909473689E-1   -4.616142052687091E-2
 1.004900748350000E+10  -3.838637973239684E-1   -2.441315197719360E-1    1.667859044498809E-4    2.167782549000198E-4    1.442877641792840E-4    2.603735619096151E-4   -4.722934479053217E-1   -4.580977045166793E-2
 1.004901255425000E+10  -3.840010141539065E-1   -2.438340983162649E-1    1.503320412936274E-4    2.719483077476346E-4    1.365494917097770E-4    2.568213611607500E-4   -4.722073575126774E-1   -4.531184222251223E-2
 1.004901762500000E+10  -3.843594058956442E-1   -2.435690146696961E-1    1.350263607511460E-4    2.668736467976000E-4    1.515985673017281E-4    2.683014919826096E-4   -4.722927668411150E-1   -4.499405717121947E-2
 1.004902269575000E+10  -3.845008680038609E-1   -2.432880405705536E-1    1.637445032926093E-4    2.839986991131981E-4    1.321340559131254E-4    2.950563821848198E-4   -4.722177251409040E-1   -4.446612797634231E-2
 1.004902776650000E+10  -3.846412042109772E-1   -2.430635214659187E-1    1.448116129666029E-4    3.031309656029887E-4    1.142724244559185E-4    3.019716689535134E-4   -4.722540857524410E-1   -4.392533738816350E-2
 1.004903283725000E+10  -3.847744559542847E-1   -2.427796904205704E-1    1.582158039266059E-4    2.953505192746522E-4    1.370373425196205E-4    3.640763083718397E-4   -4.721586000395293E-1   -4.336716167819223E-2
 1.004903790800000E+10  -3.849180150265846E-1   -2.425145906016397E-1    1.685811585965061E-4    3.370070625220616E-4    1.240469677087173E-4    3.388761969082725E-4   -4.721493725618708E-1   -4.304936748460067E-2
 1.004904297875000E+10  -3.851587511986331E-1   -2.421957246915611E-1    1.916450938228935E-4    3.478855415031559E-4    1.291459848367717E-4    3.719652255733117E-4   -4.721094078845904E-1   -4.253901886960310E-2
 1.004904804950000E+10  -3.852177837752601E-1   -2.420069298619017E-1    1.454743214598597E-4    3.730982943016072E-4    1.332936128244368E-4    3.477117849628237E-4   -4.721895497523490E-1   -4.209644109474662E-2
