#  HZ   S   RI   R     50.00 
! Rohde & Schwarz Vector Network Analyzer 
! Rohde-Schwarz,ZNB20-2Port,1311601062101988,3.16
! Created: UTC 3/21/2024, 1:17:24 AM
! freq[Hz]                re:S11                  im:S11                  re:S21                  im:S21                  re:S12                  im:S12                  re:S22                  im:S22
 1.004862260500000E+10  -3.703403924714182E-1   -2.658091263222579E-1    1.295596936556658E-4   -4.003026202019122E-4    1.790343766407926E-4   -4.099513087256424E-4   -4.704605560184586E-1   -7.687804785124677E-2
 1.004862757830000E+10  -3.704749362808798E-1   -2.655307235171019E-1    1.754165545181877E-4   -3.943170565555864E-4    1.564290100267560E-4   -3.692337406257100E-4   -4.704542732649312E-1   -7.663678213353399E-2
 1.004863255160000E+10  -3.705827088357277E-1   -2.651351949173498E-1    1.231536963471821E-4   -3.934635485511662E-4    1.645433754107867E-4   -3.844170473950516E-4   -4.705579198058937E-1   -7.642842614791308E-2
 1.004863752490000E+10  -3.707695344833353E-1   -2.649498184287307E-1    1.552924378886189E-4   -4.015511760474855E-4    1.571499059676148E-4   -3.846071307553199E-4   -4.705833899047522E-1   -7.596010368133418E-2
 1.004864249820000E+10  -3.709579512777552E-1   -2.646705941706511E-1    1.375988227310272E-4   -3.887750095990165E-4    1.488485175605616E-4   -4.103491283935028E-4   -4.706326316395459E-1   -7.567583765902457E-2
 1.004864747150000E+10  -3.711707214805864E-1   -2.645535995062048E-1    1.539729015190203E-4   -3.653205805218500E-4    1.631492547684152E-4   -3.605283201916009E-4   -4.706752560795308E-1   -7.516743478942421E-2
 1.004865244480000E+10  -3.712020651351459E-1   -2.640951762805437E-1    1.357094503800266E-4   -3.714195735442375E-4    1.651093203695841E-4   -3.808432543796811E-4   -4.706358578101198E-1   -7.471035804992521E-2
 1.004865741810000E+10  -3.715314079940624E-1   -2.637929524661448E-1    1.378980871850510E-4   -3.628981635858498E-4    1.736349369644229E-4   -3.803173692511776E-4   -4.707798041128013E-1   -7.445213429383130E-2
 1.004866239140000E+10  -3.716685824922852E-1   -2.636231352179167E-1    1.192159642545739E-4   -3.632822870051502E-4    1.745885890774267E-4   -3.634396905488386E-4   -4.707487005766232E-1   -7.405779790381956E-2
 1.004866736470000E+10  -3.718780310196125E-1   -2.632064527380348E-1    1.114372161671173E-4   -3.564951647570186E-4    1.473359308014629E-4   -3.329958961881018E-4   -4.709695018102191E-1   -7.368812231221639E-2
 1.004867233800000E+10  -3.719913711934938E-1   -2.631383601686670E-1    1.358817881028267E-4   -3.390974349229710E-4    1.716768681754879E-4   -3.341088551485935E-4   -4.708486730915324E-1   -7.344001430518775E-2
 1.004867731130000E+10  -3.722427968217075E-1   -2.627431189143063E-1    1.485234100181317E-4   -3.344318889547329E-4    1.761355881794631E-4   -3.381927915210225E-4   -4.708595698458850E-1   -7.285790075432400E-2
 1.004868228460000E+10  -3.723770453232346E-1   -2.625848005843918E-1    1.070565542247179E-4   -3.178698581083283E-4    1.692070994037390E-4   -3.235787372488411E-4   -4.709731038699035E-1   -7.250379095090616E-2
 1.004868725790000E+10  -3.724802886195422E-1   -2.623012636195703E-1    1.172971907069376E-4   -3.333929296609634E-4    1.513858501615561E-4   -3.221775122932248E-4   -4.710110353050577E-1   -7.220016763991126E-2
 1.004869223120000E+10  -3.727550072083943E-1   -2.619587452234445E-1    1.382018412789648E-4   -3.067098712980872E-4    1.559608767854950E-4   -2.817259498376740E-4   -4.709175236621906E-1   -7.185280076898856E-2
 1.004869720450000E+10  -3.729928171175529E-1   -2.618258381091870E-1    1.341934947670116E-4   -3.397397271873915E-4    1.379077915211305E-4   -3.322570300717729E-4   -4.709738860264529E-1   -7.142807812909448E-2
 1.004870217780000E+10  -3.732265613667740E-1   -2.613121513298985E-1    1.183783633318137E-4   -3.200575545553519E-4    1.375112845717036E-4   -3.076883455292732E-4   -4.712429765264549E-1   -7.103250032289267E-2
 1.004870715110000E+10  -3.732350565452628E-1   -2.611330153126596E-1    1.266097901465834E-4   -3.206985787833152E-4    1.340439660544295E-4   -2.978593389104877E-4   -4.711988364381868E-1   -7.078429574202344E-2
 1.004871212440000E+10  -3.735029831204974E-1   -2.608193443081590E-1    1.366218603405694E-4   -3.203756651625399E-4    1.546515563096653E-4   -3.149674307470768E-4   -4.712108750239249E-1   -7.041462350572937E-2
 1.004871709770000E+10  -3.736110690861593E-1   -2.605326263332212E-1    1.305794313352872E-4   -2.827764144107510E-4    1.326328611431163E-4   -3.006027216423330E-4   -4.711834373940767E-1   -7.001821891087662E-2
 1.004872207100000E+10  -3.740249629437221E-1   -2.602369249004503E-1    1.317653636396079E-4   -2.935432402620613E-4    1.747112363744451E-4   -2.914849214556360E-4   -4.712976801839573E-1   -6.950600089281742E-2
 1.004872704430000E+10  -3.741142193899928E-1   -2.599649442276434E-1    1.178578762575059E-4   -2.735304085919702E-4    1.398226215282510E-4   -2.861263095325404E-4   -4.713467867718598E-1   -6.926773456378654E-2
 1.004873201760000E+10  -3.742010086011529E-1   -2.597957388489844E-1    1.300462798685382E-4   -2.744841206572424E-4    1.290416051493282E-4   -2.617362019050353E-4   -4.713993833755510E-1   -6.879738421297041E-2
 1.004873699090000E+10  -3.744830144511593E-1   -2.594422324604511E-1    1.422397735221010E-4   -2.686919991210561E-4    1.313246341652768E-4   -2.881910608312181E-4   -4.714607972416447E-1   -6.838814985172174E-2
 1.004874196420000E+10  -3.747013417186383E-1   -2.591619404112383E-1    1.166197694168071E-4   -2.805219459396817E-4    1.468426159524767E-4   -2.681299041919771E-4   -4.714465418308476E-1   -6.807218385913007E-2
 1.004874693750000E+10  -3.747571266021906E-1   -2.591074447358227E-1    1.332491440512812E-4   -2.688690378709212E-4    1.666156628754138E-4   -2.536061727868439E-4   -4.713899632287186E-1   -6.770793399778532E-2
 1.004875191080000E+10  -3.749532057606163E-1   -2.587710198670389E-1    1.276985245144657E-4   -2.635407450835965E-4    1.434649205552798E-4   -2.708187899796177E-4   -4.714769618303594E-1   -6.735081180293929E-2
 1.004875688410000E+10  -3.750995388248182E-1   -2.583608733134448E-1    1.422664428987630E-4   -2.588657773106386E-4    1.435405355629243E-4   -2.352316910614191E-4   -4.715773894591845E-1   -6.690649344290547E-2
 1.004876185740000E+10  -3.753829292352256E-1   -2.580525055665476E-1    1.229497187992462E-4   -2.015245734294558E-4    1.306083984211424E-4   -2.782333770456771E-4   -4.715758265877428E-1   -6.654099046814473E-2
 1.004876683070000E+10  -3.754075659496990E-1   -2.577682977035905E-1    1.086242126157202E-4   -2.724986261331293E-4    1.482871895319258E-4   -2.278028469520876E-4   -4.715711632196098E-1   -6.618991901786757E-2
 1.004877180400000E+10  -3.757492570943635E-1   -2.575007207680353E-1    1.347255022224355E-4   -2.203880283554488E-4    1.128906519115654E-4   -2.201258696731836E-4   -4.716813261364790E-1   -6.580893893792833E-2
 1.004877677730000E+10  -3.758963859145984E-1   -2.572975191680581E-1    1.270970554233100E-4   -2.140629960851065E-4    1.524194400747682E-4   -2.062937909237147E-4   -4.717688699909440E-1   -6.541698152024558E-2
 1.004878175060000E+10  -3.759679828629184E-1   -2.569352810457424E-1    1.211001284370950E-4   -2.040437715374867E-4    1.112450052204208E-4   -2.077429724395844E-4   -4.717291073657290E-1   -6.506222541626415E-2
 1.004878672390000E+10  -3.762421960222171E-1   -2.567537099387623E-1    1.045392499863255E-4   -2.096783341434136E-4    1.290668322349837E-4   -1.790802335151542E-4   -4.717926181727151E-1   -6.464686361455432E-2
 1.004879169720000E+10  -3.765044453729543E-1   -2.563716080501269E-1    9.922027595012156E-5   -2.233933132820394E-4    1.642939331822872E-4   -2.007507425711466E-4   -4.717898626446920E-1   -6.414859860259153E-2
 1.004879667050000E+10  -3.765668223327272E-1   -2.561780032055715E-1    1.015315981869713E-4   -2.167970328748302E-4    1.377604359062789E-4   -2.103020852896285E-4   -4.717939560690017E-1   -6.381083252809566E-2
 1.004880164380000E+10  -3.767034172323189E-1   -2.558376677244261E-1    1.280343642566337E-4   -1.421466518901150E-4    1.225641772196937E-4   -1.603409524503761E-4   -4.718803247561761E-1   -6.344512512172489E-2
 1.004880661710000E+10  -3.768680876240810E-1   -2.555656680021859E-1    1.322441487048048E-4   -2.029416751432255E-4    1.338094957252947E-4   -2.003091213878743E-4   -4.719572365255708E-1   -6.321997372697204E-2
 1.004881159040000E+10  -3.770850957638603E-1   -2.552664176214182E-1    1.512003994271477E-4   -1.701923019316302E-4    1.256337161495527E-4   -2.023217880233538E-4   -4.718546461096625E-1   -6.256930073587740E-2
 1.004881656370000E+10  -3.772046198896122E-1   -2.548872281113754E-1    1.439088897211888E-4   -1.493647441474263E-4    1.058414918466547E-4   -1.737853408152847E-4   -4.719076261467233E-1   -6.219215682496571E-2
 1.004882153700000E+10  -3.773621868245063E-1   -2.548148166456065E-1    1.354197999435356E-4   -1.339110918231396E-4    1.485280968285464E-4   -1.552719524362953E-4   -4.718513905108518E-1   -6.185785409962356E-2
 1.004882651030000E+10  -3.776023582381264E-1   -2.544656232637851E-1    8.706873861282395E-5   -1.705726649639786E-4    1.227204070724448E-4   -1.575240503948135E-4   -4.718399820649999E-1   -6.134229324655555E-2
 1.004883148360000E+10  -3.777715841541095E-1   -2.542766973146706E-1    1.104004025690511E-4   -1.408837937152827E-4    1.312252385664110E-4   -1.201341364976637E-4   -4.720019496870720E-1   -6.100729507538653E-2
 1.004883645690000E+10  -3.781152149000713E-1   -2.538706327292778E-1    1.059768518194733E-4   -1.267443611423419E-4    1.319106334836122E-4   -1.282481541490945E-4   -4.720234507296519E-1   -6.065398340793358E-2
 1.004884143020000E+10  -3.780854769459259E-1   -2.536821541157904E-1    1.219494369773557E-4   -1.239835214411414E-4    1.202333016600235E-4   -1.464017783622826E-4   -4.719707752761859E-1   -6.031594169327160E-2
 1.004884640350000E+10  -3.783221215428839E-1   -2.534346104337798E-1    1.208618561841840E-4   -1.340128931883578E-4    1.605161573216137E-4   -1.201867736596884E-4   -4.720229115025471E-1   -5.980514658541781E-2
 1.004885137680000E+10  -3.784487851093684E-1   -2.530826611103459E-1    1.146136244066702E-4   -1.129411935738803E-4    1.112076967041503E-4   -9.275419123210962E-5   -4.721614709317035E-1   -5.959715954228272E-2
 1.004885635010000E+10  -3.787358366304346E-1   -2.528669049643061E-1    1.163163928639691E-4   -1.172207984576584E-4    1.139803112777437E-4   -9.164162705265475E-5   -4.720120470142173E-1   -5.894585723641080E-2
 1.004886132340000E+10  -3.786627703183074E-1   -2.525716300393644E-1    1.139677710636686E-4   -8.712845767299986E-5    1.353614746164101E-4   -8.900448429610794E-5   -4.721077508158585E-1   -5.863640826230069E-2
 1.004886629670000E+10  -3.789551370169960E-1   -2.522060208650618E-1    9.222608670707909E-5   -7.344472203483941E-5    1.125383205481662E-4   -5.410530360701281E-5   -4.721473635107439E-1   -5.819570034971626E-2
 1.004887127000000E+10  -3.792599883664190E-1   -2.519394450396418E-1    9.165265488757281E-5   -9.852883003427637E-5    1.275057467384973E-4   -6.502538208226604E-5   -4.720947128056606E-1   -5.781497479223829E-2
 1.004887624330000E+10  -3.793416598887999E-1   -2.518205221414054E-1    1.095347508267142E-4   -4.558908992664303E-5    1.480411250871667E-4   -8.104994062951607E-5   -4.722281612122418E-1   -5.741881906885477E-2
 1.004888121660000E+10  -3.794380927109786E-1   -2.513821765896617E-1    1.537837472424628E-4   -7.760724800515858E-5    1.296310891374347E-4   -4.174808114214637E-5   -4.722204989769450E-1   -5.707022515149617E-2
 1.004888618990000E+10  -3.796217693250095E-1   -2.510840599447085E-1    1.332660883283443E-4   -6.825890303502762E-5    1.258121117887938E-4   -4.587632175592287E-5   -4.722813201281227E-1   -5.666829041550707E-2
 1.004889116320000E+10  -3.798405574140802E-1   -2.507292763396448E-1    1.183291204605446E-4   -6.407771791615255E-5    1.401426018580937E-4   -4.551526975828428E-5   -4.722199251118913E-1   -5.624032855363505E-2
 1.004889613650000E+10  -3.800893211177157E-1   -2.506843139982390E-1    1.278583241899890E-4   -3.059937198838201E-5    1.080841179129962E-4   -1.310236938919980E-5   -4.721688265006115E-1   -5.566085603060076E-2
 1.004890110980000E+10  -3.803043855477584E-1   -2.503283374819536E-1    1.179742168485705E-4   -1.465227151867901E-5    1.248415956995794E-4   -2.017568780851927E-5   -4.722358066475472E-1   -5.523548712706153E-2
 1.004890608310000E+10  -3.803896869854506E-1   -2.499757320861720E-1    1.059130045201550E-4   -2.010765999937467E-5    1.161133315073296E-4   -1.588385069276346E-5   -4.723871240084452E-1   -5.499985591130292E-2
 1.004891105640000E+10  -3.804912356217810E-1   -2.497390532173787E-1    1.406186406919167E-4   -1.411731610030344E-5    1.266956626881548E-4   -1.725912457211545E-5   -4.722762553755985E-1   -5.465287698269658E-2
 1.004891602970000E+10  -3.807214984336473E-1   -2.494423759630311E-1    9.904821540702570E-5    3.666111046070707E-5    1.297829832898446E-4    1.883112231833006E-5   -4.723833509368822E-1   -5.418583458595765E-2
 1.004892100300000E+10  -3.809794545181052E-1   -2.490191025467032E-1    1.019534999022524E-4    2.919993430451498E-6    1.165277214024175E-4    3.562106538174734E-5   -4.723205682255605E-1   -5.376046698432319E-2
 1.004892597630000E+10  -3.810542009079384E-1   -2.487776282828743E-1    1.154846574978839E-4    4.481087720685719E-5    1.236927650505304E-4    4.816378204660711E-5   -4.723764488248109E-1   -5.346193406078995E-2
 1.004893094960000E+10  -3.812244858995664E-1   -2.485899353989150E-1    1.282079316992845E-4    2.018563491215874E-5    1.326688993547022E-4    4.451331715442907E-5   -4.722292939017109E-1   -5.282114491400798E-2
 1.004893592290000E+10  -3.815042347765752E-1   -2.484950647413609E-1    1.204348908833326E-4    6.009695140427539E-5    1.137602230355603E-4    2.959084669000561E-5   -4.723229315396073E-1   -5.245130598900111E-2
 1.004894089620000E+10  -3.816372811170893E-1   -2.480628175074358E-1    1.265364357773327E-4    3.878032525996004E-5    1.340119342387173E-4    2.618163938503089E-5   -4.723564919384447E-1   -5.212170887269035E-2
 1.004894586950000E+10  -3.817162962324096E-1   -2.477713843934300E-1    1.049820007231280E-4    7.520495741266025E-5    1.424209844007955E-4    7.703729706565369E-5   -4.724662356677181E-1   -5.173780340764324E-2
 1.004895084280000E+10  -3.819480702234211E-1   -2.474395488505181E-1    1.203405319259583E-4    6.881123627063992E-5    1.245747634782677E-4    8.912273331286527E-5   -4.723735283649512E-1   -5.119427425969106E-2
 1.004895581610000E+10  -3.821518026417697E-1   -2.472944076003939E-1    1.221744007162146E-4    8.891061268868549E-5    9.730812594518782E-5    8.149252052425777E-5   -4.724080045914298E-1   -5.079654798189381E-2
 1.004896078940000E+10  -3.822520173108223E-1   -2.469529002291232E-1    1.640574159128129E-4    1.069758693606235E-4    1.079466460039035E-4    1.286814131161377E-4   -4.725845378819914E-1   -5.046144205754715E-2
 1.004896576270000E+10  -3.824852647614587E-1   -2.466832252536566E-1    1.343016010184953E-4    9.120059978703047E-5    1.161074683345607E-4    1.211750632138384E-4   -4.724816876930190E-1   -4.993693852245045E-2
 1.004897073600000E+10  -3.826870326846722E-1   -2.463308534715195E-1    1.207617313792845E-4    1.331660553879795E-4    8.307438045878009E-5    1.193043211897650E-4   -4.724723065425257E-1   -4.948980144086007E-2
 1.004897570930000E+10  -3.828550247277658E-1   -2.461063627032613E-1    1.242851124675995E-4    1.121924477032411E-4    1.005407432426988E-4    1.619865353925703E-4   -4.723099137103456E-1   -4.912149790338403E-2
 1.004898068260000E+10  -3.828513902351694E-1   -2.459189593250078E-1    1.412743806042685E-4    1.378696018243278E-4    1.259230417711236E-4    1.694059109788337E-4   -4.724619794603239E-1   -4.852748215122885E-2
 1.004898565590000E+10  -3.831305118370040E-1   -2.454859319965602E-1    1.029045868222246E-4    1.268215159866810E-4    9.763270446816836E-5    1.488210626070148E-4   -4.724200814886739E-1   -4.813632587882568E-2
 1.004899062920000E+10  -3.832494912757484E-1   -2.451928972570207E-1    1.316400342833309E-4    1.735592276441916E-4    1.328706799640874E-4    1.752240591164872E-4   -4.724707493844249E-1   -4.777276978355816E-2
 1.004899560250000E+10  -3.835086181870142E-1   -2.449711675447466E-1    1.225718089127148E-4    1.805693055458503E-4    1.355112337057958E-4    1.754908475197359E-4   -4.723407943990993E-1   -4.729861953699215E-2
 1.004900057580000E+10  -3.835743971028874E-1   -2.446778582160891E-1    1.447861736243426E-4    1.944376849175542E-4    9.952116124522503E-5    2.021092642532055E-4   -4.724584855006694E-1   -4.672337157052302E-2
 1.004900554910000E+10  -3.838795368532438E-1   -2.442690586371617E-1    1.378006787837914E-4    2.014817094336064E-4    1.163288590882832E-4    2.038440410606736E-4   -4.724615584693111E-1   -4.649383747782108E-2
 1.004901052240000E+10  -3.839188558732282E-1   -2.441884194066436E-1    1.350637417799363E-4    2.206696721931666E-4    1.195211477404579E-4    2.275681032978952E-4   -4.723884374994664E-1   -4.595148560367683E-2
 1.004901549570000E+10  -3.841734848195461E-1   -2.436841770272488E-1    1.333510222726787E-4    2.345536943223341E-4    1.052146313408833E-4    2.468778460460522E-4   -4.724259208565503E-1   -4.555991320898459E-2
 1.004902046900000E+10  -3.842517678399052E-1   -2.435865143610012E-1    1.364752061644826E-4    2.431998547360193E-4    1.217401876916892E-4    2.604995897725834E-4   -4.724155553102266E-1   -4.501325246233213E-2
 1.004902544230000E+10  -3.845602303435169E-1   -2.432707731005573E-1    1.415112011087730E-4    2.652972603748862E-4    1.305395848888841E-4    2.699329354427515E-4   -4.721829519631378E-1   -4.448902208544937E-2
 1.004903041560000E+10  -3.846416398257748E-1   -2.430466931407264E-1    1.611896219347860E-4    2.874891536942914E-4    1.339519123826796E-4    2.782337877290093E-4   -4.724574553782240E-1   -4.404417691452502E-2
 1.004903538890000E+10  -3.847327221909397E-1   -2.427232473274470E-1    1.276546546853857E-4    2.663129025200002E-4    1.268800974447239E-4    3.054876227417799E-4   -4.723525573975015E-1   -4.358921083083390E-2
 1.004904036220000E+10  -3.850306493688093E-1   -2.423704398152458E-1    1.546961493877513E-4    3.105433053692372E-4    1.340337061975280E-4    3.102379946607327E-4   -4.722955954776894E-1   -4.316475191592823E-2
 1.004904533550000E+10  -3.852327377302356E-1   -2.420348710842966E-1    1.183107375127925E-4    2.837185430571056E-4    1.183280430416035E-4    3.192427720795058E-4   -4.724478636550142E-1   -4.281275194176043E-2
 1.004905030880000E+10  -3.854465790791371E-1   -2.418098020576709E-1    1.533113650754311E-4    3.165163412085093E-4    1.147450980732576E-4    3.280860137845813E-4   -4.722820317330257E-1   -4.217012028471316E-2
 1.004905528210000E+10  -3.855214443593189E-1   -2.415856468541943E-1    1.643715256885722E-4    3.618805661404220E-4    1.337946734389943E-4    3.414942691376281E-4   -4.723903571356583E-1   -4.165892621735623E-2
 1.004906025540000E+10  -3.855030587286608E-1   -2.413451072070432E-1    1.478915551905526E-4    3.527826996108536E-4    1.452895586802524E-4    4.001927556272892E-4   -4.721924855419694E-1   -4.148028808133768E-2
 1.004906522870000E+10  -3.859003211326010E-1   -2.410126185982264E-1    1.600833018610326E-4    3.777147945416229E-4    1.402198293986118E-4    3.946143582733328E-4   -4.723346812982007E-1   -4.101486923006686E-2
 1.004907020200000E+10  -3.860162767651826E-1   -2.407280972296826E-1    1.574064691829585E-4    3.936808941134917E-4    1.286428829810488E-4    4.112863105037360E-4   -4.722321266411067E-1   -4.040877396321934E-2
