#  HZ   S   RI   R     50.00 
! Rohde & Schwarz Vector Network Analyzer 
! Rohde-Schwarz,ZNB20-2Port,1311601062101988,3.16
! Created: UTC 3/21/2024, 1:17:45 AM
! freq[Hz]                re:S11                  im:S11                  re:S21                  im:S21                  re:S12                  im:S12                  re:S22                  im:S22
 1.004871016400000E+10  -3.733169850433438E-1   -2.611500679261792E-1    1.375975533770706E-4   -3.343439981330351E-4    1.551553933721704E-4   -3.384876755631841E-4   -4.712931849666578E-1   -7.087461998046399E-2
 1.004871481637500E+10  -3.735239980957226E-1   -2.608769385288405E-1    1.025714199420161E-4   -3.446872383431257E-4    1.710636403649515E-4   -3.148451777782109E-4   -4.713890165620466E-1   -7.046615279418415E-2
 1.004871946875000E+10  -3.735705103990719E-1   -2.606918287165577E-1    1.408735876003475E-4   -3.453200536214770E-4    1.462594153447925E-4   -3.300989892071659E-4   -4.711659027971515E-1   -7.007989385200698E-2
 1.004872412112500E+10  -3.737692965409309E-1   -2.603450191808290E-1    1.278093848310127E-4   -3.299030880375668E-4    1.527761560944225E-4   -3.259711825786979E-4   -4.713319629730585E-1   -6.979415408816336E-2
 1.004872877350000E+10  -3.738325200981059E-1   -2.601829239073693E-1    1.253595661229697E-4   -3.102731470011590E-4    1.585824494252584E-4   -3.110128322589076E-4   -4.713866290263438E-1   -6.937562545447536E-2
 1.004873342587500E+10  -3.740481756972745E-1   -2.600382330340231E-1    1.176135815084505E-4   -2.910064299520828E-4    1.448229052427894E-4   -3.114627233233287E-4   -4.713875436578179E-1   -6.901934758413518E-2
 1.004873807825000E+10  -3.743713859650620E-1   -2.597154455799060E-1    1.033194905783997E-4   -3.159188715612247E-4    1.207018335766847E-4   -2.970971611042565E-4   -4.714213353274262E-1   -6.876628040508488E-2
 1.004874273062500E+10  -3.745001769000848E-1   -2.594020651671689E-1    1.212842751188413E-4   -2.919047735661010E-4    1.348735643547116E-4   -3.007805435695057E-4   -4.714740596188297E-1   -6.842725759204087E-2
 1.004874738300000E+10  -3.744414877766619E-1   -2.591916185273767E-1    1.201604774386728E-4   -2.827200685529292E-4    1.355240137738228E-4   -2.925676146830599E-4   -4.716406369095253E-1   -6.809078083047652E-2
 1.004875203537500E+10  -3.747814240968923E-1   -2.589567925494483E-1    1.186811705667772E-4   -2.849748585408842E-4    1.499381355137752E-4   -2.562839403888198E-4   -4.716006840518186E-1   -6.760047403324648E-2
 1.004875668775000E+10  -3.749769000185594E-1   -2.586771538152621E-1    1.232541360637748E-4   -3.002841810731109E-4    1.453582849496293E-4   -3.012606798013860E-4   -4.716083177787220E-1   -6.726407444807767E-2
 1.004876134012500E+10  -3.750372817857469E-1   -2.584759023761177E-1    1.087284453835205E-4   -2.731124983363510E-4    1.339810093909426E-4   -2.619180822242069E-4   -4.716798620286206E-1   -6.694222975403488E-2
 1.004876599250000E+10  -3.752961763007858E-1   -2.579954613102527E-1    9.946260293156807E-5   -2.718534498625638E-4    1.254952339407274E-4   -2.758966164399660E-4   -4.716914672803260E-1   -6.645430969259919E-2
 1.004877064487500E+10  -3.754381606778128E-1   -2.578810011494382E-1    1.206500420806658E-4   -2.750814113334742E-4    1.389748005244849E-4   -2.621338054398302E-4   -4.717878340036260E-1   -6.634838717889285E-2
 1.004877529725000E+10  -3.756698083154154E-1   -2.576245516985265E-1    1.068964165770433E-4   -2.447742691589810E-4    1.274693990052990E-4   -2.649505929536868E-4   -4.715774315688231E-1   -6.582930451283135E-2
 1.004877994962500E+10  -3.757582654275896E-1   -2.573218954237217E-1    1.357133737406704E-4   -2.920443815873665E-4    1.445820232912477E-4   -2.415836515956512E-4   -4.717560057389994E-1   -6.566567709037026E-2
 1.004878460200000E+10  -3.759621245366469E-1   -2.570027879884637E-1    9.114951386655973E-5   -2.467304703514030E-4    1.446920746628478E-4   -2.208474339098516E-4   -4.717944249260321E-1   -6.508783817239386E-2
 1.004878925437500E+10  -3.759736537110277E-1   -2.568183556929570E-1    1.168686732087996E-4   -2.342878353096090E-4    1.409041925834755E-4   -2.394926790071937E-4   -4.717760555927898E-1   -6.466896173498465E-2
 1.004879390675000E+10  -3.763389962324453E-1   -2.564711422618213E-1    1.117802417765048E-4   -2.428287509053790E-4    1.287281905651593E-4   -2.173272291704203E-4   -4.718466158839218E-1   -6.439767701170671E-2
 1.004879855912500E+10  -3.764058987007874E-1   -2.562725458468676E-1    1.039155319528084E-4   -2.310836893464808E-4    1.176909421151641E-4   -2.255616519627501E-4   -4.717951442144515E-1   -6.402636858980849E-2
 1.004880321150000E+10  -3.766486587806974E-1   -2.559874339540137E-1    1.120935519729514E-4   -2.294817677644648E-4    1.291813609907157E-4   -1.950760792548922E-4   -4.719464235519283E-1   -6.378981209138315E-2
 1.004880786387500E+10  -3.767439050662045E-1   -2.557917787191280E-1    1.082208187625276E-4   -2.045690559718674E-4    1.509908503093498E-4   -2.060564673409030E-4   -4.719634257638969E-1   -6.325443075201871E-2
 1.004881251625000E+10  -3.769118495894736E-1   -2.554716137224006E-1    9.607079297767864E-5   -1.956449638331133E-4    1.344925553945533E-4   -2.117437390318455E-4   -4.719864880986204E-1   -6.307391467732383E-2
 1.004881716862500E+10  -3.770042376566006E-1   -2.552624087113194E-1    1.141197870041799E-4   -2.007613375263776E-4    1.194420431122631E-4   -2.125916484426777E-4   -4.719723773222906E-1   -6.258997536957331E-2
 1.004882182100000E+10  -3.773085967237518E-1   -2.549419874922510E-1    9.505545893533366E-5   -2.103658691669139E-4    1.234783413826154E-4   -1.876134069689096E-4   -4.719717482656376E-1   -6.232455817297883E-2
 1.004882647337500E+10  -3.774323038787195E-1   -2.547581802052272E-1    1.122477903212445E-4   -2.096201078932457E-4    1.130263047701234E-4   -1.545814982793301E-4   -4.720803286504529E-1   -6.182455168523711E-2
 1.004883112575000E+10  -3.775973641491797E-1   -2.543338197470649E-1    1.057127852268205E-4   -2.044802505437596E-4    1.297389145168158E-4   -1.833983682380105E-4   -4.722518559073945E-1   -6.149139376906192E-2
 1.004883577812500E+10  -3.777086570238233E-1   -2.542116621181887E-1    1.088469036635660E-4   -1.777480175415224E-4    9.135063922078555E-5   -1.776649717909270E-4   -4.721882050887351E-1   -6.113476438333406E-2
 1.004884043050000E+10  -3.778559921157403E-1   -2.539999989859200E-1    1.136362902852921E-4   -1.694590963184636E-4    1.088946109768189E-4   -1.562486331848608E-4   -4.720680380609310E-1   -6.073161924668263E-2
 1.004884508287500E+10  -3.781592568147437E-1   -2.535745242186174E-1    1.222824341518422E-4   -1.682708512073342E-4    1.221943047545785E-4   -1.524139750431114E-4   -4.721689454499083E-1   -6.040482375975737E-2
 1.004884973525000E+10  -3.781793893537864E-1   -2.533532693970647E-1    1.133899996188292E-4   -1.519225824548255E-4    9.108900490445246E-5   -1.554008760636424E-4   -4.721264163191350E-1   -5.992066336826345E-2
 1.004885438762500E+10  -3.783942208750932E-1   -2.532075932389246E-1    1.041646124711829E-4   -1.686399974778779E-4    1.396036533322349E-4   -1.277702274786541E-4   -4.721869235945348E-1   -5.966133389764820E-2
 1.004885904000000E+10  -3.785996195059931E-1   -2.528932027888278E-1    9.949138700566254E-5   -1.511896861294191E-4    9.772898167113544E-5   -1.547769986187418E-4   -4.721775706766213E-1   -5.920540675915053E-2
 1.004886369237500E+10  -3.787595774372246E-1   -2.525817349752462E-1    1.045161454677301E-4   -1.449048363455198E-4    1.525170232555807E-4   -1.325592564519082E-4   -4.721626978670774E-1   -5.890315914013015E-2
 1.004886834475000E+10  -3.790056187803307E-1   -2.522564141389710E-1    1.058307924743911E-4   -1.259287977182445E-4    1.115323167417538E-4   -1.171996132336940E-4   -4.720900134027018E-1   -5.845652640200276E-2
 1.004887299712500E+10  -3.790727522636596E-1   -2.521270835098439E-1    1.048587263409784E-4   -1.205608336445368E-4    1.290896954013734E-4   -1.351013170571815E-4   -4.723296668105917E-1   -5.805522689812220E-2
 1.004887764950000E+10  -3.793373402292235E-1   -2.519178336817708E-1    1.204181683316060E-4   -1.063876307188104E-4    1.238448359674036E-4   -1.353809488057068E-4   -4.721958310868418E-1   -5.774977300429752E-2
 1.004888230187500E+10  -3.793137755876639E-1   -2.516439005718902E-1    1.235405580126507E-4   -8.685892225920729E-5    1.278738039630975E-4   -9.585364639570030E-5   -4.723467769302345E-1   -5.730474928036183E-2
 1.004888695425000E+10  -3.794817699867375E-1   -2.513343027345382E-1    1.283925771632688E-4   -1.056775923184489E-4    1.201651035259649E-4   -8.416850916219331E-5   -4.723350620944747E-1   -5.704998597163117E-2
 1.004889160662500E+10  -3.798178270147048E-1   -2.510494201878395E-1    9.235085515105356E-5   -9.587433661966699E-5    1.320469853199555E-4   -1.056117644977608E-4   -4.723555771383892E-1   -5.677165538761089E-2
 1.004889625900000E+10  -3.798873861751688E-1   -2.508376412032631E-1    1.211607167536619E-4   -5.164269920395398E-5    1.231488821395066E-4   -7.754568627404041E-5   -4.725077898432896E-1   -5.624252051623901E-2
 1.004890091137500E+10  -3.800455688028376E-1   -2.505398762510894E-1    1.327449264685522E-4   -7.008658314990103E-5    8.961055855773173E-5   -5.328088857644546E-5   -4.724314056545059E-1   -5.582933032163936E-2
 1.004890556375000E+10  -3.802338232924525E-1   -2.503502102580531E-1    1.279508418683404E-4   -9.956472216796044E-5    1.253228543762211E-4   -4.416616412114060E-5   -4.724562684109608E-1   -5.559896694113387E-2
 1.004891021612500E+10  -3.802962672184145E-1   -2.501215663671179E-1    7.815159502525582E-5   -5.337937990117428E-5    1.260149922259497E-4   -5.440591559745132E-5   -4.724764772705076E-1   -5.514742081610674E-2
 1.004891486850000E+10  -3.804583877923433E-1   -2.496351197854954E-1    1.208167166853501E-4   -6.897907774456666E-5    1.285435950350618E-4   -4.679358661468538E-5   -4.724912688970985E-1   -5.478065094937089E-2
 1.004891952087500E+10  -3.807288201461660E-1   -2.494726072110229E-1    9.130427036150093E-5   -5.079412641396423E-5    9.083046080712298E-5   -3.882943361618451E-5   -4.725211441872540E-1   -5.439167812655287E-2
 1.004892417325000E+10  -3.807898632097190E-1   -2.492165226813237E-1    1.067896285312660E-4   -4.878561505127194E-5    1.027380269842636E-4   -1.630528580177888E-5   -4.724369718410789E-1   -5.391398117919746E-2
 1.004892882562500E+10  -3.809672926544727E-1   -2.489589043929784E-1    1.155453577105092E-4   -1.386990848823899E-5    1.091074876193104E-4   -1.266385043088235E-5   -4.724483665064832E-1   -5.357319984489113E-2
 1.004893347800000E+10  -3.811431174763979E-1   -2.486745193874990E-1    8.813645375052223E-5   -9.160589809790335E-6    1.203343268015120E-4   -2.963125395681170E-6   -4.724237646643922E-1   -5.331266381401367E-2
 1.004893813037500E+10  -3.813361956826586E-1   -2.485104973989502E-1    9.782684182406328E-5   -8.156659543182218E-6    9.498388525767562E-5   -2.989162120374299E-5   -4.724416618985288E-1   -5.270279526509714E-2
 1.004894278275000E+10  -3.815618790088685E-1   -2.481915714316903E-1    1.375346293467529E-4    3.470812941493195E-6    9.055327150182876E-5    3.246845787064979E-5   -4.725977689609135E-1   -5.246579460513007E-2
 1.004894743512500E+10  -3.815326154745877E-1   -2.478729078818870E-1    1.055097896648456E-4   -1.545275469149183E-5    1.096209567934899E-4    3.658524204850520E-5   -4.725591562925752E-1   -5.201391738784168E-2
 1.004895208750000E+10  -3.818489438697748E-1   -2.477013146779808E-1    1.021511455804474E-4    1.233001909748923E-5    1.172466877753311E-4    1.168502943935288E-5   -4.724230924994453E-1   -5.168481256812699E-2
 1.004895673987500E+10  -3.820484494538404E-1   -2.473826459483743E-1    8.121294382292941E-5    4.129205512843677E-5    9.972780995860429E-5    4.051155371551362E-5   -4.726071363393863E-1   -5.116597009647567E-2
 1.004896139225000E+10  -3.820802860783010E-1   -2.471552252241982E-1    8.874437044411553E-5    3.118273676785575E-5    1.066645487553566E-4    3.848741364199536E-5   -4.724827727966632E-1   -5.091837238376568E-2
 1.004896604462500E+10  -3.822316229612310E-1   -2.468603445871482E-1    8.460338117553294E-5    5.441217494790686E-5    1.165853038409021E-4    5.508649828984043E-5   -4.724881063438451E-1   -5.041273721368995E-2
 1.004897069700000E+10  -3.825613339734668E-1   -2.464488825037970E-1    8.463297658281810E-5    6.316922818111860E-5    8.983522048283511E-5    5.190472541437876E-5   -4.725392582055964E-1   -5.003488889880811E-2
 1.004897534937500E+10  -3.825366668631778E-1   -2.463407414896683E-1    6.763951725741008E-5    6.928610860020457E-5    7.949998485712519E-5    7.542984638389003E-5   -4.726157836407688E-1   -4.957070115498646E-2
 1.004898000175000E+10  -3.829270324146707E-1   -2.461618104199877E-1    1.107457519817153E-4    6.356791108817959E-5    1.252516495956906E-4    8.662020868991217E-5   -4.726183507624433E-1   -4.928047225779032E-2
 1.004898465412500E+10  -3.828916581376904E-1   -2.457671084085100E-1    9.829966439557342E-5    7.869436529384993E-5    8.315444496170515E-5    1.180792776733134E-4   -4.725523379188617E-1   -4.890384422287132E-2
 1.004898930650000E+10  -3.830005077007798E-1   -2.455775828458833E-1    1.137305864258810E-4    9.996017030606263E-5    1.063601000416226E-4    1.137122663807924E-4   -4.725785952742431E-1   -4.844189864256727E-2
 1.004899395887500E+10  -3.831238971242735E-1   -2.452996220896620E-1    1.090415790261982E-4    1.123594087017272E-4    9.198664567305468E-5    1.177119701139052E-4   -4.726136460312483E-1   -4.796460778259832E-2
 1.004899861125000E+10  -3.832408915063560E-1   -2.450206799882100E-1    1.074799038486246E-4    1.187920395693476E-4    1.141576811212877E-4    1.300255679702640E-4   -4.727894736627272E-1   -4.765475178544056E-2
 1.004900326362500E+10  -3.834478089409046E-1   -2.447781040521585E-1    1.027678889961513E-4    1.292089326668831E-4    1.201701230817902E-4    1.319135899180904E-4   -4.726095660852149E-1   -4.722790844038813E-2
 1.004900791600000E+10  -3.836771594445778E-1   -2.444910500827848E-1    8.976162234246503E-5    1.467002543909488E-4    1.210381587185994E-4    1.689649971934518E-4   -4.725179711530224E-1   -4.679266314095960E-2
 1.004901256837500E+10  -3.838170081756764E-1   -2.441407475518524E-1    1.248949630221873E-4    1.452864336929482E-4    1.032451236584175E-4    1.707751616352923E-4   -4.727672003015609E-1   -4.647204288853247E-2
 1.004901722075000E+10  -3.839325530403363E-1   -2.439096868383555E-1    1.146387989799053E-4    1.561718801477497E-4    1.071369203601760E-4    1.817040047908732E-4   -4.724986463739743E-1   -4.601521168825606E-2
 1.004902187312500E+10  -3.841375122062610E-1   -2.436107073701537E-1    1.158029733269694E-4    1.681339530845772E-4    1.314049259923350E-4    2.032008475479500E-4   -4.726254911859363E-1   -4.558052325383991E-2
 1.004902652550000E+10  -3.843423975331777E-1   -2.434522494510698E-1    9.290656210290222E-5    2.072717817727561E-4    9.693482752966616E-5    1.948207426790320E-4   -4.726409776363331E-1   -4.516840015611401E-2
 1.004903117787500E+10  -3.845284182039192E-1   -2.430576843466125E-1    1.382930554156844E-4    1.992244564769123E-4    1.031990382060786E-4    2.109400720722412E-4   -4.726460832509078E-1   -4.482278599877851E-2
 1.004903583025000E+10  -3.846334607576734E-1   -2.429335208113259E-1    1.079977805717496E-4    1.947330676666643E-4    1.008483830822092E-4    2.075362796106419E-4   -4.726563856827361E-1   -4.437150215463775E-2
 1.004904048262500E+10  -3.848197281428963E-1   -2.426226264312208E-1    1.468122923318973E-4    1.964128603013315E-4    1.087691491694377E-4    2.610017175003478E-4   -4.726462833217119E-1   -4.394771269437692E-2
 1.004904513500000E+10  -3.850374354600924E-1   -2.424485515463304E-1    1.425238929003488E-4    2.499586284837097E-4    9.438710160054529E-5    2.624739293253733E-4   -4.726405622864323E-1   -4.344364533064968E-2
 1.004904978737500E+10  -3.851671444937215E-1   -2.421247874777368E-1    1.401069865508855E-4    2.338940848083898E-4    8.708055403861944E-5    2.372101919712613E-4   -4.725471554768073E-1   -4.305174339058936E-2
 1.004905443975000E+10  -3.852615312295676E-1   -2.417192821047957E-1    1.052481642091902E-4    2.537693664402274E-4    1.027053038276054E-4    2.900015841454148E-4   -4.726480867747191E-1   -4.268960482128923E-2
 1.004905909212500E+10  -3.854659317214530E-1   -2.415617592562760E-1    1.256817793641152E-4    2.905735644171839E-4    9.311865774534418E-5    2.813010685821241E-4   -4.726697281534741E-1   -4.220624381500932E-2
 1.004906374450000E+10  -3.854816505479232E-1   -2.412246355496029E-1    1.481128195730895E-4    2.830070887350857E-4    1.174310913028442E-4    3.166329654369606E-4   -4.726822169988368E-1   -4.177342090134389E-2
 1.004906839687500E+10  -3.858602700849426E-1   -2.410085576592284E-1    1.240025342756158E-4    3.055374868580332E-4    9.943011876683307E-5    2.980659726454435E-4   -4.725622595333577E-1   -4.135667040091511E-2
 1.004907304925000E+10  -3.858111045573698E-1   -2.407865652894696E-1    1.120158342762963E-4    3.003375685479365E-4    1.202440065007340E-4    3.194652914841115E-4   -4.725609191403640E-1   -4.092405316454440E-2
 1.004907770162500E+10  -3.859652132188273E-1   -2.404957560061363E-1    1.333421846439529E-4    3.276407659411826E-4    8.997677625924580E-5    3.256924095367818E-4   -4.724788027844476E-1   -4.057686310669256E-2
 1.004908235400000E+10  -3.862288055364437E-1   -2.401859778107917E-1    1.482166076213204E-4    3.253147263458860E-4    1.381323550927171E-4    3.522397376788093E-4   -4.725617546967486E-1   -3.988660819622913E-2
 1.004908700637500E+10  -3.864347709246816E-1   -2.399571890493740E-1    1.318687917057754E-4    3.764050238826247E-4    1.233550831524909E-4    3.825188331140650E-4   -4.725452982637586E-1   -3.960369041187754E-2
 1.004909165875000E+10  -3.865486104187922E-1   -2.398413106807051E-1    1.459513041711798E-4    3.846150185320924E-4    1.080322200187861E-4    3.908626531797613E-4   -4.725241558239223E-1   -3.931397747826498E-2
 1.004909631112500E+10  -3.867551963843274E-1   -2.394630150212423E-1    1.529215701338274E-4    3.931166547062813E-4    1.131433540968242E-4    4.109391520176705E-4   -4.725068447989694E-1   -3.879203197555982E-2
 1.004910096350000E+10  -3.867021480340156E-1   -2.391877545880260E-1    1.515969652781319E-4    4.058905276807048E-4    9.987318269709847E-5    4.459122740587285E-4   -4.724742646009642E-1   -3.827424188519806E-2
 1.004910561587500E+10  -3.870096738977312E-1   -2.389567833828702E-1    1.640102902682546E-4    4.341186140406707E-4    1.221465303847786E-4    4.393247852316160E-4   -4.724612574365254E-1   -3.788224652141045E-2
 1.004911026825000E+10  -3.871417670629603E-1   -2.386544643951191E-1    1.295527379922321E-4    4.210634538634649E-4    1.261311094969295E-4    4.334675488334294E-4   -4.723228288048575E-1   -3.732686062355617E-2
 1.004911492062500E+10  -3.874041610703260E-1   -2.384551731183263E-1    1.758224477427999E-4    4.703901642695979E-4    1.246880215893343E-4    4.598960562471000E-4   -4.725410263083307E-1   -3.687377916893534E-2
 1.004911957300000E+10  -3.874594680382913E-1   -2.380906038708770E-1    1.330846116210856E-4    4.855117522190518E-4    1.199652554611836E-4    4.940493581461209E-4   -4.724390215857760E-1   -3.653147715432718E-2
 1.004912422537500E+10  -3.876283864945518E-1   -2.379540077750299E-1    1.915241530790209E-4    4.987849849624252E-4    1.300634139158004E-4    4.973224759833138E-4   -4.725293056593908E-1   -3.600439547309624E-2
 1.004912887775000E+10  -3.876111189075844E-1   -2.375921801233845E-1    1.786867740049399E-4    5.094268230873516E-4    1.391069367257197E-4    5.009592364424778E-4   -4.723957671584811E-1   -3.543158886551316E-2
