#  HZ   S   RI   R     50.00 
! Rohde & Schwarz Vector Network Analyzer 
! Rohde-Schwarz,ZNB20-2Port,1311601062101988,3.16
! Created: UTC 3/21/2024, 1:18:02 AM
! freq[Hz]                re:S11                  im:S11                  re:S21                  im:S21                  re:S12                  im:S12                  re:S22                  im:S22
 1.004877040700000E+10  -3.752202976188054E-1   -2.580207301503274E-1    1.123761636154524E-4   -3.030091160877133E-4    1.380571739467639E-4   -3.001490721742481E-4   -4.716342202982973E-1   -6.655227160719122E-2
 1.004877485635000E+10  -3.754852646749156E-1   -2.578995446750094E-1    1.179936571364294E-4   -3.197329240031472E-4    1.342069990524927E-4   -2.792926504376625E-4   -4.717068622297310E-1   -6.625538015200982E-2
 1.004877930570000E+10  -3.755004682598023E-1   -2.574818027749352E-1    1.021607134200137E-4   -2.964794460088654E-4    1.432379869820501E-4   -2.958291109616073E-4   -4.718144947088673E-1   -6.587280267092001E-2
 1.004878375505000E+10  -3.757701757676053E-1   -2.572687210511629E-1    9.669703256663507E-5   -2.653226291263146E-4    1.550933180686741E-4   -2.941903248707256E-4   -4.718548402876590E-1   -6.566442744628631E-2
 1.004878820440000E+10  -3.759033689223539E-1   -2.570752634406768E-1    9.480035130693814E-5   -2.789345193567206E-4    1.285778399813826E-4   -2.642491534928404E-4   -4.716828745879802E-1   -6.520092232484656E-2
 1.004879265375000E+10  -3.761202538985607E-1   -2.566553438566873E-1    1.094877355348437E-4   -2.686002431796523E-4    1.334299224451279E-4   -2.375567026980817E-4   -4.718189268604247E-1   -6.493863358250732E-2
 1.004879710310000E+10  -3.761389392882309E-1   -2.565048222613905E-1    1.128514638768487E-4   -2.691591238616568E-4    1.193529232067717E-4   -2.541580263025102E-4   -4.719040733277075E-1   -6.459514746946869E-2
 1.004880155245000E+10  -3.764818528371950E-1   -2.562317658419518E-1    1.038036884176294E-4   -2.391725386507442E-4    1.340453618583778E-4   -2.455833871047847E-4   -4.720844509491826E-1   -6.419193461849944E-2
 1.004880600180000E+10  -3.765402259426019E-1   -2.561336869210933E-1    1.080906818752565E-4   -2.560497885504855E-4    1.180551673830162E-4   -2.557644776994290E-4   -4.721013485538285E-1   -6.384327697878371E-2
 1.004881045115000E+10  -3.767198058501282E-1   -2.557245073364125E-1    1.068550925529274E-4   -2.647724121838464E-4    1.180091068397259E-4   -2.266476037325375E-4   -4.720468978855423E-1   -6.353947673201381E-2
 1.004881490050000E+10  -3.768712052493872E-1   -2.555751765472529E-1    1.129177475923404E-4   -2.304681297969192E-4    1.444961251196199E-4   -2.186376198321893E-4   -4.720271116559068E-1   -6.338172858590962E-2
 1.004881934985000E+10  -3.770009314123638E-1   -2.553645451846167E-1    1.165348113171318E-4   -2.506464955796926E-4    1.301182848085919E-4   -2.289545843565280E-4   -4.720513818293768E-1   -6.286291066685945E-2
 1.004882379920000E+10  -3.771753333167523E-1   -2.551162031360323E-1    1.054644591915454E-4   -2.262907810645105E-4    1.427962836940902E-4   -2.118631578018800E-4   -4.720373381448218E-1   -6.238359462702243E-2
 1.004882824855000E+10  -3.773317939532355E-1   -2.548216654762464E-1    9.752676646426546E-5   -2.360752948390991E-4    9.617721958580068E-5   -2.377742855230862E-4   -4.721888625162510E-1   -6.210706520638283E-2
 1.004883269790000E+10  -3.774808907911772E-1   -2.545791712070897E-1    8.600359223609804E-5   -2.052567817075759E-4    1.161779789455551E-4   -2.231364122361688E-4   -4.722248551836218E-1   -6.173570291442435E-2
 1.004883714725000E+10  -3.776736916850838E-1   -2.543082662234495E-1    1.199404332100737E-4   -2.004850991586409E-4    1.289986574569145E-4   -2.164349582172823E-4   -4.721155552890760E-1   -6.154290896220675E-2
 1.004884159660000E+10  -3.778461149497137E-1   -2.540402232421227E-1    1.154944532493003E-4   -2.206977942200098E-4    1.210553543761376E-4   -1.864354414941476E-4   -4.724103398848942E-1   -6.105787217380886E-2
 1.004884604595000E+10  -3.780887211729418E-1   -2.537805074535876E-1    8.281471208025707E-5   -1.646554936176187E-4    1.155114471864368E-4   -1.984660458793621E-4   -4.722442135204912E-1   -6.078060069184740E-2
 1.004885049530000E+10  -3.781118191524276E-1   -2.536696876023324E-1    1.061424773103500E-4   -1.836974028655254E-4    1.062816348355736E-4   -1.903033022970951E-4   -4.722034708401046E-1   -6.031255757315648E-2
 1.004885494465000E+10  -3.782175886766624E-1   -2.532520027122793E-1    1.060620232465006E-4   -1.916750687191706E-4    1.144091625021776E-4   -1.756366704077614E-4   -4.722921557308982E-1   -5.997777462978219E-2
 1.004885939400000E+10  -3.783898769988797E-1   -2.531476307816783E-1    1.261179114219182E-4   -1.593947511452637E-4    9.812155149063822E-5   -1.640157485478390E-4   -4.722104095994693E-1   -5.960665448247315E-2
 1.004886384335000E+10  -3.786174055702166E-1   -2.528136864748895E-1    9.370468390559898E-5   -1.696575298989845E-4    1.307344319580838E-4   -1.922204021799692E-4   -4.723411089142372E-1   -5.926773887615162E-2
 1.004886829270000E+10  -3.787168280295914E-1   -2.526723381565708E-1    1.105712758131226E-4   -1.625010403915690E-4    1.378497634975442E-4   -1.635161422515485E-4   -4.723468678025752E-1   -5.891816348175254E-2
 1.004887274205000E+10  -3.789376850034717E-1   -2.524037638896844E-1    1.101012364065550E-4   -1.804814068548462E-4    1.416530338228987E-4   -1.599409939512505E-4   -4.723568254251496E-1   -5.861110101080770E-2
 1.004887719140000E+10  -3.790477644360154E-1   -2.520797964125707E-1    1.133296273476511E-4   -1.552363277569013E-4    1.117747181255786E-4   -1.666227021723083E-4   -4.724081018963374E-1   -5.807315692623408E-2
 1.004888164075000E+10  -3.792060396411326E-1   -2.519434230552854E-1    1.107739773453380E-4   -1.480926557133581E-4    1.042206758391378E-4   -1.286237379331087E-4   -4.724653773729973E-1   -5.785835192668361E-2
 1.004888609010000E+10  -3.793265191090203E-1   -2.515379539242099E-1    8.918313046435196E-5   -1.273754069819402E-4    1.243022668155781E-4   -1.584193058674694E-4   -4.724674674791160E-1   -5.760113119207876E-2
 1.004889053945000E+10  -3.794442719511451E-1   -2.513633416053753E-1    1.117189310382520E-4   -1.110539474053198E-4    9.323387219835670E-5   -1.284470637557990E-4   -4.722914390893494E-1   -5.704289998767679E-2
 1.004889498880000E+10  -3.797033217476427E-1   -2.510767615237491E-1    1.025132404833761E-4   -1.259040355695824E-4    1.107116164142025E-4   -1.188103946460751E-4   -4.724455835563886E-1   -5.672916355503373E-2
 1.004889943815000E+10  -3.799425784421028E-1   -2.507300081139111E-1    8.055684728169434E-5   -8.960878620047943E-5    1.017510379881181E-4   -9.754783324264096E-5   -4.723596587142848E-1   -5.629939983482861E-2
 1.004890388750000E+10  -3.800347523527308E-1   -2.505424167050054E-1    1.033665229189054E-4   -1.290574950266095E-4    1.170586180164482E-4   -1.078837587125394E-4   -4.723644724214220E-1   -5.606841827585292E-2
 1.004890833685000E+10  -3.801656383525543E-1   -2.503173176745041E-1    8.598871806816220E-5   -1.131761233745689E-4    1.187674265518785E-4   -1.012496687268331E-4   -4.725133243779900E-1   -5.576168079853137E-2
 1.004891278620000E+10  -3.802378924848627E-1   -2.500672299646400E-1    1.091581976100655E-4   -1.092838441341432E-4    7.566807656943040E-5   -8.748927218399838E-5   -4.725374127928559E-1   -5.535968070847353E-2
 1.004891723555000E+10  -3.804842327626128E-1   -2.497174712354764E-1    9.084118302846231E-5   -8.915828841004662E-5    9.055032058702708E-5   -6.343993544434564E-5   -4.724614305379187E-1   -5.489507379398410E-2
 1.004892168490000E+10  -3.805805710579789E-1   -2.494537661024853E-1    1.084624171031435E-4   -6.529859947357753E-5    1.081286008735565E-4   -8.270674698668467E-5   -4.725617760698415E-1   -5.467890019936748E-2
 1.004892613425000E+10  -3.808500754229823E-1   -2.492395681487178E-1    8.530181451845838E-5   -6.053860655872279E-5    9.925930604818817E-5   -5.595551991718509E-5   -4.724326303338442E-1   -5.421294719407366E-2
 1.004893058360000E+10  -3.809226695972551E-1   -2.489864825596618E-1    8.482112402730011E-5   -3.230539509254158E-5    7.021739914191517E-5   -3.471894604520789E-5   -4.727903384792584E-1   -5.377434352814994E-2
 1.004893503295000E+10  -3.810910161163722E-1   -2.488865298255718E-1    1.215794815285533E-4   -8.577015141111826E-5    1.112586077651925E-4   -3.527293869911643E-5   -4.724675009550163E-1   -5.351912110125597E-2
 1.004893948230000E+10  -3.812458566920111E-1   -2.485090937698013E-1    1.126878478547197E-4   -4.149026043600812E-5    8.760672996734859E-5   -3.851944356291787E-5   -4.726494294601410E-1   -5.311177867679665E-2
 1.004894393165000E+10  -3.814352790696831E-1   -2.482101255602664E-1    1.226535378244387E-4   -2.395661512481245E-5    1.237009262319683E-4   -3.407293680484723E-5   -4.726435875053242E-1   -5.290491562956433E-2
 1.004894838100000E+10  -3.815791415433062E-1   -2.480069463647191E-1    1.268316646753964E-4   -4.277006255815635E-5    9.291727532473155E-5   -5.504079286926966E-5   -4.727780198320908E-1   -5.242348953782193E-2
 1.004895283035000E+10  -3.817985164612596E-1   -2.477728462599211E-1    8.844258231139896E-5    4.380860223927394E-7    9.186981709463014E-5   -9.915350470949951E-7   -4.727426202999160E-1   -5.206286057319261E-2
 1.004895727970000E+10  -3.818158932138636E-1   -2.475909927899944E-1    8.534053642309028E-5   -1.698770646810499E-5    1.124951220245023E-4   -1.523766894573233E-5   -4.727133404533320E-1   -5.161578716472764E-2
 1.004896172905000E+10  -3.820336194295880E-1   -2.472867190741266E-1    8.641835952207435E-5    2.171909468715536E-5    1.143788733978960E-4   -7.399559077873180E-6   -4.727521863229107E-1   -5.132530973768634E-2
 1.004896617840000E+10  -3.823260752307921E-1   -2.471598033452413E-1    9.059389735177835E-5    1.484384420850233E-5    8.602699425222544E-5    1.722786298498582E-5   -4.727922591553957E-1   -5.090827911423931E-2
 1.004897062775000E+10  -3.824583592202485E-1   -2.467647485862405E-1    8.411275177923307E-5   -2.711422004609523E-5    9.865218125183283E-5    3.083657352549838E-5   -4.727637570204075E-1   -5.063005003087665E-2
 1.004897507710000E+10  -3.824991879207212E-1   -2.466091698383045E-1    1.146148714764686E-4    3.658551528301487E-5    1.233877968690618E-4    6.051953781592239E-5   -4.728363583608053E-1   -5.016473084474927E-2
 1.004897952645000E+10  -3.827261828113194E-1   -2.463760656848857E-1    9.032711424708304E-5    2.505654296323201E-5    1.096295021136680E-4    2.491508254560603E-5   -4.727794632779980E-1   -4.965366904444552E-2
 1.004898397580000E+10  -3.827847512155462E-1   -2.460188762846775E-1    1.133127928858359E-4    4.870604171003643E-5    7.888056470132402E-5    4.637171896726748E-5   -4.727166414443689E-1   -4.948089336699715E-2
 1.004898842515000E+10  -3.829547975099451E-1   -2.458266880694134E-1    1.172067149928510E-4    3.779999821170264E-5    1.211547109352317E-4    8.598160047877319E-5   -4.726928762681978E-1   -4.909388384869565E-2
 1.004899287450000E+10  -3.830965126821253E-1   -2.456104761126779E-1    1.023444025487279E-4    6.747264801773049E-5    1.096787674895765E-4    5.365147364726634E-5   -4.728830056910121E-1   -4.862530900280518E-2
 1.004899732385000E+10  -3.831652698166197E-1   -2.453470881024247E-1    8.852909238724720E-5    2.849020971265040E-5    7.914579434209613E-5    6.282754449420981E-5   -4.727363128110127E-1   -4.842445213920343E-2
 1.004900177320000E+10  -3.834055463376730E-1   -2.451679263150336E-1    1.194543485090133E-4    9.539771685310976E-5    1.339611509700819E-4    8.593891876452388E-5   -4.728465109642784E-1   -4.785858731829033E-2
 1.004900622255000E+10  -3.835632657968293E-1   -2.447368292296843E-1    1.233967509453713E-4    6.421358370301889E-5    1.019346703288932E-4    8.814467139242516E-5   -4.729112665033310E-1   -4.757487798984147E-2
 1.004901067190000E+10  -3.837117921754832E-1   -2.445476464322374E-1    9.835732473266440E-5    1.185878535953877E-4    9.206792141359975E-5    7.486724488601728E-5   -4.727557409200749E-1   -4.711319895943882E-2
 1.004901512125000E+10  -3.838187012254112E-1   -2.442417957483147E-1    1.016425109139336E-4    7.570671745785124E-5    1.054643389128970E-4    1.192583434957193E-4   -4.728435816261446E-1   -4.686393469141749E-2
 1.004901957060000E+10  -3.839248313283872E-1   -2.440344395080805E-1    1.115827982430413E-4    1.373056342052171E-4    8.243912785544233E-5    1.319356688413068E-4   -4.728909937743747E-1   -4.644055974896320E-2
 1.004902401995000E+10  -3.841779186023717E-1   -2.436943008462069E-1    1.127359245691770E-4    1.576966768035087E-4    1.044296224421302E-4    1.358487883089606E-4   -4.729806483913355E-1   -4.589527870915870E-2
 1.004902846930000E+10  -3.843337724963703E-1   -2.435748335068344E-1    1.076626670073039E-4    1.465920336586657E-4    8.529659674106457E-5    1.553443593737924E-4   -4.727795229395894E-1   -4.558243166518791E-2
 1.004903291865000E+10  -3.845488972350810E-1   -2.432199210213672E-1    1.046932729636550E-4    1.647572228161581E-4    1.139424343540028E-4    1.879677121105364E-4   -4.728051922692032E-1   -4.505864997689443E-2
 1.004903736800000E+10  -3.846606923162801E-1   -2.431109497005135E-1    1.127834046668390E-4    1.651023683303557E-4    4.974021051145690E-5    1.528218269688876E-4   -4.727928187467272E-1   -4.468673874467580E-2
 1.004904181735000E+10  -3.845374305069635E-1   -2.426115518505150E-1    1.147047270278288E-4    1.568016053775940E-4    1.028200001634430E-4    1.893682103014096E-4   -4.728802642947960E-1   -4.445513685351807E-2
 1.004904626670000E+10  -3.850289739002867E-1   -2.425393104018800E-1    1.029235569861111E-4    1.909207885013049E-4    7.889098645360929E-5    2.111862364309834E-4   -4.729636422295861E-1   -4.403286797631883E-2
 1.004905071605000E+10  -3.852018411877289E-1   -2.422729869092363E-1    1.047931122721666E-4    1.858846307803623E-4    7.238285080240223E-5    2.079629352652234E-4   -4.728817004940659E-1   -4.359778132796435E-2
 1.004905516540000E+10  -3.851549285184781E-1   -2.419881997482098E-1    1.320967833407213E-4    1.831299135579292E-4    8.517956689024610E-5    2.029103582709281E-4   -4.728668578984435E-1   -4.320966227885849E-2
 1.004905961475000E+10  -3.853732017957836E-1   -2.417466207089800E-1    6.859860121023750E-5    2.074366162924326E-4    7.630155555064733E-5    2.402770835583828E-4   -4.728611748476588E-1   -4.278527107967438E-2
 1.004906406410000E+10  -3.855107695131814E-1   -2.414849320740532E-1    1.123773324234462E-4    2.223677528794621E-4    6.618104765679708E-5    2.280852801668089E-4   -4.727957282002114E-1   -4.237075244996204E-2
 1.004906851345000E+10  -3.856270386431345E-1   -2.411557210218231E-1    1.278100322968072E-4    2.893820778437885E-4    9.062374256695042E-5    2.475401554566596E-4   -4.727944704089002E-1   -4.205441321241701E-2
 1.004907296280000E+10  -3.858364104965837E-1   -2.408563557859809E-1    1.188352606260712E-4    2.362050422821464E-4    1.186054889496408E-4    2.637725659810751E-4   -4.727675272540925E-1   -4.161189891194705E-2
 1.004907741215000E+10  -3.859474308711844E-1   -2.406993871325203E-1    1.512499716529655E-4    2.713670875907948E-4    9.925286857747579E-5    2.641001827681092E-4   -4.727560988106514E-1   -4.112875095092314E-2
 1.004908186150000E+10  -3.861373512847746E-1   -2.403819801345027E-1    1.353357594573632E-4    2.988239846136550E-4    1.152979570047366E-4    2.971646959246575E-4   -4.728031142008976E-1   -4.082058932006631E-2
 1.004908631085000E+10  -3.862792583277355E-1   -2.401949582751193E-1    1.043326056450442E-4    2.627282311898622E-4    1.101818114807726E-4    2.641839656894025E-4   -4.728492883486248E-1   -4.033076375395839E-2
 1.004909076020000E+10  -3.862992699036655E-1   -2.399194611836555E-1    1.442187695465760E-4    2.983263989267529E-4    1.077890216254088E-4    3.267633883589275E-4   -4.727482625694773E-1   -3.994849978417726E-2
 1.004909520955000E+10  -3.865355790801401E-1   -2.396656147505727E-1    1.278839965540979E-4    2.966141577331213E-4    8.641532158005880E-5    3.284631645053029E-4   -4.728349957583727E-1   -3.947054011218521E-2
 1.004909965890000E+10  -3.867489468820528E-1   -2.393981915631707E-1    9.571610515563118E-5    3.558748242718909E-4    1.081353846531337E-4    3.289452354469928E-4   -4.727687125111207E-1   -3.909986651673879E-2
 1.004910410825000E+10  -3.868503645324790E-1   -2.391479209770224E-1    1.140553797287788E-4    3.304729733153715E-4    1.369865009549873E-4    3.336365106113463E-4   -4.728652618339242E-1   -3.875838739792612E-2
 1.004910855760000E+10  -3.869462760757703E-1   -2.390504256934002E-1    1.168756003701066E-4    3.393908741082181E-4    9.745320420572469E-5    3.826567752254980E-4   -4.727646099725971E-1   -3.833642348874358E-2
 1.004911300695000E+10  -3.870283699466993E-1   -2.387285108440272E-1    1.554509512131831E-4    3.681601343886336E-4    1.308304334823714E-4    3.774569323649062E-4   -4.726597278088430E-1   -3.786814307048206E-2
 1.004911745630000E+10  -3.872269468022612E-1   -2.384462115765981E-1    1.283981522553200E-4    3.781205879943206E-4    9.780358119482341E-5    3.929797472220424E-4   -4.726565828463329E-1   -3.742801499519985E-2
 1.004912190565000E+10  -3.873395453233162E-1   -2.380766994364153E-1    1.490323690115013E-4    4.085497620936849E-4    9.366529186785294E-5    4.022201051891338E-4   -4.726317579768159E-1   -3.689495727970865E-2
 1.004912635500000E+10  -3.876366180652553E-1   -2.378463337607685E-1    1.176314543200220E-4    4.510890654117603E-4    1.148636500677991E-4    4.308972684546085E-4   -4.727749683017071E-1   -3.647534374502419E-2
 1.004913080435000E+10  -3.875165337223991E-1   -2.377116943079498E-1    1.473811926248577E-4    4.280917244952467E-4    1.109445732751149E-4    4.342188982539211E-4   -4.727538776403374E-1   -3.613043216362097E-2
 1.004913525370000E+10  -3.878887563913457E-1   -2.374152032461865E-1    1.412663463399026E-4    4.507346669533202E-4    1.214591489772679E-4    4.846595772376073E-4   -4.725490138111157E-1   -3.571080597550508E-2
 1.004913970305000E+10  -3.879989268790154E-1   -2.372001217530656E-1    1.646666620763519E-4    4.489630556781550E-4    1.231922992508857E-4    5.048933643991957E-4   -4.725925518548654E-1   -3.528231106168407E-2
 1.004914415240000E+10  -3.880447971595439E-1   -2.369024581495890E-1    1.513400666480215E-4    5.022879040061765E-4    1.306473194185652E-4    4.834856851984137E-4   -4.725170675808917E-1   -3.466782749655035E-2
 1.004914860175000E+10  -3.883866937921988E-1   -2.365966510877630E-1    1.486853722984554E-4    4.534209698983596E-4    8.025894961082514E-5    4.724600989729128E-4   -4.725281730599195E-1   -3.435578352152859E-2
 1.004915305110000E+10  -3.884380468187282E-1   -2.363984527784564E-1    1.604566357730460E-4    5.391145849929519E-4    1.094571884130312E-4    5.184997961195241E-4   -4.724284003562563E-1   -3.394560941909357E-2
 1.004915750045000E+10  -3.886166202958470E-1   -2.361431086610565E-1    1.516181352166486E-4    5.397775830332722E-4    1.135231237837540E-4    5.372271256784808E-4   -4.723689759779066E-1   -3.352138018710951E-2
 1.004916194980000E+10  -3.886889969940385E-1   -2.359234614013637E-1    1.454428213957564E-4    5.397413807467913E-4    1.232110695410379E-4    5.563375909609454E-4   -4.724224936091880E-1   -3.289976765698255E-2
 1.004916639915000E+10  -3.888211664529361E-1   -2.356272725430734E-1    1.673637343610716E-4    5.417549905044566E-4    1.150319830618778E-4    5.862838670209054E-4   -4.724623274121112E-1   -3.264121737132235E-2
 1.004917084850000E+10  -3.889641275960790E-1   -2.352616446945696E-1    1.542730917421742E-4    5.635521376233995E-4    1.642989289565677E-4    6.088484312431853E-4   -4.723749797711662E-1   -3.197830704155447E-2
