#  HZ   S   RI   R     50.00 
! Rohde & Schwarz Vector Network Analyzer 
! Rohde-Schwarz,ZNB20-2Port,1311601062101988,3.16
! Created: UTC 3/21/2024, 1:18:06 AM
! freq[Hz]                re:S11                  im:S11                  re:S21                  im:S21                  re:S12                  im:S12                  re:S22                  im:S22
 1.004879005500000E+10  -3.759703116358628E-1   -2.570701931244729E-1    1.209919472791520E-4   -2.576997025043824E-4    1.312755741728001E-4   -2.565199671302679E-4   -4.719285964617175E-1   -6.515023772472545E-2
 1.004879443497500E+10  -3.761885859078355E-1   -2.567547325125713E-1    1.040211041899666E-4   -2.619592683771484E-4    1.162932055472938E-4   -3.001645160533844E-4   -4.719261539401584E-1   -6.482351091989828E-2
 1.004879881495000E+10  -3.762309843335428E-1   -2.565593295600181E-1    1.095147770528483E-4   -2.890649588599070E-4    1.346839859679504E-4   -2.911202738189928E-4   -4.719335532013887E-1   -6.443785196514748E-2
 1.004880319492500E+10  -3.764547823370637E-1   -2.563143005961543E-1    1.163517391643348E-4   -2.347951404980145E-4    1.055373601345988E-4   -2.564305554965040E-4   -4.719052072481574E-1   -6.405417148917207E-2
 1.004880757490000E+10  -3.764301016331052E-1   -2.560460034681807E-1    1.198112510614460E-4   -2.617970207449939E-4    1.289555569695013E-4   -2.603082312969914E-4   -4.721456185522331E-1   -6.378235749955598E-2
 1.004881195487500E+10  -3.767140436698692E-1   -2.559326578199995E-1    1.207296583908474E-4   -2.952627269115563E-4    1.334998795152538E-4   -2.668635650698819E-4   -4.720479183192435E-1   -6.349517670739641E-2
 1.004881633485000E+10  -3.768636372813625E-1   -2.555260127218743E-1    1.210225409224081E-4   -2.386982594358678E-4    1.438854632590566E-4   -2.303820799675441E-4   -4.719732397071809E-1   -6.317640702582662E-2
 1.004882071482500E+10  -3.771614809820861E-1   -2.553842730915439E-1    1.149549866587533E-4   -2.337017537359210E-4    1.260610611628235E-4   -2.330775539993199E-4   -4.720042265877065E-1   -6.277613072747604E-2
 1.004882509480000E+10  -3.772658511303376E-1   -2.549735616196941E-1    1.101146572312788E-4   -2.041660828501113E-4    1.136752340610892E-4   -2.399297762389417E-4   -4.720715406290970E-1   -6.237916682750450E-2
 1.004882947477500E+10  -3.773456604827284E-1   -2.548056130957496E-1    7.967359318482982E-5   -2.371149232865515E-4    1.165143010059769E-4   -2.355352156230480E-4   -4.721877082270462E-1   -6.203305312947367E-2
 1.004883385475000E+10  -3.776384517796291E-1   -2.544925952262767E-1    9.734284383900208E-5   -2.066724776555182E-4    9.460190332776506E-5   -2.074936679200921E-4   -4.721046631052732E-1   -6.178826028019645E-2
 1.004883823472500E+10  -3.776820429706618E-1   -2.542951286943737E-1    8.778864709978262E-5   -2.090519494514713E-4    1.129922648231413E-4   -2.001881085021692E-4   -4.720913452217527E-1   -6.153234164836346E-2
 1.004884261470000E+10  -3.777876716618563E-1   -2.540337690317290E-1    1.163280524675458E-4   -2.120730571343934E-4    9.508874950416026E-5   -1.956835071680933E-4   -4.722146901827681E-1   -6.110796431468157E-2
 1.004884699467500E+10  -3.780147193906062E-1   -2.539078875206196E-1    1.083564529969107E-4   -2.282930958633291E-4    1.265722770636957E-4   -1.669542822843045E-4   -4.723421155118051E-1   -6.066960778502208E-2
 1.004885137465000E+10  -3.782250580842405E-1   -2.535443273567545E-1    8.012830470897606E-5   -1.977504854227733E-4    1.205622525989659E-4   -2.127181687647037E-4   -4.723060674783189E-1   -6.059665897847765E-2
 1.004885575462500E+10  -3.783034367598605E-1   -2.531997564861783E-1    9.951821437950898E-5   -2.173772737292797E-4    1.001611684141086E-4   -2.067120567425039E-4   -4.723473189094167E-1   -6.001934768938744E-2
 1.004886013460000E+10  -3.784682145908599E-1   -2.531409121417231E-1    8.854487173119340E-5   -1.619474673661399E-4    1.109264232220065E-4   -1.773211014217039E-4   -4.723185408787078E-1   -5.967164291959817E-2
 1.004886451457500E+10  -3.785802712775973E-1   -2.528585270715309E-1    9.470760484242643E-5   -1.871892624671772E-4    1.183764493007795E-4   -1.718344894072401E-4   -4.723130559141970E-1   -5.931718643730291E-2
 1.004886889455000E+10  -3.787817467054572E-1   -2.525720490303509E-1    9.025567171404715E-5   -1.646450057836680E-4    1.092855838283317E-4   -1.834943974512767E-4   -4.724805869711613E-1   -5.901798772115750E-2
 1.004887327452500E+10  -3.788727991036613E-1   -2.523067499695391E-1    1.084905587522996E-4   -1.654722699282634E-4    1.040133246635050E-4   -1.632216245814825E-4   -4.722519997291452E-1   -5.866936394170420E-2
 1.004887765450000E+10  -3.790476351032692E-1   -2.521285308263435E-1    1.015347510037974E-4   -1.492737999468151E-4    1.117535269732672E-4   -1.390635049587082E-4   -4.726046988665399E-1   -5.845262454135099E-2
 1.004888203447500E+10  -3.790985808171685E-1   -2.518995665153868E-1    8.874381763446946E-5   -1.928861646603654E-4    1.122040467245881E-4   -1.672345254583525E-4   -4.724489699934934E-1   -5.784972568967512E-2
 1.004888641445000E+10  -3.793253445080573E-1   -2.514920868703007E-1    1.010643710523608E-4   -1.296863167944049E-4    7.656903057601185E-5   -1.139218157244155E-4   -4.725465257273713E-1   -5.755008044228935E-2
 1.004889079442500E+10  -3.796078289842280E-1   -2.513278057224494E-1    1.122634730900073E-4   -1.267670246819692E-4    1.434877528908078E-4   -1.361962182652110E-4   -4.724877618360787E-1   -5.718253314186629E-2
 1.004889517440000E+10  -3.796550340947904E-1   -2.511930675901302E-1    8.057779512890202E-5   -1.194305232986156E-4    1.190272382085621E-4   -1.171300816837780E-4   -4.726038579079338E-1   -5.684804627988030E-2
 1.004889955437500E+10  -3.797656986376102E-1   -2.508272057360684E-1    6.132979410699024E-5   -1.257918908696640E-4    8.939546271719786E-5   -1.155190512839736E-4   -4.724095317783404E-1   -5.652445863723445E-2
 1.004890393435000E+10  -3.799569274826233E-1   -2.506317540029132E-1    1.018243223227787E-4   -1.074453248691761E-4    1.172195004622416E-4   -1.174125685084242E-4   -4.724417975728933E-1   -5.616925668935545E-2
 1.004890831432500E+10  -3.802063580358614E-1   -2.502791417766748E-1    1.022547672966996E-4   -1.071610066440303E-4    9.240151482323927E-5   -9.024293675249611E-5   -4.725583337318537E-1   -5.579133069877490E-2
 1.004891269430000E+10  -3.802625512467506E-1   -2.500560466166774E-1    9.048522607180684E-5   -1.080688339160643E-4    1.046167063891846E-4   -1.145732186660200E-4   -4.725293338996924E-1   -5.546561899211420E-2
 1.004891707427500E+10  -3.803592744448122E-1   -2.497914543797574E-1    1.251461249846654E-4   -1.077757862424378E-4    1.239209650199772E-4   -8.672087564075040E-5   -4.724500864122507E-1   -5.512961604187302E-2
 1.004892145425000E+10  -3.806367424920182E-1   -2.496367784464061E-1    8.503116324801914E-5   -1.069195518134727E-4    1.070111614258016E-4   -8.803067328503765E-5   -4.726140364576643E-1   -5.468749519180244E-2
 1.004892583422500E+10  -3.806578765027487E-1   -2.492840216339813E-1    1.108651618334664E-4   -6.122202271839417E-5    1.400214341401596E-4   -6.645302995937493E-5   -4.726743044698113E-1   -5.436912952660276E-2
 1.004893021420000E+10  -3.808898484104221E-1   -2.490218404691343E-1    1.128166853351483E-4   -5.626245835030306E-5    8.496790750724507E-5   -5.644365873739597E-5   -4.727465489668408E-1   -5.397346756812480E-2
 1.004893459417500E+10  -3.809985505651083E-1   -2.489186531758663E-1    1.035238343862603E-4   -7.179629766850092E-5    7.797901534914849E-5   -5.143177054038985E-5   -4.726861610600946E-1   -5.357882367837226E-2
 1.004893897415000E+10  -3.810852023840272E-1   -2.486415369107578E-1    1.089938252618785E-4   -7.425755616588652E-5    9.725104755947975E-5   -2.661886007895171E-5   -4.726112592322766E-1   -5.337389430949403E-2
 1.004894335412500E+10  -3.812803842230766E-1   -2.483835965311424E-1    9.195722100393038E-5   -7.786208727807437E-5    1.377662805235901E-4   -4.412518218580080E-5   -4.727525520796960E-1   -5.292296075690992E-2
 1.004894773410000E+10  -3.815583105705361E-1   -2.480256220349651E-1    9.527215539362298E-5   -6.894565922570137E-5    1.110786364780522E-4   -4.397407813674803E-5   -4.726925865419648E-1   -5.245115128138797E-2
 1.004895211407500E+10  -3.815625801866586E-1   -2.479215888758409E-1    1.337877904430268E-4   -3.850430737265937E-5    1.041663041085096E-4   -1.976753003051570E-5   -4.727979146041548E-1   -5.225377969848227E-2
 1.004895649405000E+10  -3.817077389816961E-1   -2.477098891427797E-1    9.414663202454589E-5    6.691250985665385E-6    1.036297044001701E-4   -1.546275878913875E-5   -4.727951981525840E-1   -5.179126728601385E-2
 1.004896087402500E+10  -3.818277402026145E-1   -2.473464266644542E-1    9.365058995355380E-5   -4.663090495677084E-5    1.357624471166622E-4   -1.235611962456174E-5   -4.727023103725678E-1   -5.134052447603878E-2
 1.004896525400000E+10  -3.820498709148748E-1   -2.471914594395162E-1    7.995014854294443E-5   -1.721254602839844E-5    9.234736936896851E-5   -2.102758199203083E-5   -4.727334238696084E-1   -5.106713444947306E-2
 1.004896963397500E+10  -3.821724449828678E-1   -2.469792920441408E-1    1.204139590987500E-4    8.749285223106308E-6    1.147462435321633E-4    6.276035825530106E-6   -4.727221564541247E-1   -5.080424863658847E-2
 1.004897401395000E+10  -3.823877802817487E-1   -2.466922254330613E-1    9.574357604505230E-5    5.316451915074809E-6    1.341118558417617E-4   -5.766634939962407E-6   -4.729176015219496E-1   -5.035308312003153E-2
 1.004897839392500E+10  -3.824491148171791E-1   -2.463930616704558E-1    1.168167267169499E-4    2.446431378115636E-6    1.014483524153639E-4    3.445735544687961E-5   -4.728134403628161E-1   -5.019105129446857E-2
 1.004898277390000E+10  -3.827736792302681E-1   -2.460508763163690E-1    7.912610153365552E-5    4.714220769676041E-5    7.165999546330705E-5    2.831241511756963E-5   -4.727947267557452E-1   -4.962807682868553E-2
 1.004898715387500E+10  -3.828840023422280E-1   -2.459163533840281E-1    9.208975858508387E-5    6.198705285824511E-5    9.854973083335028E-5    4.193355603354650E-5   -4.728415412233765E-1   -4.936178903378535E-2
 1.004899153385000E+10  -3.829559601046807E-1   -2.456106106245634E-1    1.033835167649930E-4    3.639662283447128E-5    8.938197862246444E-5    6.679851174069393E-5   -4.727206132185669E-1   -4.905186695550768E-2
 1.004899591382500E+10  -3.831953518333122E-1   -2.453920123799051E-1    8.756045737400592E-5    7.787501539356096E-5    9.267734589639088E-5    4.979930043519667E-5   -4.729834141801667E-1   -4.858215835893197E-2
 1.004900029380000E+10  -3.832912199532774E-1   -2.450162886776666E-1    6.089916119513530E-5    4.718957374340669E-5    1.062560209153791E-4    9.653654094413904E-5   -4.728270159387320E-1   -4.821482077374067E-2
 1.004900467377500E+10  -3.833829133925229E-1   -2.448182980954911E-1    1.303276433133839E-4    7.190682353136539E-5    1.068259092678598E-4    7.853245385062821E-5   -4.728687142076002E-1   -4.777270818695802E-2
 1.004900905375000E+10  -3.835451929989325E-1   -2.446208800926666E-1    8.664188294700633E-5    8.173720990619863E-5    1.169336162777041E-4    7.302348703511326E-5   -4.729089020610757E-1   -4.742928343258143E-2
 1.004901343372500E+10  -3.836836229318580E-1   -2.443971089053136E-1    1.049295781991912E-4    6.447541574815172E-5    7.734999814666865E-5    9.506637886902750E-5   -4.728596045914445E-1   -4.699057376949028E-2
 1.004901781370000E+10  -3.839555283759069E-1   -2.442004784013786E-1    9.308934792742820E-5    1.038746536801198E-4    9.354660036478294E-5    1.301428624257825E-4   -4.728431019709222E-1   -4.682729484272723E-2
 1.004902219367500E+10  -3.840673366751107E-1   -2.438369895688627E-1    1.337304847899834E-4    9.909500994235426E-5    8.973664702834495E-5    1.216119852281224E-4   -4.729009889046148E-1   -4.613510417122496E-2
 1.004902657365000E+10  -3.842388935002830E-1   -2.436713050545355E-1    1.143850967788270E-4    1.211329927988090E-4    8.816065888015612E-5    1.045757295698879E-4   -4.728795690129948E-1   -4.578407235860392E-2
 1.004903095362500E+10  -3.843250980825698E-1   -2.434454438444715E-1    1.151086081503705E-4    1.325489874842210E-4    8.915605592969546E-5    1.354582369183057E-4   -4.729338014846912E-1   -4.556372535166990E-2
 1.004903533360000E+10  -3.844956984086211E-1   -2.431898007535688E-1    8.532907314900265E-5    1.439883487273645E-4    1.081848494048628E-4    1.204532375111270E-4   -4.728936592050750E-1   -4.510332554682843E-2
 1.004903971357500E+10  -3.846201312226224E-1   -2.428598100203969E-1    7.331214059644152E-5    1.474309326765170E-4    1.035925225906436E-4    1.442404253290601E-4   -4.728425432335910E-1   -4.479558121940427E-2
 1.004904409355000E+10  -3.847789811390951E-1   -2.426424965734834E-1    8.760950858362323E-5    1.561422294390083E-4    7.853967637035255E-5    1.815142866787813E-4   -4.727955741764712E-1   -4.428407278496779E-2
 1.004904847352500E+10  -3.849321943750095E-1   -2.424196418512953E-1    8.640553985116489E-5    1.673526202528575E-4    9.344032928025947E-5    1.363254531612916E-4   -4.729490399598991E-1   -4.405223045314750E-2
 1.004905285350000E+10  -3.850794486635259E-1   -2.421650815458669E-1    1.114742051618520E-4    2.015244705075332E-4    9.569529424952374E-5    2.282125081729958E-4   -4.728657878883843E-1   -4.344679181869644E-2
 1.004905723347500E+10  -3.852938764226902E-1   -2.418693955198699E-1    1.355183681872641E-4    2.197651357791469E-4    7.898915723169329E-5    1.927839052255669E-4   -4.730483355700880E-1   -4.323194054944287E-2
 1.004906161345000E+10  -3.852359959177732E-1   -2.416650345606068E-1    8.864522902116709E-5    2.389453679567443E-4    1.206354999320025E-4    2.350882628258993E-4   -4.729369873635802E-1   -4.271603372410051E-2
 1.004906599342500E+10  -3.854865291814714E-1   -2.414378277676507E-1    1.007924873302860E-4    2.421116878508681E-4    1.125521484282521E-4    2.341545433273656E-4   -4.729400054487902E-1   -4.236499906049249E-2
 1.004907037340000E+10  -3.856298379403627E-1   -2.411978636072948E-1    1.041952480746391E-4    2.687239069711535E-4    9.353665088858726E-5    2.651016616943941E-4   -4.728433563035301E-1   -4.211076128427203E-2
 1.004907475337500E+10  -3.857339241187103E-1   -2.409440924941256E-1    8.849143107991232E-5    2.290807131250952E-4    1.039928936862738E-4    2.608577092816657E-4   -4.729746255526059E-1   -4.165202966578538E-2
 1.004907913335000E+10  -3.859568555283232E-1   -2.406858125250806E-1    1.428096566686663E-4    2.735030866003068E-4    9.640705965499674E-5    2.607965685147714E-4   -4.730348425491237E-1   -4.119138162541482E-2
 1.004908351332500E+10  -3.861882525205284E-1   -2.403963256792012E-1    1.205852744676046E-4    2.543071062817300E-4    1.064677564943150E-4    2.806556560700819E-4   -4.728619739783346E-1   -4.083192507869572E-2
 1.004908789330000E+10  -3.861673807624278E-1   -2.400673376657673E-1    9.622778394397815E-5    2.647659592754940E-4    1.058215100589811E-4    2.684169245380977E-4   -4.729038322629847E-1   -4.038906886025379E-2
 1.004909227327500E+10  -3.863188682281385E-1   -2.398960988334008E-1    1.097904056802414E-4    3.080845503969952E-4    1.089026496798686E-4    2.832354326512366E-4   -4.728790986986672E-1   -3.999924504698681E-2
 1.004909665325000E+10  -3.865418065613226E-1   -2.397042342329432E-1    1.043754722167292E-4    2.797322613928670E-4    8.378929653895319E-5    3.175380892028904E-4   -4.728980647775517E-1   -3.950105109115427E-2
 1.004910103322500E+10  -3.867714280912713E-1   -2.394128357075076E-1    1.424516110040762E-4    3.096940774239416E-4    1.142058151592234E-4    3.254406577598365E-4   -4.727515906713209E-1   -3.915823451920854E-2
 1.004910541320000E+10  -3.869440624893155E-1   -2.391760527268443E-1    1.188423699967681E-4    3.309225159093917E-4    7.628469751462806E-5    3.219955613572122E-4   -4.727679912799179E-1   -3.869820689378640E-2
 1.004910979317500E+10  -3.869864949953712E-1   -2.389549184328522E-1    1.371686916063135E-4    3.355495127290759E-4    1.008437070179053E-4    3.452957392596028E-4   -4.729535256934924E-1   -3.831641438487172E-2
 1.004911417315000E+10  -3.871572659993527E-1   -2.386888195126600E-1    1.061018085618118E-4    3.768731527075939E-4    8.766950507782568E-5    3.737586271659567E-4   -4.729053705530798E-1   -3.804047553292528E-2
 1.004911855312500E+10  -3.870836809871349E-1   -2.384233714858627E-1    1.462142932416681E-4    3.673190365316994E-4    1.010774783157372E-4    3.661501551960664E-4   -4.729579194349688E-1   -3.751665636853076E-2
 1.004912293310000E+10  -3.874258410621763E-1   -2.381590381683504E-1    1.308477763230410E-4    3.900136110339771E-4    9.380940894475631E-5    3.925440000115590E-4   -4.725742431542427E-1   -3.719830211647886E-2
 1.004912731307500E+10  -3.875502138934711E-1   -2.379497712549318E-1    1.321836396840833E-4    3.924236320020186E-4    9.541930454378647E-5    4.290087081459445E-4   -4.727772578496722E-1   -3.668727329891290E-2
 1.004913169305000E+10  -3.877125557141984E-1   -2.376047773592930E-1    1.188952221965506E-4    4.052778903419181E-4    9.866737693869850E-5    4.085208157788463E-4   -4.727630852947478E-1   -3.613756138187135E-2
 1.004913607302500E+10  -3.877626502842380E-1   -2.374655535184330E-1    1.189841422696073E-4    4.270637526056647E-4    1.046378280367363E-4    4.530672397608616E-4   -4.726662794648096E-1   -3.571770054170096E-2
 1.004914045300000E+10  -3.879245612713896E-1   -2.372206969700582E-1    1.355266243023628E-4    4.218585848572475E-4    1.298068630207996E-4    4.593663145301112E-4   -4.726252018849468E-1   -3.533837155989091E-2
 1.004914483297500E+10  -3.880652641600844E-1   -2.368979345598789E-1    1.308949188775022E-4    4.519780969278439E-4    1.145481693997577E-4    4.478341111347770E-4   -4.726896575697775E-1   -3.503979099663303E-2
 1.004914921295000E+10  -3.882598791235455E-1   -2.366519361972998E-1    1.610806756879894E-4    4.529677998143341E-4    8.875283074913781E-5    5.028708111716727E-4   -4.727088606607327E-1   -3.452220549016469E-2
 1.004915359292500E+10  -3.883359850200077E-1   -2.364553953487648E-1    1.463818249064680E-4    4.848139743504830E-4    9.728941204165414E-5    5.041028998724842E-4   -4.726754487484459E-1   -3.407254348040662E-2
 1.004915797290000E+10  -3.885617268226454E-1   -2.360864803202706E-1    1.228058787319180E-4    4.918153780484235E-4    7.589631659110752E-5    5.226717896380422E-4   -4.725467097179428E-1   -3.366882147153646E-2
 1.004916235287500E+10  -3.886360620902374E-1   -2.358885893508217E-1    1.546476894053293E-4    5.167359459934386E-4    1.459392336645153E-4    5.548403189006956E-4   -4.726882955837540E-1   -3.319682255164225E-2
 1.004916673285000E+10  -3.887924789647613E-1   -2.357251374145015E-1    1.656448628388369E-4    5.377441354906341E-4    1.164693594163769E-4    5.509967827463708E-4   -4.724760552323838E-1   -3.276200867186778E-2
 1.004917111282500E+10  -3.890175714819923E-1   -2.354636162772702E-1    1.219695226304349E-4    5.591119025940319E-4    1.123055719335454E-4    5.620364186568000E-4   -4.726124754177827E-1   -3.219774796517833E-2
 1.004917549280000E+10  -3.892446408798748E-1   -2.351451715605948E-1    1.613841141672530E-4    5.836744804322004E-4    1.033269301026131E-4    5.750687187889796E-4   -4.723981212080322E-1   -3.184943278039295E-2
 1.004917987277500E+10  -3.892742941333160E-1   -2.348755772650868E-1    1.457072275147732E-4    5.682598045919758E-4    1.014055410823809E-4    5.951560910531209E-4   -4.723495667108901E-1   -3.150528583778181E-2
 1.004918425275000E+10  -3.894449952754258E-1   -2.345361802381808E-1    1.344943859218267E-4    6.462201305289654E-4    1.126145929973388E-4    6.118649410490145E-4   -4.724176964794558E-1   -3.094496440631367E-2
