#  HZ   S   RI   R     50.00 
! Rohde & Schwarz Vector Network Analyzer 
! Rohde-Schwarz,ZNB20-2Port,1311601062101988,3.16
! Created: UTC 3/21/2024, 1:18:14 AM
! freq[Hz]                re:S11                  im:S11                  re:S21                  im:S21                  re:S12                  im:S12                  re:S22                  im:S22
 1.004882522400000E+10  -3.771765340313101E-1   -2.550724319176514E-1    8.644594694337741E-5   -2.517606358725583E-4    1.281840855168115E-4   -2.654658344462518E-4   -4.720408922165948E-1   -6.260816975649153E-2
 1.004882946852500E+10  -3.772429538068422E-1   -2.549321990252084E-1    1.111436407301523E-4   -2.619610085833290E-4    1.529638269245036E-4   -2.090723194293577E-4   -4.723125778519640E-1   -6.230356358310622E-2
 1.004883371305000E+10  -3.774704031105522E-1   -2.547093053467081E-1    9.759805392352071E-5   -2.436661831038862E-4    1.490373559334616E-4   -2.166679990393434E-4   -4.721495166045804E-1   -6.187752738743097E-2
 1.004883795757500E+10  -3.774903829708045E-1   -2.544787932695315E-1    7.066503763643942E-5   -2.096267887211462E-4    7.772536221573700E-5   -2.260900220233409E-4   -4.721682333350313E-1   -6.155219007146948E-2
 1.004884220210000E+10  -3.776630097662896E-1   -2.541955676718443E-1    9.403689633140833E-5   -2.429206965234653E-4    1.150397500064099E-4   -2.189257020395215E-4   -4.721875469490017E-1   -6.120914572264741E-2
 1.004884644662500E+10  -3.779442451281830E-1   -2.538292665604791E-1    1.250453911751349E-4   -2.136242581453005E-4    1.219425369634116E-4   -2.052112812305534E-4   -4.721520106899700E-1   -6.084396041835002E-2
 1.004885069115000E+10  -3.780725496185773E-1   -2.537470784800003E-1    9.245443741081358E-5   -2.342319659676783E-4    9.019854590829309E-5   -2.260779558732061E-4   -4.722855288007122E-1   -6.046147817231558E-2
 1.004885493567500E+10  -3.781394114724055E-1   -2.535728365200600E-1    1.348099936931639E-4   -2.068356699501773E-4    1.024814990922068E-4   -2.135451654753106E-4   -4.722445078464288E-1   -6.031113330859363E-2
 1.004885918020000E+10  -3.784501894452216E-1   -2.531105032791922E-1    9.993984698909977E-5   -2.031350464619306E-4    1.157794125432073E-4   -1.947461570810740E-4   -4.724332072132875E-1   -5.992417034592270E-2
 1.004886342472500E+10  -3.784657194161022E-1   -2.529213641254122E-1    1.015878900913217E-4   -2.251808898108887E-4    1.189106373370426E-4   -1.806232000767809E-4   -4.722692343000618E-1   -5.955703401271768E-2
 1.004886766925000E+10  -3.786857354334677E-1   -2.527537756214346E-1    1.169094311702969E-4   -1.932328268453529E-4    1.102064371264453E-4   -1.803928582223727E-4   -4.723164061453180E-1   -5.926971170552601E-2
 1.004887191377500E+10  -3.788977517109436E-1   -2.525357820646112E-1    9.889389941908239E-5   -1.427319208762139E-4    1.154255142655155E-4   -1.706506806873308E-4   -4.724526777764523E-1   -5.892667695661143E-2
 1.004887615830000E+10  -3.789088572893569E-1   -2.523640111690518E-1    7.004201002338734E-5   -1.734438712236134E-4    1.033963379740719E-4   -1.506051049654007E-4   -4.724279354975235E-1   -5.851256981314529E-2
 1.004888040282500E+10  -3.791633346762081E-1   -2.519259458197827E-1    1.139537762863485E-4   -1.648312045916409E-4    8.881252846283948E-5   -1.685043747907412E-4   -4.724564457042328E-1   -5.817152402629246E-2
 1.004888464735000E+10  -3.792587991970227E-1   -2.517465399731038E-1    1.004802633566230E-4   -1.707385885741339E-4    1.137727356354656E-4   -1.612537902494059E-4   -4.724379335299330E-1   -5.794881605397698E-2
 1.004888889187500E+10  -3.793145457901544E-1   -2.514958632242244E-1    1.086441751123014E-4   -1.474907918302752E-4    1.307619842905681E-4   -1.588918171187660E-4   -4.724219337921344E-1   -5.756720224684254E-2
 1.004889313640000E+10  -3.795415411231230E-1   -2.514001297223202E-1    1.139030800132346E-4   -1.487190123321841E-4    1.013142900227894E-4   -1.800272243339715E-4   -4.724522190480960E-1   -5.714647114054704E-2
 1.004889738092500E+10  -3.796560616551327E-1   -2.510062438962855E-1    8.856298183580645E-5   -1.351165102706721E-4    1.149805979691106E-4   -1.249185283274641E-4   -4.725331375242660E-1   -5.688529630006922E-2
 1.004890162545000E+10  -3.798361573194162E-1   -2.509317912480293E-1    1.330827494517215E-4   -1.312438214464405E-4    1.050386031478387E-4   -1.656386109026465E-4   -4.725265034102732E-1   -5.658868896859659E-2
 1.004890586997500E+10  -3.800440201750624E-1   -2.505475716156623E-1    8.605952484108101E-5   -1.338920253762935E-4    1.161127800784512E-4   -9.119214789498673E-5   -4.725884347853975E-1   -5.621910014222425E-2
 1.004891011450000E+10  -3.800057212564185E-1   -2.503602581702296E-1    1.014672551207611E-4   -1.337555509250562E-4    1.418339978329282E-4   -1.233990688721494E-4   -4.724867870046549E-1   -5.587360471538922E-2
 1.004891435902500E+10  -3.802082980716774E-1   -2.500628500104435E-1    1.000228226644793E-4   -1.046243379632565E-4    8.500326102125633E-5   -1.224437756600277E-4   -4.724313039966548E-1   -5.554924235483848E-2
 1.004891860355000E+10  -3.804338479233169E-1   -2.498843850699837E-1    7.401140712874241E-5   -1.064397885096087E-4    1.109621689225651E-4   -1.025467068716080E-4   -4.724428439218762E-1   -5.521290071411430E-2
 1.004892284807500E+10  -3.805261108315778E-1   -2.495848523603619E-1    1.227768964610172E-4   -9.556498791091340E-5    1.098698834772286E-4   -9.888343981056806E-5   -4.725931696534214E-1   -5.488256794920569E-2
 1.004892709260000E+10  -3.807648006793435E-1   -2.493236531818553E-1    9.813634023836607E-5   -8.714113095327016E-5    1.152976345620450E-4   -8.487996796588933E-5   -4.727221631487458E-1   -5.455539090153894E-2
 1.004893133712500E+10  -3.808707514989619E-1   -2.490734150354631E-1    8.420312129663190E-5   -1.094183794698658E-4    9.814878402210895E-5   -1.016789366274381E-4   -4.726783876867185E-1   -5.401867737376428E-2
 1.004893558165000E+10  -3.810381404228760E-1   -2.488839122863216E-1    5.382268780420444E-5   -7.181521575390436E-5    5.525010146221574E-5   -7.749870015933263E-5   -4.726473396300560E-1   -5.369273573424251E-2
 1.004893982617500E+10  -3.811122775895702E-1   -2.486425661493902E-1    8.245108848670881E-5   -5.375168863148468E-5    9.986726879590865E-5   -7.254462814072920E-5   -4.726891106073474E-1   -5.343713294920414E-2
 1.004894407070000E+10  -3.813507877641433E-1   -2.484760669931089E-1    1.079286815317427E-4   -7.050609986425215E-5    1.142967978202153E-4   -6.296571104691948E-5   -4.727307522281700E-1   -5.310834227558832E-2
 1.004894831522500E+10  -3.815312192046570E-1   -2.482642853517309E-1    1.172395891778728E-4   -7.035871242529408E-5    9.875684758931457E-5   -4.205773122296525E-5   -4.727045751607243E-1   -5.270164820153156E-2
 1.004895255975000E+10  -3.815907481460691E-1   -2.479441925622118E-1    5.671694541726890E-5   -3.727835557445584E-5    7.735436012365963E-5   -4.762593962487410E-5   -4.727444884683859E-1   -5.225999242750874E-2
 1.004895680427500E+10  -3.817997424849344E-1   -2.477702784861566E-1    1.057032993601630E-4   -4.645054086669883E-5    8.625620564906642E-5   -5.461978990313942E-5   -4.728345903499082E-1   -5.204767780234409E-2
 1.004896104880000E+10  -3.819572848954498E-1   -2.473884345883835E-1    9.817946030122732E-5   -4.808258796523737E-5    1.043748629059278E-4   -4.257679449971646E-5   -4.729158663151373E-1   -5.168375957530692E-2
 1.004896529332500E+10  -3.820107140181993E-1   -2.473053975854920E-1    6.479410156332474E-5   -4.498584677402768E-5    8.504211563227999E-5   -4.467780801768749E-5   -4.727352160712405E-1   -5.139349207933967E-2
 1.004896953785000E+10  -3.821287897866181E-1   -2.470167600896763E-1    7.514877165195987E-5   -2.340970057181629E-5    1.246848386551148E-4   -1.274134384171937E-5   -4.727365391701909E-1   -5.093107328622750E-2
 1.004897378237500E+10  -3.823091269242795E-1   -2.466108692971868E-1    7.272333345929921E-5    5.670581210488055E-6    9.726708775317936E-5   -3.225605736899317E-6   -4.727661712876360E-1   -5.054124029016788E-2
 1.004897802690000E+10  -3.825006961648362E-1   -2.464696930928182E-1    1.017025630946370E-4   -3.580271481549255E-6    9.201799621877826E-5   -1.669573673071185E-5   -4.727185437285352E-1   -5.017973828600035E-2
 1.004898227142500E+10  -3.825693626653750E-1   -2.462853454061308E-1    8.038254692515281E-5    1.474487436747219E-6    8.978666157701843E-5    1.070798621622091E-5   -4.728107612447032E-1   -4.984440302149780E-2
 1.004898651595000E+10  -3.827935903172462E-1   -2.460024283739882E-1    9.722443475555689E-5    2.011447909167685E-6    6.901029205977978E-5    2.363679312040604E-5   -4.728263479553971E-1   -4.953355466859782E-2
 1.004899076047500E+10  -3.830170653568168E-1   -2.456284255973024E-1    1.028635054111067E-4    3.923375326273295E-5    9.655236973158063E-5    2.384074026600539E-5   -4.729033632436703E-1   -4.925839074206650E-2
 1.004899500500000E+10  -3.831277380692126E-1   -2.454453784664108E-1    9.317339614128472E-5    6.618573298223483E-6    8.448076484139870E-5    7.589051901109237E-6   -4.727804646825745E-1   -4.891359635967064E-2
 1.004899924952500E+10  -3.831156574953195E-1   -2.452930200875049E-1    7.313284297398713E-5    4.156269945003256E-5    8.602009220301242E-5    4.331273073822929E-5   -4.728809337674496E-1   -4.849208164505463E-2
 1.004900349405000E+10  -3.833731580207666E-1   -2.450793739384593E-1    8.717256389184844E-5    2.397884376565774E-5    8.023690068384043E-5    6.778563329849710E-5   -4.728842118251377E-1   -4.799034190775917E-2
 1.004900773857500E+10  -3.833321988310312E-1   -2.448436874095023E-1    1.017821697728808E-4    6.768812809817716E-5    7.482096395163128E-5    6.012030552177365E-5   -4.729869663185566E-1   -4.778660219198926E-2
 1.004901198310000E+10  -3.835512739015036E-1   -2.444676328505345E-1    8.661125281987533E-5    8.452307822152754E-5    7.399371335700536E-5    7.433798165494277E-5   -4.729595427024469E-1   -4.750254502687769E-2
 1.004901622762500E+10  -3.837624435878376E-1   -2.442939246158676E-1    1.058713386608461E-4    1.190225534759327E-4    9.028371944091643E-5    5.782114370412892E-5   -4.729824128331678E-1   -4.692942788506094E-2
 1.004902047215000E+10  -3.838466181267696E-1   -2.441379462894048E-1    7.150438607862129E-5    1.002708396210460E-4    1.013440915541095E-4    1.153967356200546E-4   -4.729810099253781E-1   -4.659096061211045E-2
 1.004902471667500E+10  -3.841195835063319E-1   -2.438865794141631E-1    7.428827876470708E-5    1.003090985367138E-4    9.498513632437742E-5    1.106102396641244E-4   -4.728506802102597E-1   -4.619290588767467E-2
 1.004902896120000E+10  -3.841949064266403E-1   -2.437417999479786E-1    7.591371842341951E-5    1.063855453050008E-4    9.600030682169049E-5    1.282629799654895E-4   -4.730496846850599E-1   -4.584424659004294E-2
 1.004903320572500E+10  -3.842519774227495E-1   -2.433941503666215E-1    1.061424065371363E-4    1.153265903230639E-4    1.019741060294155E-4    1.124478449259174E-4   -4.729545506363496E-1   -4.571156527610110E-2
 1.004903745025000E+10  -3.843683700262031E-1   -2.431053556843775E-1    5.472750239169898E-5    1.311234228646436E-4    7.270307067686632E-5    1.383563508037109E-4   -4.728831847501487E-1   -4.516351823046887E-2
 1.004904169477500E+10  -3.846242494465641E-1   -2.428776621118740E-1    1.041998626128516E-4    1.144353853106964E-4    6.227815417696048E-5    1.407104611781954E-4   -4.730021073827058E-1   -4.475536564142944E-2
 1.004904593930000E+10  -3.847996086168818E-1   -2.427954841046495E-1    9.159658385213555E-5    1.068243793371363E-4    6.781611316467838E-5    1.113486422521350E-4   -4.729624444374965E-1   -4.429650749683809E-2
 1.004905018382500E+10  -3.849839876983617E-1   -2.424184248313315E-1    9.044335819875569E-5    1.519907440543511E-4    9.879375743606328E-5    1.568178181197445E-4   -4.729651081431165E-1   -4.402135730480315E-2
 1.004905442835000E+10  -3.850825016634959E-1   -2.421854092720587E-1    8.850651709519579E-5    1.606789512174877E-4    1.173559339909504E-4    1.957738092410809E-4   -4.729137635959017E-1   -4.370023386021119E-2
 1.004905867287500E+10  -3.852052442134807E-1   -2.418552096992581E-1    1.199598783334072E-4    1.289938601447401E-4    8.779569246829115E-5    1.556889032689267E-4   -4.729733368083001E-1   -4.342524192216467E-2
 1.004906291740000E+10  -3.853235157712444E-1   -2.417322290767262E-1    8.024729558261499E-5    1.594226538886418E-4    9.687761381626695E-5    1.874630624307784E-4   -4.729763380542418E-1   -4.278028152522276E-2
 1.004906716192500E+10  -3.855155710191654E-1   -2.413949322475485E-1    7.706915675759810E-5    1.990950050926402E-4    9.710231918290592E-5    2.226745507114335E-4   -4.729868185411167E-1   -4.254823228632217E-2
 1.004907140645000E+10  -3.856005618697433E-1   -2.411533134631606E-1    1.002474964394391E-4    2.339934472736100E-4    9.401006071993000E-5    2.154531085290669E-4   -4.729223158096695E-1   -4.221169746747949E-2
 1.004907565097500E+10  -3.859104850659795E-1   -2.408934190731318E-1    9.525146738818953E-5    2.308316110438777E-4    1.106363954537701E-4    2.287163438422679E-4   -4.729629851110096E-1   -4.181153620888871E-2
 1.004907989550000E+10  -3.858331262256158E-1   -2.407271803370056E-1    1.325353971579350E-4    2.441336982601797E-4    8.548326637964310E-5    2.443556867275285E-4   -4.729135731656581E-1   -4.135960399297663E-2
 1.004908414002500E+10  -3.860929635890880E-1   -2.404570034148323E-1    1.168754119587548E-4    2.351221276186383E-4    9.828403303545174E-5    2.508274810542852E-4   -4.729218160006878E-1   -4.092696044335652E-2
 1.004908838455000E+10  -3.861531663448167E-1   -2.402223535586616E-1    1.029346549665606E-4    2.488430873738457E-4    9.013531630759020E-5    2.604822229903265E-4   -4.729012128956541E-1   -4.058184688678148E-2
 1.004909262907500E+10  -3.863954385194469E-1   -2.400555484864373E-1    1.120138849094800E-4    2.609499447678171E-4    9.695472328529691E-5    2.731628251503085E-4   -4.728801218746030E-1   -4.027966620517268E-2
 1.004909687360000E+10  -3.865061772925075E-1   -2.398451085317063E-1    9.703820315260291E-5    2.860798215619399E-4    9.093830991734316E-5    2.793768456420595E-4   -4.729110061091993E-1   -3.984931531081229E-2
 1.004910111812500E+10  -3.866284540956753E-1   -2.394643743374733E-1    1.042721299116122E-4    2.926931256397505E-4    7.121965333722930E-5    2.947935062055774E-4   -4.729054577287224E-1   -3.947274370728816E-2
 1.004910536265000E+10  -3.867312746884565E-1   -2.390983697174848E-1    1.168357710239740E-4    2.912972463908404E-4    1.042620290221935E-4    3.050468880665012E-4   -4.729782069600005E-1   -3.897566669560793E-2
 1.004910960717500E+10  -3.869015946131193E-1   -2.388940232852672E-1    1.028882199086252E-4    3.167907340601351E-4    9.127631813001716E-5    3.215078448307207E-4   -4.728293351672745E-1   -3.867564929058669E-2
 1.004911385170000E+10  -3.870120592134285E-1   -2.387373717407922E-1    1.023618861954970E-4    3.253660611445883E-4    9.260041651792474E-5    3.136836651836331E-4   -4.726947302875245E-1   -3.826673767875460E-2
 1.004911809622500E+10  -3.871623617621955E-1   -2.385616725565368E-1    1.406645340736764E-4    3.293713065038243E-4    8.838045779585670E-5    3.570218299269621E-4   -4.729522439682048E-1   -3.789016383208761E-2
 1.004912234075000E+10  -3.873176395544608E-1   -2.382289711350560E-1    1.100913688674023E-4    3.372979729149597E-4    1.096116501007683E-4    3.614174986092668E-4   -4.728488904365606E-1   -3.746478878577336E-2
 1.004912658527500E+10  -3.875106316797230E-1   -2.381248311604112E-1    9.209914911767115E-5    3.520295566154417E-4    9.930526300463813E-5    3.903102234652126E-4   -4.727720479707533E-1   -3.684467533775320E-2
 1.004913082980000E+10  -3.876056225987644E-1   -2.378305876041686E-1    1.049254538494237E-4    3.538439281099982E-4    1.026384670725881E-4    3.899408363804414E-4   -4.727154667502169E-1   -3.667709054311304E-2
 1.004913507432500E+10  -3.877482801324688E-1   -2.376091216376140E-1    1.384021804658465E-4    4.027425558142124E-4    8.327365484347942E-5    4.039265709716828E-4   -4.728430505288105E-1   -3.628563504113540E-2
 1.004913931885000E+10  -3.879099371007398E-1   -2.372578572878728E-1    1.189125844739062E-4    3.974099564581680E-4    1.022783068720687E-4    4.230045343809516E-4   -4.728740787824460E-1   -3.581746798342693E-2
 1.004914356337500E+10  -3.880630708685209E-1   -2.371054738386177E-1    1.312320255034143E-4    4.271217352634252E-4    9.546545337440320E-5    4.342265716095113E-4   -4.727040051177256E-1   -3.543051685792541E-2
 1.004914780790000E+10  -3.882047297192449E-1   -2.368873967084511E-1    1.104531628903669E-4    4.423947302961413E-4    9.891027078940332E-5    4.307303108993911E-4   -4.727132074544106E-1   -3.501836866350068E-2
 1.004915205242500E+10  -3.883272047381938E-1   -2.365789524516771E-1    1.595459190989016E-4    4.540360696818617E-4    9.710382049531971E-5    4.436943662704536E-4   -4.727913948719045E-1   -3.452956578862518E-2
 1.004915629695000E+10  -3.883468427633893E-1   -2.363965924895711E-1    1.422626861829015E-4    4.631460530186908E-4    6.638871045450641E-5    4.904237257574361E-4   -4.726324591706251E-1   -3.412320403011176E-2
 1.004916054147500E+10  -3.886036417229379E-1   -2.360923538027623E-1    1.379122139323090E-4    4.921970579281674E-4    9.306124184886579E-5    4.956272913104721E-4   -4.726377702415585E-1   -3.360005647360008E-2
 1.004916478600000E+10  -3.887588666689294E-1   -2.357038729184642E-1    1.182363222409755E-4    4.846088993143329E-4    8.742367905201059E-5    5.113800511454735E-4   -4.726482272353141E-1   -3.327073360219274E-2
 1.004916903052500E+10  -3.888227836832516E-1   -2.355771450573548E-1    1.233826307350879E-4    5.351872702531454E-4    1.059747935730098E-4    5.107535795863317E-4   -4.727382888963773E-1   -3.285592937096554E-2
 1.004917327505000E+10  -3.889453721823103E-1   -2.354526804839387E-1    1.378327831039888E-4    5.114452808619719E-4    9.670586900738938E-5    5.435709342614332E-4   -4.726973468327106E-1   -3.234242455672739E-2
 1.004917751957500E+10  -3.891049149610907E-1   -2.351917326182321E-1    1.563157099035490E-4    5.679861736186054E-4    8.408783832993022E-5    5.886346461592987E-4   -4.724810235376229E-1   -3.203900139866283E-2
 1.004918176410000E+10  -3.892698961925828E-1   -2.348871556241539E-1    1.496725002328552E-4    5.625233682257834E-4    8.015940139829289E-5    5.911644405415181E-4   -4.726692938159512E-1   -3.168893877421626E-2
 1.004918600862500E+10  -3.893463678199046E-1   -2.346204084603370E-1    1.341595234052683E-4    5.767654462137937E-4    1.177122086192707E-4    5.893406424244236E-4   -4.726313147844418E-1   -3.131644569829071E-2
 1.004919025315000E+10  -3.895852706319141E-1   -2.344821716816976E-1    1.583943512335549E-4    5.675860283208914E-4    1.071947305140138E-4    5.732408183394957E-4   -4.725676578449904E-1   -3.061783472588806E-2
 1.004919449767500E+10  -3.896511266751290E-1   -2.341326038473765E-1    1.518919425623619E-4    6.195513989841830E-4    1.284457621426714E-4    6.341250898483358E-4   -4.725233587282611E-1   -3.032419583967094E-2
 1.004919874220000E+10  -3.898000523509960E-1   -2.338706302715580E-1    1.483154796368111E-4    6.266441101725707E-4    1.029174990258945E-4    6.413902175618635E-4   -4.722694599222885E-1   -2.967817758989359E-2
 1.004920298672500E+10  -3.899002172293116E-1   -2.335674930108207E-1    1.761420749722562E-4    6.603740556412532E-4    1.129792460482010E-4    6.773298810343341E-4   -4.723045654407257E-1   -2.932394288189162E-2
 1.004920723125000E+10  -3.901805958046871E-1   -2.333575360589513E-1    1.674811430315034E-4    6.596171609845039E-4    1.395353362322344E-4    6.723205339589101E-4   -4.723689136991188E-1   -2.888324661772718E-2
