#  HZ   S   RI   R     50.00 
! Rohde & Schwarz Vector Network Analyzer 
! Rohde-Schwarz,ZNB20-2Port,1311601062101988,3.16
! Created: UTC 3/21/2024, 1:18:19 AM
! freq[Hz]                re:S11                  im:S11                  re:S21                  im:S21                  re:S12                  im:S12                  re:S22                  im:S22
 1.004884814800000E+10  -3.778069153366943E-1   -2.538918648031651E-1    8.892640413849193E-5   -2.288658289003970E-4    1.073835902477017E-4   -2.354710587419473E-4   -4.723873150925870E-1   -6.088485935048752E-2
 1.004885231192500E+10  -3.781135880746183E-1   -2.537255892797211E-1    9.713721780623205E-5   -2.120858105831926E-4    1.321287236408820E-4   -2.036239940008335E-4   -4.723121437673442E-1   -6.055347425271657E-2
 1.004885647585000E+10  -3.780348366689559E-1   -2.534218482281710E-1    8.390634481015914E-5   -2.025183499510791E-4    9.144925551033142E-5   -2.309546503830807E-4   -4.723818780504765E-1   -6.025159002405152E-2
 1.004886063977500E+10  -3.783153602524164E-1   -2.531959610195460E-1    8.723705126621909E-5   -2.100287386091323E-4    1.272052389617597E-4   -2.052223114675845E-4   -4.722616204204841E-1   -5.990115547647582E-2
 1.004886480370000E+10  -3.784858652298663E-1   -2.529509420390048E-1    1.047592049619238E-4   -1.941722394616582E-4    1.028639546140198E-4   -2.082349532277585E-4   -4.724214115952703E-1   -5.953075757878110E-2
 1.004886896762500E+10  -3.786201968068664E-1   -2.527352861734363E-1    1.017838028606966E-4   -1.780660072379320E-4    1.012747695118712E-4   -2.137200657977689E-4   -4.724670168853791E-1   -5.919174057608951E-2
 1.004887313155000E+10  -3.787598820780650E-1   -2.523817760449725E-1    9.884837375366959E-5   -1.972682002092046E-4    1.261703812807912E-4   -1.694668156939725E-4   -4.725420433993915E-1   -5.885680980533926E-2
 1.004887729547500E+10  -3.789145577825670E-1   -2.522653473089102E-1    9.095272502434375E-5   -2.069895887878029E-4    6.446146312531897E-5   -1.759284206577558E-4   -4.725485014712761E-1   -5.868491216374412E-2
 1.004888145940000E+10  -3.790387932433230E-1   -2.519825662756299E-1    1.076080179742756E-4   -1.809002567074889E-4    1.201590210931367E-4   -1.490531529126819E-4   -4.724521595052575E-1   -5.819953369957163E-2
 1.004888562332500E+10  -3.792237372406617E-1   -2.518002978456664E-1    1.251437952379054E-4   -1.488891324963150E-4    9.832633058892404E-5   -1.473272860727693E-4   -4.724063531421861E-1   -5.795408551549942E-2
 1.004888978725000E+10  -3.793182362808995E-1   -2.516135761053100E-1    9.804034191156960E-5   -1.492580738662218E-4    9.785604774804972E-5   -1.640802127037904E-4   -4.725673090783902E-1   -5.754875968103956E-2
 1.004889395117500E+10  -3.794406424215402E-1   -2.513100031553306E-1    6.603331797061552E-5   -1.347205071676428E-4    9.423002035779569E-5   -1.514930919867893E-4   -4.724848914399483E-1   -5.732444205403066E-2
 1.004889811510000E+10  -3.795405770883370E-1   -2.511986297329902E-1    8.822091397361626E-5   -1.684641261315118E-4    1.162667846567738E-4   -1.445905219489639E-4   -4.726617758002641E-1   -5.683555035298050E-2
 1.004890227902500E+10  -3.796989267620896E-1   -2.508819992478374E-1    9.843433767237904E-5   -1.308935640710783E-4    8.422925285559143E-5   -1.226498421110160E-4   -4.726801749838177E-1   -5.660895032926030E-2
 1.004890644295000E+10  -3.799327936450635E-1   -2.506330749345910E-1    8.566132621376872E-5   -1.300419860696510E-4    1.132682422639721E-4   -1.133478222974011E-4   -4.726985694194584E-1   -5.633547402090321E-2
 1.004891060687500E+10  -3.801340584778140E-1   -2.503223408495957E-1    1.036653297909362E-4   -1.247821733570342E-4    9.304727545899335E-5   -1.510804081366408E-4   -4.726481154342081E-1   -5.613423899167867E-2
 1.004891477080000E+10  -3.801978138661066E-1   -2.501143681554423E-1    8.821119648442808E-5   -1.483170689456850E-4    9.246058784747287E-5   -1.339399332118594E-4   -4.726911953779502E-1   -5.565431817908811E-2
 1.004891893472500E+10  -3.804585940976091E-1   -2.499670353604152E-1    6.746558545935365E-5   -1.321624297580293E-4    1.085611192471226E-4   -1.164256785485675E-4   -4.727912817619116E-1   -5.537930860879318E-2
 1.004892309865000E+10  -3.805490562101219E-1   -2.496847840167220E-1    8.894848524977636E-5   -1.049561271987871E-4    1.039899280196372E-4   -6.910346772123755E-5   -4.726951385764700E-1   -5.490620525310717E-2
 1.004892726257500E+10  -3.806414532603848E-1   -2.495521697970181E-1    8.677393028614029E-5   -1.172554964317057E-4    1.062577301379559E-4   -1.130934559796505E-4   -4.727978510600746E-1   -5.473289917078143E-2
 1.004893142650000E+10  -3.808308233519531E-1   -2.491931707235977E-1    9.580530075618011E-5   -1.136306731900245E-4    8.714309283009203E-5   -7.783244096441454E-5   -4.726409478495124E-1   -5.430603202513619E-2
 1.004893559042500E+10  -3.809369021502541E-1   -2.490970277103596E-1    8.997131569844625E-5   -1.081399913379855E-4    5.833554863144749E-5   -6.171154188392550E-5   -4.726732711758890E-1   -5.395550557690000E-2
 1.004893975435000E+10  -3.811170664622830E-1   -2.486606800967274E-1    1.321233015363104E-4   -6.758548650012629E-5    6.857739283349260E-5   -9.746061773288732E-5   -4.727909539203965E-1   -5.354704089128261E-2
 1.004894391827500E+10  -3.811754349510283E-1   -2.485554930270452E-1    1.140797877586606E-4   -5.986126096396132E-5    1.127337911465386E-4   -8.358512958582557E-5   -4.728564990577271E-1   -5.321770758289225E-2
 1.004894808220000E+10  -3.813493066139221E-1   -2.482411380209205E-1    1.145958680966737E-4   -7.821334128624761E-5    1.272198677951996E-4   -3.112842793337550E-5   -4.727789481666588E-1   -5.298745697898263E-2
 1.004895224612500E+10  -3.814545325358882E-1   -2.481293170283646E-1    1.025749158493649E-4   -5.694864769473723E-5    1.179083674433558E-4   -5.026263378837988E-5   -4.728588988016527E-1   -5.248902522666703E-2
 1.004895641005000E+10  -3.816380519639874E-1   -2.477860839342240E-1    1.149035226012863E-4   -4.695597885042732E-5    9.029031852142625E-5   -9.998371010296607E-5   -4.727765828121075E-1   -5.213936953925052E-2
 1.004896057397500E+10  -3.817561369513429E-1   -2.475978036879725E-1    5.320140311693815E-5   -3.827552263766661E-5    9.553719083645210E-5   -6.067242609784648E-5   -4.728401561051629E-1   -5.188363919729522E-2
 1.004896473790000E+10  -3.819938667087939E-1   -2.473263032533207E-1    1.036230122443602E-4   -5.446812804993456E-5    1.114039972599874E-4   -5.345688655297449E-5   -4.727819278479067E-1   -5.156505432829250E-2
 1.004896890182500E+10  -3.821637592114873E-1   -2.472143202763156E-1    1.012992326750672E-4   -1.086322520277104E-5    1.072448405914265E-4   -2.661975784390542E-5   -4.729137186121095E-1   -5.105581000386663E-2
 1.004897306575000E+10  -3.822632167899277E-1   -2.469086632786400E-1    7.561044953599147E-5   -3.078465227810178E-5    1.173412017163336E-4    1.484310280181020E-6   -4.729525897896871E-1   -5.077111376444145E-2
 1.004897722967500E+10  -3.823593818208116E-1   -2.465847078489521E-1    8.233704706747716E-5   -3.291410479250415E-5    9.340308866872814E-5   -1.216833486176839E-5   -4.729445418334827E-1   -5.055003068471953E-2
 1.004898139360000E+10  -3.825759087230151E-1   -2.464309044564357E-1    1.008470244619689E-4    1.014331726902745E-6    6.734327575751354E-5   -8.655489801442798E-6   -4.729019736907068E-1   -5.016136542738260E-2
 1.004898555752500E+10  -3.827946419073323E-1   -2.462185539815215E-1    9.626932417871624E-5   -3.083647710734327E-5    1.098621715095106E-4    1.645526331554289E-5   -4.730891473859422E-1   -4.975260945917877E-2
 1.004898972145000E+10  -3.828501732140928E-1   -2.459751256973534E-1    1.119087429642333E-4    1.657351663331838E-5    8.912453841522577E-5    3.314814754227737E-5   -4.730186529565937E-1   -4.945567541029215E-2
 1.004899388537500E+10  -3.828792866213362E-1   -2.457141443195419E-1    9.179521551210036E-5    1.346702372726114E-5    1.082133739455756E-4    3.840745629481237E-6   -4.728431068342924E-1   -4.912218191877635E-2
 1.004899804930000E+10  -3.829879593619653E-1   -2.453932935924014E-1    7.492774400279153E-5    1.437279354184787E-5    1.005080839552817E-4    3.059290023454223E-5   -4.728690550010037E-1   -4.879518208105795E-2
 1.004900221322500E+10  -3.833290706439492E-1   -2.452251745025432E-1    1.130533118685003E-4    4.450488906357198E-5    1.061813078070035E-4    3.366740931857968E-5   -4.729772088730554E-1   -4.839570908284846E-2
 1.004900637715000E+10  -3.834675623427176E-1   -2.451000986108027E-1    9.929800293924350E-5    4.171520500442307E-5    1.015088060511409E-4    6.864288416440610E-5   -4.728669945685751E-1   -4.798421709970588E-2
 1.004901054107500E+10  -3.835726526539226E-1   -2.447780018205292E-1    1.098267977512938E-4    4.938700807230241E-5    8.557833013199398E-5    6.801747294436639E-5   -4.729712983917699E-1   -4.769585922652934E-2
 1.004901470500000E+10  -3.836059202229631E-1   -2.445439877002773E-1    8.815231121722550E-5    4.924379630929035E-5    7.427579360064591E-5    7.780269067907834E-5   -4.730517457789811E-1   -4.724125277411974E-2
 1.004901886892500E+10  -3.836063334366622E-1   -2.441880902021636E-1    1.042968706622269E-4    7.599559641402821E-5    1.049517960010413E-4    7.779680403201084E-5   -4.728630618500369E-1   -4.687863005988229E-2
 1.004902303285000E+10  -3.841688004578899E-1   -2.441380336584276E-1    9.947657618711585E-5    3.545388997028228E-5    8.184821011375749E-5    7.782849126977841E-5   -4.730726156880676E-1   -4.642319894121776E-2
 1.004902719677500E+10  -3.840986551929455E-1   -2.436658875628942E-1    7.489470365998260E-5    9.181048437752358E-5    1.018574068432725E-4    8.081832823168039E-5   -4.730568187541151E-1   -4.622680330625432E-2
 1.004903136070000E+10  -3.843135709260331E-1   -2.434971891371972E-1    1.039219770728776E-4    8.135931695787099E-5    8.870071307741960E-5    9.367905616843196E-5   -4.730087732646275E-1   -4.592322306261318E-2
 1.004903552462500E+10  -3.844075386007622E-1   -2.433473464656367E-1    1.217435581206189E-4    1.024971757442817E-4    1.021508033899233E-4    1.212448234295715E-4   -4.731478005145983E-1   -4.544820476955146E-2
 1.004903968855000E+10  -3.845602253023271E-1   -2.430490758644823E-1    1.048935310842761E-4    1.257285316434129E-4    7.719297722403049E-5    9.994616293668500E-5   -4.730537046312955E-1   -4.515470511237548E-2
 1.004904385247500E+10  -3.845103759670254E-1   -2.428023320663649E-1    9.028724876182779E-5    8.635397527845845E-5    7.646064124729929E-5    1.296148993870571E-4   -4.731169530948653E-1   -4.479261644477509E-2
 1.004904801640000E+10  -3.847639860116462E-1   -2.424813019043347E-1    9.965475624486750E-5    1.245222605073688E-4    6.076133708747652E-5    1.402837433725863E-4   -4.730821030611252E-1   -4.438167462350724E-2
 1.004905218032500E+10  -3.849610693735353E-1   -2.423168595354992E-1    1.010622453835284E-4    1.329265691654734E-4    1.096052816876855E-4    1.499578434896253E-4   -4.730666390852192E-1   -4.400599118028371E-2
 1.004905634425000E+10  -3.850812963298940E-1   -2.421756794116075E-1    1.001527135750708E-4    1.440229879169137E-4    7.323296275728052E-5    1.643398346068273E-4   -4.729943829011418E-1   -4.362053840814418E-2
 1.004906050817500E+10  -3.850770935357198E-1   -2.419408101397804E-1    7.519631168602155E-5    1.605628671389521E-4    8.089756563632616E-5    1.782877089392318E-4   -4.731257288528879E-1   -4.317777569131651E-2
 1.004906467210000E+10  -3.854053991641227E-1   -2.415731301410697E-1    1.109181481259410E-4    1.536075814985452E-4    9.471001621890852E-5    1.885839053157681E-4   -4.731354139032996E-1   -4.279718970780683E-2
 1.004906883602500E+10  -3.854587595968089E-1   -2.415102076131039E-1    1.279024533709106E-4    1.835294758520475E-4    9.501331313228203E-5    1.909812856149057E-4   -4.731105806709656E-1   -4.252126888971392E-2
 1.004907299995000E+10  -3.855964644310732E-1   -2.410973942580011E-1    1.108835180988166E-4    1.934519575201843E-4    1.029193742325640E-4    1.784346939529619E-4   -4.729272799952942E-1   -4.229392477013200E-2
 1.004907716387500E+10  -3.858336450343961E-1   -2.409210066630053E-1    1.398642625790690E-4    2.172249505860907E-4    8.640551567090489E-5    2.253315071240132E-4   -4.730853278674867E-1   -4.194452283909829E-2
 1.004908132780000E+10  -3.859776787182047E-1   -2.407817357534265E-1    7.440590193929688E-5    2.231942713975487E-4    1.139155419333149E-4    2.215988640285844E-4   -4.730094548324213E-1   -4.148735049164326E-2
 1.004908549172500E+10  -3.859935571587829E-1   -2.405636225183575E-1    1.009909103870778E-4    2.395495729962051E-4    7.398813648271011E-5    2.382312996125508E-4   -4.729849090854369E-1   -4.121666844848390E-2
 1.004908965565000E+10  -3.862208116120167E-1   -2.402587407907966E-1    1.027172568263339E-4    2.160977354467740E-4    8.151471134915951E-5    2.373092217264599E-4   -4.730260636485228E-1   -4.078082510759648E-2
 1.004909381957500E+10  -3.862793377080762E-1   -2.400295115370638E-1    9.912060373389676E-5    2.451140912185891E-4    8.043251457731254E-5    2.922035112957118E-4   -4.729441472454361E-1   -4.037314254031996E-2
 1.004909798350000E+10  -3.864680813179068E-1   -2.397054485225445E-1    9.090413758550401E-5    2.630229379549513E-4    7.560129076385456E-5    2.493555693917848E-4   -4.732057679246434E-1   -3.987735816018568E-2
 1.004910214742500E+10  -3.865165418462058E-1   -2.395346522966819E-1    1.318195797471816E-4    2.750591960243894E-4    8.022478788019663E-5    2.727666637499340E-4   -4.729229561937337E-1   -3.959494404315819E-2
 1.004910631135000E+10  -3.867618950069069E-1   -2.393632545417168E-1    8.702527141640266E-5    3.267348384829262E-4    8.631527642002785E-5    3.148634944749722E-4   -4.730476669584028E-1   -3.923568155376601E-2
 1.004911047527500E+10  -3.868296908468114E-1   -2.391612852562533E-1    1.046730831454810E-4    2.772025999570006E-4    7.389130208997687E-5    3.112927322686942E-4   -4.729468972369945E-1   -3.885192079601306E-2
 1.004911463920000E+10  -3.870690159701310E-1   -2.388220050548817E-1    8.938829292173806E-5    3.210476059650885E-4    1.056656999907957E-4    3.230794513716668E-4   -4.729517326152055E-1   -3.833950840470395E-2
 1.004911880312500E+10  -3.870451152079498E-1   -2.385246718126687E-1    1.121375233824446E-4    3.613909946220875E-4    1.019361080161075E-4    3.140811286272569E-4   -4.729731174527300E-1   -3.794137111899212E-2
 1.004912296705000E+10  -3.872396819225706E-1   -2.382866645853810E-1    1.066545792210137E-4    3.527777398651647E-4    1.107764307439816E-4    3.312000204441185E-4   -4.727757779540438E-1   -3.751606973611789E-2
 1.004912713097500E+10  -3.873059371662935E-1   -2.381794685716235E-1    1.142933570494551E-4    3.331470942794144E-4    7.463902801402127E-5    3.741163684760285E-4   -4.728446621045169E-1   -3.728523307227924E-2
 1.004913129490000E+10  -3.875125678987213E-1   -2.378854556780800E-1    1.145817736434306E-4    3.631965727931917E-4    9.162045497262551E-5    3.803340518152161E-4   -4.728855752457806E-1   -3.672072236167704E-2
 1.004913545882500E+10  -3.876867554985005E-1   -2.375726327551052E-1    1.129046649922673E-4    4.028882342898371E-4    8.293634678454058E-5    3.918852416891360E-4   -4.729701213676501E-1   -3.639915926024878E-2
 1.004913962275000E+10  -3.878558826117690E-1   -2.373534261659950E-1    1.229479716739425E-4    3.595053114109830E-4    9.337119349169260E-5    4.261951764876111E-4   -4.727752505734876E-1   -3.611734722058170E-2
 1.004914378667500E+10  -3.880136956254334E-1   -2.370844981190578E-1    1.065531633158969E-4    3.911646633080968E-4    1.130830179339128E-4    4.049180734998309E-4   -4.728367434885781E-1   -3.552235326240424E-2
 1.004914795060000E+10  -3.880903513109315E-1   -2.367862124086866E-1    1.348953739080148E-4    4.301229069211018E-4    8.288266822202090E-5    4.449735549778629E-4   -4.728331873688436E-1   -3.524259214543743E-2
 1.004915211452500E+10  -3.882946288723602E-1   -2.365526609614074E-1    1.253896791495920E-4    4.447183897841020E-4    9.621195617726561E-5    4.550559365139106E-4   -4.728738693182470E-1   -3.467476472419717E-2
 1.004915627845000E+10  -3.883139478059838E-1   -2.364352040047597E-1    1.440345056269152E-4    4.301088698075449E-4    1.257113360317076E-4    4.347439790357297E-4   -4.728839527825024E-1   -3.452085392442576E-2
 1.004916044237500E+10  -3.884334414075711E-1   -2.361519384718404E-1    1.561207781258483E-4    4.621175966604673E-4    8.804550753095260E-5    4.588668363693759E-4   -4.728179797272591E-1   -3.404897637119075E-2
 1.004916460630000E+10  -3.885957595449864E-1   -2.359277680452961E-1    1.332099753773563E-4    4.753408546843471E-4    9.575448154171594E-5    4.920912973114158E-4   -4.727193446152452E-1   -3.366175927871663E-2
 1.004916877022500E+10  -3.888835908018153E-1   -2.357392751309784E-1    1.354586121722421E-4    4.850905564538754E-4    1.278729390005882E-4    5.246151388420618E-4   -4.727452317187441E-1   -3.320969032473157E-2
 1.004917293415000E+10  -3.888872058553027E-1   -2.354242198161783E-1    1.224810406112832E-4    5.081800526606603E-4    1.050790927713553E-4    5.049250786453566E-4   -4.727533828100661E-1   -3.270451284831095E-2
 1.004917709807500E+10  -3.891425334601825E-1   -2.352220749531787E-1    1.450767809794681E-4    5.263887596082787E-4    1.162653786476556E-4    5.275554377694881E-4   -4.726522450780861E-1   -3.235671976549424E-2
 1.004918126200000E+10  -3.893171157229818E-1   -2.349583911574769E-1    1.071991852783469E-4    5.384999704198762E-4    9.408713492180880E-5    5.541624539384549E-4   -4.726235639436776E-1   -3.195818322405659E-2
 1.004918542592500E+10  -3.893922062397824E-1   -2.346758738745388E-1    1.398558653596326E-4    5.709612198646330E-4    1.093541690632911E-4    5.810893113604445E-4   -4.726895587701585E-1   -3.144871852755574E-2
 1.004918958985000E+10  -3.894555606892385E-1   -2.344816365198184E-1    1.197750025035121E-4    5.431008167280734E-4    1.043225672239832E-4    5.951183817488036E-4   -4.726580567346925E-1   -3.105672895102995E-2
 1.004919375377500E+10  -3.896120597681308E-1   -2.342022541823620E-1    1.620269204710029E-4    5.799818925626808E-4    1.043538387384065E-4    5.818135836255916E-4   -4.725386398783498E-1   -3.063201871190426E-2
 1.004919791770000E+10  -3.897659971996955E-1   -2.340282600942089E-1    1.467572261214746E-4    5.902786293321196E-4    1.225275220744812E-4    6.239673876023882E-4   -4.725964381917010E-1   -3.018766333227090E-2
 1.004920208162500E+10  -3.899208286657888E-1   -2.337397112757580E-1    1.569001916576990E-4    6.224506385241057E-4    1.221148069504749E-4    6.113883621484818E-4   -4.725392565848067E-1   -2.972746878322215E-2
 1.004920624555000E+10  -3.899865256448397E-1   -2.335000271242263E-1    1.476197728845415E-4    6.354392666978087E-4    1.132478867384153E-4    6.440193678107612E-4   -4.724433683629458E-1   -2.931807707560189E-2
 1.004921040947500E+10  -3.900352494432958E-1   -2.333028488632499E-1    1.530166590361426E-4    6.530992405737409E-4    1.210162756754995E-4    6.719284702448393E-4   -4.724220458613926E-1   -2.880921994260752E-2
 1.004921457340000E+10  -3.901935825872838E-1   -2.331384633234807E-1    1.485274528866334E-4    6.862722714071820E-4    9.243640189175481E-5    6.891351934540974E-4   -4.723826899662993E-1   -2.837812852357893E-2
 1.004921873732500E+10  -3.903597418630579E-1   -2.327537425544603E-1    1.665478726791829E-4    6.803534329127166E-4    1.305303192794437E-4    7.119232569515964E-4   -4.723760180505365E-1   -2.786587920353610E-2
 1.004922290125000E+10  -3.906331654752552E-1   -2.325797441197203E-1    1.595610518662044E-4    7.092169268230966E-4    1.228216704713951E-4    7.106069892328995E-4   -4.721845331808582E-1   -2.749562811927970E-2
