#  HZ   S   RI   R     50.00 
! Rohde & Schwarz Vector Network Analyzer 
! Rohde-Schwarz,ZNB20-2Port,1311601062101988,3.16
! Created: UTC 3/21/2024, 1:18:21 AM
! freq[Hz]                re:S11                  im:S11                  re:S21                  im:S21                  re:S12                  im:S12                  re:S22                  im:S22
 1.004886866000000E+10  -3.786341500903893E-1   -2.528793040726142E-1    8.028685101862151E-5   -1.645897566772081E-4    9.768127889957035E-5   -1.936419400659733E-4   -4.723676976135110E-1   -5.927665825556868E-2
 1.004887273055000E+10  -3.787247416408960E-1   -2.525183787012954E-1    1.279961062250635E-4   -1.942468187613867E-4    1.224590770388406E-4   -1.938090116977154E-4   -4.724600714566333E-1   -5.904913253280178E-2
 1.004887680110000E+10  -3.788374146584606E-1   -2.524659302729279E-1    7.256281892018992E-5   -2.085842240317969E-4    1.506038649165453E-4   -1.785267232037662E-4   -4.724102693868337E-1   -5.871965379278256E-2
 1.004888087165000E+10  -3.790387308193159E-1   -2.521697116810881E-1    7.314848597439274E-5   -1.717010262949632E-4    1.355942825692340E-4   -2.042332579969168E-4   -4.723130962240219E-1   -5.835354020241573E-2
 1.004888494220000E+10  -3.791221500694378E-1   -2.518681034307682E-1    1.213671040039729E-4   -1.542925164682071E-4    1.173870750675722E-4   -1.962056835147119E-4   -4.725668475740383E-1   -5.803685347481415E-2
 1.004888901275000E+10  -3.793004934207623E-1   -2.515482065859708E-1    9.629637649997631E-5   -1.700212613167104E-4    1.071449143197512E-4   -1.515219868004475E-4   -4.724583171775247E-1   -5.766274303649571E-2
 1.004889308330000E+10  -3.794647714944124E-1   -2.514334893321787E-1    6.393189688790296E-5   -2.054951373799038E-4    1.240695472531408E-4   -1.656427529899398E-4   -4.725247861313398E-1   -5.727259478786573E-2
 1.004889715385000E+10  -3.796190746508057E-1   -2.512123618921767E-1    1.119640830619509E-4   -1.882643692977932E-4    7.976229793743132E-5   -1.662357710042314E-4   -4.724240144411440E-1   -5.709078385787728E-2
 1.004890122440000E+10  -3.797355538947142E-1   -2.510015520375928E-1    1.184939476984233E-4   -1.598107936094828E-4    1.118998582616005E-4   -1.386638712262917E-4   -4.725252486515294E-1   -5.670229274783864E-2
 1.004890529495000E+10  -3.799157017708911E-1   -2.507910373327625E-1    8.833207980128562E-5   -1.719484757419388E-4    1.117700392568660E-4   -1.301698656853693E-4   -4.725527775496402E-1   -5.641324872156045E-2
 1.004890936550000E+10  -3.799563446596354E-1   -2.506170460953910E-1    8.121582235053699E-5   -1.557243840367687E-4    8.202968266270798E-5   -1.476549262638495E-4   -4.725958067970296E-1   -5.609498751934705E-2
 1.004891343605000E+10  -3.801101702232416E-1   -2.503043297026052E-1    1.208140472553448E-4   -1.147432546232463E-4    1.071375801858329E-4   -1.362466432771596E-4   -4.726651855182247E-1   -5.583985817986366E-2
 1.004891750660000E+10  -3.802611898722389E-1   -2.500739769720441E-1    6.306482109644906E-5   -1.345052955793571E-4    1.129730656703356E-4   -1.275695395201318E-4   -4.726345584079660E-1   -5.546380748374909E-2
 1.004892157715000E+10  -3.804870818006388E-1   -2.497724681467403E-1    9.365398468305733E-5   -1.217482282162738E-4    1.256022618031307E-4   -1.519470747648558E-4   -4.727852313323721E-1   -5.520327956211504E-2
 1.004892564770000E+10  -3.806126565068699E-1   -2.495944526932108E-1    1.281564582391107E-4   -1.347626994015905E-4    8.598718270811360E-5   -1.248733167832428E-4   -4.728005724882242E-1   -5.483772621210790E-2
 1.004892971825000E+10  -3.806646006557138E-1   -2.493944011678817E-1    1.291969600228122E-4   -1.391300744823676E-4    9.272222417895648E-5   -1.185114778608086E-4   -4.726779560456262E-1   -5.449665993035621E-2
 1.004893378880000E+10  -3.808693430733900E-1   -2.492101661865904E-1    5.973937552251584E-5   -1.174795454626653E-4    8.230144529024384E-5   -9.894052372871518E-5   -4.727071743364539E-1   -5.398321147213898E-2
 1.004893785935000E+10  -3.810256185525777E-1   -2.488011270168833E-1    1.104922116969805E-4   -1.069178177292071E-4    9.297665938852085E-5   -6.962713221707604E-5   -4.726889744555795E-1   -5.383189090860761E-2
 1.004894192990000E+10  -3.810627977494782E-1   -2.486085712055577E-1    9.716877333811735E-5   -9.987903038197643E-5    9.770302894844128E-5   -1.019800547100924E-4   -4.726050077591944E-1   -5.343298832356381E-2
 1.004894600045000E+10  -3.813093863838927E-1   -2.485544668199871E-1    7.859268916447467E-5   -8.263373607378492E-5    9.009461550309503E-5   -9.827411767871546E-5   -4.728587646071685E-1   -5.307389507965927E-2
 1.004895007100000E+10  -3.813262966318565E-1   -2.481503923546853E-1    8.693086436714894E-5   -1.074000878526037E-4    7.432111464587401E-5   -4.964737842256072E-5   -4.727549421096003E-1   -5.286242981339193E-2
 1.004895414155000E+10  -3.816247420369090E-1   -2.479224408813508E-1    9.179202393948308E-5   -6.849988732814841E-5    8.226182253253800E-5   -8.370476655894913E-5   -4.728844098966116E-1   -5.246052229721358E-2
 1.004895821210000E+10  -3.817537857320072E-1   -2.477003479549438E-1    8.267614105616976E-5   -6.909229168513204E-5    8.656523630813800E-5   -4.721615753601973E-5   -4.728016869107099E-1   -5.217113215881387E-2
 1.004896228265000E+10  -3.818520323371939E-1   -2.474730441169752E-1    7.701475189236675E-5   -4.864136127968799E-5    1.026676983220841E-4   -3.619573236100032E-5   -4.728725112774905E-1   -5.177983411170402E-2
 1.004896635320000E+10  -3.819740858805139E-1   -2.473123235932659E-1    9.619622628919902E-5   -2.668192031609304E-5    8.862241732984808E-5   -2.525465970953811E-5   -4.728263896208608E-1   -5.151616295777074E-2
 1.004897042375000E+10  -3.821127235961256E-1   -2.470281038758939E-1    9.161413833058007E-5   -1.824750280628068E-5    8.381588459928772E-5   -4.231669273652426E-5   -4.728380075796735E-1   -5.109299474447225E-2
 1.004897449430000E+10  -3.821823157560357E-1   -2.467935527276070E-1    9.277873103513763E-5   -1.303499405690605E-5    9.907957316943267E-5   -3.292216632453755E-5   -4.728669931371037E-1   -5.081650754083771E-2
 1.004897856485000E+10  -3.824510408874799E-1   -2.465630710928901E-1    1.220131031669063E-4   -3.613536960537932E-5    9.036083179344900E-5   -3.043068726686491E-5   -4.729705128168931E-1   -5.053837507824353E-2
 1.004898263540000E+10  -3.825305634948246E-1   -2.464177438328304E-1    1.052569824843055E-4   -1.003539912118894E-5    1.145270075836510E-4   -5.498104951160756E-6   -4.729589435315605E-1   -5.011538442525967E-2
 1.004898670595000E+10  -3.826271973730998E-1   -2.460755783258685E-1    1.041717161559272E-4   -1.973415493782948E-5    9.262188594754538E-5   -1.947194516552916E-5   -4.728569646269267E-1   -4.977877556801014E-2
 1.004899077650000E+10  -3.829887039267322E-1   -2.458345111623986E-1    8.311237797665692E-5   -1.268044748479234E-5    6.742142666856965E-5    9.062761536163116E-7   -4.728164027294473E-1   -4.946780684547914E-2
 1.004899484705000E+10  -3.828813038916572E-1   -2.456556495138658E-1    8.142123340845994E-5    2.458923664677622E-5    1.056554439502126E-4    1.577686519050817E-5   -4.728465920174637E-1   -4.900735994409583E-2
 1.004899891760000E+10  -3.831310342215680E-1   -2.455019503658378E-1    1.043403341030004E-4   -5.886090421253625E-6    7.645756453033427E-5    3.252129476470528E-5   -4.730040596911452E-1   -4.865952413076265E-2
 1.004900298815000E+10  -3.832439917062506E-1   -2.451523278558624E-1    9.794779847459473E-5    1.484435524832718E-5    8.026794220169940E-5    5.060591307045166E-5   -4.730621431925389E-1   -4.841791427433127E-2
 1.004900705870000E+10  -3.834299943138449E-1   -2.449971896358441E-1    6.586972866128626E-5    2.865186305947406E-5    6.576155514517431E-5    3.712833766890620E-5   -4.729458142365823E-1   -4.798197418039778E-2
 1.004901112925000E+10  -3.835874766813239E-1   -2.447075781636404E-1    4.879721666515476E-5    5.782695026948125E-5    1.114179585923171E-4    7.407657445972572E-5   -4.729332638085867E-1   -4.766024834626651E-2
 1.004901519980000E+10  -3.837387776724362E-1   -2.444625509709100E-1    1.018510199625979E-4    2.784272637098547E-5    9.610062910416166E-5    6.331223456704358E-5   -4.730060248383897E-1   -4.716047586991196E-2
 1.004901927035000E+10  -3.838814229108859E-1   -2.441877427082052E-1    7.149783228864150E-5    4.249747328489140E-5    8.330981768544206E-5    6.553392694213790E-5   -4.730099932165885E-1   -4.708285166951149E-2
 1.004902334090000E+10  -3.839738370061467E-1   -2.439638066147718E-1    1.161728779266414E-4    5.382329743457603E-5    8.599293933274392E-5    8.462462724207349E-5   -4.730747852818055E-1   -4.665820337784965E-2
 1.004902741145000E+10  -3.841813582828203E-1   -2.436715445984421E-1    1.176541991092162E-4    1.043924566273156E-4    1.124901320868570E-4    7.743913347304097E-5   -4.730496237588483E-1   -4.614273893134777E-2
 1.004903148200000E+10  -3.842109671319485E-1   -2.435972048663690E-1    9.325996584824881E-5    8.834607148481805E-5    7.593010877043363E-5    8.832955046855166E-5   -4.731432441971301E-1   -4.599901085694569E-2
 1.004903555255000E+10  -3.842934717277937E-1   -2.432031451016141E-1    8.132221088151095E-5    1.061731728651291E-4    9.247217863553339E-5    9.099201581196403E-5   -4.730167275968323E-1   -4.552704686549777E-2
 1.004903962310000E+10  -3.845307313932325E-1   -2.431683178052212E-1    8.441897645065379E-5    9.925295007806344E-5    6.487914341188291E-5    1.529672215254129E-4   -4.730784242653184E-1   -4.514193831951840E-2
 1.004904369365000E+10  -3.845736847282761E-1   -2.428355515314258E-1    8.681758710966462E-5    1.044583413526307E-4    7.522016496665446E-5    1.197552395529929E-4   -4.729991817469966E-1   -4.481876212540674E-2
 1.004904776420000E+10  -3.848183998797811E-1   -2.426361672066500E-1    8.945879451828937E-5    1.365014217887142E-4    6.468068973761934E-5    1.477942326170021E-4   -4.729813391460280E-1   -4.453904050947369E-2
 1.004905183475000E+10  -3.848450818473921E-1   -2.424130939969882E-1    9.557308600898914E-5    1.376262708553957E-4    8.739476032589821E-5    1.672018816002020E-4   -4.731293417405326E-1   -4.412661983820203E-2
 1.004905590530000E+10  -3.850458789768756E-1   -2.421219456415067E-1    7.817665471838768E-5    1.500616793508508E-4    8.748257188798502E-5    1.489806559718300E-4   -4.731533435766972E-1   -4.390517962128442E-2
 1.004905997585000E+10  -3.851010740978347E-1   -2.419430601814734E-1    1.011792723918177E-4    1.772347201753491E-4    5.726943763715114E-5    1.590289187419840E-4   -4.730809416107639E-1   -4.356987875468099E-2
 1.004906404640000E+10  -3.853641025130998E-1   -2.417571582802870E-1    7.790898838979963E-5    1.786428288207621E-4    6.099763829024168E-5    1.662442633374287E-4   -4.729899683813001E-1   -4.300240050925499E-2
 1.004906811695000E+10  -3.855236535265996E-1   -2.415739833422143E-1    1.041028094985685E-4    1.962873806143322E-4    9.817941341669322E-5    1.884227224705927E-4   -4.731968021184224E-1   -4.278109641806999E-2
 1.004907218750000E+10  -3.856608349365387E-1   -2.413368556970054E-1    1.321391904403586E-4    1.905704292813265E-4    5.372954954738291E-5    1.646836492444676E-4   -4.729439352470681E-1   -4.241278651674624E-2
 1.004907625805000E+10  -3.855911490443524E-1   -2.411202999285564E-1    8.376080645962873E-5    1.694568210052037E-4    9.074783407128619E-5    2.096355325556572E-4   -4.729316562222126E-1   -4.200287453700207E-2
 1.004908032860000E+10  -3.857833338520698E-1   -2.409025341357723E-1    9.244437130206326E-5    1.975094057986098E-4    6.703854143541051E-5    2.382554129804180E-4   -4.730102113900223E-1   -4.165035241807578E-2
 1.004908439915000E+10  -3.860099600147093E-1   -2.404543982765659E-1    1.020611336950113E-4    2.410134137857909E-4    7.390407552161800E-5    2.311093726174472E-4   -4.729771045357506E-1   -4.121010111346937E-2
 1.004908846970000E+10  -3.861606964455791E-1   -2.403104603104070E-1    9.412296893607408E-5    2.411346505419427E-4    9.450719699323679E-5    2.340962863839546E-4   -4.731462705277865E-1   -4.077670675553748E-2
 1.004909254025000E+10  -3.861596790935190E-1   -2.400489116424827E-1    1.192263806713925E-4    2.630202376294693E-4    7.213451889745239E-5    2.478094907453624E-4   -4.729368027480760E-1   -4.060263159845511E-2
 1.004909661080000E+10  -3.864138008306485E-1   -2.398871515846872E-1    7.836922102660241E-5    2.533768537848730E-4    9.919996358620880E-5    2.591274773990636E-4   -4.730839186603051E-1   -4.022383470458409E-2
 1.004910068135000E+10  -3.866216388541281E-1   -2.396267456335132E-1    1.032996727634785E-4    2.291579574500234E-4    7.618208866438804E-5    2.589931682795963E-4   -4.729974038190237E-1   -3.981853161810499E-2
 1.004910475190000E+10  -3.867298669909925E-1   -2.394382521142898E-1    1.036331827707277E-4    2.918179915734481E-4    9.172794837131998E-5    2.764785355882297E-4   -4.731486528295896E-1   -3.932128110063456E-2
 1.004910882245000E+10  -3.868534926174511E-1   -2.391286731924229E-1    1.103371533301338E-4    3.051368855948113E-4    8.115954041117652E-5    2.928913901812658E-4   -4.729193287273772E-1   -3.896873528969152E-2
 1.004911289300000E+10  -3.869010020760639E-1   -2.389947017539160E-1    1.082877103242842E-4    3.232984991740490E-4    7.355886477023051E-5    2.990314199658019E-4   -4.729284127535540E-1   -3.854129244258798E-2
 1.004911696355000E+10  -3.872387638244691E-1   -2.387126535168709E-1    1.113849037224090E-4    3.067933580384319E-4    1.021203287266767E-4    3.242154618350128E-4   -4.729398528686921E-1   -3.829997284629912E-2
 1.004912103410000E+10  -3.872083914895796E-1   -2.384507741526832E-1    8.969189410496929E-5    3.200519235595684E-4    9.678053831089387E-5    3.346847291724132E-4   -4.730436819898628E-1   -3.783881130016931E-2
 1.004912510465000E+10  -3.873645906055778E-1   -2.382575070981816E-1    1.230567780638156E-4    3.392702263663078E-4    9.650463729776116E-5    3.210422814073091E-4   -4.729993159383585E-1   -3.754114876657559E-2
 1.004912917520000E+10  -3.875226076281020E-1   -2.380123098166027E-1    9.708181177547739E-5    3.463182835226210E-4    9.284101473280985E-5    3.517527562762297E-4   -4.729303769464120E-1   -3.724963397212860E-2
 1.004913324575000E+10  -3.875952312980814E-1   -2.377442345733098E-1    1.148867009518841E-4    3.602976622142959E-4    1.053525984819210E-4    3.676344318643738E-4   -4.729479617861216E-1   -3.661923500448432E-2
 1.004913731630000E+10  -3.878475451171456E-1   -2.375520292924819E-1    1.241191116660566E-4    3.844660618668254E-4    9.278589616777951E-5    3.990943511550910E-4   -4.729943066582402E-1   -3.626274367841185E-2
 1.004914138685000E+10  -3.878951009544027E-1   -2.371795633023818E-1    1.189812446982768E-4    3.815735059277288E-4    6.473092627247964E-5    3.898364523896618E-4   -4.729105429980012E-1   -3.584675384879421E-2
 1.004914545740000E+10  -3.878859017423414E-1   -2.369855783707949E-1    1.198218866272895E-4    3.968929680175558E-4    7.094590816172406E-5    3.967044100027908E-4   -4.729930672284218E-1   -3.553331716336160E-2
 1.004914952795000E+10  -3.881228781465787E-1   -2.367233931475353E-1    1.129691856602197E-4    4.169667650336144E-4    7.993767820481097E-5    4.274107345853398E-4   -4.730101233768222E-1   -3.516645771541004E-2
 1.004915359850000E+10  -3.881908713726439E-1   -2.366932711607409E-1    1.349250778802997E-4    3.966103201138232E-4    1.056823745199868E-4    4.336365065726807E-4   -4.729501217132201E-1   -3.472881141967925E-2
 1.004915766905000E+10  -3.885139528853423E-1   -2.362953235765214E-1    1.496962837626103E-4    4.651512071049487E-4    1.060193869030010E-4    4.459592346504870E-4   -4.728374228478807E-1   -3.437163548491287E-2
 1.004916173960000E+10  -3.886235483578211E-1   -2.361058031881896E-1    1.336653784737873E-4    4.772424686135962E-4    9.018770804563808E-5    4.374654485928219E-4   -4.728624581035604E-1   -3.389926032511572E-2
 1.004916581015000E+10  -3.886327510285890E-1   -2.357058759209045E-1    1.038487977119155E-4    4.555631512953111E-4    1.033634086170243E-4    4.639894998277378E-4   -4.728029051747439E-1   -3.357274970095231E-2
 1.004916988070000E+10  -3.888518451850360E-1   -2.356001284509611E-1    1.201712453023504E-4    4.905842942472848E-4    9.899028479810936E-5    4.683020847067786E-4   -4.728635752411472E-1   -3.298147461926725E-2
 1.004917395125000E+10  -3.889351127197608E-1   -2.353651864266290E-1    1.166853378765845E-4    4.782636368247186E-4    8.841571035234902E-5    5.225445137470831E-4   -4.727886211153445E-1   -3.271968721683662E-2
 1.004917802180000E+10  -3.890740149386619E-1   -2.352426156759709E-1    1.541837512902318E-4    5.162604098431600E-4    1.108000348849040E-4    5.525251946988334E-4   -4.727169599602626E-1   -3.236403589878945E-2
 1.004918209235000E+10  -3.892287421829949E-1   -2.348880966735793E-1    1.696734970519424E-4    5.004646358211261E-4    7.187968890658500E-5    5.336938293251213E-4   -4.728635700416082E-1   -3.193760057215986E-2
 1.004918616290000E+10  -3.894163546367724E-1   -2.347642281685764E-1    1.612514318480416E-4    5.108541240711268E-4    6.854621846243289E-5    5.241561656193043E-4   -4.726175737626949E-1   -3.148867481172269E-2
 1.004919023345000E+10  -3.895170629827657E-1   -2.344847812742268E-1    1.331829771524149E-4    5.629967270788131E-4    1.065311249801741E-4    5.844485927524723E-4   -4.726248054837682E-1   -3.115276698831062E-2
 1.004919430400000E+10  -3.895885966883030E-1   -2.343384510998580E-1    1.473451306485310E-4    5.424487037512726E-4    1.098902375352289E-4    6.092561066849761E-4   -4.726499438479366E-1   -3.083517502536933E-2
 1.004919837455000E+10  -3.897630767351975E-1   -2.339913953246315E-1    1.434208943147448E-4    5.980397283246653E-4    1.050347201227973E-4    6.005739093484548E-4   -4.727086853804684E-1   -3.022530304475690E-2
 1.004920244510000E+10  -3.897956362470475E-1   -2.337620836602967E-1    1.486634201987311E-4    5.835472264920681E-4    1.033812314254972E-4    6.266271143561138E-4   -4.726648213863565E-1   -2.982260271759573E-2
 1.004920651565000E+10  -3.899438053982895E-1   -2.335726531655261E-1    1.513606213001977E-4    6.462022488588448E-4    1.187505027455301E-4    6.453722690362755E-4   -4.725269908074818E-1   -2.941923711301012E-2
 1.004921058620000E+10  -3.901782808163668E-1   -2.332146209424728E-1    1.608594026525799E-4    6.479660737645301E-4    1.193036126360700E-4    6.526564231593019E-4   -4.723808632991119E-1   -2.906639827825955E-2
 1.004921465675000E+10  -3.903064509541062E-1   -2.330310155182879E-1    1.202901724684014E-4    6.400121490869585E-4    1.089254920968124E-4    6.657839696721256E-4   -4.723666392869331E-1   -2.865182985030694E-2
 1.004921872730000E+10  -3.902682098077357E-1   -2.329488336440514E-1    1.304971454943357E-4    6.522253061811129E-4    1.192178304125848E-4    6.918213979955767E-4   -4.723539437391442E-1   -2.814047160966815E-2
 1.004922279785000E+10  -3.904868702870319E-1   -2.326428219846172E-1    1.571701600481526E-4    6.749086199445907E-4    1.213511721424871E-4    7.087359139886613E-4   -4.722703098169234E-1   -2.773888138414817E-2
 1.004922686840000E+10  -3.905825930190552E-1   -2.323636820615639E-1    1.317009338859957E-4    7.078267974657165E-4    1.400228297333534E-4    7.320875683719690E-4   -4.723459462689142E-1   -2.731583794537123E-2
 1.004923093895000E+10  -3.908813489013481E-1   -2.322768405494387E-1    1.618528988378099E-4    7.305986178567364E-4    9.690599014430534E-5    7.766333945618996E-4   -4.722839658651461E-1   -2.683628315865964E-2
 1.004923500950000E+10  -3.909912332857835E-1   -2.319597406706521E-1    1.667539471448329E-4    7.569106998754023E-4    1.196198026386735E-4    7.614732849909586E-4   -4.723549988431598E-1   -2.641272422982898E-2
