#  HZ   S   RI   R     50.00 
! Rohde & Schwarz Vector Network Analyzer 
! Rohde-Schwarz,ZNB20-2Port,1311601062101988,3.16
! Created: UTC 3/21/2024, 12:53:05 AM
! freq[Hz]                re:S11                  im:S11                  re:S21                  im:S21                  re:S12                  im:S12                  re:S22                  im:S22
 1.004782981400000E+10  -3.532540830044600E-1   -2.941122140409191E-1    1.374303310839185E-4   -1.434004471705683E-4    1.195398813919966E-4   -1.805964263388974E-4   -4.642488442057967E-1   -1.013547281108197E-1
 1.004783371230000E+10  -3.534569097376205E-1   -2.939947787802931E-1    1.100143575041000E-4   -1.720835448512664E-4    1.232870286321093E-4   -1.575866055884865E-4   -4.643122776135463E-1   -1.009536657129413E-1
 1.004783761060000E+10  -3.535226211007594E-1   -2.938117612158668E-1    8.362181028590873E-5   -1.081371108987181E-4    1.002860100598948E-4   -1.357694809255475E-4   -4.643081958547999E-1   -1.006763931342765E-1
 1.004784150890000E+10  -3.535994225651063E-1   -2.935847996075125E-1    9.726903257457653E-5   -1.162764524811850E-4    1.004961857188346E-4   -1.440543384545571E-4   -4.643156740736862E-1   -1.003045139310489E-1
 1.004784540720000E+10  -3.538724079128927E-1   -2.933407424444148E-1    1.034468800226712E-4   -1.216572273837805E-4    1.208941713974054E-4   -1.280448617270513E-4   -4.643364292018463E-1   -1.000247359340359E-1
 1.004784930550000E+10  -3.540388079472283E-1   -2.932154333878167E-1    9.149638442091549E-5   -1.201135826832173E-4    1.322761293925345E-4   -1.002298987767404E-4   -4.643681718739549E-1   -9.958475494196317E-2
 1.004785320380000E+10  -3.540753358625449E-1   -2.929619215088434E-1    1.301008021008794E-4   -1.244940033959020E-4    1.134463663100403E-4   -1.134079631052369E-4   -4.643775955686509E-1   -9.948880144730378E-2
 1.004785710210000E+10  -3.543085304847536E-1   -2.927400971799538E-1    6.554570197050302E-5   -1.501945644601513E-4    1.099100508389608E-4   -1.091300602520475E-4   -4.645206646521049E-1   -9.918740188026003E-2
 1.004786100040000E+10  -3.544844083103623E-1   -2.924323864431599E-1    1.053691275840058E-4   -1.386328522862735E-4    9.346428806731495E-5   -1.004974923455217E-4   -4.645518039800903E-1   -9.878814935715925E-2
 1.004786489870000E+10  -3.546404701661725E-1   -2.923392439297324E-1    1.033431612178361E-4   -1.139757553004481E-4    1.071152440934420E-4   -9.027080427247882E-5   -4.647199525901451E-1   -9.834787655809131E-2
 1.004786879700000E+10  -3.549659972139200E-1   -2.920155463919404E-1    1.159962373503375E-4   -7.028306241500966E-5    1.147571983608744E-4   -9.351292677703090E-5   -4.646765069375776E-1   -9.815564036531245E-2
 1.004787269530000E+10  -3.549838270130199E-1   -2.917704235170687E-1    7.210776752610964E-5   -7.851411188461617E-5    1.136131202021022E-4   -8.911385513919716E-5   -4.646449147484044E-1   -9.783444446854293E-2
 1.004787659360000E+10  -3.550279740060837E-1   -2.916276892683199E-1    1.325048071152181E-4   -6.781489055861615E-5    8.878198377907913E-5   -8.677020965094344E-5   -4.647909159380697E-1   -9.751704445410478E-2
 1.004788049190000E+10  -3.552638568638570E-1   -2.915336131454679E-1    6.715484121003395E-5   -6.357967487999258E-5    8.246364034241332E-5   -6.976299062394316E-5   -4.648723001214574E-1   -9.719889053989164E-2
 1.004788439020000E+10  -3.554846830687221E-1   -2.912081506547227E-1    1.115448688115601E-4   -6.735518109580466E-5    8.901556724845924E-5   -5.801792558085355E-5   -4.648701199991387E-1   -9.681201257925151E-2
 1.004788828850000E+10  -3.555724765961017E-1   -2.911001016801014E-1    6.301318324821341E-5   -7.859496439952270E-5    1.074177343402483E-4   -3.270664167824041E-5   -4.648812160090036E-1   -9.639173346440132E-2
 1.004789218680000E+10  -3.557631928169922E-1   -2.908689082473458E-1    8.765046938821972E-5   -7.280227628025945E-5    1.022379660557424E-4   -5.066304641141102E-5   -4.649387900984183E-1   -9.620022535566450E-2
 1.004789608510000E+10  -3.560550217863750E-1   -2.906948075671833E-1    8.495617269893080E-5   -4.158028297488916E-5    1.072152366298908E-4   -2.405926107552875E-5   -4.648802208388839E-1   -9.582284581193437E-2
 1.004789998340000E+10  -3.560720290785148E-1   -2.903971945785348E-1    7.700555112516440E-5   -6.888551351461423E-5    1.029188725250709E-4   -3.791379019980306E-5   -4.650312423385807E-1   -9.553789945523798E-2
 1.004790388170000E+10  -3.563139697178653E-1   -2.902980862399034E-1    8.981383162336088E-5   -6.034336793130377E-5    8.777751512076403E-5   -3.567565940658830E-5   -4.649906743883000E-1   -9.533696424256613E-2
 1.004790778000000E+10  -3.564718835271607E-1   -2.900518202289860E-1    1.052508441984561E-4   -2.676395441511328E-5    8.489117767166731E-5    2.168445417574292E-5   -4.651294129200743E-1   -9.488399812672066E-2
 1.004791167830000E+10  -3.565977786663242E-1   -2.897404124939412E-1    8.938893165428386E-5   -1.338950455247577E-5    9.808141821754257E-5    7.805340925475763E-6   -4.651851256357498E-1   -9.470324016486983E-2
 1.004791557660000E+10  -3.567336521217698E-1   -2.894964603604001E-1    1.129008515170895E-4   -3.197535654506088E-5    1.023257893038791E-4    6.056394151324754E-6   -4.650944724300616E-1   -9.417513356419734E-2
 1.004791947490000E+10  -3.569144572851420E-1   -2.894554684201568E-1    8.912414799715279E-5   -1.066092525652330E-5    1.154587505240012E-4    1.790805243847896E-5   -4.650750104680331E-1   -9.394855063817716E-2
 1.004792337320000E+10  -3.570337132059224E-1   -2.891690632645424E-1    8.281868356784526E-5    4.636295297143209E-5    1.124503899431212E-4    2.336852167539471E-5   -4.651001543586738E-1   -9.362139443966301E-2
 1.004792727150000E+10  -3.571124348942764E-1   -2.890139433846395E-1    9.841960301875327E-5    2.231604271983262E-5    7.563290558471911E-5   -8.731867436767245E-6   -4.653494234819978E-1   -9.322042654632665E-2
 1.004793116980000E+10  -3.573493740471135E-1   -2.888297679855181E-1    8.094646462409204E-5    2.466970892492511E-5    8.645871762526484E-5   -3.473653976396876E-6   -4.653979359343113E-1   -9.288590677127688E-2
 1.004793506810000E+10  -3.574685794893546E-1   -2.885398531451293E-1    7.411520558821360E-5    4.589089407535809E-6    8.742643746978082E-5    2.510350926183610E-5   -4.652791406226486E-1   -9.263997161452112E-2
 1.004793896640000E+10  -3.577199275982552E-1   -2.883005537191809E-1    8.488830440146630E-5    2.663222680879519E-5    1.085699386525229E-4    4.619157278121289E-5   -4.655245424982100E-1   -9.238245380170512E-2
 1.004794286470000E+10  -3.577957645922235E-1   -2.882648347069080E-1    1.073086230074468E-4    6.417414875335241E-5    8.047686837825046E-5    6.749989524675291E-5   -4.654259507746694E-1   -9.206011299243474E-2
 1.004794676300000E+10  -3.579786062333855E-1   -2.878856895689728E-1    7.359994118005517E-5    5.620903680840312E-5    7.541156956061658E-5    5.362492985077402E-5   -4.654744695353586E-1   -9.162152703050591E-2
 1.004795066130000E+10  -3.581457788694396E-1   -2.877368958422165E-1    8.747436069086332E-5    3.728676552290751E-5    6.043357487807746E-5    7.854436623298045E-5   -4.654416289257588E-1   -9.138510076272248E-2
 1.004795455960000E+10  -3.583875380539259E-1   -2.875769272867983E-1    7.733570267987160E-5    6.905305846988356E-5    7.568277403355623E-5    7.922881818735318E-5   -4.654913518126479E-1   -9.079953782539532E-2
 1.004795845790000E+10  -3.585016643907294E-1   -2.872875154383604E-1    5.896720509168278E-5    7.549911862234296E-5    9.636950339445531E-5    9.442782107763937E-5   -4.655891110994514E-1   -9.071589702291576E-2
 1.004796235620000E+10  -3.586097467892185E-1   -2.870571268044400E-1    5.764906311617208E-5    9.756946563334528E-5    8.325723079271146E-5    7.750724096606001E-5   -4.656836431656614E-1   -9.019522383817000E-2
 1.004796625450000E+10  -3.587032428756580E-1   -2.868409589097709E-1    7.151428184455177E-5    1.006899480443072E-4    6.686587163982803E-5    8.491000235659124E-5   -4.657616467005629E-1   -8.980975316158928E-2
 1.004797015280000E+10  -3.589104720481153E-1   -2.867090950662438E-1    7.382565005712254E-5    9.893564564465330E-5    1.020431449661795E-4    8.349775477240536E-5   -4.658114581760520E-1   -8.960384785016831E-2
 1.004797405110000E+10  -3.590707299028694E-1   -2.864781093787861E-1    6.988547678179853E-5    1.351850213723009E-4    8.349946137824168E-5    1.227574340000972E-4   -4.656826793867391E-1   -8.916980608219321E-2
 1.004797794940000E+10  -3.592515314729463E-1   -2.863672552060127E-1    8.890845631189483E-5    1.158128581801433E-4    9.322161539266117E-5    1.076035184869361E-4   -4.657534204882746E-1   -8.906600727536390E-2
 1.004798184770000E+10  -3.593366608983276E-1   -2.860946383321822E-1    6.397070749784480E-5    1.305890721485503E-4    7.941541431355281E-5    1.574592615122553E-4   -4.657746475939035E-1   -8.854852204126976E-2
 1.004798574600000E+10  -3.595914114747489E-1   -2.858727344620556E-1    8.178627032172459E-5    1.439149420558230E-4    9.642598684026712E-5    1.410506407372862E-4   -4.658944839732964E-1   -8.821830881115748E-2
 1.004798964430000E+10  -3.597339653012631E-1   -2.855884055729998E-1    1.075227506760153E-4    1.585150824841486E-4    5.218245011327754E-5    1.640044800914539E-4   -4.658840797470370E-1   -8.795824326582953E-2
 1.004799354260000E+10  -3.599287784705396E-1   -2.853158723830082E-1    8.443366939181536E-5    1.302685367482671E-4    8.754428385633614E-5    1.825112187269333E-4   -4.659888569687579E-1   -8.759044558621482E-2
 1.004799744090000E+10  -3.600821246525890E-1   -2.852507132150056E-1    5.370151005394277E-5    1.699350103501584E-4    8.181496200227343E-5    1.869346224765353E-4   -4.659726445754413E-1   -8.719248357581764E-2
 1.004800133920000E+10  -3.602311634903358E-1   -2.849767634029588E-1    8.234911831540472E-5    1.840681973498830E-4    6.135872282718449E-5    1.824699669127320E-4   -4.660504720402858E-1   -8.684539113276904E-2
 1.004800523750000E+10  -3.603517328990624E-1   -2.847825214867353E-1    6.642134488980963E-5    1.885086901343437E-4    9.133648080684525E-5    2.046390651006943E-4   -4.661179777406380E-1   -8.655149224684501E-2
 1.004800913580000E+10  -3.604854001153412E-1   -2.846155787752623E-1    7.429406960163037E-5    1.949371384106665E-4    8.815498970032890E-5    2.115177429612422E-4   -4.660584431004119E-1   -8.615212933406394E-2
 1.004801303410000E+10  -3.605653139591063E-1   -2.842900198911025E-1    9.750599580952246E-5    2.265835243469890E-4    8.149374493758934E-5    2.129742805425126E-4   -4.661012281058576E-1   -8.583908278713387E-2
 1.004801693240000E+10  -3.607294814852908E-1   -2.841632637223819E-1    7.924316537836378E-5    2.407282075982826E-4    7.381939711834833E-5    1.991383733646095E-4   -4.660740694437701E-1   -8.552235459214531E-2
 1.004802083070000E+10  -3.609133664748129E-1   -2.840696520202640E-1    9.145348400463392E-5    2.418206576743740E-4    4.984837694558376E-5    2.458039149781662E-4   -4.661513737220264E-1   -8.513646159291577E-2
 1.004802472900000E+10  -3.612309024844363E-1   -2.837622805853960E-1    6.608123760902309E-5    2.230373107646543E-4    5.757831157743293E-5    2.566559892365404E-4   -4.663261923967926E-1   -8.488381495602387E-2
 1.004802862730000E+10  -3.611991297072720E-1   -2.835143588540320E-1    7.691343387884480E-5    2.689812197365838E-4    8.574508021714404E-5    2.618588581072956E-4   -4.662973669669614E-1   -8.436085116829294E-2
 1.004803252560000E+10  -3.614800805274064E-1   -2.833903465157556E-1    9.580405833311703E-5    2.863750939790002E-4    5.462244199652032E-5    2.894241794609741E-4   -4.662228923542765E-1   -8.398877246326530E-2
 1.004803642390000E+10  -3.615616292510239E-1   -2.830146306542445E-1    7.541156668236630E-5    2.895909738588406E-4    6.447737524474141E-5    2.623140016713572E-4   -4.664256644196714E-1   -8.374459589356437E-2
 1.004804032220000E+10  -3.617613931546366E-1   -2.828109911198671E-1    7.359471798053241E-5    2.810807375579630E-4    5.982941117480221E-5    2.779964873259134E-4   -4.663344292718236E-1   -8.340742735248287E-2
 1.004804422050000E+10  -3.618852022418948E-1   -2.826836504271408E-1    1.005618453614897E-4    2.989369447716812E-4    5.146083469341415E-5    2.904907117180941E-4   -4.664060279900926E-1   -8.296151901093178E-2
 1.004804811880000E+10  -3.619617978845147E-1   -2.824339314837361E-1    8.167269792533424E-5    3.120464877133545E-4    3.608421147658819E-5    3.335306122013126E-4   -4.663875374655365E-1   -8.251669664189977E-2
 1.004805201710000E+10  -3.621015102242683E-1   -2.822431418862235E-1    8.608498189465178E-5    3.093524121190642E-4    3.813210524644706E-5    3.014935731077210E-4   -4.663345472050196E-1   -8.227185571938748E-2
 1.004805591540000E+10  -3.623226507817338E-1   -2.820191348192382E-1    6.632974875490496E-5    3.191797360482895E-4    5.326808367435331E-5    3.314631234799387E-4   -4.664378342179097E-1   -8.178843092381669E-2
 1.004805981370000E+10  -3.625589329766789E-1   -2.819532317343967E-1    7.306641349096638E-5    3.515212586218418E-4    3.544158870184776E-5    3.606273796560001E-4   -4.664302715360425E-1   -8.141236647637519E-2
 1.004806371200000E+10  -3.625513589155267E-1   -2.815544091093041E-1    8.275197152444325E-5    3.595739124457024E-4    4.922933797969334E-5    3.669865754825409E-4   -4.665349589830735E-1   -8.117118751668831E-2
 1.004806761030000E+10  -3.628477717442920E-1   -2.814106887956357E-1    3.833293086343208E-5    3.743036469241009E-4    4.316190109095403E-5    3.664851319416309E-4   -4.663560516261916E-1   -8.064437960561012E-2
 1.004807150860000E+10  -3.630278727831804E-1   -2.812847047623570E-1    4.146209871426591E-5    3.694942097029000E-4    5.289176538752351E-5    3.722940783863392E-4   -4.664048304384070E-1   -8.028718829148522E-2
 1.004807540690000E+10  -3.631968524210928E-1   -2.810604398767324E-1    6.594516859207804E-5    3.862676912725638E-4    5.198139439841158E-5    4.142045360860665E-4   -4.665866040656104E-1   -8.007156670443094E-2
 1.004807930520000E+10  -3.632915035608924E-1   -2.807653494118207E-1    6.201078809245256E-5    4.074660447678367E-4    5.395810167889706E-5    4.057355281041093E-4   -4.665855124607473E-1   -7.953872613857882E-2
 1.004808320350000E+10  -3.633705809439554E-1   -2.805960193947464E-1    9.695929852636468E-5    4.239718680218557E-4    2.549617887338484E-5    4.170180101580237E-4   -4.665536160484015E-1   -7.924467715661183E-2
 1.004808710180000E+10  -3.634737331412930E-1   -2.803762262717828E-1    5.731073315636384E-5    4.298732649585021E-4    6.744069402783429E-5    4.482743282173036E-4   -4.665459651696910E-1   -7.877032341427199E-2
 1.004809100010000E+10  -3.638092620911121E-1   -2.802599319168441E-1    5.964420127510401E-5    4.473814130805036E-4    3.137645822465194E-5    4.519637432689564E-4   -4.665974315219859E-1   -7.848021606189111E-2
 1.004809489840000E+10  -3.638915753073325E-1   -2.798883748502402E-1    8.158790681681501E-5    4.175474650650971E-4    5.204104085419621E-5    4.617093878786023E-4   -4.666865963957789E-1   -7.824598621065461E-2
 1.004809879670000E+10  -3.640516780829083E-1   -2.798047688904358E-1    6.722246139366363E-5    4.644539109873760E-4    5.878316116708477E-5    4.772051087947642E-4   -4.666686192924421E-1   -7.776480177460085E-2
 1.004810269500000E+10  -3.642453540323077E-1   -2.796313541207380E-1    4.492257932896483E-5    4.529960476142126E-4    4.147971585086684E-5    4.947260599201494E-4   -4.666911319730083E-1   -7.729962152231003E-2
 1.004810659330000E+10  -3.643117786714821E-1   -2.793349830211589E-1    7.765987231808250E-5    5.020058859478348E-4    3.761486202708938E-5    5.219923756675007E-4   -4.667561124267579E-1   -7.706686147165026E-2
 1.004811049160000E+10  -3.645211268857176E-1   -2.791130666606393E-1    8.088237367304001E-5    5.141459314230973E-4    2.861203011619094E-5    5.056332854928145E-4   -4.667100325557387E-1   -7.671257197301523E-2
 1.004811438990000E+10  -3.646959925066913E-1   -2.790222216932114E-1    7.400359236911924E-5    5.229843076262814E-4    3.228104656991096E-5    5.515634287452941E-4   -4.666739636948612E-1   -7.600527667960574E-2
 1.004811828820000E+10  -3.647949051856806E-1   -2.788156810367808E-1    5.973357425421399E-5    5.501568298204366E-4    2.282910330401260E-5    5.525653068368402E-4   -4.667778326836685E-1   -7.585035670307685E-2
 1.004812218650000E+10  -3.650150852269586E-1   -2.785925356081270E-1    6.478771833047175E-5    5.693604258005113E-4    5.334386814709876E-5    5.990819691351024E-4   -4.667296411132553E-1   -7.527243195697821E-2
 1.004812608480000E+10  -3.650045957012869E-1   -2.783472702338409E-1    7.897599941171796E-5    5.972811321346030E-4    4.644887956371573E-5    5.982594902081633E-4   -4.666964819511994E-1   -7.496973621566085E-2
 1.004812998310000E+10  -3.653063968557667E-1   -2.781698136143179E-1    7.749913420084867E-5    6.131749160055042E-4    5.869912818397082E-5    5.986479328876001E-4   -4.668762080565038E-1   -7.459214164759143E-2
 1.004813388140000E+10  -3.655339762074561E-1   -2.779670021515626E-1    7.651079148231382E-5    6.262604723828341E-4    4.621303320647282E-5    6.283165602209443E-4   -4.666844034020994E-1   -7.408235074771376E-2
 1.004813777970000E+10  -3.656144715569131E-1   -2.776152188210432E-1    5.396556361870070E-5    6.400366191810370E-4    2.549211561708423E-5    6.245915952811183E-4   -4.668635954705508E-1   -7.378581952745832E-2
 1.004814167800000E+10  -3.658476207417614E-1   -2.774699356322073E-1    6.922255868182984E-5    6.325036715078877E-4    2.948353088735394E-5    6.748169058522645E-4   -4.666191186746746E-1   -7.335403165212860E-2
 1.004814557630000E+10  -3.659146446090185E-1   -2.772966518214733E-1    7.797619153277255E-5    6.706855522634406E-4    4.424761007836104E-5    6.626521345924764E-4   -4.667711390275910E-1   -7.286219499206471E-2
 1.004814947460000E+10  -3.659546557199768E-1   -2.770843764147643E-1    6.653369996352443E-5    6.762277487404168E-4    3.537170720769145E-5    7.010008775336698E-4   -4.667228945896006E-1   -7.234718588158523E-2
 1.004815337290000E+10  -3.661835364657632E-1   -2.768691977266862E-1    6.338947227957596E-5    7.089992490501797E-4    1.690152547511381E-5    7.120256865683927E-4   -4.667189129146986E-1   -7.189392871411728E-2
 1.004815727120000E+10  -3.662512845021708E-1   -2.766794454751965E-1    7.723778309455438E-5    7.283084838820548E-4    4.958134156883066E-5    7.284980949389835E-4   -4.667999159965551E-1   -7.168361225449758E-2
 1.004816116950000E+10  -3.664900711823089E-1   -2.764106260305081E-1    8.143735959874959E-5    7.591520302764387E-4    3.731349918710189E-5    7.430947763936463E-4   -4.668296714891633E-1   -7.122056486603555E-2
 1.004816506780000E+10  -3.666718169687298E-1   -2.762758575544979E-1    9.953122970825295E-5    7.735346411979070E-4    4.392561882167509E-5    8.017905032722618E-4   -4.666622873644835E-1   -7.067779875335585E-2
 1.004816896610000E+10  -3.666497658621541E-1   -2.759664457732618E-1    9.794688353469075E-5    7.736578601520023E-4    5.837505085437779E-5    7.696296536524251E-4   -4.667785968221149E-1   -7.047572191980993E-2
 1.004817286440000E+10  -3.670190539523875E-1   -2.757451236979346E-1    9.193568933298809E-5    7.763187356965305E-4    3.596565108457517E-5    8.169099630208249E-4   -4.667232438004590E-1   -6.979745511493769E-2
 1.004817676270000E+10  -3.670056018263918E-1   -2.757034256121140E-1    7.212571212999376E-5    7.846770531434589E-4    3.436800878299281E-5    8.231009599532609E-4   -4.666277058014482E-1   -6.944032599741498E-2
 1.004818066100000E+10  -3.671827198023622E-1   -2.753700387001133E-1    8.739250855174086E-5    8.258363162095500E-4    5.142663791595235E-5    8.590242468044409E-4   -4.666341192201586E-1   -6.910887254683201E-2
