#  HZ   S   RI   R     50.00 
! Rohde & Schwarz Vector Network Analyzer 
! Rohde-Schwarz,ZNB20-2Port,1311601062101988,3.16
! Created: UTC 3/21/2024, 1:19:11 AM
! freq[Hz]                re:S11                  im:S11                  re:S21                  im:S21                  re:S12                  im:S12                  re:S22                  im:S22
 1.004907602700000E+10  -3.852375675325638E-1   -2.417677593666738E-1    7.696922987206670E-5    2.686507111218688E-5    3.868525584777338E-5    2.021911496636856E-5   -4.734955708629506E-1   -4.367865114484994E-2
 1.004907934777500E+10  -3.853438340928096E-1   -2.416154081839562E-1    4.045177109246539E-5    4.548042582556484E-5    7.555311939240464E-5    5.309797705596100E-5   -4.735520875420212E-1   -4.340668889485070E-2
 1.004908266855000E+10  -3.855075227517410E-1   -2.413357352807182E-1    5.943707740687553E-5    7.652770870277871E-5    9.886342721053301E-5    4.852820502290844E-5   -4.734511949634909E-1   -4.312526343592094E-2
 1.004908598932500E+10  -3.855881535489709E-1   -2.411862005912169E-1    6.296583393168960E-5    6.466303640243039E-5    4.116217582296376E-5    8.370003935889242E-5   -4.735773890223587E-1   -4.281039973409551E-2
 1.004908931010000E+10  -3.856934365473436E-1   -2.409237541666901E-1    6.784257085639637E-5    8.938158367940904E-5    4.251188060656685E-5    6.424723518311719E-5   -4.736357765412977E-1   -4.243990610891200E-2
 1.004909263087500E+10  -3.858311923584806E-1   -2.406997197651914E-1    4.952022828326233E-5    6.976045528430277E-5    6.763291111858698E-5    1.252045933511572E-4   -4.735080838163178E-1   -4.228304915532568E-2
 1.004909595165000E+10  -3.859098415325445E-1   -2.404989608166384E-1    5.248716365209994E-5    7.806841975083936E-5    5.401611601205384E-5    8.426822677150111E-5   -4.736113087584441E-1   -4.204564581960429E-2
 1.004909927242500E+10  -3.859519131116716E-1   -2.403353803874099E-1    4.113640100569752E-5    1.036045799794100E-4    8.336318145929977E-5    1.088991612108682E-4   -4.734501011197117E-1   -4.162608912385665E-2
 1.004910259320000E+10  -3.861766419637389E-1   -2.403427710090588E-1    8.243033696815745E-5    9.303033518338522E-5    5.697796994345949E-5    1.262758691542708E-4   -4.736049693874134E-1   -4.149487546146041E-2
 1.004910591397500E+10  -3.863277056136099E-1   -2.399817793765231E-1    6.981393637880252E-5    8.357235503380733E-5    6.730912702110971E-5    1.272706129880947E-4   -4.735870580619905E-1   -4.115184697705233E-2
 1.004910923475000E+10  -3.863036464377165E-1   -2.398869358641414E-1    2.612631045052243E-5    1.542565591350527E-4    3.384038880224461E-5    1.170566673313551E-4   -4.735497312445425E-1   -4.078194407204389E-2
 1.004911255552500E+10  -3.864210163106588E-1   -2.395875983165787E-1    5.839019099963144E-5    1.105343717807946E-4    6.156724036366105E-5    9.909436016796466E-5   -4.736052338882880E-1   -4.043484884484792E-2
 1.004911587630000E+10  -3.865386203331820E-1   -2.392634326062206E-1    8.242595191490989E-5    1.206537544227068E-4    6.404725212927155E-5    1.343073128338940E-4   -4.735563522028583E-1   -4.019500330274488E-2
 1.004911919707500E+10  -3.867059406262117E-1   -2.393493242208890E-1    7.062410482747457E-5    1.510959637010137E-4    6.770859154783720E-5    1.539901112091706E-4   -4.735597529564800E-1   -3.993570140712216E-2
 1.004912251785000E+10  -3.867945307041416E-1   -2.390383702536488E-1    3.653591929373525E-5    1.470206351350736E-4    4.640536831125346E-5    1.844259865837629E-4   -4.736243268663578E-1   -3.957957876437535E-2
 1.004912583862500E+10  -3.870088067852381E-1   -2.388297047452929E-1    5.373632423968630E-5    1.274782991744850E-4    7.478616751687717E-5    1.573746090334762E-4   -4.735986110786194E-1   -3.924120482711659E-2
 1.004912915940000E+10  -3.870799680091707E-1   -2.386215216879956E-1    6.187767129725696E-5    1.435439333004164E-4    7.173637534057995E-5    1.561891749303589E-4   -4.734554071902091E-1   -3.900843587042140E-2
 1.004913248017500E+10  -3.870092912417263E-1   -2.384686022091322E-1    5.760548702678030E-5    1.704773153154921E-4    6.990423471874600E-5    1.732545190539587E-4   -4.733225741411135E-1   -3.861794204784431E-2
 1.004913580095000E+10  -3.871779206941300E-1   -2.383030228734516E-1    3.863857750335469E-5    1.807742096991852E-4    1.958011653976215E-5    1.387027892102427E-4   -4.735709792981230E-1   -3.847185887204929E-2
 1.004913912172500E+10  -3.874293969317909E-1   -2.380744925641116E-1    5.953127000261493E-5    1.891489723772743E-4    8.201015753104170E-5    2.050924612874492E-4   -4.735918750337796E-1   -3.819943614459902E-2
 1.004914244250000E+10  -3.874490488766530E-1   -2.379449539122496E-1    7.772609581786872E-5    2.046027392036017E-4    1.763165767803268E-5    2.021660185833223E-4   -4.736147496175861E-1   -3.774883767940449E-2
 1.004914576327500E+10  -3.876037710276706E-1   -2.377081439987022E-1    5.846588184012887E-5    2.115613319478678E-4    5.135573616138117E-5    1.958864244650934E-4   -4.734791966560829E-1   -3.754770798714576E-2
 1.004914908405000E+10  -3.876142408481548E-1   -2.375282589256527E-1    9.588634821259692E-5    2.074843302947248E-4    3.913261121161527E-5    2.339171966644696E-4   -4.734597800195601E-1   -3.728687636938402E-2
 1.004915240482500E+10  -3.878222951821361E-1   -2.372895348083398E-1    7.824390232192444E-5    1.936125900934026E-4    7.248327975929935E-5    2.410547037763758E-4   -4.735234410866981E-1   -3.694665158391212E-2
 1.004915572560000E+10  -3.879646631298915E-1   -2.371139525868098E-1    9.129184386386743E-5    2.190191266126065E-4    2.506652372113452E-5    2.364550526919183E-4   -4.734689400086398E-1   -3.648894619679637E-2
 1.004915904637500E+10  -3.879292298160901E-1   -2.370148090162849E-1    3.954001120229824E-5    2.353663687320370E-4    5.937385440272328E-5    2.514262819727476E-4   -4.735811237660975E-1   -3.635312952021633E-2
 1.004916236715000E+10  -3.881192740963845E-1   -2.367032842537962E-1    5.812709953819796E-5    2.453437618119746E-4    3.436126384113376E-5    2.627870005059613E-4   -4.736299170305744E-1   -3.585461778720524E-2
 1.004916568792500E+10  -3.883447446566871E-1   -2.365453398658087E-1    6.372500927143401E-5    2.848627881356043E-4    4.011969112239243E-5    2.920234463370621E-4   -4.735193216275996E-1   -3.571474781576874E-2
 1.004916900870000E+10  -3.884636694695298E-1   -2.364226987081151E-1    6.708283956857984E-5    2.336975192056159E-4    5.076033561979969E-5    2.810977289808882E-4   -4.735943734868749E-1   -3.537430166836348E-2
 1.004917232947500E+10  -3.884940832134836E-1   -2.361554683697162E-1    2.790671893388286E-5    2.651695009980560E-4    3.300967430747368E-5    2.902251402429526E-4   -4.735314056295696E-1   -3.506486897991927E-2
 1.004917565025000E+10  -3.886148301683836E-1   -2.359376948473019E-1    7.398554395714263E-5    2.913013259500692E-4    5.306080139441643E-5    2.810160799696048E-4   -4.735103821684319E-1   -3.480863751402308E-2
 1.004917897102500E+10  -3.888131868007431E-1   -2.356955200847354E-1    6.713590719339305E-5    2.907870511914181E-4    5.712611152283221E-5    2.985353015028272E-4   -4.736179468152820E-1   -3.429760422353464E-2
 1.004918229180000E+10  -3.888894306321452E-1   -2.356214809065511E-1    7.820489147958663E-5    2.871974677933035E-4    4.774318147924941E-5    3.367929935001966E-4   -4.736407349296554E-1   -3.415320031431352E-2
 1.004918561257500E+10  -3.889643189420747E-1   -2.352840057718826E-1    5.103422754671538E-5    3.302934325046688E-4    4.217272196376904E-5    3.433833436106787E-4   -4.735628182624960E-1   -3.389494400919118E-2
 1.004918893335000E+10  -3.889842038158223E-1   -2.352473346736717E-1    5.041794900340236E-5    3.120874197383945E-4    4.829391544460483E-5    3.434926284762640E-4   -4.733925166586818E-1   -3.352029663794428E-2
 1.004919225412500E+10  -3.891366799288992E-1   -2.350555686238668E-1    5.984876311680323E-5    3.385784879729587E-4    3.970386523536233E-5    3.420547360040810E-4   -4.735359675291117E-1   -3.317840511280536E-2
 1.004919557490000E+10  -3.891654767566731E-1   -2.348066245948884E-1    7.128419146237813E-5    3.567414918984317E-4    2.224814447340951E-5    3.636707921108576E-4   -4.735247574781251E-1   -3.280885218382323E-2
 1.004919889567500E+10  -3.891935464531774E-1   -2.347246376341814E-1    9.472378294624067E-5    3.693294149519367E-4    3.945317753329198E-5    3.530261449057827E-4   -4.734535334966778E-1   -3.251357307772205E-2
 1.004920221645000E+10  -3.894299281405876E-1   -2.344763807129301E-1    6.467543706347212E-5    3.660922412942601E-4    5.398735369213573E-5    3.790838411089087E-4   -4.735627449503930E-1   -3.209201900623685E-2
 1.004920553722500E+10  -3.896409516333007E-1   -2.342298504458653E-1    8.443823484112782E-5    3.753391412625506E-4    3.284313338499160E-5    3.952026031879769E-4   -4.735809566724385E-1   -3.192523592161566E-2
 1.004920885800000E+10  -3.896534376799939E-1   -2.340169698558733E-1    6.121586958091986E-5    3.670354983580700E-4    5.424130959127966E-5    3.999869613276327E-4   -4.734281619793598E-1   -3.155207254627512E-2
 1.004921217877500E+10  -3.897334401442840E-1   -2.337421577701623E-1    5.775943853256753E-5    4.161530860588273E-4    6.143546655870107E-5    4.052240573636767E-4   -4.736037700565091E-1   -3.117972529544187E-2
 1.004921549955000E+10  -3.899234596019585E-1   -2.337169203721804E-1    7.402094616809925E-5    4.120281710742395E-4    1.408483590877841E-5    4.067676255064477E-4   -4.732952055892502E-1   -3.086944288018400E-2
 1.004921882032500E+10  -3.900144906686981E-1   -2.334644630744656E-1    5.678697296665890E-5    4.240626255373136E-4    6.341829158582064E-5    4.222042141309747E-4   -4.733882956068919E-1   -3.051270613909471E-2
 1.004922214110000E+10  -3.899615050970660E-1   -2.331691142284698E-1    5.846563798893976E-5    4.134509484091250E-4    6.067351010019291E-5    4.438998036685571E-4   -4.735231205634445E-1   -3.031514358885632E-2
 1.004922546187500E+10  -3.900809535594507E-1   -2.331544645835471E-1    8.866678682912455E-5    4.484085618998857E-4    6.766559282814029E-5    4.554872752059931E-4   -4.733745484957427E-1   -2.993682174076809E-2
 1.004922878265000E+10  -3.903058019210688E-1   -2.327763424333417E-1    6.692292801806713E-5    4.539841990929167E-4    3.552563405787541E-5    4.384204406564082E-4   -4.732889162645552E-1   -2.971729865221689E-2
 1.004923210342500E+10  -3.902889877501619E-1   -2.326719866324307E-1    7.415801946297452E-5    4.703664964919874E-4    4.313869613759723E-5    4.865561135743620E-4   -4.732289284792242E-1   -2.932529309328293E-2
 1.004923542420000E+10  -3.904257741634554E-1   -2.325197913980637E-1    9.162281578526566E-5    4.809807007278119E-4    5.249886222371456E-5    4.924386098520745E-4   -4.732748361904098E-1   -2.905123377731810E-2
 1.004923874497500E+10  -3.906943149589604E-1   -2.322758099353787E-1    6.814624376234090E-5    5.050285908349207E-4    2.302924985012358E-5    5.126991312404346E-4   -4.732923015129397E-1   -2.863414955968105E-2
 1.004924206575000E+10  -3.906674447230178E-1   -2.320227413562356E-1    9.173556191809654E-5    5.072151274284761E-4    5.084397646367593E-5    5.037285105569259E-4   -4.732875768344927E-1   -2.829828083351796E-2
 1.004924538652500E+10  -3.908401004463101E-1   -2.320601523517569E-1    1.069338343575090E-4    5.322593442803191E-4    6.296273714786956E-5    5.549622460665097E-4   -4.732834389830582E-1   -2.799804830933169E-2
 1.004924870730000E+10  -3.909380652098524E-1   -2.317812393107415E-1    7.404887009399972E-5    5.323779809206300E-4    2.667931673932904E-5    5.489135921292354E-4   -4.733239216868779E-1   -2.767788907381373E-2
 1.004925202807500E+10  -3.911499835297255E-1   -2.317206547109930E-1    7.824978361695353E-5    5.448940010944527E-4    6.499361140542261E-5    5.678458772774723E-4   -4.732789246269337E-1   -2.737216015295346E-2
 1.004925534885000E+10  -3.911802789141074E-1   -2.312988147550445E-1    8.336886574818999E-5    5.555799301292518E-4    5.768632746879221E-5    5.748687860972031E-4   -4.731957778179058E-1   -2.697059755494058E-2
 1.004925866962500E+10  -3.912988896310926E-1   -2.310591867591314E-1    7.944612992909272E-5    5.783522297390473E-4    5.081832899453459E-5    5.733994052438975E-4   -4.731349332188811E-1   -2.645645231222461E-2
 1.004926199040000E+10  -3.914152230540580E-1   -2.309525071776170E-1    1.025236748292449E-4    5.751966854570270E-4    5.146911845282078E-5    6.011398469128346E-4   -4.732402217586769E-1   -2.628869404304331E-2
 1.004926531117500E+10  -3.915052597981539E-1   -2.307994235960276E-1    9.285951850034361E-5    6.006969074738986E-4    6.008835893480460E-5    6.155002879851425E-4   -4.731998552612690E-1   -2.587556711979395E-2
 1.004926863195000E+10  -3.915077636419901E-1   -2.306605384690970E-1    9.789790613885135E-5    6.418828270833628E-4    4.175964254843700E-5    6.320991806023301E-4   -4.732700466256928E-1   -2.549946205091329E-2
 1.004927195272500E+10  -3.917102384467243E-1   -2.304725328506732E-1    9.096684324704602E-5    6.406580429030924E-4    4.885369879791379E-5    6.395760319821131E-4   -4.731175768338599E-1   -2.515166956099943E-2
 1.004927527350000E+10  -3.917833427869433E-1   -2.302400172034421E-1    8.155434081830684E-5    6.430495286674182E-4    6.017012156146187E-5    6.750008783865073E-4   -4.731024366182899E-1   -2.496730564148263E-2
 1.004927859427500E+10  -3.919288736722079E-1   -2.299593195531207E-1    9.887740084322569E-5    6.573757249459643E-4    6.861197974753672E-5    6.764298559810569E-4   -4.730743561771976E-1   -2.449798628543610E-2
 1.004928191505000E+10  -3.918580939301751E-1   -2.298044366610946E-1    1.006588572369657E-4    6.628509130811481E-4    5.817306131290768E-5    6.770164719441417E-4   -4.731000237491327E-1   -2.423147599702448E-2
 1.004928523582500E+10  -3.920837217598181E-1   -2.296619056992276E-1    9.896377065729329E-5    6.737635810922235E-4    8.243268383408528E-5    7.098993354924534E-4   -4.729370958958901E-1   -2.366354129687489E-2
 1.004928855660000E+10  -3.921402911305641E-1   -2.295052326594909E-1    9.429385544979293E-5    7.448782710991864E-4    7.414592611973442E-5    7.153293605529015E-4   -4.729911882354456E-1   -2.330884482639339E-2
 1.004929187737500E+10  -3.922964339493576E-1   -2.292458584013806E-1    1.087236099775635E-4    7.416044907325485E-4    4.814292287672945E-5    7.287458949615021E-4   -4.728516555729542E-1   -2.303782690517334E-2
 1.004929519815000E+10  -3.925056461146712E-1   -2.290569110516172E-1    9.087876456013925E-5    7.495488660391323E-4    5.507163141095114E-5    7.491783207286523E-4   -4.728681365453312E-1   -2.259816295343322E-2
 1.004929851892500E+10  -3.925957315349995E-1   -2.288088175162428E-1    9.282488335943705E-5    7.441132839143236E-4    5.422590675164655E-5    7.665525992224840E-4   -4.728465283466245E-1   -2.232526744987971E-2
 1.004930183970000E+10  -3.926216533706618E-1   -2.286185289252077E-1    9.036469671891407E-5    7.705474259205047E-4    8.146821043631040E-5    7.944579351732176E-4   -4.728307855333268E-1   -2.188759679445026E-2
 1.004930516047500E+10  -3.927275742504770E-1   -2.285092569759556E-1    1.114708650639516E-4    7.621281045241748E-4    5.631098341860786E-5    7.978038659537156E-4   -4.727607296537383E-1   -2.146258241586936E-2
 1.004930848125000E+10  -3.928124994965977E-1   -2.282797652125915E-1    1.195181548807463E-4    8.188799912638273E-4    8.055486691601349E-5    8.296287097690812E-4   -4.727999612794296E-1   -2.108493773372130E-2
 1.004931180202500E+10  -3.929741818233202E-1   -2.279858736035435E-1    9.601112040356391E-5    8.246919516232958E-4    6.945690639223593E-5    8.561180698038290E-4   -4.726988954409823E-1   -2.070218621273257E-2
 1.004931512280000E+10  -3.929204518551869E-1   -2.279088844534401E-1    1.521241113567409E-4    8.399934173292246E-4    6.545353831503812E-5    8.425257845073046E-4   -4.727076290255918E-1   -2.032534928850045E-2
 1.004931844357500E+10  -3.929857681153952E-1   -2.276673330200758E-1    1.129318340462120E-4    8.655178562725516E-4    7.969776978813446E-5    8.603175680490460E-4   -4.726157056863073E-1   -2.013074032865976E-2
 1.004932176435000E+10  -3.932271348390556E-1   -2.276483948263351E-1    1.093630380142205E-4    8.637961595144398E-4    9.714993861310510E-5    8.928086342837477E-4   -4.725997756719433E-1   -1.966618161842915E-2
 1.004932508512500E+10  -3.935461367287672E-1   -2.273116450910047E-1    1.355832150170574E-4    8.868341442816837E-4    9.943736286322896E-5    8.818357560114208E-4   -4.725930130580320E-1   -1.928240014230773E-2
 1.004932840590000E+10  -3.934432488693658E-1   -2.271199893096192E-1    1.262629047909604E-4    9.274866625022242E-4    9.991769409126381E-5    9.164882782788051E-4   -4.725077705262591E-1   -1.890095927744722E-2
 1.004933172667500E+10  -3.935244042070241E-1   -2.268542502646347E-1    1.213450087901805E-4    9.184881306149350E-4    4.643590777266381E-5    9.296119448021108E-4   -4.723283572506103E-1   -1.846649396660088E-2
 1.004933504745000E+10  -3.935765601962277E-1   -2.266034237737415E-1    1.088789711057294E-4    9.540109106270009E-4    7.499330376264230E-5    9.675336213194263E-4   -4.724516401437484E-1   -1.796472505421818E-2
 1.004933836822500E+10  -3.937678781539745E-1   -2.267065852845944E-1    1.375032019668874E-4    9.377957526221607E-4    7.868314795614800E-5    9.688403118278098E-4   -4.724679622894288E-1   -1.780104017107115E-2
 1.004934168900000E+10  -3.938788354257093E-1   -2.263407816274846E-1    1.613500113829660E-4    9.873278418541008E-4    7.735065258844500E-5    9.897241285565701E-4   -4.722817041090910E-1   -1.723616115708402E-2
 1.004934500977500E+10  -3.939513920520164E-1   -2.260566352953024E-1    1.290989571475265E-4    9.626851256291384E-4    8.366011124454301E-5    1.013333111635721E-3   -4.724314147536707E-1   -1.685078144183658E-2
 1.004934833055000E+10  -3.940359673407163E-1   -2.257863964165577E-1    1.663553144532698E-4    9.952369042811647E-4    1.155682688115868E-4    1.050051333584446E-3   -4.723614453865768E-1   -1.641241665773858E-2
 1.004935165132500E+10  -3.942235907286054E-1   -2.257152209048738E-1    1.440446533531211E-4    1.054863955446390E-3    9.013063699617460E-5    1.090146052823079E-3   -4.722955200061880E-1   -1.612344959843791E-2
 1.004935497210000E+10  -3.944295217439487E-1   -2.255227485848730E-1    1.456054750606000E-4    1.086754295338992E-3    9.934685260096397E-5    1.073674588924603E-3   -4.722048776733324E-1   -1.571525600656627E-2
 1.004935829287500E+10  -3.943572118441001E-1   -2.253414833819272E-1    1.354479834762878E-4    1.085768217238143E-3    1.148686366372406E-4    1.100576995567067E-3   -4.719728436684527E-1   -1.523630879227190E-2
 1.004936161365000E+10  -3.947180454088809E-1   -2.251124606689809E-1    1.681728024359279E-4    1.095095151568692E-3    8.663157023784696E-5    1.140500168468870E-3   -4.718095930863073E-1   -1.475193755620034E-2
 1.004936493442500E+10  -3.945511517915921E-1   -2.248167880907690E-1    1.499956197883154E-4    1.119767937923580E-3    8.289010950529074E-5    1.115879371083322E-3   -4.718286951113951E-1   -1.440635770817656E-2
 1.004936825520000E+10  -3.948031037909117E-1   -2.246777946125011E-1    1.598937907603272E-4    1.163382943453439E-3    1.128864491328586E-4    1.131595025360515E-3   -4.717644823734485E-1   -1.390318424193154E-2
 1.004937157597500E+10  -3.946901519784885E-1   -2.247187928699592E-1    1.956288144173713E-4    1.169528539526601E-3    1.249837829320655E-4    1.157705980739500E-3   -4.717882409857029E-1   -1.357295529079088E-2
 1.004937489675000E+10  -3.948872349531602E-1   -2.244239041765991E-1    1.893301592364761E-4    1.182540937285722E-3    7.354129039019710E-5    1.242672805585397E-3   -4.717839892982706E-1   -1.322958280650020E-2
