#  HZ   S   RI   R     50.00 
! Rohde & Schwarz Vector Network Analyzer 
! Rohde-Schwarz,ZNB20-2Port,1311601062101988,3.16
! Created: UTC 3/21/2024, 1:19:25 AM
! freq[Hz]                re:S11                  im:S11                  re:S21                  im:S21                  re:S12                  im:S12                  re:S22                  im:S22
 1.004912707500000E+10  -3.868721259911763E-1   -2.390490267817190E-1    4.492345396106193E-5    1.341319340531244E-4    2.697990613543478E-5    1.335540482816764E-4   -4.736977985738203E-1   -3.966707273572596E-2
 1.004913022340000E+10  -3.869542237399611E-1   -2.387525206430507E-1    7.831425117570434E-5    1.267987672369441E-4    4.380431136601272E-5    1.223219550025671E-4   -4.736383326541896E-1   -3.933646655224596E-2
 1.004913337180000E+10  -3.870412358686758E-1   -2.387036321817249E-1    4.863405100647270E-5    1.431828573739873E-4    6.033166632292057E-5    1.359424820892205E-4   -4.736475818685702E-1   -3.906384204219510E-2
 1.004913652020000E+10  -3.870688942683577E-1   -2.384331099898949E-1    6.679610470286121E-5    1.546063044594917E-4    5.153320837226762E-5    1.113823858933077E-4   -4.734769817131018E-1   -3.884900050493542E-2
 1.004913966860000E+10  -3.872143010466182E-1   -2.382692285020497E-1    6.201213384075627E-5    1.595330617271801E-4    6.009867231916547E-5    1.410518549592457E-4   -4.736247238439498E-1   -3.854853921521963E-2
 1.004914281700000E+10  -3.873222318019081E-1   -2.380851092099068E-1    5.621181627539832E-5    1.443064922507457E-4    6.009200660793162E-5    1.709390663464166E-4   -4.737268235654838E-1   -3.837224118671260E-2
 1.004914596540000E+10  -3.875306298888768E-1   -2.379241379394396E-1    3.655848217479209E-5    1.648884783242712E-4    1.883684812221353E-5    1.679926938856682E-4   -4.736202119776259E-1   -3.789810150885863E-2
 1.004914911380000E+10  -3.876304545595716E-1   -2.377493146603901E-1    4.649778053011730E-5    1.989474692233472E-4    2.990863023837730E-5    1.639069743116547E-4   -4.737523290039344E-1   -3.753843272326968E-2
 1.004915226220000E+10  -3.876687459847188E-1   -2.375809145616392E-1    6.248718526735679E-5    1.964817432285718E-4    3.450456270905993E-5    1.864979791196141E-4   -4.737826736362170E-1   -3.733985714472868E-2
 1.004915541060000E+10  -3.877709159095974E-1   -2.372510914211363E-1    1.652400826881807E-5    1.846135599545840E-4    4.440261786011531E-5    1.648405183288401E-4   -4.736478257873599E-1   -3.712751091536006E-2
 1.004915855900000E+10  -3.878236912562364E-1   -2.372572270442795E-1    6.881374522815424E-5    2.035639531239721E-4    4.363121169236819E-5    1.786495553855359E-4   -4.738335947483777E-1   -3.686850978769206E-2
 1.004916170740000E+10  -3.879075721419353E-1   -2.369455316092226E-1    4.582653395281643E-5    2.076578322025802E-4    3.762079699174525E-5    1.677812223502090E-4   -4.735894866058195E-1   -3.660474276815424E-2
 1.004916485580000E+10  -3.881045946067333E-1   -2.366759531727006E-1    4.781040475784572E-5    1.910728690922942E-4    2.711190923133278E-5    1.973596014484968E-4   -4.737675617114613E-1   -3.629575499514718E-2
 1.004916800420000E+10  -3.882397777374108E-1   -2.365563139580372E-1    3.781719350912394E-5    2.171487171287797E-4    3.303760593636391E-5    2.121740911544797E-4   -4.737258437549365E-1   -3.616452108809245E-2
 1.004917115260000E+10  -3.883575297843720E-1   -2.363761208403219E-1    7.290192259113742E-5    2.166775387921328E-4    8.103663677180050E-6    2.672562670553854E-4   -4.736993878188742E-1   -3.573547994321256E-2
 1.004917430100000E+10  -3.883471915398191E-1   -2.361489215064581E-1    5.264094447352917E-5    2.359208958078444E-4    4.404965580050587E-5    2.367997824595891E-4   -4.736970793162875E-1   -3.540603939254697E-2
 1.004917744940000E+10  -3.885115392934591E-1   -2.360983564320154E-1    6.986818283361648E-5    2.594862562070659E-4    4.561516186410501E-5    2.474407309280002E-4   -4.736657755440458E-1   -3.505321455565389E-2
 1.004918059780000E+10  -3.886916312474889E-1   -2.358549121840827E-1    5.160480754306921E-5    2.536259909692344E-4    5.194515309340734E-5    2.641635344119915E-4   -4.736273480923089E-1   -3.479458983945761E-2
 1.004918374620000E+10  -3.888653808833426E-1   -2.358262412800048E-1    5.795379765542706E-5    2.819655105596677E-4    1.730353067996897E-5    2.718280884621074E-4   -4.736515621666296E-1   -3.449048186684949E-2
 1.004918689460000E+10  -3.887738624527067E-1   -2.355174639338230E-1    6.967010222721950E-5    2.717178521298036E-4    3.835810667317247E-5    2.749726149667906E-4   -4.737738538200417E-1   -3.414264524136314E-2
 1.004919004300000E+10  -3.890325307225242E-1   -2.353446129336715E-1    3.216060049517499E-5    2.735556484171336E-4    5.958285752338304E-5    2.795656551735125E-4   -4.736664997276059E-1   -3.402548743015468E-2
 1.004919319140000E+10  -3.890217488102156E-1   -2.350341683595889E-1    4.080592068002964E-5    2.868671726653420E-4    4.985851063492417E-5    2.661037646217520E-4   -4.736337208470206E-1   -3.381239062567494E-2
 1.004919633980000E+10  -3.891046111671205E-1   -2.350464782293470E-1    5.674789587078046E-5    2.741708627524721E-4    4.439770650507895E-5    3.051910880536860E-4   -4.737087216460087E-1   -3.333937853195897E-2
 1.004919948820000E+10  -3.892431209992048E-1   -2.348695144547169E-1    5.684305101432120E-5    2.886556641438533E-4    5.556146594956628E-5    3.157850955147416E-4   -4.736230590529292E-1   -3.300182100208730E-2
 1.004920263660000E+10  -3.892265951351416E-1   -2.345996927475296E-1    5.372705958795966E-5    3.227319868638352E-4    6.755263179001712E-5    3.293785861887075E-4   -4.737841644661704E-1   -3.261597209371262E-2
 1.004920578500000E+10  -3.894196291377598E-1   -2.344432175304980E-1    5.784521533191218E-5    3.152556087973114E-4    3.481100582922455E-5    3.243079504544317E-4   -4.737126112696569E-1   -3.239264238671016E-2
 1.004920893340000E+10  -3.894899761117978E-1   -2.342221803019094E-1    3.564726691350593E-5    3.437348609879594E-4    4.403131622432065E-5    3.436271111546144E-4   -4.735292608251757E-1   -3.208153248760755E-2
 1.004921208180000E+10  -3.895841345184626E-1   -2.340592285992805E-1    2.890844084925328E-5    3.217352996418754E-4    5.064996519670505E-5    3.771197258651554E-4   -4.736924581203388E-1   -3.179493979571796E-2
 1.004921523020000E+10  -3.896966663369576E-1   -2.338350669989855E-1    6.793413111969259E-5    3.465989821212818E-4    4.061323692958341E-5    3.726232365404744E-4   -4.735859211851553E-1   -3.160363863520260E-2
 1.004921837860000E+10  -3.898441193563820E-1   -2.336425256538005E-1    6.478029316119615E-5    3.658903590675806E-4    2.915698957953690E-5    3.804680942101549E-4   -4.737646559276460E-1   -3.130652004517929E-2
 1.004922152700000E+10  -3.899009824734295E-1   -2.334415681059668E-1    6.108379317620023E-5    3.860731365169277E-4    3.702301490633149E-5    3.707839428890977E-4   -4.736775190997261E-1   -3.094635209548426E-2
 1.004922467540000E+10  -3.901129684757283E-1   -2.332115257732658E-1    5.290021317947070E-5    3.988086474168225E-4    3.007283974739638E-5    3.782088023031965E-4   -4.735495416810943E-1   -3.047644369973492E-2
 1.004922782380000E+10  -3.901258001194325E-1   -2.330174629428064E-1    2.828165057522914E-5    3.715783233931670E-4    3.093775736355402E-5    3.861360521266557E-4   -4.737491351993185E-1   -3.019290988062561E-2
 1.004923097220000E+10  -3.903146649474350E-1   -2.329998235094594E-1    5.363926413394541E-5    4.269819953198166E-4    2.459266689543642E-5    3.911152719665355E-4   -4.735955388159962E-1   -3.001841977301890E-2
 1.004923412060000E+10  -3.903708390853058E-1   -2.328217410549818E-1    9.245474968382068E-5    4.196989845111577E-4    3.205206761205149E-5    4.250662150908183E-4   -4.736182027244609E-1   -2.973554090043786E-2
 1.004923726900000E+10  -3.904426851071519E-1   -2.325745587736849E-1    5.234728071462607E-5    4.331073393744196E-4    2.424447468578692E-5    4.427482137565131E-4   -4.736089884079663E-1   -2.939370777656841E-2
 1.004924041740000E+10  -3.905931362140352E-1   -2.322160909894851E-1    5.708946075774510E-5    4.215539766257742E-4    4.508224339415882E-5    4.545234819842401E-4   -4.736550963146248E-1   -2.903454375931851E-2
 1.004924356580000E+10  -3.907273874852925E-1   -2.322187586626238E-1    5.574305840657402E-5    4.401304764096361E-4    2.607647719237586E-5    4.457835169529234E-4   -4.735193356707912E-1   -2.886459561053232E-2
 1.004924671420000E+10  -3.907053183362706E-1   -2.321415785413380E-1    5.809806995709168E-5    4.487229666589525E-4    2.924592690450984E-5    4.652072122638030E-4   -4.736259603636343E-1   -2.841638136173324E-2
 1.004924986260000E+10  -3.907778982063795E-1   -2.319190765859369E-1    6.063043370944906E-5    4.419138622978687E-4    1.895672823297337E-5    4.874940359825994E-4   -4.735428806891347E-1   -2.818612853864216E-2
 1.004925301100000E+10  -3.910334122918605E-1   -2.316164226028823E-1    8.132661661840790E-5    4.865027622005556E-4    3.256567259495506E-5    4.914986225516418E-4   -4.736213572913152E-1   -2.776781979296610E-2
 1.004925615940000E+10  -3.910039058843692E-1   -2.314885865494327E-1    5.306167510351763E-5    5.037405711129346E-4    2.825090107254892E-5    4.848651197433600E-4   -4.735105961376919E-1   -2.763782065436836E-2
 1.004925930780000E+10  -3.910254578623225E-1   -2.312050907742367E-1    5.780907617745904E-5    5.201252358333255E-4    1.141093095481225E-5    5.219192377078050E-4   -4.735200280500892E-1   -2.725969120138793E-2
 1.004926245620000E+10  -3.912235841316988E-1   -2.311086415936494E-1    6.638004158868602E-5    5.137072198936925E-4    2.932480351922518E-5    5.137385606000421E-4   -4.733800953692804E-1   -2.677795361099756E-2
 1.004926560460000E+10  -3.912818107363593E-1   -2.309105477762830E-1    4.497301659841932E-5    5.370976743959794E-4    3.123173444937966E-5    5.371209130975931E-4   -4.734559819761862E-1   -2.659831155010948E-2
 1.004926875300000E+10  -3.914624392855903E-1   -2.307606845142516E-1    6.516170624578075E-5    5.570988604841258E-4    1.701895564835257E-5    5.579415872393016E-4   -4.735763053090539E-1   -2.617076456956357E-2
 1.004927190140000E+10  -3.915935486877848E-1   -2.305761417317471E-1    7.264195692646472E-5    5.441546332988940E-4    4.665373231571607E-5    5.652086722977414E-4   -4.734442029236365E-1   -2.589263049251856E-2
 1.004927504980000E+10  -3.916864801823823E-1   -2.303704625503080E-1    6.422730423852872E-5    5.645372856571917E-4    3.046778464722803E-5    5.628548046445577E-4   -4.733864144454245E-1   -2.556191566399675E-2
 1.004927819820000E+10  -3.917576033561269E-1   -2.302324546468712E-1    8.543901098053783E-5    5.952596191061731E-4    3.431796160167627E-5    5.856097830981476E-4   -4.734885220304655E-1   -2.524191581937634E-2
 1.004928134660000E+10  -3.918682278843932E-1   -2.300959024068643E-1    9.510365387087174E-5    6.089451849078540E-4    5.324191175101681E-5    5.978240494369433E-4   -4.734416293397481E-1   -2.489497279435488E-2
 1.004928449500000E+10  -3.920235604442905E-1   -2.298873550038850E-1    5.690531006121056E-5    6.092973930319661E-4    1.650913962069748E-6    5.940892656666409E-4   -4.732475818703704E-1   -2.451272288637029E-2
 1.004928764340000E+10  -3.920112414612780E-1   -2.296799329952528E-1    8.163699743105877E-5    6.428483548569140E-4    3.524125339672571E-5    6.298761828397404E-4   -4.733365381577891E-1   -2.435973527680071E-2
 1.004929079180000E+10  -3.922335006813323E-1   -2.295821866554248E-1    8.563453321540725E-5    6.439296391858053E-4    2.403004516327178E-5    6.369642283518069E-4   -4.733304897621733E-1   -2.404952766176222E-2
 1.004929394020000E+10  -3.922590409560343E-1   -2.293717620473699E-1    6.311220275947345E-5    6.805907054256417E-4    2.364478848577539E-5    6.617993759528119E-4   -4.733810906646381E-1   -2.357121178504618E-2
 1.004929708860000E+10  -3.924253403739104E-1   -2.289895931390033E-1    7.614962986775017E-5    6.736889164706807E-4    3.904158566942385E-5    6.622143729221334E-4   -4.732785085386289E-1   -2.324096937526536E-2
 1.004930023700000E+10  -3.924543048410630E-1   -2.289061245058773E-1    8.608505374183875E-5    6.557909276058503E-4    5.398017997300443E-5    6.628149850780861E-4   -4.731739791575417E-1   -2.314320374267213E-2
 1.004930338540000E+10  -3.925998209041465E-1   -2.287847323209458E-1    1.009845994022469E-4    6.934265976600535E-4    4.770338470153758E-5    7.050942656083104E-4   -4.732431042172943E-1   -2.259657029777978E-2
 1.004930653380000E+10  -3.927228448754306E-1   -2.285076017486085E-1    7.241293525030767E-5    6.694044765784789E-4    4.678389131916969E-5    7.181783167904382E-4   -4.732220000622239E-1   -2.224851832127757E-2
 1.004930968220000E+10  -3.929144849280398E-1   -2.283563035301350E-1    9.340141189728026E-5    7.122803184987141E-4    2.170675838617701E-5    7.330368530923691E-4   -4.731696989422004E-1   -2.182753175662386E-2
 1.004931283060000E+10  -3.928260431364510E-1   -2.282570711007755E-1    7.628285293280846E-5    7.329890134204122E-4    5.282685275667443E-5    7.478464048014331E-4   -4.731002614298432E-1   -2.153263795684687E-2
 1.004931597900000E+10  -3.929844222489922E-1   -2.278542398698712E-1    1.024779088341043E-4    7.806619840798101E-4    3.778895377661450E-5    7.486010018361286E-4   -4.730816867634853E-1   -2.118399030371847E-2
 1.004931912740000E+10  -3.929993811630790E-1   -2.277672156543373E-1    8.681734198424365E-5    7.216861329507069E-4    6.863482625850630E-5    7.622901287925863E-4   -4.732168481423003E-1   -2.079845490356859E-2
 1.004932227580000E+10  -3.932351445992195E-1   -2.275337333168697E-1    9.425003419364111E-5    7.769174697811478E-4    5.586787217209443E-5    7.680704492775116E-4   -4.729342431744669E-1   -2.063369248071939E-2
 1.004932542420000E+10  -3.933057141095017E-1   -2.274254537144111E-1    8.407079006875544E-5    7.956021044992532E-4    2.740570736906352E-5    7.934559946971908E-4   -4.729947242024456E-1   -2.010492973831287E-2
 1.004932857260000E+10  -3.932217586800491E-1   -2.271275687535497E-1    9.148998843663684E-5    7.965288891049582E-4    5.873331357679501E-5    8.209311451375950E-4   -4.728871580834351E-1   -1.982165265250702E-2
 1.004933172100000E+10  -3.934880974740513E-1   -2.270509307119855E-1    1.179005527460883E-4    8.129228065112006E-4    4.198909769963761E-5    8.386966010783078E-4   -4.729058079649558E-1   -1.944836838139202E-2
 1.004933486940000E+10  -3.935255280214967E-1   -2.267464587084607E-1    1.220285776058391E-4    8.262524644162175E-4    4.455818054105002E-5    8.659814590092043E-4   -4.729726939883068E-1   -1.905608361793406E-2
 1.004933801780000E+10  -3.936069090124729E-1   -2.266393535707308E-1    9.685946305156607E-5    8.471950277908291E-4    5.131794956439989E-5    8.666837338447682E-4   -4.728346940726858E-1   -1.884958770713068E-2
 1.004934116620000E+10  -3.937541085851334E-1   -2.264821440560775E-1    1.230822351796533E-4    9.034829805475101E-4    5.151445700746365E-5    8.850615871466992E-4   -4.727920830946306E-1   -1.829791300097419E-2
 1.004934431460000E+10  -3.938542157645698E-1   -2.263180210762386E-1    1.015236502867335E-4    8.886694599242566E-4    5.331762026013680E-5    8.730218315467383E-4   -4.727841649234183E-1   -1.787496120475477E-2
 1.004934746300000E+10  -3.940168943420269E-1   -2.262707349785430E-1    1.272238959940484E-4    9.185858662572539E-4    5.465326474613888E-5    9.126707477280277E-4   -4.727459489609275E-1   -1.772716681426266E-2
 1.004935061140000E+10  -3.939618367460257E-1   -2.258522552560119E-1    1.172014540769981E-4    9.448410691908203E-4    2.966568312081237E-5    9.409805659045269E-4   -4.726439240176971E-1   -1.716293247535083E-2
 1.004935375980000E+10  -3.941618065318604E-1   -2.257676546806781E-1    1.260039035634837E-4    9.389677082318220E-4    8.495663070355627E-5    9.729895125818037E-4   -4.726981431066770E-1   -1.674331306375788E-2
 1.004935690820000E+10  -3.943199215124004E-1   -2.255164801094286E-1    9.119042454609019E-5    9.680414882652389E-4    5.046366349892238E-5    9.658590407731247E-4   -4.725453402415202E-1   -1.658170674471527E-2
 1.004936005660000E+10  -3.943408396701146E-1   -2.253854565166790E-1    1.052403841063235E-4    9.962118436884304E-4    4.914653802271953E-5    9.895784695169154E-4   -4.724543138975023E-1   -1.611840313890704E-2
 1.004936320500000E+10  -3.943293078469853E-1   -2.251989618593665E-1    1.143657782638823E-4    1.005303215792496E-3    7.735043935188515E-5    1.005740875722194E-3   -4.724347055031316E-1   -1.580725793236065E-2
 1.004936635340000E+10  -3.946010641628314E-1   -2.249354703503977E-1    1.208697873716756E-4    1.013256375774736E-3    5.374034138780162E-5    1.025679819977195E-3   -4.723953580633398E-1   -1.529710682298636E-2
 1.004936950180000E+10  -3.945451427177704E-1   -2.248089840516505E-1    1.157005453537434E-4    1.050899672765363E-3    5.665826903184177E-5    1.080747353739715E-3   -4.723715481217633E-1   -1.470050728630496E-2
 1.004937265020000E+10  -3.947969262431633E-1   -2.246541177798060E-1    1.055689408203519E-4    1.043963004491452E-3    6.285277388808967E-5    1.067468924520572E-3   -4.724493910314789E-1   -1.453304190918428E-2
 1.004937579860000E+10  -3.948642048540214E-1   -2.245182823476202E-1    1.175056587185431E-4    1.088670948064750E-3    8.514443793632307E-5    1.074596887634116E-3   -4.723485703344517E-1   -1.419019510937959E-2
 1.004937894700000E+10  -3.947910098093980E-1   -2.243491088048261E-1    1.526707287519637E-4    1.101325657178053E-3    5.339063908834535E-5    1.121336755856667E-3   -4.722688966058963E-1   -1.380610796243543E-2
 1.004938209540000E+10  -3.949922821562761E-1   -2.241854363767319E-1    1.342705540462061E-4    1.120706187632274E-3    7.633133084136561E-5    1.122798691087651E-3   -4.721145528784419E-1   -1.342460201548839E-2
 1.004938524380000E+10  -3.953474264355250E-1   -2.238963662550078E-1    1.454790192015946E-4    1.130484317008700E-3    9.483902190724382E-5    1.151533418578337E-3   -4.721290212231057E-1   -1.293888497441321E-2
 1.004938839220000E+10  -3.952400749972653E-1   -2.238174034624952E-1    1.778702277551048E-4    1.133084701382701E-3    9.764582060029386E-5    1.207870794930104E-3   -4.720900312014877E-1   -1.256965450692091E-2
 1.004939154060000E+10  -3.954215595326617E-1   -2.235609542277340E-1    1.654604606849350E-4    1.184507581407618E-3    1.033002113282822E-4    1.174774632672239E-3   -4.720394561336180E-1   -1.201438894375573E-2
 1.004939468900000E+10  -3.955002279115630E-1   -2.234485922327029E-1    1.504648387120836E-4    1.222384402457765E-3    9.729019568533724E-5    1.226335806514654E-3   -4.719301671853905E-1   -1.156094680462185E-2
 1.004939783740000E+10  -3.955377424286166E-1   -2.231230696602945E-1    1.684174617253848E-4    1.236497322339110E-3    8.021386277840957E-5    1.270039522556652E-3   -4.718955764763647E-1   -1.134890595301553E-2
 1.004940098580000E+10  -3.957700520921851E-1   -2.229468448336872E-1    1.559161074234187E-4    1.245179454246490E-3    1.019673906583930E-4    1.306769289800758E-3   -4.717088776379330E-1   -1.086295869392671E-2
 1.004940413420000E+10  -3.957737863748010E-1   -2.228820784675849E-1    1.533565911997810E-4    1.262398916217668E-3    9.030729566561341E-5    1.304134727241465E-3   -4.716670734376999E-1   -1.044490810318061E-2
 1.004940728260000E+10  -3.958106669100800E-1   -2.226996915459273E-1    1.715345173781075E-4    1.315274067243211E-3    1.000482592406204E-4    1.332024921288035E-3   -4.715824909039886E-1   -1.005695659822871E-2
 1.004941043100000E+10  -3.958732990581612E-1   -2.223816006714311E-1    1.735895655946484E-4    1.301844013745670E-3    1.031089386456021E-4    1.346342608396740E-3   -4.715525409391289E-1   -9.430794295843009E-3
