#  HZ   S   RI   R     50.00 
! Rohde & Schwarz Vector Network Analyzer 
! Rohde-Schwarz,ZNB20-2Port,1311601062101988,3.16
! Created: UTC 3/21/2024, 1:20:25 AM
! freq[Hz]                re:S11                  im:S11                  re:S21                  im:S21                  re:S12                  im:S12                  re:S22                  im:S22
 1.004933117600000E+10  -3.929369935048452E-1   -2.279284748860071E-1    2.485081326025274E-5    5.121112505215460E-4   -1.228006006864267E-6    4.883746912927823E-4   -4.740299836302321E-1   -2.301234416796354E-2
 1.004933366537500E+10  -3.930637182923191E-1   -2.278763822006720E-1    1.951484645877683E-5    5.212905294388610E-4    6.818407953223474E-6    4.986119405924613E-4   -4.739679136124047E-1   -2.289764110054804E-2
 1.004933615475000E+10  -3.930706324468584E-1   -2.276582969869878E-1    2.550830282636703E-5    5.046911221055355E-4    1.170412504644697E-5    4.986332166426415E-4   -4.740394342592917E-1   -2.255392267118347E-2
 1.004933864412500E+10  -3.930996639637770E-1   -2.276503661895850E-1    2.882439777050039E-6    5.232211213123463E-4   -3.734360198403133E-5    5.353735191771731E-4   -4.740168579037172E-1   -2.231134502806999E-2
 1.004934113350000E+10  -3.931455695951663E-1   -2.274016172316770E-1    3.613584269632755E-5    5.172810034981323E-4   -4.314674975208847E-6    5.133096843858659E-4   -4.741390216671108E-1   -2.222326071968546E-2
 1.004934362287500E+10  -3.932546033125429E-1   -2.270956547548066E-1    2.530125958043488E-5    5.294763289217882E-4    8.051560429077390E-6    5.343705531191653E-4   -4.739967302619261E-1   -2.186908292596440E-2
 1.004934611225000E+10  -3.934615382342002E-1   -2.270691277386643E-1    2.172004157782771E-5    5.397299809474495E-4   -3.971718849596900E-6    5.924297413608227E-4   -4.739452736504478E-1   -2.149187253104057E-2
 1.004934860162500E+10  -3.932979543914191E-1   -2.268907197422436E-1    1.111814118631558E-5    5.598414236656553E-4   -4.269398263298325E-5    5.785668649000063E-4   -4.739174895337164E-1   -2.123810402714675E-2
 1.004935109100000E+10  -3.935438557002197E-1   -2.267627281517468E-1    2.223592694665626E-5    5.583036559712242E-4   -4.209344683679112E-5    5.866665372178107E-4   -4.738080381273314E-1   -2.103466398667965E-2
 1.004935358037500E+10  -3.936750322046971E-1   -2.266588486420517E-1    1.579310638170862E-5    5.554627766562938E-4    6.367559467145921E-7    5.895706041407191E-4   -4.738602406328307E-1   -2.079775980018034E-2
 1.004935606975000E+10  -3.937750929937793E-1   -2.263811959302898E-1    3.637287957337955E-5    5.846387679448165E-4   -1.624798127141392E-5    6.007517240117794E-4   -4.738723184368511E-1   -2.049232241742325E-2
 1.004935855912500E+10  -3.938072724314308E-1   -2.262717479418553E-1    4.451126454636543E-5    5.962694954249900E-4   -1.483002746029081E-5    6.438712839679186E-4   -4.738923877852020E-1   -2.022842760102396E-2
 1.004936104850000E+10  -3.938300812813304E-1   -2.261557187758873E-1    3.749539791674981E-6    6.025748981889139E-4   -4.939682302802632E-5    6.156076646966688E-4   -4.738576819403705E-1   -1.992716482559381E-2
 1.004936353787500E+10  -3.940122967804515E-1   -2.261311728670614E-1    2.472275801197188E-5    6.144279973646283E-4   -3.039656224504986E-5    6.101893877592335E-4   -4.738622952132974E-1   -1.977077214393280E-2
 1.004936602725000E+10  -3.941014049500806E-1   -2.259220249813191E-1    3.380326381818278E-5    6.144961046310278E-4   -2.908858982742360E-5    6.323226452698704E-4   -4.739105244736779E-1   -1.946961544664179E-2
 1.004936851662500E+10  -3.941959082237963E-1   -2.258955314280063E-1    1.127818149724812E-5    6.711697849222950E-4   -2.057775339917436E-5    6.530663109985564E-4   -4.740442689534107E-1   -1.911362657058254E-2
 1.004937100600000E+10  -3.942935345872823E-1   -2.256330331660992E-1    4.274658853146955E-5    6.490600665932329E-4   -2.970361119994757E-6    6.834900118052103E-4   -4.738119933853110E-1   -1.878207582594990E-2
 1.004937349537500E+10  -3.944630266581241E-1   -2.255256262062938E-1    2.498847378516627E-5    6.770780871859531E-4   -3.663241862702595E-5    6.878764007266735E-4   -4.738119201005112E-1   -1.868083891207269E-2
 1.004937598475000E+10  -3.944430742968690E-1   -2.252006637504061E-1    4.183684018331505E-5    6.800657995132506E-4   -4.063481322040113E-5    6.949948286279310E-4   -4.738039325959833E-1   -1.837001128491785E-2
 1.004937847412500E+10  -3.944594844026418E-1   -2.252306685753894E-1    2.242864242130915E-5    6.968439246648778E-4   -3.179441745110635E-5    7.071291427503374E-4   -4.737493173723289E-1   -1.807741152804894E-2
 1.004938096350000E+10  -3.943581701052084E-1   -2.250079053800880E-1    3.993442306028241E-5    6.771582474752944E-4    1.131188693441508E-5    6.957352433121395E-4   -4.737856041708136E-1   -1.789530995333031E-2
 1.004938345287500E+10  -3.944978311807368E-1   -2.249403466146045E-1    2.316513449367654E-5    7.102226586135041E-4    1.167520292984599E-6    6.981493546841250E-4   -4.737256789124504E-1   -1.754179780520379E-2
 1.004938594225000E+10  -3.946320125361926E-1   -2.245707526088556E-1    2.174050110763092E-5    7.290660908612019E-4   -1.918521952256993E-5    7.273035853925163E-4   -4.737215321400202E-1   -1.732045388351585E-2
 1.004938843162500E+10  -3.947377608985123E-1   -2.245231889019571E-1    3.214771626725939E-5    7.150805246938431E-4   -2.125808937867975E-5    7.670287790131513E-4   -4.736983625560752E-1   -1.695151008723623E-2
 1.004939092100000E+10  -3.947968210566606E-1   -2.244434753108595E-1    3.027446479459049E-5    7.411480044711937E-4   -1.053564518200820E-5    7.663382987047777E-4   -4.737523942618431E-1   -1.678369919967184E-2
 1.004939341037500E+10  -3.948733248325135E-1   -2.242451069041569E-1    3.824849354364250E-5    7.734650305500462E-4   -3.299712608771658E-5    7.561146454149431E-4   -4.737464382521371E-1   -1.632441434003660E-2
 1.004939589975000E+10  -3.949679821672093E-1   -2.241618118764979E-1    2.540297804287559E-5    7.790994760355807E-4   -3.594651906509188E-5    7.840914355040959E-4   -4.737468307890159E-1   -1.613752632561134E-2
 1.004939838912500E+10  -3.951924272272341E-1   -2.240388404593060E-1    3.318230650247870E-5    7.800956137139478E-4   -3.163822849016870E-5    7.600641010725658E-4   -4.737783430276609E-1   -1.591695871341984E-2
 1.004940087850000E+10  -3.951391382761903E-1   -2.239381695045319E-1    5.958878338922931E-5    7.948713688992084E-4    4.612764048467018E-6    8.134990046002665E-4   -4.737439499810663E-1   -1.556984973574343E-2
 1.004940336787500E+10  -3.951781792325023E-1   -2.237032084682171E-1    4.604428460942160E-5    8.039140273045088E-4    1.346583725609767E-5    8.383805799753422E-4   -4.735807908593559E-1   -1.532076043625351E-2
 1.004940585725000E+10  -3.953379697285102E-1   -2.234680812280692E-1    2.127404506097847E-5    8.369944122307209E-4    1.127487919364935E-5    8.459261470746849E-4   -4.736016578576649E-1   -1.490296607187349E-2
 1.004940834662500E+10  -3.954392068658641E-1   -2.233456024632703E-1   -9.987483009115789E-7    8.679772535040438E-4   -2.795791080697839E-6    8.625712630497622E-4   -4.735785692452915E-1   -1.473858261825905E-2
 1.004941083600000E+10  -3.953234776290509E-1   -2.233315843752903E-1    3.694551758063463E-5    8.815607057854730E-4   -1.113427421803095E-5    8.735623676629546E-4   -4.734782668203446E-1   -1.448410466505727E-2
 1.004941332537500E+10  -3.955563514202219E-1   -2.229518018893956E-1    1.826654536141347E-5    8.658231124856504E-4   -1.187292339904532E-5    8.795039666040727E-4   -4.733299597195176E-1   -1.412628978531367E-2
 1.004941581475000E+10  -3.956316716830541E-1   -2.228982656678449E-1    5.204971892907300E-5    8.666003853377091E-4   -1.587941084262306E-6    8.678676351121411E-4   -4.733232794074739E-1   -1.391669069734461E-2
 1.004941830412500E+10  -3.956450426674999E-1   -2.227077446983588E-1    5.015908975636987E-5    9.118063071793013E-4   -3.175656738077624E-5    9.224748895842621E-4   -4.734841059013121E-1   -1.368831668518611E-2
 1.004942079350000E+10  -3.957276333577258E-1   -2.225652830348272E-1    4.202248565055895E-5    8.679711757170739E-4   -3.920762442103421E-5    8.839360153527060E-4   -4.734134549338281E-1   -1.331206051295304E-2
 1.004942328287500E+10  -3.957758025070258E-1   -2.223322805225760E-1    4.023804306766100E-5    9.244337262282361E-4   -8.297092587569016E-6    9.273595870703521E-4   -4.734951487065652E-1   -1.305931226544674E-2
 1.004942577225000E+10  -3.959168199626560E-1   -2.223862975935930E-1    2.662745476095655E-5    9.304498518920661E-4   -2.767694247436837E-5    9.706875171947507E-4   -4.732315069249199E-1   -1.263835278693525E-2
 1.004942826162500E+10  -3.959380732966628E-1   -2.222465500402239E-1    3.561519506878847E-5    9.414804031176519E-4   -1.253245271095071E-5    9.664535256278386E-4   -4.733918765915190E-1   -1.246187699026892E-2
 1.004943075100000E+10  -3.959955796324465E-1   -2.219899722126189E-1    5.928345488948656E-5    9.542544931505385E-4   -2.599014675047820E-5    9.693046581118938E-4   -4.733979770928333E-1   -1.210644516525144E-2
 1.004943324037500E+10  -3.961056265162121E-1   -2.218572455262907E-1    4.869521535093081E-5    9.951640151116428E-4   -1.809234215374391E-5    9.744026502523793E-4   -4.732237129560425E-1   -1.178322453656466E-2
 1.004943572975000E+10  -3.962383766081129E-1   -2.217923777217753E-1    6.737977221287687E-5    9.834606313258037E-4    4.249613865896949E-6    9.698291795071285E-4   -4.733623968592334E-1   -1.165885135539844E-2
 1.004943821912500E+10  -3.961832571518547E-1   -2.216226684274651E-1    5.582347817075907E-5    1.007216271274933E-3   -9.022627342071282E-6    1.009560257807349E-3   -4.732420426797960E-1   -1.130605519814304E-2
 1.004944070850000E+10  -3.964311637604789E-1   -2.214689603183255E-1    7.469087252906891E-5    1.017725071637932E-3   -2.651504657959982E-5    1.028174542538348E-3   -4.732344644539915E-1   -1.093772215751139E-2
 1.004944319787500E+10  -3.964625664909892E-1   -2.213220620240639E-1    3.964976394325979E-5    1.057327863482403E-3   -3.898302602985169E-6    1.035814206982296E-3   -4.730542081038147E-1   -1.063125983545439E-2
 1.004944568725000E+10  -3.965803084506077E-1   -2.210939944203820E-1    5.337170985398721E-5    1.063778884300791E-3   -9.672194494553668E-6    1.032875163491937E-3   -4.731501432670158E-1   -1.022369122359421E-2
 1.004944817662500E+10  -3.965372104178572E-1   -2.209667745196119E-1    6.983457876767643E-5    1.092339578124123E-3   -2.872933707475799E-5    1.083945418398362E-3   -4.732106571772772E-1   -1.006939815502404E-2
 1.004945066600000E+10  -3.966384501427680E-1   -2.209576180504063E-1    6.666409168241877E-5    1.102127772618675E-3    1.177695157140965E-5    1.090352844282223E-3   -4.731661952084539E-1   -9.618992885013897E-3
 1.004945315537500E+10  -3.968169332130485E-1   -2.208619551075292E-1    7.648861808028493E-5    1.075698850188013E-3    1.181154413229995E-5    1.082954870671319E-3   -4.729320051843001E-1   -9.239477325046383E-3
 1.004945564475000E+10  -3.968952763257769E-1   -2.205272467533596E-1    8.048950701564593E-5    1.109770600738410E-3   -2.059782405616479E-5    1.122388448416280E-3   -4.729626250346098E-1   -8.977732163406880E-3
 1.004945813412500E+10  -3.967919061992467E-1   -2.203029761117148E-1    6.830150644918174E-5    1.110723393110850E-3   -2.161617422559965E-5    1.149220819527117E-3   -4.729677571812092E-1   -8.745643625117813E-3
 1.004946062350000E+10  -3.970203550497435E-1   -2.202734853029523E-1    6.349672350155183E-5    1.121357543836945E-3   -3.970232513246489E-5    1.149795767478224E-3   -4.729012542427334E-1   -8.414534385104405E-3
 1.004946311287500E+10  -3.970699273409824E-1   -2.201608427022542E-1    7.656944223723607E-5    1.174461913980898E-3   -1.321946088642556E-5    1.204960658966343E-3   -4.729347227051597E-1   -8.240808430494222E-3
 1.004946560225000E+10  -3.971199258767676E-1   -2.199559362908565E-1    6.473380797595824E-5    1.172708010109204E-3    3.784815146891709E-7    1.201686916896189E-3   -4.728152359290450E-1   -7.804091710377905E-3
 1.004946809162500E+10  -3.971765604032973E-1   -2.199132497003123E-1    7.336855078954870E-5    1.207831592587801E-3   -5.661930085144742E-6    1.200563912403796E-3   -4.728447161618159E-1   -7.340107914051964E-3
 1.004947058100000E+10  -3.973107445935870E-1   -2.196463856412858E-1    6.753062871218801E-5    1.211539320458490E-3    5.961966114507504E-6    1.222840760089038E-3   -4.726564061206355E-1   -7.067497497315101E-3
 1.004947307037500E+10  -3.972891240009921E-1   -2.195738306574542E-1    4.961565085809690E-5    1.236420695712031E-3    1.425799018591381E-6    1.243004570940001E-3   -4.727154700861388E-1   -6.744039202883522E-3
 1.004947555975000E+10  -3.973741883328766E-1   -2.193507805412655E-1    7.339441257324908E-5    1.248987104616383E-3    4.823100003397633E-6    1.264394793355386E-3   -4.725415605745139E-1   -6.170374258557798E-3
 1.004947804912500E+10  -3.975154249030199E-1   -2.191502498151496E-1    7.904301905112530E-5    1.265352709289698E-3    5.460590758269640E-6    1.286011307405467E-3   -4.725056896430101E-1   -6.099562859297900E-3
 1.004948053850000E+10  -3.976487203216135E-1   -2.189482838217994E-1    1.141585693591444E-4    1.305865159647324E-3    1.147170942742018E-6    1.312981978160670E-3   -4.725454032630780E-1   -5.712876927496680E-3
 1.004948302787500E+10  -3.975880962754333E-1   -2.189076612162928E-1    9.120668943801301E-5    1.301844025783341E-3    1.995336940860733E-5    1.342448841639765E-3   -4.725850057016721E-1   -5.382218433231357E-3
 1.004948551725000E+10  -3.976392963336238E-1   -2.187828780534973E-1    7.211495265057672E-5    1.356524509900931E-3   -1.839355752444622E-5    1.376967304103519E-3   -4.725034942153708E-1   -4.875253393900894E-3
 1.004948800662500E+10  -3.978140107349391E-1   -2.185974002293646E-1    9.149149350973695E-5    1.354985802909821E-3    4.014557463394974E-5    1.377895543606880E-3   -4.724902121732932E-1   -4.787198892729689E-3
 1.004949049600000E+10  -3.978545852895910E-1   -2.184519456237005E-1    9.421814298397373E-5    1.391085710896014E-3   -2.212911430704324E-5    1.395609263075061E-3   -4.724856402538050E-1   -4.333188955492724E-3
 1.004949298537500E+10  -3.979077632602404E-1   -2.183296909464604E-1    8.611562759943494E-5    1.387345965129916E-3    8.856017420588123E-8    1.408246195509262E-3   -4.722244089569385E-1   -4.090951061221084E-3
 1.004949547475000E+10  -3.979230086460982E-1   -2.182370512762775E-1    1.068217174132437E-4    1.420241083126151E-3   -1.704243983610611E-5    1.402375520003761E-3   -4.721982139068935E-1   -3.584581207527300E-3
 1.004949796412500E+10  -3.981445158773464E-1   -2.181066784748003E-1    8.278774317764106E-5    1.437822950102297E-3    1.251549494313587E-5    1.437789490233545E-3   -4.722351289796282E-1   -3.346145684418676E-3
 1.004950045350000E+10  -3.981662818739183E-1   -2.179395034234745E-1    1.202318816090802E-4    1.437844703465946E-3    1.144804633933781E-5    1.461091576406871E-3   -4.720174664047579E-1   -3.037923964441471E-3
 1.004950294287500E+10  -3.983050941508806E-1   -2.176991983729824E-1    9.534036456873119E-5    1.495914156763147E-3    9.139640815224591E-6    1.459054499145896E-3   -4.720473533740182E-1   -2.624892351847636E-3
 1.004950543225000E+10  -3.982754293018965E-1   -2.175250003164665E-1    1.209213380507490E-4    1.481897057533712E-3    2.655986031693892E-6    1.504711088582132E-3   -4.720530765387371E-1   -2.259705358529649E-3
 1.004950792162500E+10  -3.983982610318975E-1   -2.175063097191637E-1    1.142608739811456E-4    1.530976868886415E-3    1.974546016717892E-5    1.544080653347556E-3   -4.719975593126476E-1   -1.761606326261536E-3
 1.004951041100000E+10  -3.985314306798878E-1   -2.172776481911444E-1    1.267670718615046E-4    1.557864413219117E-3    2.562116159945445E-5    1.549096254934065E-3   -4.718363415249042E-1   -1.472910300154895E-3
 1.004951290037500E+10  -3.986248903353142E-1   -2.171838307259833E-1    1.184902774757235E-4    1.551898173226045E-3    3.105118722321052E-5    1.563152795526779E-3   -4.718179923211751E-1   -1.178952115739127E-3
 1.004951538975000E+10  -3.985893475432314E-1   -2.170837096667108E-1    1.391304941809590E-4    1.595254765314019E-3    2.936327707017766E-5    1.593641181873645E-3   -4.717668349908397E-1   -7.027245103405014E-4
 1.004951787912500E+10  -3.987275088764008E-1   -2.168538004024614E-1    1.118614732277843E-4    1.605928530791991E-3    3.914099018822313E-5    1.610859532709312E-3   -4.716168197733576E-1   -4.103608727634259E-4
 1.004952036850000E+10  -3.988637960565970E-1   -2.168060360944323E-1    1.174239754470047E-4    1.599067879259339E-3    2.234811809881549E-5    1.623551565157760E-3   -4.717244292659971E-1    6.741362046392126E-5
 1.004952285787500E+10  -3.987967296789907E-1   -2.165518326537679E-1    1.493839482392111E-4    1.662079769673572E-3    3.868191554463293E-5    1.655401583863454E-3   -4.715900958680014E-1    5.919597946986900E-4
 1.004952534725000E+10  -3.990031442227839E-1   -2.162701209222262E-1    1.337103387922088E-4    1.670732785672463E-3    4.870456986433858E-5    1.701993587037874E-3   -4.714342835627038E-1    8.501765512328544E-4
 1.004952783662500E+10  -3.990260193886447E-1   -2.162914427538621E-1    1.415520347458197E-4    1.722932156575740E-3    5.454280020545236E-5    1.727988276302178E-3   -4.714265087932280E-1    1.212561041986924E-3
 1.004953032600000E+10  -3.991405843409513E-1   -2.160182095753355E-1    1.712956419725150E-4    1.741615985508574E-3    4.887594803278886E-5    1.744432844140569E-3   -4.712167489667720E-1    1.775769265718617E-3
 1.004953281537500E+10  -3.992094539811028E-1   -2.160415916140406E-1    1.915378286490733E-4    1.804410922872734E-3    5.249073704185818E-5    1.754208361892647E-3   -4.711707071729889E-1    2.016505138664039E-3
 1.004953530475000E+10  -3.992741255574121E-1   -2.159230429796704E-1    1.442703341624850E-4    1.783350972956545E-3    6.853149408771699E-5    1.802617648815538E-3   -4.711941261815872E-1    2.522764637928882E-3
 1.004953779412500E+10  -3.992724078070616E-1   -2.156421689893300E-1    1.784656633436849E-4    1.790627365281454E-3    5.055906764463991E-5    1.815639852039608E-3   -4.711095319529665E-1    2.959835820249363E-3
 1.004954028350000E+10  -3.994458031262014E-1   -2.154347689878524E-1    1.790546710114899E-4    1.851193822536762E-3    5.337286774879116E-5    1.865008194557904E-3   -4.708602314786438E-1    3.165832683670262E-3
 1.004954277287500E+10  -3.994645115134309E-1   -2.153277470675395E-1    1.502846436974860E-4    1.838680080025317E-3    5.381235774515967E-5    1.882515540088207E-3   -4.708895313758412E-1    3.777399914737741E-3
 1.004954526225000E+10  -3.994808576628524E-1   -2.152736578230869E-1    1.769672912854708E-4    1.898542369002666E-3    7.579834658764077E-5    1.888265296859279E-3   -4.707058084800913E-1    4.170007095093183E-3
 1.004954775162500E+10  -3.995317988154607E-1   -2.150312531613921E-1    1.999394183749899E-4    1.919480878702563E-3    9.307946023829838E-5    1.956273206280824E-3   -4.707386404930346E-1    4.514335924744023E-3
 1.004955024100000E+10  -3.996883007916315E-1   -2.147469585172342E-1    2.161370878093044E-4    1.948902350662991E-3    7.883526017123677E-5    1.946499543229301E-3   -4.706858443632801E-1    4.996805864858110E-3
 1.004955273037500E+10  -3.997831953335004E-1   -2.148783230542474E-1    1.795902912231182E-4    1.994002227293837E-3    1.148540274595865E-4    1.999275229198824E-3   -4.705633847098467E-1    5.367538478633892E-3
 1.004955521975000E+10  -3.997709586120464E-1   -2.146259462216487E-1    2.236731355124309E-4    2.003646525872221E-3    6.482567200945944E-5    2.027706147310188E-3   -4.704553961836600E-1    5.788756043656291E-3
