#  HZ   S   RI   R     50.00 
! Rohde & Schwarz Vector Network Analyzer 
! Rohde-Schwarz,ZNB20-2Port,1311601062101988,3.16
! Created: UTC 3/21/2024, 1:21:37 AM
! freq[Hz]                re:S11                  im:S11                  re:S21                  im:S21                  re:S12                  im:S12                  re:S22                  im:S22
 1.004924628900000E+10  -3.899123029513957E-1   -2.334351897595820E-1    5.968894336244375E-5    2.382306883525765E-4    4.231418330143713E-5    2.560156461693574E-4   -4.736910471678121E-1   -3.114047039015222E-2
 1.004924921760000E+10  -3.899365798423332E-1   -2.333295959704381E-1    4.837286913371845E-5    2.428457009335783E-4    5.558282050258352E-5    2.675957903754857E-4   -4.735495579764171E-1   -3.086910867763955E-2
 1.004925214620000E+10  -3.898994296060027E-1   -2.331744796632345E-1    4.605558394824098E-5    2.684906724844465E-4    4.567025998549602E-5    2.675955319232620E-4   -4.735876287886264E-1   -3.075546101869925E-2
 1.004925507480000E+10  -3.901294437869939E-1   -2.328806705491107E-1    7.251304177319519E-5    2.756788541303278E-4    4.293814836185903E-5    2.982642225444425E-4   -4.735757401419233E-1   -3.016446281450885E-2
 1.004925800340000E+10  -3.901531170483062E-1   -2.327092487367542E-1    4.228779800569025E-5    3.167214728089664E-4    5.431917088269351E-5    2.705233072300748E-4   -4.735778469184943E-1   -3.020257960481213E-2
 1.004926093200000E+10  -3.903806753862720E-1   -2.325684544123812E-1    5.659146133547141E-5    2.783984089940246E-4    4.402609537772481E-5    2.967593245047946E-4   -4.735479487801456E-1   -2.979634035985187E-2
 1.004926386060000E+10  -3.904512595739882E-1   -2.324943864107860E-1    2.811875292381230E-5    3.021586441519593E-4    3.410826042431695E-5    2.839982600714282E-4   -4.735137211840999E-1   -2.948398580416541E-2
 1.004926678920000E+10  -3.905116865392706E-1   -2.323377800566713E-1    3.287442894357104E-5    3.245455936507633E-4    3.079295071608382E-5    3.380710218430136E-4   -4.736734004512798E-1   -2.913578646287753E-2
 1.004926971780000E+10  -3.905691459471753E-1   -2.320740516041313E-1    6.182078521631851E-5    3.050519029607674E-4    3.511241916983781E-5    3.173422915298425E-4   -4.736119695821409E-1   -2.914359568893435E-2
 1.004927264640000E+10  -3.907109173344088E-1   -2.318599420536726E-1    7.098870270061350E-5    3.324190408698430E-4    2.164221686958081E-5    3.382325820585264E-4   -4.736211125872158E-1   -2.874087475318346E-2
 1.004927557500000E+10  -3.907237931953625E-1   -2.318155896229384E-1    6.905003504235188E-5    3.513409017675760E-4    5.168016629174817E-5    3.193858484856773E-4   -4.735527913588110E-1   -2.845338579024416E-2
 1.004927850360000E+10  -3.908577697988593E-1   -2.316512799262915E-1    6.062009540696989E-5    3.287770185563173E-4    5.551064223583217E-6    3.398617055593841E-4   -4.735227399902682E-1   -2.816625639399253E-2
 1.004928143220000E+10  -3.910411757096333E-1   -2.313225907037067E-1    7.397021328421254E-5    3.475990486317462E-4    2.435382830386970E-5    3.691529877316931E-4   -4.734232858376320E-1   -2.795212825612866E-2
 1.004928436080000E+10  -3.910134520179682E-1   -2.311804518085604E-1    6.369858539547829E-5    3.570719127250800E-4    3.402586111138363E-5    3.643889141763268E-4   -4.734980935927639E-1   -2.761875202555403E-2
 1.004928728940000E+10  -3.912616469113173E-1   -2.309217883112865E-1    8.123657324885997E-5    3.941122742799623E-4    5.696562131503750E-5    3.744515506762680E-4   -4.735818486272396E-1   -2.736321314512959E-2
 1.004929021800000E+10  -3.911551640035260E-1   -2.308187303400334E-1    5.393930124609164E-5    3.689833400603258E-4    4.433282008006464E-5    3.635488273447451E-4   -4.735847323090305E-1   -2.709115335143941E-2
 1.004929314660000E+10  -3.913547319090542E-1   -2.306610975938052E-1    4.382802453205946E-5    3.944521777314360E-4    5.683567673505714E-5    4.180458207861513E-4   -4.734882714819984E-1   -2.677438682941265E-2
 1.004929607520000E+10  -3.913054891033890E-1   -2.305887775529895E-1    5.534595995733214E-5    3.918591234750547E-4    3.369875492137390E-5    4.046120042796274E-4   -4.733961191720919E-1   -2.629324513666900E-2
 1.004929900380000E+10  -3.915535980241492E-1   -2.303221744177052E-1    4.762809534897899E-5    4.109767966278953E-4    5.865970318965732E-5    4.340945876419766E-4   -4.735937486752200E-1   -2.616563351814720E-2
 1.004930193240000E+10  -3.915990859404135E-1   -2.302164868925230E-1    5.604371391524375E-5    4.295270523824744E-4    2.666631290583844E-5    4.237402924815892E-4   -4.736295610471543E-1   -2.599253806568522E-2
 1.004930486100000E+10  -3.916634004508319E-1   -2.300430763624431E-1    6.508857203394822E-5    4.023139118655584E-4    3.358156625154247E-5    4.267025285127525E-4   -4.735485889239495E-1   -2.555953885467025E-2
 1.004930778960000E+10  -3.918106042488265E-1   -2.298256450402162E-1    6.284787474196529E-5    4.393059650071586E-4    2.911226826233857E-5    4.720222082981077E-4   -4.734612088018892E-1   -2.526259856803413E-2
 1.004931071820000E+10  -3.919301735133574E-1   -2.296757271092576E-1    7.556345099757222E-5    4.396352441272089E-4    2.312517664074673E-5    4.576636868971170E-4   -4.734394719969623E-1   -2.497793550499349E-2
 1.004931364680000E+10  -3.919956281113437E-1   -2.294370602666402E-1    5.871986034631188E-5    4.636390209675572E-4    2.201118240243431E-5    4.790061276579255E-4   -4.735217559204759E-1   -2.475169870636531E-2
 1.004931657540000E+10  -3.921159930444998E-1   -2.292894072455657E-1    7.034300650817504E-5    4.919700651920219E-4    1.422387277331649E-5    4.924162702098122E-4   -4.733545160439226E-1   -2.428781600004904E-2
 1.004931950400000E+10  -3.921839484584863E-1   -2.292043551643854E-1    7.376805392170804E-5    4.741786026624200E-4    3.766152017035852E-5    4.840892080466839E-4   -4.734353937352232E-1   -2.413528840957344E-2
 1.004932243260000E+10  -3.922287109862669E-1   -2.289225700953563E-1    4.634940223876719E-5    4.834850989755813E-4    3.852921192843414E-5    4.711587409137491E-4   -4.733696515575965E-1   -2.387923192892262E-2
 1.004932536120000E+10  -3.923199295988986E-1   -2.288077875607160E-1    8.142156917572533E-5    5.127323303269461E-4    6.597688655431704E-5    5.245310410176071E-4   -4.735037731642131E-1   -2.341807942100114E-2
 1.004932828980000E+10  -3.923766683255763E-1   -2.286614086958053E-1    3.262833450970071E-5    4.868031951792126E-4    9.158176839850519E-6    5.209134698780871E-4   -4.732932467415535E-1   -2.332840218974765E-2
 1.004933121840000E+10  -3.926237154026590E-1   -2.285209622028997E-1    6.809780537257563E-5    5.189700515880202E-4    3.744654304233200E-5    5.383030743961996E-4   -4.732549398824125E-1   -2.286523920885255E-2
 1.004933414700000E+10  -3.927066350484194E-1   -2.284290390378581E-1    8.808098216250455E-5    5.636881471045570E-4    8.842297447305587E-6    5.380413529997915E-4   -4.732856203310462E-1   -2.266653526742669E-2
 1.004933707560000E+10  -3.927685936668099E-1   -2.281452096270624E-1    4.654933327572792E-5    5.628805444924532E-4    6.842997423770360E-5    5.328345851627145E-4   -4.732404013919959E-1   -2.228271439116036E-2
 1.004934000420000E+10  -3.928099875217745E-1   -2.281230162117988E-1    8.051415270430066E-5    5.541334724696226E-4    7.849838416091260E-5    5.765111342804208E-4   -4.732210644329719E-1   -2.192424275464298E-2
 1.004934293280000E+10  -3.929715415991481E-1   -2.277468301520187E-1    6.941107501512729E-5    5.691176708080184E-4    5.273730397417024E-5    5.864565252122280E-4   -4.731698425993210E-1   -2.166901231530478E-2
 1.004934586140000E+10  -3.929659147014278E-1   -2.274984522461464E-1    7.582803400704273E-5    5.841007208058930E-4    2.959906331225046E-5    6.052314294767649E-4   -4.734065559001251E-1   -2.138332461744704E-2
 1.004934879000000E+10  -3.930967851344179E-1   -2.274328387328601E-1    7.305409129712049E-5    5.878309710884316E-4    3.937444909715626E-5    6.130301522212417E-4   -4.731836755706618E-1   -2.119331943128118E-2
 1.004935171860000E+10  -3.931792115042013E-1   -2.272735096387336E-1    8.626901389775474E-5    5.982045025557472E-4    4.847110486052556E-5    6.281642607930686E-4   -4.730706714681085E-1   -2.075427574349542E-2
 1.004935464720000E+10  -3.931437565501150E-1   -2.270792058224504E-1    8.940304549305398E-5    6.363339337080309E-4    2.498796830287491E-5    6.312889013921934E-4   -4.731529101340436E-1   -2.033189455656581E-2
 1.004935757580000E+10  -3.932267272313597E-1   -2.269185139786561E-1    7.313818885364025E-5    6.607231222282812E-4    4.527658268803078E-5    6.311463428245056E-4   -4.731831591914483E-1   -2.018199367023701E-2
 1.004936050440000E+10  -3.933935452945009E-1   -2.266983570943349E-1    1.118424292103822E-4    6.674545233549150E-4    7.223729363553417E-5    6.865455008760118E-4   -4.730838800501740E-1   -1.979318829300652E-2
 1.004936343300000E+10  -3.936119012420094E-1   -2.266089253595975E-1    7.290168368018463E-5    6.394047031689720E-4    4.145170122585958E-5    7.043379972979780E-4   -4.730846189929563E-1   -1.964950815264522E-2
 1.004936636160000E+10  -3.936303068803516E-1   -2.264050318856718E-1    7.958948237613356E-5    6.551352864732537E-4    5.200733630946826E-5    6.829266443833958E-4   -4.731021036277451E-1   -1.929254675999739E-2
 1.004936929020000E+10  -3.937232337382273E-1   -2.261440392194349E-1    8.163797415446584E-5    6.864182180432621E-4    5.230529937473513E-5    6.918376782353323E-4   -4.729850566643572E-1   -1.912251615248478E-2
 1.004937221880000E+10  -3.938059390714214E-1   -2.260433480393791E-1    7.636345245383887E-5    7.404628921838162E-4    5.883536779300236E-5    7.290476049209486E-4   -4.729911759582229E-1   -1.857112668274081E-2
 1.004937514740000E+10  -3.939390380761572E-1   -2.258535715888095E-1    9.299051202616145E-5    7.062176086906289E-4    5.695714210795003E-5    7.451768079862753E-4   -4.728952404802482E-1   -1.830690638261158E-2
 1.004937807600000E+10  -3.940139006458321E-1   -2.256109379273675E-1    1.027973046054867E-4    7.217777686419202E-4    3.543567791109335E-5    7.334391095009927E-4   -4.729131518506588E-1   -1.793392103682600E-2
 1.004938100460000E+10  -3.940826152203147E-1   -2.254976170035587E-1    8.683918527013466E-5    7.450246219237395E-4    6.790475702232623E-5    7.593546989317424E-4   -4.727816277288674E-1   -1.762588150996011E-2
 1.004938393320000E+10  -3.941953341527921E-1   -2.254061185460029E-1    1.034304176591614E-4    7.440122619551881E-4    7.060369147925346E-5    7.614838911488611E-4   -4.728225340396603E-1   -1.728341830533370E-2
 1.004938686180000E+10  -3.942812132107800E-1   -2.251385369040338E-1    1.178004376963932E-4    7.375791352066140E-4    4.807130633996004E-5    7.520921689056398E-4   -4.728870085379175E-1   -1.702612422784614E-2
 1.004938979040000E+10  -3.943724451229037E-1   -2.249830145824181E-1    1.162432417762505E-4    7.640256950913438E-4    6.972845802909743E-5    8.049775912530961E-4   -4.727360166873588E-1   -1.667199446694314E-2
 1.004939271900000E+10  -3.945118344299001E-1   -2.248358007944493E-1    1.020381800048637E-4    7.665331923540778E-4    7.015687137313035E-5    7.854279491771526E-4   -4.727943128886418E-1   -1.646437131772320E-2
 1.004939564760000E+10  -3.945641712723093E-1   -2.246644252420561E-1    1.125738350560170E-4    8.400352006042779E-4    7.042071989187102E-5    7.995055024676083E-4   -4.728067597715678E-1   -1.589472865075238E-2
 1.004939857620000E+10  -3.946105455682118E-1   -2.245282196178174E-1    9.428974062262770E-5    8.198790048775824E-4    4.509281374584308E-5    8.518902186782782E-4   -4.727699255138825E-1   -1.569338512468696E-2
 1.004940150480000E+10  -3.947305889577484E-1   -2.242460522781733E-1    1.043011792876905E-4    8.514695475563649E-4    5.601027903011018E-5    8.668190560692030E-4   -4.724997795975365E-1   -1.527951725146608E-2
 1.004940443340000E+10  -3.948845117642492E-1   -2.242504782603933E-1    9.718686125590173E-5    8.638781294654579E-4    7.833207582674356E-5    8.549254117815453E-4   -4.726810943156150E-1   -1.505193229638466E-2
 1.004940736200000E+10  -3.949052597822417E-1   -2.238648597976147E-1    9.052153456846108E-5    8.666162145994414E-4    5.597032302186604E-5    8.702158872847405E-4   -4.726078331596860E-1   -1.466862634054660E-2
 1.004941029060000E+10  -3.951111789679780E-1   -2.237920161124455E-1    1.215021712702531E-4    9.081927028853902E-4    5.129774868020283E-5    9.047657844909479E-4   -4.725407431353142E-1   -1.438046366689261E-2
 1.004941321920000E+10  -3.951101888246810E-1   -2.236958789895930E-1    1.319281598861495E-4    9.066536600986003E-4    9.314199522965564E-5    9.192829917948687E-4   -4.725694772173893E-1   -1.389872690506240E-2
 1.004941614780000E+10  -3.952412121195913E-1   -2.234023394927705E-1    1.263010914785023E-4    9.296313062306541E-4    5.748195270713317E-5    9.278645592009483E-4   -4.725000937115714E-1   -1.365571213708013E-2
 1.004941907640000E+10  -3.952325509748528E-1   -2.233177388325150E-1    1.390255544260115E-4    9.467220987857091E-4    8.508332177572495E-5    9.625887821076669E-4   -4.723777074887545E-1   -1.321128387103899E-2
 1.004942200500000E+10  -3.953674461916470E-1   -2.231287861118884E-1    1.045597768133823E-4    9.571791033190824E-4    4.438612725684718E-5    9.781852640396236E-4   -4.723882063111357E-1   -1.285792754483744E-2
 1.004942493360000E+10  -3.954142888194331E-1   -2.229642109664272E-1    1.239441373142397E-4    9.760142936412015E-4    7.839009017309231E-5    9.947438450824807E-4   -4.724052221992480E-1   -1.250155916061639E-2
 1.004942786220000E+10  -3.956261322109473E-1   -2.226440616899091E-1    1.106844474951905E-4    9.716300594093734E-4    5.907162244330737E-5    1.012473231869020E-3   -4.722252213009118E-1   -1.227659511469565E-2
 1.004943079080000E+10  -3.955654687957159E-1   -2.226287557846409E-1    1.233030230460194E-4    1.013217316146622E-3    6.213622339637933E-5    9.962658892139157E-4   -4.722335166297364E-1   -1.186182545671083E-2
 1.004943371940000E+10  -3.957269975913887E-1   -2.224426832569664E-1    1.350079928404157E-4    1.018759823377700E-3    9.875007239819771E-5    1.047933068147873E-3   -4.721953390930012E-1   -1.150295301036540E-2
 1.004943664800000E+10  -3.958621404480067E-1   -2.221696089260387E-1    1.320480085574554E-4    1.045968136113210E-3    8.412903087085848E-5    1.068198164262074E-3   -4.721765434044708E-1   -1.115640319141228E-2
 1.004943957660000E+10  -3.959491341258259E-1   -2.220720812321148E-1    1.259504670270194E-4    1.055526448379656E-3    4.370931823492343E-5    1.083094488194024E-3   -4.720285651453747E-1   -1.065661830105767E-2
 1.004944250520000E+10  -3.959594447392301E-1   -2.218259049363777E-1    1.515084434862509E-4    1.083405423863372E-3    1.027497197881704E-4    1.095631345941386E-3   -4.721445079478897E-1   -1.042816328354603E-2
 1.004944543380000E+10  -3.960647948305168E-1   -2.217975108597352E-1    1.575921741279837E-4    1.100355863026946E-3    7.465096199105164E-5    1.129990278599011E-3   -4.719752902967243E-1   -9.972237099103089E-3
 1.004944836240000E+10  -3.961510442045524E-1   -2.216450190671096E-1    1.420734449666935E-4    1.122323252257645E-3    6.355381418049519E-5    1.149133011406761E-3   -4.718636513080511E-1   -9.531138527213942E-3
 1.004945129100000E+10  -3.962880389115374E-1   -2.213849762123706E-1    1.513783389136090E-4    1.111407081037667E-3    7.819197888926177E-5    1.114290913629032E-3   -4.717888315828590E-1   -9.413188693826732E-3
 1.004945421960000E+10  -3.963499980118035E-1   -2.212391795641287E-1    1.603924377887918E-4    1.157817299988840E-3    1.028352448095333E-4    1.175856617912659E-3   -4.718055782467613E-1   -8.906832283936190E-3
 1.004945714820000E+10  -3.965129414192564E-1   -2.209664840101158E-1    1.636801493497632E-4    1.183714845949694E-3    8.256059048662835E-5    1.181328267795562E-3   -4.718653216750596E-1   -8.495241504890925E-3
 1.004946007680000E+10  -3.965803311516950E-1   -2.208377465604160E-1    1.374940811416358E-4    1.205867744628330E-3    1.028291921326297E-4    1.205377036667930E-3   -4.716895290965522E-1   -8.074769446596122E-3
 1.004946300540000E+10  -3.965494022990189E-1   -2.207153858712019E-1    1.376803309199614E-4    1.213313203735608E-3    8.439067323262236E-5    1.245741319284659E-3   -4.716079170155862E-1   -7.720594376089867E-3
 1.004946593400000E+10  -3.967120874193844E-1   -2.205628533674004E-1    1.837273288254140E-4    1.246617072452893E-3    1.137706568806830E-4    1.282372776740442E-3   -4.715329042731931E-1   -7.232312882796498E-3
 1.004946886260000E+10  -3.968208171092188E-1   -2.204345774368128E-1    1.766891349478165E-4    1.251445607210208E-3    1.076279017050488E-4    1.289087157507455E-3   -4.714996743103828E-1   -6.939391666261092E-3
 1.004947179120000E+10  -3.968866231174201E-1   -2.202697549178612E-1    1.745077978739217E-4    1.301927334472318E-3    1.282661649866626E-4    1.292753746149417E-3   -4.714053262252492E-1   -6.614970531150328E-3
 1.004947471980000E+10  -3.969875191575403E-1   -2.199944104104233E-1    2.094003215348834E-4    1.304588297504269E-3    9.806209413861643E-5    1.334211638493087E-3   -4.713362094743955E-1   -6.041411937938328E-3
 1.004947764840000E+10  -3.970486603786663E-1   -2.198105155332603E-1    1.863538558832244E-4    1.327089703317322E-3    1.194889865501933E-4    1.330846035140806E-3   -4.711689274915473E-1   -5.858798854764764E-3
 1.004948057700000E+10  -3.971571026785860E-1   -2.195524791298085E-1    2.130030029326990E-4    1.377980277152272E-3    1.041823076420032E-4    1.392410786601025E-3   -4.709742841718788E-1   -5.480925633077620E-3
 1.004948350560000E+10  -3.972321975150233E-1   -2.195509958406710E-1    1.835372223009761E-4    1.385938762345680E-3    9.637547059913651E-5    1.397891491463608E-3   -4.712212610136264E-1   -5.015241203650086E-3
 1.004948643420000E+10  -3.974047446751335E-1   -2.192325339728835E-1    2.039737686677647E-4    1.399082307544165E-3    1.320560742762925E-4    1.422966468526053E-3   -4.711130785915603E-1   -4.453003220323937E-3
 1.004948936280000E+10  -3.974111022090216E-1   -2.191092868239795E-1    2.258832600289167E-4    1.426974483467580E-3    1.206573483794221E-4    1.426179538625507E-3   -4.709700185465755E-1   -4.103210015524742E-3
 1.004949229140000E+10  -3.973308636393411E-1   -2.190047694718863E-1    2.201729387698715E-4    1.415260172958530E-3    1.146443930439642E-4    1.464398024019724E-3   -4.707213874845514E-1   -3.752103490868605E-3
 1.004949522000000E+10  -3.976117263957133E-1   -2.187589349542397E-1    2.291893239003048E-4    1.480847545965882E-3    1.197371755820909E-4    1.477062823411315E-3   -4.706707917889734E-1   -3.394576998567190E-3
 1.004949814860000E+10  -3.977499330516034E-1   -2.186014022236294E-1    2.421929023392332E-4    1.488804187333222E-3    1.399182793595181E-4    1.512536036733618E-3   -4.706661526053876E-1   -2.704504307604667E-3
 1.004950107720000E+10  -3.977680795005504E-1   -2.184547768550196E-1    2.374450893141635E-4    1.520568467113939E-3    1.696869265830263E-4    1.536265764888952E-3   -4.705884151945236E-1   -2.394266767279405E-3
 1.004950400580000E+10  -3.979714876420225E-1   -2.183429758907946E-1    2.249709151647735E-4    1.544374984007550E-3    1.688140217068200E-4    1.583733243119440E-3   -4.704869407917785E-1   -2.008712069467182E-3
 1.004950693440000E+10  -3.979833354519638E-1   -2.181123540118883E-1    2.574375919559654E-4    1.574999042656093E-3    1.846548097064562E-4    1.597449141564048E-3   -4.702071536604844E-1   -1.552020937323300E-3
 1.004950986300000E+10  -3.980137727985754E-1   -2.179221482424419E-1    3.074342306865964E-4    1.608450720287703E-3    1.600897198947863E-4    1.611524212843760E-3   -4.701886050130915E-1   -1.167105174724684E-3
