#  HZ   S   RI   R     50.00 
! Rohde & Schwarz Vector Network Analyzer 
! Rohde-Schwarz,ZNB20-2Port,1311601062101988,3.16
! Created: UTC 3/21/2024, 12:53:20 AM
! freq[Hz]                re:S11                  im:S11                  re:S21                  im:S21                  re:S12                  im:S12                  re:S22                  im:S22
 1.004777958400000E+10  -3.509979611330142E-1   -2.971038869334179E-1    8.104342924247204E-5   -2.686253386360387E-4    1.315046788028186E-4   -2.238674398627840E-4   -4.635109493039228E-1   -1.055118275757954E-1
 1.004778376805000E+10  -3.511512366395845E-1   -2.968679614230377E-1    1.249543570230585E-4   -2.207763895258672E-4    1.509087118643811E-4   -2.532869091844994E-4   -4.636272477703336E-1   -1.052546137675578E-1
 1.004778795210000E+10  -3.511970549229707E-1   -2.966204755862566E-1    1.041665846856558E-4   -2.390921168897145E-4    1.272613826211425E-4   -2.007618712604058E-4   -4.636406317918580E-1   -1.049093178798060E-1
 1.004779213615000E+10  -3.513907369832477E-1   -2.964039159515863E-1    1.123888394101284E-4   -1.993218913075845E-4    1.493149266320717E-4   -2.228406724029252E-4   -4.636355174697547E-1   -1.046353634542835E-1
 1.004779632020000E+10  -3.516551340141397E-1   -2.962669214283584E-1    1.209084824863734E-4   -2.134089666450174E-4    1.389784337958658E-4   -2.117195069817632E-4   -4.636856643337544E-1   -1.043221632576204E-1
 1.004780050425000E+10  -3.517333572240159E-1   -2.959974759252056E-1    1.286935506707190E-4   -2.012774350430757E-4    1.139783091995895E-4   -2.110502494364611E-4   -4.636321888127732E-1   -1.039739293305172E-1
 1.004780468830000E+10  -3.519083639231926E-1   -2.957220047544165E-1    1.102136667256415E-4   -1.991533874881109E-4    1.386113118281733E-4   -1.872034747746962E-4   -4.637289861990002E-1   -1.035947528950978E-1
 1.004780887235000E+10  -3.523150500387118E-1   -2.953640118855460E-1    9.820006223523662E-5   -1.923436613407457E-4    1.248986417352019E-4   -2.090558400233780E-4   -4.637465241592883E-1   -1.032258243625416E-1
 1.004781305640000E+10  -3.522972048894179E-1   -2.953303683278755E-1    1.003945287724510E-4   -1.858008205433048E-4    1.250444286811292E-4   -1.637734748775494E-4   -4.640106856623872E-1   -1.027662520707057E-1
 1.004781724045000E+10  -3.525442219361452E-1   -2.950361045514701E-1    7.708550926137501E-5   -1.996936014489625E-4    1.231884335083713E-4   -1.662433314815619E-4   -4.638742205725736E-1   -1.026501999840486E-1
 1.004782142450000E+10  -3.526195989490906E-1   -2.947837955718224E-1    1.346122771094953E-4   -1.491931683516416E-4    1.174478395594909E-4   -1.659951041520518E-4   -4.639876233731869E-1   -1.023901913733336E-1
 1.004782560855000E+10  -3.528730827938882E-1   -2.945002991968147E-1    1.066909652480162E-4   -1.785689556282042E-4    1.467904488389540E-4   -1.857664772790274E-4   -4.640575114747889E-1   -1.020270348003595E-1
 1.004782979260000E+10  -3.530366918717499E-1   -2.943682884029091E-1    1.042195602831210E-4   -1.383724285499519E-4    1.479502903062546E-4   -1.396682397073963E-4   -4.640994287762147E-1   -1.017745319357453E-1
 1.004783397665000E+10  -3.531346782319728E-1   -2.941747649823814E-1    1.337373115497496E-4   -1.803004256849050E-4    1.109656047012729E-4   -1.549077971401259E-4   -4.642740180003860E-1   -1.013047987314643E-1
 1.004783816070000E+10  -3.534294311146150E-1   -2.939642950814931E-1    1.155050318255866E-4   -1.170323715744079E-4    1.488431332502384E-4   -1.339744232137519E-4   -4.642832947140308E-1   -1.008995156713365E-1
 1.004784234475000E+10  -3.534702693756355E-1   -2.937176074174424E-1    1.109667618837707E-4   -1.387644296952181E-4    1.452219423236211E-4   -1.373751847654225E-4   -4.642054727831204E-1   -1.007959783053034E-1
 1.004784652880000E+10  -3.537885458536931E-1   -2.933794844984591E-1    1.047437512810706E-4   -1.248738135008495E-4    1.418447620163476E-4   -1.768062556177190E-4   -4.644044448938430E-1   -1.003285864708645E-1
 1.004785071285000E+10  -3.537988631844989E-1   -2.931163992002396E-1    9.898966762369587E-5   -1.482822764760098E-4    1.331102467346092E-4   -1.398703011634175E-4   -4.643182025604801E-1   -1.000094397578671E-1
 1.004785489690000E+10  -3.541756092211196E-1   -2.929506685461377E-1    1.100230042561588E-4   -1.172970189990911E-4    1.403258005204339E-4   -1.155294654884601E-4   -4.644649331854254E-1   -9.959569834528267E-2
 1.004785908095000E+10  -3.542355571340126E-1   -2.928398179820977E-1    9.420553041065604E-5   -1.098282828936444E-4    1.066799430680905E-4   -9.547570289880350E-5   -4.644834264148530E-1   -9.936026401223877E-2
 1.004786326500000E+10  -3.544554165132082E-1   -2.926704676397768E-1    1.059546935570513E-4   -8.438815880245466E-5    1.163293449426870E-4   -1.092611987666451E-4   -4.645661845635843E-1   -9.898019112641679E-2
 1.004786744905000E+10  -3.544679808400665E-1   -2.922813449619616E-1    1.294449530952200E-4   -1.181143100533157E-4    1.223044851518987E-4   -8.875953915970786E-5   -4.645606341603232E-1   -9.857208785656466E-2
 1.004787163310000E+10  -3.547430139323980E-1   -2.920288840735855E-1    1.273841110910202E-4   -9.680966397004923E-5    1.202019749820899E-4   -8.371240913992345E-5   -4.646225183465112E-1   -9.829929601740196E-2
 1.004787581715000E+10  -3.550356299619371E-1   -2.918246240026776E-1    1.068718285331991E-4   -5.084234005456162E-5    1.033815719100646E-4   -9.258301365323436E-5   -4.646469364161611E-1   -9.796435779418657E-2
 1.004788000120000E+10  -3.550963525656655E-1   -2.916211616140153E-1    1.221381818340395E-4   -6.531513116247875E-5    1.068273319828404E-4   -7.037679445881413E-5   -4.647414213072316E-1   -9.770102232920602E-2
 1.004788418525000E+10  -3.553006561256168E-1   -2.913305543937720E-1    1.206744763335841E-4   -7.892287712297123E-5    1.250614107643771E-4   -8.492361137252887E-5   -4.648047611887773E-1   -9.725878962102917E-2
 1.004788836930000E+10  -3.553686633044512E-1   -2.911845403301846E-1    9.692828418013368E-5   -6.656439692881380E-5    1.008433465934751E-4   -7.241486199956116E-5   -4.648698519226108E-1   -9.695146198623165E-2
 1.004789255335000E+10  -3.555935404208675E-1   -2.909616412785597E-1    1.241951445481966E-4   -4.695400368608579E-5    9.528754870001714E-5   -5.251800761469638E-5   -4.648584742383365E-1   -9.667769402308332E-2
 1.004789673740000E+10  -3.558197167845071E-1   -2.907321147037946E-1    1.269740933817984E-4   -5.792918788411729E-5    1.064543989984663E-4   -3.075140133825560E-5   -4.650918243332518E-1   -9.631310301941687E-2
 1.004790092145000E+10  -3.559108210878816E-1   -2.905603895845387E-1    1.191376667680403E-4   -5.947722572350561E-5    1.022289718856197E-4   -3.834032977745478E-5   -4.650427810866750E-1   -9.588114104163853E-2
 1.004790510550000E+10  -3.561729917146771E-1   -2.903061086828076E-1    9.278684860108959E-5   -2.425655889340032E-5    8.841555769302136E-5   -5.134987281364773E-5   -4.652803952042315E-1   -9.553633533280961E-2
 1.004790928955000E+10  -3.563793875161665E-1   -2.900172311810731E-1    7.411254606722300E-5   -4.875252471442576E-5    1.072852822530757E-4   -1.127262294753736E-5   -4.651005534168085E-1   -9.511365361021940E-2
 1.004791347360000E+10  -3.564757294830220E-1   -2.898722345868870E-1    1.149228392518607E-4   -7.835052144807014E-6    8.373657075133404E-5   -2.838046356587517E-5   -4.650921233635225E-1   -9.477614702375001E-2
 1.004791765765000E+10  -3.565434646105481E-1   -2.896533845344249E-1    9.317592405033377E-5    9.600834563146212E-6    9.252775084643825E-5   -1.324963122620474E-5   -4.650528453828172E-1   -9.450533236796953E-2
 1.004792184170000E+10  -3.566526686077551E-1   -2.893694437555439E-1    9.066066385157955E-5    3.628974960577604E-5    7.267461818632989E-5   -1.257902732132280E-5   -4.652195128335417E-1   -9.429306903346747E-2
 1.004792602575000E+10  -3.569024215735702E-1   -2.892300463150272E-1    1.167201578088432E-4   -1.874283089337417E-5    1.047843801339015E-4    3.113324546072429E-5   -4.652168451069487E-1   -9.387240775363802E-2
 1.004793020980000E+10  -3.571992994113397E-1   -2.889905703542223E-1    1.092831697695725E-4    4.312399894076446E-5    1.048321741004287E-4    1.476702630278715E-5   -4.652376928917155E-1   -9.353202303657755E-2
 1.004793439385000E+10  -3.572308255172721E-1   -2.887679489105021E-1    9.471891058189955E-5   -3.173554600918155E-6    8.087630237487289E-5    2.991637190731833E-5   -4.653374317387940E-1   -9.310796629648649E-2
 1.004793857790000E+10  -3.574775647733689E-1   -2.884991088668895E-1    1.052969400237659E-4    3.129745659718872E-5    1.137101168604472E-4    2.169016796548912E-6   -4.653672150459190E-1   -9.278458721318590E-2
 1.004794276195000E+10  -3.575361909799584E-1   -2.882990213215222E-1    9.978017136090151E-5    1.953265684524099E-5    7.241441043231430E-5    5.044046064356642E-5   -4.654955899661137E-1   -9.244318643310699E-2
 1.004794694600000E+10  -3.577729812814468E-1   -2.880970803262840E-1    7.998575376934310E-5    4.816814266287909E-5    1.004396439301911E-4    6.398674213599280E-5   -4.653291448163179E-1   -9.207772115747526E-2
 1.004795113005000E+10  -3.580290767036380E-1   -2.879122065912587E-1    1.083644924980104E-4    3.326432029994695E-5    1.142211672265923E-4    5.200182285857689E-5   -4.655329007989676E-1   -9.176759111785800E-2
 1.004795531410000E+10  -3.580949902100364E-1   -2.876653412989000E-1    1.022351557192635E-4    6.363080806290165E-5    5.222905978001476E-5    3.839897942020271E-5   -4.654263942483063E-1   -9.128906782346861E-2
 1.004795949815000E+10  -3.582719421086562E-1   -2.875093234951682E-1    9.526880835865283E-5    7.331803852475358E-5    1.058208188629450E-4    8.242820261821016E-5   -4.655066132864072E-1   -9.096653613383435E-2
 1.004796368220000E+10  -3.584944198426810E-1   -2.871903370795987E-1    8.516305064396244E-5    6.340907954021675E-5    7.495077703838412E-5    8.050594273132077E-5   -4.655893843506130E-1   -9.065141975611961E-2
 1.004796786625000E+10  -3.586953847855921E-1   -2.871149062912965E-1    7.640179744156127E-5    8.406958892636916E-5    1.071377274121034E-4    8.504036454452004E-5   -4.655028999494065E-1   -9.026065422209556E-2
 1.004797205030000E+10  -3.587361696976992E-1   -2.867309514141185E-1    9.071352589231979E-5    1.021447036188713E-4    1.039626039186032E-4    8.746093486031716E-5   -4.656819894765318E-1   -8.987768058603179E-2
 1.004797623435000E+10  -3.589386992589310E-1   -2.865819080288469E-1    9.564382706344299E-5    9.910003402754635E-5    8.200925190447008E-5    1.366284245519000E-4   -4.657036328960697E-1   -8.956841356502759E-2
 1.004798041840000E+10  -3.591557974041539E-1   -2.862547928658499E-1    9.743255385129302E-5    1.097289444540356E-4    8.415075065983687E-5    1.187215517963258E-4   -4.657143061278036E-1   -8.915745988278746E-2
 1.004798460245000E+10  -3.595158024037517E-1   -2.862638181021241E-1    9.194873830864618E-5    1.058624758273495E-4    1.009843115090504E-4    1.332335492258647E-4   -4.658141607399390E-1   -8.883989536236769E-2
 1.004798878650000E+10  -3.594376498532530E-1   -2.858700895700316E-1    5.966927903258505E-5    1.674497525148641E-4    6.049311466536905E-5    1.547338818008735E-4   -4.657812122164366E-1   -8.852282820733666E-2
 1.004799297055000E+10  -3.596779055074890E-1   -2.856711464683134E-1    7.975491090563125E-5    1.617050366845077E-4    1.052018338763076E-4    1.460200239959523E-4   -4.659678997433564E-1   -8.806470735646002E-2
 1.004799715460000E+10  -3.599268922848066E-1   -2.854206841243274E-1    9.529019280247314E-5    1.338349977067501E-4    7.314393857437962E-5    1.441634641334019E-4   -4.658961352440521E-1   -8.779521005693504E-2
 1.004800133865000E+10  -3.600252266288132E-1   -2.850987554945306E-1    8.278250090815562E-5    1.552704144463028E-4    9.294335936442963E-5    2.048922792050918E-4   -4.659710994133971E-1   -8.738183590613312E-2
 1.004800552270000E+10  -3.602015256533941E-1   -2.849647815963068E-1    9.216483522561813E-5    1.886599646364440E-4    8.262847688011848E-5    1.810767850343108E-4   -4.659891214503851E-1   -8.699624260705603E-2
 1.004800970675000E+10  -3.603190741653118E-1   -2.847166001393608E-1    7.283618154975265E-5    1.748802063393169E-4    6.564484309611950E-5    1.892645410214559E-4   -4.659991716023985E-1   -8.648706494042468E-2
 1.004801389080000E+10  -3.604226872455306E-1   -2.844826097420480E-1    1.092580177268932E-4    2.074011689256282E-4    9.116579006345464E-5    2.139699360826764E-4   -4.661758553369374E-1   -8.624282690796661E-2
 1.004801807485000E+10  -3.606098291717112E-1   -2.842041233232617E-1    7.389508583853089E-5    2.158863220487231E-4    8.070726939222417E-5    1.980927106393924E-4   -4.660408884541830E-1   -8.587221934774811E-2
 1.004802225890000E+10  -3.609530949982439E-1   -2.840858855501467E-1    8.797902649919754E-5    2.389395092420054E-4    8.769138669697217E-5    2.382829305410627E-4   -4.662517875100311E-1   -8.529746483857692E-2
 1.004802644295000E+10  -3.609593147354630E-1   -2.838198464939065E-1    9.012994213309560E-5    2.407503664485012E-4    6.345260632218476E-5    2.392824292237291E-4   -4.661731701831701E-1   -8.491883470279746E-2
 1.004803062700000E+10  -3.611069243461958E-1   -2.836570410809342E-1    9.354397583856667E-5    2.627241671398834E-4    6.614897305231307E-5    2.508972551065795E-4   -4.660610230169929E-1   -8.468208290378249E-2
 1.004803481105000E+10  -3.613432606528737E-1   -2.833796694167126E-1    7.721160196419785E-5    2.547583046319421E-4    7.507869900581807E-5    2.616514336777640E-4   -4.663059541693004E-1   -8.435545996285974E-2
 1.004803899510000E+10  -3.615170642147653E-1   -2.831766567808814E-1    9.386653967845908E-5    2.765189132890568E-4    8.140326490867676E-5    2.880937607874994E-4   -4.662168198700509E-1   -8.396279834219134E-2
 1.004804317915000E+10  -3.618140919329683E-1   -2.829230583036090E-1    6.582740256984843E-5    2.890218783087700E-4    7.333571590295262E-5    2.905772621726727E-4   -4.661778437158149E-1   -8.353515596398602E-2
 1.004804736320000E+10  -3.617614794187775E-1   -2.826297320550503E-1    7.418557957049001E-5    2.710200828799573E-4    8.207561642388058E-5    3.035426199152874E-4   -4.663235761755441E-1   -8.318315384420773E-2
 1.004805154725000E+10  -3.620452224208306E-1   -2.824814724355417E-1    7.747069691088135E-5    3.051763943840760E-4    5.875310323628753E-5    3.094741825717957E-4   -4.662854138534230E-1   -8.288242023730089E-2
 1.004805573130000E+10  -3.621243540630754E-1   -2.822312647620916E-1    8.364925637916998E-5    3.296533031806070E-4    4.970464341427813E-5    3.215715614916486E-4   -4.663107967773051E-1   -8.253066165882492E-2
 1.004805991535000E+10  -3.622242882281091E-1   -2.821303203926330E-1    6.044990878872644E-5    3.381268426836389E-4    6.532928415211950E-5    3.435554685563573E-4   -4.663045387782097E-1   -8.194422589905985E-2
 1.004806409940000E+10  -3.624938136712524E-1   -2.818410395265251E-1    1.216404661828775E-4    3.534820341100890E-4    6.264854725679390E-5    3.306541682086707E-4   -4.663986757108268E-1   -8.171011043624962E-2
 1.004806828345000E+10  -3.625900047429396E-1   -2.816294275876728E-1    9.276269074017804E-5    3.488778647304429E-4    9.079390949934224E-5    3.725542561036751E-4   -4.664846920661060E-1   -8.127091877428985E-2
 1.004807246750000E+10  -3.627616890428458E-1   -2.814303712532109E-1    9.489398203148803E-5    3.699463545624096E-4    5.975079259030677E-5    3.953084513968719E-4   -4.663096394626939E-1   -8.072602536029699E-2
 1.004807665155000E+10  -3.630070980859191E-1   -2.812058680849524E-1    9.375516279193123E-5    3.841601705425520E-4    6.180529725099537E-5    3.748442632863005E-4   -4.664389981823311E-1   -8.036716120890175E-2
 1.004808083560000E+10  -3.632290463988740E-1   -2.809121098267762E-1    1.206519881771314E-4    3.959421618420786E-4    6.485465378173316E-5    4.094744435646126E-4   -4.664709716918356E-1   -8.003334377965216E-2
 1.004808501965000E+10  -3.632751699427150E-1   -2.807646100051837E-1    9.339641626037378E-5    3.881093579147981E-4    5.467060405512201E-5    4.455539747709228E-4   -4.665490967256604E-1   -7.951958091306102E-2
 1.004808920370000E+10  -3.635071463021790E-1   -2.803799286167094E-1    9.281800593979613E-5    4.311436450204180E-4    7.074641708328038E-5    4.414341646681029E-4   -4.666085376956024E-1   -7.916610718694971E-2
 1.004809338775000E+10  -3.637032046973537E-1   -2.803062334172082E-1    6.381927781465319E-5    4.249806785525193E-4    5.456716170291699E-5    4.754519695442768E-4   -4.665707462981983E-1   -7.884760622611472E-2
 1.004809757180000E+10  -3.638160245517347E-1   -2.799670903692628E-1    8.716136333139070E-5    4.412287096592984E-4    5.068330669270157E-5    4.590364408149687E-4   -4.665633873082732E-1   -7.833536651167965E-2
 1.004810175585000E+10  -3.638938036943361E-1   -2.799740525941229E-1    6.659792284136078E-5    4.712231353266556E-4    7.151934490395288E-5    4.883076456582507E-4   -4.666181194991114E-1   -7.797172313328711E-2
 1.004810593990000E+10  -3.641279852239754E-1   -2.796706510159842E-1    7.897873992845319E-5    4.996709775121021E-4    4.071005850400267E-5    4.880940790042315E-4   -4.665811175779861E-1   -7.753175575216686E-2
 1.004811012395000E+10  -3.643478385877386E-1   -2.793645809261182E-1    9.128923335037358E-5    5.091343121508825E-4    3.751744378771095E-5    5.356765389951619E-4   -4.664944640701006E-1   -7.703760740345234E-2
 1.004811430800000E+10  -3.644112727385704E-1   -2.790857846534717E-1    7.631826297716156E-5    5.117580652574575E-4    4.967071344369114E-5    5.410124827105968E-4   -4.666347243736280E-1   -7.657223903679029E-2
 1.004811849205000E+10  -3.646838310003007E-1   -2.790511879737201E-1    8.631814897456384E-5    5.548408571073712E-4    4.641803515848228E-5    5.662735972510110E-4   -4.665589216421119E-1   -7.621255834830243E-2
 1.004812267610000E+10  -3.648380317235911E-1   -2.787841644833615E-1    9.969112115946314E-5    5.626500625898534E-4    7.283203411305182E-5    5.422700924708381E-4   -4.666312198176827E-1   -7.587089186621604E-2
 1.004812686015000E+10  -3.649391047138467E-1   -2.785337383869756E-1    1.046124003287577E-4    5.766283970577154E-4    5.296898830568855E-5    5.844187560050393E-4   -4.667164361671811E-1   -7.548951404073044E-2
 1.004813104420000E+10  -3.649216167888658E-1   -2.782439157410130E-1    1.043379587247745E-4    5.726951073968598E-4    6.969165088286999E-5    5.920810445418551E-4   -4.667029612215700E-1   -7.501924420478726E-2
 1.004813522825000E+10  -3.652425214511129E-1   -2.780141728320413E-1    7.303366282471142E-5    6.132106199738930E-4    5.056846737701951E-5    6.370850690797557E-4   -4.666445908128957E-1   -7.458072283723009E-2
 1.004813941230000E+10  -3.653284700912462E-1   -2.778590147227401E-1    5.938722758559065E-5    6.003370300157200E-4    5.731045054489761E-5    6.421229621275707E-4   -4.665615047578481E-1   -7.411778750192663E-2
 1.004814359635000E+10  -3.656450672056733E-1   -2.776168040404952E-1    6.989160051586009E-5    6.326672867818571E-4    6.308246450394403E-5    6.332908273010217E-4   -4.666293990660509E-1   -7.376717224260426E-2
 1.004814778040000E+10  -3.657598002336437E-1   -2.773045492167394E-1    1.105405810037901E-4    6.676596555190493E-4    4.568592205957904E-5    6.714672355004697E-4   -4.665760171452861E-1   -7.332037431393525E-2
 1.004815196445000E+10  -3.658734922724553E-1   -2.771639605569488E-1    1.129899136133293E-4    6.597500989060841E-4    5.520165412360181E-5    6.850579748194411E-4   -4.667657136073623E-1   -7.290064943814999E-2
 1.004815614850000E+10  -3.660371143100838E-1   -2.769823504509207E-1    1.169773493051159E-4    7.243140066274634E-4    4.779328438919045E-5    7.000523191064166E-4   -4.667226388224081E-1   -7.236725219661028E-2
