#  HZ   S   RI   R     50.00 
! Rohde & Schwarz Vector Network Analyzer 
! Rohde-Schwarz,ZNB20-2Port,1311601062101988,3.16
! Created: UTC 3/21/2024, 1:21:57 AM
! freq[Hz]                re:S11                  im:S11                  re:S21                  im:S21                  re:S12                  im:S12                  re:S22                  im:S22
 1.004919000300000E+10  -3.878246290784262E-1   -2.369294089442672E-1    5.999938810542399E-5    5.490893997251839E-5    4.871888387778391E-5    6.298264493871967E-5   -4.736131778199961E-1   -3.687595804233514E-2
 1.004919326435000E+10  -3.879273899457435E-1   -2.366472609166161E-1    6.099338012730320E-5    6.398756163305622E-5    2.202001215279466E-5    5.326722115112950E-5   -4.736775614932151E-1   -3.651438692074005E-2
 1.004919652570000E+10  -3.880351565197890E-1   -2.365016793440606E-1    4.451370958189622E-5    1.001251512885713E-4    3.212420885431858E-5    8.170776733327018E-5   -4.736608967464049E-1   -3.626136651034751E-2
 1.004919978705000E+10  -3.882316151501329E-1   -2.363160317489933E-1    5.539751291993690E-5    9.183401209595629E-5    5.256583410849144E-5    7.759373729268566E-5   -4.735047790248813E-1   -3.596049785014364E-2
 1.004920304840000E+10  -3.882857072504102E-1   -2.361602970730987E-1    4.317286345441792E-5    6.196664977453405E-5    5.008497221700814E-5    1.025380828123385E-4   -4.736631238296424E-1   -3.578575880191525E-2
 1.004920630975000E+10  -3.884685679459807E-1   -2.358820687139263E-1    5.399656739290048E-5    1.052176671670042E-4    6.300963119860221E-5    1.233370270149056E-4   -4.737171608374280E-1   -3.543320661740296E-2
 1.004920957110000E+10  -3.884257995932531E-1   -2.356035544146499E-1    6.774853006766263E-5    9.164984912964524E-5    8.510122220597282E-5    1.335576732870254E-4   -4.735994965635902E-1   -3.516199017790715E-2
 1.004921283245000E+10  -3.886467654610110E-1   -2.355262265917246E-1    3.190766847333116E-5    1.121225617690530E-4    5.046821959035051E-5    1.198616332655636E-4   -4.735997818333272E-1   -3.485079044402097E-2
 1.004921609380000E+10  -3.885770370573285E-1   -2.352682379410180E-1    6.057895410988261E-5    1.183806264077014E-4    6.832697887588451E-5    1.372988813997086E-4   -4.736187985719981E-1   -3.467805953181863E-2
 1.004921935515000E+10  -3.888486711261713E-1   -2.351095798137965E-1    2.990580985540911E-5    1.410456156639675E-4    5.629033758856399E-5    1.070981277695687E-4   -4.735577865658659E-1   -3.426318595879883E-2
 1.004922261650000E+10  -3.889696674970578E-1   -2.350827792645271E-1    7.992887847803245E-5    1.317025507704837E-4    3.894842307905221E-5    1.324264090439633E-4   -4.737144563823816E-1   -3.402231302470100E-2
 1.004922587785000E+10  -3.889568812959456E-1   -2.346706670523330E-1    5.553203607851485E-5    1.777800803179989E-4    5.090061171969082E-5    1.242773865880977E-4   -4.735568992915121E-1   -3.390057507039227E-2
 1.004922913920000E+10  -3.891163870697283E-1   -2.346834821395027E-1    8.164326069686064E-5    1.392004055221703E-4    5.070931255574495E-5    1.465352504257632E-4   -4.734899870507479E-1   -3.338344066083899E-2
 1.004923240055000E+10  -3.893338047774550E-1   -2.344704127882189E-1    4.944568805449330E-5    1.904739428676117E-4    5.984303076531436E-5    1.721647591474343E-4   -4.735628188130038E-1   -3.326799776814908E-2
 1.004923566190000E+10  -3.893361782798093E-1   -2.342660624377757E-1    5.761778084032330E-5    1.603818344169228E-4    8.491403806966452E-6    1.601339236456433E-4   -4.735857089894058E-1   -3.288770461010044E-2
 1.004923892325000E+10  -3.894168256165247E-1   -2.340476589544856E-1    5.054140441420842E-5    1.527265514437863E-4    5.698631074099440E-5    1.787214871413467E-4   -4.735383093201934E-1   -3.270718949163467E-2
 1.004924218460000E+10  -3.895116066802207E-1   -2.338154864908376E-1    4.794834959620153E-5    1.747087404782665E-4    4.889645488368552E-5    1.993455176133740E-4   -4.735644081300726E-1   -3.212648995275973E-2
 1.004924544595000E+10  -3.897327003628943E-1   -2.336964297858860E-1    4.936093529478901E-5    2.044439637748841E-4    4.024897748795553E-5    1.923694192915418E-4   -4.736805609657403E-1   -3.193522958066874E-2
 1.004924870730000E+10  -3.898045053897818E-1   -2.334898984233947E-1    3.071627095003554E-5    2.230075304875369E-4    5.619001601304570E-5    2.394376175208032E-4   -4.735948862578385E-1   -3.168784281051603E-2
 1.004925196865000E+10  -3.900445945348352E-1   -2.332199299582159E-1    8.401320487827093E-5    2.146208535925015E-4    2.598476198624684E-5    2.109937697632419E-4   -4.734880168179182E-1   -3.136350094222021E-2
 1.004925523000000E+10  -3.899571026308537E-1   -2.330478541744720E-1    7.157095928379036E-5    2.329944312866723E-4    3.417490487049845E-5    2.468779328908610E-4   -4.736537135937053E-1   -3.110356808083395E-2
 1.004925849135000E+10  -3.901109864296518E-1   -2.329668963402406E-1    6.258588938719385E-5    2.268724940454934E-4    2.180233421238900E-5    2.486741880637376E-4   -4.736259937188718E-1   -3.066021803036055E-2
 1.004926175270000E+10  -3.902730079748895E-1   -2.327494750789987E-1    3.933145228951521E-5    2.261912084832074E-4    6.373692396525168E-5    2.498412377098543E-4   -4.736956627601541E-1   -3.053163179962163E-2
 1.004926501405000E+10  -3.903042353020117E-1   -2.325911798990184E-1    7.199519435244647E-5    2.387967201038406E-4    6.525469173483476E-5    2.811537190865987E-4   -4.735683440525444E-1   -3.033700343779741E-2
 1.004926827540000E+10  -3.903090107424638E-1   -2.323683718102431E-1    7.268183813340990E-5    2.456003101242921E-4    3.562889519480737E-5    2.600673818777817E-4   -4.735306366445684E-1   -2.978508875458523E-2
 1.004927153675000E+10  -3.906198360195626E-1   -2.320663697409323E-1    8.903010703379302E-5    2.782003512065194E-4    4.383949342476023E-5    2.841546760265524E-4   -4.736237213448559E-1   -2.956106210682833E-2
 1.004927479810000E+10  -3.905625156891352E-1   -2.318771624836585E-1    5.335134387528256E-5    2.882749170472303E-4    1.759670364883589E-5    2.580723183292766E-4   -4.736976669123287E-1   -2.928646808349546E-2
 1.004927805945000E+10  -3.907532716502195E-1   -2.317216096489401E-1    6.969420045224790E-5    2.782357440500342E-4    3.589247899882804E-5    2.959081681545062E-4   -4.736130476877040E-1   -2.892290808716961E-2
 1.004928132080000E+10  -3.908298951610847E-1   -2.315925394980037E-1    7.179532825987620E-5    2.938538900798131E-4    6.125097037932314E-5    3.036921090792494E-4   -4.735721784600418E-1   -2.875476669641541E-2
 1.004928458215000E+10  -3.909973557555960E-1   -2.313572863788072E-1    7.619117116770753E-5    2.973365605522437E-4    7.208958564138804E-5    3.136614099796116E-4   -4.736408619698956E-1   -2.835443131511686E-2
 1.004928784350000E+10  -3.910423272316309E-1   -2.311309354532557E-1    7.167675183495194E-5    2.930758301044008E-4    5.281785287469996E-5    3.166428865033145E-4   -4.735648298129979E-1   -2.805919249181793E-2
 1.004929110485000E+10  -3.911320067170810E-1   -2.310225196420995E-1    4.535771951821935E-5    3.165011532606883E-4    4.909886533994102E-5    3.087915207968796E-4   -4.735858676342358E-1   -2.781471348849459E-2
 1.004929436620000E+10  -3.911561792426630E-1   -2.307757642655728E-1    4.518151954983524E-5    3.200055355047609E-4    4.154664574158257E-5    3.284473875131917E-4   -4.736248399119314E-1   -2.735048241700298E-2
 1.004929762755000E+10  -3.914005554204925E-1   -2.306505147439686E-1    6.251530936993299E-5    3.321171783147840E-4    4.154421569336069E-5    3.341099424472522E-4   -4.735264585369662E-1   -2.706392132517563E-2
 1.004930088890000E+10  -3.915982828603258E-1   -2.304848814766783E-1    5.179427837176931E-5    3.697279675387698E-4    2.992307101285780E-5    3.322367590436406E-4   -4.734462412567330E-1   -2.683001322338339E-2
 1.004930415025000E+10  -3.915738279265631E-1   -2.300708505232000E-1    6.438367703692138E-5    3.542010630685999E-4    3.668569118899647E-5    3.725344219577241E-4   -4.734240682335789E-1   -2.653961512422547E-2
 1.004930741160000E+10  -3.915543641191819E-1   -2.300395532372427E-1    6.845317977233201E-5    3.986822092649578E-4    2.721833114795929E-5    3.963893805454625E-4   -4.734840450451117E-1   -2.621487088673635E-2
 1.004931067295000E+10  -3.918348234386373E-1   -2.298397452873141E-1    5.820064274574915E-5    4.212024010883263E-4    3.673859749732387E-5    3.985897676461076E-4   -4.734667089372707E-1   -2.585436152728622E-2
 1.004931393430000E+10  -3.920134087684901E-1   -2.296485408503568E-1    8.630574293371190E-5    4.183388756790905E-4    4.897619241648529E-5    3.934797900563798E-4   -4.734228670452789E-1   -2.561066083309096E-2
 1.004931719565000E+10  -3.919683921784448E-1   -2.294556698793501E-1    4.017466253713173E-5    4.394602105766737E-4    2.742840131240575E-5    4.105060264156328E-4   -4.733752193423144E-1   -2.512568342858873E-2
 1.004932045700000E+10  -3.921207239487735E-1   -2.294157558242560E-1    4.145146012109878E-5    4.344067499293324E-4    3.497093771267894E-5    4.334586723026295E-4   -4.734831118579435E-1   -2.493838419951037E-2
 1.004932371835000E+10  -3.922628067705543E-1   -2.290533186429677E-1    7.474554908671752E-5    4.145675079364580E-4    5.943400577159594E-5    4.532586026693255E-4   -4.734080592374511E-1   -2.455356779308410E-2
 1.004932697970000E+10  -3.923186875154054E-1   -2.287507558691811E-1    1.024147397507146E-4    4.551048950282477E-4    2.920086208858082E-5    4.361246869451032E-4   -4.734459013275557E-1   -2.424353655665120E-2
 1.004933024105000E+10  -3.924525632982028E-1   -2.287292592091818E-1    9.344020098117189E-5    4.763184042199388E-4    3.337929581456599E-5    4.476618529834836E-4   -4.735461227891165E-1   -2.390983757482074E-2
 1.004933350240000E+10  -3.925333474822112E-1   -2.285529152344779E-1    6.827407206370776E-5    4.740527039898824E-4    5.052638839247715E-5    4.789888812967005E-4   -4.733587022925548E-1   -2.364368048070366E-2
 1.004933676375000E+10  -3.926357216261531E-1   -2.282473109899208E-1    8.299002468291277E-5    4.496437075582328E-4    3.320807203729361E-5    5.011539824180050E-4   -4.734171479989692E-1   -2.328527112731473E-2
 1.004934002510000E+10  -3.927801456428246E-1   -2.279814700578750E-1    6.844476257746958E-5    4.706731886833781E-4    5.390663247622212E-5    5.021757807771354E-4   -4.732928691584106E-1   -2.303056316906367E-2
 1.004934328645000E+10  -3.927686219768476E-1   -2.280058402778279E-1    6.927470906685857E-5    5.316871671227608E-4    5.656821175993666E-5    5.169645549895815E-4   -4.733350769724493E-1   -2.262051713240169E-2
 1.004934654780000E+10  -3.929145872672042E-1   -2.277002797862738E-1    8.081241652752289E-5    5.114840270797169E-4    5.426969245367918E-5    5.077487972038172E-4   -4.732622256922637E-1   -2.232793315124490E-2
 1.004934980915000E+10  -3.930078819217947E-1   -2.274547312003136E-1    6.150022207674785E-5    5.427794847438856E-4    3.857612816590086E-5    5.588013579028339E-4   -4.732633248100176E-1   -2.197156149305907E-2
 1.004935307050000E+10  -3.930927754396061E-1   -2.273526966620715E-1    8.262823059259234E-5    5.405689240556345E-4    6.248736652726974E-5    5.371105058235938E-4   -4.731944918459792E-1   -2.166086027670342E-2
 1.004935633185000E+10  -3.933025687092416E-1   -2.271366953181031E-1    7.549311738627788E-5    5.542168739979918E-4    2.803725872057895E-5    5.723634906577406E-4   -4.731890413565114E-1   -2.129063131901007E-2
 1.004935959320000E+10  -3.932154128868687E-1   -2.269209201275999E-1    1.019863832655293E-4    5.619221362330889E-4    5.300208773078500E-5    6.065814526040203E-4   -4.731400497136341E-1   -2.092043762340766E-2
 1.004936285455000E+10  -3.934327554548713E-1   -2.268904402363590E-1    9.144437251154953E-5    5.965983140641604E-4    4.603435949578081E-5    5.937914416392444E-4   -4.731705398853633E-1   -2.064606224469799E-2
 1.004936611590000E+10  -3.935096004001278E-1   -2.266451152960091E-1    6.591716199893796E-5    6.100320706177899E-4    4.636003524768920E-5    6.062968795262350E-4   -4.731315779662736E-1   -2.025973767198887E-2
 1.004936937725000E+10  -3.935738908438177E-1   -2.263220152169769E-1    8.863612766724513E-5    6.094812716825857E-4    7.594121131783951E-5    6.317568841798524E-4   -4.730665321272042E-1   -1.985790459452086E-2
 1.004937263860000E+10  -3.937068405656706E-1   -2.260530346339669E-1    9.665167662376675E-5    6.313494724564239E-4    5.061543807848674E-5    6.460453273539241E-4   -4.731480767543385E-1   -1.944722719956170E-2
 1.004937589995000E+10  -3.939141183202511E-1   -2.260278098546368E-1    7.422650893531864E-5    6.393082799416005E-4    5.266423308853219E-5    6.467623873002963E-4   -4.730650507322945E-1   -1.913740434736360E-2
 1.004937916130000E+10  -3.939335687231516E-1   -2.257954973611380E-1    9.790864205542217E-5    6.943757043065985E-4    1.508998666782177E-5    6.733274163415859E-4   -4.730505366246670E-1   -1.884513021760973E-2
 1.004938242265000E+10  -3.939437339888059E-1   -2.256074258707401E-1    7.139359493901643E-5    6.607264979425365E-4    3.995658209077466E-5    7.049434414481478E-4   -4.730436580772044E-1   -1.864672619937889E-2
 1.004938568400000E+10  -3.941687176873153E-1   -2.254029443270837E-1    1.068699307149217E-4    6.935750227029862E-4    6.108535250899526E-5    6.927667486015765E-4   -4.731333807821881E-1   -1.822016211094146E-2
 1.004938894535000E+10  -3.941166343683675E-1   -2.252340332748726E-1    8.302732636576002E-5    6.617018002561788E-4    8.328307145238867E-5    7.157636622772489E-4   -4.729081569456224E-1   -1.779848397175435E-2
 1.004939220670000E+10  -3.943466466477638E-1   -2.250170046194672E-1    1.139439702831923E-4    7.149165913929295E-4    6.813338565940618E-5    7.125929188220939E-4   -4.729330728189734E-1   -1.738416689177521E-2
 1.004939546805000E+10  -3.944014519526755E-1   -2.248902009693576E-1    9.876368400220828E-5    7.461406791103801E-4    7.027356298442092E-5    7.320973926466052E-4   -4.728736176357751E-1   -1.716788198118972E-2
 1.004939872940000E+10  -3.943732446838060E-1   -2.246791617188000E-1    1.154222705306123E-4    7.683458914507849E-4    7.273297437357898E-5    7.467624173638343E-4   -4.729003392839867E-1   -1.668694779236405E-2
 1.004940199075000E+10  -3.945525606584590E-1   -2.242983070970835E-1    1.226565238366478E-4    7.612756484990493E-4    6.107679177723043E-5    7.957365806901428E-4   -4.728593252220833E-1   -1.651909239952215E-2
 1.004940525210000E+10  -3.947267764799003E-1   -2.242317851575736E-1    1.076617539382049E-4    7.832190793764179E-4    8.309009403266884E-5    8.091569562061414E-4   -4.726971840542525E-1   -1.597424094715320E-2
 1.004940851345000E+10  -3.948429360746296E-1   -2.240887676548285E-1    1.223887649946073E-4    7.934690615175858E-4    7.264148262470531E-5    7.953052593449514E-4   -4.726773161708915E-1   -1.570675953141910E-2
 1.004941177480000E+10  -3.949600763941948E-1   -2.239005394305414E-1    8.247985788678203E-5    7.881499908267189E-4    5.895198607566647E-5    8.099380634800385E-4   -4.727269645115650E-1   -1.524203893700848E-2
 1.004941503615000E+10  -3.950520888202410E-1   -2.236533940998864E-1    1.372615917649627E-4    8.222009185924168E-4    7.319436495462635E-5    8.211858741172803E-4   -4.728087841360764E-1   -1.480793726438688E-2
 1.004941829750000E+10  -3.950640207396968E-1   -2.234778331927893E-1    1.172249176813336E-4    8.223280729631046E-4    8.452122415790589E-5    8.351959673423228E-4   -4.726267186165489E-1   -1.446931125456187E-2
 1.004942155885000E+10  -3.951942059224647E-1   -2.233453717501521E-1    1.323558992855590E-4    8.582595378615503E-4    7.446590636649772E-5    8.580680770731647E-4   -4.726002699529854E-1   -1.423182996492865E-2
 1.004942482020000E+10  -3.953541615361073E-1   -2.230647016662832E-1    1.176315682397231E-4    8.875509159070173E-4    6.164244710490352E-5    9.019493536524738E-4   -4.724632271389980E-1   -1.382433146494988E-2
 1.004942808155000E+10  -3.955000855843641E-1   -2.229420613975329E-1    1.314581277342469E-4    9.146471583237929E-4    5.889372369290590E-5    8.824008661467476E-4   -4.725277990340346E-1   -1.332732020245490E-2
 1.004943134290000E+10  -3.956348421235151E-1   -2.227031338545540E-1    1.118764521571681E-4    9.406277269219096E-4    8.373857646336283E-5    9.303508197735650E-4   -4.725682900984396E-1   -1.289011568903867E-2
 1.004943460425000E+10  -3.957120676430545E-1   -2.225313976861520E-1    1.326134656752008E-4    9.175761900590399E-4    6.788041094565260E-5    9.328760776437388E-4   -4.724504130031472E-1   -1.277038837875012E-2
 1.004943786560000E+10  -3.957166217850415E-1   -2.223444126466761E-1    1.343950600427002E-4    9.347729287528750E-4    9.528761002676442E-5    9.482091570562202E-4   -4.723821321834359E-1   -1.218554382817352E-2
 1.004944112695000E+10  -3.958455286178978E-1   -2.223847778025881E-1    1.251789080379614E-4    9.932532233129004E-4    8.968305866573838E-5    9.962412743958987E-4   -4.722245592219366E-1   -1.192704630525472E-2
 1.004944438830000E+10  -3.959828701020330E-1   -2.219415893548868E-1    1.495364404374647E-4    9.879906438201591E-4    6.603691171390023E-5    1.017461525956038E-3   -4.722162347443282E-1   -1.145881055291427E-2
 1.004944764965000E+10  -3.961808213664783E-1   -2.218247064088311E-1    1.585894848513163E-4    1.014714454852790E-3    7.274980782613206E-5    1.030636794167083E-3   -4.721317473553747E-1   -1.098211455569340E-2
 1.004945091100000E+10  -3.961644993234661E-1   -2.217688152590077E-1    1.471056545103149E-4    1.015073218035704E-3    1.122560918243633E-4    1.015798327563114E-3   -4.722303905146861E-1   -1.061228523881457E-2
 1.004945417235000E+10  -3.963724219631779E-1   -2.214518782108780E-1    1.555688862934156E-4    1.043086177463533E-3    8.096758623022901E-5    1.033836794595897E-3   -4.720937706951245E-1   -1.021015842404891E-2
 1.004945743370000E+10  -3.963736504034597E-1   -2.211805274229953E-1    1.317011303128481E-4    1.074448959896748E-3    6.614431798360743E-5    1.082216318147503E-3   -4.721051540241456E-1   -9.752604739537256E-3
 1.004946069505000E+10  -3.963928742197332E-1   -2.210691381789553E-1    1.500286124792849E-4    1.105853855764493E-3    7.661238877607834E-5    1.104894378239889E-3   -4.718456070631292E-1   -9.531298291037897E-3
 1.004946395640000E+10  -3.965269910238956E-1   -2.206844001441441E-1    1.473568233570395E-4    1.135315019827027E-3    1.068059941489677E-4    1.119154984419473E-3   -4.719081941015537E-1   -9.106717926255926E-3
 1.004946721775000E+10  -3.964652111980055E-1   -2.207596177628179E-1    1.374305274068039E-4    1.135104250587755E-3    1.023519353737178E-4    1.140079294621348E-3   -4.718732705484860E-1   -8.722789979208390E-3
 1.004947047910000E+10  -3.967595422279484E-1   -2.205351273202258E-1    1.566049291230814E-4    1.164460477304530E-3    7.073468918153227E-5    1.141462665491128E-3   -4.717401416049785E-1   -8.253623612958226E-3
 1.004947374045000E+10  -3.968073384366960E-1   -2.202662443860830E-1    1.446920013552428E-4    1.174947085757654E-3    8.976369780247193E-5    1.148165247223447E-3   -4.715971104253691E-1   -7.762560835143850E-3
 1.004947700180000E+10  -3.970818403014200E-1   -2.200434232474424E-1    1.759928368749111E-4    1.201015409920896E-3    1.454463264499275E-4    1.215080284780731E-3   -4.716670151224489E-1   -7.399878977802511E-3
 1.004948026315000E+10  -3.970448568512958E-1   -2.198792005606727E-1    1.760539904047317E-4    1.221263644236912E-3    1.110533959792063E-4    1.218210949254204E-3   -4.714572578852939E-1   -6.970369602711735E-3
 1.004948352450000E+10  -3.972461169782416E-1   -2.197734419344896E-1    1.749902109808558E-4    1.260094042130648E-3    1.191284589801405E-4    1.256625925847022E-3   -4.714056038820685E-1   -6.503141659785504E-3
