#  HZ   S   RI   R     50.00 
! Rohde & Schwarz Vector Network Analyzer 
! Rohde-Schwarz,ZNB20-2Port,1311601062101988,3.16
! Created: UTC 3/21/2024, 12:53:22 AM
! freq[Hz]                re:S11                  im:S11                  re:S21                  im:S21                  re:S12                  im:S12                  re:S22                  im:S22
 1.004777654400000E+10  -3.508108714203376E-1   -2.972967577483176E-1    1.311784909432578E-4   -2.523827033829939E-4    1.680169496682341E-4   -2.096231816454152E-4   -4.634563503606492E-1   -1.057452907155333E-1
 1.004778074905000E+10  -3.509330213528052E-1   -2.970174223452082E-1    1.319705323397802E-4   -2.338897238275420E-4    1.724674340658146E-4   -2.346021761173192E-4   -4.634877341594300E-1   -1.055509862864723E-1
 1.004778495410000E+10  -3.512304549200754E-1   -2.967771923534191E-1    1.386780483105235E-4   -2.256698329650166E-4    1.374669025718091E-4   -1.952488405094773E-4   -4.635422898323611E-1   -1.053479667490091E-1
 1.004778915915000E+10  -3.513660822789177E-1   -2.965922601023639E-1    1.188257003788167E-4   -2.168768680307579E-4    1.443117566631236E-4   -2.028113017217673E-4   -4.636353404977770E-1   -1.048524442248970E-1
 1.004779336420000E+10  -3.515124206909174E-1   -2.963966386817398E-1    1.251518245905389E-4   -1.937714486893155E-4    1.467369310061838E-4   -2.272573817771909E-4   -4.636914920346701E-1   -1.044148301913521E-1
 1.004779756925000E+10  -3.516948397941751E-1   -2.961058352020368E-1    1.333451002302340E-4   -2.274247738084294E-4    1.413509328276505E-4   -2.372039580875551E-4   -4.638810174569341E-1   -1.043115208517422E-1
 1.004780177430000E+10  -3.518022230923963E-1   -2.958584856221095E-1    1.388868773638105E-4   -1.934251853392085E-4    1.464502075410455E-4   -2.077351433719621E-4   -4.640330522413076E-1   -1.037506392945382E-1
 1.004780597935000E+10  -3.520526440850562E-1   -2.956728346371049E-1    1.036008139517628E-4   -2.023862946613834E-4    1.028507559483269E-4   -1.751687371197204E-4   -4.638770766753593E-1   -1.035315934470429E-1
 1.004781018440000E+10  -3.522712141966254E-1   -2.953781831007156E-1    9.482420240633999E-5   -1.829154623749899E-4    1.225437157445242E-4   -1.979207170224519E-4   -4.639298437791426E-1   -1.033431431125396E-1
 1.004781438945000E+10  -3.523880633082231E-1   -2.951282773538986E-1    1.467521673327337E-4   -1.938118844942644E-4    1.408446541151690E-4   -1.547775981074234E-4   -4.638813321314024E-1   -1.030092063403023E-1
 1.004781859450000E+10  -3.524659171386323E-1   -2.949071428857916E-1    1.161755255558417E-4   -1.957542520078216E-4    1.417784297044415E-4   -1.831421697913891E-4   -4.639580309940613E-1   -1.024278257908004E-1
 1.004782279955000E+10  -3.528729736307490E-1   -2.947273553772478E-1    1.196719652130380E-4   -1.896483825378894E-4    9.980249258338432E-5   -1.749105936448402E-4   -4.639905066933137E-1   -1.021280278780400E-1
 1.004782700460000E+10  -3.529937424914751E-1   -2.943658033887421E-1    1.256229512884077E-4   -1.610591258630658E-4    1.252852967287552E-4   -1.856772336197640E-4   -4.640419412970171E-1   -1.019586351449451E-1
 1.004783120965000E+10  -3.529571581126685E-1   -2.941789935995806E-1    1.320936590021948E-4   -1.290111736870180E-4    1.484140093122307E-4   -1.376122858039713E-4   -4.642105137436763E-1   -1.015594892168089E-1
 1.004783541470000E+10  -3.532773474477840E-1   -2.940562004040174E-1    7.799450879347301E-5   -1.408463883018272E-4    1.174841798553433E-4   -1.413725647447248E-4   -4.642484237495080E-1   -1.011781347637235E-1
 1.004783961975000E+10  -3.534043368741320E-1   -2.938580640023257E-1    1.165089936422617E-4   -1.356085919160173E-4    1.405995890441362E-4   -1.504327763154692E-4   -4.641525513735711E-1   -1.009737073159489E-1
 1.004784382480000E+10  -3.536538625254310E-1   -2.936656359123759E-1    1.084765071166741E-4   -1.763743980913265E-4    1.242902209683151E-4   -1.200290801827666E-4   -4.642712086137291E-1   -1.005613245769000E-1
 1.004784802985000E+10  -3.537247129952857E-1   -2.933795864220472E-1    1.133394094212070E-4   -1.615542196301431E-4    1.367961591686050E-4   -1.114086030931910E-4   -4.643663083891040E-1   -1.003776261037125E-1
 1.004785223490000E+10  -3.538701481540718E-1   -2.932220680345216E-1    1.422489899930385E-4   -1.356845141001633E-4    1.243886736203013E-4   -1.187333563197500E-4   -4.644612025772377E-1   -9.996598007602137E-2
 1.004785643995000E+10  -3.541222465294672E-1   -2.928950684893841E-1    9.189863259122293E-5   -1.192120902035665E-4    1.091777502098399E-4   -1.094046453872606E-4   -4.645021617658759E-1   -9.955331532129756E-2
 1.004786064500000E+10  -3.542222201229197E-1   -2.928255198705589E-1    1.016971252713210E-4   -1.472390069469913E-4    1.149928536738870E-4   -1.183302952748021E-4   -4.645265008977658E-1   -9.918203628017667E-2
 1.004786485005000E+10  -3.545981607515032E-1   -2.925254036197741E-1    1.018554551302487E-4   -9.250868159043609E-5    1.492848142908071E-4   -9.158272343953258E-5   -4.646350268111227E-1   -9.893264856297748E-2
 1.004786905510000E+10  -3.547332353025247E-1   -2.923275166207858E-1    1.137407459606006E-4   -7.513308243154178E-5    1.289120611048893E-4   -7.766876329372432E-5   -4.646872022273927E-1   -9.864822637731709E-2
 1.004787326015000E+10  -3.547632098419509E-1   -2.920636466766763E-1    8.579450307679555E-5   -1.111234465184571E-4    8.538636939641871E-5   -9.618869656162004E-5   -4.646510374974602E-1   -9.818629753226869E-2
 1.004787746520000E+10  -3.550517747437444E-1   -2.918711500928866E-1    1.117953733538335E-4   -7.610819081803459E-5    1.123610364965973E-4   -9.257642662850049E-5   -4.646607023043596E-1   -9.806079918681096E-2
 1.004788167025000E+10  -3.551136476052010E-1   -2.915675368438616E-1    9.583684960374284E-5   -5.682575303574412E-5    9.482153916096543E-5   -9.701101854097650E-5   -4.648072508378747E-1   -9.752657494157237E-2
 1.004788587530000E+10  -3.551635679395513E-1   -2.914831873169405E-1    1.017788630365227E-4   -8.049475221224290E-5    1.008136048284080E-4   -7.454499863248325E-5   -4.648380014668843E-1   -9.725874130332630E-2
 1.004789008035000E+10  -3.554508635304316E-1   -2.911077204942960E-1    9.852606778823425E-5   -6.201185310902377E-5    1.336410227419260E-4   -8.798867276642041E-5   -4.647825915330132E-1   -9.688751748637983E-2
 1.004789428540000E+10  -3.556229994174770E-1   -2.909351828556709E-1    8.530343712886649E-5   -4.903121592382659E-5    1.016946133014764E-4   -4.996507486802859E-5   -4.649011206219064E-1   -9.649928872886879E-2
 1.004789849045000E+10  -3.557889589048638E-1   -2.905773285161586E-1    1.068659991823336E-4   -4.996375664496586E-5    8.861487542868018E-5   -5.286152124847054E-5   -4.650111884954010E-1   -9.613209886921563E-2
 1.004790269550000E+10  -3.560388793751113E-1   -2.904667730829527E-1    9.321529773865134E-5   -4.323227811207761E-5    9.022163860631666E-5   -4.639935860381471E-5   -4.650355429431617E-1   -9.576417234192799E-2
 1.004790690055000E+10  -3.561555840755410E-1   -2.902895341400870E-1    5.616094779725890E-5   -1.081402805005396E-5    1.164878552728603E-4   -2.595854294335618E-5   -4.649735234344664E-1   -9.554195599024325E-2
 1.004791110560000E+10  -3.563625076736307E-1   -2.899370374886256E-1    1.289142977584494E-4   -3.406609125469226E-5    1.292780862660200E-4   -1.293798451887625E-5   -4.651275111277067E-1   -9.516763922048486E-2
 1.004791531065000E+10  -3.564087720215331E-1   -2.897710756562956E-1    1.013101535980983E-4   -3.303486544492456E-5    1.090626530185467E-4    1.111982221513925E-6   -4.650543601301446E-1   -9.481597497236427E-2
 1.004791951570000E+10  -3.567862797502697E-1   -2.897366861622148E-1    1.076571242649925E-4   -6.705968759972456E-6    1.110686629284777E-4    3.393623992317070E-6   -4.650454030962772E-1   -9.444425626008086E-2
 1.004792372075000E+10  -3.568678559368209E-1   -2.893801453720760E-1    1.061197577334008E-4   -2.846475737464611E-5    1.011416240059300E-4   -1.529960368466473E-5   -4.651618748999841E-1   -9.412262810108238E-2
 1.004792792580000E+10  -3.569887392398602E-1   -2.891640291981212E-1    1.099462885720400E-4    8.815206535525550E-6    8.788262445357219E-5    3.793781262575640E-5   -4.652243435978187E-1   -9.370377137366953E-2
 1.004793213085000E+10  -3.572264636909365E-1   -2.888176597032953E-1    5.233083974023278E-5    3.792709945504146E-5    7.181525703309547E-5    2.956412601168740E-5   -4.653041701625382E-1   -9.345159863690612E-2
 1.004793633590000E+10  -3.572501199916243E-1   -2.886632465001527E-1    1.040641132115300E-4    1.950375664313498E-5    8.357828150578346E-5    2.282522957584737E-5   -4.652663817424278E-1   -9.314563924564438E-2
 1.004794054095000E+10  -3.575839889543142E-1   -2.885365031524366E-1    7.443592740085995E-5    2.515621713639583E-5    1.114493051722356E-4    3.375879739512692E-5   -4.654376848441172E-1   -9.263308072042449E-2
 1.004794474600000E+10  -3.575943443289034E-1   -2.882335114488336E-1    1.211398765158744E-4    4.161402943667302E-5    9.621149184439527E-5    5.086838590550405E-5   -4.653948422038293E-1   -9.229618798761875E-2
 1.004794895105000E+10  -3.577716546244916E-1   -2.880239556850543E-1    8.872129352288023E-5    5.881070516170576E-5    7.617993908178072E-5    6.145232215523370E-5   -4.653098547628667E-1   -9.193537836215440E-2
 1.004795315610000E+10  -3.580823090417395E-1   -2.877147652345430E-1    6.461529730019719E-5    6.265973966830567E-5    7.697914489986704E-5    6.075214180670311E-5   -4.655044425418290E-1   -9.165077702684055E-2
 1.004795736115000E+10  -3.581765913179757E-1   -2.875743507088233E-1    8.952135424057218E-5    5.651620158857242E-5    7.500090342052969E-5    7.440849695081504E-5   -4.655911445205022E-1   -9.130805090068957E-2
 1.004796156620000E+10  -3.584441299999527E-1   -2.874131164232563E-1    8.009356361872574E-5    9.432556396558157E-5    1.050690599987981E-4    1.024621998342918E-4   -4.655757948862878E-1   -9.085608052925938E-2
 1.004796577125000E+10  -3.584569599315577E-1   -2.870919606032211E-1    8.251578968595181E-5    5.006630214340877E-5    7.969209886454910E-5    6.819700548875191E-5   -4.656671405504776E-1   -9.055442075645875E-2
 1.004796997630000E+10  -3.586943390601559E-1   -2.869088375731763E-1    8.188603817513403E-5    9.806726309807101E-5    8.008715669773365E-5    1.161701964171439E-4   -4.657508185708561E-1   -9.023744068590733E-2
 1.004797418135000E+10  -3.588941380618056E-1   -2.868154762695785E-1    9.494800683049589E-5    1.110200659215672E-4    9.261283109905836E-5    1.041196416192294E-4   -4.656791434470287E-1   -8.982422664777907E-2
 1.004797838640000E+10  -3.591195851599244E-1   -2.864849012155565E-1    7.147050683227063E-5    9.730168362865837E-5    1.059701395668773E-4    1.205144448424789E-4   -4.656733703610503E-1   -8.948370743271908E-2
 1.004798259145000E+10  -3.592994509030376E-1   -2.862919967433959E-1    7.642019001222749E-5    1.069031745163794E-4    5.541475455487871E-5    1.308405322612855E-4   -4.657457920301931E-1   -8.910206199104000E-2
 1.004798679650000E+10  -3.593911842059471E-1   -2.860131946845255E-1    1.056787234047788E-4    1.501229909603108E-4    9.581988876054733E-5    1.494924073661285E-4   -4.657681351654949E-1   -8.870488792762161E-2
 1.004799100155000E+10  -3.595435323674079E-1   -2.857739604451012E-1    1.111083554322582E-4    1.542128539718118E-4    9.934206707521341E-5    1.263707139841787E-4   -4.658271463315467E-1   -8.835611444015230E-2
 1.004799520660000E+10  -3.597781591897211E-1   -2.855447459823285E-1    5.651783160040383E-5    1.414214841881028E-4    8.275318540351540E-5    1.489892057058445E-4   -4.659263028399321E-1   -8.804359994800245E-2
 1.004799941165000E+10  -3.599451591229197E-1   -2.852986467605702E-1    8.875640081173175E-5    1.615392318630830E-4    8.043012431255359E-5    1.694446397663330E-4   -4.660366714412865E-1   -8.764127547109102E-2
 1.004800361670000E+10  -3.599593943543833E-1   -2.850910227630143E-1    8.903651261120872E-5    1.371257007105652E-4    6.043633924516012E-5    1.854860226967842E-4   -4.658952279106696E-1   -8.709020351836103E-2
 1.004800782175000E+10  -3.602690556138752E-1   -2.848880861660128E-1    8.507750349533883E-5    2.119926816136012E-4    7.669301013439679E-5    1.822487458823380E-4   -4.660285881338621E-1   -8.667408259872939E-2
 1.004801202680000E+10  -3.603677359135562E-1   -2.846898254564120E-1    1.139314398767898E-4    2.020543182437749E-4    9.976226035158289E-5    1.911655373683226E-4   -4.659551679628951E-1   -8.659425693412033E-2
 1.004801623185000E+10  -3.605332674026610E-1   -2.844608099801902E-1    1.009808193128918E-4    2.186655012553310E-4    4.324203721807918E-5    2.335346963696451E-4   -4.661309841450517E-1   -8.606118909490389E-2
 1.004802043690000E+10  -3.606579578076586E-1   -2.842094044136814E-1    7.447648445174136E-5    2.340407949863176E-4    6.558845069936948E-5    2.433720100077165E-4   -4.660841618520476E-1   -8.574116409950422E-2
 1.004802464195000E+10  -3.608937820061475E-1   -2.840536711511215E-1    8.384440171208756E-5    2.130824626949421E-4    7.207674042782718E-5    2.183320856477385E-4   -4.662602093081342E-1   -8.538139911787729E-2
 1.004802884700000E+10  -3.610802148245000E-1   -2.837757678285575E-1    9.513373310336241E-5    2.460022894163778E-4    8.612477471861691E-5    2.690681394401864E-4   -4.660759743187918E-1   -8.488336105754461E-2
 1.004803305205000E+10  -3.612999113337764E-1   -2.835613893368010E-1    9.408868710135849E-5    2.734343797141599E-4    4.941414074872593E-5    2.723616758291308E-4   -4.661016786588485E-1   -8.450526045920224E-2
 1.004803725710000E+10  -3.612909559102173E-1   -2.833493468213701E-1    8.072389017142520E-5    2.375356996398411E-4    8.230286657202162E-5    2.706935135048331E-4   -4.660854461426960E-1   -8.427314466535371E-2
 1.004804146215000E+10  -3.616059094861689E-1   -2.830098868421387E-1    9.881581801745271E-5    2.817421756279789E-4    6.618024674027548E-5    2.880502551942447E-4   -4.663197185681952E-1   -8.381149708945056E-2
 1.004804566720000E+10  -3.617010537143499E-1   -2.828647476520274E-1    8.304814314924324E-5    2.607285480965262E-4    8.154797375707704E-5    3.012421320244781E-4   -4.662882403929500E-1   -8.330855065051183E-2
 1.004804987225000E+10  -3.620257570451893E-1   -2.826137811422170E-1    9.199039832694138E-5    3.096349436057015E-4    5.730226031115159E-5    3.047467607814142E-4   -4.662519340643596E-1   -8.294248041999164E-2
 1.004805407730000E+10  -3.621224455850302E-1   -2.824257045720441E-1    7.722286813839025E-5    3.495615979523563E-4    7.516543709616000E-5    3.110201047043490E-4   -4.662422022534294E-1   -8.249969415319949E-2
 1.004805828235000E+10  -3.621557908974476E-1   -2.821121039558763E-1    9.258305795516034E-5    3.288922184590458E-4    5.378639077380722E-5    3.364530076819527E-4   -4.664263459319710E-1   -8.218980436935554E-2
 1.004806248740000E+10  -3.624645906308323E-1   -2.819431754489284E-1    8.138511716095483E-5    3.394704874298762E-4    6.311904089072126E-5    3.371577868459463E-4   -4.664183575067338E-1   -8.191688338095295E-2
 1.004806669245000E+10  -3.626121896454250E-1   -2.818132011699485E-1    7.600876898179601E-5    3.262073177606243E-4    7.219900272520338E-5    3.602912033472011E-4   -4.663784310822934E-1   -8.141894092161114E-2
 1.004807089750000E+10  -3.625411197554513E-1   -2.815472500413343E-1    1.019572944361577E-4    3.476703530491473E-4    6.232867713320304E-5    3.640654620660806E-4   -4.664819458706307E-1   -8.100522895860521E-2
 1.004807510255000E+10  -3.629973361079535E-1   -2.811770793415821E-1    9.272977384214084E-5    3.840239007772602E-4    8.449755760240429E-5    3.795380644820911E-4   -4.664241047900405E-1   -8.055125695811943E-2
 1.004807930760000E+10  -3.629880458929073E-1   -2.809803212192958E-1    9.683453462574432E-5    3.721919588577369E-4    6.212663726093530E-5    3.974250228144882E-4   -4.664195076938351E-1   -8.016582737516774E-2
 1.004808351265000E+10  -3.632746825103707E-1   -2.808906885323710E-1    3.755869777886728E-5    3.897624444110368E-4    1.005580201097300E-4    3.975544040432195E-4   -4.665593766813644E-1   -7.978774874621838E-2
 1.004808771770000E+10  -3.633788751246962E-1   -2.806261520475175E-1    7.190881685636654E-5    4.399029120606582E-4    6.872144112856467E-5    4.516121802441134E-4   -4.663762437489625E-1   -7.947572259940484E-2
 1.004809192275000E+10  -3.635393640823290E-1   -2.802642964751685E-1    8.722572620886415E-5    4.611829946749399E-4    4.291319475053164E-5    4.499694530494695E-4   -4.663796890101972E-1   -7.900723254410669E-2
 1.004809612780000E+10  -3.638019851721329E-1   -2.801220805673380E-1    7.728891198393697E-5    4.509040570709977E-4    5.268462434987872E-5    4.756086525716905E-4   -4.664474907897506E-1   -7.863699086034832E-2
 1.004810033285000E+10  -3.638201659905078E-1   -2.798990916397344E-1    8.864608732381982E-5    4.587433568029632E-4    7.201291405263107E-5    5.001182435020590E-4   -4.665887401650438E-1   -7.809066349864710E-2
 1.004810453790000E+10  -3.641575003232057E-1   -2.798460439158854E-1    7.860239150258514E-5    4.822350843099057E-4    4.683771744324433E-5    5.001902472628219E-4   -4.666951557722052E-1   -7.770752563869628E-2
 1.004810874295000E+10  -3.642192298591045E-1   -2.795499735538629E-1    1.011955223518416E-4    4.981713000691962E-4    4.668404665942861E-5    5.175355737153304E-4   -4.665921014227357E-1   -7.720580949607928E-2
 1.004811294800000E+10  -3.643848510987607E-1   -2.792847700087256E-1    6.521556036176288E-5    5.187462017307035E-4    7.322686685635741E-5    5.220626634042219E-4   -4.666165208163303E-1   -7.694962086972791E-2
 1.004811715305000E+10  -3.645682755250783E-1   -2.791177802747540E-1    6.140841864985879E-5    5.371923565989315E-4    6.848760892027611E-5    5.322350377172778E-4   -4.665541022243649E-1   -7.655411464295768E-2
 1.004812135810000E+10  -3.646545019698656E-1   -2.788551589415859E-1    1.044392230972935E-4    5.365485027229344E-4    7.764726163417716E-5    5.501823592969371E-4   -4.665221747474841E-1   -7.597055549071725E-2
 1.004812556315000E+10  -3.648931045814445E-1   -2.786463501292218E-1    1.032802710756318E-4    5.596438137695270E-4    6.492020368632662E-5    5.646581159850335E-4   -4.665691649381084E-1   -7.569754312119545E-2
 1.004812976820000E+10  -3.650242981649680E-1   -2.784170303879086E-1    7.809070631324795E-5    5.752015143426533E-4    6.979259255308972E-5    5.737178042695151E-4   -4.666365796171569E-1   -7.513509284669483E-2
 1.004813397325000E+10  -3.652431463105462E-1   -2.781075294245876E-1    9.100094033411837E-5    6.255625929696063E-4    4.814627704451820E-5    6.101388650348263E-4   -4.665300668289407E-1   -7.488122008785525E-2
 1.004813817830000E+10  -3.654577003080386E-1   -2.779269161142590E-1    1.084175350432585E-4    6.195296823875924E-4    6.120904658581042E-5    5.891464947766263E-4   -4.667218735686104E-1   -7.434400268379979E-2
 1.004814238335000E+10  -3.656727614523165E-1   -2.776260285087962E-1    9.560244239237859E-5    6.375368782603320E-4    5.984637129789920E-5    6.302307773206902E-4   -4.666974357253915E-1   -7.393174624305196E-2
 1.004814658840000E+10  -3.657756202603356E-1   -2.774575653810677E-1    9.468267235549649E-5    6.514619416831122E-4    8.886340121545805E-5    6.654201423483249E-4   -4.667610531035788E-1   -7.341902510392360E-2
 1.004815079345000E+10  -3.659737252060223E-1   -2.772401080565848E-1    1.094366561112543E-4    6.868904273924905E-4    6.560024822621399E-5    6.910407845581432E-4   -4.667872561485008E-1   -7.310476247832484E-2
 1.004815499850000E+10  -3.659562756825007E-1   -2.769151522410027E-1    1.142628464748992E-4    6.922388181073047E-4    4.474561574953231E-5    6.787952489306586E-4   -4.666957416528809E-1   -7.252154875242091E-2
