#  HZ   S   RI   R     50.00 
! Rohde & Schwarz Vector Network Analyzer 
! Rohde-Schwarz,ZNB20-2Port,1311601062101988,3.16
! Created: UTC 3/21/2024, 1:22:28 AM
! freq[Hz]                re:S11                  im:S11                  re:S21                  im:S21                  re:S12                  im:S12                  re:S22                  im:S22
 1.004936065300000E+10  -3.930264626492282E-1   -2.273627735312901E-1    1.305591266343082E-5    3.794573846954131E-4    4.305479632935684E-6    3.892840269675483E-4   -4.738913542262764E-1   -2.323694041678106E-2
 1.004936332437500E+10  -3.931564343392149E-1   -2.271892672121740E-1    2.384238755307967E-5    3.862344992533398E-4    6.044298105556736E-6    3.706661659716559E-4   -4.738261334987375E-1   -2.280327450297876E-2
 1.004936599575000E+10  -3.932481119237311E-1   -2.269686384218979E-1    4.706873833871855E-5    3.840834655255690E-4   -1.023911522539721E-6    3.622730092989307E-4   -4.739482998554141E-1   -2.270638513799535E-2
 1.004936866712500E+10  -3.932857088828768E-1   -2.269521166018126E-1    2.825196022046699E-5    3.738744306220428E-4   -9.830042965493929E-6    4.066008833302154E-4   -4.739012288362104E-1   -2.238052020597569E-2
 1.004937133850000E+10  -3.934215786039600E-1   -2.267507290203360E-1    5.618865212628091E-5    3.957343830230394E-4    3.342382622075653E-6    4.199964157681724E-4   -4.739343572148750E-1   -2.217136360469001E-2
 1.004937400987500E+10  -3.935458546329254E-1   -2.265353931219743E-1    2.406280811177856E-5    4.086980288450060E-4   -4.219627258667977E-6    4.239638145269676E-4   -4.738959217730267E-1   -2.186286234684644E-2
 1.004937668125000E+10  -3.935119974661228E-1   -2.264529456905639E-1    5.695721622072474E-5    4.218045279604978E-4    2.780429854308359E-5    4.264007966643894E-4   -4.736454062618885E-1   -2.156358491250921E-2
 1.004937935262500E+10  -3.936916753539818E-1   -2.262623425147386E-1    3.655279423714429E-5    4.352845761675001E-4    1.313912586500630E-5    4.389833719945419E-4   -4.737313214532664E-1   -2.126662652412938E-2
 1.004938202400000E+10  -3.936557254885157E-1   -2.261290132874947E-1    5.646058082230467E-5    4.466233013249216E-4    5.392491395328191E-7    4.371172192363967E-4   -4.739930946096322E-1   -2.105797793174212E-2
 1.004938469537500E+10  -3.937706412777468E-1   -2.259633726087651E-1    5.647441461640537E-5    4.441287948426770E-4    9.059143594423176E-6    4.477556770160142E-4   -4.738806294662922E-1   -2.077308182328961E-2
 1.004938736675000E+10  -3.937925024733843E-1   -2.257696241545187E-1    3.344765131249533E-5    4.661750557642125E-4    1.322282234971056E-5    4.538535481715477E-4   -4.738902236952549E-1   -2.064426207960867E-2
 1.004939003812500E+10  -3.939684044455335E-1   -2.256368792813641E-1    3.012382408515907E-5    4.803215987335222E-4    3.857620840968710E-5    4.734701359678447E-4   -4.737900562000917E-1   -2.016195899010589E-2
 1.004939270950000E+10  -3.940941035161902E-1   -2.254720676553652E-1    3.838352510302066E-5    4.993299501482899E-4    5.931457023499018E-6    4.953761946805259E-4   -4.736994226232429E-1   -1.993064401625945E-2
 1.004939538087500E+10  -3.941502703905591E-1   -2.253433676632328E-1    4.056376057256048E-5    4.797827795569943E-4    2.463013371004268E-5    4.874257700477303E-4   -4.737993001475950E-1   -1.984263667427145E-2
 1.004939805225000E+10  -3.942357503067488E-1   -2.251756368161239E-1    3.724307340639047E-5    5.087900868773888E-4   -1.993866442889620E-6    5.197702380637137E-4   -4.737701510283961E-1   -1.954869330179965E-2
 1.004940072362500E+10  -3.943013215123204E-1   -2.249971065967542E-1    4.074322494961276E-5    5.043796373528996E-4   -2.817307780696655E-6    5.133681780399910E-4   -4.737653643039820E-1   -1.931769646884148E-2
 1.004940339500000E+10  -3.943256107870992E-1   -2.249561843901668E-1    4.700945494128337E-5    5.030596439106277E-4   -1.435384320509065E-6    5.217696351375508E-4   -4.737890063269746E-1   -1.893426014591947E-2
 1.004940606637500E+10  -3.945556760062372E-1   -2.248104413734514E-1    5.640654866126618E-5    5.115482487278155E-4    4.126992336611674E-6    5.420712671227143E-4   -4.738556929581987E-1   -1.846988029864894E-2
 1.004940873775000E+10  -3.946111723306168E-1   -2.246492473315055E-1    4.945630323665311E-5    5.590600031342661E-4    3.228559944044907E-6    5.294399463238452E-4   -4.737880649058624E-1   -1.833272729421746E-2
 1.004941140912500E+10  -3.947258495200400E-1   -2.243334014069263E-1    5.198145732040065E-5    5.538835343966400E-4    2.269730855973203E-5    5.845954830996598E-4   -4.736764622734372E-1   -1.817723692891805E-2
 1.004941408050000E+10  -3.947495660073334E-1   -2.243178645828775E-1    2.207810684414335E-5    5.754715104931245E-4    8.050989138728148E-6    5.706088914116501E-4   -4.737158159655485E-1   -1.787778523595121E-2
 1.004941675187500E+10  -3.949009475394807E-1   -2.240836866606603E-1    1.183110038801138E-5    6.020209809128997E-4   -3.218899564539868E-6    5.537266176611119E-4   -4.736097939397567E-1   -1.756058650777289E-2
 1.004941942325000E+10  -3.950936347794801E-1   -2.237723659096215E-1    3.411048070743521E-5    5.824286495744972E-4   -1.184646739226746E-5    5.841065305302492E-4   -4.737251104830293E-1   -1.731289447576672E-2
 1.004942209462500E+10  -3.950150771378180E-1   -2.237266721746930E-1    4.965105422099974E-5    5.853517026772505E-4    1.781376280074531E-5    6.106987477271417E-4   -4.736366400531278E-1   -1.701574018317681E-2
 1.004942476600000E+10  -3.951288148699693E-1   -2.235965490268535E-1    4.783147831700596E-5    5.932160140504049E-4    4.197425708898094E-6    6.135785833615445E-4   -4.734527189005390E-1   -1.671512531434978E-2
 1.004942743737500E+10  -3.950587750902240E-1   -2.233372535740564E-1    5.775990931297071E-5    6.262471960773183E-4   -2.436876943328583E-5    6.315809326816350E-4   -4.736010143535891E-1   -1.637028196851140E-2
 1.004943010875000E+10  -3.952677936830774E-1   -2.232917248921816E-1    6.168006226536525E-5    6.412098275320437E-4    1.093463784484519E-5    6.495625189752433E-4   -4.736226626106920E-1   -1.626771301572716E-2
 1.004943278012500E+10  -3.953632605038231E-1   -2.230128306927938E-1    4.574010795801915E-5    6.438886449152884E-4    1.209465502585826E-5    6.675434887741225E-4   -4.736329552428228E-1   -1.582547322391036E-2
 1.004943545150000E+10  -3.955332183463634E-1   -2.229340978992261E-1    4.852921198714866E-5    6.378315701913283E-4   -1.299859273968626E-5    6.491535496563314E-4   -4.735751817982363E-1   -1.555612183254634E-2
 1.004943812287500E+10  -3.955679090811382E-1   -2.227789764186274E-1    6.965476293517837E-5    6.490065625681165E-4    9.646686081236728E-6    6.779511809765638E-4   -4.734528184122612E-1   -1.533551675787007E-2
 1.004944079425000E+10  -3.956447057137789E-1   -2.226775193006970E-1    3.712917055782426E-5    6.846441500301527E-4   -1.300866244122679E-5    6.861211766085194E-4   -4.735071578300155E-1   -1.483528704099424E-2
 1.004944346562500E+10  -3.956641105692879E-1   -2.225314192447060E-1    3.587521563335590E-5    7.177335991950868E-4    3.060564370608436E-5    6.821043468938451E-4   -4.735259566976580E-1   -1.474004378232793E-2
 1.004944613700000E+10  -3.957783589681039E-1   -2.223729522694320E-1    3.662398689433497E-5    7.000833582112637E-4   -1.091080318095757E-5    7.146772058484068E-4   -4.734719467579273E-1   -1.430549521998898E-2
 1.004944880837500E+10  -3.959257524844427E-1   -2.220469910906805E-1    5.629465244831554E-5    7.219580839607912E-4   -1.068953283148163E-5    7.039845775067600E-4   -4.734707701222803E-1   -1.390015444664824E-2
 1.004945147975000E+10  -3.960223784933174E-1   -2.221124062763624E-1    5.941932901856781E-5    7.315931147602242E-4    7.307497179289307E-6    7.412784880088669E-4   -4.733906970973947E-1   -1.377720955397030E-2
 1.004945415112500E+10  -3.959672096941177E-1   -2.217875501897933E-1    5.167665043502809E-5    7.262586231784484E-4    8.633753531273691E-6    7.309327497566663E-4   -4.733906154387029E-1   -1.353728407561909E-2
 1.004945682250000E+10  -3.960673722233612E-1   -2.216330271947280E-1    1.893015682081953E-5    7.518380916476643E-4    1.196257189122883E-5    7.629261274514650E-4   -4.736034872932334E-1   -1.322421418114490E-2
 1.004945949387500E+10  -3.962634157757054E-1   -2.216145973127602E-1    6.165868198554608E-5    7.677915985351996E-4   -2.645561952075781E-6    7.543842874667689E-4   -4.732940056694428E-1   -1.296365694273947E-2
 1.004946216525000E+10  -3.962351664145166E-1   -2.213817288414489E-1    5.880030338139872E-5    7.809447132281223E-4   -1.822967444528128E-5    7.918171171359521E-4   -4.733335840168778E-1   -1.263601736857104E-2
 1.004946483662500E+10  -3.963468693128172E-1   -2.212218257949307E-1    7.189592767059323E-5    7.738609307925026E-4   -2.248767531180392E-5    8.204300486390190E-4   -4.732971800773846E-1   -1.225335636643695E-2
 1.004946750800000E+10  -3.963520459181640E-1   -2.210769163105586E-1    7.051502640269433E-5    7.835924883396904E-4    3.558103887946136E-6    8.135101860368255E-4   -4.732521966878953E-1   -1.195891937462125E-2
 1.004947017937500E+10  -3.964717951696475E-1   -2.210091711571495E-1    5.084130816998873E-5    8.193831525658886E-4    2.105297401802024E-6    8.153106225723922E-4   -4.732704657094745E-1   -1.179741616795947E-2
 1.004947285075000E+10  -3.964893163759742E-1   -2.207639908530225E-1    7.399757710962042E-5    8.177877547943694E-4    1.681829283189282E-5    8.404855414085908E-4   -4.732792538646244E-1   -1.130665330186327E-2
 1.004947552212500E+10  -3.965976870094767E-1   -2.205292077620702E-1    7.047234111212556E-5    8.343139847219275E-4   -4.423946091335085E-6    8.600855599438574E-4   -4.731457413908750E-1   -1.117428648315491E-2
 1.004947819350000E+10  -3.966371909223029E-1   -2.203684021740313E-1    7.669188304254005E-5    8.428344668802776E-4    3.217201933941331E-5    8.358149931731191E-4   -4.731029916194231E-1   -1.084735532317365E-2
 1.004948086487500E+10  -3.968341035214056E-1   -2.202882938949456E-1    4.206982155138475E-5    8.696934934308468E-4   -8.256458198887351E-6    8.587162830501497E-4   -4.731017917749960E-1   -1.041228111957070E-2
 1.004948353625000E+10  -3.969110934869411E-1   -2.200766417175604E-1    7.699620832478019E-5    8.913918429641431E-4   -8.751902017337098E-7    8.969458559210521E-4   -4.732139034461333E-1   -1.017271373004815E-2
 1.004948620762500E+10  -3.971403121664564E-1   -2.199255801824178E-1    5.021458469572317E-5    8.882633468026505E-4    1.232199121855058E-5    9.268216375001222E-4   -4.729921261460048E-1   -9.998438011931191E-3
 1.004948887900000E+10  -3.971695602316236E-1   -2.198759506340970E-1    7.943799650902569E-5    9.092064771029892E-4    2.992014730550335E-5    9.033753232430417E-4   -4.730434026153695E-1   -9.681346513949151E-3
 1.004949155037500E+10  -3.970949973546359E-1   -2.197689085350107E-1    7.141791866867157E-5    9.253996584291624E-4    1.134677506570601E-5    9.609998281324502E-4   -4.729140577651054E-1   -9.164164248216460E-3
 1.004949422175000E+10  -3.972071807239232E-1   -2.195471070613959E-1    5.691692713400285E-5    9.833176763036511E-4    2.054887973340052E-5    9.578857487236325E-4   -4.728850120590038E-1   -9.029050033377235E-3
 1.004949689312500E+10  -3.972501421267752E-1   -2.192409628268401E-1    6.555742873118044E-5    9.893412993522603E-4    2.976963509810419E-5    9.597846407253869E-4   -4.729292883436780E-1   -8.569350755684232E-3
 1.004949956450000E+10  -3.973338248319084E-1   -2.191071498410279E-1    7.890762982816054E-5    9.796877674013806E-4    7.101901356419224E-6    9.670721150192101E-4   -4.729405752641441E-1   -8.277539656318071E-3
 1.004950223587500E+10  -3.973767214988878E-1   -2.189742968902517E-1    9.558534352826565E-5    9.939188656479731E-4    1.207760752270420E-5    1.000844372060977E-3   -4.729603914632412E-1   -7.936453013508194E-3
 1.004950490725000E+10  -3.976549654831744E-1   -2.188044464604041E-1    6.740657164407220E-5    1.020591692783135E-3    3.120687730407389E-5    9.983171594784594E-4   -4.729429069924693E-1   -7.469113200430480E-3
 1.004950757862500E+10  -3.976106525204590E-1   -2.187830662819067E-1    1.055573119040411E-4    1.007849615741611E-3    3.718678365702667E-6    1.062569948016593E-3   -4.728529493621259E-1   -7.317684870104612E-3
 1.004951025000000E+10  -3.976679353969851E-1   -2.185232166749473E-1    7.085959959982501E-5    1.035496758572128E-3    3.425087535323203E-6    1.085246623699669E-3   -4.727189713142306E-1   -7.040604005806963E-3
 1.004951292137500E+10  -3.977816786162637E-1   -2.184331101966765E-1    6.362398536788578E-5    1.044879305352660E-3    3.849936145329930E-5    1.064379755043798E-3   -4.725337123127770E-1   -6.639339788907747E-3
 1.004951559275000E+10  -3.978116961200877E-1   -2.182632191138164E-1    9.871336919911749E-5    1.088959475344265E-3    1.617086341503824E-5    1.085475503739915E-3   -4.725698785832628E-1   -6.290485322604197E-3
 1.004951826412500E+10  -3.980912028137403E-1   -2.179724863422321E-1    1.175803002997548E-4    1.076067892750253E-3    2.901082982266515E-5    1.100517918485660E-3   -4.725416683727600E-1   -5.907665792759614E-3
 1.004952093550000E+10  -3.980535504696892E-1   -2.179036343604127E-1    8.593262844396686E-5    1.114910128126613E-3    2.332083954652111E-5    1.113722029548034E-3   -4.726198732291786E-1   -5.708078844950466E-3
 1.004952360687500E+10  -3.980792761169597E-1   -2.176410053861449E-1    7.772273621104322E-5    1.134589514906908E-3    1.804586524848830E-5    1.141147026307905E-3   -4.726152230721146E-1   -5.090518090191201E-3
 1.004952627825000E+10  -3.981149211108492E-1   -2.175390921568705E-1    9.263655847132905E-5    1.139844278814048E-3    8.541530661493470E-6    1.144365025499221E-3   -4.724562026645353E-1   -4.807113436086476E-3
 1.004952894962500E+10  -3.982075279783275E-1   -2.173313867044385E-1    8.773317162737770E-5    1.180625506752724E-3    4.879143438924774E-5    1.175251526024338E-3   -4.723631207570591E-1   -4.524676296323697E-3
 1.004953162100000E+10  -3.983734111069105E-1   -2.173305009834073E-1    8.915157895240377E-5    1.189388899815907E-3    3.573545365212808E-5    1.199045463386206E-3   -4.723618795149137E-1   -4.043222157037217E-3
 1.004953429237500E+10  -3.984350459767359E-1   -2.171149545205342E-1    1.037939757239249E-4    1.194797978786361E-3    2.696479356867871E-5    1.186710558226547E-3   -4.722129218189391E-1   -3.851620202114169E-3
 1.004953696375000E+10  -3.984845822506092E-1   -2.169109507742655E-1    8.100397601433753E-5    1.243409378540300E-3    2.946796173004503E-5    1.216507480391093E-3   -4.724106691371540E-1   -3.491216664819672E-3
 1.004953963512500E+10  -3.985917259519602E-1   -2.167507845417837E-1    9.787365342069227E-5    1.209640501247989E-3    9.498973917177437E-6    1.243641728529630E-3   -4.722284435095341E-1   -3.109269320196964E-3
 1.004954230650000E+10  -3.986508813852744E-1   -2.165594177396215E-1    1.367058682470928E-4    1.257539445316038E-3    3.116119396585641E-5    1.281183943339336E-3   -4.721880819471174E-1   -2.901289539570537E-3
 1.004954497787500E+10  -3.987013133510587E-1   -2.164526906975882E-1    1.096673626788482E-4    1.279699331122232E-3    3.274063087422454E-5    1.277529408027112E-3   -4.719864366374221E-1   -2.487967766683101E-3
 1.004954764925000E+10  -3.988827337495726E-1   -2.164357090586400E-1    1.123087403660138E-4    1.283628464481344E-3    1.990897525720418E-5    1.308833449700899E-3   -4.721161619303391E-1   -2.134383647858979E-3
 1.004955032062500E+10  -3.988771852085324E-1   -2.161702362106778E-1    1.271955561829885E-4    1.336626061246422E-3    3.739383498505668E-5    1.328453191738003E-3   -4.720014154054755E-1   -1.679649018357082E-3
 1.004955299200000E+10  -3.990244508479812E-1   -2.160615923289649E-1    1.358198739043739E-4    1.371985192355191E-3    6.672216685987999E-5    1.359207346498407E-3   -4.717791159432728E-1   -1.288664924112960E-3
 1.004955566337500E+10  -3.990600637049666E-1   -2.158794412761892E-1    1.275350310549543E-4    1.369477754522003E-3    7.932618955080254E-5    1.375178538142565E-3   -4.717101668773910E-1   -8.695089895405403E-4
 1.004955833475000E+10  -3.990460786110929E-1   -2.157053232611447E-1    1.397631197943947E-4    1.400307301171258E-3    4.521485215926361E-5    1.376780126273874E-3   -4.717411836888679E-1   -7.042398669484017E-4
 1.004956100612500E+10  -3.991437751527463E-1   -2.155139377867135E-1    1.313180070481812E-4    1.425154686425039E-3    3.304180525085648E-5    1.411806049990849E-3   -4.717888873580783E-1   -4.080440045916981E-4
 1.004956367750000E+10  -3.991996799050073E-1   -2.153462971520608E-1    1.392383352708567E-4    1.417178824127965E-3    5.226071072122956E-5    1.421669505198374E-3   -4.715751441556489E-1    8.680582727492624E-5
 1.004956634887500E+10  -3.992995612869523E-1   -2.151611528139413E-1    1.598237941214286E-4    1.437032772540435E-3    5.095709458573195E-5    1.465744753748719E-3   -4.715323074194900E-1    5.759107784793895E-4
 1.004956902025000E+10  -3.995127421103607E-1   -2.150259684180046E-1    1.646896117112060E-4    1.478485974963363E-3    7.337858938342031E-5    1.470383460314851E-3   -4.715235332097392E-1    9.864531690676227E-4
 1.004957169162500E+10  -3.995124347954352E-1   -2.148293317768785E-1    1.419108551582359E-4    1.508759745997761E-3    6.717439120540315E-5    1.512631928803655E-3   -4.715347270597459E-1    1.308519890736253E-3
 1.004957436300000E+10  -3.995180350548112E-1   -2.147727998359535E-1    1.799281756371373E-4    1.518491028252810E-3    7.208393276486691E-5    1.526435596471284E-3   -4.712540463489958E-1    1.702536727701029E-3
 1.004957703437500E+10  -3.996455874657472E-1   -2.145573187025131E-1    1.520143310089694E-4    1.539973247918994E-3    5.184661552099740E-5    1.547318086643040E-3   -4.713511622439692E-1    2.157393990878370E-3
 1.004957970575000E+10  -3.998699236712572E-1   -2.143631780772427E-1    1.602456495177777E-4    1.562689935876511E-3    1.008222812648641E-4    1.580038443548830E-3   -4.711646684735035E-1    2.484388450468656E-3
 1.004958237712500E+10  -3.998365462515048E-1   -2.142074534052965E-1    1.808371692947075E-4    1.603122397361941E-3    8.071475709795795E-5    1.619190400969171E-3   -4.711633184197143E-1    2.812312638372667E-3
 1.004958504850000E+10  -4.000480908392946E-1   -2.140535040401950E-1    1.601655731284620E-4    1.638656849910642E-3    8.534249620800158E-5    1.603510323487601E-3   -4.709823930070666E-1    3.265467559003089E-3
 1.004958771987500E+10  -3.999929115877242E-1   -2.139900375255601E-1    1.837720379894579E-4    1.640057456937969E-3    8.582232739098632E-5    1.652386820299162E-3   -4.709943571258539E-1    3.668063478214412E-3
 1.004959039125000E+10  -4.000587439032042E-1   -2.137253229258826E-1    1.637777858041386E-4    1.644807838295381E-3    1.001195246571343E-4    1.706184030005734E-3   -4.707923588973766E-1    4.195637162035594E-3
 1.004959306262500E+10  -4.001951395056422E-1   -2.135684532729338E-1    1.857815040987381E-4    1.697192357923830E-3    1.086355205342679E-4    1.708474880258339E-3   -4.707329389244013E-1    4.481268270606516E-3
 1.004959573400000E+10  -4.002287871965352E-1   -2.135093613148941E-1    1.654074050958083E-4    1.729916009048894E-3    9.481568556452825E-5    1.724286862230925E-3   -4.706939885142586E-1    4.983997640685643E-3
 1.004959840537500E+10  -4.003520707242585E-1   -2.133570001770294E-1    2.095296464964231E-4    1.765001427489776E-3    1.034886982822203E-4    1.765666183000015E-3   -4.705431178048710E-1    5.399992165986332E-3
 1.004960107675000E+10  -4.003489394772337E-1   -2.131636579952403E-1    1.727602359913678E-4    1.777779526540919E-3    1.047561117111607E-4    1.788671009339625E-3   -4.704530124267482E-1    5.951128750542937E-3
