#  HZ   S   RI   R     50.00 
! Rohde & Schwarz Vector Network Analyzer 
! Rohde-Schwarz,ZNB20-2Port,1311601062101988,3.16
! Created: UTC 3/21/2024, 1:22:49 AM
! freq[Hz]                re:S11                  im:S11                  re:S21                  im:S21                  re:S12                  im:S12                  re:S22                  im:S22
 1.004948429500000E+10  -3.966182625922583E-1   -2.204565682266077E-1   -3.096230913832691E-6    7.147420642050986E-4   -2.251922062196347E-5    7.209040335015902E-4   -4.737652898519768E-1   -1.186225116926323E-2
 1.004948653435000E+10  -3.969916581598649E-1   -2.202283088902256E-1    2.020229279839830E-6    7.246792678987707E-4   -2.732305129146703E-5    7.357544980498853E-4   -4.737985542706886E-1   -1.166695870885188E-2
 1.004948877370000E+10  -3.967645244193077E-1   -2.201671310989963E-1    3.715159970422154E-5    7.569599457072552E-4   -4.142127154294213E-5    7.383601072993417E-4   -4.738103341116747E-1   -1.146568908318009E-2
 1.004949101305000E+10  -3.968834537625485E-1   -2.200046461141431E-1    2.085579763248753E-5    7.302534017134142E-4   -2.407650936861571E-5    7.867189836457790E-4   -4.737085728988034E-1   -1.105390898772245E-2
 1.004949325240000E+10  -3.970869434566432E-1   -2.199439575485971E-1    8.711108205646056E-6    7.532544670466321E-4   -1.207733760741120E-5    7.933981559314419E-4   -4.736891218674400E-1   -1.080546193061213E-2
 1.004949549175000E+10  -3.971368634935385E-1   -2.197788815991351E-1    1.906959552331124E-5    7.595554095606618E-4   -6.606565831029363E-5    7.788239517389091E-4   -4.737858708803056E-1   -1.065044895317468E-2
 1.004949773110000E+10  -3.972095449528651E-1   -2.196398306911737E-1    4.557459295805027E-5    7.608510322647950E-4   -3.864475549578581E-5    7.661593701605111E-4   -4.734909141652860E-1   -1.039924748609921E-2
 1.004949997045000E+10  -3.972222509154415E-1   -2.195258131591878E-1    1.127682343879567E-5    8.027112925953579E-4   -3.310887456688472E-5    8.119206753569498E-4   -4.736558794335867E-1   -1.025131076246536E-2
 1.004950220980000E+10  -3.973774214291592E-1   -2.194036947085359E-1    2.000243535229199E-5    8.178557256674594E-4   -2.794906702493787E-5    8.018168019283524E-4   -4.736344318166270E-1   -9.898055351760294E-3
 1.004950444915000E+10  -3.974032481012381E-1   -2.192573432105054E-1    2.133684068316307E-5    8.074949826752460E-4   -1.363879282222793E-5    8.193088949266155E-4   -4.735563641122184E-1   -9.517944458025436E-3
 1.004950668850000E+10  -3.973795435654733E-1   -2.189924497042186E-1    4.805822388289249E-5    8.161529224670352E-4   -4.098114375514566E-5    8.265067057991759E-4   -4.737168083231071E-1   -9.476715227473955E-3
 1.004950892785000E+10  -3.974610798755415E-1   -2.189553495544362E-1    3.151813893545004E-5    8.210552371355792E-4   -3.412349225526878E-5    8.101145790624831E-4   -4.735854002406817E-1   -9.080112620855908E-3
 1.004951116720000E+10  -3.975074565211586E-1   -2.187539251658391E-1    6.967326498178104E-6    8.424143211510002E-4   -2.765121761287398E-5    8.466001463010517E-4   -4.735281577914254E-1   -8.868835541294919E-3
 1.004951340655000E+10  -3.975634108390872E-1   -2.186870141342072E-1    2.297225919689398E-5    8.408786305494713E-4   -2.694383384041089E-5    8.695321226586806E-4   -4.734904091272675E-1   -8.724287085797401E-3
 1.004951564590000E+10  -3.976426848517007E-1   -2.184671470146621E-1    2.186918807858591E-5    8.763417216422795E-4   -2.546518339335872E-5    8.773281289208740E-4   -4.736090794049755E-1   -8.293400133105186E-3
 1.004951788525000E+10  -3.977423157142320E-1   -2.184751126591200E-1    2.581112968376234E-5    8.706042554487331E-4   -4.144573750491422E-5    8.918716277190694E-4   -4.734086100574772E-1   -8.147076476799575E-3
 1.004952012460000E+10  -3.979142653962146E-1   -2.182396288279145E-1    2.657251668087138E-5    9.027736518695902E-4    1.234341049910393E-6    9.017116609206998E-4   -4.734471455040722E-1   -7.843374838724023E-3
 1.004952236395000E+10  -3.980286127633475E-1   -2.181144567035676E-1    2.405739975551701E-5    9.361687050145601E-4   -4.761779355605016E-5    9.228384927112048E-4   -4.734992152197528E-1   -7.699919971073879E-3
 1.004952460330000E+10  -3.979737100703711E-1   -2.180188315805978E-1    3.539971795923326E-5    9.255063366726337E-4   -6.410041592388187E-6    9.061469680181432E-4   -4.733345266718255E-1   -7.279475417410201E-3
 1.004952684265000E+10  -3.979644576303296E-1   -2.179402857925756E-1    2.510554552960944E-5    9.462413252309968E-4   -2.944700527824441E-5    9.494951559392486E-4   -4.733702971206251E-1   -6.956415832157981E-3
 1.004952908200000E+10  -3.981045173126966E-1   -2.176250047329485E-1    2.937152452129440E-5    9.503363574041267E-4   -5.599569848973217E-5    9.646115138756424E-4   -4.733356703171380E-1   -6.735218366716885E-3
 1.004953132135000E+10  -3.981293576869482E-1   -2.175408012696880E-1    1.607711964660390E-5    9.739873952247799E-4   -1.846142609301527E-5    9.564165772180333E-4   -4.733756355546307E-1   -6.266561350096309E-3
 1.004953356070000E+10  -3.983697249754458E-1   -2.174560913005432E-1    2.726703097772050E-5    9.789903007605329E-4   -2.397213306304412E-5    9.749257437349123E-4   -4.732591583739891E-1   -6.176126741024798E-3
 1.004953580005000E+10  -3.983256852203338E-1   -2.173612266357088E-1    2.574796832594359E-5    9.927670443111570E-4   -4.102910675455437E-5    1.006361093029034E-3   -4.731077581263857E-1   -5.940804113042367E-3
 1.004953803940000E+10  -3.984419109782550E-1   -2.171782517312887E-1    6.039924556986633E-5    9.535883262258291E-4   -1.756188049188687E-5    1.015643787799223E-3   -4.733130701996620E-1   -5.768907420545006E-3
 1.004954027875000E+10  -3.984872461150492E-1   -2.170289048377862E-1    6.575275670318211E-5    9.983218224263420E-4   -4.603378123740974E-5    1.019371874658055E-3   -4.732712493559812E-1   -5.412453296310415E-3
 1.004954251810000E+10  -3.985466890883853E-1   -2.168666633593447E-1    3.697211902741800E-5    1.013189052322099E-3   -3.373459263427537E-5    1.014415669295540E-3   -4.732023972892299E-1   -5.257849042330384E-3
 1.004954475745000E+10  -3.986013385840833E-1   -2.167942516792067E-1    3.320502409979222E-5    1.069320925718497E-3   -1.869793986760770E-5    1.048678484720867E-3   -4.731393274011977E-1   -4.794421908644520E-3
 1.004954699680000E+10  -3.987583861218053E-1   -2.167138316961300E-1    5.147626777706484E-5    1.068645472194004E-3   -6.732519664977255E-6    1.068265310056521E-3   -4.731595344831437E-1   -4.435729783637526E-3
 1.004954923615000E+10  -3.986810730215629E-1   -2.164580431637090E-1    3.536894561264394E-5    1.076689791529792E-3   -3.014481546536372E-5    1.095916960719243E-3   -4.731471483041155E-1   -4.252025523689896E-3
 1.004955147550000E+10  -3.987296963214805E-1   -2.163223808106201E-1    3.443524921951841E-5    1.085748371154201E-3   -3.383512166188876E-5    1.083116217701471E-3   -4.730193893064515E-1   -3.931731806964777E-3
 1.004955371485000E+10  -3.988106291651655E-1   -2.161889217875719E-1    9.644623482655950E-6    1.073089642535920E-3   -3.983468074231422E-5    1.115443632877042E-3   -4.729640906132595E-1   -3.814320041017087E-3
 1.004955595420000E+10  -3.988316136277515E-1   -2.161072676932879E-1    5.925150817218643E-5    1.144332242631431E-3   -1.458954958637981E-5    1.136769190482848E-3   -4.728931786661721E-1   -3.487391247665983E-3
 1.004955819355000E+10  -3.990445266520525E-1   -2.159789513910903E-1    2.711434363824127E-5    1.114385560382669E-3   -1.236981843734626E-6    1.135321402330896E-3   -4.729122772171591E-1   -3.141176786323933E-3
 1.004956043290000E+10  -3.990828824844704E-1   -2.157765905997694E-1    3.428253041511190E-5    1.142996801884826E-3   -7.320407916584556E-6    1.138953174521900E-3   -4.728894659293911E-1   -2.794653448667130E-3
 1.004956267225000E+10  -3.989940620229619E-1   -2.156747417611101E-1    2.221448240260602E-5    1.154594503565240E-3   -1.774876988858383E-5    1.182680635245738E-3   -4.727731309136373E-1   -2.654948841165539E-3
 1.004956491160000E+10  -3.991930595292799E-1   -2.155311730391832E-1    7.782858237251199E-5    1.161078046243126E-3   -2.727978228504602E-5    1.194229788760084E-3   -4.727277881182738E-1   -2.245371779990143E-3
 1.004956715095000E+10  -3.994156152707731E-1   -2.153726869664610E-1    5.236879030477068E-5    1.175516137407406E-3   -2.423870037872242E-5    1.184325467073940E-3   -4.727340644185720E-1   -1.862160952709015E-3
 1.004956939030000E+10  -3.993326813490989E-1   -2.153589167434029E-1    4.198267310861110E-5    1.196935369153724E-3   -2.530474359146654E-5    1.229424439365648E-3   -4.727156874948290E-1   -1.720882537923533E-3
 1.004957162965000E+10  -3.993858308747267E-1   -2.151723288230614E-1    5.115372321435937E-5    1.240470258807307E-3   -2.795616596998991E-5    1.215937571419032E-3   -4.727921237630563E-1   -1.299123904183337E-3
 1.004957386900000E+10  -3.994579129267398E-1   -2.150114194589562E-1    5.073738034145320E-5    1.255502452568431E-3   -1.426743643313281E-5    1.241005369336348E-3   -4.726807326581605E-1   -1.109064008645162E-3
 1.004957610835000E+10  -3.995669144336380E-1   -2.147856457750921E-1    7.027146564256633E-5    1.319807618198800E-3   -7.891498998658648E-6    1.266012839728409E-3   -4.725183077236342E-1   -7.080204056578403E-4
 1.004957834770000E+10  -3.994698552713415E-1   -2.148170279944010E-1    5.441372657831911E-5    1.253135590960426E-3   -1.651970787197924E-5    1.275481237945303E-3   -4.727456233177385E-1   -3.672592506644122E-4
 1.004958058705000E+10  -3.996113466530427E-1   -2.146711607944284E-1    2.841425107367447E-5    1.267592643190600E-3    4.090188709470026E-7    1.313298666455626E-3   -4.723669934690195E-1   -7.686379749930066E-5
 1.004958282640000E+10  -3.997723064438782E-1   -2.144908345841786E-1    4.820549480769349E-5    1.306648470443492E-3   -2.653368931127916E-5    1.307896587950158E-3   -4.723699825825559E-1    2.122618265536087E-4
 1.004958506575000E+10  -3.997134745213623E-1   -2.141941985074026E-1    4.389151327592382E-5    1.302111051332074E-3   -4.672547793569858E-6    1.358978711013231E-3   -4.724491930195950E-1    5.230905656863583E-4
 1.004958730510000E+10  -3.999736030809485E-1   -2.141408914439372E-1    4.966685352010732E-5    1.342113303107934E-3    2.927901431494947E-6    1.321141093451414E-3   -4.722814114537632E-1    7.842823925247065E-4
 1.004958954445000E+10  -3.998283283404466E-1   -2.140573210492956E-1    7.556735083051837E-5    1.378118847295737E-3    1.899435852896420E-5    1.352352973693178E-3   -4.724490905415546E-1    1.136006402694507E-3
 1.004959178380000E+10  -3.999279892951314E-1   -2.138950992751125E-1    8.784027515348891E-5    1.402786826909426E-3   -2.239251893945323E-5    1.416722379262277E-3   -4.722140582855177E-1    1.497054309824266E-3
 1.004959402315000E+10  -4.001059259323741E-1   -2.138803184728143E-1    5.320870094306444E-5    1.384526832789293E-3   -8.793319802688412E-6    1.424236196660952E-3   -4.722861781049387E-1    1.776991712392668E-3
 1.004959626250000E+10  -4.001039106482850E-1   -2.137622007725686E-1    9.604731250747728E-5    1.414711897241574E-3   -1.088904688713358E-5    1.453862534427127E-3   -4.722440361332848E-1    2.043224111284736E-3
 1.004959850185000E+10  -4.002488369180742E-1   -2.135099219777146E-1    8.356206542742759E-5    1.441151750406222E-3   -2.381237841447409E-5    1.448179769604490E-3   -4.722683851416012E-1    2.389774519807201E-3
 1.004960074120000E+10  -4.001514026015723E-1   -2.134537143426902E-1    8.769290545871786E-5    1.449831709002149E-3    6.049313939606256E-6    1.451007010383804E-3   -4.720892611149490E-1    2.695042984355595E-3
 1.004960298055000E+10  -4.003150559505546E-1   -2.132158988063817E-1    9.648093624493776E-5    1.439564097237346E-3   -9.281843627326188E-7    1.469584544909193E-3   -4.720212772324512E-1    3.113117246546282E-3
 1.004960521990000E+10  -4.004256407954176E-1   -2.131296378802855E-1    7.292586498127843E-5    1.492369089227144E-3   -9.809545389193548E-6    1.503750724048755E-3   -4.721623405877774E-1    3.370503462361231E-3
 1.004960745925000E+10  -4.003904208176667E-1   -2.130314330275154E-1    9.038982536752802E-5    1.507542277587611E-3    1.446984404467053E-5    1.513461012809988E-3   -4.718557438668959E-1    3.689079728090362E-3
 1.004960969860000E+10  -4.005522935290704E-1   -2.128051676770023E-1    8.828181531470662E-5    1.542970596853689E-3   -1.113424769471271E-5    1.532618337152866E-3   -4.718918145239822E-1    3.946103967188504E-3
 1.004961193795000E+10  -4.005787283266122E-1   -2.126666499780102E-1    8.752198991517307E-5    1.544436610158465E-3    2.157867204923579E-5    1.554208628544316E-3   -4.718113065591023E-1    4.433556525581478E-3
 1.004961417730000E+10  -4.006837728650350E-1   -2.127095554934518E-1    1.006881954074839E-4    1.561484006609460E-3    9.064000855322123E-6    1.576264359626957E-3   -4.716690884458376E-1    4.670510895875587E-3
 1.004961641665000E+10  -4.006765007217141E-1   -2.123966519915616E-1    9.680695035393954E-5    1.598198346347059E-3    1.358870251002141E-5    1.608754605835302E-3   -4.717899821732212E-1    5.138551997899433E-3
 1.004961865600000E+10  -4.009158326553732E-1   -2.123045451102691E-1    1.087891672374664E-4    1.616929644542785E-3    1.115285084245684E-5    1.628070251392449E-3   -4.716974009540433E-1    5.303898980015854E-3
 1.004962089535000E+10  -4.008302936382057E-1   -2.121595233409602E-1    1.107705496206592E-4    1.637648784666685E-3    1.690294655234038E-5    1.643298691211261E-3   -4.715512141821667E-1    5.721993492042611E-3
 1.004962313470000E+10  -4.008408179376783E-1   -2.120504300541983E-1    9.981223432566568E-5    1.666248588142172E-3    1.321508141317058E-5    1.687350824369000E-3   -4.715319294030559E-1    6.176132579327262E-3
 1.004962537405000E+10  -4.009281255203491E-1   -2.118559532067956E-1    1.255925953214950E-4    1.691684700322781E-3    3.713557610475189E-5    1.684498932642792E-3   -4.715106919761469E-1    6.496025703967973E-3
 1.004962761340000E+10  -4.011003978445106E-1   -2.117201988237757E-1    1.015119285832858E-4    1.704542211096677E-3   -2.547991554390408E-5    1.719148971503501E-3   -4.714780833113129E-1    6.927393103128199E-3
 1.004962985275000E+10  -4.011006297888759E-1   -2.117356842304640E-1    1.201641192939655E-4    1.735956288339208E-3    3.745024951948111E-5    1.734910319338719E-3   -4.711988095503615E-1    7.172658032656618E-3
 1.004963209210000E+10  -4.011009244701182E-1   -2.115552294026031E-1    1.028742327820576E-4    1.724435300480312E-3    1.403237675451143E-5    1.745315498757828E-3   -4.712371998022710E-1    7.368184735713403E-3
 1.004963433145000E+10  -4.012173257584566E-1   -2.113409591993173E-1    1.476246741019895E-4    1.767552894869381E-3    1.229800270004429E-5    1.782552157630053E-3   -4.712653878537901E-1    7.927284641581690E-3
 1.004963657080000E+10  -4.013227487853784E-1   -2.112008430727258E-1    1.307614427490717E-4    1.792551168039098E-3    3.080234139323976E-5    1.779555123306755E-3   -4.710343512362789E-1    8.304833877777192E-3
 1.004963881015000E+10  -4.012697635822944E-1   -2.111625604592708E-1    1.217872621636308E-4    1.798571277574669E-3    3.784589432634763E-5    1.831166431635764E-3   -4.709601794528630E-1    8.501346976476759E-3
 1.004964104950000E+10  -4.013878275268624E-1   -2.110217620548459E-1    1.539679004427587E-4    1.840353711339990E-3    3.401266501025125E-5    1.861160766141821E-3   -4.709442554077304E-1    9.036988286336351E-3
 1.004964328885000E+10  -4.015328175301190E-1   -2.108137463044029E-1    1.534830953506784E-4    1.864785277179329E-3    4.130699145450663E-5    1.880546592809833E-3   -4.708963530410518E-1    9.340512273574988E-3
 1.004964552820000E+10  -4.015502811936981E-1   -2.107276193785901E-1    1.341150422292824E-4    1.879967376261968E-3    4.466856915007202E-5    1.928674915460455E-3   -4.708823040545722E-1    9.776853894486065E-3
 1.004964776755000E+10  -4.015973416132879E-1   -2.104669075045057E-1    1.709328973606252E-4    1.898469944561161E-3    3.845604108816861E-5    1.948336513631594E-3   -4.707992052618699E-1    1.018016084596380E-2
 1.004965000690000E+10  -4.017169904174572E-1   -2.104730578528576E-1    1.408915178573434E-4    1.952534159103302E-3    4.153255163275281E-5    1.968750949490586E-3   -4.707482378928214E-1    1.055151060739104E-2
 1.004965224625000E+10  -4.017903611292006E-1   -2.103043946926997E-1    1.558347454270584E-4    1.968455456342187E-3    8.020464019441210E-5    1.956640262226155E-3   -4.704762920417674E-1    1.100069774496752E-2
 1.004965448560000E+10  -4.017723478725227E-1   -2.102170228350000E-1    1.785753658276566E-4    2.015283568959122E-3    7.344559114976386E-5    1.985064332103062E-3   -4.704741539970471E-1    1.127727703617621E-2
 1.004965672495000E+10  -4.020048057753902E-1   -2.100359561000298E-1    1.987591468135473E-4    2.031930649939620E-3    7.107043506808854E-5    2.049754123441585E-3   -4.704173872608277E-1    1.174691542329180E-2
 1.004965896430000E+10  -4.019508264636165E-1   -2.099086586568837E-1    2.014673223191000E-4    2.056108874982262E-3    7.516677926294143E-5    2.039710100923383E-3   -4.703660341357975E-1    1.225458665868323E-2
 1.004966120365000E+10  -4.020920608655162E-1   -2.097862297919472E-1    1.742563887666655E-4    2.077451668961978E-3    6.884154126698182E-5    2.102295311249976E-3   -4.701756969134069E-1    1.274426693617678E-2
 1.004966344300000E+10  -4.020253584084341E-1   -2.096546258809714E-1    2.034598658042305E-4    2.107107732910453E-3    7.134128045885206E-5    2.145310336271329E-3   -4.700331912999102E-1    1.292187866818858E-2
 1.004966568235000E+10  -4.020168320207086E-1   -2.095381703496665E-1    2.093409179788089E-4    2.152916853533870E-3    8.364374082338000E-5    2.150748419899662E-3   -4.699101686026396E-1    1.342467183892261E-2
 1.004966792170000E+10  -4.021154442215415E-1   -2.093181541279746E-1    1.996475485078682E-4    2.176197486234095E-3    5.976196318690460E-5    2.181338627108079E-3   -4.700704678840795E-1    1.376308210923838E-2
 1.004967016105000E+10  -4.023120772873162E-1   -2.093011298366662E-1    1.978782598588806E-4    2.167534513497799E-3    8.958132577972242E-5    2.219152750552582E-3   -4.697795625882707E-1    1.425713899032245E-2
 1.004967240040000E+10  -4.023488234427233E-1   -2.090692284495507E-1    2.456764446375533E-4    2.230522170410971E-3    8.069544131363850E-5    2.266411633603169E-3   -4.695054547165188E-1    1.470149762194057E-2
 1.004967463975000E+10  -4.024570614662969E-1   -2.088317859766606E-1    2.121015586247471E-4    2.235619416940835E-3    8.260401898596011E-5    2.273342994711025E-3   -4.695332638285518E-1    1.511567827283526E-2
 1.004967687910000E+10  -4.024975229877094E-1   -2.088617329915234E-1    2.396008558311929E-4    2.271368506425549E-3    1.013885225367125E-4    2.307397956840187E-3   -4.693538047451177E-1    1.569277249072367E-2
 1.004967911845000E+10  -4.025347468025094E-1   -2.087151294642943E-1    2.477850886183364E-4    2.288256686393917E-3    1.181222758619919E-4    2.372709760213243E-3   -4.692768506420699E-1    1.589984690272645E-2
 1.004968135780000E+10  -4.026054606319090E-1   -2.085025585044996E-1    2.678380221314928E-4    2.369170902275356E-3    1.054844287708421E-4    2.352023807032780E-3   -4.691737002957250E-1    1.647492365701217E-2
 1.004968359715000E+10  -4.027546329340542E-1   -2.083535708508618E-1    2.469271009593079E-4    2.392797275418598E-3    9.730315132893322E-5    2.404181312082716E-3   -4.688908916076305E-1    1.689426902074835E-2
 1.004968583650000E+10  -4.027619794628036E-1   -2.082380066445529E-1    2.521081347597352E-4    2.414244006262191E-3    1.264926012416248E-4    2.429542497241789E-3   -4.688685909412773E-1    1.742957217958347E-2
