#  HZ   S   RI   R     50.00 
! Rohde & Schwarz Vector Network Analyzer 
! Rohde-Schwarz,ZNB20-2Port,1311601062101988,3.16
! Created: UTC 3/21/2024, 1:22:51 AM
! freq[Hz]                re:S11                  im:S11                  re:S21                  im:S21                  re:S12                  im:S12                  re:S22                  im:S22
 1.004948053900000E+10  -3.966643735314653E-1   -2.205670645928706E-1   -4.073514785221384E-6    7.199668714394981E-4    8.017057236759670E-6    6.827929105771722E-4   -4.738341668534579E-1   -1.235463729974640E-2
 1.004948280260000E+10  -3.965684253861959E-1   -2.205736071220269E-1    3.726924103857729E-5    7.171275798998432E-4   -4.820670386337652E-5    7.035382670238905E-4   -4.739222951564053E-1   -1.218607355706441E-2
 1.004948506620000E+10  -3.967833820333133E-1   -2.204107094592036E-1    1.734246122521707E-5    6.966229394322696E-4   -2.740120672858596E-5    7.269859771943837E-4   -4.738485184739560E-1   -1.183025937332922E-2
 1.004948732980000E+10  -3.967878578485566E-1   -2.203344697500995E-1    2.640669801414607E-5    7.426215551624205E-4   -3.472444344810893E-5    7.661439684809511E-4   -4.737219146206999E-1   -1.163534227412392E-2
 1.004948959340000E+10  -3.968331359607022E-1   -2.200814293119622E-1    1.245879136013147E-5    7.429172803695463E-4   -4.594885918015071E-5    7.848777420962742E-4   -4.738444370096275E-1   -1.126494321839810E-2
 1.004949185700000E+10  -3.969760451542030E-1   -2.200259886858074E-1    2.352378643630223E-5    7.531357955108884E-4   -3.204298200444827E-5    7.794375848722088E-4   -4.737211197113314E-1   -1.100274907265638E-2
 1.004949412060000E+10  -3.969589228439332E-1   -2.198019879115715E-1    2.246492237654667E-5    7.855528008552039E-4   -2.232908445076580E-5    7.728899231383501E-4   -4.738261200792121E-1   -1.078514344105813E-2
 1.004949638420000E+10  -3.970260882731221E-1   -2.196945526546187E-1    1.749468410790598E-5    7.713257580926616E-4   -3.266163510843545E-5    7.861117406626952E-4   -4.737020440022431E-1   -1.067172000925989E-2
 1.004949864780000E+10  -3.971583747873506E-1   -2.196257516653928E-1    8.398210306085602E-6    7.777736474242338E-4   -5.424700556436587E-5    7.925721644351492E-4   -4.736395935840058E-1   -1.025283018612983E-2
 1.004950091140000E+10  -3.972226018752230E-1   -2.194233307156035E-1    1.522891581142385E-5    8.109523012723741E-4   -3.803760519141089E-5    7.971866511236890E-4   -4.735643025441995E-1   -9.993053499637531E-3
 1.004950317500000E+10  -3.972930534880759E-1   -2.194078004709383E-1    4.621643962492312E-5    8.143500788410062E-4   -4.098120508409457E-5    8.244514604685521E-4   -4.736973760775284E-1   -9.878957746615336E-3
 1.004950543860000E+10  -3.973116073496670E-1   -2.193113487080195E-1    1.523436392345014E-5    8.121207569047686E-4   -1.874556515436379E-5    8.305528849135449E-4   -4.734314334433539E-1   -9.525866096224328E-3
 1.004950770220000E+10  -3.973856145639817E-1   -2.189669030974940E-1    2.711999090691833E-5    8.430466082742483E-4   -1.498679616805138E-5    8.812523470066249E-4   -4.735753928840277E-1   -9.191055249270878E-3
 1.004950996580000E+10  -3.973970107970435E-1   -2.188067169620164E-1    1.836443117650555E-5    8.357560337948741E-4   -1.982627948025332E-5    8.233816926058179E-4   -4.735700678343567E-1   -9.095437897524568E-3
 1.004951222940000E+10  -3.976365492651627E-1   -2.188399758875765E-1    3.318148387154805E-5    8.670976785898751E-4   -9.766827305018590E-6    8.686373600113966E-4   -4.735592290761953E-1   -8.709750558187840E-3
 1.004951449300000E+10  -3.976297162409035E-1   -2.185644604606187E-1    4.315731197182344E-5    8.685015380657964E-4   -2.416481336493490E-5    8.653290536764256E-4   -4.734851936005423E-1   -8.551090963112176E-3
 1.004951675660000E+10  -3.976642844700211E-1   -2.184943404331340E-1    2.100894730540704E-5    8.959303168906165E-4   -5.780854509557199E-5    8.593147918356573E-4   -4.735197829299930E-1   -8.284788785965190E-3
 1.004951902020000E+10  -3.978147201006063E-1   -2.183742207043553E-1    1.669655464037146E-5    9.183913271134363E-4   -3.069974924472913E-5    9.095265168663172E-4   -4.734178516426631E-1   -7.952303663357403E-3
 1.004952128380000E+10  -3.978938314286458E-1   -2.183088486986979E-1    1.417212077897381E-5    8.993555825373847E-4   -1.508001450020471E-5    9.147195960245595E-4   -4.735879382525157E-1   -7.612728784847048E-3
 1.004952354740000E+10  -3.978417905922953E-1   -2.181009387500809E-1   -6.667141824328626E-6    9.111486506007479E-4   -3.743498333255005E-5    9.160584121900417E-4   -4.733539331220735E-1   -7.435988462992556E-3
 1.004952581100000E+10  -3.980466718312827E-1   -2.179388375101197E-1    3.060688417286653E-5    9.305043489793724E-4   -2.491896242077409E-5    9.375024404361911E-4   -4.734161928167260E-1   -7.144163893257855E-3
 1.004952807460000E+10  -3.979934974385184E-1   -2.179350509547787E-1    3.127047195543870E-5    9.189755849441493E-4   -2.085944464999941E-5    9.383172017874201E-4   -4.733474885374883E-1   -6.860927732753234E-3
 1.004953033820000E+10  -3.979622300956093E-1   -2.177179677317451E-1    3.101087085991150E-5    9.514032619046057E-4   -3.915106741376537E-5    9.611157447836160E-4   -4.734007915796746E-1   -6.440269959423719E-3
 1.004953260180000E+10  -3.981010462520244E-1   -2.175317366493666E-1    4.069854284790784E-5    9.542078036472813E-4   -2.250405563320492E-5    9.519484687464198E-4   -4.734307427535474E-1   -6.349063372650741E-3
 1.004953486540000E+10  -3.983047020602191E-1   -2.173508764830836E-1    2.729560379242829E-5    9.778296270051300E-4   -2.894366586488897E-5    9.995400465359727E-4   -4.733054750532008E-1   -6.107385457415248E-3
 1.004953712900000E+10  -3.981640437809054E-1   -2.171406433282509E-1    6.449358318376495E-5    9.687417079295525E-4   -3.449691849487827E-5    9.936286263852584E-4   -4.732964187858858E-1   -5.820482374355704E-3
 1.004953939260000E+10  -3.984657247550367E-1   -2.170920250871370E-1    3.807239091989300E-5    1.015091727159073E-3   -1.854523171924312E-5    1.013780738765265E-3   -4.731212158476505E-1   -5.506734623529809E-3
 1.004954165620000E+10  -3.984693778302004E-1   -2.170649274707257E-1    3.471265810092590E-5    1.027094864654015E-3   -2.636318139492893E-5    1.056734472086812E-3   -4.731048696854091E-1   -5.169248660487287E-3
 1.004954391980000E+10  -3.984958971409733E-1   -2.168529133034874E-1    3.635856982711107E-5    1.047849109714500E-3   -3.154950108367346E-5    1.059995247901217E-3   -4.731324850123724E-1   -4.853257309089309E-3
 1.004954618340000E+10  -3.987205552775008E-1   -2.165890116920315E-1    2.475613911560767E-5    1.046374297577224E-3   -1.608720613910583E-5    1.034394773688077E-3   -4.730396009060910E-1   -4.680507322645108E-3
 1.004954844700000E+10  -3.986668167124422E-1   -2.165912527662378E-1    5.005699648267972E-5    1.069544337993754E-3   -1.613606294433920E-5    1.076827281026166E-3   -4.730988744851987E-1   -4.380576393529372E-3
 1.004955071060000E+10  -3.986397652520826E-1   -2.163756686121081E-1    2.447526801970251E-5    1.046083937199255E-3   -3.438565727838523E-5    1.074300282449603E-3   -4.730458529014989E-1   -4.022450908549175E-3
 1.004955297420000E+10  -3.987711191594673E-1   -2.165010673641464E-1    4.370375714117929E-5    1.106592390520526E-3   -2.840476251157307E-5    1.119602683898670E-3   -4.728838885359014E-1   -3.788203165566794E-3
 1.004955523780000E+10  -3.988879163076099E-1   -2.163241834593292E-1    7.088254579690651E-5    1.090260134419441E-3   -2.171497343477589E-5    1.110473486584501E-3   -4.729298776726927E-1   -3.669983424362300E-3
 1.004955750140000E+10  -3.989654779430531E-1   -2.160282265350354E-1    3.573272060939095E-5    1.115388541053375E-3   -3.490776530876942E-5    1.126409249754306E-3   -4.729042755753864E-1   -3.343339384689918E-3
 1.004955976500000E+10  -3.990447818334674E-1   -2.158249955434168E-1    4.711945069940801E-5    1.148000742675126E-3   -2.777939479827262E-5    1.141326254985035E-3   -4.728622982879597E-1   -3.012210529074162E-3
 1.004956202860000E+10  -3.991241600850721E-1   -2.157914751699111E-1    5.674258059883051E-5    1.195340883223662E-3   -1.021967799432630E-5    1.183510207940357E-3   -4.728710315159963E-1   -2.463035596477168E-3
 1.004956429220000E+10  -3.993293492639484E-1   -2.156542612892556E-1    5.524754491806643E-5    1.167660566201435E-3   -3.124525081497985E-5    1.199134921045349E-3   -4.728317708842627E-1   -2.489366993635701E-3
 1.004956655580000E+10  -3.992537130649567E-1   -2.155080896509161E-1    4.805949110990075E-5    1.194796431337650E-3   -6.266028960192531E-5    1.196070864490319E-3   -4.727896893665130E-1   -2.124801795587653E-3
 1.004956881940000E+10  -3.992114039841643E-1   -2.153128838667480E-1    6.602966579919249E-5    1.217989628770615E-3    1.654734642475439E-6    1.229699171353712E-3   -4.728017771221970E-1   -1.725765534965142E-3
 1.004957108300000E+10  -3.993681973012208E-1   -2.152842649699639E-1    2.191589346463048E-5    1.245288348144398E-3   -1.541341348789469E-5    1.212732897107941E-3   -4.727727090227394E-1   -1.471664661166937E-3
 1.004957334660000E+10  -3.994092603439267E-1   -2.150180354530491E-1    5.845403836580726E-5    1.249063112626811E-3   -6.019591342181637E-5    1.211396247134413E-3   -4.725777919940307E-1   -1.087186166112396E-3
 1.004957561020000E+10  -3.995330395071087E-1   -2.150344550698942E-1    4.764763276952398E-5    1.242693344396790E-3   -3.068276126143502E-5    1.278339878375283E-3   -4.725811846526456E-1   -8.778443367181774E-4
 1.004957787380000E+10  -3.994948087012541E-1   -2.148702100648854E-1    3.888565433487721E-5    1.274825080931060E-3   -2.029272502801783E-5    1.283192358404363E-3   -4.726142904276054E-1   -4.575676870510880E-4
 1.004958013740000E+10  -3.996203556527607E-1   -2.147257780271325E-1    5.084312206955491E-5    1.262129126801624E-3   -1.521408363612988E-5    1.278417983254103E-3   -4.725917447212654E-1   -2.358944022998608E-4
 1.004958240100000E+10  -3.997286477386187E-1   -2.144892898332368E-1    4.987618881159325E-5    1.310354625638627E-3   -2.232996939305274E-5    1.299594859318293E-3   -4.723989853678254E-1    1.557888251826122E-5
 1.004958466460000E+10  -3.998054586097179E-1   -2.145068383575179E-1    8.507779046138710E-5    1.321507174398972E-3   -1.690208232918770E-5    1.305704069470198E-3   -4.725401919550051E-1    4.974826242039141E-4
 1.004958692820000E+10  -3.998232970999546E-1   -2.143233513744769E-1    7.593426526006738E-5    1.358857049885449E-3   -2.064126391521287E-6    1.344325712010272E-3   -4.724306714043389E-1    7.730962100004938E-4
 1.004958919180000E+10  -3.997911048578065E-1   -2.141801574677239E-1    4.968448750055751E-5    1.353679059117905E-3   -2.924028719235752E-5    1.372109395038727E-3   -4.724377761136624E-1    1.047492576066343E-3
 1.004959145540000E+10  -3.999407833767372E-1   -2.139367281421162E-1    5.947880306666232E-5    1.358040538664185E-3    2.233388707091308E-6    1.395878824996218E-3   -4.724246064643455E-1    1.272409241297224E-3
 1.004959371900000E+10  -4.000563542023994E-1   -2.138810111226862E-1    6.921012571713276E-5    1.399827967400754E-3   -4.951369312435843E-6    1.397491326835288E-3   -4.724422970780722E-1    1.721721944111330E-3
 1.004959598260000E+10  -4.001523517284017E-1   -2.137597599089522E-1    8.815465200318538E-5    1.396418340598352E-3   -1.702433096627717E-5    1.417604198358211E-3   -4.722627887215796E-1    2.206208370538109E-3
 1.004959824620000E+10  -4.002518945587918E-1   -2.136753872447964E-1    5.686215714790980E-5    1.442406199259134E-3   -1.198340046535213E-5    1.435788042343101E-3   -4.721713231718034E-1    2.303141598608691E-3
 1.004960050980000E+10  -4.002321812586055E-1   -2.134345392252552E-1    8.828680401772526E-5    1.456522272722208E-3   -1.285243293891494E-6    1.452365154528877E-3   -4.721019145008267E-1    2.745437652169702E-3
 1.004960277340000E+10  -4.003566539888998E-1   -2.133722529684212E-1    6.948495494747301E-5    1.451766801452200E-3    1.000093735906516E-5    1.475827957510305E-3   -4.720444252584483E-1    3.141650184185337E-3
 1.004960503700000E+10  -4.003990767559180E-1   -2.132377346299013E-1    8.411728798540598E-5    1.470790675877388E-3    1.898275951698205E-5    1.507241087259181E-3   -4.721036520590997E-1    3.213920382190789E-3
 1.004960730060000E+10  -4.004671898908909E-1   -2.129323151816238E-1    7.455605832653156E-5    1.467191907319583E-3   -2.250323254311806E-5    1.502081241654357E-3   -4.720195393186145E-1    3.731094945174579E-3
 1.004960956420000E+10  -4.004007170521304E-1   -2.128975905925491E-1    1.041169882462851E-4    1.526020790744640E-3   -1.291376825972686E-5    1.531834804711757E-3   -4.718656797528806E-1    4.045802609289537E-3
 1.004961182780000E+10  -4.007623778263497E-1   -2.128058421498193E-1    8.043341989686083E-5    1.551874789222478E-3   -1.565816069023215E-5    1.556670900070143E-3   -4.718884885274466E-1    4.335816901268409E-3
 1.004961409140000E+10  -4.007530748990512E-1   -2.125612742079261E-1    9.351748868770054E-5    1.567000471690914E-3    2.125615108964464E-5    1.574785627434724E-3   -4.718065394168886E-1    4.728501911433930E-3
 1.004961635500000E+10  -4.006299745385520E-1   -2.126165322036510E-1    7.326294862950335E-5    1.594476248383389E-3    1.433561342419307E-5    1.616053810936586E-3   -4.716246701916740E-1    4.923416511786016E-3
 1.004961861860000E+10  -4.006522288759337E-1   -2.122619510201317E-1    1.036664942848734E-4    1.611857870633459E-3    3.333404385778828E-5    1.637382318873483E-3   -4.715319235141517E-1    5.344335249005809E-3
 1.004962088220000E+10  -4.007710290293379E-1   -2.122209871021963E-1    9.304346152893098E-5    1.627538982791796E-3    2.078401321835138E-5    1.654985169926806E-3   -4.716478523218172E-1    5.720517461651822E-3
 1.004962314580000E+10  -4.007767097215602E-1   -2.122248181764019E-1    1.257867321883271E-4    1.671618037676043E-3    6.273754692030841E-6    1.663880023807283E-3   -4.715052482845277E-1    6.051510688588125E-3
 1.004962540940000E+10  -4.009135076832652E-1   -2.120661171298917E-1    1.269980145724579E-4    1.665712480202422E-3    1.598724876038025E-5    1.693039103134094E-3   -4.715512481074287E-1    6.405897488800978E-3
 1.004962767300000E+10  -4.010978316309016E-1   -2.117328159196721E-1    1.267251457122754E-4    1.714833077022580E-3   -5.217316976379237E-6    1.718307457241244E-3   -4.713738816565826E-1    6.769166786216568E-3
 1.004962993660000E+10  -4.010823387285922E-1   -2.115449768484382E-1    1.404630045570778E-4    1.734589609230012E-3    5.536865968406456E-6    1.739065185182701E-3   -4.712317330202387E-1    7.131000063110680E-3
 1.004963220020000E+10  -4.010623435504624E-1   -2.115581610418391E-1    1.410419269225997E-4    1.736425723936064E-3    1.165079609588030E-5    1.769324587644413E-3   -4.713055535548848E-1    7.521424929191898E-3
 1.004963446380000E+10  -4.011958253505196E-1   -2.113837152730272E-1    1.446342258105285E-4    1.763338126805549E-3    3.450263084050790E-5    1.773851229020324E-3   -4.712024388301276E-1    7.932210430297857E-3
 1.004963672740000E+10  -4.012424922033986E-1   -2.112647213141581E-1    1.604129414239722E-4    1.790472175895996E-3    8.025603138831031E-6    1.809272623698863E-3   -4.710981241197845E-1    8.401852020363908E-3
 1.004963899100000E+10  -4.013186304868353E-1   -2.112397007488640E-1    1.285315307801597E-4    1.835759340270015E-3    5.352679175781275E-5    1.826598470331329E-3   -4.710793881739926E-1    8.755678072690820E-3
 1.004964125460000E+10  -4.014484220766050E-1   -2.108587611869482E-1    1.341068588562284E-4    1.838882512763456E-3    4.256072399627033E-5    1.853656305031572E-3   -4.710085534502701E-1    9.045537362771160E-3
 1.004964351820000E+10  -4.014058299084564E-1   -2.107818932894631E-1    1.497628013490100E-4    1.861409446478319E-3    6.162214959014009E-5    1.869219336507185E-3   -4.709438383470084E-1    9.487133794121715E-3
 1.004964578180000E+10  -4.016676631268785E-1   -2.107988025465891E-1    1.433306147926994E-4    1.927445629335352E-3    6.448901128104283E-5    1.923252559041745E-3   -4.708698050752828E-1    9.771119905264183E-3
 1.004964804540000E+10  -4.014666554955388E-1   -2.105672410541921E-1    1.375431120693878E-4    1.919331638182479E-3    5.262642655233371E-5    1.940778355863688E-3   -4.707636817246461E-1    1.017098483387730E-2
 1.004965030900000E+10  -4.016927815207837E-1   -2.104617436241706E-1    1.644641463128536E-4    1.943069424491256E-3    1.433670581216867E-5    1.952910291106476E-3   -4.706336453067392E-1    1.056665045552608E-2
 1.004965257260000E+10  -4.018134380168333E-1   -2.103139065605303E-1    1.706685112019041E-4    1.966718766057010E-3    5.927911050382290E-5    2.017523599476365E-3   -4.705336438397473E-1    1.116898483061117E-2
 1.004965483620000E+10  -4.017836177241625E-1   -2.100956318792936E-1    1.500306710253291E-4    2.006700161267667E-3    3.354107594526119E-5    2.041182466800987E-3   -4.704633346927365E-1    1.137301805413431E-2
 1.004965709980000E+10  -4.019194240450624E-1   -2.099300136205655E-1    1.804266832888839E-4    2.069175532208618E-3    5.631365382186860E-5    2.059160162609722E-3   -4.703753671998231E-1    1.178520536123515E-2
 1.004965936340000E+10  -4.019490198609330E-1   -2.099039569625504E-1    1.734354131375412E-4    2.033522306103394E-3    5.505848440068788E-5    2.100849734796891E-3   -4.702721863681769E-1    1.218882766494196E-2
 1.004966162700000E+10  -4.019965570392996E-1   -2.097585751269864E-1    2.033211916955272E-4    2.069170052285795E-3    6.199336022816192E-5    2.105126116874216E-3   -4.701221536213008E-1    1.270882501719406E-2
 1.004966389060000E+10  -4.021931715144066E-1   -2.096408451248813E-1    1.866214794115068E-4    2.118122590314206E-3    6.877550727988656E-5    2.118434054978992E-3   -4.700974810599221E-1    1.301697795401198E-2
 1.004966615420000E+10  -4.020720637019793E-1   -2.095443277485176E-1    2.277985749505411E-4    2.129196296788788E-3    8.513315362400822E-5    2.165185529942194E-3   -4.700481771603047E-1    1.357471405443264E-2
 1.004966841780000E+10  -4.021559028070457E-1   -2.093367590375754E-1    2.280682624236472E-4    2.182738702799972E-3    7.686290391545828E-5    2.184497085333905E-3   -4.696891266077728E-1    1.400867799935922E-2
 1.004967068140000E+10  -4.023362708160599E-1   -2.091951022520737E-1    2.317967565659068E-4    2.218660156388312E-3    1.030491485255194E-4    2.227383433024577E-3   -4.696985289452326E-1    1.438022058880963E-2
 1.004967294500000E+10  -4.023274430667810E-1   -2.089218195142641E-1    2.154996821330114E-4    2.221457952521906E-3    9.545856707186071E-5    2.229930178279202E-3   -4.698141814273194E-1    1.465228422404501E-2
 1.004967520860000E+10  -4.023680644164881E-1   -2.089239456889200E-1    2.289604121522652E-4    2.236574472475730E-3    1.035407285051968E-4    2.301273091704694E-3   -4.694635124876095E-1    1.525355576585615E-2
 1.004967747220000E+10  -4.024968040622834E-1   -2.088653003421445E-1    2.219615539695360E-4    2.305405558250043E-3    9.323525992865473E-5    2.326102320233569E-3   -4.692560282841609E-1    1.570900356816617E-2
 1.004967973580000E+10  -4.025432205398575E-1   -2.085956488788552E-1    2.563254931515751E-4    2.303407115195919E-3    1.128175188404413E-4    2.350754007288384E-3   -4.692320423661039E-1    1.617750367688488E-2
 1.004968199940000E+10  -4.024854478596497E-1   -2.084918567927437E-1    2.305711832166580E-4    2.351629234837384E-3    1.001747691987054E-4    2.377555606367763E-3   -4.690956341774282E-1    1.651876881426961E-2
 1.004968426300000E+10  -4.027010119368341E-1   -2.083903101305633E-1    2.398309800267456E-4    2.378974541231026E-3    1.354484048604309E-4    2.433052812151960E-3   -4.689493260505086E-1    1.697981287621165E-2
