#  HZ   S   RI   R     50.00 
! Rohde & Schwarz Vector Network Analyzer 
! Rohde-Schwarz,ZNB20-2Port,1311601062101988,3.16
! Created: UTC 3/21/2024, 1:23:51 AM
! freq[Hz]                re:S11                  im:S11                  re:S21                  im:S21                  re:S12                  im:S12                  re:S22                  im:S22
 1.004944099300000E+10  -3.949446529237368E-1   -2.235005299375357E-1    3.367199209709279E-5    4.880901997504108E-4   -3.835930335307771E-5    4.929497990367774E-4   -4.739771930661248E-1   -1.784156177058108E-2
 1.004944352030000E+10  -3.951531162152411E-1   -2.233360855081557E-1    1.808110424159789E-5    4.707095042363341E-4    1.363119818424273E-5    5.005859701832529E-4   -4.739482364367427E-1   -1.750721769447342E-2
 1.004944604760000E+10  -3.952328706315663E-1   -2.231742063727963E-1    3.005566332683791E-5    4.847092685507691E-4   -1.661766028847918E-6    4.926743736782418E-4   -4.739808337191463E-1   -1.725257910910806E-2
 1.004944857490000E+10  -3.951587532980008E-1   -2.230907473982103E-1    3.490631966993827E-5    4.763618175685969E-4    1.962214017406081E-5    5.145223750724126E-4   -4.738851250306668E-1   -1.718310426216548E-2
 1.004945110220000E+10  -3.953217014382575E-1   -2.228795269349671E-1    4.876041157540859E-5    5.142381034400166E-4   -1.219377058115919E-5    4.763662875655888E-4   -4.739990446201312E-1   -1.678723729610512E-2
 1.004945362950000E+10  -3.954606905091427E-1   -2.227471932476177E-1    2.004155431971804E-5    5.037447295212175E-4    1.967213284119288E-5    5.005605535424583E-4   -4.739549186000129E-1   -1.657234391206079E-2
 1.004945615680000E+10  -3.955359738107302E-1   -2.226735053291050E-1    3.533127499594164E-5    5.034597525477206E-4    2.166358691181982E-5    5.237482207758753E-4   -4.739160929446388E-1   -1.622194759883807E-2
 1.004945868410000E+10  -3.955477683068130E-1   -2.224248247628904E-1    3.649720261905836E-5    5.325926002077773E-4   -1.316182921261028E-6    5.472630778162625E-4   -4.738977061070836E-1   -1.596222792511646E-2
 1.004946121140000E+10  -3.956366783187935E-1   -2.223618553826885E-1    2.659855840417168E-5    5.302927548235195E-4   -1.634396180603716E-5    5.330050284465757E-4   -4.737625306242277E-1   -1.574838305042382E-2
 1.004946373870000E+10  -3.957807447972727E-1   -2.222097435991810E-1    5.403583341072073E-5    5.267494899873333E-4   -9.541082166292773E-6    5.352888039106124E-4   -4.737844485044697E-1   -1.556272091376782E-2
 1.004946626600000E+10  -3.957698528003927E-1   -2.219193475412287E-1    3.579568623598669E-5    5.758838344412988E-4   -1.423232929580349E-5    5.709726077080145E-4   -4.739117758700103E-1   -1.539681081243092E-2
 1.004946879330000E+10  -3.959381548712708E-1   -2.217368383301859E-1    3.952769418069653E-5    5.540086921623973E-4   -7.705426257418268E-6    5.674955730938827E-4   -4.738772350716755E-1   -1.493247402304396E-2
 1.004947132060000E+10  -3.960353940080791E-1   -2.216845954216974E-1    7.512250137139852E-6    5.810673523411675E-4   -4.213453646438449E-6    5.703694739017358E-4   -4.738500700903620E-1   -1.472161079578583E-2
 1.004947384790000E+10  -3.960902467506396E-1   -2.215369332015474E-1    1.579719084634443E-5    5.831774685394233E-4   -9.384328976763789E-6    6.078437900813403E-4   -4.737872920564187E-1   -1.445454903658586E-2
 1.004947637520000E+10  -3.961876596012325E-1   -2.213495371128699E-1    4.917087340664960E-5    6.111374299887865E-4   -2.627339680004494E-5    5.903419166230666E-4   -4.738249291628364E-1   -1.412241491188146E-2
 1.004947890250000E+10  -3.962797487225202E-1   -2.212335816968664E-1    4.683648499412012E-5    6.347706999379981E-4   -1.613051485125731E-5    6.257092492857626E-4   -4.738094677926895E-1   -1.397752910701529E-2
 1.004948142980000E+10  -3.963066342789962E-1   -2.210716284272581E-1    6.351545008227853E-6    6.403509293609279E-4    2.666893062108448E-5    6.192871637269391E-4   -4.737219450284779E-1   -1.365882246993659E-2
 1.004948395710000E+10  -3.963635479338586E-1   -2.209284724081380E-1    3.028644219313720E-5    6.643238029646343E-4   -1.210115790151743E-5    6.435076690421090E-4   -4.737731758847152E-1   -1.343073165592156E-2
 1.004948648440000E+10  -3.963592620059420E-1   -2.207280773650905E-1    4.000212507355617E-5    6.356973403027521E-4    1.447805009758403E-5    6.742080853497898E-4   -4.735193635753046E-1   -1.314284622362930E-2
 1.004948901170000E+10  -3.964929375969222E-1   -2.206098414194637E-1    3.338411607829797E-5    6.498251133595718E-4   -1.612100320458963E-5    6.474335250182530E-4   -4.736752467117030E-1   -1.288675551374992E-2
 1.004949153900000E+10  -3.965765799689625E-1   -2.204646536647348E-1    1.966138785241001E-5    6.829822000618376E-4    1.674258021387549E-5    6.780943764246455E-4   -4.736680619933716E-1   -1.261549341619173E-2
 1.004949406630000E+10  -3.966302657823337E-1   -2.203099783225085E-1    1.695910349472095E-5    6.757401356704974E-4    9.754519609306271E-7    6.980725962222996E-4   -4.736337329183469E-1   -1.234612964317556E-2
 1.004949659360000E+10  -3.966599780934181E-1   -2.201793705082260E-1    3.145808791508665E-5    7.049087378877963E-4   -1.244627915960505E-5    7.116011704688918E-4   -4.735845115105272E-1   -1.205113312203659E-2
 1.004949912090000E+10  -3.967944520223619E-1   -2.199227934166369E-1    2.107543135717087E-5    7.263341959522369E-4   -3.171399805151406E-5    7.208485011141303E-4   -4.735435841464029E-1   -1.180161093155650E-2
 1.004950164820000E+10  -3.969395470544982E-1   -2.198571396138919E-1    2.115084044913135E-5    7.218111470675783E-4   -2.086491548684452E-5    7.061396999693331E-4   -4.734905676355312E-1   -1.144019460212307E-2
 1.004950417550000E+10  -3.969671068444730E-1   -2.196114401044717E-1    2.813886314257260E-5    7.317382643548862E-4   -3.050802246707392E-5    7.417816092675095E-4   -4.735756212731769E-1   -1.127199807177387E-2
 1.004950670280000E+10  -3.971389110134060E-1   -2.196426045793884E-1    6.179435234876728E-5    7.370543789930390E-4    8.384375419206122E-6    7.392712770070737E-4   -4.735438841548713E-1   -1.068668463598899E-2
 1.004950923010000E+10  -3.971015901458537E-1   -2.193071284049006E-1    2.407669537426859E-5    7.393730805911539E-4    1.680150950607455E-5    7.473150716698385E-4   -4.736101824492458E-1   -1.066031371776697E-2
 1.004951175740000E+10  -3.971113576619020E-1   -2.191392129142586E-1    5.615581101662296E-5    7.425342634965504E-4   -1.554581560392783E-5    7.697968566678467E-4   -4.734945707121729E-1   -1.039047288657406E-2
 1.004951428470000E+10  -3.972348981675716E-1   -2.192089708833452E-1    2.440563329906028E-5    7.417067955616116E-4    6.751364904089093E-6    7.714822797835898E-4   -4.734225269594390E-1   -1.013646548748212E-2
 1.004951681200000E+10  -3.973925897986784E-1   -2.189254159630707E-1    5.118423175540286E-5    7.972681896795996E-4   -1.526153417439993E-5    7.967459875346789E-4   -4.734197144819149E-1   -9.735554931297822E-3
 1.004951933930000E+10  -3.973769112759962E-1   -2.189338402418464E-1    3.981890343515961E-5    8.112301963822447E-4   -2.398011921303483E-5    7.799137637437132E-4   -4.733819118570992E-1   -9.613096599395994E-3
 1.004952186660000E+10  -3.974762298615078E-1   -2.186708761683088E-1    4.988785001989606E-5    8.254022707623458E-4    1.225849919290563E-5    8.295335818758085E-4   -4.732493920168725E-1   -9.158572571741677E-3
 1.004952439390000E+10  -3.976535251541411E-1   -2.184903016339403E-1    2.988379547058001E-5    8.145308260564802E-4   -1.010813572834943E-5    8.245319045960575E-4   -4.733501603172277E-1   -9.036778784747955E-3
 1.004952692120000E+10  -3.977420591051505E-1   -2.183909015270513E-1    3.128189402689579E-5    8.232326904774961E-4   -1.509920026444214E-5    8.267741321473150E-4   -4.733050375461629E-1   -8.662246831077813E-3
 1.004952944850000E+10  -3.977810701134394E-1   -2.182225099686684E-1    3.324530192909591E-5    8.468256033628482E-4   -2.312275677849682E-5    8.445260613434725E-4   -4.731546940567325E-1   -8.318932393341303E-3
 1.004953197580000E+10  -3.977264142304883E-1   -2.180228238525085E-1    6.685865452632103E-5    8.692020763236847E-4   -1.780223848749264E-5    8.722186808185473E-4   -4.733154263988433E-1   -8.021914889750315E-3
 1.004953450310000E+10  -3.979318409822086E-1   -2.179735114863073E-1    5.721039344827683E-5    8.921358561402001E-4    1.052773328716089E-5    9.038495452112809E-4   -4.731327085292222E-1   -7.744238692668008E-3
 1.004953703040000E+10  -3.979581127037560E-1   -2.176648243213706E-1    4.556991232370351E-5    9.007111347754396E-4    8.014408861181172E-6    9.322953817302834E-4   -4.730646455050619E-1   -7.454552030258575E-3
 1.004953955770000E+10  -3.981023181937492E-1   -2.175804757271701E-1    7.964314177288621E-5    9.002739575477921E-4    2.267317775614695E-5    9.180486168571493E-4   -4.730552384751835E-1   -7.222616622900762E-3
 1.004954208500000E+10  -3.982193025836144E-1   -2.173458520355588E-1    4.210254132832394E-5    9.195067069793834E-4   -1.701548791114076E-5    9.401135380845750E-4   -4.730333645476714E-1   -6.867048321878795E-3
 1.004954461230000E+10  -3.982049768166762E-1   -2.172596318662824E-1    7.908057497750941E-5    9.300284381102747E-4   -2.315100278102740E-5    9.426664502718618E-4   -4.731571287520658E-1   -6.655864834203220E-3
 1.004954713960000E+10  -3.983426826456216E-1   -2.172409552422277E-1    6.340319342605823E-5    9.619742257452541E-4   -6.822898922131902E-6    9.685043425706570E-4   -4.731532012379977E-1   -6.136353695749041E-3
 1.004954966690000E+10  -3.983331014305023E-1   -2.170171823655366E-1    5.552108521191601E-5    9.673745781125162E-4   -1.738392421364310E-5    9.687695576767289E-4   -4.729707192269972E-1   -6.022053785331971E-3
 1.004955219420000E+10  -3.983225033214320E-1   -2.169641977117849E-1    6.801147153957453E-5    1.006571677161214E-3    2.683461353767230E-5    9.813011859566634E-4   -4.729675887196936E-1   -5.500879667278709E-3
 1.004955472150000E+10  -3.984878712203779E-1   -2.166782923931556E-1    6.068983892257524E-5    9.944662413578450E-4    1.147697848516669E-5    9.933126144366453E-4   -4.730249218454748E-1   -5.309363363132483E-3
 1.004955724880000E+10  -3.985944784052129E-1   -2.165719916384770E-1    6.859434548970026E-5    1.028352176819943E-3    2.298805751262958E-5    1.015310170740618E-3   -4.729583018560305E-1   -5.017715383342565E-3
 1.004955977610000E+10  -3.986703719899360E-1   -2.164215039728030E-1    6.124054192856881E-5    1.040269840677822E-3    8.082228328990573E-6    1.027383125476808E-3   -4.727648561109897E-1   -4.725328647481755E-3
 1.004956230340000E+10  -3.987066661490075E-1   -2.163054793941974E-1    8.074040779707396E-5    1.057518800647875E-3    1.110136868084161E-5    1.051074284945206E-3   -4.727143792518899E-1   -4.433646555645513E-3
 1.004956483070000E+10  -3.989084983349180E-1   -2.161318003210180E-1    9.202193370135486E-5    1.068114123327509E-3    3.524510413297777E-6    1.085831350977281E-3   -4.728650880743224E-1   -4.076127275577657E-3
 1.004956735800000E+10  -3.989444477156491E-1   -2.159912817111594E-1    5.798841271019328E-5    1.065372950672346E-3   -1.527005824618565E-5    1.072772565823662E-3   -4.727896941640834E-1   -3.753822167392422E-3
 1.004956988530000E+10  -3.989494080358264E-1   -2.157184692994301E-1    7.699409725772224E-5    1.084790409820082E-3   -4.391104180213293E-6    1.083863512469261E-3   -4.727061969328664E-1   -3.415578953781414E-3
 1.004957241260000E+10  -3.990390752572789E-1   -2.155479285636070E-1    6.812109440455424E-5    1.104912682200601E-3   -3.429580338582802E-6    1.130937715183813E-3   -4.725264207630966E-1   -3.048332521706025E-3
 1.004957493990000E+10  -3.991937183832343E-1   -2.154616072192819E-1    7.602358134338692E-5    1.104832564560411E-3    3.428961589276561E-6    1.152334512241131E-3   -4.728284873131965E-1   -2.922521651226188E-3
 1.004957746720000E+10  -3.991722252056676E-1   -2.153765694828015E-1    7.002039859762619E-5    1.164399596039752E-3    1.698198175455211E-5    1.149989091089188E-3   -4.726369720847677E-1   -2.430197393951801E-3
 1.004957999450000E+10  -3.992685702083760E-1   -2.152822369484603E-1    9.517769180403458E-5    1.166283356129846E-3    1.681534017431642E-5    1.205380901186268E-3   -4.725225423536940E-1   -2.195362710084487E-3
 1.004958252180000E+10  -3.993855230827798E-1   -2.150883753303268E-1    7.137824294990818E-5    1.182593634990762E-3    1.936985035881432E-5    1.169961718426926E-3   -4.724933038001156E-1   -1.856712931388613E-3
 1.004958504910000E+10  -3.994259912043660E-1   -2.148896519157169E-1    9.682466922756000E-5    1.213598730897438E-3    1.153675414341986E-5    1.181233480304821E-3   -4.723196329214560E-1   -1.456804756047892E-3
 1.004958757640000E+10  -3.995182174509798E-1   -2.147831287409321E-1    9.604282519160781E-5    1.211355510892477E-3   -1.519305591252916E-5    1.210899571483011E-3   -4.724376206023848E-1   -1.090410329313626E-3
 1.004959010370000E+10  -3.995957543066328E-1   -2.146908043955121E-1    1.153311989254481E-4    1.231998241339019E-3   -1.206049738618555E-6    1.222591604928023E-3   -4.724391144685157E-1   -7.309630198157404E-4
 1.004959263100000E+10  -3.996926585888503E-1   -2.145116554397880E-1    1.111456465776501E-4    1.273564153949958E-3    2.584200138892246E-7    1.258100331547017E-3   -4.724292565399134E-1   -5.586575731469511E-4
 1.004959515830000E+10  -3.997398918016238E-1   -2.142852369337566E-1    9.347247618843162E-5    1.273737087694543E-3    3.767174635089095E-5    1.270180403939230E-3   -4.721546203897931E-1   -4.432583316214470E-5
 1.004959768560000E+10  -3.998892904555053E-1   -2.141453839136703E-1    8.379112507984074E-5    1.269047482496210E-3    3.228446381491813E-6    1.319322496232511E-3   -4.722586176670959E-1    2.855273616772939E-4
 1.004960021290000E+10  -4.000562750118208E-1   -2.140598876823928E-1    1.184073086724565E-4    1.305253126228700E-3    2.443143315540063E-5    1.296666321578129E-3   -4.720983384520600E-1    5.905671819798918E-4
 1.004960274020000E+10  -4.000049108950289E-1   -2.138859195621189E-1    8.325469715160569E-5    1.351951512256626E-3    2.622242091869006E-5    1.331129448934787E-3   -4.720225628264134E-1    8.128576413414775E-4
 1.004960526750000E+10  -4.000980477256484E-1   -2.137536840210149E-1    1.287212211122981E-4    1.351017487313318E-3    4.232387673552129E-5    1.352079181512141E-3   -4.720241607729786E-1    1.095827060389094E-3
 1.004960779480000E+10  -4.001286903098928E-1   -2.137092377851866E-1    1.033734742723525E-4    1.367610896358638E-3    3.227716031616301E-5    1.361707827030021E-3   -4.718636317001251E-1    1.615152424162868E-3
 1.004961032210000E+10  -4.001677690962080E-1   -2.134124041630042E-1    1.314762284706591E-4    1.402672864927510E-3    1.575806414020177E-5    1.398370066044093E-3   -4.717617069578777E-1    1.936866274189225E-3
 1.004961284940000E+10  -4.003453471006316E-1   -2.132891026705978E-1    1.043107751332504E-4    1.406148763877799E-3    4.342401373114204E-5    1.399202512166481E-3   -4.718053938781728E-1    2.344208305333996E-3
 1.004961537670000E+10  -4.002423281272867E-1   -2.131989982149571E-1    1.375855029940082E-4    1.425012478842499E-3    2.841404218968218E-5    1.430230191281577E-3   -4.718348525465859E-1    2.701335877148236E-3
 1.004961790400000E+10  -4.002803677853983E-1   -2.129908782145459E-1    1.233453033054846E-4    1.460626252626711E-3    5.807758608352614E-5    1.433593286772439E-3   -4.716549283732189E-1    3.002114733277501E-3
 1.004962043130000E+10  -4.003787556789473E-1   -2.127932130353787E-1    1.240843810163332E-4    1.506124950779087E-3    4.406122144673724E-5    1.493296173167128E-3   -4.715903645359917E-1    3.269390240042776E-3
 1.004962295860000E+10  -4.005674868005835E-1   -2.127035918483756E-1    1.163254799393035E-4    1.499741457649898E-3    2.592300911958669E-5    1.483521009386049E-3   -4.715595111936740E-1    3.782252786121272E-3
 1.004962548590000E+10  -4.005384073631119E-1   -2.124957743677192E-1    1.433207964009289E-4    1.523459499315337E-3    6.236317801967833E-5    1.525430834516418E-3   -4.714814926772864E-1    4.184783465168929E-3
 1.004962801320000E+10  -4.006275124978186E-1   -2.122655410432837E-1    1.056788405580402E-4    1.500473761410822E-3    4.062253414863590E-5    1.530675435021609E-3   -4.714587365013041E-1    4.606466358647161E-3
 1.004963054050000E+10  -4.007581757162076E-1   -2.121953083986895E-1    1.210135629618993E-4    1.566345184657007E-3    6.784088311289752E-5    1.590317169424080E-3   -4.714461176865658E-1    5.011000519033776E-3
 1.004963306780000E+10  -4.008966762335420E-1   -2.119530105397569E-1    1.660317304396853E-4    1.582578748572307E-3    7.542483905140477E-5    1.635674881523178E-3   -4.712424761270429E-1    5.348020068289239E-3
 1.004963559510000E+10  -4.008947237368549E-1   -2.118108579728995E-1    1.637820900877796E-4    1.632293497025913E-3    6.769976112606107E-5    1.613462086041261E-3   -4.712486975179133E-1    5.798914622865123E-3
 1.004963812240000E+10  -4.009609820211198E-1   -2.116278188293336E-1    1.465533473476557E-4    1.636495958307820E-3    8.742763675924798E-5    1.622608726284093E-3   -4.711383538662257E-1    6.196172720932468E-3
 1.004964064970000E+10  -4.010324191551768E-1   -2.115502444638283E-1    1.483384024884789E-4    1.630218055772186E-3    4.269143873113768E-5    1.662868256590113E-3   -4.709831960850841E-1    6.376979144943697E-3
 1.004964317700000E+10  -4.011083944502249E-1   -2.114370063407036E-1    1.634698492161969E-4    1.681914306882258E-3    8.009505793181218E-5    1.683915324199181E-3   -4.709447680138532E-1    6.748342758893739E-3
 1.004964570430000E+10  -4.012948800337967E-1   -2.113418189215920E-1    1.628807091040515E-4    1.695469734778907E-3    8.164708434269362E-5    1.733177472131004E-3   -4.708937203963302E-1    7.179728891301714E-3
 1.004964823160000E+10  -4.012144125723142E-1   -2.110997216972812E-1    1.914988707184953E-4    1.720895311971404E-3    8.665416384652504E-5    1.748608108888035E-3   -4.708884020518875E-1    7.678303538480582E-3
 1.004965075890000E+10  -4.014425936951087E-1   -2.109380216671416E-1    2.003799590723217E-4    1.754036137991302E-3    6.786996670208859E-5    1.752951071169066E-3   -4.706900733585375E-1    8.225879114231619E-3
 1.004965328620000E+10  -4.014460846418108E-1   -2.108010981216968E-1    1.992246343478284E-4    1.754041956890364E-3    4.805190357261302E-5    1.780106618913141E-3   -4.705907886828394E-1    8.453660768566599E-3
 1.004965581350000E+10  -4.014384222992290E-1   -2.105947354643025E-1    1.923501625500972E-4    1.802464986115629E-3    1.040094568740253E-4    1.815527211894008E-3   -4.706103731571064E-1    8.955113369916744E-3
 1.004965834080000E+10  -4.016788805249690E-1   -2.104840511554868E-1    1.887485073946160E-4    1.830613855224227E-3    9.767666107999048E-5    1.833810638014431E-3   -4.704393934434777E-1    9.234909867578979E-3
 1.004966086810000E+10  -4.016802972207273E-1   -2.103777644086747E-1    1.987253726264414E-4    1.868147783423628E-3    7.842410027540765E-5    1.912806703865637E-3   -4.703075452618115E-1    9.815225536603406E-3
 1.004966339540000E+10  -4.016252027587198E-1   -2.101930913849934E-1    1.925607025030890E-4    1.895170160167577E-3    9.595285391498650E-5    1.893918963030731E-3   -4.701263515402267E-1    1.015406715926820E-2
 1.004966592270000E+10  -4.017159885537996E-1   -2.100955471415301E-1    1.958091390951882E-4    1.928974019900578E-3    9.136896958654312E-5    1.932386463093963E-3   -4.701297688247904E-1    1.063177655894636E-2
 1.004966845000000E+10  -4.019626738560286E-1   -2.098790479058781E-1    2.330905769492232E-4    1.954754864531042E-3    8.451984336605555E-5    1.975975925345219E-3   -4.700472726061409E-1    1.096102458145919E-2
