#  HZ   S   RI   R     50.00 
! Rohde & Schwarz Vector Network Analyzer 
! Rohde-Schwarz,ZNB20-2Port,1311601062101988,3.16
! Created: UTC 3/21/2024, 12:53:38 AM
! freq[Hz]                re:S11                  im:S11                  re:S21                  im:S21                  re:S12                  im:S12                  re:S22                  im:S22
 1.004774207900000E+10  -3.492758594792237E-1   -2.991825453014167E-1    1.359925231263957E-4   -2.784992669338509E-4    1.461628507363162E-4   -2.793150369240024E-4   -4.630144509889009E-1   -1.090087580038558E-1
 1.004774648505000E+10  -3.494570037197848E-1   -2.989957341446847E-1    1.363804699833546E-4   -2.685209336324758E-4    1.490155626620592E-4   -2.770711699448295E-4   -4.630953470558781E-1   -1.085817862620507E-1
 1.004775089110000E+10  -3.495648501261745E-1   -2.986204929164122E-1    1.375482816166792E-4   -2.583815420006717E-4    1.617964569215124E-4   -2.685426960606782E-4   -4.631031733274557E-1   -1.083197331463074E-1
 1.004775529715000E+10  -3.497118874594224E-1   -2.984788363737104E-1    1.545513692659218E-4   -2.523247874055593E-4    1.646746961963842E-4   -2.610564370734186E-4   -4.631294318056257E-1   -1.079920891728680E-1
 1.004775970320000E+10  -3.499389852005388E-1   -2.983683426920280E-1    1.615168406420213E-4   -2.630935270455349E-4    1.563373749560527E-4   -2.435912726989171E-4   -4.632294836239719E-1   -1.074357753977319E-1
 1.004776410925000E+10  -3.500661260280490E-1   -2.979764432189957E-1    1.335138592304755E-4   -2.801952885722458E-4    1.689321562673908E-4   -2.363638973545044E-4   -4.633193794230560E-1   -1.072540241267204E-1
 1.004776851530000E+10  -3.503364941907943E-1   -2.977573738376924E-1    1.204102589076511E-4   -2.457014413914015E-4    1.475535916884369E-4   -2.382196579424833E-4   -4.635490957632346E-1   -1.069108139669569E-1
 1.004777292135000E+10  -3.505768775725439E-1   -2.975569094230538E-1    1.387137960669708E-4   -2.321810391873555E-4    1.412341485491797E-4   -2.523759926884813E-4   -4.634210094293931E-1   -1.065176711588960E-1
 1.004777732740000E+10  -3.506967486833475E-1   -2.973491873468626E-1    1.376486002742889E-4   -2.435449320074219E-4    1.378163433871412E-4   -2.329589608883197E-4   -4.635293325418499E-1   -1.061569262352653E-1
 1.004778173345000E+10  -3.509041348600725E-1   -2.972347052315518E-1    1.534015464917144E-4   -2.281697227477202E-4    1.566648107940820E-4   -2.011755462599965E-4   -4.636316155190121E-1   -1.058718034115785E-1
 1.004778613950000E+10  -3.511589213265855E-1   -2.968231857067441E-1    1.379908041501704E-4   -2.357309911529588E-4    1.489095506962319E-4   -2.135042614690652E-4   -4.636723215829678E-1   -1.055715436003974E-1
 1.004779054555000E+10  -3.512449863759292E-1   -2.966796411322656E-1    1.474658360264042E-4   -2.351440187042532E-4    1.423616095942794E-4   -2.098154076904457E-4   -4.636817506028081E-1   -1.052809904050671E-1
 1.004779495160000E+10  -3.513746803916842E-1   -2.963563117332620E-1    1.503080101423171E-4   -2.264371916737133E-4    1.351501849405255E-4   -2.104441251609950E-4   -4.638047566649298E-1   -1.048611091747342E-1
 1.004779935765000E+10  -3.514734288390378E-1   -2.962355541492245E-1    1.309206089841359E-4   -2.181087854933540E-4    1.594542211252941E-4   -2.073636624634732E-4   -4.638348717218285E-1   -1.045488471861637E-1
 1.004780376370000E+10  -3.518073835033245E-1   -2.958166274773411E-1    1.330745218234938E-4   -2.175765770239131E-4    1.502229883240067E-4   -1.822038825040723E-4   -4.637280685516118E-1   -1.041161125377971E-1
 1.004780816975000E+10  -3.519326515182742E-1   -2.955791944651598E-1    1.051486413423725E-4   -2.021746653836616E-4    1.596585264732218E-4   -2.181796523855109E-4   -4.638511861575232E-1   -1.039347259310861E-1
 1.004781257580000E+10  -3.521688754528322E-1   -2.955051873549110E-1    1.400274389489415E-4   -1.956762169288814E-4    1.455911061607913E-4   -1.961213116256148E-4   -4.639811325344274E-1   -1.034935033130937E-1
 1.004781698185000E+10  -3.523673517749296E-1   -2.952898377682935E-1    1.158988497911861E-4   -1.670190824907080E-4    1.457490357572084E-4   -1.825010792879233E-4   -4.639606179902908E-1   -1.030129533864762E-1
 1.004782138790000E+10  -3.525126701292713E-1   -2.949179520120807E-1    1.142465965369568E-4   -2.053760159368169E-4    1.228479253513631E-4   -1.708350850770948E-4   -4.641619763397761E-1   -1.027360619357603E-1
 1.004782579395000E+10  -3.527151009194668E-1   -2.946308305396147E-1    1.184882093237500E-4   -1.823296712772149E-4    1.377762761961349E-4   -1.704550211573290E-4   -4.640779884082880E-1   -1.024768696921595E-1
 1.004783020000000E+10  -3.529407542700029E-1   -2.945761044800695E-1    1.377248106381257E-4   -1.491907405021856E-4    1.314627445508365E-4   -1.336589419638905E-4   -4.641500762053469E-1   -1.020501452518545E-1
 1.004783460605000E+10  -3.530755904004182E-1   -2.942076978645967E-1    1.462754780231632E-4   -1.696556968518634E-4    1.086602700595779E-4   -1.430124481743841E-4   -4.641367495394819E-1   -1.017894698288979E-1
 1.004783901210000E+10  -3.532553965452296E-1   -2.940859196901424E-1    9.726099777942670E-5   -1.799486626511814E-4    1.526319175456863E-4   -1.613437062106842E-4   -4.643150119731870E-1   -1.014316152673730E-1
 1.004784341815000E+10  -3.534956234917936E-1   -2.938099546222133E-1    1.177938329684231E-4   -1.524122981347921E-4    1.417072752026031E-4   -1.260739783629654E-4   -4.642803386379099E-1   -1.010975899553098E-1
 1.004784782420000E+10  -3.535813596501285E-1   -2.935546308209436E-1    1.068041638274351E-4   -1.579905541419185E-4    1.212828139865815E-4   -1.654861024053635E-4   -4.644168827135052E-1   -1.007411163588026E-1
 1.004785223025000E+10  -3.537813764259854E-1   -2.933453625002589E-1    1.331071261413150E-4   -1.361478823618099E-4    1.140115877237644E-4   -1.261282782905329E-4   -4.644596338729860E-1   -1.002571023257844E-1
 1.004785663630000E+10  -3.540345318239465E-1   -2.929944187250333E-1    1.032101990162002E-4   -1.400302168711141E-4    1.197875698568301E-4   -1.292611400603220E-4   -4.644839275551402E-1   -9.994256090485218E-2
 1.004786104235000E+10  -3.540831793945225E-1   -2.928598232426741E-1    1.452674256030487E-4   -1.079777228348669E-4    1.400516910302188E-4   -1.193580826751686E-4   -4.645453009601874E-1   -9.955037246104663E-2
 1.004786544840000E+10  -3.543145844877358E-1   -2.925691817911603E-1    1.140089720901709E-4   -1.402786547488371E-4    1.540815400726465E-4   -9.603206326394735E-5   -4.646524348955534E-1   -9.936693562254573E-2
 1.004786985445000E+10  -3.545719900140523E-1   -2.923299533454444E-1    1.305002908566657E-4   -1.163847318048015E-4    1.047933748846444E-4   -1.057002838413029E-4   -4.646292396382173E-1   -9.889073692979676E-2
 1.004787426050000E+10  -3.546742132501701E-1   -2.922785797961640E-1    9.008976112343772E-5   -1.163004643683887E-4    1.139065095448271E-4   -9.996449698187877E-5   -4.646952447909575E-1   -9.862447530904649E-2
 1.004787866655000E+10  -3.548693242274651E-1   -2.919537754003907E-1    1.101158660310651E-4   -6.701374993134126E-5    1.406142111239296E-4   -1.000016428197382E-4   -4.647100233366215E-1   -9.820505064561377E-2
 1.004788307260000E+10  -3.550348965531895E-1   -2.916936383348219E-1    8.875145859574995E-5   -9.781221287956180E-5    1.395013530648638E-4   -8.876919849143676E-5   -4.647361439940537E-1   -9.799273530521556E-2
 1.004788747865000E+10  -3.551768060938127E-1   -2.915122543257950E-1    1.102990063832038E-4   -5.035351785686938E-5    1.290191417093974E-4   -8.551104988746057E-5   -4.648482920055579E-1   -9.756026198936724E-2
 1.004789188470000E+10  -3.553989275909392E-1   -2.913447920865413E-1    1.076745744650110E-4   -8.325724400119565E-5    1.088204033223307E-4   -3.680165564480492E-5   -4.649002406844543E-1   -9.716041454316744E-2
 1.004789629075000E+10  -3.555134932433268E-1   -2.909653064708980E-1    1.048338365367751E-4   -4.942273663044755E-5    1.101107239155399E-4   -4.565813140937563E-5   -4.647933874766621E-1   -9.681761996728007E-2
 1.004790069680000E+10  -3.557823104886489E-1   -2.908044460451939E-1    1.045790215556895E-4   -1.485961114883658E-5    1.203343150211863E-4   -5.434678951305877E-5   -4.648586311185803E-1   -9.629771830385891E-2
 1.004790510285000E+10  -3.559708545405960E-1   -2.904980709096000E-1    1.078009517818349E-4   -4.392366279264503E-5    1.183068560004341E-4   -3.944002505188603E-5   -4.650129364546424E-1   -9.615767494595837E-2
 1.004790950890000E+10  -3.561939193805737E-1   -2.902359686557855E-1    1.046707322794157E-4   -3.217044133551452E-5    1.067102042810211E-4   -4.548311530692615E-5   -4.650800067332622E-1   -9.578053176167775E-2
 1.004791391495000E+10  -3.564244766619398E-1   -2.900604946411404E-1    1.087108890008563E-4   -1.396640949922201E-5    1.113786005984790E-4   -9.803386072371876E-6   -4.652192277973470E-1   -9.537864653380955E-2
 1.004791832100000E+10  -3.564646910414837E-1   -2.897603772114741E-1    1.130829154870825E-4   -2.964867797478352E-5    1.112585202126914E-4   -3.164609650795204E-5   -4.650687273526254E-1   -9.497086651456500E-2
 1.004792272705000E+10  -3.566106743361777E-1   -2.894567570579368E-1    1.219065430255642E-4   -7.761564855692687E-6    1.113514109497606E-4   -3.001124578704191E-6   -4.651664494488152E-1   -9.464426889904348E-2
 1.004792713310000E+10  -3.569691095080328E-1   -2.892776860424321E-1    1.229295217087463E-4    1.284308230069067E-5    1.120611144521663E-4    2.191238772174628E-5   -4.652007860057971E-1   -9.425980014923178E-2
 1.004793153915000E+10  -3.571436064477524E-1   -2.891914467792549E-1    8.345383459882449E-5   -1.143656796645536E-5    9.302077322772324E-5    1.502694069081637E-5   -4.652474907809512E-1   -9.387847699515076E-2
 1.004793594520000E+10  -3.571763193863835E-1   -2.888467238675722E-1    1.050993944560006E-4    7.257022743991615E-6    7.752839083290768E-5   -3.487565938416330E-6   -4.653562540779456E-1   -9.338730114190162E-2
 1.004794035125000E+10  -3.574709080771824E-1   -2.886242246299638E-1    9.277215970563255E-5    6.189880739866610E-5    1.069088595160877E-4   -1.789297392197894E-5   -4.653902318034861E-1   -9.312496093133879E-2
 1.004794475730000E+10  -3.574614533985438E-1   -2.884871959163851E-1    1.371552852455120E-4    1.423962590648500E-5    1.022346531902930E-4    3.920556248105610E-6   -4.654396364871135E-1   -9.280126377740949E-2
 1.004794916335000E+10  -3.577325387106617E-1   -2.880644933290691E-1    9.408825898360370E-5    4.670322644767901E-5    9.143411624792029E-5    4.976376654444004E-5   -4.655914406984998E-1   -9.241768761289294E-2
 1.004795356940000E+10  -3.579059640468726E-1   -2.878895078489351E-1    9.869537868143388E-5    6.568192033554204E-5    1.030583064865906E-4    5.656228937391194E-5   -4.654073027028755E-1   -9.192078408218077E-2
 1.004795797545000E+10  -3.581113614033430E-1   -2.877407542980023E-1    1.172625146423531E-4    4.021979258696477E-5    1.173325510269223E-4    6.045679824276139E-5   -4.656492725530835E-1   -9.163633078611924E-2
 1.004796238150000E+10  -3.582717145132856E-1   -2.873639381901446E-1    1.204582297709700E-4    7.317275001004230E-5    1.149215528674870E-4    8.462519310536656E-5   -4.656214807472768E-1   -9.111283559466682E-2
 1.004796678755000E+10  -3.584528817184199E-1   -2.872162721130408E-1    1.155300835264858E-4    8.725646473689138E-5    1.267178871000017E-4    7.132150926343976E-5   -4.656700084547977E-1   -9.077100148994253E-2
 1.004797119360000E+10  -3.586247823379755E-1   -2.869787015653593E-1    1.294078372974359E-4    8.372170611223382E-5    9.270726762877596E-5    8.425236428698203E-5   -4.659004939694711E-1   -9.056854788204453E-2
 1.004797559965000E+10  -3.587813877301012E-1   -2.867873845807473E-1    1.172825964020754E-4    9.960802979784987E-5    9.898994904348201E-5    1.068914218723770E-4   -4.654918646974474E-1   -9.013166354777181E-2
 1.004798000570000E+10  -3.590443512397142E-1   -2.865866559844896E-1    8.590835054309717E-5    1.174692464888173E-4    1.082294564338265E-4    9.985710911347588E-5   -4.656899168725482E-1   -8.972699158525074E-2
 1.004798441175000E+10  -3.592609709271594E-1   -2.862939398292267E-1    9.828295004923016E-5    1.064668256382932E-4    9.879066165278086E-5    1.386263140257978E-4   -4.658259487774847E-1   -8.933296436250519E-2
 1.004798881780000E+10  -3.593486307817902E-1   -2.860576215415525E-1    1.040947126285515E-4    1.250562431671807E-4    9.167452643583454E-5    1.230707142100441E-4   -4.657901284535508E-1   -8.893110315387973E-2
 1.004799322385000E+10  -3.595340408670050E-1   -2.859085981551949E-1    9.937916924600392E-5    1.120577923909051E-4    1.101406185491399E-4    1.556450625472750E-4   -4.659557633499635E-1   -8.863446217638342E-2
 1.004799762990000E+10  -3.596887229837103E-1   -2.855603809974825E-1    1.087417595861201E-4    1.728685592460469E-4    7.127507088112334E-5    1.460270472135926E-4   -4.659386412162944E-1   -8.828784957286129E-2
 1.004800203595000E+10  -3.598837812933756E-1   -2.852675482494046E-1    9.272703442072377E-5    1.790066800591204E-4    7.553992120441709E-5    1.555592053442571E-4   -4.659925968137127E-1   -8.767198530148418E-2
 1.004800644200000E+10  -3.600736543665704E-1   -2.851535431301955E-1    8.657233629383380E-5    1.816051329303644E-4    7.425935909918559E-5    1.971473322080476E-4   -4.658568310708138E-1   -8.750397597010721E-2
 1.004801084805000E+10  -3.601887150919820E-1   -2.848125230497474E-1    1.085134752307861E-4    1.931133777792347E-4    7.419404622330684E-5    1.925106651200319E-4   -4.659551973813404E-1   -8.708053998608060E-2
 1.004801525410000E+10  -3.603888859222318E-1   -2.845629092124358E-1    9.828689804776042E-5    1.933957563652648E-4    8.413211630645587E-5    1.945324854553942E-4   -4.660183368611058E-1   -8.664134953127550E-2
 1.004801966015000E+10  -3.606170446660908E-1   -2.843894643951356E-1    1.012020983033116E-4    1.793432062173154E-4    1.006010960163225E-4    2.145389375051279E-4   -4.661184189128394E-1   -8.634559395287872E-2
 1.004802406620000E+10  -3.607036596096579E-1   -2.841605486016845E-1    6.661227306266061E-5    2.041340882550561E-4    9.375560769180370E-5    2.231109620758633E-4   -4.661298398435503E-1   -8.581087044842635E-2
 1.004802847225000E+10  -3.609851622960710E-1   -2.839406130099992E-1    9.664418990101526E-5    1.992244159003769E-4    6.574960026686755E-5    2.383248904346815E-4   -4.662310335032399E-1   -8.551398598206301E-2
 1.004803287830000E+10  -3.612168812722371E-1   -2.837105594028016E-1    1.051189445462396E-4    2.325293149145115E-4    6.151203359474479E-5    2.548101064117937E-4   -4.661616055769642E-1   -8.498096256101677E-2
 1.004803728435000E+10  -3.612785281626950E-1   -2.835190162238260E-1    9.898221617918696E-5    2.610525635337700E-4    8.857100296969664E-5    2.519770242052004E-4   -4.662865827551863E-1   -8.469959242724129E-2
 1.004804169040000E+10  -3.614960764701888E-1   -2.831245230848032E-1    1.050992320113028E-4    2.512086987724472E-4    8.946063236682934E-5    2.279767070564435E-4   -4.662657048453930E-1   -8.419198423697681E-2
 1.004804609645000E+10  -3.615272485528077E-1   -2.830296290408377E-1    8.688160708267150E-5    2.817789991137210E-4    5.902307115906591E-5    2.598672252445131E-4   -4.661601633447248E-1   -8.383235737222057E-2
 1.004805050250000E+10  -3.617750405601241E-1   -2.828133479124869E-1    1.153342343184049E-4    2.970444832182565E-4    6.736308145222617E-5    2.944092315105093E-4   -4.662916083060908E-1   -8.335794762531712E-2
 1.004805490855000E+10  -3.618388652300883E-1   -2.825242750698619E-1    8.582260201253656E-5    2.861053057622772E-4    1.027546734260371E-4    3.195743538333888E-4   -4.663465762759837E-1   -8.307906168641681E-2
 1.004805931460000E+10  -3.621511954327218E-1   -2.822525784896682E-1    7.216642936995706E-5    3.223467253702947E-4    7.746279253034930E-5    3.212823030093231E-4   -4.665398575858319E-1   -8.258046041642289E-2
 1.004806372065000E+10  -3.623381481928610E-1   -2.820217607498819E-1    1.194006352659806E-4    3.198680163336661E-4    4.417619681673171E-5    3.240810772049944E-4   -4.662027473046756E-1   -8.215193171518298E-2
 1.004806812670000E+10  -3.624981755372239E-1   -2.817450195274094E-1    8.102065395823763E-5    3.431543765525775E-4    5.398676048840389E-5    3.385321403625686E-4   -4.663079412999016E-1   -8.176032249782439E-2
 1.004807253275000E+10  -3.628335062221165E-1   -2.815046439578585E-1    9.481244136276318E-5    3.609831633931311E-4    7.705507059216526E-5    3.481900563432871E-4   -4.663748701249055E-1   -8.138309777747990E-2
 1.004807693880000E+10  -3.629015578438123E-1   -2.812705240955819E-1    1.155943276123091E-4    3.568231854519562E-4    9.898456140655372E-5    3.868093974880294E-4   -4.662592384476928E-1   -8.087074150366308E-2
 1.004808134485000E+10  -3.629558105040583E-1   -2.811122799683600E-1    1.039834405798775E-4    4.209366424248783E-4    7.929389123092612E-5    4.073131932092471E-4   -4.665216549142878E-1   -8.059284180234395E-2
 1.004808575090000E+10  -3.630954989559703E-1   -2.809172953861700E-1    8.757356471086063E-5    3.900799516135948E-4    7.497578215277695E-5    3.844186326510596E-4   -4.665589538541571E-1   -8.008775759254030E-2
 1.004809015695000E+10  -3.633214945814485E-1   -2.804881192521115E-1    1.078268629052918E-4    4.146894804077508E-4    6.742533662439858E-5    4.272998276927896E-4   -4.666301956710693E-1   -7.961699695411929E-2
 1.004809456300000E+10  -3.634338636342098E-1   -2.802946025811275E-1    1.170102933344856E-4    4.171781155244849E-4    1.077735197203107E-4    4.392170718966720E-4   -4.664345327310978E-1   -7.915942507423303E-2
 1.004809896905000E+10  -3.636286251706359E-1   -2.801235940708662E-1    1.110977899843666E-4    4.511602223008306E-4    5.527900969843311E-5    4.673855514486909E-4   -4.666157754734525E-1   -7.882087280166901E-2
 1.004810337510000E+10  -3.638321563057999E-1   -2.800771533857067E-1    1.131022126458958E-4    4.628198889874367E-4    7.392210870362603E-5    4.653467965666176E-4   -4.665250710111747E-1   -7.839986060999862E-2
 1.004810778115000E+10  -3.640742374119150E-1   -2.797512942880974E-1    9.125971540512087E-5    4.759815331839162E-4    7.495716662412751E-5    4.749801124247755E-4   -4.667371791549075E-1   -7.790234362715295E-2
 1.004811218720000E+10  -3.643513694575904E-1   -2.796110238973758E-1    1.070528542278503E-4    4.983047146316695E-4    9.791776609471065E-5    4.892876876059135E-4   -4.666148381265947E-1   -7.751411995211145E-2
 1.004811659325000E+10  -3.645000200982059E-1   -2.792732128936107E-1    1.001656250789224E-4    5.244431139728026E-4    9.023357897435208E-5    5.190735184492007E-4   -4.665374460841253E-1   -7.703609103563643E-2
 1.004812099930000E+10  -3.645360210587770E-1   -2.790446438325493E-1    9.654511320821391E-5    5.227765002268055E-4    8.652759680425262E-5    5.380356655554798E-4   -4.666522059567744E-1   -7.669434695644850E-2
 1.004812540535000E+10  -3.646862730287583E-1   -2.786423015895508E-1    8.460282943481791E-5    5.753830792664810E-4    7.086541744248132E-5    5.325800267949710E-4   -4.666304742008625E-1   -7.618861501415126E-2
 1.004812981140000E+10  -3.649843066499086E-1   -2.785354307606557E-1    9.857450225378641E-5    5.405948516451963E-4    9.494523392126329E-5    5.899129880069905E-4   -4.665878685385993E-1   -7.570142811746750E-2
 1.004813421745000E+10  -3.650947058276888E-1   -2.783220371030326E-1    1.433679517726976E-4    5.738617101312959E-4    1.018538523316305E-4    5.930749386603867E-4   -4.665357013004842E-1   -7.531050617298840E-2
 1.004813862350000E+10  -3.651614249018891E-1   -2.780730058334345E-1    1.095994353924811E-4    5.706238530404876E-4    5.006225161287836E-5    5.899770625134228E-4   -4.665143412745417E-1   -7.498695187529782E-2
