#  HZ   S   RI   R     50.00 
! Rohde & Schwarz Vector Network Analyzer 
! Rohde-Schwarz,ZNB20-2Port,1311601062101988,3.16
! Created: UTC 3/21/2024, 1:24:12 AM
! freq[Hz]                re:S11                  im:S11                  re:S21                  im:S21                  re:S12                  im:S12                  re:S22                  im:S22
 1.004953501700000E+10  -3.977164841248723E-1   -2.182081120556545E-1    2.350810377733483E-5    7.482022439123089E-4   -1.858191878419951E-5    7.586463969744397E-4   -4.736256963433478E-1   -9.100695196317682E-3
 1.004953721905000E+10  -3.978209883263458E-1   -2.181308210805621E-1    6.090169633327428E-5    7.663416015178858E-4   -5.187705270017240E-5    7.909733259723483E-4   -4.734178138541223E-1   -8.672751944318432E-3
 1.004953942110000E+10  -3.979389221433088E-1   -2.180307686451204E-1   -4.961563942768056E-6    7.828140899888304E-4    1.071800339325573E-6    7.750848242589412E-4   -4.734601437925463E-1   -8.481438932873946E-3
 1.004954162315000E+10  -3.979941266786823E-1   -2.178220247916928E-1    3.318564963876074E-5    7.848742075941910E-4   -3.355993249520027E-5    7.994264518776876E-4   -4.735516318333911E-1   -8.085600916626379E-3
 1.004954382520000E+10  -3.980656665692084E-1   -2.177359846039838E-1    1.758283327556868E-5    7.970054428367624E-4   -1.681070930463835E-5    7.655244361233065E-4   -4.735976341353549E-1   -7.960882052081114E-3
 1.004954602725000E+10  -3.980379161443067E-1   -2.174833504523109E-1    3.444831207024279E-5    8.059855941652327E-4   -6.550641206009235E-6    8.059409686665443E-4   -4.735379612731478E-1   -7.700471744188492E-3
 1.004954822930000E+10  -3.980727420438573E-1   -2.173958198932565E-1    3.116439845992521E-5    8.517616893869092E-4   -2.276819429025638E-5    8.521130784387914E-4   -4.734995177109826E-1   -7.498569395288812E-3
 1.004955043135000E+10  -3.983595582349598E-1   -2.173745052911564E-1    2.211704502932180E-5    8.603720369810614E-4   -3.694631979193409E-5    8.540817286737175E-4   -4.735250379304716E-1   -7.254810382996435E-3
 1.004955263340000E+10  -3.983802588136786E-1   -2.171098607028858E-1    5.634425037248023E-5    8.811997151895716E-4   -1.987894191464873E-5    8.570963484272730E-4   -4.734974776016745E-1   -7.074355657621183E-3
 1.004955483545000E+10  -3.982795168281684E-1   -2.169985649722195E-1    3.427458592113066E-5    8.570565723925476E-4    5.508883905338443E-7    8.817143630536399E-4   -4.734917198397272E-1   -6.719770905603469E-3
 1.004955703750000E+10  -3.983494507932103E-1   -2.168889691339111E-1    1.706499570377632E-5    8.870453061863694E-4   -2.387069338000189E-5    8.782724116600309E-4   -4.732840411357218E-1   -6.427718673017658E-3
 1.004955923955000E+10  -3.983938224695870E-1   -2.167126763605632E-1    3.017619387067057E-5    8.699375067661976E-4   -2.296402974815186E-5    9.078440820733462E-4   -4.734517139193427E-1   -6.136599180826463E-3
 1.004956144160000E+10  -3.984480561083712E-1   -2.166297963343869E-1    2.847989781049386E-5    8.999164997327983E-4   -2.344426788585782E-5    9.200104090540508E-4   -4.733250206266421E-1   -5.984265999122836E-3
 1.004956364365000E+10  -3.985937317787993E-1   -2.164859696174715E-1    2.359571800266938E-5    9.288750095911921E-4   -4.889555957842707E-7    9.032063936793556E-4   -4.732014749264949E-1   -5.697464376466253E-3
 1.004956584570000E+10  -3.986894521914346E-1   -2.163163263821238E-1    3.549651609536656E-5    9.017277023284948E-4   -4.231074352390031E-5    9.364674167534541E-4   -4.732255728295973E-1   -5.455116655625571E-3
 1.004956804775000E+10  -3.988510592630117E-1   -2.161687036182842E-1    1.776031269012509E-5    9.332713767390288E-4   -3.754412893498728E-5    9.569520627137874E-4   -4.732236965484177E-1   -5.160281104341645E-3
 1.004957024980000E+10  -3.987867024692884E-1   -2.160341771830088E-1    2.058245137245185E-5    9.216069425079330E-4   -4.696792650533023E-5    9.586696194684957E-4   -4.732317247823385E-1   -4.794621068242229E-3
 1.004957245185000E+10  -3.988715556901123E-1   -2.160679928147932E-1    2.896991790449902E-5    9.877160919783380E-4   -3.942273755321705E-5    9.537792084344951E-4   -4.733224555098228E-1   -4.576260791926017E-3
 1.004957465390000E+10  -3.989423240948969E-1   -2.158179729131256E-1    1.707527311424120E-5    9.945423864092067E-4   -1.312080583064494E-5    9.663468976488981E-4   -4.733458612131893E-1   -4.403668985902384E-3
 1.004957685595000E+10  -3.990292275808976E-1   -2.157504621862114E-1    3.824800041026253E-5    9.765585379780875E-4   -1.678822323651815E-5    9.820122043616617E-4   -4.732578069412421E-1   -3.926089822873091E-3
 1.004957905800000E+10  -3.991358535706882E-1   -2.155444387767424E-1    2.525575622775764E-5    9.982039824406417E-4   -2.227519266387615E-5    9.718726735395961E-4   -4.731601471890317E-1   -3.816245385190613E-3
 1.004958126005000E+10  -3.990795716606360E-1   -2.154599041214682E-1    4.680979428400512E-5    1.017870631589975E-3   -6.634768953499198E-6    1.014271763616735E-3   -4.730578597461185E-1   -3.645783339374951E-3
 1.004958346210000E+10  -3.992123009770456E-1   -2.152236373868799E-1    3.297457000154507E-5    1.059028075938368E-3   -4.317582967531407E-6    1.010977078189526E-3   -4.731359640008159E-1   -3.435156221478735E-3
 1.004958566415000E+10  -3.992903203797245E-1   -2.151101636718454E-1    5.950758050818055E-5    1.053565398279459E-3   -1.923269311313467E-5    1.073553795775206E-3   -4.731892130663726E-1   -2.935024577635863E-3
 1.004958786620000E+10  -3.993764448978043E-1   -2.148992679452197E-1    5.239512427346943E-5    1.035538313893137E-3   -4.178278317653959E-5    1.028034772362778E-3   -4.728572439478104E-1   -2.792290703793873E-3
 1.004959006825000E+10  -3.993876222843528E-1   -2.149390189401487E-1    4.127768076494261E-5    1.065191541994715E-3   -3.487530274082195E-5    1.097331796603073E-3   -4.730098230399254E-1   -2.406215797880078E-3
 1.004959227030000E+10  -3.994751865531085E-1   -2.148284593492580E-1    3.403169061966710E-5    1.071855921954851E-3   -2.676784060445832E-5    1.106285435080877E-3   -4.731382708762222E-1   -2.176855141513871E-3
 1.004959447235000E+10  -3.995713528545618E-1   -2.145765958235351E-1    5.220594457225554E-5    1.107375333587930E-3   -5.863873673574362E-6    1.095104793807863E-3   -4.728308116601366E-1   -1.819731769996388E-3
 1.004959667440000E+10  -3.996288382899463E-1   -2.144089767462797E-1    5.749998953659839E-5    1.098957108852427E-3   -2.432548935399665E-5    1.109801938482079E-3   -4.728559487747908E-1   -1.737356485495960E-3
 1.004959887645000E+10  -3.996913459385945E-1   -2.143637775360605E-1    4.864446398808811E-5    1.121969925757834E-3   -1.356301737386909E-6    1.168300709744666E-3   -4.729024995047522E-1   -1.214238357972716E-3
 1.004960107850000E+10  -3.999129542119912E-1   -2.141872044148847E-1    5.336707951741543E-5    1.167337818139049E-3   -2.624167834563503E-5    1.131223859511138E-3   -4.727386704903241E-1   -1.085803486410761E-3
 1.004960328055000E+10  -3.998417463291351E-1   -2.140590416058308E-1    3.507360703418717E-5    1.166974473994506E-3    5.129917744589700E-6    1.167114204630228E-3   -4.726540031613609E-1   -7.423747022413096E-4
 1.004960548260000E+10  -3.998804616287730E-1   -2.138933412695501E-1    7.492387969793766E-5    1.162936240276133E-3   -5.408620639015346E-6    1.179821859660252E-3   -4.726300315787552E-1   -4.052961652931876E-4
 1.004960768465000E+10  -3.998809455137638E-1   -2.139255150058607E-1    6.133876965198284E-5    1.196156911639978E-3   -2.800545879758667E-5    1.205303688768879E-3   -4.727400896856953E-1    6.933434632083073E-6
 1.004960988670000E+10  -3.999262806662766E-1   -2.136479491696121E-1    2.828438542334245E-5    1.176566175361631E-3   -3.656334128800981E-5    1.233646660926302E-3   -4.726147397411980E-1    2.076107394425899E-4
 1.004961208875000E+10  -4.001467879694553E-1   -2.135772722380689E-1    5.658296662569496E-5    1.202318701453896E-3   -2.947531620056042E-5    1.240208581623377E-3   -4.725788273114985E-1    3.789277931759300E-4
 1.004961429080000E+10  -4.001573579881088E-1   -2.134004195974692E-1    6.269796200632802E-5    1.222742075621924E-3   -2.760114295652116E-5    1.259039269752497E-3   -4.726026959134506E-1    8.003107225130917E-4
 1.004961649285000E+10  -4.001564005453158E-1   -2.132288446478833E-1    8.003780623050261E-5    1.243082374548347E-3    1.393484117095869E-5    1.269352675438332E-3   -4.725075608923999E-1    1.073006790486678E-3
 1.004961869490000E+10  -4.003408874098099E-1   -2.132679449962675E-1    6.187667994999908E-5    1.279386421508347E-3    6.491019780669826E-6    1.264385970887868E-3   -4.724316513201696E-1    1.226372136490634E-3
 1.004962089695000E+10  -4.005041904359295E-1   -2.131311776655432E-1    7.135556247036824E-5    1.293051225207364E-3   -1.653835348571495E-5    1.300446031177087E-3   -4.725014741304782E-1    1.694651997683231E-3
 1.004962309900000E+10  -4.003840261088246E-1   -2.128769978245205E-1    6.015584570270084E-5    1.320022588747125E-3   -5.187553369472399E-5    1.325527125380986E-3   -4.724691047483847E-1    1.813439262420883E-3
 1.004962530105000E+10  -4.004543053918864E-1   -2.127610310753628E-1    1.126975363323359E-4    1.338336697559427E-3    1.182427138157233E-5    1.327929139810644E-3   -4.723778833939710E-1    2.244819720761367E-3
 1.004962750310000E+10  -4.004951266069104E-1   -2.126721802952288E-1    7.471640325551053E-5    1.367916622516899E-3    4.134472832414545E-6    1.350505375374424E-3   -4.723161661185830E-1    2.670105667510771E-3
 1.004962970515000E+10  -4.006577886734914E-1   -2.125095630960264E-1    8.241061836641431E-5    1.364554079003633E-3   -2.580651816700951E-5    1.355790613835106E-3   -4.722105113419212E-1    2.932829570610617E-3
 1.004963190720000E+10  -4.007271047659140E-1   -2.124782777345240E-1    7.546777288161210E-5    1.371591493882958E-3    1.117133599799474E-5    1.392444930781898E-3   -4.722618755392589E-1    3.119902940958748E-3
 1.004963410925000E+10  -4.007829628773985E-1   -2.122352321301159E-1    5.915483214435089E-5    1.378030107718899E-3   -4.217784242026391E-5    1.392975402801005E-3   -4.722411699613730E-1    3.432676973274071E-3
 1.004963631130000E+10  -4.008440342090251E-1   -2.121112144717294E-1    7.836996062858840E-5    1.420671684155215E-3    1.304349164945310E-6    1.412830095617299E-3   -4.721571731619976E-1    3.766912978857958E-3
 1.004963851335000E+10  -4.008930231053926E-1   -2.119730724798470E-1    1.142050162367199E-4    1.430715786507301E-3    1.016111470821349E-5    1.431227319272556E-3   -4.720058795155909E-1    4.076944571384112E-3
 1.004964071540000E+10  -4.010433242736062E-1   -2.118156190441991E-1    8.835086483632033E-5    1.450465811955742E-3   -7.985974091694285E-7    1.451546744808433E-3   -4.719722883864008E-1    4.443234984543477E-3
 1.004964291745000E+10  -4.009482291060799E-1   -2.116465324398838E-1    9.027841843658751E-5    1.412729513459312E-3   -1.240708270662868E-5    1.461406365358659E-3   -4.719626867939985E-1    4.748545350146281E-3
 1.004964511950000E+10  -4.009711503303628E-1   -2.115600167000814E-1    1.016790051070828E-4    1.476695027867563E-3    3.565912257769584E-6    1.499090435800606E-3   -4.718797648296988E-1    5.184193652072067E-3
 1.004964732155000E+10  -4.011226400588328E-1   -2.112743802354720E-1    1.016867346533265E-4    1.487015549979689E-3   -9.637514206563092E-7    1.505369887962754E-3   -4.718290685194498E-1    5.490571719014189E-3
 1.004964952360000E+10  -4.011765240628736E-1   -2.112899656506720E-1    8.189684175432894E-5    1.524673229456072E-3    1.281556930047553E-5    1.546131334450351E-3   -4.717036783172884E-1    5.631032079115162E-3
 1.004965172565000E+10  -4.011992925421609E-1   -2.112584238800705E-1    9.803028021854316E-5    1.559909762683271E-3    1.731048792545238E-5    1.558318231322677E-3   -4.716043539742205E-1    5.988037527514610E-3
 1.004965392770000E+10  -4.013685259966715E-1   -2.110329801985263E-1    1.185450554679421E-4    1.557354410250501E-3    2.810917309136980E-5    1.581788937774289E-3   -4.716771920427229E-1    6.458110815790876E-3
 1.004965612975000E+10  -4.013535569216430E-1   -2.109155779830299E-1    1.144399597664345E-4    1.563843119196623E-3    1.133259699259203E-5    1.600947228273698E-3   -4.716403086857557E-1    6.730384215034999E-3
 1.004965833180000E+10  -4.014019979953792E-1   -2.108477776339122E-1    1.343414554123575E-4    1.578542008870693E-3    2.313096601502984E-5    1.637816963451633E-3   -4.715689978840233E-1    7.174809590845222E-3
 1.004966053385000E+10  -4.015536028710470E-1   -2.106977775358451E-1    1.033971984758150E-4    1.611294428899269E-3    6.098770987363545E-5    1.626680739872531E-3   -4.716255022552181E-1    7.469258732961909E-3
 1.004966273590000E+10  -4.015945473043342E-1   -2.105357595755392E-1    1.164658559722550E-4    1.644110730864306E-3    3.729999095717517E-5    1.650738968444411E-3   -4.715107366192853E-1    7.738195889186849E-3
 1.004966493795000E+10  -4.017739490821498E-1   -2.103154418352831E-1    1.234136999322893E-4    1.653173285828827E-3    3.861374214228586E-5    1.654147423620958E-3   -4.713139968799598E-1    8.061046005029129E-3
 1.004966714000000E+10  -4.017483132068373E-1   -2.102883181543294E-1    1.250452193064131E-4    1.677234561417969E-3    5.298033428256003E-6    1.696643562119193E-3   -4.713403041162413E-1    8.500350242167318E-3
 1.004966934205000E+10  -4.017260391481831E-1   -2.101867621073480E-1    1.132819277522363E-4    1.700120992229607E-3    1.511029347471262E-5    1.718440202019256E-3   -4.712624028871018E-1    8.761383486918978E-3
 1.004967154410000E+10  -4.018028638573847E-1   -2.099286314430311E-1    1.528962881019222E-4    1.712788485980154E-3    4.397430398670537E-5    1.732056769285668E-3   -4.711014318486466E-1    9.194647990230004E-3
 1.004967374615000E+10  -4.019136638013769E-1   -2.097998528141078E-1    1.547648963091555E-4    1.761262046179429E-3    2.358433048931770E-5    1.748120427011046E-3   -4.711053692736297E-1    9.456766122428519E-3
 1.004967594820000E+10  -4.021361480996057E-1   -2.096982330253744E-1    1.414144900674576E-4    1.751324165861760E-3    2.393160318700788E-5    1.780860734499125E-3   -4.709418071170633E-1    9.900574753630050E-3
 1.004967815025000E+10  -4.020570216723651E-1   -2.096307692649296E-1    1.477756967105965E-4    1.780606319544194E-3    2.514360788136866E-5    1.834556404578709E-3   -4.709283012005351E-1    1.023112567179808E-2
 1.004968035230000E+10  -4.020510807639530E-1   -2.093289757120849E-1    1.705355789461479E-4    1.820557814063868E-3    4.827881662202775E-5    1.827497020233475E-3   -4.707553161957841E-1    1.056586112516923E-2
 1.004968255435000E+10  -4.021635499399602E-1   -2.093265580619548E-1    1.616097227081326E-4    1.827305579295562E-3    5.381655208423428E-5    1.879487776259070E-3   -4.708013293165142E-1    1.098144920685132E-2
 1.004968475640000E+10  -4.021110618127453E-1   -2.092860278733894E-1    1.542549283183697E-4    1.872913576846776E-3    4.417425227089117E-5    1.881570253770929E-3   -4.707038227258143E-1    1.124662628077742E-2
 1.004968695845000E+10  -4.023329521756807E-1   -2.090274502467624E-1    1.622460527301114E-4    1.897250614046331E-3    7.566596552077908E-5    1.907838083059334E-3   -4.704196025345912E-1    1.173345700334372E-2
 1.004968916050000E+10  -4.023454141432077E-1   -2.089469765003252E-1    1.461693057976197E-4    1.911110695354234E-3    4.607819281244218E-5    1.970953075272601E-3   -4.704543826797459E-1    1.200019301490285E-2
 1.004969136255000E+10  -4.024375758217595E-1   -2.087733647843617E-1    1.641746491795386E-4    1.945339997650633E-3    6.183385340475159E-5    1.967675864145408E-3   -4.705171386540147E-1    1.240922507001697E-2
 1.004969356460000E+10  -4.024566473324870E-1   -2.086913993718736E-1    1.871455586355089E-4    1.978401132562804E-3    4.218104660727983E-5    1.988680067288173E-3   -4.703778065448017E-1    1.296201151709360E-2
 1.004969576665000E+10  -4.024828561026784E-1   -2.085245305025485E-1    1.694980167396020E-4    1.981951153216504E-3    7.644642131771896E-5    2.008103488540422E-3   -4.703372874213489E-1    1.321853710537978E-2
 1.004969796870000E+10  -4.027246135542630E-1   -2.083903792469237E-1    1.840762847265481E-4    2.032438134572353E-3    7.647140104119905E-5    2.052984712619756E-3   -4.701104707206397E-1    1.366306967003200E-2
 1.004970017075000E+10  -4.027149342944034E-1   -2.082512351569213E-1    1.985586779222382E-4    2.018393293503558E-3    5.983455844325102E-5    2.069407751976318E-3   -4.701077848826308E-1    1.414053821355018E-2
 1.004970237280000E+10  -4.027591953635749E-1   -2.078526519816541E-1    1.881677162021915E-4    2.052451986556936E-3    6.593378246661595E-5    2.103985234565199E-3   -4.699219178278296E-1    1.435281885180919E-2
 1.004970457485000E+10  -4.028162332756559E-1   -2.079492862540099E-1    1.867505519965760E-4    2.099579420826154E-3    9.632859716811821E-5    2.111057039438217E-3   -4.698855195326408E-1    1.498532855318786E-2
 1.004970677690000E+10  -4.028596412287824E-1   -2.079204276388135E-1    2.033414368221701E-4    2.133317451633760E-3    9.271017661561752E-5    2.158099248229545E-3   -4.697883121673032E-1    1.525294722158362E-2
 1.004970897895000E+10  -4.029076826579654E-1   -2.075869436218707E-1    2.222952150738690E-4    2.185922500271588E-3    7.877723154105037E-5    2.189120974898249E-3   -4.697297061838133E-1    1.586494680607563E-2
 1.004971118100000E+10  -4.030212362728387E-1   -2.075917186570650E-1    2.447444662130134E-4    2.205434485056368E-3    1.017045347155160E-4    2.197918031584856E-3   -4.697603052055784E-1    1.621156691678116E-2
 1.004971338305000E+10  -4.030892370300053E-1   -2.074118013147175E-1    2.399045277387940E-4    2.220838449689599E-3    8.721224809249252E-5    2.226009211622291E-3   -4.694211135203801E-1    1.649243701902258E-2
 1.004971558510000E+10  -4.030876248562031E-1   -2.073093673589605E-1    2.494385669494505E-4    2.234491978740062E-3    9.435990451988767E-5    2.284881547173228E-3   -4.692606544475744E-1    1.697084396331843E-2
 1.004971778715000E+10  -4.032077905624791E-1   -2.071177233800745E-1    2.108666598552840E-4    2.269439674410407E-3    1.125156760169866E-4    2.303673694270997E-3   -4.691360333264053E-1    1.731393691838845E-2
 1.004971998920000E+10  -4.031304895044557E-1   -2.070258016284272E-1    2.717035435783416E-4    2.329870604338524E-3    1.178748410706596E-4    2.335623511792348E-3   -4.691595379082802E-1    1.773807942522950E-2
 1.004972219125000E+10  -4.031902804003393E-1   -2.068301403453737E-1    2.743797537670912E-4    2.347569103677960E-3    9.975922734434293E-5    2.354200001468402E-3   -4.690496129921599E-1    1.839997267920347E-2
 1.004972439330000E+10  -4.033020026321607E-1   -2.068199129941513E-1    2.599563347598997E-4    2.356790834849282E-3    1.553522271931149E-4    2.415216852871968E-3   -4.687651872752536E-1    1.857776272843127E-2
 1.004972659535000E+10  -4.034155234775016E-1   -2.066157360611605E-1    2.578401256495323E-4    2.454429442717438E-3    1.670533621181258E-4    2.422149321368624E-3   -4.687651222425749E-1    1.919092195665754E-2
 1.004972879740000E+10  -4.034335113451357E-1   -2.066884733224930E-1    2.857505803568649E-4    2.404962852858312E-3    1.467945972492497E-4    2.483189934163681E-3   -4.683945033441836E-1    1.967006431490085E-2
 1.004973099945000E+10  -4.035880919342787E-1   -2.063908142705076E-1    2.677594225515186E-4    2.485059072693270E-3    1.626649162829432E-4    2.506485495221332E-3   -4.683910922545472E-1    2.006373527040255E-2
 1.004973320150000E+10  -4.036617910340078E-1   -2.061722296321291E-1    2.985689767211974E-4    2.509350714132710E-3    1.350229121564817E-4    2.536818020588529E-3   -4.681534268411294E-1    2.041510326642272E-2
