#  HZ   S   RI   R     50.00 
! Rohde & Schwarz Vector Network Analyzer 
! Rohde-Schwarz,ZNB20-2Port,1311601062101988,3.16
! Created: UTC 3/21/2024, 1:24:20 AM
! freq[Hz]                re:S11                  im:S11                  re:S21                  im:S21                  re:S12                  im:S12                  re:S22                  im:S22
 1.004950652800000E+10  -3.967780076595576E-1   -2.198475799993104E-1    7.926645851746292E-6    6.522709989937286E-4   -6.084120873550559E-6    6.431412992130849E-4   -4.735720876669440E-1   -1.178566305627985E-2
 1.004950884115000E+10  -3.968983792962005E-1   -2.197990377327150E-1    1.413491631322001E-5    6.619268126262917E-4    1.372138874732083E-5    6.927047201065431E-4   -4.736729453623564E-1   -1.161038978022621E-2
 1.004951115430000E+10  -3.970679154978802E-1   -2.195681830087578E-1    3.427207034863426E-5    6.811064309093687E-4   -1.933266138923812E-5    6.831871884764750E-4   -4.736701181785474E-1   -1.154608587636156E-2
 1.004951346745000E+10  -3.969793828590766E-1   -2.194969906669700E-1    2.090768005763779E-5    6.893078683030404E-4   -2.165768217104480E-5    6.837548784093931E-4   -4.734264348213327E-1   -1.112066023090781E-2
 1.004951578060000E+10  -3.971227815291285E-1   -2.193340054788409E-1    4.440153413234818E-5    7.130980708095815E-4    5.585899421421891E-6    7.087908078666316E-4   -4.735496706465046E-1   -1.076876727264846E-2
 1.004951809375000E+10  -3.972697599185260E-1   -2.191531857950399E-1    4.414175050643891E-5    7.134288934979498E-4   -1.574857958691826E-5    7.188367116028956E-4   -4.735034726019156E-1   -1.057695291752255E-2
 1.004952040690000E+10  -3.972920617656294E-1   -2.190698081860553E-1    9.665131375890713E-6    7.086092524966511E-4   -1.857469056077391E-6    7.231330645736251E-4   -4.734164183133139E-1   -1.038418764610002E-2
 1.004952272005000E+10  -3.972768543377747E-1   -2.189907044467482E-1    4.041151317254962E-5    7.438397875609670E-4   -3.149948274889758E-5    7.604973940791017E-4   -4.735094481959085E-1   -1.000032171930279E-2
 1.004952503320000E+10  -3.974520185067256E-1   -2.187309176957655E-1    4.463730907784786E-5    7.274079337385535E-4   -9.261884373674461E-6    7.211871796654753E-4   -4.733813389357379E-1   -9.793925251628931E-3
 1.004952734635000E+10  -3.975516994252141E-1   -2.185617294349210E-1    1.392666214227625E-5    7.744251215567287E-4   -4.057022792582747E-5    7.701091147713404E-4   -4.734351942225091E-1   -9.651797434803235E-3
 1.004952965950000E+10  -3.975577999442512E-1   -2.185764384233757E-1    5.150843985715831E-5    7.536691132056351E-4   -1.223741816298198E-5    7.956525552036402E-4   -4.734249465268823E-1   -9.315231749314206E-3
 1.004953197265000E+10  -3.976842451973343E-1   -2.183911017680683E-1    3.168752728689958E-5    7.856748947138815E-4   -6.036490246136680E-6    7.932574647223168E-4   -4.733568249920973E-1   -9.025400795384773E-3
 1.004953428580000E+10  -3.976662048312814E-1   -2.181574024754986E-1    4.025888703796389E-5    7.895532364164194E-4   -3.024112159957428E-5    8.256002939256267E-4   -4.733478893739154E-1   -8.950620953078952E-3
 1.004953659895000E+10  -3.977879738751972E-1   -2.181164673315377E-1    4.103445016158921E-5    8.146040615138818E-4    6.439265672173186E-6    7.755047597529930E-4   -4.734281864238536E-1   -8.470844090420237E-3
 1.004953891210000E+10  -3.977729151627484E-1   -2.179624208616546E-1    1.100028402112490E-6    8.252314354990835E-4   -3.210829170919753E-6    8.179866109913374E-4   -4.733885114939737E-1   -8.210921508062923E-3
 1.004954122525000E+10  -3.978663138519250E-1   -2.177855217556307E-1    5.528932900649188E-5    8.235219720351420E-4   -6.457130070734288E-6    8.391523578547554E-4   -4.732355589316223E-1   -7.942312365617618E-3
 1.004954353840000E+10  -3.979025999409171E-1   -2.177824354788338E-1    5.989673825857559E-5    8.396820316856064E-4   -2.031389013958858E-5    8.510202847841606E-4   -4.733554742761700E-1   -7.581677073244086E-3
 1.004954585155000E+10  -3.980372094880384E-1   -2.175868550628527E-1    3.607145170985970E-5    8.580550933194649E-4   -2.498691527542097E-5    8.375573375629674E-4   -4.733324232456825E-1   -7.378376178797635E-3
 1.004954816470000E+10  -3.981469209787809E-1   -2.175135410497109E-1    4.971677404629656E-5    8.442406051215423E-4    2.961220477456972E-6    8.596714246236908E-4   -4.732156395610591E-1   -7.060070901204808E-3
 1.004955047785000E+10  -3.982225133475589E-1   -2.173148941289303E-1    4.153986467716345E-5    8.772660644605363E-4   -9.281536988747933E-6    9.042738370015819E-4   -4.732261493607032E-1   -6.832383122165292E-3
 1.004955279100000E+10  -3.982473796436029E-1   -2.171291511842358E-1    2.395458918507196E-5    8.778263656382222E-4   -1.326515236493266E-5    8.964166724466927E-4   -4.732129151281139E-1   -6.682272115929035E-3
 1.004955510415000E+10  -3.983589251633299E-1   -2.170219760139781E-1    4.947949064016317E-5    9.128842877653901E-4   -6.643133892880783E-6    9.179046272351421E-4   -4.731289598822029E-1   -6.405370525865981E-3
 1.004955741730000E+10  -3.983665222162147E-1   -2.168254666126653E-1    6.521221963247682E-5    8.897517358110773E-4    2.052012124454466E-5    9.086812776419948E-4   -4.729769052904432E-1   -5.996690988112688E-3
 1.004955973045000E+10  -3.985373295032520E-1   -2.167139526545431E-1    3.953305367976489E-5    9.410546414447085E-4   -4.328381944744266E-6    9.368185579311856E-4   -4.732508485225219E-1   -5.632442341879098E-3
 1.004956204360000E+10  -3.985815320580617E-1   -2.165305452385107E-1    4.750757529629044E-5    9.462226205352360E-4    1.569366086438391E-5    9.454738522919765E-4   -4.731344142558339E-1   -5.525332143548976E-3
 1.004956435675000E+10  -3.986097227312094E-1   -2.164303601192378E-1    6.556544190376213E-5    9.537692089347389E-4   -1.195747173664585E-5    9.373389832002002E-4   -4.729852979582899E-1   -5.195865773545846E-3
 1.004956666990000E+10  -3.986817488621267E-1   -2.162864149163509E-1    7.808351831457406E-5    9.647882010727762E-4    1.378754575038344E-5    9.646417746141735E-4   -4.728656510110970E-1   -4.991972982004977E-3
 1.004956898305000E+10  -3.988926276489906E-1   -2.161431408550101E-1    5.071399410823960E-5    1.015944768091190E-3   -5.384528858605303E-6    9.936097570237333E-4   -4.729675443601110E-1   -4.718316354929799E-3
 1.004957129620000E+10  -3.988426720857343E-1   -2.160471011289593E-1    6.051407555150117E-5    1.013230602198476E-3   -2.009734754963572E-5    9.978020432008467E-4   -4.728558596034476E-1   -4.483983919873818E-3
 1.004957360935000E+10  -3.989413773247011E-1   -2.157968119357587E-1    6.409626708803279E-5    1.004550927550125E-3    1.241813930318622E-5    1.041910747381087E-3   -4.729137218323308E-1   -4.037514647692096E-3
 1.004957592250000E+10  -3.989450005305833E-1   -2.157724358213534E-1    3.024673048433212E-5    1.031823562973288E-3   -1.296174201149119E-5    1.044483305446618E-3   -4.728075313618513E-1   -3.718539773638735E-3
 1.004957823565000E+10  -3.989441881284627E-1   -2.156826633564196E-1    3.186101833132232E-5    1.044309531606853E-3    1.034348144871654E-5    1.054180580930457E-3   -4.728859674813478E-1   -3.397801351346787E-3
 1.004958054880000E+10  -3.989978497949442E-1   -2.154906156192986E-1    5.307526192065743E-5    1.068148220438320E-3   -5.472583588175342E-6    1.085679163407251E-3   -4.729104068271114E-1   -3.288916098788719E-3
 1.004958286195000E+10  -3.992315022249578E-1   -2.154893900738181E-1    7.848021509768010E-5    1.043837228710948E-3    2.295642380959967E-5    1.074626825082645E-3   -4.726867479103900E-1   -2.978475016269326E-3
 1.004958517510000E+10  -3.992019748144945E-1   -2.151552052625424E-1    7.542062893314873E-5    1.079503338011282E-3    6.326832946269810E-6    1.092662590366727E-3   -4.726859173675265E-1   -2.666533059557408E-3
 1.004958748825000E+10  -3.992642149212746E-1   -2.150430138873978E-1    4.547554249363159E-5    1.109156436079099E-3   -1.427473565580616E-5    1.114121097691424E-3   -4.726433651249868E-1   -2.320518699858269E-3
 1.004958980140000E+10  -3.995178808742102E-1   -2.149344228477944E-1    7.872591279349139E-5    1.087138231047042E-3    9.079870341490207E-6    1.134296493209009E-3   -4.727099826440433E-1   -2.167958298139252E-3
 1.004959211455000E+10  -3.994441223635753E-1   -2.146832298834910E-1    7.180522670919065E-5    1.156906968563685E-3   -1.035079427408481E-5    1.127653076484891E-3   -4.725527546817323E-1   -1.683249345124489E-3
 1.004959442770000E+10  -3.995460436383917E-1   -2.145798520782222E-1    8.174324887110747E-5    1.133688632468054E-3    1.599095197885526E-5    1.147379651672272E-3   -4.725580007435364E-1   -1.634032632994768E-3
 1.004959674085000E+10  -3.995516702285323E-1   -2.144217624720588E-1    9.914024486146832E-5    1.171706412499399E-3    1.246994012161804E-5    1.172898725597547E-3   -4.724152163531861E-1   -1.194652712536100E-3
 1.004959905400000E+10  -3.996474854970761E-1   -2.144567976710895E-1    4.576845273105166E-5    1.182634324113752E-3    7.870240249656323E-6    1.188993656493438E-3   -4.724466054943179E-1   -8.581522227974250E-4
 1.004960136715000E+10  -3.997428664147320E-1   -2.142481574429216E-1    1.096201546065202E-4    1.198739306855481E-3   -8.280886242732525E-6    1.217732462926504E-3   -4.723059116801370E-1   -5.116699360457545E-4
 1.004960368030000E+10  -3.999190719594025E-1   -2.140501565206688E-1    8.592868457817007E-5    1.207262890029380E-3    2.642920675134090E-5    1.232760616865952E-3   -4.723732999253078E-1   -3.100429294968202E-4
 1.004960599345000E+10  -3.999021660926605E-1   -2.139953921911213E-1    9.073447225418450E-5    1.236615961530583E-3    3.469907169295535E-5    1.214895189079150E-3   -4.722474073832128E-1    2.027937550965304E-5
 1.004960830660000E+10  -3.998778662251343E-1   -2.138000656088438E-1    6.744075707667252E-5    1.216957179915702E-3    8.531329419788921E-7    1.250081230153700E-3   -4.723400862877452E-1    2.842207082423489E-4
 1.004961061975000E+10  -3.999653750179183E-1   -2.136791023064172E-1    8.034580849194835E-5    1.268981851271183E-3    2.292312998095581E-5    1.265767884737381E-3   -4.721937125712740E-1    7.221909296752054E-4
 1.004961293290000E+10  -4.000885524794097E-1   -2.134198968682314E-1    1.031300832638857E-4    1.269233743962381E-3    2.224473614577115E-5    1.264830120299502E-3   -4.721987155225459E-1    9.580447839221817E-4
 1.004961524605000E+10  -4.002403193602767E-1   -2.134006104610412E-1    9.961599130379559E-5    1.277081799511896E-3    4.352752374026172E-5    1.304411549257804E-3   -4.721105536147907E-1    1.302798121402211E-3
 1.004961755920000E+10  -4.002046938089815E-1   -2.131833283418442E-1    6.963011988352393E-5    1.318262494389423E-3    1.684566560565482E-5    1.331272401603280E-3   -4.720187014682093E-1    1.569656670700941E-3
 1.004961987235000E+10  -4.002603111098043E-1   -2.130946309788394E-1    1.252574189528845E-4    1.362539700463462E-3    3.074882149057155E-5    1.334115639377973E-3   -4.719801306413705E-1    1.934301846938878E-3
 1.004962218550000E+10  -4.003939545739348E-1   -2.129231217942384E-1    8.306656506460070E-5    1.346816714864720E-3    3.189562740331342E-5    1.365088538470083E-3   -4.720563560424064E-1    2.293822451663018E-3
 1.004962449865000E+10  -4.005491209668516E-1   -2.129330198801450E-1    9.625143238115545E-5    1.369425779646557E-3    2.918430043404259E-5    1.377831709235511E-3   -4.717952578735166E-1    2.536754601506503E-3
 1.004962681180000E+10  -4.004775766426319E-1   -2.126697941006856E-1    1.081747914544116E-4    1.373217863211730E-3    4.133172652311878E-5    1.425003452302362E-3   -4.717834013417661E-1    3.003080037256075E-3
 1.004962912495000E+10  -4.007363597672033E-1   -2.125688735668547E-1    1.043390030644776E-4    1.418968056640674E-3    3.624730617347882E-5    1.404852187415545E-3   -4.717693436740574E-1    3.276889791257976E-3
 1.004963143810000E+10  -4.005819191096095E-1   -2.123871307726686E-1    1.083866212268024E-4    1.430493159865773E-3    3.301250195128697E-5    1.445268252595533E-3   -4.718182978842327E-1    3.599142470554531E-3
 1.004963375125000E+10  -4.006544013593996E-1   -2.122670188096220E-1    1.177904471306763E-4    1.435095221202763E-3    3.985775231694237E-5    1.446475581310369E-3   -4.717273706310887E-1    4.093707751212751E-3
 1.004963606440000E+10  -4.006292341453574E-1   -2.120700736326596E-1    9.872794491771831E-5    1.458207933040269E-3    5.832552415265285E-5    1.482274462974688E-3   -4.717674733314057E-1    4.391066551477849E-3
 1.004963837755000E+10  -4.008145397752318E-1   -2.119640771191209E-1    1.236776082835957E-4    1.454137928882159E-3    4.337087259257505E-5    1.480732332610542E-3   -4.716304999447284E-1    4.545486651754367E-3
 1.004964069070000E+10  -4.008517105293065E-1   -2.118051261929110E-1    1.215222191272104E-4    1.497735272698601E-3    2.153193747121899E-5    1.517134117795658E-3   -4.715828090002233E-1    4.981280044542873E-3
 1.004964300385000E+10  -4.010740692187584E-1   -2.117387153510809E-1    1.205188032070980E-4    1.521397485005690E-3    1.376656853919863E-5    1.509977058124848E-3   -4.714375200751765E-1    5.358044275300883E-3
 1.004964531700000E+10  -4.008823382378684E-1   -2.116584477103259E-1    1.367607793256437E-4    1.527581842918343E-3    3.363307021246066E-5    1.560730900661780E-3   -4.714670790125423E-1    5.602519627799284E-3
 1.004964763015000E+10  -4.009195802200554E-1   -2.113926913502613E-1    1.287277465939731E-4    1.567305445605961E-3    5.613565151036054E-5    1.625700857732681E-3   -4.713844185505432E-1    5.972958729547874E-3
 1.004964994330000E+10  -4.009778957526358E-1   -2.111969714635542E-1    1.406294303410408E-4    1.596753847191378E-3    6.604574958477811E-5    1.598790121026368E-3   -4.713431317333000E-1    6.386376430127295E-3
 1.004965225645000E+10  -4.012525288273718E-1   -2.111127627140556E-1    1.561990673108209E-4    1.563510810918081E-3    5.778566206035771E-5    1.624596069442186E-3   -4.711823144676610E-1    6.675749738160986E-3
 1.004965456960000E+10  -4.012377976948320E-1   -2.109871510410014E-1    1.607583261734458E-4    1.638939913754931E-3    5.511615020271202E-5    1.646444439339923E-3   -4.711306030351344E-1    7.005833430600221E-3
 1.004965688275000E+10  -4.013465646185643E-1   -2.109446838262581E-1    1.540121247216131E-4    1.653723379663858E-3    4.571687765797987E-5    1.681307907308578E-3   -4.711083278860916E-1    7.495559126138807E-3
 1.004965919590000E+10  -4.014403990773360E-1   -2.106282838518651E-1    1.808243468712380E-4    1.655857129609392E-3    7.750361724688936E-5    1.704352221306525E-3   -4.709456744299187E-1    7.808459445021087E-3
 1.004966150905000E+10  -4.014678914886109E-1   -2.105331405579367E-1    1.503472643307524E-4    1.691307055565215E-3    6.937924000534745E-5    1.710088037195654E-3   -4.709955331650071E-1    8.192661674213390E-3
 1.004966382220000E+10  -4.015595715301210E-1   -2.103887254779485E-1    1.627967177891136E-4    1.711456784184450E-3    4.792233182346202E-5    1.756007600072431E-3   -4.709912165611592E-1    8.691480595308061E-3
 1.004966613535000E+10  -4.016026558160900E-1   -2.102491613067021E-1    1.826367006682031E-4    1.734840138402513E-3    8.616618248959204E-5    1.769675632256293E-3   -4.707135982269757E-1    8.908261270990887E-3
 1.004966844850000E+10  -4.016912760346361E-1   -2.100828531113485E-1    1.637815776718714E-4    1.765933585634367E-3    5.573359378201568E-5    1.790508573726173E-3   -4.707264774360039E-1    9.182889575624617E-3
 1.004967076165000E+10  -4.017527674218228E-1   -2.099272061964398E-1    2.015861652025422E-4    1.802486986199370E-3    9.229548415585997E-5    1.824676688261955E-3   -4.705770866527608E-1    9.655553264740374E-3
 1.004967307480000E+10  -4.018303179139525E-1   -2.098795418628205E-1    1.652744501954317E-4    1.822493117278943E-3    9.011328170187527E-5    1.845693968693524E-3   -4.704789147960447E-1    1.008984098151545E-2
 1.004967538795000E+10  -4.018918239202073E-1   -2.098273532839195E-1    1.845548324229694E-4    1.854630151817769E-3    6.676393399367857E-5    1.891217990220917E-3   -4.703435450692889E-1    1.052270771331489E-2
 1.004967770110000E+10  -4.019105283378064E-1   -2.095807958366289E-1    2.003355649043527E-4    1.880255308603722E-3    7.683707355606927E-5    1.886286369537563E-3   -4.703380413975800E-1    1.089549265462864E-2
 1.004968001425000E+10  -4.020025341387470E-1   -2.095874419520966E-1    1.796746542883931E-4    1.911888064535798E-3    9.900047598230807E-5    1.918926068399260E-3   -4.703024733034392E-1    1.125703898099341E-2
 1.004968232740000E+10  -4.021311522576307E-1   -2.092976795859932E-1    1.873614675959600E-4    1.902906664169741E-3    6.561753775390321E-5    1.954239245468003E-3   -4.701454555020082E-1    1.159655534134761E-2
 1.004968464055000E+10  -4.020587575312676E-1   -2.092635773375768E-1    2.124490545644499E-4    1.970711807104752E-3    7.608170913021655E-5    1.949578817952010E-3   -4.699961132930813E-1    1.213042122373672E-2
 1.004968695370000E+10  -4.022270565693056E-1   -2.089408168471648E-1    2.061227922521998E-4    1.988201054337718E-3    1.183630209471947E-4    1.972345085062890E-3   -4.697489611549057E-1    1.243973436584658E-2
 1.004968926685000E+10  -4.022538558230974E-1   -2.089264190047329E-1    1.798219765374685E-4    1.988265345204532E-3    1.092687477530089E-4    2.032659572650134E-3   -4.698214397673552E-1    1.295689196851398E-2
 1.004969158000000E+10  -4.022850743087932E-1   -2.087583384674044E-1    2.399857835658171E-4    2.019936498413690E-3    1.166596920189913E-4    2.061225406093574E-3   -4.696470734080641E-1    1.326496096208121E-2
 1.004969389315000E+10  -4.024233462732157E-1   -2.086498861554541E-1    2.274214142095331E-4    2.060451485289508E-3    1.138917779434349E-4    2.077128118656786E-3   -4.695211637472687E-1    1.363425946623549E-2
 1.004969620630000E+10  -4.025209741104908E-1   -2.085992990746443E-1    2.394679099201132E-4    2.080588259380587E-3    1.112404326260347E-4    2.097326577903891E-3   -4.694092737498962E-1    1.395747129284511E-2
 1.004969851945000E+10  -4.026154932022443E-1   -2.083506285966147E-1    2.570280983856423E-4    2.127128242647060E-3    1.281459920584062E-4    2.137790283551301E-3   -4.692305118304738E-1    1.460982636007116E-2
 1.004970083260000E+10  -4.025237172532367E-1   -2.081659904527216E-1    2.692520821248666E-4    2.147057809929233E-3    1.304048490952599E-4    2.169983710714797E-3   -4.693326059773746E-1    1.496673265553601E-2
 1.004970314575000E+10  -4.025278050085495E-1   -2.080558482322833E-1    2.479253217398923E-4    2.166303183295650E-3    1.180209704534259E-4    2.208251965783738E-3   -4.691931108360373E-1    1.538060824593428E-2
 1.004970545890000E+10  -4.027167816901842E-1   -2.079214509320013E-1    2.564936725972550E-4    2.210993213465256E-3    1.549003734957822E-4    2.235519459659348E-3   -4.689402712286311E-1    1.589203643374607E-2
 1.004970777205000E+10  -4.027922836109137E-1   -2.077549301717435E-1    2.655338212168565E-4    2.246344049236234E-3    1.527921007189480E-4    2.235458533641506E-3   -4.689619757570547E-1    1.630471375308769E-2
 1.004971008520000E+10  -4.029017096260175E-1   -2.077350925850394E-1    2.669556281294532E-4    2.284240191314718E-3    1.795689699432341E-4    2.295458703009535E-3   -4.687713865831087E-1    1.677695224708281E-2
 1.004971239835000E+10  -4.029018053357153E-1   -2.075084992525428E-1    2.626360700272349E-4    2.304227293403647E-3    1.672698411656960E-4    2.338612193743607E-3   -4.686129575859277E-1    1.717506605802952E-2
 1.004971471150000E+10  -4.030104181331902E-1   -2.073169381432173E-1    2.926822830464448E-4    2.332387297856663E-3    1.657920141259430E-4    2.360829117271702E-3   -4.684220497644654E-1    1.767347582008360E-2
