#  HZ   S   RI   R     50.00 
! Rohde & Schwarz Vector Network Analyzer 
! Rohde-Schwarz,ZNB20-2Port,1311601062101988,3.16
! Created: UTC 3/21/2024, 12:53:42 AM
! freq[Hz]                re:S11                  im:S11                  re:S21                  im:S21                  re:S12                  im:S12                  re:S22                  im:S22
 1.004772134700000E+10  -3.482505498858177E-1   -3.003256293570589E-1    1.275667988120110E-4   -2.904101735734466E-4    1.754244215851672E-4   -3.189665552675278E-4   -4.627265732431414E-1   -1.106808282771389E-1
 1.004772587752500E+10  -3.485942813103812E-1   -2.999777142700719E-1    1.396986624575942E-4   -3.068673922142464E-4    1.654809715533516E-4   -3.117698406595593E-4   -4.628808406768161E-1   -1.103215791874362E-1
 1.004773040805000E+10  -3.487857444658835E-1   -2.998675309118330E-1    1.497333502109783E-4   -3.022432915882856E-4    1.730996552511289E-4   -2.782248732140644E-4   -4.629147359843008E-1   -1.098795684312177E-1
 1.004773493857500E+10  -3.488736254932462E-1   -2.996024122553870E-1    1.626805945770336E-4   -3.146726586335018E-4    1.658778827471979E-4   -2.703522253388658E-4   -4.629327046986916E-1   -1.097242597554417E-1
 1.004773946910000E+10  -3.491152653125079E-1   -2.993797396084351E-1    1.311127831600359E-4   -3.175532178027374E-4    1.427367823971121E-4   -2.653274242278271E-4   -4.631107350421358E-1   -1.092403084765356E-1
 1.004774399962500E+10  -3.492162739107738E-1   -2.991422089432701E-1    1.549426100778827E-4   -3.139843721042133E-4    1.825199348650993E-4   -2.906954335521585E-4   -4.630370758661350E-1   -1.089495296218785E-1
 1.004774853015000E+10  -3.494843115711808E-1   -2.989490498146784E-1    1.554089519296039E-4   -2.520646521388670E-4    1.774506901332133E-4   -2.862843102509169E-4   -4.630818554737161E-1   -1.085844029096950E-1
 1.004775306067500E+10  -3.497146239266163E-1   -2.987682313922117E-1    1.288791601813835E-4   -2.612298676427719E-4    1.538990470525352E-4   -2.695142913637274E-4   -4.632131329868715E-1   -1.081972428925396E-1
 1.004775759120000E+10  -3.498155544375740E-1   -2.984729364249253E-1    1.167081392058254E-4   -2.487305702313146E-4    1.664804291201719E-4   -2.740875554580225E-4   -4.633138132872435E-1   -1.078417916932995E-1
 1.004776212172500E+10  -3.500519781826598E-1   -2.982216641639274E-1    1.305813213388235E-4   -2.836063593041986E-4    1.825145078173067E-4   -2.571456733437705E-4   -4.634037307730318E-1   -1.075476239738149E-1
 1.004776665225000E+10  -3.503036495312850E-1   -2.979110370969758E-1    1.244347934467195E-4   -2.490660116598755E-4    1.602011890484557E-4   -2.537025154300895E-4   -4.632703256300261E-1   -1.071177050650394E-1
 1.004777118277500E+10  -3.504509871340536E-1   -2.976564491141282E-1    1.391849065525129E-4   -2.737100125007197E-4    1.291061303168897E-4   -2.466489091023366E-4   -4.634325305647328E-1   -1.067442277871189E-1
 1.004777571330000E+10  -3.505088179414084E-1   -2.974575209080686E-1    1.374739810974189E-4   -2.419002267763625E-4    1.463566586205017E-4   -2.273478958946633E-4   -4.634617086898050E-1   -1.064407958663874E-1
 1.004778024382500E+10  -3.507967741068437E-1   -2.971769079362236E-1    1.386874589289398E-4   -2.317427573939493E-4    1.754279880278861E-4   -2.241644465002208E-4   -4.635632497142163E-1   -1.060863247756048E-1
 1.004778477435000E+10  -3.509940431233701E-1   -2.970246602231748E-1    1.389912196763276E-4   -2.568721901464368E-4    1.918649451007325E-4   -2.164848749015294E-4   -4.636755123120950E-1   -1.059090855243931E-1
 1.004778930487500E+10  -3.511844269087652E-1   -2.968879899319347E-1    1.461575946763233E-4   -2.169156502603518E-4    1.538321539881874E-4   -2.284690363362436E-4   -4.636840879155136E-1   -1.054089010731058E-1
 1.004779383540000E+10  -3.513843311590884E-1   -2.966315708924077E-1    1.160960967736862E-4   -2.442168105258863E-4    1.583899084731691E-4   -1.999211134379770E-4   -4.636590302579392E-1   -1.051011075852030E-1
 1.004779836592500E+10  -3.514491856958716E-1   -2.962432385217525E-1    1.434136002731175E-4   -2.224023798580967E-4    1.627525094421808E-4   -1.931381489880443E-4   -4.638250410253288E-1   -1.048104877347119E-1
 1.004780289645000E+10  -3.517060573375460E-1   -2.959585661690321E-1    1.419692593733413E-4   -2.162743774200893E-4    1.260919696711804E-4   -1.797804237095064E-4   -4.638104115605060E-1   -1.043132642123236E-1
 1.004780742697500E+10  -3.518403211063384E-1   -2.958174666038996E-1    1.469076766318900E-4   -1.870031279442581E-4    1.423839757821016E-4   -1.933211156103064E-4   -4.638169520833210E-1   -1.039180637370790E-1
 1.004781195750000E+10  -3.521445170947357E-1   -2.956446156719433E-1    1.411356775169805E-4   -2.101861520684489E-4    1.304080810585056E-4   -2.098927868603638E-4   -4.638778871577576E-1   -1.036270588602665E-1
 1.004781648802500E+10  -3.523452723265938E-1   -2.954271676409019E-1    1.396897745210443E-4   -2.009038234520194E-4    1.348121237354159E-4   -1.900757402040740E-4   -4.640128144205987E-1   -1.032049317030837E-1
 1.004782101855000E+10  -3.524322560592633E-1   -2.949820431471143E-1    1.343678552470798E-4   -1.714279855513578E-4    1.398564950717413E-4   -1.862070036443521E-4   -4.639446054257391E-1   -1.029285431656214E-1
 1.004782554907500E+10  -3.525870370630282E-1   -2.947075137023965E-1    8.498718291730614E-5   -1.737729531133971E-4    1.295332185314794E-4   -1.681226038795218E-4   -4.641233364112550E-1   -1.026149652585591E-1
 1.004783007960000E+10  -3.527582484932948E-1   -2.944283823533571E-1    1.242616954017707E-4   -1.723658406510038E-4    1.421086714328625E-4   -1.853975188643662E-4   -4.641224660019080E-1   -1.022724048867799E-1
 1.004783461012500E+10  -3.530579865783699E-1   -2.942537338754844E-1    1.225458971795379E-4   -1.939798781370815E-4    1.432712828471137E-4   -1.548054789429598E-4   -4.642279771847477E-1   -1.017264629608938E-1
 1.004783914065000E+10  -3.532618067114360E-1   -2.941065194946055E-1    1.206885723351907E-4   -1.451498476780841E-4    1.400232296253506E-4   -1.944408139767732E-4   -4.641711996750237E-1   -1.015961736973189E-1
 1.004784367117500E+10  -3.533053832647893E-1   -2.938394300320422E-1    1.647510001357143E-4   -1.750671919796442E-4    1.328370136682477E-4   -1.581713223827520E-4   -4.642511804901549E-1   -1.011102085958133E-1
 1.004784820170000E+10  -3.535681631652072E-1   -2.936376163380224E-1    1.155933465063652E-4   -1.411682333543381E-4    1.337408975821516E-4   -1.518474516648719E-4   -4.644368832369623E-1   -1.007922066547397E-1
 1.004785273222500E+10  -3.537840079874738E-1   -2.932417020579565E-1    1.216863161730588E-4   -1.365451374451617E-4    1.289731142590157E-4   -1.561396328683623E-4   -4.643540496155123E-1   -1.004402858619169E-1
 1.004785726275000E+10  -3.539143083875043E-1   -2.931369272497668E-1    9.984646019762176E-5   -1.567440741364757E-4    1.473083219508984E-4   -1.240465228187754E-4   -4.644993178365311E-1   -1.000360988680705E-1
 1.004786179327500E+10  -3.541750901490999E-1   -2.928885760403885E-1    1.160637262173061E-4   -1.076122908294966E-4    1.123383566349099E-4   -1.400348053580383E-4   -4.645145432701538E-1   -9.957993218553741E-2
 1.004786632380000E+10  -3.543394849363145E-1   -2.926807475706950E-1    1.401953623322069E-4   -1.052112961163846E-4    1.283339808978639E-4   -9.558884840666277E-5   -4.647291708150198E-1   -9.938948126247253E-2
 1.004787085432500E+10  -3.545611089826122E-1   -2.923867386809789E-1    1.271346426166875E-4   -1.308947106408867E-4    1.323572322943095E-4   -1.061415173458714E-4   -4.645378074451464E-1   -9.896545051206251E-2
 1.004787538485000E+10  -3.546757609653000E-1   -2.920732928125512E-1    1.292938049690481E-4   -1.090012695914746E-4    1.263749899382151E-4   -7.104901423703977E-5   -4.647703152987707E-1   -9.851152609706569E-2
 1.004787991537500E+10  -3.548768445475944E-1   -2.919398228994560E-1    1.389326469858156E-4   -1.155268786426196E-4    1.232789963968957E-4   -8.135310515681796E-5   -4.647086108137991E-1   -9.821903745176243E-2
 1.004788444590000E+10  -3.550844745219874E-1   -2.916182082357545E-1    1.307016285211811E-4   -9.224001626487462E-5    1.524954997010213E-4   -6.325179268025951E-5   -4.648893832903005E-1   -9.770738226993589E-2
 1.004788897642500E+10  -3.552397951773717E-1   -2.913685983800249E-1    1.217837675177694E-4   -7.707462232789499E-5    1.418334308643984E-4   -8.776344696734513E-5   -4.649757534338316E-1   -9.763483716141746E-2
 1.004789350695000E+10  -3.554535806130389E-1   -2.911533158376086E-1    1.058547622602697E-4   -4.542032246710695E-5    1.298358414582299E-4   -5.935486468332368E-5   -4.649066583681690E-1   -9.710199511479921E-2
 1.004789803747500E+10  -3.556031822779243E-1   -2.908232694465535E-1    1.129125195814842E-4   -5.170864374825594E-5    1.417538959173725E-4   -4.302137393861738E-5   -4.650078841944790E-1   -9.675628564484656E-2
 1.004790256800000E+10  -3.557797229714127E-1   -2.906842365755526E-1    1.061677779732813E-4   -6.301416903617032E-5    1.124665430186644E-4   -4.328452608257004E-5   -4.648126625806255E-1   -9.636578401012820E-2
 1.004790709852500E+10  -3.560447163851579E-1   -2.904177014219457E-1    1.249113145717929E-4   -6.090577715422552E-5    1.073043872878809E-4   -4.748392437513949E-5   -4.651064176773336E-1   -9.607981373158472E-2
 1.004791162905000E+10  -3.561523985819715E-1   -2.902026265807286E-1    1.278806812379799E-4   -6.723820240947318E-5    1.065550825655655E-4   -2.779390082168491E-5   -4.651370280361055E-1   -9.571035803652095E-2
 1.004791615957500E+10  -3.562561561705372E-1   -2.899019514329915E-1    1.070416080869810E-4   -2.033916486237405E-5    9.146984277449930E-5   -1.732679720047472E-5   -4.652255467544067E-1   -9.529905968250260E-2
 1.004792069010000E+10  -3.565827591327488E-1   -2.898213923065094E-1    1.171412479825567E-4   -1.872560576481544E-5    8.708024040966619E-5   -2.197348570837835E-5   -4.652704492349834E-1   -9.501134090726117E-2
 1.004792522062500E+10  -3.568293434464320E-1   -2.895712302490424E-1    9.159149044652700E-5   -1.668125723394224E-5    9.343927492702430E-5   -2.075010058140461E-5   -4.652554213040755E-1   -9.451474063082373E-2
 1.004792975115000E+10  -3.569130443499990E-1   -2.892485042728507E-1    7.095225153551913E-5    5.111258910411371E-6    1.197119730663709E-4    3.062907692109594E-5   -4.652233112770916E-1   -9.420439770828921E-2
 1.004793428167500E+10  -3.570134028402550E-1   -2.890657535446957E-1    1.100163947940280E-4    2.275077587469362E-5    1.100578611801336E-4    2.433875160948039E-5   -4.653412528788537E-1   -9.372044409229746E-2
 1.004793881220000E+10  -3.572518775387482E-1   -2.887754148164804E-1    8.930838977502892E-5    1.232715588011215E-5    1.082246940916825E-4    5.622670734890560E-5   -4.652561758132328E-1   -9.351698641270363E-2
 1.004794334272500E+10  -3.574621657095076E-1   -2.884300378124872E-1    1.099803923878917E-4    1.380745138335733E-5    1.376109158052830E-4    4.588448111140740E-5   -4.654496285887086E-1   -9.296604545696682E-2
 1.004794787325000E+10  -3.576725995972327E-1   -2.884240137003357E-1    8.860410639708291E-5   -2.348628872574525E-6    1.070758335928430E-4    3.036064896741511E-5   -4.654823715193512E-1   -9.265616015242537E-2
 1.004795240377500E+10  -3.576376020349888E-1   -2.879653732445483E-1    1.133136088422661E-4    3.564876270037869E-5    9.332661096757419E-5    5.074599367638958E-5   -4.654934850855027E-1   -9.227286012449705E-2
 1.004795693430000E+10  -3.580457258376568E-1   -2.877352434142404E-1    1.333816356100847E-4    8.016366916504150E-5    7.847912817986561E-5    7.331078755528832E-5   -4.655841527684368E-1   -9.189417889314894E-2
 1.004796146482500E+10  -3.582196073962443E-1   -2.875823181397925E-1    8.115042440351760E-5    4.418367200016743E-5    9.388085003144386E-5    6.247715025834344E-5   -4.655083665694741E-1   -9.169772898878915E-2
 1.004796599535000E+10  -3.583573768160480E-1   -2.873375842258111E-1    1.395313403346116E-4    5.659479039954033E-5    1.320931659825774E-4    1.027276360106419E-4   -4.655676479352936E-1   -9.121543680918334E-2
 1.004797052587500E+10  -3.585413774456456E-1   -2.869783410057508E-1    6.974091776334238E-5    5.998554497281589E-5    1.061548092575758E-4    6.308299114850915E-5   -4.657062525491652E-1   -9.072276379274605E-2
 1.004797505640000E+10  -3.587631121043314E-1   -2.868530858417503E-1    1.081209496359828E-4    8.716829484043755E-5    1.169255460872580E-4    8.991046282377675E-5   -4.656652253848599E-1   -9.025063721277755E-2
 1.004797958692500E+10  -3.589070396402853E-1   -2.866382514157480E-1    1.100405203731826E-4    9.574481775975309E-5    1.056942007708074E-4    8.831701346343551E-5   -4.656364313993338E-1   -8.996959977711123E-2
 1.004798411745000E+10  -3.590269833202751E-1   -2.863388946094825E-1    8.087641545695571E-5    8.649801173021078E-5    8.712460023161544E-5    1.285895023420594E-4   -4.658593808811254E-1   -8.955745460657588E-2
 1.004798864797500E+10  -3.592196579208076E-1   -2.861496826852207E-1    7.500159173087596E-5    1.366615366793601E-4    1.218861783369308E-4    1.242186991689218E-4   -4.658804944136331E-1   -8.917968370517204E-2
 1.004799317850000E+10  -3.593796352573799E-1   -2.858658855986033E-1    9.587440670608814E-5    1.488701121302654E-4    8.960254110356040E-5    1.367886932983200E-4   -4.658595496996649E-1   -8.877616505174342E-2
 1.004799770902500E+10  -3.595448186238473E-1   -2.856289061874446E-1    1.329747025507112E-4    1.620017788230484E-4    1.123577085489513E-4    1.569790786033502E-4   -4.659105196350715E-1   -8.845460013906764E-2
 1.004800223955000E+10  -3.597737918969625E-1   -2.854390671213805E-1    1.082598734513078E-4    1.632922836756887E-4    1.250294379370084E-4    1.804418812858163E-4   -4.660109827950241E-1   -8.796730688449772E-2
 1.004800677007500E+10  -3.600186153539491E-1   -2.850965447305803E-1    8.370939869480614E-5    1.761491419637958E-4    7.879458161605501E-5    1.620401039083579E-4   -4.660652063065912E-1   -8.760511922797240E-2
 1.004801130060000E+10  -3.601194311239438E-1   -2.849706122238414E-1    1.013775933162679E-4    1.439589388060464E-4    8.547315750496957E-5    1.927120857304195E-4   -4.659755950270716E-1   -8.719924100155704E-2
 1.004801583112500E+10  -3.602945762614759E-1   -2.847293640183839E-1    1.318992941717071E-4    1.757280640673358E-4    7.892661766747196E-5    1.982899204837885E-4   -4.659976439738120E-1   -8.678625935734187E-2
 1.004802036165000E+10  -3.604324827453458E-1   -2.844964084333287E-1    1.077571339971332E-4    2.136618698194270E-4    8.653645861651293E-5    1.993048132364373E-4   -4.661390746529755E-1   -8.641501246972229E-2
 1.004802489217500E+10  -3.607245464040675E-1   -2.841550969068648E-1    1.056093138022411E-4    2.000199471495610E-4    7.697311305602401E-5    2.338998404528489E-4   -4.661696422951457E-1   -8.588078738934238E-2
 1.004802942270000E+10  -3.608831691529194E-1   -2.838092642651896E-1    9.960813934469222E-5    2.297492682276266E-4    1.156673036961421E-4    2.198352357400442E-4   -4.660522587058581E-1   -8.555019055858637E-2
 1.004803395322500E+10  -3.610644666121824E-1   -2.836331798077031E-1    8.992891601750657E-5    2.411127160671477E-4    9.350075020302277E-5    2.234752703596239E-4   -4.661055239552695E-1   -8.512259700472842E-2
 1.004803848375000E+10  -3.612979472231414E-1   -2.834638574555521E-1    1.111803341670390E-4    2.549745041200179E-4    7.054998696485520E-5    2.572340380781451E-4   -4.662706662049548E-1   -8.486456808800595E-2
 1.004804301427500E+10  -3.614621445222665E-1   -2.831418907286253E-1    1.046602295612419E-4    2.512953021065863E-4    8.245737966674586E-5    2.658636838488411E-4   -4.663549407635372E-1   -8.439246444450473E-2
 1.004804754480000E+10  -3.616651371673001E-1   -2.828863556445582E-1    8.853531756532222E-5    2.858396000738748E-4    4.145945090449137E-5    2.921809002911311E-4   -4.661876894023061E-1   -8.394984779848109E-2
 1.004805207532500E+10  -3.617327336915816E-1   -2.826439761373364E-1    1.055094475309918E-4    2.917869538292513E-4    8.982928249577108E-5    3.001837918286404E-4   -4.663133370900668E-1   -8.347270766003061E-2
 1.004805660585000E+10  -3.620514519436193E-1   -2.825059523341341E-1    1.036243912648711E-4    2.834515885991838E-4    6.865021356871020E-5    3.272069450513931E-4   -4.663355404274244E-1   -8.308687915371764E-2
 1.004806113637500E+10  -3.621139604266899E-1   -2.821413758584100E-1    9.421980759902081E-5    3.255830887869962E-4    8.238985938529413E-5    3.167305667955010E-4   -4.664556972530997E-1   -8.272165109954699E-2
 1.004806566690000E+10  -3.623800602300223E-1   -2.820914542611122E-1    1.154720634265309E-4    3.375040694268884E-4    7.348952774152973E-5    3.084298937952167E-4   -4.663581342196718E-1   -8.212750257348765E-2
 1.004807019742500E+10  -3.623999071210744E-1   -2.816129824324434E-1    9.904128389353742E-5    3.404400240774095E-4    1.178879502158736E-4    3.554895978534824E-4   -4.664579970951149E-1   -8.175005871382802E-2
 1.004807472795000E+10  -3.626936545660723E-1   -2.815519585111182E-1    8.367170322480904E-5    3.667568267410782E-4    5.892376399913865E-5    3.674363557426337E-4   -4.664607896048685E-1   -8.123500514170315E-2
 1.004807925847500E+10  -3.628270417867979E-1   -2.812066667094194E-1    9.845236484551107E-5    3.949814228674409E-4    8.360882168050210E-5    3.661662443481093E-4   -4.664438425295731E-1   -8.078729141031808E-2
 1.004808378900000E+10  -3.631477701233293E-1   -2.809629484975238E-1    9.359450588206670E-5    3.643010224934960E-4    7.627227716062302E-5    4.290316842062989E-4   -4.664493585379947E-1   -8.038278471494856E-2
 1.004808831952500E+10  -3.631742089747292E-1   -2.807932835169266E-1    1.045695231055124E-4    4.121362098562024E-4    8.050276402610586E-5    4.297667152133893E-4   -4.664799345624722E-1   -7.987953230272284E-2
 1.004809285005000E+10  -3.633620286633389E-1   -2.805480124667839E-1    1.015831149957151E-4    4.430635773556557E-4    8.415078619346649E-5    4.476174213466939E-4   -4.666915668095449E-1   -7.953417690894285E-2
 1.004809738057500E+10  -3.634722720841708E-1   -2.802152867509141E-1    1.223434942357366E-4    3.852133744113309E-4    7.792449625964012E-5    4.476852622868813E-4   -4.665576265532038E-1   -7.911313482293193E-2
 1.004810191110000E+10  -3.639220812609564E-1   -2.801346055617547E-1    1.037941720798998E-4    4.368143734931183E-4    9.865011656557968E-5    4.428081141952283E-4   -4.665106844788089E-1   -7.866706263446840E-2
 1.004810644162500E+10  -3.639809912881106E-1   -2.798372094805767E-1    1.317790861951829E-4    4.689903751323440E-4    8.862029253091339E-5    4.762653403580178E-4   -4.665623807184494E-1   -7.822405172562676E-2
 1.004811097215000E+10  -3.641339776330302E-1   -2.795381570717657E-1    9.274587388001283E-5    4.688627642074705E-4    7.276070084400500E-5    4.919177311212072E-4   -4.666288819925543E-1   -7.787880188174495E-2
 1.004811550267500E+10  -3.642580566539022E-1   -2.793099962775550E-1    1.464411409716458E-4    5.037461031354612E-4    9.826569150233098E-5    4.962746973998243E-4   -4.665954452374333E-1   -7.738111335888451E-2
 1.004812003320000E+10  -3.643664531452858E-1   -2.791040633128849E-1    1.027533700945917E-4    5.073994381535653E-4    5.369535569279343E-5    4.986144172947418E-4   -4.665319723552804E-1   -7.691429983836312E-2
 1.004812456372500E+10  -3.646982680116375E-1   -2.788819654432718E-1    1.202817534279510E-4    5.001282406386489E-4    8.836053789261541E-5    5.190681667493584E-4   -4.667005280541087E-1   -7.651817937992465E-2
 1.004812909425000E+10  -3.647759314147073E-1   -2.786726526213704E-1    1.267413985451705E-4    5.707509962914841E-4    1.079231213050950E-4    5.520160608872118E-4   -4.666380819927988E-1   -7.612280262860353E-2
