#  HZ   S   RI   R     50.00 
! Rohde & Schwarz Vector Network Analyzer 
! Rohde-Schwarz,ZNB20-2Port,1311601062101988,3.16
! Created: UTC 3/21/2024, 12:54:04 AM
! freq[Hz]                re:S11                  im:S11                  re:S21                  im:S21                  re:S12                  im:S12                  re:S22                  im:S22
 1.004767388900000E+10  -3.461160459093546E-1   -3.029825330766329E-1    1.714017169923167E-4   -3.929792398967561E-4    2.046838258717326E-4   -3.562737143436590E-4   -4.620927690558817E-1   -1.147516929312837E-1
 1.004767869982500E+10  -3.463079704711570E-1   -3.026514266039652E-1    1.495683528222360E-4   -3.732537085421629E-4    1.760766478422259E-4   -3.565539867135786E-4   -4.623130132583839E-1   -1.142883137144626E-1
 1.004768351065000E+10  -3.465637052890078E-1   -3.023772037572270E-1    1.638025387752598E-4   -3.513396916024172E-4    1.698192768956624E-4   -3.502892971283634E-4   -4.623573407691388E-1   -1.140014697869155E-1
 1.004768832147500E+10  -3.466714238560187E-1   -3.022997592304221E-1    1.397188112225200E-4   -3.674192689862378E-4    1.665156625936236E-4   -3.325510534230961E-4   -4.623749196538637E-1   -1.135327643558701E-1
 1.004769313230000E+10  -3.468175192150852E-1   -3.020763289819755E-1    1.627647299392368E-4   -3.339192764956136E-4    1.831214579681532E-4   -3.579429931276151E-4   -4.624862291203233E-1   -1.133675458308374E-1
 1.004769794312500E+10  -3.470153231412259E-1   -3.017748291425980E-1    1.402568832793504E-4   -3.423308067367003E-4    1.945731944652122E-4   -3.337577471048281E-4   -4.624670687081838E-1   -1.129741807622496E-1
 1.004770275395000E+10  -3.472468369720510E-1   -3.014514239392455E-1    1.677543816907902E-4   -3.480677917238721E-4    1.526775721993205E-4   -3.232462647822284E-4   -4.627481350219799E-1   -1.126728219445549E-1
 1.004770756477500E+10  -3.475872989979450E-1   -3.013517620775382E-1    1.815656628321997E-4   -3.348628075389180E-4    1.831422686071560E-4   -3.326697410547016E-4   -4.627195088523363E-1   -1.123721062092034E-1
 1.004771237560000E+10  -3.477601602792917E-1   -3.009328361264407E-1    1.650653907980543E-4   -3.030193947450101E-4    1.932437361632340E-4   -3.234328883527213E-4   -4.626904833187239E-1   -1.119372210019244E-1
 1.004771718642500E+10  -3.479586353505679E-1   -3.006080427561276E-1    1.367778906656392E-4   -3.362834593336438E-4    1.723982523497846E-4   -3.185609059324044E-4   -4.627538605036107E-1   -1.115197614333855E-1
 1.004772199725000E+10  -3.480792248871057E-1   -3.004305396919766E-1    1.652751679856426E-4   -3.070372252068724E-4    1.833544555704971E-4   -2.923450562473026E-4   -4.629147578692498E-1   -1.111510092931576E-1
 1.004772680807500E+10  -3.483419264345816E-1   -3.002470726591085E-1    1.528414006560074E-4   -2.822995318814347E-4    1.789859415623352E-4   -2.950676654833820E-4   -4.630779332308300E-1   -1.108508992271003E-1
 1.004773161890000E+10  -3.485354505303923E-1   -2.999140807851252E-1    1.412006499530085E-4   -3.205465470015611E-4    1.982134229235382E-4   -2.952283149842963E-4   -4.629777932032880E-1   -1.105000878281222E-1
 1.004773642972500E+10  -3.487493657821893E-1   -2.997190377522428E-1    1.373714940021857E-4   -2.705972736936026E-4    1.831175952969372E-4   -2.896203466645672E-4   -4.630758936404343E-1   -1.101051811533297E-1
 1.004774124055000E+10  -3.488611404568899E-1   -2.994785476813038E-1    1.717333511243523E-4   -2.981657841165652E-4    1.666796144035791E-4   -2.822590038510208E-4   -4.630801787470799E-1   -1.096172018546014E-1
 1.004774605137500E+10  -3.489612927313409E-1   -2.992458320117904E-1    1.419612878903108E-4   -2.775817906079964E-4    1.575129116380189E-4   -2.924423447538106E-4   -4.631465788143856E-1   -1.093508966529774E-1
 1.004775086220000E+10  -3.493417951232984E-1   -2.989649024425513E-1    1.568468137730660E-4   -2.918518862660604E-4    1.520679681967840E-4   -2.899770600449576E-4   -4.631522470325344E-1   -1.088540240150080E-1
 1.004775567302500E+10  -3.496201413657860E-1   -2.987684592112342E-1    1.665399150363278E-4   -2.579498825060193E-4    1.779067953352499E-4   -2.763555523380365E-4   -4.633465373762157E-1   -1.086626034875114E-1
 1.004776048385000E+10  -3.497836251495602E-1   -2.984103342064910E-1    1.652113964264633E-4   -3.003698605033870E-4    1.849849539191941E-4   -2.368773772208382E-4   -4.633838539213911E-1   -1.082608361137642E-1
 1.004776529467500E+10  -3.498388523552456E-1   -2.982802939007133E-1    1.645183992815111E-4   -2.488173545961795E-4    1.702009140024116E-4   -2.621876273356693E-4   -4.634418685956797E-1   -1.078487040781370E-1
 1.004777010550000E+10  -3.500973286594605E-1   -2.980248092890442E-1    1.332668901134555E-4   -2.545387621808695E-4    1.736132927997946E-4   -2.733668235078916E-4   -4.634829552940666E-1   -1.075137062381976E-1
 1.004777491632500E+10  -3.502985604301470E-1   -2.977069247130471E-1    1.372339847141168E-4   -2.466327361744008E-4    1.601686376135461E-4   -2.498169202441219E-4   -4.636175819420768E-1   -1.071612656719096E-1
 1.004777972715000E+10  -3.504701981776642E-1   -2.975280107745473E-1    1.227743543604567E-4   -2.501813017252771E-4    1.792494010356181E-4   -2.431305134944902E-4   -4.635523961506963E-1   -1.070103245187465E-1
 1.004778453797500E+10  -3.508396527634583E-1   -2.971936946492397E-1    1.401739514531390E-4   -2.399756084139000E-4    1.888908934771495E-4   -2.217191741227105E-4   -4.638010904340803E-1   -1.064987136446326E-1
 1.004778934880000E+10  -3.508766133315179E-1   -2.970701590765560E-1    1.365173035837137E-4   -2.146943834773924E-4    1.785824622340162E-4   -2.277656153619647E-4   -4.637214130819449E-1   -1.060611116997530E-1
 1.004779415962500E+10  -3.510672830712981E-1   -2.967515032723923E-1    1.452117098181250E-4   -2.372487113281012E-4    1.655041206126085E-4   -2.237989853258626E-4   -4.639340397884754E-1   -1.056757720945718E-1
 1.004779897045000E+10  -3.513483146145136E-1   -2.964567433510951E-1    1.414340123512907E-4   -2.380934043303062E-4    1.167061121298652E-4   -2.436267618993994E-4   -4.638997731052403E-1   -1.052722267567657E-1
 1.004780378127500E+10  -3.513636608416262E-1   -2.962296334067658E-1    1.079289384438562E-4   -2.183308117210096E-4    1.342811531646689E-4   -2.007636575083109E-4   -4.639720690066421E-1   -1.049454299171785E-1
 1.004780859210000E+10  -3.516714108419659E-1   -2.957612458422288E-1    1.416478731211799E-4   -1.969710298347234E-4    1.573063108563635E-4   -1.874599402556037E-4   -4.639839634167116E-1   -1.045589248556468E-1
 1.004781340292500E+10  -3.519646004234315E-1   -2.956158877641637E-1    1.289099826555591E-4   -2.071452202232916E-4    1.709733391196778E-4   -1.831384038801083E-4   -4.640148991202391E-1   -1.041408262312466E-1
 1.004781821375000E+10  -3.520878930792891E-1   -2.953544154252088E-1    1.565090542765631E-4   -1.972973822279516E-4    1.488812788942519E-4   -2.126085469898997E-4   -4.639846347434770E-1   -1.037244686762369E-1
 1.004782302457500E+10  -3.522650374480500E-1   -2.951367467272875E-1    1.411977595349660E-4   -1.803079112131783E-4    1.439583308235461E-4   -1.773163310122704E-4   -4.641667570971781E-1   -1.034376550501222E-1
 1.004782783540000E+10  -3.525192001390483E-1   -2.948792624726966E-1    1.395369861535354E-4   -2.013658108274131E-4    1.366839790666566E-4   -1.817567045510389E-4   -4.641950057835103E-1   -1.029800406772073E-1
 1.004783264622500E+10  -3.527619527976266E-1   -2.946842770472327E-1    1.499108889694870E-4   -1.833894344032488E-4    1.524668490711179E-4   -1.540001877921485E-4   -4.641999682231029E-1   -1.027548366000589E-1
 1.004783745705000E+10  -3.528625473358570E-1   -2.943899399086269E-1    1.118596297991921E-4   -1.638826404196950E-4    1.327802924534151E-4   -1.781881848834424E-4   -4.643567550735263E-1   -1.022463209263115E-1
 1.004784226787500E+10  -3.530600255430832E-1   -2.941132152132954E-1    1.225509925146274E-4   -1.521144853817807E-4    1.626039512272850E-4   -1.599569483267418E-4   -4.643683927435677E-1   -1.018743585523840E-1
 1.004784707870000E+10  -3.532320137134224E-1   -2.938901842685815E-1    9.506464615140699E-5   -1.580495496983157E-4    1.274044532079866E-4   -1.544965278247423E-4   -4.645343193561101E-1   -1.014731416263053E-1
 1.004785188952500E+10  -3.534856768298795E-1   -2.936339086017883E-1    1.470185348183477E-4   -1.344162757633245E-4    1.619110511445801E-4   -1.596294838819024E-4   -4.645769040856033E-1   -1.011488761161482E-1
 1.004785670035000E+10  -3.537249223912156E-1   -2.933038421016483E-1    1.530522146390191E-4   -1.720187401627739E-4    1.281803917149828E-4   -1.371559811917402E-4   -4.644763044583438E-1   -1.007376855041619E-1
 1.004786151117500E+10  -3.539757313191234E-1   -2.930651715934827E-1    1.494721243136166E-4   -1.339446262700249E-4    1.365068680572084E-4   -1.253235245457442E-4   -4.645496121581015E-1   -1.002611605383076E-1
 1.004786632200000E+10  -3.540252194731477E-1   -2.927965881042261E-1    1.472804543179929E-4   -1.408551533502289E-4    1.282489897640305E-4   -1.129179892067797E-4   -4.645894894679855E-1   -9.989565409816387E-2
 1.004787113282500E+10  -3.543195089995677E-1   -2.926875561740210E-1    1.054413574731317E-4   -1.456235735636469E-4    1.161256684533686E-4   -1.238484981478426E-4   -4.647832485617956E-1   -9.963116962770761E-2
 1.004787594365000E+10  -3.544676762852367E-1   -2.923487158224352E-1    1.085970298894197E-4   -1.070480390753322E-4    1.170763020257625E-4   -1.079130823321633E-4   -4.648442263086391E-1   -9.915639330449683E-2
 1.004788075447500E+10  -3.546037614425498E-1   -2.920829025882894E-1    1.291655684106108E-4   -1.045746370933286E-4    1.202410900262182E-4   -1.091967895643847E-4   -4.647773097073894E-1   -9.886944155665803E-2
 1.004788556530000E+10  -3.547948947435817E-1   -2.918956302592149E-1    1.337597303178884E-4   -9.594432170657852E-5    1.359131145902293E-4   -7.255283848506154E-5   -4.649049530056987E-1   -9.838630857355991E-2
 1.004789037612500E+10  -3.549016834047374E-1   -2.915076935285014E-1    1.157183172965823E-4   -9.124894366512323E-5    1.308137652024092E-4   -5.537811434272311E-5   -4.649785962443586E-1   -9.815788627022216E-2
 1.004789518695000E+10  -3.552541295558924E-1   -2.912814480571975E-1    1.057646627703014E-4   -9.702813648985283E-5    1.246621123743545E-4   -3.771474934495180E-5   -4.649577415761773E-1   -9.751938300535988E-2
 1.004789999777500E+10  -3.555273137367962E-1   -2.910883018686570E-1    1.033306063481368E-4   -8.564226026016999E-5    1.234207582919854E-4   -5.094020749508530E-5   -4.650210138021570E-1   -9.730315203019579E-2
 1.004790480860000E+10  -3.557030156907781E-1   -2.908472164582984E-1    1.314520859590350E-4   -5.561628698214594E-5    1.264520338776808E-4   -3.453589478532241E-5   -4.650594377981896E-1   -9.691552853232002E-2
 1.004790961942500E+10  -3.558565962872932E-1   -2.904936237172705E-1    1.250822126313125E-4   -4.460886925651362E-5    1.433119732923520E-4   -5.100954322953241E-5   -4.652728684654347E-1   -9.648281887226852E-2
 1.004791443025000E+10  -3.559901052196084E-1   -2.903484788302599E-1    1.176243298550015E-4   -4.157778672544617E-5    1.223276501480672E-4   -6.434446596547000E-5   -4.653368940284371E-1   -9.611334017265591E-2
 1.004791924107500E+10  -3.562567007817085E-1   -2.900378822994394E-1    1.183647832056770E-4   -7.353026358376704E-6    1.097175747921654E-4   -4.772979419307589E-5   -4.652632150894279E-1   -9.572975464537682E-2
 1.004792405190000E+10  -3.562900586783254E-1   -2.897612639164112E-1    1.217736687578123E-4   -7.078751833632751E-6    1.125769415327212E-4    4.184407350633428E-6   -4.653760027455659E-1   -9.535176616933612E-2
 1.004792886272500E+10  -3.566473444841000E-1   -2.894839636613072E-1    1.158599630200816E-4   -1.172841739432251E-5    1.259898577585710E-4   -1.671238305992773E-5   -4.652905982236660E-1   -9.482253042318858E-2
 1.004793367355000E+10  -3.568349560828630E-1   -2.893447033745506E-1    1.277981454209463E-4    7.582696858520875E-6    1.187786642725337E-4   -7.613868694399478E-6   -4.653334221667744E-1   -9.449129209003183E-2
 1.004793848437500E+10  -3.571387550080136E-1   -2.889827860254243E-1    1.268898721914595E-4    1.670964763306871E-5    1.300362992969128E-4   -5.517752385757836E-6   -4.654451500171681E-1   -9.398967259269417E-2
 1.004794329520000E+10  -3.572425751085418E-1   -2.887164392670807E-1    1.193918895068468E-4    3.027517974262794E-5    1.321838223766086E-4    2.879781543145952E-5   -4.654737927099759E-1   -9.374271834272546E-2
 1.004794810602500E+10  -3.574449699909317E-1   -2.885965047867347E-1    1.040604231888715E-4    1.523620859277963E-5    1.016093674638621E-4    2.398885213296095E-5   -4.654868311470895E-1   -9.324078622129928E-2
 1.004795291685000E+10  -3.575229892293734E-1   -2.882009957869302E-1    1.203529500157042E-4    4.499926861637486E-5    1.248847698471391E-4    5.720462090384208E-5   -4.655867210944961E-1   -9.280337945384293E-2
 1.004795772767500E+10  -3.577528906561450E-1   -2.878933509817145E-1    1.170651370646986E-4    4.994849787890055E-5    1.257435582962687E-4    4.316978519099423E-5   -4.655041059322703E-1   -9.246522778165241E-2
 1.004796253850000E+10  -3.580764940107127E-1   -2.876763412854077E-1    1.152211758018557E-4    7.532490725787814E-5    1.168102724107406E-4    4.401821468152216E-5   -4.657427195841193E-1   -9.203151341797965E-2
 1.004796734932500E+10  -3.581569428635875E-1   -2.873671042547047E-1    1.428348725137573E-4    7.614664965458117E-5    1.181250151824416E-4    6.571053479697735E-5   -4.657725768104949E-1   -9.172366704988570E-2
 1.004797216015000E+10  -3.583541883091932E-1   -2.872752943769669E-1    1.225704064042095E-4    5.239321543030920E-5    1.169141391962967E-4    8.530991454522456E-5   -4.657209618924396E-1   -9.127500232648346E-2
 1.004797697097500E+10  -3.585796985824649E-1   -2.869540743664977E-1    1.199833688431704E-4    5.758689796317427E-5    1.133572806379732E-4    9.689034564683677E-5   -4.658552354034967E-1   -9.087885346975097E-2
 1.004798178180000E+10  -3.587266172090151E-1   -2.866645214725586E-1    9.817753791474173E-5    8.145233806273443E-5    1.320710794051610E-4    1.083888762698649E-4   -4.657408242607463E-1   -9.040508788017780E-2
 1.004798659262500E+10  -3.589868389535146E-1   -2.864743906540991E-1    1.292359792396827E-4    1.161725907189197E-4    9.905674671687228E-5    1.204123206500348E-4   -4.658686474004206E-1   -9.012074374686410E-2
 1.004799140345000E+10  -3.590834589286926E-1   -2.861679626500009E-1    1.190155693448449E-4    1.559778140103127E-4    1.204326359327842E-4    1.128805997046996E-4   -4.659610935713543E-1   -8.966123305332006E-2
 1.004799621427500E+10  -3.592612546422975E-1   -2.859619455787171E-1    1.212137184962620E-4    1.303953575142388E-4    1.366274398417886E-4    1.371213980833975E-4   -4.660683852999848E-1   -8.924062980890056E-2
 1.004800102510000E+10  -3.594794209444437E-1   -2.856435417550106E-1    1.110033388856332E-4    1.636635745904077E-4    8.041372415346276E-5    1.535056440284428E-4   -4.660861516343997E-1   -8.878225021428060E-2
 1.004800583592500E+10  -3.597085790724269E-1   -2.854005329217426E-1    1.082521564845836E-4    1.315930149213936E-4    1.028403132205456E-4    1.667557005954046E-4   -4.659375186946775E-1   -8.822637516559173E-2
 1.004801064675000E+10  -3.598985867712223E-1   -2.851784104112740E-1    1.566168970656282E-4    1.764799362468072E-4    1.043830922661934E-4    1.390728003236081E-4   -4.660900056495879E-1   -8.784703695934572E-2
 1.004801545757500E+10  -3.600458859894753E-1   -2.849330621283887E-1    1.185480116282076E-4    1.656336663559260E-4    1.023773286738227E-4    1.840356970074089E-4   -4.661994270941192E-1   -8.743413096592105E-2
 1.004802026840000E+10  -3.602571143581529E-1   -2.845441919637478E-1    1.239112256117241E-4    1.902384254480056E-4    1.113209671879407E-4    1.779120647724981E-4   -4.662087648393693E-1   -8.706945281071948E-2
 1.004802507922500E+10  -3.604739451774529E-1   -2.843939711752974E-1    1.228124988701836E-4    1.930886228403392E-4    1.089063597781111E-4    1.809370090501130E-4   -4.662618799696945E-1   -8.655710897046187E-2
 1.004802989005000E+10  -3.607524487965167E-1   -2.841788425312231E-1    1.133840698449916E-4    2.167170853683439E-4    1.234168974695178E-4    2.101581449855857E-4   -4.662378883459200E-1   -8.620225609073069E-2
 1.004803470087500E+10  -3.608970507189916E-1   -2.839259102697009E-1    1.317514854513186E-4    1.947047784126764E-4    1.102147626286320E-4    2.162974718954017E-4   -4.661907994506572E-1   -8.574229998957661E-2
 1.004803951170000E+10  -3.609395817779760E-1   -2.836184191396403E-1    1.149023795028650E-4    2.410130065884906E-4    8.237894506908692E-5    2.359289745257562E-4   -4.661705870750721E-1   -8.534781315190910E-2
 1.004804432252500E+10  -3.611287550885018E-1   -2.833824418875289E-1    1.271008270384540E-4    2.520039835482267E-4    9.276551743669674E-5    2.550302064220512E-4   -4.662343598656167E-1   -8.486352396025505E-2
 1.004804913335000E+10  -3.615210491823405E-1   -2.830692556432435E-1    1.197046675807335E-4    2.565262030622760E-4    9.860783216578413E-5    2.971690094732382E-4   -4.664950728091178E-1   -8.437279217322344E-2
 1.004805394417500E+10  -3.616283472891889E-1   -2.828282679701379E-1    8.462478861412516E-5    2.546078462995125E-4    1.097462501933611E-4    2.839691125011109E-4   -4.663649193217242E-1   -8.407225955763586E-2
 1.004805875500000E+10  -3.617098648286853E-1   -2.825092405642126E-1    1.056359023048263E-4    3.044770739704433E-4    9.405046144662610E-5    3.051011696725432E-4   -4.663814483061472E-1   -8.358904741122711E-2
 1.004806356582500E+10  -3.620264061942260E-1   -2.823786773993394E-1    1.246523092153406E-4    2.843628010172449E-4    1.166893015812847E-4    3.173963877663151E-4   -4.664350232433191E-1   -8.309428683859897E-2
 1.004806837665000E+10  -3.622588301443268E-1   -2.820841069712695E-1    1.330238980532395E-4    2.988562372486571E-4    9.568149885588994E-5    3.199430977952363E-4   -4.664453137126504E-1   -8.259411832556411E-2
 1.004807318747500E+10  -3.622895790890224E-1   -2.817348882608769E-1    1.084252450422976E-4    3.173367913398802E-4    8.934087823678073E-5    3.461922278540107E-4   -4.665873864908109E-1   -8.218236688682799E-2
 1.004807799830000E+10  -3.625445335845865E-1   -2.815601504902753E-1    1.119135690020537E-4    3.163503107891415E-4    1.080588487519777E-4    3.560050024586253E-4   -4.665022295965185E-1   -8.171834684325263E-2
 1.004808280912500E+10  -3.626327970486716E-1   -2.812901322807906E-1    1.210458107199017E-4    3.465062420490046E-4    9.238341681059736E-5    3.681640989796937E-4   -4.665294185052268E-1   -8.141523985033466E-2
 1.004808761995000E+10  -3.628981324385558E-1   -2.809705058661571E-1    1.021101683029318E-4    3.685340650137292E-4    1.114168260380053E-4    4.033213191261123E-4   -4.664590263597387E-1   -8.077353498592221E-2
 1.004809243077500E+10  -3.630820006115543E-1   -2.806777624829873E-1    1.186597868481627E-4    3.804062824829346E-4    9.978885422976749E-5    4.161477301972552E-4   -4.667001459777588E-1   -8.046371039233932E-2
 1.004809724160000E+10  -3.633010424699350E-1   -2.804988440257772E-1    1.373501483897574E-4    4.030207474858947E-4    1.224578276611608E-4    4.301270149634149E-4   -4.666077065865342E-1   -8.004672602409854E-2
 1.004810205242500E+10  -3.635605639009693E-1   -2.802859888963602E-1    1.118725171202440E-4    4.256375166368986E-4    1.003757700139086E-4    4.049103351074589E-4   -4.666171815842733E-1   -7.935871381146808E-2
 1.004810686325000E+10  -3.636804352301805E-1   -2.801447904752701E-1    1.406175858764188E-4    4.459257758863762E-4    1.093610415396933E-4    4.537254098878370E-4   -4.665900625613401E-1   -7.902358187162327E-2
