#  HZ   S   RI   R     50.00 
! Rohde & Schwarz Vector Network Analyzer 
! Rohde-Schwarz,ZNB20-2Port,1311601062101988,3.16
! Created: UTC 3/21/2024, 12:54:44 AM
! freq[Hz]                re:S11                  im:S11                  re:S21                  im:S21                  re:S12                  im:S12                  re:S22                  im:S22
 1.004758484700000E+10  -3.417453415687829E-1   -3.078679615364768E-1    1.974609818997344E-4   -4.485652628087599E-4    2.135045134192570E-4   -4.561650173773323E-4   -4.613763856930646E-1   -1.223685531557969E-1
 1.004759019647500E+10  -3.419957159384575E-1   -3.076163494810933E-1    1.928479260875812E-4   -4.708321525934969E-4    2.261234966692949E-4   -4.464528048795449E-4   -4.613556867618557E-1   -1.219339720814836E-1
 1.004759554595000E+10  -3.423708882223210E-1   -3.072340275133995E-1    1.770207274533948E-4   -4.467672352303519E-4    2.254905662299278E-4   -4.303963057374337E-4   -4.613459803588864E-1   -1.216766673429102E-1
 1.004760089542500E+10  -3.425103334115355E-1   -3.071026364700551E-1    1.922310185928259E-4   -4.252596460446732E-4    2.157393933023042E-4   -4.597931523485866E-4   -4.615187906151831E-1   -1.211796357121339E-1
 1.004760624490000E+10  -3.427599593267479E-1   -3.067335130008086E-1    2.043983782803669E-4   -4.560227299441946E-4    1.921709851322711E-4   -4.130016677288403E-4   -4.615906617921370E-1   -1.210743159815846E-1
 1.004761159437500E+10  -3.428960361688596E-1   -3.064986698961527E-1    1.942524947961787E-4   -4.432115163489710E-4    2.077716394480575E-4   -4.179364357351798E-4   -4.617419838181079E-1   -1.204337777393810E-1
 1.004761694385000E+10  -3.431721982782048E-1   -3.063042222877713E-1    1.506504924169510E-4   -4.127888082160426E-4    2.318839470281307E-4   -4.197201406512897E-4   -4.617745440653659E-1   -1.199437535588327E-1
 1.004762229332500E+10  -3.434888654379480E-1   -3.059546537735126E-1    2.004960480321410E-4   -4.433643212598920E-4    2.082648035752912E-4   -4.164294229654027E-4   -4.619567651893765E-1   -1.196338795056116E-1
 1.004762764280000E+10  -3.435634972616686E-1   -3.056049989751173E-1    1.783181455126932E-4   -4.116878322097333E-4    2.100612955251487E-4   -4.346749714895890E-4   -4.619703951165496E-1   -1.193364859052581E-1
 1.004763299227500E+10  -3.438877902577004E-1   -3.053198002641183E-1    1.795960164970155E-4   -4.097754262546533E-4    2.181968887443882E-4   -3.880588574350568E-4   -4.621015139421478E-1   -1.188556171913503E-1
 1.004763834175000E+10  -3.440643646306727E-1   -3.050784257917785E-1    1.868166377462739E-4   -4.158533022323360E-4    2.192950819271808E-4   -4.082092100178065E-4   -4.621508895332674E-1   -1.184070814908967E-1
 1.004764369122500E+10  -3.443517028382180E-1   -3.048095581829837E-1    1.751985285853348E-4   -3.924664041468722E-4    2.089207351538106E-4   -3.905663580410531E-4   -4.623233239504064E-1   -1.183212470840880E-1
 1.004764904070000E+10  -3.445280747728445E-1   -3.045191316180165E-1    1.703134546991242E-4   -4.029528263389903E-4    1.779030173984667E-4   -3.842303733912547E-4   -4.623140541977104E-1   -1.178241291518767E-1
 1.004765439017500E+10  -3.447757980151075E-1   -3.041919334501217E-1    2.021660955296397E-4   -3.918679434045127E-4    2.059266219800814E-4   -4.040209627311509E-4   -4.623290705232721E-1   -1.173333387282623E-1
 1.004765973965000E+10  -3.450718674858098E-1   -3.039856728161315E-1    1.869129357942183E-4   -3.855935761061056E-4    2.135909949798544E-4   -3.647516981399502E-4   -4.623087052650428E-1   -1.170498108262873E-1
 1.004766508912500E+10  -3.452952627343233E-1   -3.037220765739777E-1    2.024111188280119E-4   -3.933789844288795E-4    2.319156220217344E-4   -3.892939633526763E-4   -4.624689766372088E-1   -1.165999113943712E-1
 1.004767043860000E+10  -3.454444788154814E-1   -3.034406099282739E-1    1.691554045548328E-4   -3.662420206553102E-4    2.099713540190855E-4   -3.646568701908873E-4   -4.626989943589240E-1   -1.161450892051250E-1
 1.004767578807500E+10  -3.456672572450634E-1   -3.032708249648655E-1    1.816304281713050E-4   -3.525466730793562E-4    1.852729100929421E-4   -3.864635531747443E-4   -4.627103598516034E-1   -1.158017548797733E-1
 1.004768113755000E+10  -3.459246911988222E-1   -3.029400967007947E-1    1.571254878185823E-4   -3.738159888233702E-4    2.120446149473285E-4   -3.724397637265348E-4   -4.627598224476120E-1   -1.153719468496280E-1
 1.004768648702500E+10  -3.461079679594695E-1   -3.025003550910499E-1    2.049842742928530E-4   -3.779240523306105E-4    2.029047809551989E-4   -3.628673730270663E-4   -4.628943541955488E-1   -1.150564314884743E-1
 1.004769183650000E+10  -3.465682379704367E-1   -3.023709245438455E-1    2.074256719485574E-4   -3.456720602296878E-4    1.840158538828665E-4   -3.678225210071402E-4   -4.627246418532450E-1   -1.146455480209679E-1
 1.004769718597500E+10  -3.466825093763331E-1   -3.020542986409904E-1    1.640150232715959E-4   -3.444706777457030E-4    2.039295259210943E-4   -3.557400270387832E-4   -4.630934684342369E-1   -1.143791072868641E-1
 1.004770253545000E+10  -3.467828914960268E-1   -3.017419100971093E-1    1.715793601324227E-4   -3.282124856974517E-4    2.221014734505004E-4   -3.215902113849993E-4   -4.631447201257333E-1   -1.139126592264322E-1
 1.004770788492500E+10  -3.469137953441510E-1   -3.015864909661789E-1    1.806284996458288E-4   -3.196831991934277E-4    1.930596998222819E-4   -3.359745566920880E-4   -4.632087882387034E-1   -1.135737028986571E-1
 1.004771323440000E+10  -3.474127553277609E-1   -3.012703058728532E-1    1.491915657383781E-4   -3.328540005395282E-4    1.944419089190469E-4   -3.268305094374837E-4   -4.631577113628852E-1   -1.131315263408195E-1
 1.004771858387500E+10  -3.474650911658268E-1   -3.008871511354002E-1    1.598557227231229E-4   -3.493545737641288E-4    1.822895408421173E-4   -3.322901228455648E-4   -4.633470991184319E-1   -1.126499978447646E-1
 1.004772393335000E+10  -3.478437851952875E-1   -3.007110351754839E-1    1.841128114940465E-4   -3.262595686389593E-4    2.133623473388316E-4   -3.165943197807603E-4   -4.634551295401806E-1   -1.121688013989107E-1
 1.004772928282500E+10  -3.480474633075290E-1   -3.003629431142755E-1    1.770845299232870E-4   -3.094631599972925E-4    1.757460255867192E-4   -2.883768046598009E-4   -4.636201341608219E-1   -1.118436088115704E-1
 1.004773463230000E+10  -3.482004695709867E-1   -3.001522969130778E-1    1.692773327295458E-4   -3.034816271945767E-4    1.866797476415941E-4   -3.172795817880306E-4   -4.635530858328041E-1   -1.114156109819134E-1
 1.004773998177500E+10  -3.485421081045492E-1   -2.998941161721291E-1    1.635562283586146E-4   -3.311917152113843E-4    1.835131950877049E-4   -2.908330067716026E-4   -4.636949728753352E-1   -1.110579138846700E-1
 1.004774533125000E+10  -3.486955457505940E-1   -2.996636507943442E-1    1.852340427176069E-4   -3.128509363873190E-4    1.871032018134151E-4   -3.062126873591741E-4   -4.637449046720980E-1   -1.107724997520751E-1
 1.004775068072500E+10  -3.488839802394781E-1   -2.993422732948939E-1    1.487469713228595E-4   -2.907832021465327E-4    1.883978563852271E-4   -2.652683937381801E-4   -4.638129903125782E-1   -1.100823874288758E-1
 1.004775603020000E+10  -3.491379552257818E-1   -2.991686134376803E-1    1.724243264006345E-4   -2.628384694774026E-4    1.924920904959853E-4   -3.183693229720314E-4   -4.639842078394817E-1   -1.097632926888929E-1
 1.004776137967500E+10  -3.494261353231772E-1   -2.988393320511271E-1    1.723073475826861E-4   -2.976772660940811E-4    1.835820324126228E-4   -2.596090055923786E-4   -4.640909706481412E-1   -1.093876145561695E-1
 1.004776672915000E+10  -3.495883991987702E-1   -2.984143982033311E-1    1.683822381481529E-4   -2.589874235752398E-4    1.873354770313925E-4   -2.625070324824259E-4   -4.641452562809765E-1   -1.089930833321692E-1
 1.004777207862500E+10  -3.497170358410392E-1   -2.981927396571984E-1    1.849824856206952E-4   -2.568533979764206E-4    1.884241016411848E-4   -2.778095969256611E-4   -4.639585977864269E-1   -1.086581111900451E-1
 1.004777742810000E+10  -3.499886070182002E-1   -2.978446820564465E-1    1.786315689108252E-4   -2.604442425512770E-4    1.574235731824801E-4   -2.566475638013655E-4   -4.641198673036910E-1   -1.081615011948495E-1
 1.004778277757500E+10  -3.502897010052226E-1   -2.976003831422943E-1    1.869137383679491E-4   -2.665695111995709E-4    1.788633159855656E-4   -2.399827530502097E-4   -4.642785753858507E-1   -1.077382915930665E-1
 1.004778812705000E+10  -3.505400709841824E-1   -2.973217755586989E-1    1.687366271834337E-4   -2.589132441532952E-4    1.818610948502936E-4   -2.463336462978672E-4   -4.642942303964592E-1   -1.074737260189913E-1
 1.004779347652500E+10  -3.505656247063932E-1   -2.972049269047203E-1    1.900815168510395E-4   -2.296830793554965E-4    1.721125376602251E-4   -2.249214610164924E-4   -4.643757581528136E-1   -1.069987593861149E-1
 1.004779882600000E+10  -3.508690661064249E-1   -2.967067474698821E-1    1.759754137298789E-4   -2.392075242966357E-4    1.782400225813646E-4   -2.331525937728216E-4   -4.643937854076807E-1   -1.065935581798868E-1
 1.004780417547500E+10  -3.510244953544295E-1   -2.965005636503658E-1    1.522440815923830E-4   -2.239567654302751E-4    1.484957384182283E-4   -2.306081675172075E-4   -4.643654921199923E-1   -1.062338315709101E-1
 1.004780952495000E+10  -3.513576584192458E-1   -2.961676491632156E-1    1.367408116656013E-4   -2.093044971743308E-4    1.888190026871087E-4   -2.024154905035539E-4   -4.644940855691072E-1   -1.056442975199414E-1
 1.004781487442500E+10  -3.514483407137921E-1   -2.959009755754112E-1    1.624153806229351E-4   -2.169747006801054E-4    1.498889981779081E-4   -1.960756878576593E-4   -4.645223324068412E-1   -1.051698350483635E-1
 1.004782022390000E+10  -3.516709257816208E-1   -2.956238410463204E-1    1.512987189990356E-4   -2.065161630294262E-4    1.892904069497738E-4   -1.711652211185098E-4   -4.646470759084639E-1   -1.048772480640192E-1
 1.004782557337500E+10  -3.519653258736495E-1   -2.952923807607504E-1    1.566349120897593E-4   -1.958720668194581E-4    1.603088281911440E-4   -1.926618163584538E-4   -4.647015192876721E-1   -1.044863041220616E-1
 1.004783092285000E+10  -3.521036370901540E-1   -2.950504875842906E-1    1.094238368485644E-4   -1.651289828999244E-4    1.898256298418891E-4   -1.612365610623895E-4   -4.646998082177341E-1   -1.039652056188157E-1
 1.004783627232500E+10  -3.524182740300361E-1   -2.947489402360019E-1    1.448792067579755E-4   -1.855791611027623E-4    1.583383125625495E-4   -1.915987492043503E-4   -4.648550011248228E-1   -1.036334756907157E-1
 1.004784162180000E+10  -3.527749713962046E-1   -2.945845345946361E-1    1.430315025270707E-4   -1.692358409816966E-4    1.498751785652406E-4   -1.673287438904973E-4   -4.649697406259419E-1   -1.031567168628565E-1
 1.004784697127500E+10  -3.528486184014369E-1   -2.942019691750992E-1    1.234389384004669E-4   -1.676493669374007E-4    1.677431342084020E-4   -1.737780501870240E-4   -4.648586218613014E-1   -1.026942693636579E-1
 1.004785232075000E+10  -3.530360409189862E-1   -2.938530844268575E-1    1.362411939033851E-4   -1.556648987947717E-4    1.491442948863672E-4   -1.638880877647260E-4   -4.650902895007277E-1   -1.023162501220824E-1
 1.004785767022500E+10  -3.533571375533069E-1   -2.936755253904206E-1    1.312027660234276E-4   -1.392161979241332E-4    1.585846455352497E-4   -1.501992817983876E-4   -4.650574024281258E-1   -1.020150706829714E-1
 1.004786301970000E+10  -3.534491438490136E-1   -2.932701809624096E-1    1.737641164391564E-4   -1.349770528508081E-4    1.484952498766187E-4   -1.769778802074519E-4   -4.650595408852577E-1   -1.013923093426717E-1
 1.004786836917500E+10  -3.538039469471940E-1   -2.930244512583033E-1    1.290429046193913E-4   -1.168084336679344E-4    1.836093918275291E-4   -1.406300881753988E-4   -4.651205357937143E-1   -1.011059648440442E-1
 1.004787371865000E+10  -3.538568182832570E-1   -2.927600782713198E-1    1.493508911677513E-4   -1.274727071665193E-4    1.519526938790388E-4   -1.231267775328219E-4   -4.653462879631242E-1   -1.005958450172474E-1
 1.004787906812500E+10  -3.542126874214159E-1   -2.925284103962403E-1    1.435314714349972E-4   -1.365669383710090E-4    1.529374333173442E-4   -9.137418898843492E-5   -4.653175751558132E-1   -1.002294989692281E-1
 1.004788441760000E+10  -3.543675138027793E-1   -2.921368260875442E-1    1.629611694288985E-4   -9.910651448209432E-5    1.399939834074516E-4   -1.129593236915381E-4   -4.653862189706913E-1   -9.981858836815694E-2
 1.004788976707500E+10  -3.545860698752686E-1   -2.918626783307109E-1    1.212722717413507E-4   -1.131125809860475E-4    1.677634718094940E-4   -5.929852008402804E-5   -4.653328034127936E-1   -9.933770577779193E-2
 1.004789511655000E+10  -3.548383253002117E-1   -2.916458019048668E-1    1.149407287413822E-4   -1.054530411837253E-4    1.795035837128503E-4   -8.012164834640068E-5   -4.652866473191434E-1   -9.889881255119452E-2
 1.004790046602500E+10  -3.550492608461485E-1   -2.914559465321364E-1    1.358703691083637E-4   -7.987849010987480E-5    1.621596361329471E-4   -6.282393815818791E-5   -4.655254728691213E-1   -9.852159722829208E-2
 1.004790581550000E+10  -3.553136002713951E-1   -2.910669701022297E-1    1.238616989046194E-4   -7.268548742023406E-5    1.396948857934215E-4   -4.926163721269366E-5   -4.655999413399998E-1   -9.812314828928230E-2
 1.004791116497500E+10  -3.553905781834948E-1   -2.907325948768174E-1    1.254610323333537E-4   -6.041703677823797E-5    1.380377842666512E-4   -3.696327719164584E-5   -4.655428258416939E-1   -9.765214866282466E-2
 1.004791651445000E+10  -3.556397279779834E-1   -2.905267176877065E-1    1.312905697565406E-4   -5.013440360501125E-5    1.419988285720955E-4   -4.906885109101714E-5   -4.657718491209613E-1   -9.724702139199269E-2
 1.004792186392500E+10  -3.559850554354911E-1   -2.902694792442776E-1    1.369108628772357E-4   -7.139380678739678E-5    1.561739966273742E-4   -4.168794314685967E-5   -4.657573102288782E-1   -9.678746480709713E-2
 1.004792721340000E+10  -3.561410594422863E-1   -2.899272603264043E-1    1.102424047887519E-4   -2.369626858531614E-5    1.533063794129975E-4   -5.274677220662368E-5   -4.658228274753374E-1   -9.643345512972935E-2
 1.004793256287500E+10  -3.562975756335853E-1   -2.896914483367284E-1    1.357550975894888E-4   -4.529910732239570E-5    1.493761220384428E-4   -4.866253433007390E-5   -4.658819041807270E-1   -9.589651987176172E-2
 1.004793791235000E+10  -3.565460483913270E-1   -2.893908192382727E-1    1.300305591491722E-4   -1.098307487140562E-5    1.576660712490531E-4   -7.498362951417141E-6   -4.660698125133574E-1   -9.544664490437714E-2
 1.004794326182500E+10  -3.568218355070246E-1   -2.892819719414934E-1    1.357919542214159E-4   -3.958069116097195E-5    1.544840553205622E-4    6.735271150274215E-6   -4.660075214769794E-1   -9.507912867319493E-2
 1.004794861130000E+10  -3.569411385286433E-1   -2.888629544077322E-1    1.473867805789367E-4    1.271706972636440E-5    1.208481024547560E-4   -5.553599708318794E-7   -4.660395115629556E-1   -9.471425250431630E-2
 1.004795396077500E+10  -3.572289749489466E-1   -2.885307026758629E-1    1.201359121782696E-4   -1.539934077897464E-5    1.411712185151884E-4    3.320619153594442E-5   -4.659789381564047E-1   -9.408195303473729E-2
 1.004795931025000E+10  -3.573795108727775E-1   -2.881556247372293E-1    1.524962044291337E-4    6.258814995666963E-6    1.260055464826275E-4    4.198021234017235E-5   -4.660747592725728E-1   -9.369567626888531E-2
 1.004796465972500E+10  -3.576032727461292E-1   -2.879031444711848E-1    1.237592171824594E-4    4.316098191150376E-5    1.266984717493758E-4    3.153344759398844E-5   -4.663418787168966E-1   -9.327249816013755E-2
 1.004797000920000E+10  -3.577584946307936E-1   -2.877835114991753E-1    1.127258713248720E-4    3.388076617580938E-5    1.080554362701820E-4    3.809472163096888E-5   -4.664040483221315E-1   -9.274004365250314E-2
 1.004797535867500E+10  -3.580658710358859E-1   -2.874392749163509E-1    1.083419255169054E-4    2.411801618246725E-5    1.298471584178653E-4    6.126737017316679E-5   -4.664262530215013E-1   -9.241332481207482E-2
 1.004798070815000E+10  -3.582088425326493E-1   -2.871597804222368E-1    1.382024753696852E-4    5.327798747557943E-5    1.422477705516967E-4    7.264358629888034E-5   -4.664615235011956E-1   -9.187863269398241E-2
 1.004798605762500E+10  -3.585928169618397E-1   -2.868618354600393E-1    1.204574344002608E-4    5.236112891943549E-5    1.159818639225365E-4    7.913666196980031E-5   -4.664115983029045E-1   -9.133837803613772E-2
 1.004799140710000E+10  -3.586325820899712E-1   -2.866216774521640E-1    1.457955866872204E-4    8.187149537004422E-5    1.208964669354434E-4    8.143346884616684E-5   -4.663279905297885E-1   -9.114178425927524E-2
 1.004799675657500E+10  -3.588625224406227E-1   -2.862254048897023E-1    1.554842147461878E-4    1.001354315163452E-4    1.088172051084053E-4    1.005250386110524E-4   -4.665027400709561E-1   -9.055944959556896E-2
 1.004800210605000E+10  -3.592849349335621E-1   -2.860748202042828E-1    1.581930214558773E-4    1.290359039866170E-4    1.017678639635215E-4    1.325618523830867E-4   -4.664472645259513E-1   -9.003218795505134E-2
 1.004800745552500E+10  -3.593143633413199E-1   -2.857318149439568E-1    1.455199783153585E-4    1.417373293601792E-4    1.420262844777588E-4    1.206154546175158E-4   -4.666098387372987E-1   -8.966092463978553E-2
 1.004801280500000E+10  -3.594525893327854E-1   -2.854021843969646E-1    1.175502279385546E-4    1.131745176777426E-4    1.649256573695909E-4    1.341210408816645E-4   -4.667517058652945E-1   -8.906875731066749E-2
 1.004801815447500E+10  -3.598043882827021E-1   -2.851469289063772E-1    1.618640694399827E-4    1.638741900668653E-4    1.203684421568863E-4    1.607996553966355E-4   -4.666288837239351E-1   -8.869042514155381E-2
 1.004802350395000E+10  -3.598137711903476E-1   -2.848517072719968E-1    1.586297548324201E-4    1.678021816299046E-4    1.275937065622915E-4    1.772508546860621E-4   -4.667203124792832E-1   -8.805938135600669E-2
 1.004802885342500E+10  -3.602757148593012E-1   -2.846217850474965E-1    1.443660300369455E-4    1.863413227836632E-4    1.321433616148088E-4    2.169250772516763E-4   -4.666566451591604E-1   -8.770421166418554E-2
 1.004803420290000E+10  -3.603267610901364E-1   -2.842838070520323E-1    1.591524156666130E-4    2.035931611234162E-4    1.329825159939684E-4    1.804151057902598E-4   -4.667815729822621E-1   -8.716752976647717E-2
 1.004803955237500E+10  -3.606608499071551E-1   -2.839953962678194E-1    1.479530592991504E-4    1.856344002647609E-4    1.240930798268982E-4    2.106811462097168E-4   -4.668639020809167E-1   -8.674801741892778E-2
 1.004804490185000E+10  -3.608175870432093E-1   -2.837439036501289E-1    1.574381366243146E-4    1.992911614661173E-4    1.296181769451511E-4    2.047359461208766E-4   -4.667310344758418E-1   -8.620111786804503E-2
 1.004805025132500E+10  -3.609297896237904E-1   -2.833877941170808E-1    1.355419622289685E-4    2.434672140963862E-4    1.309057038160171E-4    2.539393359611169E-4   -4.666509792501490E-1   -8.583938481112509E-2
 1.004805560080000E+10  -3.612296804230943E-1   -2.832392597526058E-1    1.486865772738056E-4    2.614878735427195E-4    1.024541344538702E-4    2.289610423205202E-4   -4.669723521257739E-1   -8.526383232091782E-2
 1.004806095027500E+10  -3.614261635317918E-1   -2.828204182890097E-1    1.385949044175780E-4    2.461396575323649E-4    1.231911161575443E-4    2.691560566258879E-4   -4.667552264536390E-1   -8.477345606066798E-2
 1.004806629975000E+10  -3.616128429363037E-1   -2.826227312377846E-1    1.336484794457685E-4    2.641291018572694E-4    1.263460377640030E-4    2.998269671226272E-4   -4.668699028236205E-1   -8.437987420613219E-2
