#  HZ   S   RI   R     50.00 
! Rohde & Schwarz Vector Network Analyzer 
! Rohde-Schwarz,ZNB20-2Port,1311601062101988,3.16
! Created: UTC 12/23/2023, 3:45:27 AM
! freq[Hz]                re:S11                  im:S11                  re:S21                  im:S21                  re:S12                  im:S12                  re:S22                  im:S22
 6.516915387000000E9    -2.310851074530741E-1   -1.879241167535782E-2    1.302485848085471E-2   -5.238817900657531E-3    1.306851504108264E-2   -4.664183950330810E-3    1.973573505611541E-1    5.114645191815756E-1
 6.516927529700000E9    -2.309170015086683E-1   -1.862663800389284E-2    1.307387920621973E-2   -5.061999203251226E-3    1.310030024175227E-2   -4.739895006325851E-3    1.983197848753049E-1    5.111576554938616E-1
 6.516939672400000E9    -2.308208821722511E-1   -1.846832453353993E-2    1.296689616416869E-2   -5.193192561999074E-3    1.313197166742465E-2   -4.676175478181691E-3    1.991876572745049E-1    5.107166128946801E-1
 6.516951815100000E9    -2.307419484939595E-1   -1.822211992467077E-2    1.301304217330547E-2   -5.202883681673346E-3    1.314753954388004E-2   -4.816278992986924E-3    2.000392153145287E-1    5.104058951416303E-1
 6.516963957800000E9    -2.306639339475165E-1   -1.816857135294220E-2    1.324385455834198E-2   -5.198352032220565E-3    1.322074275190151E-2   -4.866589168075618E-3    2.009955340945923E-1    5.101246928282843E-1
 6.516976100500000E9    -2.305556825042381E-1   -1.778981655137211E-2    1.323179909634311E-2   -5.304242470083743E-3    1.332438800509568E-2   -4.822067139451532E-3    2.018670324262554E-1    5.097718136697091E-1
 6.516988243200000E9    -2.302909157652504E-1   -1.756406541805601E-2    1.332438673329097E-2   -5.372202688046602E-3    1.341276963082899E-2   -4.852724667214093E-3    2.027646614623517E-1    5.093071350916966E-1
 6.517000385900000E9    -2.302723775834576E-1   -1.742111471141760E-2    1.341094281001850E-2   -5.507150818980884E-3    1.341745680050535E-2   -4.948395694998293E-3    2.037265308072829E-1    5.088428374268201E-1
 6.517012528600000E9    -2.302205817540290E-1   -1.725570838694999E-2    1.347372783928385E-2   -5.484791713896819E-3    1.353193633745095E-2   -5.008646050177623E-3    2.044377212133113E-1    5.087871004723209E-1
 6.517024671300000E9    -2.299996773320626E-1   -1.717366422901343E-2    1.349139062784250E-2   -5.496284019586430E-3    1.350500627494571E-2   -5.132977030659333E-3    2.055307760471906E-1    5.083683597268044E-1
 6.517036814000000E9    -2.299351292270702E-1   -1.695914098567491E-2    1.340453729650155E-2   -5.619513101237402E-3    1.360443676646482E-2   -5.119769940980436E-3    2.063232850564922E-1    5.080870145588433E-1
 6.517048956700000E9    -2.298104261995712E-1   -1.672509401109091E-2    1.371709406873519E-2   -5.719413924273028E-3    1.367535025336261E-2   -5.213998331388755E-3    2.073228366715963E-1    5.077019374920373E-1
 6.517061099400000E9    -2.296156600927798E-1   -1.650634270785046E-2    1.357680941127479E-2   -5.702071638629601E-3    1.361588211880120E-2   -5.233428899710341E-3    2.081267658972619E-1    5.072486122397724E-1
 6.517073242100000E9    -2.295024478194170E-1   -1.637304326814193E-2    1.366880065231166E-2   -5.857661572473597E-3    1.370018528195144E-2   -5.331177459810523E-3    2.090511536523657E-1    5.070116231792947E-1
 6.517085384800000E9    -2.294660333386659E-1   -1.627098828382077E-2    1.362188255127755E-2   -5.774538926246775E-3    1.384338350396075E-2   -5.354503684705250E-3    2.098350098427247E-1    5.066843831633147E-1
 6.517097527500000E9    -2.292508095977952E-1   -1.588792937980124E-2    1.380727618876075E-2   -5.867619096762856E-3    1.386574248836624E-2   -5.416084379527145E-3    2.107667783467235E-1    5.062740934217879E-1
 6.517109670200000E9    -2.291745078048300E-1   -1.573528073373835E-2    1.381958549436728E-2   -6.046900696212629E-3    1.397354387341107E-2   -5.506522102443661E-3    2.117490053630384E-1    5.057870477490953E-1
 6.517121812900000E9    -2.290272958660245E-1   -1.558780339551580E-2    1.401120738554818E-2   -6.052235019941879E-3    1.400207452540426E-2   -5.505491756055259E-3    2.125864702504714E-1    5.054299881616406E-1
 6.517133955600000E9    -2.289298630960053E-1   -1.537856095165312E-2    1.393858024802313E-2   -6.015436131895074E-3    1.411000516904761E-2   -5.554860064625095E-3    2.136818750384686E-1    5.050975755071045E-1
 6.517146098300000E9    -2.287904059972696E-1   -1.522548641231884E-2    1.399914729286154E-2   -6.151972833292568E-3    1.414675431678080E-2   -5.612477934702376E-3    2.144944166204643E-1    5.046654987564554E-1
 6.517158241000000E9    -2.287720880665502E-1   -1.499584157514528E-2    1.413720501772616E-2   -6.268263825864758E-3    1.422815763843217E-2   -5.615176908596795E-3    2.152873166673584E-1    5.043490562559726E-1
 6.517170383700000E9    -2.283475580201101E-1   -1.488304825619569E-2    1.411717860794072E-2   -6.291231181470821E-3    1.428562018375321E-2   -5.684678175120630E-3    2.162989745932375E-1    5.040060836088024E-1
 6.517182526400000E9    -2.282566104940721E-1   -1.465650247551425E-2    1.426557650780701E-2   -6.383371684469054E-3    1.435277328799367E-2   -5.726730717685291E-3    2.171683657272552E-1    5.035974442305946E-1
 6.517194669100000E9    -2.281976975260463E-1   -1.455635371744803E-2    1.422486380785992E-2   -6.397363202854806E-3    1.445230331610245E-2   -5.926018978256783E-3    2.180807318302294E-1    5.032437664105028E-1
 6.517206811800000E9    -2.279654048425651E-1   -1.437200734049504E-2    1.445717142054248E-2   -6.525516720311935E-3    1.452451800481303E-2   -5.924163540178577E-3    2.189410707762323E-1    5.028646721924207E-1
 6.517218954500000E9    -2.279892040066333E-1   -1.423692036588743E-2    1.437363521001781E-2   -6.615471565048129E-3    1.455556087235718E-2   -5.950484945491778E-3    2.196650398293825E-1    5.024320623071766E-1
 6.517231097200000E9    -2.278172624063570E-1   -1.401183895367825E-2    1.449475645885504E-2   -6.498728756061858E-3    1.455440494862150E-2   -5.944945455363869E-3    2.207304837394361E-1    5.021200357191632E-1
 6.517243239900000E9    -2.276509942318835E-1   -1.385793638886725E-2    1.448673362624267E-2   -6.677575799711188E-3    1.465624311932187E-2   -6.152084753676416E-3    2.216431094111384E-1    5.016319937897862E-1
 6.517255382600000E9    -2.274883057959008E-1   -1.376120471522565E-2    1.452281154695399E-2   -6.778517667703136E-3    1.470287189799922E-2   -6.190600720190069E-3    2.225088772019100E-1    5.012917768653296E-1
 6.517267525300000E9    -2.273855925660546E-1   -1.351340925977078E-2    1.465731256810767E-2   -6.718213559295747E-3    1.484622212434536E-2   -6.352619846595695E-3    2.234849626341660E-1    5.009883151233807E-1
 6.517279668000000E9    -2.272485680499322E-1   -1.330769563208971E-2    1.481272778483536E-2   -6.789805017178144E-3    1.490544814375021E-2   -6.340083651284131E-3    2.242249508058619E-1    5.006349577202851E-1
 6.517291810700000E9    -2.272203951043010E-1   -1.306899342704181E-2    1.474665917052213E-2   -6.808901647000712E-3    1.490770095561067E-2   -6.361171410265325E-3    2.251800521985499E-1    5.001923771857432E-1
 6.517303953400000E9    -2.269700248967013E-1   -1.291016854853673E-2    1.489214115901154E-2   -6.975526132049295E-3    1.501408624946050E-2   -6.441224057077016E-3    2.262486498522515E-1    4.997105505612008E-1
 6.517316096100000E9    -2.268042925140631E-1   -1.273608864798449E-2    1.495408460850288E-2   -7.085534197072505E-3    1.508266379438635E-2   -6.567756785802283E-3    2.270899184886536E-1    4.994376930550803E-1
 6.517328238800000E9    -2.267617793180411E-1   -1.263334791481021E-2    1.506526667929455E-2   -7.215180380447794E-3    1.518386259418691E-2   -6.598030858328181E-3    2.278911769676148E-1    4.990083826221063E-1
 6.517340381500000E9    -2.265401158165199E-1   -1.247124402719726E-2    1.512007011177555E-2   -7.225909684298588E-3    1.530712052350166E-2   -6.794597917391850E-3    2.287629015722473E-1    4.986524483988732E-1
 6.517352524200000E9    -2.263351658415910E-1   -1.229635797845326E-2    1.510040803578936E-2   -7.318123598612931E-3    1.531990598847484E-2   -6.764196363479591E-3    2.297468152837253E-1    4.980792192833319E-1
 6.517364666900000E9    -2.261998923254949E-1   -1.211340076832337E-2    1.516611601616479E-2   -7.410257699751868E-3    1.537257041261442E-2   -6.818946992298684E-3    2.305572239433350E-1    4.979409054442315E-1
 6.517376809600000E9    -2.261859900557019E-1   -1.196048560659298E-2    1.531213362644874E-2   -7.524991884762153E-3    1.547809736853905E-2   -6.908516491767622E-3    2.315263058688848E-1    4.972354629580334E-1
 6.517388952300000E9    -2.259577836182623E-1   -1.185121324458432E-2    1.535327338796127E-2   -7.488639044631634E-3    1.552392035528066E-2   -7.034028499674106E-3    2.323242984343622E-1    4.969674121371184E-1
 6.517401095000000E9    -2.257459383738891E-1   -1.163756693735460E-2    1.548591577211709E-2   -7.390443495899357E-3    1.570977196684724E-2   -7.035079248715919E-3    2.332769216737597E-1    4.965666399257200E-1
 6.517413237700000E9    -2.255368849580038E-1   -1.144496295815434E-2    1.551407795998174E-2   -7.645001265937925E-3    1.572194963937542E-2   -7.061271614532977E-3    2.342165238974099E-1    4.961935945926881E-1
 6.517425380400000E9    -2.254365500286824E-1   -1.137461997809946E-2    1.560586343598217E-2   -7.756287542844385E-3    1.571891269394192E-2   -7.249161907469282E-3    2.352139484398961E-1    4.958474126344580E-1
 6.517437523100000E9    -2.253119166206153E-1   -1.115002310299351E-2    1.569489295818111E-2   -7.855880366070522E-3    1.593486729530952E-2   -7.304964750354488E-3    2.360510369217055E-1    4.952707158383847E-1
 6.517449665800000E9    -2.251542756716495E-1   -1.097819322261250E-2    1.575460888151561E-2   -7.943111531047641E-3    1.597274168577337E-2   -7.334156778834757E-3    2.368690257900430E-1    4.950733207944065E-1
 6.517461808500000E9    -2.248987588144398E-1   -1.087951822772614E-2    1.591250200773190E-2   -8.038241704134480E-3    1.596786598804698E-2   -7.355584915414963E-3    2.377761695582106E-1    4.943432587950628E-1
 6.517473951200000E9    -2.248676417498037E-1   -1.080586531066572E-2    1.578492755645186E-2   -8.049965284254629E-3    1.618915684465916E-2   -7.449806247235560E-3    2.386541006563604E-1    4.940402934558659E-1
 6.517486093900000E9    -2.246610567983064E-1   -1.045791364816263E-2    1.600922173779051E-2   -8.189724264623513E-3    1.621541869451774E-2   -7.525385551430936E-3    2.396462759594193E-1    4.935836904673759E-1
 6.517498236600000E9    -2.244988402494412E-1   -1.035707240116128E-2    1.598357503727206E-2   -8.260418295104238E-3    1.627412867334320E-2   -7.624379526685930E-3    2.403927698776286E-1    4.931352917089441E-1
 6.517510379300000E9    -2.243260423169554E-1   -1.030735590982918E-2    1.620599947663293E-2   -8.213300114049140E-3    1.635326858797457E-2   -7.832066193841422E-3    2.413053477462080E-1    4.927212871812531E-1
 6.517522522000000E9    -2.242356189533994E-1   -1.004346964991224E-2    1.618531847981543E-2   -8.432872822039823E-3    1.650073421308257E-2   -7.898379983265954E-3    2.422351764264404E-1    4.922633876011394E-1
 6.517534664700000E9    -2.240488253591848E-1   -9.993102785546893E-3    1.646733430132806E-2   -8.521339917571053E-3    1.653918523276300E-2   -8.005972424289548E-3    2.431554716738673E-1    4.918998059515319E-1
 6.517546807400000E9    -2.238347190881441E-1   -9.789933915813778E-3    1.639972335112504E-2   -8.701586471534553E-3    1.667413604706585E-2   -7.947729822187949E-3    2.440569269327421E-1    4.913229867149418E-1
 6.517558950100000E9    -2.237769823080501E-1   -9.608893567032607E-3    1.665369978942719E-2   -8.653352352276497E-3    1.680642116087066E-2   -8.206061528992508E-3    2.449274105653270E-1    4.909912853001339E-1
 6.517571092800000E9    -2.235697975836316E-1   -9.534405599352376E-3    1.662546701853905E-2   -8.849256458431069E-3    1.683751419553935E-2   -8.235552048099651E-3    2.457989609956560E-1    4.903786282954140E-1
 6.517583235500000E9    -2.233900308422227E-1   -9.336520764269326E-3    1.682128190512733E-2   -9.002883719111048E-3    1.687078125618252E-2   -8.356394186160696E-3    2.467283144458751E-1    4.900142691098965E-1
 6.517595378200000E9    -2.231281463628476E-1   -9.283147755518504E-3    1.685978830135548E-2   -8.991763799317341E-3    1.698290682649450E-2   -8.488319743583944E-3    2.476124460980607E-1    4.896657960303191E-1
 6.517607520900000E9    -2.230333422787729E-1   -9.166329252567348E-3    1.680789886713121E-2   -8.930967612663213E-3    1.710646099013390E-2   -8.502044220499950E-3    2.485959486634802E-1    4.890277100723689E-1
 6.517619663600000E9    -2.228310079826367E-1   -8.949741266240856E-3    1.685480862032390E-2   -9.159515695746481E-3    1.718542665771369E-2   -8.579851878724946E-3    2.493706278940883E-1    4.886469221133989E-1
 6.517631806300000E9    -2.226840373051096E-1   -8.789782344933956E-3    1.708775080228310E-2   -9.212257535647682E-3    1.733944574385419E-2   -8.750876561976340E-3    2.504063256172252E-1    4.881342158371502E-1
 6.517643949000000E9    -2.225697199727321E-1   -8.683588605796055E-3    1.719814844190129E-2   -9.372876934777435E-3    1.737475903568500E-2   -8.916107447832859E-3    2.512322359136163E-1    4.877036000029722E-1
 6.517656091700000E9    -2.222854158333353E-1   -8.589649352810213E-3    1.727464804405113E-2   -9.508452599236052E-3    1.744527426068828E-2   -8.951688877721587E-3    2.522481688035400E-1    4.874628940695176E-1
 6.517668234400000E9    -2.221039930706474E-1   -8.472091541469003E-3    1.736621888089845E-2   -9.600755191252577E-3    1.761664267239541E-2   -9.059037929481508E-3    2.531519677115098E-1    4.867449100269411E-1
 6.517680377100000E9    -2.219561812014528E-1   -8.258876908768611E-3    1.744754432247856E-2   -9.693000489551464E-3    1.769704187095483E-2   -9.196367537724969E-3    2.539797348447155E-1    4.864526681694038E-1
 6.517692519800000E9    -2.217266807624863E-1   -8.179876099667967E-3    1.755454328116670E-2   -9.823182365069289E-3    1.771531590621657E-2   -9.250533838800127E-3    2.550592515370912E-1    4.858524087302193E-1
 6.517704662500000E9    -2.215859022017997E-1   -8.022780798357200E-3    1.767783677321303E-2   -9.890862570758689E-3    1.791010083161556E-2   -9.372286201484743E-3    2.556954405161448E-1    4.854533534471431E-1
 6.517716805200000E9    -2.213981839588593E-1   -7.929287025921031E-3    1.770073691973043E-2   -1.007544275885447E-2    1.799612193988634E-2   -9.521585450577994E-3    2.565760955947750E-1    4.847175264659330E-1
 6.517728947900000E9    -2.211657485855709E-1   -7.725590073937722E-3    1.770726145564371E-2   -1.018207735744712E-2    1.804725829278543E-2   -9.580997684154172E-3    2.575144623236097E-1    4.844367303556171E-1
 6.517741090600000E9    -2.209474070458648E-1   -7.646513675671970E-3    1.791989941037957E-2   -1.038479740500085E-2    1.827960217538164E-2   -9.642425329878810E-3    2.583576538054232E-1    4.839123605476642E-1
 6.517753233300000E9    -2.207862427274047E-1   -7.499364290257359E-3    1.796648115744066E-2   -1.042012106546776E-2    1.841528618162410E-2   -9.787973287858095E-3    2.592123509500256E-1    4.835560034209093E-1
 6.517765376000000E9    -2.205671812774281E-1   -7.430578591723980E-3    1.807017503572823E-2   -1.050601813839671E-2    1.843868409824471E-2   -1.007254393751409E-2    2.603178417047355E-1    4.829439121622653E-1
 6.517777518700000E9    -2.203509191942510E-1   -7.295534289665545E-3    1.816142119247735E-2   -1.068290981633110E-2    1.857930011649245E-2   -1.010494985133876E-2    2.611856273433536E-1    4.823381171929512E-1
 6.517789661400000E9    -2.202178879838854E-1   -7.320882780265488E-3    1.829323828385843E-2   -1.089216817503143E-2    1.868253398511052E-2   -1.009224617311734E-2    2.621840465490115E-1    4.818802584603805E-1
 6.517801804100000E9    -2.199676329329326E-1   -7.123707093008941E-3    1.846856398085946E-2   -1.093540869314910E-2    1.873986468901740E-2   -1.030236445833341E-2    2.630691909899130E-1    4.814104468502698E-1
 6.517813946800000E9    -2.197604599546282E-1   -7.120762373452937E-3    1.850502702120999E-2   -1.105670816420192E-2    1.881885271870715E-2   -1.036661947270325E-2    2.639148696503072E-1    4.808940707016887E-1
 6.517826089500000E9    -2.196168377857884E-1   -6.909953855365587E-3    1.868960790809449E-2   -1.139088217588481E-2    1.904314679836873E-2   -1.055856501154301E-2    2.646805627818390E-1    4.804424426446227E-1
 6.517838232200000E9    -2.193446755461932E-1   -6.816823345345191E-3    1.879921794770278E-2   -1.122852392408751E-2    1.905140539912695E-2   -1.080608779168166E-2    2.656152242579297E-1    4.798188777858572E-1
 6.517850374900000E9    -2.191214714084620E-1   -6.752293606408110E-3    1.868901400708151E-2   -1.160551271367686E-2    1.925645745666180E-2   -1.094308330219744E-2    2.665570127726222E-1    4.792743823128698E-1
 6.517862517600000E9    -2.189133776242214E-1   -6.650093479307608E-3    1.908204423176442E-2   -1.172246956813730E-2    1.928100659371654E-2   -1.104413355590771E-2    2.675566926538894E-1    4.788264892431595E-1
 6.517874660300000E9    -2.186039073504232E-1   -6.608101957161356E-3    1.908460443510474E-2   -1.177971204410483E-2    1.945193268489035E-2   -1.114797753664112E-2    2.683860918224941E-1    4.782370472323507E-1
 6.517886803000000E9    -2.185083409164836E-1   -6.500755155525816E-3    1.925003791080896E-2   -1.210775410042550E-2    1.955940935108734E-2   -1.123554141856628E-2    2.693312586253999E-1    4.777571495524860E-1
 6.517898945700000E9    -2.181795137350915E-1   -6.347507015778606E-3    1.939488393883841E-2   -1.211209734478100E-2    1.972176853137660E-2   -1.136121318400561E-2    2.703380867179276E-1    4.774683303255977E-1
 6.517911088400000E9    -2.180384384395639E-1   -6.467456823652990E-3    1.955321937173230E-2   -1.225445058900024E-2    1.985929784746389E-2   -1.158835929349416E-2    2.710702188966841E-1    4.766340479069689E-1
 6.517923231100000E9    -2.177543000211350E-1   -6.321468236361943E-3    1.958644154565443E-2   -1.238275270862790E-2    1.991141908707864E-2   -1.158472697350461E-2    2.719786445009402E-1    4.762970440117527E-1
 6.517935373800000E9    -2.175590927912405E-1   -6.169265160321933E-3    1.985330324016804E-2   -1.250262570512393E-2    2.008534735430170E-2   -1.186232767044392E-2    2.728754162839653E-1    4.755291196765420E-1
 6.517947516500000E9    -2.172685008344542E-1   -6.103222368265441E-3    1.980568801845067E-2   -1.276611857905048E-2    2.021224618238744E-2   -1.209928504938089E-2    2.738985849154538E-1    4.751896681921595E-1
 6.517959659200000E9    -2.171099413537882E-1   -6.016158151343397E-3    2.000645397478544E-2   -1.279684314547405E-2    2.034875385920248E-2   -1.221997272854494E-2    2.747016939991664E-1    4.745768884003154E-1
 6.517971801900000E9    -2.168827452949794E-1   -5.937924978871781E-3    2.025297969232565E-2   -1.290125176782540E-2    2.061161321729524E-2   -1.232182824702993E-2    2.756451776888327E-1    4.740133701691934E-1
 6.517983944600000E9    -2.166801783275067E-1   -5.959979611505032E-3    2.017413167683350E-2   -1.309577017377219E-2    2.060827498682932E-2   -1.251235449127786E-2    2.766728969393447E-1    4.734650276609987E-1
 6.517996087300000E9    -2.164034372548029E-1   -5.770626828884940E-3    2.030968049852186E-2   -1.334079632928661E-2    2.077096219636156E-2   -1.273140981982999E-2    2.774870229832891E-1    4.728107900994989E-1
 6.518008230000000E9    -2.161676532553404E-1   -5.703890505535708E-3    2.051909897806288E-2   -1.355352373232816E-2    2.092772782160005E-2   -1.296387766839141E-2    2.784374631406293E-1    4.722572646027848E-1
