#  HZ   S   RI   R     50.00 
! Rohde & Schwarz Vector Network Analyzer 
! Rohde-Schwarz,ZNB20-2Port,1311601062101988,3.16
! Created: UTC 12/23/2023, 3:50:50 AM
! freq[Hz]                re:S11                  im:S11                  re:S21                  im:S21                  re:S12                  im:S12                  re:S22                  im:S22
 6.516833747000000E9    -2.313548289184597E-1   -2.021414046935022E-2    1.272769675123952E-2   -4.821790173322273E-3    1.284654916209392E-2   -4.420882527308310E-3    1.913672187712658E-1    5.134876554476927E-1
 6.516846147775000E9    -2.312463470629162E-1   -2.006923099876368E-2    1.281407790738487E-2   -4.901065264091250E-3    1.290602248857270E-2   -4.461188806901261E-3    1.923796378811671E-1    5.131213881016738E-1
 6.516858548550000E9    -2.312314616681288E-1   -1.995987499108099E-2    1.289120188053655E-2   -4.864040430263745E-3    1.294954018116781E-2   -4.490425537175634E-3    1.932781599377584E-1    5.127336939751349E-1
 6.516870949325000E9    -2.309838035526425E-1   -1.965616335178327E-2    1.286312598266210E-2   -4.866373409045797E-3    1.301546207708043E-2   -4.598109910997272E-3    1.942970420887810E-1    5.125323590018267E-1
 6.516883350100000E9    -2.309961691077057E-1   -1.936956955233677E-2    1.298284436483880E-2   -4.992077220023518E-3    1.295709958518866E-2   -4.555430764830016E-3    1.950512500132488E-1    5.119381902565645E-1
 6.516895750875000E9    -2.307698654321269E-1   -1.923620875662253E-2    1.304619997290467E-2   -5.080083828076867E-3    1.312972367029615E-2   -4.638734210366344E-3    1.961301616745041E-1    5.117949320206260E-1
 6.516908151650000E9    -2.306400141711051E-1   -1.910495910362908E-2    1.317109387241967E-2   -5.110100610133898E-3    1.307544196175458E-2   -4.631684334289422E-3    1.970033238082324E-1    5.113777108232244E-1
 6.516920552425000E9    -2.307235349518907E-1   -1.883107363912947E-2    1.306926492073376E-2   -5.081570286658842E-3    1.326282036432464E-2   -4.699092934216229E-3    1.978312488948320E-1    5.110291655643970E-1
 6.516932953200000E9    -2.305078709498511E-1   -1.865319162078362E-2    1.328893149053984E-2   -5.474792115936794E-3    1.322436766633836E-2   -4.791539820049921E-3    1.987611354672708E-1    5.107129862470456E-1
 6.516945353975000E9    -2.303042693554850E-1   -1.851192185110857E-2    1.327880912712899E-2   -5.245188755976273E-3    1.326582264736259E-2   -4.914783290351384E-3    1.997912468379520E-1    5.104140964265048E-1
 6.516957754750000E9    -2.302429282321650E-1   -1.831169016262175E-2    1.329385849053612E-2   -5.465573761606710E-3    1.339222215601959E-2   -4.889211595106599E-3    2.007653909985710E-1    5.100881985629377E-1
 6.516970155525000E9    -2.301933780253396E-1   -1.809836227948815E-2    1.337535639044316E-2   -5.368947875157308E-3    1.348131171421429E-2   -5.021360058024297E-3    2.015817965059457E-1    5.096353942065646E-1
 6.516982556300000E9    -2.299987897172342E-1   -1.779274372984887E-2    1.345584386565759E-2   -5.491909206428606E-3    1.351057472543472E-2   -4.963434141877585E-3    2.025807670157541E-1    5.093664824539763E-1
 6.516994957075000E9    -2.298395031305332E-1   -1.774492224711254E-2    1.356478168785729E-2   -5.468016584925521E-3    1.356110024204278E-2   -4.937826435463953E-3    2.033368343721015E-1    5.089706498611665E-1
 6.517007357850000E9    -2.298086824097335E-1   -1.739775816071101E-2    1.353365256254004E-2   -5.614782494594839E-3    1.357428346020744E-2   -5.006965215172360E-3    2.044267920452220E-1    5.086526119268663E-1
 6.517019758625000E9    -2.296589840394824E-1   -1.732265001444951E-2    1.350216555900462E-2   -5.561487681456501E-3    1.366154153248116E-2   -5.145642511342543E-3    2.052488237540267E-1    5.082705344907558E-1
 6.517032159400000E9    -2.295278840877970E-1   -1.710785005366391E-2    1.361134381321757E-2   -5.532159157356535E-3    1.371619896870250E-2   -5.143223373489142E-3    2.061740880159923E-1    5.079768523945558E-1
 6.517044560175000E9    -2.294269688677562E-1   -1.694511441029154E-2    1.372213008873386E-2   -5.736403594743177E-3    1.385252870500543E-2   -5.185960762934730E-3    2.069561681919118E-1    5.076114333681534E-1
 6.517056960950000E9    -2.291766968707407E-1   -1.675157031868621E-2    1.378416485385895E-2   -5.843232623106352E-3    1.384788908819535E-2   -5.391128074529213E-3    2.079676717745522E-1    5.072829561056038E-1
 6.517069361725000E9    -2.290489172098996E-1   -1.652944168293454E-2    1.385660309946775E-2   -5.961840575471350E-3    1.394377466531509E-2   -5.438014517089486E-3    2.090088348746432E-1    5.068263909402719E-1
 6.517081762500000E9    -2.290196421993594E-1   -1.631201067463879E-2    1.384900969337619E-2   -5.934326733342832E-3    1.389899034521960E-2   -5.563740967550019E-3    2.098624185650911E-1    5.064504580726876E-1
 6.517094163275000E9    -2.288165621183028E-1   -1.617326061327440E-2    1.393247338136484E-2   -5.967313380662384E-3    1.403579662086839E-2   -5.466249800671174E-3    2.108440934559825E-1    5.060974649480277E-1
 6.517106564050000E9    -2.288018003942557E-1   -1.596645706987102E-2    1.403136983580022E-2   -6.056840026216708E-3    1.409728370433396E-2   -5.547685572905752E-3    2.116945461088133E-1    5.057794854468054E-1
 6.517118964825000E9    -2.286419895606221E-1   -1.573515372791257E-2    1.414712311405841E-2   -6.136854346777167E-3    1.419334601668393E-2   -5.596727127388246E-3    2.126682100892327E-1    5.053107359824661E-1
 6.517131365600000E9    -2.285062450459857E-1   -1.557193682626519E-2    1.403226079897310E-2   -6.242161226473000E-3    1.425104361186496E-2   -5.657162505856368E-3    2.134390269158065E-1    5.050161865514088E-1
 6.517143766375000E9    -2.282680679314166E-1   -1.548491856761867E-2    1.418474182876546E-2   -6.259477379923084E-3    1.430594590012731E-2   -5.823758136137929E-3    2.144812466085781E-1    5.046235020921849E-1
 6.517156167150000E9    -2.281054535154007E-1   -1.529726057589957E-2    1.418885501019485E-2   -6.353028630507596E-3    1.432943841892988E-2   -5.792271389979281E-3    2.154768102330725E-1    5.043227931818519E-1
 6.517168567925000E9    -2.280624697938164E-1   -1.509627586458765E-2    1.435245237336305E-2   -6.413799184086587E-3    1.443673888825798E-2   -5.842901650304446E-3    2.162593902061516E-1    5.037730064926594E-1
 6.517180968700000E9    -2.279507871252006E-1   -1.482748234769860E-2    1.440945292762593E-2   -6.431589929907623E-3    1.448532260843536E-2   -5.996191863174044E-3    2.172639609911284E-1    5.033884869738769E-1
 6.517193369475000E9    -2.278068791239805E-1   -1.464739881787337E-2    1.445287718879204E-2   -6.466910845825660E-3    1.455779477088500E-2   -5.904947621237115E-3    2.180803456613856E-1    5.031438964341540E-1
 6.517205770250000E9    -2.276336161629018E-1   -1.455304120323954E-2    1.441626953471158E-2   -6.637348113962003E-3    1.459840330068529E-2   -6.018313538945931E-3    2.190213964351946E-1    5.026777212109816E-1
 6.517218171025000E9    -2.273635069980814E-1   -1.441781137994011E-2    1.459583932207239E-2   -6.644784137555718E-3    1.473608067673883E-2   -6.143293106987758E-3    2.199346403860750E-1    5.022802701051559E-1
 6.517230571800000E9    -2.272519644904495E-1   -1.417892825547548E-2    1.466942297136829E-2   -6.645650781115055E-3    1.471250843743976E-2   -6.173643923770436E-3    2.210084360864035E-1    5.019070148188727E-1
 6.517242972575000E9    -2.273011090093018E-1   -1.387734180639401E-2    1.479097260856977E-2   -6.829954301899721E-3    1.484695750206823E-2   -6.199312025199352E-3    2.218225079598304E-1    5.015221564821757E-1
 6.517255373350000E9    -2.270437150501455E-1   -1.384966021177451E-2    1.482708181458321E-2   -6.841858142474577E-3    1.495613877903072E-2   -6.365630709658247E-3    2.228335054844164E-1    5.011241966189610E-1
 6.517267774125000E9    -2.268536934221805E-1   -1.375013365868581E-2    1.480036010284106E-2   -6.936809885125139E-3    1.503827327495562E-2   -6.389823126779095E-3    2.236476157139148E-1    5.006364712704456E-1
 6.517280174900000E9    -2.267746601645689E-1   -1.334660314453860E-2    1.500107124507469E-2   -7.056774507060114E-3    1.508354995008720E-2   -6.409735018653230E-3    2.246213140208865E-1    5.002856603902933E-1
 6.517292575675000E9    -2.265647367907214E-1   -1.324562079201132E-2    1.498813765558259E-2   -7.075994448617960E-3    1.520215216182846E-2   -6.638458031414545E-3    2.255352863606610E-1    4.998638542768767E-1
 6.517304976450000E9    -2.264942347949581E-1   -1.314215927397893E-2    1.501982821681182E-2   -7.247002521012261E-3    1.515980153458424E-2   -6.645985016644644E-3    2.265130273746865E-1    4.995148776496618E-1
 6.517317377225000E9    -2.262948283530819E-1   -1.308576686154255E-2    1.523710432801857E-2   -7.237989971179970E-3    1.534101532721494E-2   -6.658408920895027E-3    2.273328440682639E-1    4.990468052210295E-1
 6.517329778000000E9    -2.262722576019098E-1   -1.269834562393018E-2    1.525691802397341E-2   -7.405989709966642E-3    1.537597705574139E-2   -6.889582908220272E-3    2.283742345169509E-1    4.987173359430343E-1
 6.517342178775000E9    -2.260290104191242E-1   -1.258039316009337E-2    1.522297925207318E-2   -7.320107878875305E-3    1.558984579777230E-2   -6.921899773499406E-3    2.291040118174306E-1    4.982881611676774E-1
 6.517354579550000E9    -2.257905700932217E-1   -1.249205742786104E-2    1.539315278784440E-2   -7.478511885315921E-3    1.549247711862228E-2   -6.911273682447130E-3    2.301701337355145E-1    4.978854793835057E-1
 6.517366980325000E9    -2.257150075547148E-1   -1.225754607448209E-2    1.554702985026454E-2   -7.523071440063822E-3    1.573161679689389E-2   -7.021315447095987E-3    2.310327022954695E-1    4.975452789690632E-1
 6.517379381100000E9    -2.254631595676879E-1   -1.221377627370058E-2    1.555813272545707E-2   -7.556788416580631E-3    1.565413009563055E-2   -7.095935514295568E-3    2.319071676037193E-1    4.967797693099670E-1
 6.517391781875000E9    -2.254123926006102E-1   -1.200136501674576E-2    1.559811473494280E-2   -7.572318628496889E-3    1.579076652656220E-2   -7.209447772162914E-3    2.328114802073618E-1    4.965644333847265E-1
 6.517404182650000E9    -2.253701375084823E-1   -1.187568490431523E-2    1.564996879352035E-2   -7.772277450530636E-3    1.585024195755424E-2   -7.332083739310258E-3    2.339301420875159E-1    4.960729772511245E-1
 6.517416583425000E9    -2.250330575600349E-1   -1.168137572361683E-2    1.570987941302058E-2   -7.832278352920137E-3    1.600359581485110E-2   -7.337293545529994E-3    2.347004177773128E-1    4.956130103349923E-1
 6.517428984200000E9    -2.249540189627267E-1   -1.146317881982323E-2    1.586640731534383E-2   -8.013207662928632E-3    1.604167748854715E-2   -7.385331200200433E-3    2.355190496312394E-1    4.953467020847550E-1
 6.517441384975000E9    -2.247533204096706E-1   -1.135421025182008E-2    1.587642533521400E-2   -7.958077879888231E-3    1.615195995214984E-2   -7.537068815173213E-3    2.365427683778570E-1    4.948234136994472E-1
 6.517453785750000E9    -2.246126632901557E-1   -1.126298357622502E-2    1.600950804957678E-2   -8.129294912877082E-3    1.620519179066645E-2   -7.546568311871203E-3    2.374612125956671E-1    4.943792533291974E-1
 6.517466186525000E9    -2.244294485319933E-1   -1.116816389815307E-2    1.613372650226785E-2   -8.323101753814285E-3    1.629278820199882E-2   -7.581304135966116E-3    2.382995645264670E-1    4.939678942930734E-1
 6.517478587300000E9    -2.243446394742764E-1   -1.083001504105068E-2    1.617135090237278E-2   -8.253512382753167E-3    1.639618307473649E-2   -7.763514930071271E-3    2.393315705829765E-1    4.933818401074228E-1
 6.517490988075000E9    -2.241334220416041E-1   -1.077574458857880E-2    1.615414231149789E-2   -8.293688515434253E-3    1.657473060675566E-2   -7.818902503816024E-3    2.401218616126025E-1    4.931391275223280E-1
 6.517503388850000E9    -2.239381417316165E-1   -1.060620318332874E-2    1.626216830907153E-2   -8.451220764895687E-3    1.649303263830130E-2   -7.883636148079664E-3    2.410625054870958E-1    4.926084235529743E-1
 6.517515789625000E9    -2.238067050213869E-1   -1.044468410678478E-2    1.640485611108830E-2   -8.690345918171000E-3    1.667475940651682E-2   -8.082634751105280E-3    2.420087056985540E-1    4.920930273116284E-1
 6.517528190400000E9    -2.236445608400472E-1   -1.030580926162310E-2    1.653583769339272E-2   -8.659602572269094E-3    1.672391076922884E-2   -8.003486113121122E-3    2.428847030181554E-1    4.916650935973633E-1
 6.517540591175000E9    -2.234168455466044E-1   -1.012549765698822E-2    1.665410476247059E-2   -8.821022428466411E-3    1.685594513197460E-2   -8.329553789616365E-3    2.439716750717698E-1    4.912272722168284E-1
 6.517552991950000E9    -2.232293180362729E-1   -9.947637915535068E-3    1.669923023202413E-2   -8.740540210345760E-3    1.692629134545407E-2   -8.289233689530412E-3    2.448037321859027E-1    4.908870748372470E-1
 6.517565392725000E9    -2.231185980657666E-1   -9.828505831960684E-3    1.663519210557188E-2   -9.038878579152849E-3    1.700726244697754E-2   -8.444110866271649E-3    2.456585752015370E-1    4.904233484370862E-1
 6.517577793500000E9    -2.228654817050584E-1   -9.633598840308562E-3    1.687446369015916E-2   -9.175851609956868E-3    1.711303483705819E-2   -8.549679169957329E-3    2.465879138108873E-1    4.899068960532619E-1
 6.517590194275000E9    -2.226996157819389E-1   -9.570185565649337E-3    1.687577614666072E-2   -9.264680290196007E-3    1.718606285009439E-2   -8.722074146680555E-3    2.474792831350885E-1    4.893119566885799E-1
 6.517602595050000E9    -2.225122084302237E-1   -9.483971099689790E-3    1.708177064819646E-2   -9.319451754922005E-3    1.723738881584532E-2   -8.684069472812682E-3    2.486293827767296E-1    4.889407387457163E-1
 6.517614995825000E9    -2.223451839018875E-1   -9.259812722492997E-3    1.721899703118156E-2   -9.445514615803993E-3    1.747644174932874E-2   -8.907023313721256E-3    2.492840598668735E-1    4.884436355810340E-1
 6.517627396600000E9    -2.221493885131361E-1   -9.247302800769949E-3    1.726997239745164E-2   -9.470248062698952E-3    1.752079067358117E-2   -8.923954435158707E-3    2.501848559364123E-1    4.880622099532202E-1
 6.517639797375000E9    -2.219276473314988E-1   -9.048898253731836E-3    1.731613481990298E-2   -9.702373014554240E-3    1.763413238664081E-2   -9.061224632283772E-3    2.512743608397051E-1    4.874221502314238E-1
 6.517652198150000E9    -2.218159228835410E-1   -8.810090848037968E-3    1.752914321925765E-2   -9.757553882774236E-3    1.773405984545899E-2   -9.140295779408452E-3    2.522533281621925E-1    4.869750801067947E-1
 6.517664598925000E9    -2.215934583389519E-1   -8.777759927119738E-3    1.740343293273543E-2   -9.893833242564610E-3    1.776971860616658E-2   -9.291486280748829E-3    2.531105650711344E-1    4.866681617736268E-1
 6.517676999700000E9    -2.214494060145485E-1   -8.577183054434620E-3    1.766936684529868E-2   -1.001765431123686E-2    1.787521837018546E-2   -9.357524009718992E-3    2.540887549062451E-1    4.860431003507161E-1
 6.517689400475000E9    -2.212344840136675E-1   -8.452958463327500E-3    1.756855741211601E-2   -1.002339488455563E-2    1.799733710788859E-2   -9.495485597407906E-3    2.548250863811545E-1    4.856694418113749E-1
 6.517701801250000E9    -2.209676375783740E-1   -8.402104325580284E-3    1.786495788674616E-2   -1.023892987973233E-2    1.811303033654045E-2   -9.641742968272768E-3    2.557705833327448E-1    4.850352887223083E-1
 6.517714202025000E9    -2.207129468528537E-1   -8.293298382272857E-3    1.798651262153689E-2   -1.031207867326363E-2    1.826366702587666E-2   -9.804314669529137E-3    2.567085198782359E-1    4.845455702390102E-1
 6.517726602800000E9    -2.205848082803198E-1   -8.136822873550482E-3    1.810275734532720E-2   -1.045874455720057E-2    1.837821017634262E-2   -9.957791409111159E-3    2.575752150552310E-1    4.842171439029597E-1
 6.517739003575000E9    -2.204207786762775E-1   -8.055401702083608E-3    1.809784289547800E-2   -1.057841129320660E-2    1.847662375710513E-2   -1.004496349700238E-2    2.584692347160739E-1    4.835400752985428E-1
 6.517751404350000E9    -2.202316055423236E-1   -7.981329602184556E-3    1.826249022999343E-2   -1.069599672527774E-2    1.862840409350649E-2   -1.014420270526658E-2    2.595006175912508E-1    4.830905726404977E-1
 6.517763805125000E9    -2.199662269306744E-1   -7.769349045780769E-3    1.829151695231336E-2   -1.080116887182284E-2    1.855859064134238E-2   -1.024111853617303E-2    2.603871735577687E-1    4.825131828133760E-1
 6.517776205900000E9    -2.197530327714378E-1   -7.715839380589135E-3    1.852804556652022E-2   -1.102471411987998E-2    1.875802847984567E-2   -1.038552436727394E-2    2.613261082650171E-1    4.821401106806680E-1
 6.517788606675000E9    -2.195559546380321E-1   -7.670345625231386E-3    1.844105152286303E-2   -1.117916696479015E-2    1.884672068541090E-2   -1.051531076507078E-2    2.622202815693028E-1    4.816453198766376E-1
 6.517801007450000E9    -2.193624301818351E-1   -7.615265214928404E-3    1.887004894630050E-2   -1.115320629230621E-2    1.921145083270988E-2   -1.065784013040517E-2    2.631645491075018E-1    4.810508143258493E-1
 6.517813408225000E9    -2.192044775953430E-1   -7.427815361549864E-3    1.886154475418108E-2   -1.141137276746604E-2    1.911789040413755E-2   -1.095558275332813E-2    2.641001441441924E-1    4.805610159644944E-1
 6.517825809000000E9    -2.189437563631958E-1   -7.415700739300103E-3    1.898161908413076E-2   -1.150685204711737E-2    1.931715499535592E-2   -1.091186530179793E-2    2.650724224786941E-1    4.799773189528977E-1
 6.517838209775000E9    -2.187222781206428E-1   -7.254605564365310E-3    1.914666905757538E-2   -1.159868322372594E-2    1.939619792327805E-2   -1.106213917913041E-2    2.659820225932860E-1    4.793481452709509E-1
 6.517850610550000E9    -2.184750675213507E-1   -7.157014354292154E-3    1.913296326865205E-2   -1.179348332094209E-2    1.950045860036574E-2   -1.112131066460248E-2    2.668725155430371E-1    4.788620254494019E-1
 6.517863011325000E9    -2.183606320472102E-1   -6.928482343341318E-3    1.929078369006553E-2   -1.214731295504084E-2    1.960227579781125E-2   -1.137056433876877E-2    2.678643674140755E-1    4.782804794143060E-1
 6.517875412100000E9    -2.180349103695658E-1   -6.949256513312177E-3    1.942216076528053E-2   -1.205789377880354E-2    1.971347151337335E-2   -1.144703862238557E-2    2.686274551390553E-1    4.777764009975766E-1
 6.517887812875000E9    -2.178177357248472E-1   -6.878457245662790E-3    1.961256326400176E-2   -1.228920614887466E-2    1.993860763043749E-2   -1.168203307915622E-2    2.697117403278641E-1    4.771574106850340E-1
 6.517900213650000E9    -2.176419117709903E-1   -6.813332696315825E-3    1.968206766969123E-2   -1.246605477934365E-2    2.002553213742368E-2   -1.180241556225058E-2    2.705962869588176E-1    4.767248116991306E-1
 6.517912614425000E9    -2.173211473028833E-1   -6.644069390030850E-3    1.977640280210025E-2   -1.251374997220765E-2    2.016946789328723E-2   -1.202402968397936E-2    2.714708616329743E-1    4.761982549741935E-1
 6.517925015200000E9    -2.171111991059511E-1   -6.583418410525487E-3    2.006717615974363E-2   -1.278870149432714E-2    2.036051547440157E-2   -1.214024777185005E-2    2.723490666520645E-1    4.756523748398389E-1
 6.517937415975000E9    -2.169418317039267E-1   -6.647003698973695E-3    2.007172704187432E-2   -1.299981880336275E-2    2.047629646037986E-2   -1.232761878861819E-2    2.732799379443400E-1    4.749359579996245E-1
 6.517949816750000E9    -2.166608407038371E-1   -6.536984126962520E-3    2.018094861918773E-2   -1.300596696654408E-2    2.059818461302972E-2   -1.249580430656758E-2    2.743543524575812E-1    4.746101135976527E-1
