#  HZ   S   RI   R     50.00 
! Rohde & Schwarz Vector Network Analyzer 
! Rohde-Schwarz,ZNB20-2Port,1311601062101988,3.16
! Created: UTC 12/23/2023, 3:51:39 AM
! freq[Hz]                re:S11                  im:S11                  re:S21                  im:S21                  re:S12                  im:S12                  re:S22                  im:S22
 6.516853611000000E9    -2.311888493893263E-1   -1.993791494097974E-2    1.290826025011081E-2   -4.764921329821164E-3    1.300261838218820E-2   -4.521324204656429E-3    1.928897866227850E-1    5.130841585192910E-1
 6.516865943025000E9    -2.310742466737525E-1   -1.972634835999560E-2    1.297960372458666E-2   -5.003614097657032E-3    1.290612316399686E-2   -4.524505802328196E-3    1.937990911906687E-1    5.127007193637745E-1
 6.516878275050000E9    -2.309639889524458E-1   -1.936094784751792E-2    1.289932867206825E-2   -5.022702834086623E-3    1.304156261904841E-2   -4.583906936949212E-3    1.946787539800163E-1    5.124843160469115E-1
 6.516890607075000E9    -2.308424879401127E-1   -1.931946283272833E-2    1.284224287300543E-2   -5.138158888124249E-3    1.292552893357487E-2   -4.572448637734562E-3    1.957058551262856E-1    5.119840786395030E-1
 6.516902939100000E9    -2.308901131507052E-1   -1.918508666817594E-2    1.302685382314840E-2   -5.099210207730560E-3    1.307426686400769E-2   -4.717376003501412E-3    1.966011102134103E-1    5.115516256980387E-1
 6.516915271125000E9    -2.306399226029033E-1   -1.890784890351868E-2    1.296314568580426E-2   -5.198940289351060E-3    1.313681998456868E-2   -4.696361350437129E-3    1.974884504709779E-1    5.111796521422415E-1
 6.516927603150000E9    -2.305623477879048E-1   -1.871749232909794E-2    1.304782879304850E-2   -5.146493002720877E-3    1.317905426289081E-2   -4.705278239344334E-3    1.983953299739194E-1    5.108865850649562E-1
 6.516939935175000E9    -2.305061238278001E-1   -1.841071017919431E-2    1.313014760160254E-2   -5.308004072147327E-3    1.327440842987223E-2   -4.790232950876671E-3    1.994349437629687E-1    5.106373380068988E-1
 6.516952267200000E9    -2.302395686745270E-1   -1.829723470961899E-2    1.325582882761509E-2   -5.282066001723311E-3    1.335433940318480E-2   -4.817680456627450E-3    2.003421180770195E-1    5.101946913679547E-1
 6.516964599225000E9    -2.302464873552392E-1   -1.823197471612619E-2    1.332426055946725E-2   -5.398265596294236E-3    1.351625716421158E-2   -4.924498753816217E-3    2.011312844401319E-1    5.099362471480069E-1
 6.516976931250000E9    -2.301031079888782E-1   -1.785323293636135E-2    1.334586040022268E-2   -5.354635272039109E-3    1.341258889356408E-2   -4.987048738922318E-3    2.019753984681260E-1    5.094469445510799E-1
 6.516989263275000E9    -2.299309851543288E-1   -1.773032733379647E-2    1.329165495169072E-2   -5.464542395771028E-3    1.345076929891189E-2   -5.047344304488837E-3    2.029559947152188E-1    5.092162117225822E-1
 6.517001595300000E9    -2.297843408840232E-1   -1.746735602262512E-2    1.343170491556074E-2   -5.561845573520033E-3    1.352874351584331E-2   -5.085799870147365E-3    2.038184504404393E-1    5.088273940140098E-1
 6.517013927325000E9    -2.296567902592485E-1   -1.727089200372622E-2    1.344807575679655E-2   -5.692439909373738E-3    1.359473934320293E-2   -5.165761777585226E-3    2.047484072678708E-1    5.085264257176613E-1
 6.517026259350000E9    -2.295422798726236E-1   -1.718895531840373E-2    1.365352212637771E-2   -5.647124167241157E-3    1.369690061677420E-2   -5.091284103242585E-3    2.058541834399858E-1    5.082215926600507E-1
 6.517038591375000E9    -2.294334403429958E-1   -1.691245074282005E-2    1.361473571825956E-2   -5.766431808863553E-3    1.385623835827431E-2   -5.288080911680677E-3    2.064892210703692E-1    5.077646380436810E-1
 6.517050923400000E9    -2.294436656123064E-1   -1.667169694922139E-2    1.377061978699273E-2   -5.736607322184581E-3    1.381307086562923E-2   -5.319550455825332E-3    2.075372533967762E-1    5.074898067908400E-1
 6.517063255425000E9    -2.292039234375136E-1   -1.649465858466726E-2    1.376035930462666E-2   -5.803574230028789E-3    1.381612954496790E-2   -5.375406128931808E-3    2.084105210043544E-1    5.070446358569384E-1
 6.517075587450000E9    -2.292008824399252E-1   -1.635308873626850E-2    1.372201676748940E-2   -5.926746335359532E-3    1.386126505230521E-2   -5.450399728395672E-3    2.092707864444659E-1    5.066636311030578E-1
 6.517087919475000E9    -2.289606595441840E-1   -1.618923533582659E-2    1.394355222459187E-2   -6.043995621003491E-3    1.389484507991561E-2   -5.470269768451190E-3    2.101623199188353E-1    5.063076099163911E-1
 6.517100251500000E9    -2.289769394734696E-1   -1.602969510730559E-2    1.395237426543981E-2   -6.052753173050712E-3    1.399095651062257E-2   -5.519177288674962E-3    2.112212968512882E-1    5.058770534502997E-1
 6.517112583525000E9    -2.286728644224372E-1   -1.582368207152076E-2    1.402439142281900E-2   -6.121355937504468E-3    1.403819298969557E-2   -5.563686002373639E-3    2.120356063754972E-1    5.055535304350438E-1
 6.517124915550000E9    -2.284459478560308E-1   -1.568525472104036E-2    1.416748655718916E-2   -6.138471603469670E-3    1.416774075887833E-2   -5.715198275152844E-3    2.130199193640088E-1    5.052786953804080E-1
 6.517137247575000E9    -2.284511075609507E-1   -1.544431468120803E-2    1.425360043849250E-2   -6.212258060330073E-3    1.433633130131771E-2   -5.685098547235568E-3    2.139159743560638E-1    5.047483976033289E-1
 6.517149579600000E9    -2.283413365039652E-1   -1.530170914349394E-2    1.411604612672981E-2   -6.183528560841070E-3    1.430696668649349E-2   -5.731824750499852E-3    2.146120119068936E-1    5.044628399653740E-1
 6.517161911625000E9    -2.281116024150907E-1   -1.513840863665150E-2    1.430509687868001E-2   -6.346595218764468E-3    1.426272750914374E-2   -5.820819380624940E-3    2.157733291910167E-1    5.041747557545714E-1
 6.517174243650000E9    -2.280236185455115E-1   -1.490750168772058E-2    1.429793882092932E-2   -6.285643079673746E-3    1.446219647076263E-2   -5.898559081580278E-3    2.167051076696496E-1    5.037664770220626E-1
 6.517186575675000E9    -2.279236658254040E-1   -1.479404654250827E-2    1.424833301127972E-2   -6.392646014403577E-3    1.442950317162317E-2   -5.871562342944192E-3    2.175879732509165E-1    5.033489023430722E-1
 6.517198907700000E9    -2.277853846903477E-1   -1.460333290160022E-2    1.436196180629307E-2   -6.529249695547136E-3    1.461695667410011E-2   -6.011509623773948E-3    2.184253345876210E-1    5.030588734578151E-1
 6.517211239725000E9    -2.275553056431522E-1   -1.440875255065985E-2    1.436235025427882E-2   -6.571352220053821E-3    1.467744417937372E-2   -6.034234189599460E-3    2.192951137618042E-1    5.025357331433031E-1
 6.517223571750000E9    -2.275677257050780E-1   -1.410634494844372E-2    1.452632858437553E-2   -6.748797540527526E-3    1.466938404697115E-2   -6.143528580194778E-3    2.202720333567770E-1    5.021015046746339E-1
 6.517235903775000E9    -2.273428935422136E-1   -1.403081603964411E-2    1.466118881322486E-2   -6.661966789042241E-3    1.478698035686822E-2   -6.163913685667138E-3    2.211057205222964E-1    5.017657121595911E-1
 6.517248235800000E9    -2.272553953448846E-1   -1.385202101564532E-2    1.472716217655525E-2   -6.745874106011002E-3    1.475258724435201E-2   -6.254785661796740E-3    2.221102182435311E-1    5.014298868507333E-1
 6.517260567825000E9    -2.270903647934504E-1   -1.369768025475223E-2    1.471719330614566E-2   -6.849028084086742E-3    1.481866870348057E-2   -6.294687506012736E-3    2.229556399316130E-1    5.010647710010425E-1
 6.517272899850000E9    -2.269537142885345E-1   -1.350802132243988E-2    1.494463542502233E-2   -7.036113362928639E-3    1.489214875770203E-2   -6.367757089059128E-3    2.239405301183154E-1    5.005744415013246E-1
 6.517285231875000E9    -2.268095032020429E-1   -1.337188730340405E-2    1.477492800357776E-2   -6.964928535530343E-3    1.511477217105899E-2   -6.406975228537460E-3    2.248059737737464E-1    5.001443586830138E-1
 6.517297563900000E9    -2.266718392438708E-1   -1.313267411295169E-2    1.498413973494573E-2   -7.060814136380157E-3    1.505126440522203E-2   -6.499459744315588E-3    2.256702963878837E-1    4.997838867144296E-1
 6.517309895925000E9    -2.264033585470035E-1   -1.296121088328213E-2    1.498504817894132E-2   -6.968836172776371E-3    1.524532475542915E-2   -6.602187378049732E-3    2.268220789047973E-1    4.995278678781747E-1
 6.517322227950000E9    -2.264003711317055E-1   -1.290206872251468E-2    1.501492241093919E-2   -7.282864603529627E-3    1.525806506142432E-2   -6.740712624315680E-3    2.274305076056075E-1    4.990452669511539E-1
 6.517334559975000E9    -2.261844104422040E-1   -1.264544820566900E-2    1.518692817724587E-2   -7.205953328573104E-3    1.532002251362742E-2   -6.790378090704155E-3    2.285997210346201E-1    4.987160465838373E-1
 6.517346892000000E9    -2.259897803813880E-1   -1.244657795910282E-2    1.527882207440137E-2   -7.363833932362871E-3    1.538070711428763E-2   -6.726592420048716E-3    2.294828093043061E-1    4.981914223558102E-1
 6.517359224025000E9    -2.259862436615301E-1   -1.218223563351945E-2    1.532609976322933E-2   -7.387242034565025E-3    1.556141816048648E-2   -6.913280840331965E-3    2.302763081277943E-1    4.978897514947453E-1
 6.517371556050000E9    -2.256186934742558E-1   -1.220686539920670E-2    1.546715858012454E-2   -7.551860725999470E-3    1.564123956597620E-2   -6.879299941257750E-3    2.313002926107111E-1    4.972600033480294E-1
 6.517383888075000E9    -2.255181953503950E-1   -1.195460236379254E-2    1.551297353517739E-2   -7.628203294286702E-3    1.570084833735370E-2   -7.160434577893278E-3    2.321234363464125E-1    4.968119009678113E-1
 6.517396220100000E9    -2.254647134910789E-1   -1.186987544758865E-2    1.555113090066194E-2   -7.816594108452941E-3    1.578916395052003E-2   -7.189533657356664E-3    2.330700807772145E-1    4.965180832398662E-1
 6.517408552125000E9    -2.251595202865528E-1   -1.158531339616727E-2    1.577507783001541E-2   -7.796129495123756E-3    1.588381970637627E-2   -7.214319830209940E-3    2.340252787259358E-1    4.960128804873704E-1
 6.517420884150000E9    -2.250804330775939E-1   -1.159763933308934E-2    1.573773991878183E-2   -7.943424290218574E-3    1.596089264628708E-2   -7.325788147584783E-3    2.348666393664117E-1    4.955864078160637E-1
 6.517433216175000E9    -2.249363520256118E-1   -1.135340844579337E-2    1.587888231506127E-2   -7.892556576775159E-3    1.603064817445318E-2   -7.370896055758720E-3    2.357237919712494E-1    4.952357858683336E-1
 6.517445548200000E9    -2.247613382028359E-1   -1.120780532432490E-2    1.587015705029112E-2   -8.071445196141693E-3    1.612173790332836E-2   -7.464618660342696E-3    2.366318968605653E-1    4.948525367886965E-1
 6.517457880225000E9    -2.246130198615189E-1   -1.105489420918666E-2    1.578018175272151E-2   -8.089764599309324E-3    1.612688041360676E-2   -7.512914220032438E-3    2.377573536518760E-1    4.942427740385754E-1
 6.517470212250000E9    -2.243804119331971E-1   -1.091448293518287E-2    1.603740928509188E-2   -8.160379602931922E-3    1.640448839891252E-2   -7.695186904316594E-3    2.385364671912059E-1    4.938628351702989E-1
 6.517482544275000E9    -2.242397929753077E-1   -1.073797992720765E-2    1.599553697757722E-2   -8.348550144608507E-3    1.640186804239891E-2   -7.732351174558859E-3    2.393973050178432E-1    4.934854693303121E-1
 6.517494876300000E9    -2.241114381808041E-1   -1.059290183036842E-2    1.625569859934026E-2   -8.367678407839743E-3    1.644030297693906E-2   -7.903685179559536E-3    2.403136883055528E-1    4.930378316751526E-1
 6.517507208325000E9    -2.239084255450088E-1   -1.037479698124400E-2    1.624183769781001E-2   -8.555368603890137E-3    1.657731579013888E-2   -7.882240575219697E-3    2.413337118239939E-1    4.926249459974436E-1
 6.517519540350000E9    -2.238267586790292E-1   -1.027293747505936E-2    1.640367146307081E-2   -8.681363803208201E-3    1.667801099144046E-2   -8.006363891010403E-3    2.420431249430646E-1    4.921176606005155E-1
 6.517531872375000E9    -2.236475313893588E-1   -1.008405513919100E-2    1.657894827839951E-2   -8.671381963805538E-3    1.666892608845339E-2   -8.079727957012742E-3    2.430877997936474E-1    4.917214044015969E-1
 6.517544204400000E9    -2.234992162663114E-1   -1.003128152240863E-2    1.657734031886282E-2   -8.807931720177921E-3    1.683576589668070E-2   -8.304144029354551E-3    2.440623164504602E-1    4.913448161867963E-1
 6.517556536425000E9    -2.232100405014552E-1   -9.900335172842273E-3    1.661238230155778E-2   -8.888163688042048E-3    1.692784348648008E-2   -8.301775441355842E-3    2.450133287054544E-1    4.907642861163348E-1
 6.517568868450000E9    -2.231263766191165E-1   -9.796801201879366E-3    1.674445521329067E-2   -8.975672324548156E-3    1.706658073647519E-2   -8.472685730325308E-3    2.460256225628088E-1    4.905092792860356E-1
 6.517581200475000E9    -2.229070492281565E-1   -9.565729326482359E-3    1.698046321387377E-2   -9.133412018336595E-3    1.702130773745742E-2   -8.495529106284603E-3    2.467283565698329E-1    4.898994484229073E-1
 6.517593532500000E9    -2.227205291122508E-1   -9.382466250977625E-3    1.694589133010771E-2   -9.202285826795916E-3    1.713466449444814E-2   -8.564408406071096E-3    2.475816225952922E-1    4.894471055734230E-1
 6.517605864525000E9    -2.225513977480259E-1   -9.252685147530236E-3    1.708779460658685E-2   -9.160455483087155E-3    1.724273763855386E-2   -8.645212554066705E-3    2.486828434124906E-1    4.888606203988204E-1
 6.517618196550000E9    -2.223254065289419E-1   -9.227048203382058E-3    1.702848456182712E-2   -9.286107368331822E-3    1.733418381486930E-2   -8.733060736104621E-3    2.494248683520326E-1    4.885085090995325E-1
 6.517630528575000E9    -2.223100010779991E-1   -9.010007280984708E-3    1.729519023237460E-2   -9.485909018327982E-3    1.744410486805497E-2   -8.843361400800529E-3    2.504896951431444E-1    4.881095384183639E-1
 6.517642860600000E9    -2.218823665921068E-1   -8.958285080553331E-3    1.735615473547531E-2   -9.525579381676051E-3    1.757534384291140E-2   -8.944764374111833E-3    2.513158521508360E-1    4.874612052309282E-1
 6.517655192625000E9    -2.218474905692796E-1   -8.797040664332175E-3    1.740661328143981E-2   -9.773991965366803E-3    1.762369316556209E-2   -9.091433067202283E-3    2.523199505760481E-1    4.870253769387985E-1
 6.517667524650000E9    -2.216750516857965E-1   -8.638462251183648E-3    1.747499009383162E-2   -9.856634176350623E-3    1.786030975812705E-2   -9.215457604189776E-3    2.531031484299753E-1    4.864489160254032E-1
 6.517679856675000E9    -2.214453681107832E-1   -8.531476103078481E-3    1.777466286532918E-2   -9.917747704948857E-3    1.781248426566868E-2   -9.345839533633151E-3    2.540348028716698E-1    4.859114979271674E-1
 6.517692188700000E9    -2.210198108775023E-1   -8.380798853962389E-3    1.771264157258819E-2   -1.003009415514568E-2    1.792642551917079E-2   -9.564202820848279E-3    2.548752071687586E-1    4.854994689844194E-1
 6.517704520725000E9    -2.210867834309221E-1   -8.320489402577590E-3    1.767852154703822E-2   -1.016072548605282E-2    1.810807972740438E-2   -9.633512159292762E-3    2.559168734608693E-1    4.850448056000606E-1
 6.517716852750000E9    -2.208341814426315E-1   -8.125853990166160E-3    1.798994809073866E-2   -1.030003874080549E-2    1.829799731255014E-2   -9.831468088273612E-3    2.567731456274032E-1    4.844657175618468E-1
 6.517729184775000E9    -2.205683135805003E-1   -8.039284058283381E-3    1.804605866172517E-2   -1.047207817467931E-2    1.831696134486212E-2   -9.798592347722386E-3    2.578450364296588E-1    4.839803366569161E-1
 6.517741516800000E9    -2.203307858827816E-1   -7.927445546476753E-3    1.825343501005361E-2   -1.052209424835947E-2    1.836612711598764E-2   -9.977840280802279E-3    2.586743056360216E-1    4.834964964486942E-1
 6.517753848825000E9    -2.202658034797038E-1   -7.784221099469409E-3    1.820499310742098E-2   -1.066586612499002E-2    1.852417598400387E-2   -1.008461412319269E-2    2.596201916566324E-1    4.831522249507934E-1
 6.517766180850000E9    -2.199225807858750E-1   -7.652910688809900E-3    1.834420300187927E-2   -1.088609327922405E-2    1.861877270479166E-2   -1.022167373665475E-2    2.605065716198984E-1    4.826905690491800E-1
 6.517778512875000E9    -2.198651593307398E-1   -7.583181473829038E-3    1.848268538004686E-2   -1.081465084102986E-2    1.879007026512509E-2   -1.037675715901726E-2    2.616038700947229E-1    4.820676045351520E-1
 6.517790844900000E9    -2.195494028430000E-1   -7.465643276465268E-3    1.841946562677469E-2   -1.111474997715075E-2    1.900693867872318E-2   -1.035596301102395E-2    2.623756662648811E-1    4.815804909624947E-1
 6.517803176925000E9    -2.194330238539746E-1   -7.409343581385187E-3    1.877178547239272E-2   -1.118480602323479E-2    1.898929253908321E-2   -1.053343375393180E-2    2.633576541050656E-1    4.810124669503517E-1
 6.517815508950000E9    -2.191554252081874E-1   -7.280806772762977E-3    1.882999768963766E-2   -1.151656934234294E-2    1.908225481032435E-2   -1.087733802449298E-2    2.640699909281214E-1    4.805050041859176E-1
 6.517827840975000E9    -2.190517192552776E-1   -7.115975226474096E-3    1.890926790015238E-2   -1.149877013173491E-2    1.927761927986572E-2   -1.083834665102851E-2    2.651984404381340E-1    4.800680709825146E-1
 6.517840173000000E9    -2.187422732835357E-1   -7.087894879177259E-3    1.902539763121928E-2   -1.167075644955538E-2    1.940044071001453E-2   -1.103917994990866E-2    2.660512320285170E-1    4.794982045168589E-1
 6.517852505025000E9    -2.185001643108874E-1   -7.020283362486182E-3    1.911005766574062E-2   -1.176462684649700E-2    1.949107769874177E-2   -1.115534774152538E-2    2.670105016181189E-1    4.789609285733054E-1
 6.517864837050000E9    -2.182749878081243E-1   -6.989399073060352E-3    1.938738820382020E-2   -1.190308709741387E-2    1.956666200349534E-2   -1.129868595913130E-2    2.678543791971879E-1    4.782782818034633E-1
 6.517877169075000E9    -2.180191866986762E-1   -6.890132247332236E-3    1.917635371210557E-2   -1.210029222128521E-2    1.972909192629937E-2   -1.154431196839213E-2    2.688412935281059E-1    4.778508273665956E-1
 6.517889501100000E9    -2.178595480354081E-1   -6.709450102555893E-3    1.965729468105653E-2   -1.217984528652948E-2    1.990310961157681E-2   -1.151321576407047E-2    2.697533777406667E-1    4.772748193881313E-1
 6.517901833125000E9    -2.176608295884619E-1   -6.633398014480082E-3    1.962267278984833E-2   -1.235779966163673E-2    1.994606178505532E-2   -1.178429489268012E-2    2.706811771564089E-1    4.767090273430765E-1
 6.517914165150000E9    -2.173944752235931E-1   -6.553532825718192E-3    1.965648015720354E-2   -1.243227830200506E-2    2.019431846947544E-2   -1.195506876458047E-2    2.716389176307988E-1    4.761613453699853E-1
 6.517926497175000E9    -2.172236035536351E-1   -6.555064614610659E-3    1.983078971669094E-2   -1.274241581737384E-2    2.021177161925808E-2   -1.201572304636840E-2    2.723312746723417E-1    4.756570594953630E-1
 6.517938829200000E9    -2.169660491539747E-1   -6.478991589588355E-3    2.005744730387681E-2   -1.283648592004532E-2    2.034147728326757E-2   -1.229702049453978E-2    2.732436956199650E-1    4.750644570792641E-1
 6.517951161225000E9    -2.166847232469806E-1   -6.365535518036773E-3    2.010111186145702E-2   -1.316782303855525E-2    2.063115607075165E-2   -1.246190592078508E-2    2.743662095200959E-1    4.745422477470957E-1
 6.517963493250000E9    -2.165065505243141E-1   -6.421649994387718E-3    2.019771465292412E-2   -1.329130602365102E-2    2.070188152567658E-2   -1.259127759409291E-2    2.753583233497936E-1    4.739478136051442E-1
