#  HZ   S   RI   R     50.00 
! Rohde & Schwarz Vector Network Analyzer 
! Rohde-Schwarz,ZNB20-2Port,1311601062101988,3.16
! Created: UTC 12/23/2023, 3:55:45 AM
! freq[Hz]                re:S11                  im:S11                  re:S21                  im:S21                  re:S12                  im:S12                  re:S22                  im:S22
 6.516966853000000E9    -2.304898166335163E-1   -1.772696431108562E-2    1.305618766131331E-2   -5.070591440591263E-3    1.311183241896711E-2   -4.764446186160173E-3    2.008244456465403E-1    5.101258779429010E-1
 6.516978868225000E9    -2.302455032415248E-1   -1.759634842318070E-2    1.311857996343571E-2   -5.140287892830475E-3    1.312412982758107E-2   -4.803008968898053E-3    2.017459023472319E-1    5.097921669377319E-1
 6.516990883450000E9    -2.302256601378447E-1   -1.738562975909900E-2    1.306623108171680E-2   -5.320387576052349E-3    1.326657858354402E-2   -4.806077924776523E-3    2.026362366933910E-1    5.093891750523851E-1
 6.517002898675000E9    -2.301351762639976E-1   -1.724091719920853E-2    1.315424539505492E-2   -5.412062396201647E-3    1.327680663566827E-2   -4.930817342415237E-3    2.034760920979921E-1    5.092316496682630E-1
 6.517014913900000E9    -2.299844791329580E-1   -1.702184467161482E-2    1.320833136809249E-2   -5.449494942143287E-3    1.330581502502452E-2   -4.941025925628816E-3    2.044781606044883E-1    5.088048549618073E-1
 6.517026929125000E9    -2.297679806834947E-1   -1.682520024645076E-2    1.337951944860180E-2   -5.511620413729020E-3    1.344322713453851E-2   -4.976343602675105E-3    2.052860312764140E-1    5.083689529626748E-1
 6.517038944350000E9    -2.296539723645724E-1   -1.662493732620016E-2    1.337107196812604E-2   -5.511648738615255E-3    1.342064226080184E-2   -5.118145080351292E-3    2.061440929569562E-1    5.081698826314249E-1
 6.517050959575000E9    -2.295863233199025E-1   -1.647901292600084E-2    1.330758237659353E-2   -5.587860930309506E-3    1.360566094294060E-2   -5.211607866781412E-3    2.071173190488050E-1    5.077864814327584E-1
 6.517062974800000E9    -2.295478496392231E-1   -1.635059610744613E-2    1.350164206305590E-2   -5.641864515792767E-3    1.361125748516588E-2   -5.174499120410637E-3    2.079222382992507E-1    5.074026096612836E-1
 6.517074990025000E9    -2.293511431368381E-1   -1.612994643924066E-2    1.357152362342635E-2   -5.733674743979045E-3    1.361681121367720E-2   -5.245967419248093E-3    2.088507012988475E-1    5.070616349333258E-1
 6.517087005250000E9    -2.292867242562587E-1   -1.593199054821138E-2    1.369530403572742E-2   -5.661625852956625E-3    1.368543060346997E-2   -5.331421876717934E-3    2.096533855856237E-1    5.066424921862607E-1
 6.517099020475000E9    -2.290459014254247E-1   -1.570212760255782E-2    1.366633125521539E-2   -5.692572030892963E-3    1.377031987232065E-2   -5.311480898047687E-3    2.105434485546520E-1    5.062351326452613E-1
 6.517111035700000E9    -2.290754970948708E-1   -1.550525872023517E-2    1.364384703677682E-2   -5.825149139132729E-3    1.388640752575653E-2   -5.315677166948962E-3    2.114647349926466E-1    5.058939540538132E-1
 6.517123050925000E9    -2.288308054933251E-1   -1.543229967269877E-2    1.372533527800575E-2   -5.756017165301649E-3    1.390726043240759E-2   -5.412992459340286E-3    2.123422229196225E-1    5.056672538106970E-1
 6.517135066150000E9    -2.287075336582179E-1   -1.517854904989890E-2    1.379722823052312E-2   -5.950679126214690E-3    1.400324503946155E-2   -5.535700487449384E-3    2.132555974750334E-1    5.053530704311919E-1
 6.517147081375000E9    -2.285752167102918E-1   -1.494590200118750E-2    1.388895683763381E-2   -5.896529943265985E-3    1.407262270572585E-2   -5.477761677155826E-3    2.140374979450061E-1    5.048799717482794E-1
 6.517159096600000E9    -2.285809327974334E-1   -1.480850777045019E-2    1.393017772976886E-2   -6.063716405942525E-3    1.403198145228594E-2   -5.645963377111218E-3    2.150842283429558E-1    5.045724454882085E-1
 6.517171111825000E9    -2.283504347939794E-1   -1.463854030235557E-2    1.403143587816923E-2   -6.167522337662399E-3    1.405488801126506E-2   -5.685595523982037E-3    2.159010944323038E-1    5.041424345293134E-1
 6.517183127050000E9    -2.282487840348277E-1   -1.438939854276706E-2    1.420548642431951E-2   -6.242991560768974E-3    1.419220109524587E-2   -5.734982821269947E-3    2.168042593609085E-1    5.037919153988349E-1
 6.517195142275000E9    -2.281519389282491E-1   -1.429251879581127E-2    1.417176817901279E-2   -6.262002638263666E-3    1.412513168200603E-2   -5.746187366434181E-3    2.176608756197829E-1    5.033512957013843E-1
 6.517207157500000E9    -2.279820620509737E-1   -1.413836540679139E-2    1.407084543270654E-2   -6.293040838793809E-3    1.432238102169290E-2   -5.849355109048685E-3    2.186296972295013E-1    5.029911805169198E-1
 6.517219172725000E9    -2.278331589228610E-1   -1.394836048607241E-2    1.428766630621593E-2   -6.441844841220941E-3    1.439803770308412E-2   -5.802273909553519E-3    2.194333120688986E-1    5.026631715589964E-1
 6.517231187950000E9    -2.276101553121521E-1   -1.375056032373671E-2    1.430712818872260E-2   -6.351011854087062E-3    1.445888185189178E-2   -5.957245377841390E-3    2.203013954683753E-1    5.023855890702784E-1
 6.517243203175000E9    -2.275737840510049E-1   -1.362738099044767E-2    1.430536385745357E-2   -6.422592122441987E-3    1.460971079403598E-2   -6.021103170808063E-3    2.213966716872157E-1    5.018970332456564E-1
 6.517255218400000E9    -2.274230182387912E-1   -1.344419844630499E-2    1.450210228501685E-2   -6.649290919406823E-3    1.469707588675829E-2   -6.089532001004085E-3    2.221730624608195E-1    5.015698885408582E-1
 6.517267233625000E9    -2.272550019051146E-1   -1.324771718162785E-2    1.453003212478029E-2   -6.538124797435370E-3    1.464143810851293E-2   -6.041016595704130E-3    2.230571103114162E-1    5.012352155375638E-1
 6.517279248850000E9    -2.271769341183556E-1   -1.307606162765469E-2    1.453007241370212E-2   -6.882828513230924E-3    1.475914644252268E-2   -6.304100902663792E-3    2.239035430328505E-1    5.008114447492222E-1
 6.517291264075000E9    -2.269357823996050E-1   -1.283813616587271E-2    1.466790324526671E-2   -6.769357266035859E-3    1.475710261997071E-2   -6.285799417189271E-3    2.248726057080130E-1    5.003976325862410E-1
 6.517303279300000E9    -2.268575109563488E-1   -1.270591203476197E-2    1.464344463923945E-2   -6.815225034199287E-3    1.493269676274385E-2   -6.394271505688043E-3    2.256902023948054E-1    5.001166802767166E-1
 6.517315294525000E9    -2.267933506863062E-1   -1.253998927161818E-2    1.470498913273849E-2   -7.051899478584901E-3    1.492728996613334E-2   -6.440106503935132E-3    2.266008237057328E-1    4.996129003398640E-1
 6.517327309750000E9    -2.266177033185685E-1   -1.240447335577098E-2    1.496273395173304E-2   -6.974527518379087E-3    1.501416372259940E-2   -6.429698771804991E-3    2.274382482733397E-1    4.993498108095829E-1
 6.517339324975000E9    -2.264072172259828E-1   -1.213250521042803E-2    1.493588567765547E-2   -7.016339249554075E-3    1.518118895702696E-2   -6.632511187404518E-3    2.284601076535197E-1    4.989440366596279E-1
 6.517351340200000E9    -2.262240702338647E-1   -1.211531072067872E-2    1.506309664629140E-2   -7.160823824867706E-3    1.512575553022321E-2   -6.574176644094703E-3    2.293138142743057E-1    4.983972792859919E-1
 6.517363355425000E9    -2.261158936950207E-1   -1.194612410056427E-2    1.489436488008512E-2   -7.188661549944984E-3    1.518899211448976E-2   -6.657306725845102E-3    2.301487740781865E-1    4.979512214270954E-1
 6.517375370650000E9    -2.260331450689738E-1   -1.178530387009395E-2    1.511868064048500E-2   -7.277087083281625E-3    1.531139230866684E-2   -6.812849770629715E-3    2.310470630649608E-1    4.976957112122027E-1
 6.517387385875000E9    -2.258873289309461E-1   -1.151474663073542E-2    1.509562709112733E-2   -7.492032293153908E-3    1.529178872914188E-2   -6.728810800424187E-3    2.318687460192403E-1    4.972131978477995E-1
 6.517399401100000E9    -2.257288986786447E-1   -1.133029328697546E-2    1.528649825157241E-2   -7.295849328020083E-3    1.545275124553412E-2   -6.851696340464916E-3    2.327413473380964E-1    4.968838223737688E-1
 6.517411416325000E9    -2.255030118548917E-1   -1.114888730630728E-2    1.538092482201569E-2   -7.501094398995528E-3    1.551004653193278E-2   -6.975897556936758E-3    2.337062237335968E-1    4.963240563250233E-1
 6.517423431550000E9    -2.254113361956041E-1   -1.105460353538207E-2    1.534559605411735E-2   -7.658122215342487E-3    1.559729528071068E-2   -7.036338951212877E-3    2.345533348630079E-1    4.959688856529590E-1
 6.517435446775000E9    -2.252294505619608E-1   -1.095083692263465E-2    1.559120320102253E-2   -7.705236414625439E-3    1.566354709604877E-2   -7.086960711721609E-3    2.354410177612492E-1    4.954658994585943E-1
 6.517447462000000E9    -2.250353970195768E-1   -1.081069090101045E-2    1.546818753158925E-2   -7.805748776302850E-3    1.571510547970336E-2   -7.264996814823921E-3    2.363439907056255E-1    4.951929709280102E-1
 6.517459477225000E9    -2.249076109232507E-1   -1.060116320837481E-2    1.561681896783642E-2   -7.853414633972794E-3    1.593921958580608E-2   -7.431218199643302E-3    2.372889496730536E-1    4.947798943379064E-1
 6.517471492450000E9    -2.248765938851025E-1   -1.056483874784067E-2    1.576568598174151E-2   -7.779071314394211E-3    1.591472076727164E-2   -7.449119054114418E-3    2.381749592329507E-1    4.942979318661327E-1
 6.517483507675000E9    -2.245956937199684E-1   -1.038983680261903E-2    1.577264043170348E-2   -7.973851488718159E-3    1.598564433325167E-2   -7.469965398980890E-3    2.390276363340636E-1    4.939656044892468E-1
 6.517495522900000E9    -2.244447706045404E-1   -1.006634932968619E-2    1.585225084946845E-2   -8.222907296147686E-3    1.602509627957534E-2   -7.545641539654154E-3    2.399457607996437E-1    4.934647284185400E-1
 6.517507538125000E9    -2.242396011888735E-1   -1.000808059156643E-2    1.599005468850927E-2   -8.092116104961503E-3    1.614289918249726E-2   -7.603405339359985E-3    2.408611012600115E-1    4.931624241242509E-1
 6.517519553350000E9    -2.241365742232758E-1   -9.763652879779278E-3    1.594478964757241E-2   -8.236434333442419E-3    1.631067047525417E-2   -7.693923688024911E-3    2.417946457100670E-1    4.926160003020620E-1
 6.517531568575000E9    -2.240596929142630E-1   -9.780026047978584E-3    1.608868018744142E-2   -8.293695371651593E-3    1.632609104692686E-2   -7.735513023621477E-3    2.428086866179640E-1    4.922298453894287E-1
 6.517543583800000E9    -2.238781044387668E-1   -9.601992493634181E-3    1.624323495333697E-2   -8.448916640187244E-3    1.644560807866773E-2   -7.812749285410932E-3    2.434186734217597E-1    4.917558781780225E-1
 6.517555599025000E9    -2.236803899674289E-1   -9.439427952954649E-3    1.635928647334355E-2   -8.567348611626285E-3    1.645118666240555E-2   -7.883325147845384E-3    2.442241854023676E-1    4.913032768020377E-1
 6.517567614250000E9    -2.234421988486337E-1   -9.261089582466226E-3    1.627960951674442E-2   -8.557346860486800E-3    1.660002495112333E-2   -8.068903334772793E-3    2.451522558696479E-1    4.909806608735610E-1
 6.517579629475000E9    -2.233507588880328E-1   -9.121401740858270E-3    1.638378346896469E-2   -8.678275387608115E-3    1.675512184557455E-2   -8.122238646722532E-3    2.460270396504516E-1    4.903689767547115E-1
 6.517591644700000E9    -2.231789693763609E-1   -9.023072719324515E-3    1.646817986422140E-2   -8.724389571169678E-3    1.671850026153807E-2   -8.282439921821936E-3    2.469603916061389E-1    4.900977053310911E-1
 6.517603659925000E9    -2.229543661080104E-1   -8.860658323224456E-3    1.665639072681600E-2   -8.792049776353858E-3    1.690958989907327E-2   -8.268462053018132E-3    2.478086570046977E-1    4.895995618137770E-1
 6.517615675150000E9    -2.227676248106612E-1   -8.737477697724904E-3    1.664814644126416E-2   -9.023614743334815E-3    1.693193940974495E-2   -8.450286766394560E-3    2.487172784974593E-1    4.890229102654042E-1
 6.517627690375000E9    -2.226442603317799E-1   -8.577691314813179E-3    1.678936982436479E-2   -9.006794552632398E-3    1.708744390373256E-2   -8.497445696313600E-3    2.496727879686775E-1    4.886640693875299E-1
 6.517639705600000E9    -2.224056641276572E-1   -8.370757504046873E-3    1.680526839365939E-2   -9.183811845706366E-3    1.720391734768998E-2   -8.615178364537703E-3    2.506138020755034E-1    4.881913214188618E-1
 6.517651720825000E9    -2.222518686701911E-1   -8.255342122953781E-3    1.692537498661608E-2   -9.362947586203443E-3    1.720299718479436E-2   -8.694614541286812E-3    2.515129563117146E-1    4.876850075596011E-1
 6.517663736050000E9    -2.220803910689254E-1   -8.188387416094869E-3    1.701113380778966E-2   -9.377025317265293E-3    1.736328413833596E-2   -8.817888843954813E-3    2.523069026939458E-1    4.872124372085859E-1
 6.517675751275000E9    -2.219584786708957E-1   -8.044367225363823E-3    1.721972878027413E-2   -9.389303654879434E-3    1.749787903252001E-2   -8.843143377307537E-3    2.530114879489614E-1    4.867223602313404E-1
 6.517687766500000E9    -2.218406379127595E-1   -7.981837888982409E-3    1.717564475943402E-2   -9.623865357157502E-3    1.749243215362110E-2   -9.090449476377943E-3    2.541537847010220E-1    4.863817212011008E-1
 6.517699781725000E9    -2.216356192889428E-1   -7.777836146778980E-3    1.741166464692906E-2   -9.820628032320141E-3    1.752720870319904E-2   -9.147174662016798E-3    2.550631345535452E-1    4.859668303477697E-1
 6.517711796950000E9    -2.212902440870958E-1   -7.719992869478158E-3    1.752106029150934E-2   -9.841002352170811E-3    1.760867441631164E-2   -9.252610145468021E-3    2.557139961955056E-1    4.853692631118612E-1
 6.517723812175000E9    -2.211620975254262E-1   -7.547822699439793E-3    1.757209705569878E-2   -9.964965918838191E-3    1.782145025399585E-2   -9.267954814849776E-3    2.566757398770197E-1    4.848909688203059E-1
 6.517735827400000E9    -2.211136107751500E-1   -7.451873375738251E-3    1.758150551295755E-2   -1.003244346315376E-2    1.795598913488868E-2   -9.530006944756244E-3    2.575362091464706E-1    4.843245023072498E-1
 6.517747842625000E9    -2.208013008557615E-1   -7.346785168631515E-3    1.765912398739562E-2   -1.020795870418325E-2    1.806554491558248E-2   -9.543823191333596E-3    2.586586276976427E-1    4.838847410749398E-1
 6.517759857850000E9    -2.206573429163392E-1   -7.167901111072648E-3    1.782293434422634E-2   -1.025863287470012E-2    1.820800662879532E-2   -9.686056342318103E-3    2.594142884518939E-1    4.834294883525093E-1
 6.517771873075000E9    -2.204973526434083E-1   -7.079568089740788E-3    1.794109717715692E-2   -1.040260874480907E-2    1.827597718707007E-2   -9.759686543174946E-3    2.603956932298118E-1    4.830969848266503E-1
 6.517783888300000E9    -2.202441051736698E-1   -6.923345434169095E-3    1.816716475052929E-2   -1.044111621010690E-2    1.827612594815299E-2   -9.853647214950979E-3    2.612446388922161E-1    4.822833701704027E-1
 6.517795903525000E9    -2.199659871956478E-1   -6.918539389250726E-3    1.814444929613498E-2   -1.056773791966612E-2    1.839725200891678E-2   -1.012238661423843E-2    2.620519934153469E-1    4.819816741348797E-1
 6.517807918750000E9    -2.197668209457961E-1   -6.741400040089764E-3    1.836716530073332E-2   -1.081607139159509E-2    1.851939466455322E-2   -1.013149938137096E-2    2.630815859220836E-1    4.814062688116397E-1
 6.517819933975000E9    -2.196593740551976E-1   -6.736837057702515E-3    1.846858072655876E-2   -1.092842556472191E-2    1.872823856781483E-2   -1.035281296203143E-2    2.638509828760068E-1    4.809566292065269E-1
 6.517831949200000E9    -2.194542317585985E-1   -6.572885008855147E-3    1.849881274464256E-2   -1.101117534890578E-2    1.874606301916218E-2   -1.040912587351866E-2    2.647310586558042E-1    4.804620660974929E-1
 6.517843964425000E9    -2.191303780509204E-1   -6.475335526736186E-3    1.859708292391722E-2   -1.105466312767799E-2    1.893276049804488E-2   -1.049284012917434E-2    2.657477388804197E-1    4.798266431387889E-1
 6.517855979650000E9    -2.189332072081071E-1   -6.419816417586446E-3    1.869220710023846E-2   -1.137864511890698E-2    1.895169078365818E-2   -1.071292097366931E-2    2.666334784816550E-1    4.794539198260956E-1
 6.517867994875000E9    -2.188022826677902E-1   -6.293276646738222E-3    1.881747451179381E-2   -1.142393708560349E-2    1.916239782963840E-2   -1.085575426025771E-2    2.674803180377208E-1    4.789212058703607E-1
 6.517880010100000E9    -2.186327956187263E-1   -6.277271397375748E-3    1.889223107092917E-2   -1.160519405537417E-2    1.923893279794961E-2   -1.095921812307117E-2    2.683545416064254E-1    4.783358227059636E-1
 6.517892025325000E9    -2.184026132856336E-1   -6.019052276459425E-3    1.894913129685614E-2   -1.178083288506651E-2    1.946709749781428E-2   -1.105636825891444E-2    2.693406900841685E-1    4.777938271179247E-1
 6.517904040550000E9    -2.181503782857001E-1   -5.965582123719450E-3    1.911735092718288E-2   -1.191384610844465E-2    1.953702437571832E-2   -1.116647077306737E-2    2.701760124824225E-1    4.773656247616748E-1
 6.517916055775000E9    -2.179927531559610E-1   -5.916020431486349E-3    1.933612590804910E-2   -1.197783420408726E-2    1.970373100907071E-2   -1.130944408735639E-2    2.709858917954193E-1    4.767615777830007E-1
 6.517928071000000E9    -2.177555177400517E-1   -5.816925232932436E-3    1.943126154922359E-2   -1.209597238593670E-2    1.966961824007879E-2   -1.151252650700305E-2    2.719831456320804E-1    4.764341613516575E-1
 6.517940086225000E9    -2.174889011461225E-1   -5.697386317634851E-3    1.957923278327723E-2   -1.227094642309638E-2    1.985001307344554E-2   -1.164330005123391E-2    2.727957681264322E-1    4.758611659309632E-1
 6.517952101450000E9    -2.172230648642107E-1   -5.625490402970844E-3    1.967050119477607E-2   -1.243264388768145E-2    1.996515461793719E-2   -1.178803528909124E-2    2.737177352128934E-1    4.753187790281565E-1
 6.517964116675000E9    -2.170500373345551E-1   -5.530461018781581E-3    1.971560199668427E-2   -1.258607219692401E-2    2.009722538717682E-2   -1.198426701752615E-2    2.746220219212619E-1    4.745919272635133E-1
 6.517976131900000E9    -2.167916333491825E-1   -5.491416044399652E-3    1.982210696081525E-2   -1.288937388246402E-2    2.025974026010157E-2   -1.209829820710640E-2    2.757431353703197E-1    4.740159372252026E-1
 6.517988147125000E9    -2.166262256232608E-1   -5.442680617881341E-3    1.984552818064533E-2   -1.291675763691182E-2    2.040457496110892E-2   -1.229998290356841E-2    2.763386269103098E-1    4.736995328616822E-1
 6.518000162350000E9    -2.163771124203790E-1   -5.501288156668294E-3    2.018050087810766E-2   -1.304354226051866E-2    2.050127643253738E-2   -1.246818880894629E-2    2.772937568706459E-1    4.730726643829014E-1
 6.518012177575000E9    -2.159766338483556E-1   -5.311194855441918E-3    2.034132549227066E-2   -1.325614078145311E-2    2.081018561945031E-2   -1.259713875602281E-2    2.783182498952498E-1    4.724907592743717E-1
 6.518024192800000E9    -2.158942872320335E-1   -5.227108488900697E-3    2.049479805866758E-2   -1.350205945270873E-2    2.087259206672968E-2   -1.274200994797195E-2    2.790726993060739E-1    4.719092128507777E-1
 6.518036208025000E9    -2.156519757197329E-1   -5.224053246828512E-3    2.058581412912875E-2   -1.356306697693279E-2    2.087380818848579E-2   -1.299147162471698E-2    2.801159661834955E-1    4.713353860020094E-1
 6.518048223250000E9    -2.154044335741891E-1   -5.190233901069568E-3    2.063265979207040E-2   -1.380010673227550E-2    2.110441108453135E-2   -1.309620868655170E-2    2.809409507168930E-1    4.708384646960604E-1
