#  HZ   S   RI   R     50.00 
! Rohde & Schwarz Vector Network Analyzer 
! Rohde-Schwarz,ZNB20-2Port,1311601062101988,3.16
! Created: UTC 12/23/2023, 3:57:59 AM
! freq[Hz]                re:S11                  im:S11                  re:S21                  im:S21                  re:S12                  im:S12                  re:S22                  im:S22
 6.517032732000000E9    -2.300350143444046E-1   -1.636367062808232E-2    1.311490797982896E-2   -5.270009757354887E-3    1.329729345109777E-2   -5.062358538719079E-3    2.054685276691398E-1    5.082775662720012E-1
 6.517044551450000E9    -2.299617423196429E-1   -1.621756154206173E-2    1.327380542336193E-2   -5.413510778604471E-3    1.335902189068382E-2   -4.849414336749770E-3    2.063712933810494E-1    5.079978080764703E-1
 6.517056370900000E9    -2.298331615551005E-1   -1.608873610760283E-2    1.330959349331620E-2   -5.471064516740203E-3    1.337897115761787E-2   -5.076389016248214E-3    2.071497572461608E-1    5.077209202265963E-1
 6.517068190350000E9    -2.296437969277927E-1   -1.593225279078181E-2    1.340609684959521E-2   -5.648404265072931E-3    1.352129386232600E-2   -5.091174760293924E-3    2.079784935574951E-1    5.074998410421351E-1
 6.517080009800000E9    -2.295497319203957E-1   -1.581883932993864E-2    1.334599846035392E-2   -5.474423063792271E-3    1.351777139815242E-2   -5.170862849118476E-3    2.089721079367888E-1    5.070535041443266E-1
 6.517091829250000E9    -2.293550383968476E-1   -1.555354050356945E-2    1.346910473164212E-2   -5.717580742551268E-3    1.360258272287152E-2   -5.182689839431143E-3    2.099005626935017E-1    5.067318851058167E-1
 6.517103648700000E9    -2.292646617423471E-1   -1.535250595470249E-2    1.357667126772646E-2   -5.574110511524330E-3    1.362187062788776E-2   -5.242632471250720E-3    2.107675975665770E-1    5.063760813102306E-1
 6.517115468150000E9    -2.292088827704364E-1   -1.508435542772849E-2    1.359538912783997E-2   -5.675886157773082E-3    1.371639858884056E-2   -5.283071611100883E-3    2.115042407534902E-1    5.060689042489011E-1
 6.517127287600000E9    -2.290099686893936E-1   -1.488180944799781E-2    1.365228102498816E-2   -5.749327088942742E-3    1.383781440593495E-2   -5.272876511452523E-3    2.123777460723581E-1    5.056579960456977E-1
 6.517139107050000E9    -2.289552094257863E-1   -1.487809392024293E-2    1.375894015164690E-2   -5.946679127918423E-3    1.384947422281942E-2   -5.299650553445624E-3    2.134024221178070E-1    5.052289399464709E-1
 6.517150926500000E9    -2.287904231478235E-1   -1.470577158794127E-2    1.374957611816530E-2   -6.001740853537878E-3    1.384854345832757E-2   -5.372732457120521E-3    2.141243029135983E-1    5.048233739077298E-1
 6.517162745950000E9    -2.287386655032420E-1   -1.438336946505646E-2    1.376790197498702E-2   -5.944647498302424E-3    1.396477187415794E-2   -5.462928420471541E-3    2.151413829164190E-1    5.044932994085982E-1
 6.517174565400000E9    -2.285585211552922E-1   -1.428344067321268E-2    1.390090254547171E-2   -5.977420009114344E-3    1.403853567480481E-2   -5.577174371949650E-3    2.158411464661167E-1    5.043570107385676E-1
 6.517186384850000E9    -2.285083317244790E-1   -1.412953475085831E-2    1.381054989828946E-2   -6.095283995894159E-3    1.402988059171808E-2   -5.688780800653244E-3    2.166501494169260E-1    5.039035763808082E-1
 6.517198204300000E9    -2.283280019890098E-1   -1.393002792645268E-2    1.406584382427275E-2   -6.099356351158161E-3    1.408316623240501E-2   -5.648493607591471E-3    2.176381670520289E-1    5.033775711801278E-1
 6.517210023750000E9    -2.281738657875729E-1   -1.375829366326927E-2    1.407128270754491E-2   -6.230052096768343E-3    1.417118299658020E-2   -5.768187593815810E-3    2.185881407653508E-1    5.031240176176675E-1
 6.517221843200000E9    -2.281789586206490E-1   -1.353533504000138E-2    1.398132066791549E-2   -6.311014999904250E-3    1.424664339998331E-2   -5.867016711605995E-3    2.194644773543073E-1    5.028561548794462E-1
 6.517233662650000E9    -2.278752809769160E-1   -1.335825155734205E-2    1.414065077987649E-2   -6.346877955183365E-3    1.426092711727770E-2   -5.881254018238294E-3    2.202676305064129E-1    5.024470132703054E-1
 6.517245482100000E9    -2.277661975815129E-1   -1.320911421247135E-2    1.414045509180899E-2   -6.488839962499333E-3    1.438367829512398E-2   -5.901605291440605E-3    2.211965315004433E-1    5.020527829316221E-1
 6.517257301550000E9    -2.276817980347663E-1   -1.302927521256231E-2    1.422883056725881E-2   -6.465371614085645E-3    1.444709155165513E-2   -5.989187630571070E-3    2.219598978960122E-1    5.017329729486778E-1
 6.517269121000000E9    -2.275873525765553E-1   -1.285959525590501E-2    1.425606219348719E-2   -6.685634988336880E-3    1.455887455732029E-2   -6.062947931402192E-3    2.228507028864339E-1    5.012483396364787E-1
 6.517280940450000E9    -2.274044329834716E-1   -1.264223157403868E-2    1.450156872263240E-2   -6.739945354748097E-3    1.461511428769155E-2   -6.053482609600771E-3    2.238235962168783E-1    5.009631297286544E-1
 6.517292759900000E9    -2.272984505225480E-1   -1.256921081091363E-2    1.453262035991345E-2   -6.620576356946405E-3    1.482483111473608E-2   -6.173541112645916E-3    2.244839006077359E-1    5.006096345031469E-1
 6.517304579350000E9    -2.270287627182761E-1   -1.237907118648551E-2    1.455898630591731E-2   -6.682906863876575E-3    1.472304683422461E-2   -6.231844722424006E-3    2.255481709131806E-1    5.001190460112883E-1
 6.517316398800000E9    -2.269835176820122E-1   -1.219987200146071E-2    1.459779221569289E-2   -6.739780858279473E-3    1.476833165200596E-2   -6.355796339913346E-3    2.263245271988971E-1    4.997657193554215E-1
 6.517328218250000E9    -2.269327395589806E-1   -1.201444840747352E-2    1.473301496388649E-2   -6.801091134996922E-3    1.482195248744575E-2   -6.373297088661480E-3    2.272415933121083E-1    4.993923984241578E-1
 6.517340037700000E9    -2.267943135913231E-1   -1.185224958568727E-2    1.479732683502075E-2   -6.877809698311665E-3    1.492182274621650E-2   -6.380717287580532E-3    2.281624229337607E-1    4.990253825830448E-1
 6.517351857150000E9    -2.266206988648901E-1   -1.174038177980530E-2    1.486414931393618E-2   -7.104989278400043E-3    1.491269286867922E-2   -6.489704195207073E-3    2.289749749383445E-1    4.985521640997242E-1
 6.517363676600000E9    -2.264844327200224E-1   -1.153716935867556E-2    1.479539126151596E-2   -7.002297179362622E-3    1.498600582306312E-2   -6.577048295588802E-3    2.298664075243196E-1    4.981679112346260E-1
 6.517375496050000E9    -2.262442857100631E-1   -1.142421587147898E-2    1.497600440832645E-2   -7.195506947878200E-3    1.520736774109678E-2   -6.683822973190250E-3    2.308377978339931E-1    4.978445882881513E-1
 6.517387315500000E9    -2.261375434143305E-1   -1.121800054653841E-2    1.502675485874897E-2   -7.230824722426662E-3    1.519798499151544E-2   -6.792061426907997E-3    2.315294985017650E-1    4.973404592492995E-1
 6.517399134950000E9    -2.260051418357117E-1   -1.115624017462616E-2    1.497076068169672E-2   -7.232267735316340E-3    1.532551137624569E-2   -6.753900873723949E-3    2.324592470043138E-1    4.970467837991677E-1
 6.517410954400000E9    -2.259253027769002E-1   -1.080546761628171E-2    1.507636103856152E-2   -7.475113582744352E-3    1.527462255120487E-2   -6.871966734367746E-3    2.333413565618001E-1    4.966817216086360E-1
 6.517422773850000E9    -2.257962852173999E-1   -1.066860057103611E-2    1.536371249852118E-2   -7.399054291515741E-3    1.549101556928450E-2   -6.819152052723106E-3    2.341743530402139E-1    4.961999815818369E-1
 6.517434593300000E9    -2.255872517169561E-1   -1.054767534219882E-2    1.527110926411957E-2   -7.486034073888147E-3    1.546421084519116E-2   -6.987832725731533E-3    2.351355971806100E-1    4.957686662269893E-1
 6.517446412750000E9    -2.253973518178435E-1   -1.039842293408805E-2    1.535570921587632E-2   -7.514670307523988E-3    1.557860007847865E-2   -7.153127745286911E-3    2.360042861305537E-1    4.954791779848330E-1
 6.517458232200000E9    -2.253696886419811E-1   -1.031460525167683E-2    1.549129566338475E-2   -7.692975285968820E-3    1.566119130560206E-2   -7.198837054176060E-3    2.366774833527223E-1    4.949565393452699E-1
 6.517470051650000E9    -2.250386174116690E-1   -1.004629487430137E-2    1.548006556402657E-2   -7.734121442612769E-3    1.576708627717627E-2   -7.111770533058361E-3    2.376100920260379E-1    4.944719775574205E-1
 6.517481871100000E9    -2.248793590357596E-1   -9.925819089561140E-3    1.555723191218330E-2   -7.818678952205740E-3    1.575934720946566E-2   -7.365751504987751E-3    2.386322168425379E-1    4.941115229472316E-1
 6.517493690550000E9    -2.248020250893264E-1   -9.916746817703766E-3    1.569765139895293E-2   -7.997733853980178E-3    1.590211157527752E-2   -7.373381129202727E-3    2.394280130813345E-1    4.938114403303075E-1
 6.517505510000000E9    -2.245996576959083E-1   -9.661389427280072E-3    1.575834140868893E-2   -8.057178444724929E-3    1.590415631788503E-2   -7.409749024031132E-3    2.404052072588375E-1    4.932727181116523E-1
 6.517517329450000E9    -2.245507928854537E-1   -9.378112574778975E-3    1.579365551290108E-2   -8.098297593440868E-3    1.608815170746626E-2   -7.592204048384676E-3    2.412208741514252E-1    4.928799511278433E-1
 6.517529148900000E9    -2.243896631173522E-1   -9.451106764068457E-3    1.586310368827648E-2   -8.048345329389698E-3    1.613463763321335E-2   -7.710054317902500E-3    2.420773181939476E-1    4.924420760195265E-1
 6.517540968350000E9    -2.241898068269547E-1   -9.221551962614224E-3    1.603859391904516E-2   -8.158473265438186E-3    1.614100928721421E-2   -7.526179191866563E-3    2.429368440749051E-1    4.919553133939350E-1
 6.517552787800000E9    -2.240639061505899E-1   -9.060446649733472E-3    1.609755145626750E-2   -8.333852220929720E-3    1.631384514698079E-2   -7.857995652057449E-3    2.439188153446511E-1    4.917002114464201E-1
 6.517564607250000E9    -2.238415908028835E-1   -8.892164383710256E-3    1.625581133704492E-2   -8.535992339221015E-3    1.627567312296385E-2   -7.763016240947641E-3    2.447658078081607E-1    4.911782602793352E-1
 6.517576426700000E9    -2.236842992359775E-1   -8.673641516969071E-3    1.623861636669114E-2   -8.418276606333675E-3    1.652919887892043E-2   -7.853820684649735E-3    2.455589609491104E-1    4.908769530327358E-1
 6.517588246150000E9    -2.234914143649577E-1   -8.640324440648241E-3    1.615642160895383E-2   -8.614751361100568E-3    1.651798417596555E-2   -8.126423967539308E-3    2.464325727872962E-1    4.903200376189048E-1
 6.517600065600000E9    -2.233974646365564E-1   -8.406957251144761E-3    1.634292760037713E-2   -8.778739799659034E-3    1.668201235707860E-2   -8.151021941808617E-3    2.472232345816726E-1    4.899050895355931E-1
 6.517611885050000E9    -2.232960057505369E-1   -8.245969179229746E-3    1.652737677215176E-2   -8.789300756726955E-3    1.677163040832290E-2   -8.228552943575303E-3    2.481690193920338E-1    4.894715600654393E-1
 6.517623704500000E9    -2.230053348324617E-1   -7.981316477548381E-3    1.659792398051323E-2   -8.859171191986460E-3    1.686569849593092E-2   -8.212353299889494E-3    2.490048363386430E-1    4.889862359615002E-1
 6.517635523950000E9    -2.228799010501634E-1   -8.092218517238963E-3    1.670406630551118E-2   -8.867779017652544E-3    1.691556223337602E-2   -8.441712226190360E-3    2.497909420761943E-1    4.885660086902905E-1
 6.517647343400000E9    -2.227203065397361E-1   -8.050237669029958E-3    1.683437726791688E-2   -9.065654052384084E-3    1.697110081693471E-2   -8.423452839048232E-3    2.507999696630023E-1    4.880993623760618E-1
 6.517659162850000E9    -2.225882166924366E-1   -7.882786825070333E-3    1.683039901513345E-2   -9.055137997992679E-3    1.704287748524705E-2   -8.577625897112289E-3    2.516699078531010E-1    4.876402449302361E-1
 6.517670982300000E9    -2.223437911515878E-1   -7.601031673185907E-3    1.684532033418804E-2   -9.356281823795068E-3    1.721399403914678E-2   -8.662260260498700E-3    2.524347083188629E-1    4.873385315776252E-1
 6.517682801750000E9    -2.222134490483251E-1   -7.602923478614965E-3    1.698438834290262E-2   -9.508930971653430E-3    1.724601704663309E-2   -8.835043221377582E-3    2.532651382486794E-1    4.868284084995598E-1
 6.517694621200000E9    -2.219957191298678E-1   -7.359071446501368E-3    1.695406791075232E-2   -9.331479593079851E-3    1.740648718237157E-2   -8.989769316944167E-3    2.541013445495101E-1    4.862469114088595E-1
 6.517706440650000E9    -2.217398808906842E-1   -7.248066405403345E-3    1.717812179775827E-2   -9.607532661299633E-3    1.745611021935799E-2   -8.949803152992977E-3    2.551613786613115E-1    4.857193448836113E-1
 6.517718260100000E9    -2.216946180647058E-1   -7.260976575941424E-3    1.733275614877327E-2   -9.560334830602925E-3    1.759089731960418E-2   -9.140544920013283E-3    2.561198606420600E-1    4.853246405619181E-1
 6.517730079550000E9    -2.215163131719553E-1   -7.075997651966444E-3    1.727317727615410E-2   -9.865202175344119E-3    1.760942201218708E-2   -9.282103867143780E-3    2.567589477806267E-1    4.849120080952534E-1
 6.517741899000000E9    -2.213082911025890E-1   -6.931700174763166E-3    1.745768765066010E-2   -9.880483618437561E-3    1.775887674708635E-2   -9.285742454158419E-3    2.577149060445076E-1    4.844735875840475E-1
 6.517753718450000E9    -2.210503867750713E-1   -6.772648750689380E-3    1.749454343719755E-2   -9.882805413264041E-3    1.792915168278469E-2   -9.459978727096637E-3    2.587930404098684E-1    4.839907047903508E-1
 6.517765537900000E9    -2.209505127223596E-1   -6.734062936544135E-3    1.767103777865469E-2   -1.003518032720131E-2    1.790410877354649E-2   -9.543398875436314E-3    2.595201823491313E-1    4.836162115580478E-1
 6.517777357350000E9    -2.208095212116125E-1   -6.553943577050169E-3    1.770953795716588E-2   -1.018834205440403E-2    1.808260243962586E-2   -9.645255372354338E-3    2.604490294785970E-1    4.829778503224047E-1
 6.517789176800000E9    -2.206174003781221E-1   -6.560835572194511E-3    1.791377457995444E-2   -1.022422699857489E-2    1.811052824674797E-2   -9.727929821448239E-3    2.611605833010186E-1    4.825760971357242E-1
 6.517800996250000E9    -2.202373904887034E-1   -6.364197235152967E-3    1.793693641717328E-2   -1.049857678245629E-2    1.829785647751004E-2   -9.873136619435648E-3    2.621560898366135E-1    4.820857850676529E-1
 6.517812815700000E9    -2.201908075731652E-1   -6.304648374659767E-3    1.797145433728453E-2   -1.045319397473649E-2    1.845012250134677E-2   -9.972074305947116E-3    2.629694468642665E-1    4.816831288450703E-1
 6.517824635150000E9    -2.198869081139853E-1   -6.113405084685733E-3    1.813042268521701E-2   -1.085491087863836E-2    1.846771978371367E-2   -9.980820689782047E-3    2.637779862434078E-1    4.810830704364361E-1
 6.517836454600000E9    -2.198668897945400E-1   -6.094107376018893E-3    1.825263315271036E-2   -1.077407493591343E-2    1.853886736419553E-2   -1.005132482731601E-2    2.648202753694263E-1    4.805899988756338E-1
 6.517848274050000E9    -2.193880009753544E-1   -5.975144946327090E-3    1.829188144809964E-2   -1.089979602958113E-2    1.876120597311302E-2   -1.026534825614250E-2    2.656618596431692E-1    4.802015458819751E-1
 6.517860093500000E9    -2.194590611379931E-1   -5.846475630732297E-3    1.848977230980165E-2   -1.112293665733423E-2    1.882526142758803E-2   -1.036180838745987E-2    2.664768132290653E-1    4.796312767050407E-1
 6.517871912950000E9    -2.192096120938371E-1   -5.636140545758422E-3    1.866705881932895E-2   -1.121174486985822E-2    1.891249700623077E-2   -1.064083584021473E-2    2.674128281344155E-1    4.790288915653290E-1
 6.517883732400000E9    -2.188743880164112E-1   -5.622776337281278E-3    1.856451150352617E-2   -1.131103473997240E-2    1.898808572526147E-2   -1.061387882165483E-2    2.681668854170698E-1    4.785706379228795E-1
 6.517895551850000E9    -2.187018050054687E-1   -5.441465630883015E-3    1.886145741459077E-2   -1.149478976999786E-2    1.905988403544515E-2   -1.077456190988738E-2    2.690879467569860E-1    4.781230024091923E-1
 6.517907371300000E9    -2.185473379853438E-1   -5.388790975163356E-3    1.900614510702082E-2   -1.160232221554526E-2    1.920779390175700E-2   -1.099816570314567E-2    2.699994677704239E-1    4.776909709577059E-1
 6.517919190750000E9    -2.183400885218423E-1   -5.248346249060602E-3    1.888424383664266E-2   -1.165827084891398E-2    1.933963096164256E-2   -1.110254168856191E-2    2.709620397911857E-1    4.769070438024610E-1
 6.517931010200000E9    -2.181540210703242E-1   -5.269428168736128E-3    1.920258650246466E-2   -1.186504775589723E-2    1.951015516624380E-2   -1.125180454626023E-2    2.718951291091503E-1    4.765591832920629E-1
 6.517942829650000E9    -2.180041898212958E-1   -5.150791808382090E-3    1.919268529456368E-2   -1.197747159632277E-2    1.969957580896611E-2   -1.138493851514103E-2    2.726789685251139E-1    4.761296015588508E-1
 6.517954649100000E9    -2.176703481927298E-1   -5.168088204892504E-3    1.935364742655253E-2   -1.211332124145869E-2    1.985741584523602E-2   -1.143758385881355E-2    2.735420784082270E-1    4.755959739028732E-1
 6.517966468550000E9    -2.174297407415396E-1   -5.014956811605093E-3    1.946980532123855E-2   -1.229783767209122E-2    1.981130869023770E-2   -1.168350087991314E-2    2.745228408580603E-1    4.749390180881951E-1
 6.517978288000000E9    -2.172106383379050E-1   -4.969366079896569E-3    1.966873424138847E-2   -1.240405869736746E-2    1.990406418979089E-2   -1.179246217639391E-2    2.754344734611688E-1    4.743853274668219E-1
 6.517990107450000E9    -2.170135779547801E-1   -4.882702545062524E-3    1.968375974527902E-2   -1.250668397970331E-2    2.014693753461758E-2   -1.190911409309251E-2    2.761735336832984E-1    4.739473105836053E-1
 6.518001926900000E9    -2.168351866372223E-1   -4.822743602666732E-3    1.974071048381586E-2   -1.278194783720373E-2    2.023888146860548E-2   -1.208898308262078E-2    2.770939733264205E-1    4.734730077610571E-1
 6.518013746350000E9    -2.165692779005874E-1   -4.702773210585994E-3    1.990966231144783E-2   -1.289373996391896E-2    2.030249731818974E-2   -1.226529065238617E-2    2.780566205124459E-1    4.729308070756656E-1
 6.518025565800000E9    -2.164555169958780E-1   -4.533307093549014E-3    2.012089709294581E-2   -1.304179309244536E-2    2.059514846581950E-2   -1.237440496031505E-2    2.788495566280392E-1    4.722071234370340E-1
 6.518037385250000E9    -2.159812414406498E-1   -4.623421175452161E-3    2.018223882837836E-2   -1.332412619500955E-2    2.073614270667898E-2   -1.254523528832459E-2    2.797759243497887E-1    4.717578731411366E-1
 6.518049204700000E9    -2.158033624478258E-1   -4.610493358391775E-3    2.030097420549552E-2   -1.341150136645949E-2    2.086213061772220E-2   -1.273586575916298E-2    2.806062638937111E-1    4.711033058092274E-1
 6.518061024150000E9    -2.156355769799106E-1   -4.516364517414235E-3    2.044332187883500E-2   -1.360512008517709E-2    2.093815923336400E-2   -1.291000609530789E-2    2.814944382900048E-1    4.707360471459242E-1
 6.518072843600000E9    -2.153397981176940E-1   -4.430120839875319E-3    2.066292382581023E-2   -1.384315230800602E-2    2.115058661953896E-2   -1.314399755667131E-2    2.823784587754575E-1    4.700250856564717E-1
 6.518084663050000E9    -2.152174886988537E-1   -4.423585384610720E-3    2.069192312686832E-2   -1.392135968415782E-2    2.129494232147521E-2   -1.325013710385806E-2    2.832557203258302E-1    4.693976687545388E-1
 6.518096482500000E9    -2.149673716085910E-1   -4.445526768576206E-3    2.082073369027380E-2   -1.409221081320067E-2    2.140366233951332E-2   -1.344692792996830E-2    2.842766733423706E-1    4.689873807708934E-1
