#  HZ   S   RI   R     50.00 
! Rohde & Schwarz Vector Network Analyzer 
! Rohde-Schwarz,ZNB20-2Port,1311601062101988,3.16
! Created: UTC 12/23/2023, 3:58:05 AM
! freq[Hz]                re:S11                  im:S11                  re:S21                  im:S21                  re:S12                  im:S12                  re:S22                  im:S22
 6.517034577000000E9    -2.301028040472254E-1   -1.640190135342954E-2    1.320774616222827E-2   -5.405652010259943E-3    1.336363608966557E-2   -5.043191407031831E-3    2.055600804151514E-1    5.083142398177100E-1
 6.517046396875000E9    -2.298982037771401E-1   -1.630923654434418E-2    1.331916858619831E-2   -5.507467127812147E-3    1.340768896339822E-2   -4.923111529064449E-3    2.065423069105143E-1    5.079726610927398E-1
 6.517058216750000E9    -2.298434851947078E-1   -1.601714878284255E-2    1.333174838864349E-2   -5.309699650995333E-3    1.341227416032635E-2   -5.015160408517437E-3    2.072536151497709E-1    5.075870888828532E-1
 6.517070036625000E9    -2.297446042318351E-1   -1.581479182838658E-2    1.326244662731398E-2   -5.557052763156805E-3    1.353088572601143E-2   -5.102775962959529E-3    2.082053398528178E-1    5.073788730722740E-1
 6.517081856500000E9    -2.295791868492965E-1   -1.558875676177507E-2    1.336068662155726E-2   -5.642485271450647E-3    1.349628149079884E-2   -5.090000584776889E-3    2.089344181608173E-1    5.069321091809857E-1
 6.517093676375000E9    -2.293937630527804E-1   -1.545228120859678E-2    1.345119296220191E-2   -5.594110705127713E-3    1.357754806715340E-2   -5.282567696964655E-3    2.099193113811325E-1    5.066889444261351E-1
 6.517105496250000E9    -2.293701103958889E-1   -1.529845481254489E-2    1.340833145655402E-2   -5.762256220403144E-3    1.373488053560687E-2   -5.225126737800649E-3    2.107581881126721E-1    5.063184347529943E-1
 6.517117316125000E9    -2.291606495475887E-1   -1.511533991523291E-2    1.362956852801377E-2   -5.814071045293536E-3    1.360147768328214E-2   -5.225663498166624E-3    2.118622371175297E-1    5.060590509957270E-1
 6.517129136000000E9    -2.289826653272810E-1   -1.496147443241513E-2    1.366345824065972E-2   -5.930138301779553E-3    1.377662060132356E-2   -5.360526976721806E-3    2.125085384489688E-1    5.054995607152861E-1
 6.517140955875000E9    -2.289451151003535E-1   -1.474142558992350E-2    1.363876590699082E-2   -5.837530362264694E-3    1.388898965408590E-2   -5.371619617178920E-3    2.133241396761507E-1    5.052251921460466E-1
 6.517152775750000E9    -2.288518873363354E-1   -1.468798913171315E-2    1.376676313236358E-2   -5.933399570236476E-3    1.389282996136578E-2   -5.333380486593498E-3    2.143155770470042E-1    5.048584422988417E-1
 6.517164595625000E9    -2.286918069278306E-1   -1.439520378264381E-2    1.382292855446556E-2   -5.992846784201868E-3    1.384929510775659E-2   -5.388950341984926E-3    2.152264926141501E-1    5.044415071116489E-1
 6.517176415500000E9    -2.286056215937745E-1   -1.417629022565879E-2    1.388943176508207E-2   -5.999327076635650E-3    1.406054751920775E-2   -5.576596776684371E-3    2.160455705971988E-1    5.041627848732843E-1
 6.517188235375000E9    -2.283151484506763E-1   -1.410634120079259E-2    1.385778191741669E-2   -6.082820838004764E-3    1.400686548174934E-2   -5.612421858972803E-3    2.169998471975027E-1    5.037621423323432E-1
 6.517200055250000E9    -2.282797809876198E-1   -1.387946072318828E-2    1.414645309807843E-2   -6.176116318317705E-3    1.420801312173096E-2   -5.713162479525079E-3    2.176990265597115E-1    5.034030286553013E-1
 6.517211875125000E9    -2.282248892495714E-1   -1.365703206007168E-2    1.399978339739810E-2   -6.199785162559045E-3    1.412582519977141E-2   -5.830310705885401E-3    2.187688535136012E-1    5.030545659208534E-1
 6.517223695000000E9    -2.280318268944147E-1   -1.354975318609371E-2    1.413281461756813E-2   -6.358110399831574E-3    1.427453672537563E-2   -5.794211276893855E-3    2.194933829126962E-1    5.026207685941831E-1
 6.517235514875000E9    -2.279909401264434E-1   -1.335397291359035E-2    1.430205799831171E-2   -6.459584297273141E-3    1.430005315048906E-2   -5.863061113841523E-3    2.204152645105777E-1    5.022562458664649E-1
 6.517247334750000E9    -2.279020331992913E-1   -1.315906402054577E-2    1.429148566390902E-2   -6.478396630584077E-3    1.452096888753883E-2   -5.885988367688156E-3    2.212264366861218E-1    5.019178154570799E-1
 6.517259154625000E9    -2.276140869502513E-1   -1.288413900231454E-2    1.429996811940341E-2   -6.463542231277528E-3    1.444106441109346E-2   -5.988549308622670E-3    2.221911427616930E-1    5.014548419596495E-1
 6.517270974500000E9    -2.275466580917817E-1   -1.279052148322309E-2    1.434940139936767E-2   -6.533237014667944E-3    1.447619180507898E-2   -6.033805516603416E-3    2.230431454357958E-1    5.011294120337241E-1
 6.517282794375000E9    -2.274226360063737E-1   -1.269419030326426E-2    1.451004201862451E-2   -6.592407526193676E-3    1.457152743247958E-2   -6.186900953340941E-3    2.238324265194140E-1    5.008162502190608E-1
 6.517294614250000E9    -2.273488281801875E-1   -1.244800166463780E-2    1.438811876990932E-2   -6.697335553473047E-3    1.467460783935075E-2   -6.189639951455512E-3    2.247920028840676E-1    5.004368496254823E-1
 6.517306434125000E9    -2.270230007918131E-1   -1.226553846336898E-2    1.449404269388321E-2   -6.739708690274051E-3    1.469001542622385E-2   -6.292735173369603E-3    2.256384630910220E-1    4.999968701785708E-1
 6.517318254000000E9    -2.270125484744056E-1   -1.208643004639337E-2    1.467682831636105E-2   -6.833485296097445E-3    1.476202775319775E-2   -6.323392348765398E-3    2.263364161057251E-1    4.997752479560418E-1
 6.517330073875000E9    -2.269195113267116E-1   -1.190262100767996E-2    1.478411595597622E-2   -6.849953478972445E-3    1.481847721468125E-2   -6.394817394085613E-3    2.273427661882875E-1    4.992666496920974E-1
 6.517341893750000E9    -2.268575604238303E-1   -1.172616846817352E-2    1.474925489211950E-2   -6.993464203269812E-3    1.493130857926607E-2   -6.377761994362656E-3    2.282143688806962E-1    4.988719866720294E-1
 6.517353713625000E9    -2.266284133492367E-1   -1.163071190071901E-2    1.492643958841848E-2   -7.002571907038905E-3    1.498281070066056E-2   -6.555014738037971E-3    2.291236170972732E-1    4.985207305553473E-1
 6.517365533500000E9    -2.264589399352494E-1   -1.147634378102234E-2    1.488531076173833E-2   -6.948791481665325E-3    1.504277946642486E-2   -6.516723607993127E-3    2.299528589441740E-1    4.981886727560441E-1
 6.517377353375000E9    -2.264450319947754E-1   -1.138087695242168E-2    1.497744402357630E-2   -7.220600542833694E-3    1.516807727426300E-2   -6.553953642075165E-3    2.308601726133644E-1    4.977175347419404E-1
 6.517389173250000E9    -2.261992166737292E-1   -1.115185308375528E-2    1.508001436874124E-2   -7.275949179145849E-3    1.512668088962182E-2   -6.647091033500740E-3    2.318254137574913E-1    4.973175855091611E-1
 6.517400993125000E9    -2.259248737415485E-1   -1.101497257343610E-2    1.514748902769946E-2   -7.346508727074407E-3    1.531671203223708E-2   -6.822688004923604E-3    2.326540872764758E-1    4.970131575497764E-1
 6.517412813000000E9    -2.258672261809493E-1   -1.085397165507110E-2    1.524349378140829E-2   -7.283403654031209E-3    1.535275769442321E-2   -6.828577566729575E-3    2.334218187842443E-1    4.966585560930158E-1
 6.517424632875000E9    -2.257892009861537E-1   -1.063286009008576E-2    1.519905936275279E-2   -7.578888613526183E-3    1.545799446962826E-2   -7.002473321650615E-3    2.344132609657573E-1    4.960962884168438E-1
 6.517436452750000E9    -2.255484327753423E-1   -1.059934387268128E-2    1.533608253535003E-2   -7.452411423765707E-3    1.547978227015626E-2   -6.958471156576427E-3    2.351559487701093E-1    4.956338771771083E-1
 6.517448272625000E9    -2.253282426678390E-1   -1.045275593027293E-2    1.545451816246090E-2   -7.697689580515693E-3    1.555239483963134E-2   -7.033153767606034E-3    2.361029397305937E-1    4.953465626398836E-1
 6.517460092500000E9    -2.251915769016221E-1   -1.026075418802926E-2    1.539072890066239E-2   -7.692244071949839E-3    1.576369559781727E-2   -7.194060630786074E-3    2.369255346524843E-1    4.947425191577296E-1
 6.517471912375000E9    -2.251392008472388E-1   -1.009936289850101E-2    1.552779747038391E-2   -7.727987944809709E-3    1.579701906318446E-2   -7.192066120248384E-3    2.377698569030459E-1    4.945185242688829E-1
 6.517483732250000E9    -2.249258958953815E-1   -9.960763815794237E-3    1.564385351320899E-2   -7.850551990424450E-3    1.579993097402170E-2   -7.386887517321377E-3    2.386932741327319E-1    4.942233327540569E-1
 6.517495552125000E9    -2.248145518774334E-1   -9.738379959799119E-3    1.580298882799766E-2   -7.798178527495763E-3    1.591175426732427E-2   -7.371158229456049E-3    2.395703303917523E-1    4.936488789830067E-1
 6.517507372000000E9    -2.246703564627620E-1   -9.643251256548788E-3    1.575560252468586E-2   -7.966014770815792E-3    1.594561479221294E-2   -7.470742442681531E-3    2.403788660593637E-1    4.932355036134101E-1
 6.517519191875000E9    -2.244916330118613E-1   -9.489644597646464E-3    1.596754387302415E-2   -8.147913385003553E-3    1.603888931482930E-2   -7.490755613026485E-3    2.413779173327242E-1    4.927522042155411E-1
 6.517531011750000E9    -2.242649734538305E-1   -9.242493677267174E-3    1.585616255165844E-2   -8.141023735094411E-3    1.624963817153373E-2   -7.644746838318067E-3    2.420944169523554E-1    4.925429802257625E-1
 6.517542831625000E9    -2.241558631011179E-1   -9.146917730077140E-3    1.589324735460989E-2   -8.284026334529643E-3    1.619620285124191E-2   -7.602756921242431E-3    2.431020579534720E-1    4.920263606028017E-1
 6.517554651500000E9    -2.240797785910689E-1   -9.074651793779117E-3    1.596273152207118E-2   -8.197301206900712E-3    1.623274158562967E-2   -7.840131746964851E-3    2.438077505058390E-1    4.915003094087899E-1
 6.517566471375000E9    -2.238959524675087E-1   -8.920922943884857E-3    1.622280380606540E-2   -8.360656676417349E-3    1.646658910989500E-2   -7.798986193939987E-3    2.447620645550513E-1    4.911545015238855E-1
 6.517578291250000E9    -2.237248338739382E-1   -8.703482014517344E-3    1.619123056743515E-2   -8.469357110038675E-3    1.646426745809813E-2   -7.959349263412316E-3    2.457088907923189E-1    4.906466091322326E-1
 6.517590111125000E9    -2.235275960361862E-1   -8.663093708463328E-3    1.618324829088827E-2   -8.567534442244746E-3    1.648032351536637E-2   -8.052504520873423E-3    2.464959485361529E-1    4.904163723222458E-1
 6.517601931000000E9    -2.232576272299223E-1   -8.411914304812147E-3    1.635255265305797E-2   -8.655346495464906E-3    1.655316985387353E-2   -7.974022948063986E-3    2.474819343540764E-1    4.899054025562592E-1
 6.517613750875000E9    -2.232531862742536E-1   -8.317775991975234E-3    1.635153531872585E-2   -8.664954385581387E-3    1.661277195516638E-2   -8.280443310907801E-3    2.481997438545173E-1    4.894952884883744E-1
 6.517625570750000E9    -2.230767839932727E-1   -8.245957873667456E-3    1.661521182956321E-2   -8.833784144759441E-3    1.684778195761977E-2   -8.273517592404694E-3    2.491209344757500E-1    4.891810430748068E-1
 6.517637390625000E9    -2.228755217595901E-1   -7.952347470315776E-3    1.658176542285463E-2   -8.958010377090111E-3    1.687608557999497E-2   -8.405017992410569E-3    2.501366686423603E-1    4.884795354170033E-1
 6.517649210500000E9    -2.227415175000740E-1   -7.959396931074877E-3    1.679580555482623E-2   -9.061785585699240E-3    1.686334683425397E-2   -8.488537346041335E-3    2.508899145872312E-1    4.881126995122428E-1
 6.517661030375000E9    -2.225109006429290E-1   -7.730293667039535E-3    1.677625144113234E-2   -9.073766236933919E-3    1.704584910536720E-2   -8.554136036332951E-3    2.517612221872158E-1    4.875868916715888E-1
 6.517672850250000E9    -2.222265702869655E-1   -7.686254836371584E-3    1.688291063621788E-2   -9.213002207195132E-3    1.723377938428617E-2   -8.623712992875419E-3    2.527146064504061E-1    4.871642889835213E-1
 6.517684670125000E9    -2.222107758082280E-1   -7.455259778942103E-3    1.698634034954167E-2   -9.439333345870906E-3    1.730649205975899E-2   -8.634487575419448E-3    2.535225866653289E-1    4.867105800700881E-1
 6.517696490000000E9    -2.219760922528979E-1   -7.437249715765560E-3    1.725868398677831E-2   -9.468921163227190E-3    1.736762017324182E-2   -8.852615812194087E-3    2.544022012383137E-1    4.862586173378743E-1
 6.517708309875000E9    -2.218502876356943E-1   -7.224063269262389E-3    1.712381462943978E-2   -9.536757955793847E-3    1.745279504608099E-2   -8.944586103690172E-3    2.552297357675817E-1    4.857231587121577E-1
 6.517720129750000E9    -2.216057685535165E-1   -7.168620763756397E-3    1.719128733136259E-2   -9.672485156940252E-3    1.752495361077087E-2   -9.058757419901281E-3    2.560795334092547E-1    4.851867420894793E-1
 6.517731949625000E9    -2.214682527583141E-1   -6.942395060885817E-3    1.744828274119112E-2   -9.760512513957053E-3    1.765563714081451E-2   -9.227228586554764E-3    2.570421769341911E-1    4.848052375894951E-1
 6.517743769500000E9    -2.211170231589593E-1   -6.872073207845525E-3    1.736801078680320E-2   -9.785852416485696E-3    1.786784520201462E-2   -9.220776423087683E-3    2.578267154085608E-1    4.843396497315314E-1
 6.517755589375000E9    -2.210471671435351E-1   -6.752430092313196E-3    1.757968015114025E-2   -9.983425326465451E-3    1.788934251839011E-2   -9.424405512099004E-3    2.587641303620295E-1    4.839516162549383E-1
 6.517767409250000E9    -2.209280510069213E-1   -6.621129625731466E-3    1.767414952438447E-2   -1.008543963363167E-2    1.784779365416180E-2   -9.593595056194767E-3    2.595966513518090E-1    4.834883124125741E-1
 6.517779229125000E9    -2.206682444454894E-1   -6.479382656472505E-3    1.779816702579657E-2   -1.017366242080152E-2    1.803447986023669E-2   -9.665404584904950E-3    2.605824207920678E-1    4.829671105272859E-1
 6.517791049000000E9    -2.206037836453865E-1   -6.413721729710330E-3    1.789511115221767E-2   -1.031924990254148E-2    1.821351638965017E-2   -9.753514702201330E-3    2.613838818074803E-1    4.824450609173007E-1
 6.517802868875000E9    -2.203282204073435E-1   -6.244791214736398E-3    1.796333423954957E-2   -1.033533735374080E-2    1.821483421742066E-2   -9.768741101973970E-3    2.622461249702988E-1    4.819730658837166E-1
 6.517814688750000E9    -2.202212832587912E-1   -6.238489641210041E-3    1.805936609364460E-2   -1.045922926501183E-2    1.840965154248713E-2   -9.911210264187880E-3    2.631932465309184E-1    4.814525268414893E-1
 6.517826508625000E9    -2.199316539375677E-1   -6.144679637420832E-3    1.819532967834401E-2   -1.055318377040708E-2    1.848698679147061E-2   -1.002463390853312E-2    2.640158907926525E-1    4.809338576589254E-1
 6.517838328500000E9    -2.197365532806360E-1   -5.959034081619060E-3    1.824061470380654E-2   -1.082380211306178E-2    1.861406554106560E-2   -1.027665355507642E-2    2.650242002780912E-1    4.805325855496134E-1
 6.517850148375000E9    -2.195388091019502E-1   -5.844045065791633E-3    1.844615011456086E-2   -1.094372265121072E-2    1.867671255662506E-2   -1.037603308957132E-2    2.657401184017784E-1    4.800183660505719E-1
 6.517861968250000E9    -2.193138466927998E-1   -5.782021471776648E-3    1.853201321133889E-2   -1.103654060923872E-2    1.872557602955026E-2   -1.042952247899602E-2    2.667243068726220E-1    4.794634822501859E-1
 6.517873788125000E9    -2.191547248493947E-1   -5.559095350579636E-3    1.862189354373128E-2   -1.115160019934878E-2    1.894182955110777E-2   -1.054944730711086E-2    2.674174140441802E-1    4.790568808583408E-1
 6.517885608000000E9    -2.189829373303114E-1   -5.643597356828903E-3    1.872867242108917E-2   -1.135387783396918E-2    1.909609287157237E-2   -1.073022738708011E-2    2.684208003139983E-1    4.785051128041785E-1
 6.517897427875000E9    -2.187435159649256E-1   -5.474092254470802E-3    1.888717450623780E-2   -1.155573851410390E-2    1.915444677487070E-2   -1.082525274989244E-2    2.693285290885655E-1    4.780283005866574E-1
 6.517909247750000E9    -2.186571657959264E-1   -5.241861294739635E-3    1.881930159284812E-2   -1.170599629002004E-2    1.928436487382395E-2   -1.083536619454740E-2    2.702519143811157E-1    4.774729886050074E-1
 6.517921067625000E9    -2.183536312745635E-1   -5.202893825841690E-3    1.898224933910280E-2   -1.181223057162864E-2    1.937417604525939E-2   -1.113981657929461E-2    2.710415896528562E-1    4.771514642691675E-1
 6.517932887500000E9    -2.180439715605069E-1   -5.188184629556543E-3    1.918008720300461E-2   -1.187334715747398E-2    1.954300768776928E-2   -1.114312945094988E-2    2.718938461866904E-1    4.764374421737199E-1
 6.517944707375000E9    -2.179264309765965E-1   -5.111400118324110E-3    1.923332051871188E-2   -1.201593340187331E-2    1.969444753368843E-2   -1.144974462834144E-2    2.728546136009527E-1    4.760067378288090E-1
 6.517956527250000E9    -2.176943550931325E-1   -4.985223727145759E-3    1.940724302731500E-2   -1.218309856122571E-2    1.971489134356475E-2   -1.150322428930965E-2    2.736752831546574E-1    4.753717783050369E-1
 6.517968347125000E9    -2.174980908538222E-1   -5.017103663471652E-3    1.955589735260429E-2   -1.224674450698441E-2    1.998875985711220E-2   -1.164793130274742E-2    2.744926687968847E-1    4.749057766557389E-1
 6.517980167000000E9    -2.171973333146217E-1   -4.781032960656260E-3    1.958396894406749E-2   -1.245678945158555E-2    2.000418680435504E-2   -1.183609309524993E-2    2.754595927577717E-1    4.743672759797900E-1
 6.517991986875000E9    -2.169472006499012E-1   -4.897430799958705E-3    1.968374209053626E-2   -1.272033405764282E-2    2.007384475296533E-2   -1.193352642428854E-2    2.762733494085750E-1    4.738364253715595E-1
 6.518003806750000E9    -2.167980837987133E-1   -4.717385939018162E-3    1.986862417036665E-2   -1.280893759871854E-2    2.020699922790769E-2   -1.200037827001928E-2    2.772361316482121E-1    4.733735791794107E-1
 6.518015626625000E9    -2.166227138916240E-1   -4.710695231514007E-3    1.992017715846382E-2   -1.308857228266531E-2    2.038738569803340E-2   -1.226362637461069E-2    2.780574059799515E-1    4.727165907034616E-1
 6.518027446500000E9    -2.162553581123002E-1   -4.548466927577479E-3    2.006801947404304E-2   -1.301248190446947E-2    2.051972395273714E-2   -1.249302187397291E-2    2.790772351052666E-1    4.721705175293562E-1
 6.518039266375000E9    -2.161121087879130E-1   -4.567118954690488E-3    2.021878855719002E-2   -1.326720708872540E-2    2.069143563405705E-2   -1.260309273736853E-2    2.799437637937322E-1    4.716990079936227E-1
 6.518051086250000E9    -2.158933488245681E-1   -4.535607336013587E-3    2.040577909980848E-2   -1.348433409154777E-2    2.087705461220784E-2   -1.273033898216991E-2    2.806349898304865E-1    4.709893574381545E-1
 6.518062906125000E9    -2.155787188691033E-1   -4.340199848352960E-3    2.046909740179782E-2   -1.360973600661062E-2    2.096166249434437E-2   -1.289349493634004E-2    2.816109992366317E-1    4.704383465269152E-1
 6.518074726000000E9    -2.153027553365926E-1   -4.348954589492766E-3    2.060252111431707E-2   -1.376259470623154E-2    2.107728719543008E-2   -1.298223197825983E-2    2.825516549195785E-1    4.700008927368110E-1
 6.518086545875000E9    -2.150869292065214E-1   -4.379778892493943E-3    2.083544463079171E-2   -1.395785452614348E-2    2.122416817800650E-2   -1.326846303711992E-2    2.833111882550346E-1    4.692908169851368E-1
 6.518098365750000E9    -2.148758841690039E-1   -4.243770318497786E-3    2.094303114181724E-2   -1.413553624803807E-2    2.127199967257681E-2   -1.346581727004966E-2    2.843668039868060E-1    4.688212930287020E-1
